! VERSION = 6.00
BEGIN_HEADER
 ICCAP_INPUTS
  VG         V  B GROUND SMU4 0.001 LIN        2    0          -5         6    -1        
  VS         V  E GROUND SMU2 0.1 CON        0
  VD         V  S GROUND SMU1 0.1 LIN        1    0          -5         101  -0.05     
  VB         V  C GROUND SMU3 0.1 LIN        3    0          2.5        2    2.5       
 ICCAP_OUTPUTS
  ID         I  S GROUND SMU1 B
  IB         I  C GROUND SMU3 B
  IG         I  B GROUND SMU4 B
END_HEADER

BEGIN_DB
 ICCAP_VAR VG         0              
 ICCAP_VAR VS         0              
 ICCAP_VAR VB         0              

 #VD              ID              IB              IG             
  0               -1.0391e-009    -1.6873e-008    -1.4232e-009   
  -0.05           -3.296e-010     -1.9245e-008    3.1792e-009    
  -0.1            -8.344e-010     -1.6252e-008    2.3171e-009    
  -0.15           2.3554e-009     -7.806e-009     4.958e-010     
  -0.2            5.989e-010      8.52e-009       -2.1513e-009   
  -0.25           -3.05e-010      -1.9017e-008    3.1809e-009    
  -0.3            -8.218e-010     -1.6396e-008    2.3745e-009    
  -0.35           2.3541e-009     -7.48e-009      4.696e-010     
  -0.4            5.817e-010      8.544e-009      -2.1718e-009   
  -0.45           -2.903e-010     -1.8794e-008    3.1886e-009    
  -0.5            -8.104e-010     -1.6242e-008    2.4042e-009    
  -0.55           2.3509e-009     -7.3e-009       4.531e-010     
  -0.6            5.659e-010      8.512e-009      -1.579e-009    
  -0.65           -1.7327e-009    5.649e-009      -1.5564e-009   
  -0.7            -7.885e-010     -1.6484e-008    2.4995e-009    
  -0.75           2.1088e-009     -7.04e-009      1.5242e-009    
  -0.8            5.29e-010       8.428e-009      -1.6023e-009   
  -0.85           -1.7781e-009    5.685e-009      -1.5152e-009   
  -0.9            -7.626e-010     -1.6797e-008    2.5719e-009    
  -0.95           2.1522e-009     -6.633e-009     1.4785e-009    
  -1              4.974e-010      8.324e-009      -1.6179e-009   
  -1.05           6.464e-010      8.522e-009      -2.0611e-009   
  -1.1            -3.763e-010     -1.9304e-008    3.1675e-009    
  -1.15           -8.661e-010     -1.6655e-008    2.2047e-009    
  -1.2            2.362e-009      -8.082e-009     5.446e-010     
  -1.25           -6.857e-010     -1.7041e-008    2.763e-009     
  -1.3            2.2454e-009     -5.472e-009     1.3613e-009    
  -1.35           3.963e-010      8.187e-009      -1.6601e-009   
  -1.4            5.553e-010      8.443e-009      -1.5839e-009   
  -1.45           -1.726e-009     5.667e-009      -1.5484e-009   
  -1.5            -7.851e-010     -1.6471e-008    2.4976e-009    
  -1.55           2.103e-009      -6.973e-009     1.5101e-009    
  -1.6            5.217e-010      8.35e-009       -1.6053e-009   
  -1.65           6.674e-010      8.68e-009       -2.0119e-009   
  -1.7            -4.041e-010     -1.9168e-008    3.1471e-009    
  -1.75           -8.844e-010     -1.7027e-008    2.1305e-009    
  -1.8            2.3672e-009     -8.573e-009     5.776e-010     
  -1.85           -7.127e-010     -1.713e-008     2.7091e-009    
  -1.9            2.2263e-009     -5.715e-009     1.3896e-009    
  -1.95           4.268e-010      8.21e-009       -1.6489e-009   
  -2              5.879e-010      8.485e-009      -1.5716e-009   
  -2.05           -1.6892e-009    5.66e-009       -1.5745e-009   
  -2.1            -8.031e-010     -1.6658e-008    2.4144e-009    
  -2.15           2.3412e-009     -7.08e-009      4.278e-010     
  -2.2            5.52e-010       8.382e-009      -2.1974e-009   
  -2.25           -2.708e-010     -1.8424e-008    3.2138e-009    
  -2.3            -8.002e-010     -1.6492e-008    2.4539e-009    
  -2.35           2.0782e-009     -6.726e-009     1.5389e-009    
  -2.4            5.383e-010      8.352e-009      -1.5913e-009   
  -2.45           -1.7518e-009    5.62e-009       -1.5293e-009   
  -2.5            -7.765e-010     -1.6787e-008    2.5328e-009    
  -2.55           2.1309e-009     -6.69e-009      1.4914e-009    
  -2.6            5.087e-010      8.317e-009      -1.6069e-009   
  -2.65           6.602e-010      8.551e-009      -2.0364e-009   
  -2.7            -3.956e-010     -1.9427e-008    3.1592e-009    
  -2.75           -8.787e-010     -1.6764e-008    2.153e-009     
  -2.8            2.3652e-009     -8.366e-009     5.618e-010     
  -2.85           -6.998e-010     -1.7169e-008    2.7314e-009    
  -2.9            2.235e-009      -5.51e-009      1.3816e-009    
  -2.95           4.17e-010       8.229e-009      -1.6507e-009   
  -3              5.771e-010      8.477e-009      -1.5745e-009   
  -3.05           -1.7083e-009    5.666e-009      -1.564e-009    
  -3.1            -8.009e-010     -1.6449e-008    2.4457e-009    
  -3.15           2.341e-009      -6.906e-009     4.121e-010     
  -3.2            5.408e-010      8.374e-009      -1.5918e-009   
  -3.25           -1.7581e-009    5.674e-009      -1.5299e-009   
  -3.3            -7.763e-010     -1.6652e-008    2.5219e-009    
  -3.35           2.125e-009      -6.819e-009     1.4923e-009    
  -3.4            5.073e-010      8.307e-009      -1.6065e-009   
  -3.45           6.544e-010      8.571e-009      -2.0361e-009   
  -3.5            -3.954e-010     -1.9265e-008    3.1619e-009    
  -3.55           -8.797e-010     -1.6693e-008    2.172e-009     
  -3.6            2.3636e-009     -8.363e-009     5.613e-010     
  -3.65           -7.055e-010     -1.7139e-008    2.7434e-009    
  -3.7            2.2369e-009     -5.716e-009     1.3758e-009    
  -3.75           4.192e-010      8.208e-009      -1.6512e-009   
  -3.8            5.766e-010      8.461e-009      -1.5749e-009   
  -3.85           -1.7135e-009    5.621e-009      -1.5624e-009   
  -3.9            -7.998e-010     -1.6555e-008    2.4669e-009    
  -3.95           2.0813e-009     -6.875e-009     1.5308e-009    
  -4              5.382e-010      8.359e-009      -1.5931e-009   
  -4.05           -1.756e-009     5.646e-009      -1.5308e-009   
  -4.1            -7.728e-010     -1.6668e-008    2.5466e-009    
  -4.15           2.1345e-009     -6.694e-009     1.4879e-009    
  -4.2            5.052e-010      8.332e-009      -1.613e-009    
  -4.25           6.531e-010      8.572e-009      -2.0409e-009   
  -4.3            -3.922e-010     -1.9459e-008    3.1644e-009    
  -4.35           -8.791e-010     -1.66e-008      2.1823e-009    
  -4.4            2.3586e-009     -8.269e-009     5.58e-010      
  -4.45           -7.038e-010     -1.6913e-008    2.7514e-009    
  -4.5            2.2454e-009     -5.509e-009     1.3719e-009    
  -4.55           4.155e-010      8.155e-009      -1.6566e-009   
  -4.6            5.685e-010      8.404e-009      -1.5752e-009   
  -4.65           -1.721e-009     5.68e-009       -1.5595e-009   
  -4.7            -8.008e-010     -1.6683e-008    2.4744e-009    
  -4.75           2.0957e-009     -7.035e-009     1.5281e-009    
  -4.8            5.359e-010      8.322e-009      -1.595e-009    
  -4.85           -1.7682e-009    5.691e-009      -1.5257e-009   
  -4.9            -7.728e-010     -1.6695e-008    2.5526e-009    
  -4.95           2.1417e-009     -6.716e-009     1.4855e-009    
  -5              5.014e-010      8.285e-009      -1.6108e-009   
END_DB

BEGIN_DB
 ICCAP_VAR VG         -1             
 ICCAP_VAR VS         0              
 ICCAP_VAR VB         0              

 #VD              ID              IB              IG             
  0               -9.74e-009      -1.8041e-008    -1.5595e-009   
  -0.05           -1.697e-007     -1.6723e-008    1.2865e-009    
  -0.1            -2.0902e-007    -1.1216e-008    3.2002e-009    
  -0.15           -2.2311e-007    -1.7557e-008    3.0836e-009    
  -0.2            -2.2856e-007    -1.8891e-008    2.6929e-009    
  -0.25           -2.3493e-007    -1.7514e-008    2.0694e-009    
  -0.3            -2.4182e-007    -1.3012e-008    3.1847e-009    
  -0.35           -2.4648e-007    -1.8641e-008    2.9813e-009    
  -0.4            -2.513e-007     -1.8647e-008    2.4976e-009    
  -0.45           -2.5641e-007    -1.682e-008     1.8467e-009    
  -0.5            -2.6083e-007    -1.5199e-008    3.1448e-009    
  -0.55           -2.6402e-007    -1.953e-008     2.8433e-009    
  -0.6            -2.6894e-007    -1.821e-008     2.2698e-009    
  -0.65           -2.734e-007     -1.6613e-008    1.654e-009     
  -0.7            -2.8028e-007    -1.7442e-008    3.0743e-009    
  -0.75           -2.8583e-007    -1.9219e-008    2.677e-009     
  -0.8            -2.8712e-007    -1.7423e-008    2.0472e-009    
  -0.85           -2.8843e-007    -1.3351e-008    3.1827e-009    
  -0.9            -2.9195e-007    -1.8853e-008    2.9712e-009    
  -0.95           -2.9311e-007    -1.8696e-008    2.4766e-009    
  -1              -2.9743e-007    -1.6759e-008    1.8294e-009    
  -1.05           -3.0415e-007    -1.5721e-008    3.1411e-009    
  -1.1            -3.0452e-007    -1.9563e-008    2.8283e-009    
  -1.15           -3.0583e-007    -1.7855e-008    2.2515e-009    
  -1.2            -3.1553e-007    -1.6805e-008    1.6485e-009    
  -1.25           -3.1474e-007    -1.7576e-008    3.0671e-009    
  -1.3            -3.1646e-007    -1.9258e-008    2.6546e-009    
  -1.35           -3.2052e-007    -1.741e-008     2.0196e-009    
  -1.4            -3.2325e-007    -1.3397e-008    3.1813e-009    
  -1.45           -3.2594e-007    -1.9264e-008    2.9563e-009    
  -1.5            -3.2888e-007    -1.8736e-008    2.4495e-009    
  -1.55           -3.3417e-007    -1.6691e-008    1.808e-009     
  -1.6            -3.3545e-007    -1.584e-008     3.1348e-009    
  -1.65           -3.3752e-007    -1.9608e-008    2.8152e-009    
  -1.7            -3.3953e-007    -1.7923e-008    2.2339e-009    
  -1.75           -3.4319e-007    -1.6843e-008    1.6338e-009    
  -1.8            -3.4452e-007    -1.7895e-008    3.0602e-009    
  -1.85           -3.4701e-007    -1.9212e-008    2.6381e-009    
  -1.9            -3.5041e-007    -1.7476e-008    2.0025e-009    
  -1.95           -3.5258e-007    -1.3813e-008    3.1735e-009    
  -2              -3.5456e-007    -1.9331e-008    2.9411e-009    
  -2.05           -3.5799e-007    -1.8666e-008    2.4261e-009    
  -2.1            -3.5875e-007    -1.6723e-008    1.7885e-009    
  -2.15           -3.6503e-007    -1.5833e-008    3.1286e-009    
  -2.2            -3.6244e-007    -1.9514e-008    2.79e-009      
  -2.25           -3.6622e-007    -1.7916e-008    2.1992e-009    
  -2.3            -3.7291e-007    -1.1931e-008    3.1963e-009    
  -2.35           -3.7295e-007    -1.8082e-008    3.0427e-009    
  -2.4            -3.7306e-007    -1.923e-008     2.6048e-009    
  -2.45           -3.819e-007     -1.7141e-008    1.9666e-009    
  -2.5            -3.7884e-007    -1.4076e-008    3.172e-009     
  -2.55           -3.812e-007     -1.9543e-008    2.9251e-009    
  -2.6            -3.8194e-007    -1.8454e-008    2.4001e-009    
  -2.65           -3.8622e-007    -1.6629e-008    1.7648e-009    
  -2.7            -3.8849e-007    -1.6307e-008    3.1214e-009    
  -2.75           -3.8784e-007    -1.9476e-008    2.7706e-009    
  -2.8            -3.9073e-007    -1.7851e-008    2.1685e-009    
  -2.85           -3.9469e-007    -1.2118e-008    3.1955e-009    
  -2.9            -3.961e-007     -1.8192e-008    3.0261e-009    
  -2.95           -3.9666e-007    -1.8558e-008    2.5782e-009    
  -3              -3.9954e-007    -1.696e-008     1.9375e-009    
  -3.05           -4.104e-007     -1.4353e-008    3.1672e-009    
  -3.1            -4.0482e-007    -1.9738e-008    2.9019e-009    
  -3.15           -4.0549e-007    -1.8085e-008    2.346e-009     
  -3.2            -4.1598e-007    -1.6462e-008    1.7288e-009    
  -3.25           -4.1034e-007    -1.6924e-008    3.1142e-009    
  -3.3            -4.1103e-007    -1.9398e-008    2.7412e-009    
  -3.35           -4.1345e-007    -1.7481e-008    2.1254e-009    
  -3.4            -4.1655e-007    -1.2494e-008    3.1962e-009    
  -3.45           -4.1909e-007    -1.8885e-008    3.0237e-009    
  -3.5            -4.1852e-007    -1.8554e-008    2.5459e-009    
  -3.55           -4.2159e-007    -1.6685e-008    1.8963e-009    
  -3.6            -4.2523e-007    -1.4676e-008    3.1691e-009    
  -3.65           -4.2505e-007    -1.9794e-008    2.8933e-009    
  -3.7            -4.274e-007     -1.8297e-008    2.3242e-009    
  -3.75           -4.3094e-007    -1.6419e-008    1.6814e-009    
  -3.8            -4.3239e-007    -1.7119e-008    3.1044e-009    
  -3.85           -4.3308e-007    -1.9646e-008    2.7204e-009    
  -3.9            -4.3613e-007    -1.7637e-008    2.0886e-009    
  -3.95           -4.3839e-007    -1.2824e-008    3.1939e-009    
  -4              -4.4069e-007    -1.9027e-008    3.0058e-009    
  -4.05           -4.4188e-007    -1.8493e-008    2.5164e-009    
  -4.1            -4.442e-007     -1.6573e-008    1.8621e-009    
  -4.15           -4.4647e-007    -1.5265e-008    3.1638e-009    
  -4.2            -4.4818e-007    -1.9794e-008    2.876e-009     
  -4.25           -4.4896e-007    -1.7893e-008    2.2985e-009    
  -4.3            -4.5282e-007    -1.6502e-008    1.6738e-009    
  -4.35           -4.594e-007     -1.723e-008     3.0963e-009    
  -4.4            -4.5306e-007    -1.9285e-008    2.699e-009     
  -4.45           -4.6067e-007    -1.7235e-008    2.0614e-009    
  -4.5            -4.62e-007      -1.3274e-008    3.1957e-009    
  -4.55           -4.6539e-007    -1.9034e-008    2.9919e-009    
  -4.6            -4.6342e-007    -1.8708e-008    2.4928e-009    
  -4.65           -4.6717e-007    -1.6787e-008    1.837e-009     
  -4.7            -4.6827e-007    -1.5161e-008    3.1568e-009    
  -4.75           -4.7128e-007    -1.9491e-008    2.8496e-009    
  -4.8            -4.7219e-007    -1.7689e-008    2.2682e-009    
  -4.85           -4.7555e-007    -1.6498e-008    1.6479e-009    
  -4.9            -4.7849e-007    -1.7717e-008    3.0811e-009    
  -4.95           -4.7926e-007    -1.9359e-008    2.6816e-009    
  -5              -4.8134e-007    -1.7017e-008    2.042e-009     
END_DB

BEGIN_DB
 ICCAP_VAR VG         -2             
 ICCAP_VAR VS         0              
 ICCAP_VAR VB         0              

 #VD              ID              IB              IG             
  0               -4.8887e-007    8.441e-009      -2.2673e-009   
  -0.05           -3.6387e-005    -1.8002e-008    6.858e-010     
  -0.1            -7.104e-005     -8.034e-009     3.1918e-009    
  -0.15           -0.000104506    -1.597e-008     3.1216e-009    
  -0.2            -0.00013676     -1.911e-008     -1.51e-011     
  -0.25           -0.00016746     8.623e-009      -1.856e-009    
  -0.3            -0.00019685     7.965e-009      -1.6464e-009   
  -0.35           -0.00022506     -1.7369e-008    1.9761e-009    
  -0.4            -0.00025146     -1.9273e-008    2.7644e-009    
  -0.45           -0.00027625     -1.459e-008     3.1583e-009    
  -0.5            -0.00029897     -1.7705e-008    2.1106e-009    
  -0.55           -0.0003199      -1.9231e-008    2.8524e-009    
  -0.6            -0.0003389      -1.331e-008     3.1791e-009    
  -0.65           -0.00035548     -1.8397e-008    2.2319e-009    
  -0.7            -0.00037018     -1.9178e-008    2.9308e-009    
  -0.75           -0.00038296     -1.1938e-008    3.1948e-009    
  -0.8            -0.00039333     -1.8174e-008    2.3723e-009    
  -0.85           -0.00040221     -1.8478e-008    2.9994e-009    
  -0.9            -0.00040917     -1.7059e-008    1.6942e-009    
  -0.95           -0.00041492     -1.8712e-008    2.4867e-009    
  -1              -0.00041985     -1.7746e-008    3.0597e-009    
  -1.05           -0.00042362     -1.68e-008      1.7876e-009    
  -1.1            -0.00042681     -1.8846e-008    2.5957e-009    
  -1.15           -0.00043        -1.682e-008     3.1068e-009    
  -1.2            -0.00043224     -1.7033e-008    1.9002e-009    
  -1.25           -0.00043444     -1.9165e-008    2.6883e-009    
  -1.3            -0.00043651     -1.5187e-008    3.1432e-009    
  -1.35           -0.0004378      -1.7333e-008    2.0124e-009    
  -1.4            -0.0004393      -1.9331e-008    2.7921e-009    
  -1.45           -0.00044093     -1.4102e-008    3.1721e-009    
  -1.5            -0.00044196     -1.7996e-008    2.1434e-009    
  -1.55           -0.00044317     -1.9472e-008    2.8826e-009    
  -1.6            -0.00044428     -1.2915e-008    3.1925e-009    
  -1.65           -0.00044466     -1.8039e-008    2.2776e-009    
  -1.7            -0.00044597     -1.9113e-008    2.9644e-009    
  -1.75           -0.00044671     -1.6908e-008    1.6219e-009    
  -1.8            -0.00044769     -1.8498e-008    2.3981e-009    
  -1.85           -0.00044894     -1.8284e-008    3.0259e-009    
  -1.9            -0.00044949     -1.6931e-008    1.712e-009     
  -1.95           -0.00045021     -1.8728e-008    2.5038e-009    
  -2              -0.00045159     -1.7448e-008    3.0761e-009    
  -2.05           -0.00045216     -1.6815e-008    1.8203e-009    
  -2.1            -0.00045313     -1.8698e-008    2.6286e-009    
  -2.15           -0.00045404     -1.6345e-008    3.1228e-009    
  -2.2            -0.00045475     -1.6809e-008    1.9225e-009    
  -2.25           -0.00045514     -1.9273e-008    2.7376e-009    
  -2.3            -0.00045588     -1.4926e-008    3.1544e-009    
  -2.35           -0.00045646     -1.7741e-008    2.058e-009     
  -2.4            -0.0004575      -1.924e-008     2.8275e-009    
  -2.45           -0.00045817     -1.3791e-008    3.1786e-009    
  -2.5            -0.00045832     -1.7987e-008    2.2003e-009    
  -2.55           -0.00045917     -1.9322e-008    2.9127e-009    
  -2.6            -0.0004598      -1.2652e-008    3.1947e-009    
  -2.65           -0.00046009     -1.8502e-008    2.3278e-009    
  -2.7            -0.00046066     -1.8922e-008    2.9826e-009    
  -2.75           -0.00046131     -1.7012e-008    1.6657e-009    
  -2.8            -0.00046176     -1.838e-008     2.448e-009     
  -2.85           -0.00046228     -1.7792e-008    3.0407e-009    
  -2.9            -0.00046261     -1.7079e-008    1.7649e-009    
  -2.95           -0.000463       -1.8328e-008    2.5622e-009    
  -3              -0.00046396     -1.6975e-008    3.0906e-009    
  -3.05           -0.00046417     -1.684e-008     1.8752e-009    
  -3.1            -0.00046465     -1.8955e-008    2.6623e-009    
  -3.15           -0.00046538     -1.5866e-008    3.13e-009      
  -3.2            -0.00046532     -1.7372e-008    1.9991e-009    
  -3.25           -0.0004659      -1.9151e-008    2.763e-009     
  -3.3            -0.00046666     -1.4659e-008    3.1597e-009    
  -3.35           -0.00046661     -1.7564e-008    2.1341e-009    
  -3.4            -0.00046737     -1.9199e-008    2.8577e-009    
  -3.45           -0.00046777     -1.3166e-008    3.1848e-009    
  -3.5            -0.00046787     -1.8077e-008    2.2423e-009    
  -3.55           -0.00046852     -1.8924e-008    2.9353e-009    
  -3.6            -0.00046869     -1.7191e-008    1.6192e-009    
  -3.65           -0.00046899     -1.8578e-008    2.3764e-009    
  -3.7            -0.0004697      -1.8422e-008    3.0023e-009    
  -3.75           -0.00046965     -1.7189e-008    1.7114e-009    
  -3.8            -0.00047021     -1.8717e-008    2.4949e-009    
  -3.85           -0.00047067     -1.7556e-008    3.059e-009     
  -3.9            -0.00047082     -1.7029e-008    1.8081e-009    
  -3.95           -0.00047118     -1.865e-008     2.5998e-009    
  -4              -0.00047198     -1.6571e-008    3.1026e-009    
  -4.05           -0.00047213     -1.7221e-008    1.9166e-009    
  -4.1            -0.00047235     -1.8939e-008    2.701e-009     
  -4.15           -0.00047292     -1.5308e-008    3.1448e-009    
