! VERSION = 6.00
BEGIN_HEADER
 ICCAP_INPUTS
  VG         V  B GROUND SMU4 0.001 LIN        2    0          5          6    1         
  VS         V  E GROUND SMU2 0.1 CON        0
  VD         V  S GROUND SMU1 0.1 LIN        1    0          5          101  0.05      
  VB         V  C GROUND SMU3 0.1 LIN        3    0          -2.5       2    -2.5      
 ICCAP_OUTPUTS
  ID         I  S GROUND SMU1 B
  IB         I  C GROUND SMU3 B
  IG         I  B GROUND SMU4 B
END_HEADER

BEGIN_DB
 ICCAP_VAR VG         0              
 ICCAP_VAR VS         0              
 ICCAP_VAR VB         0              

 #VD              ID              IB              IG             
  0               -3.7164e-008    2.7742e-007     1.1431e-009    
  0.05            -3.9502e-007    3.6454e-007     2.2547e-009    
  0.1             -3.9384e-007    1.3287e-007     -2.5775e-009   
  0.15            -6.968e-008     1.734e-008      -5.5649e-008   
  0.2             -7.988e-008     9.8e-009        -1.109e-008    
  0.25            2.5818e-008     4.0705e-007     -4.652e-008    
  0.3             7.413e-009      5.0409e-007     -1.1154e-007   
  0.35            4.5893e-008     4.5431e-007     -6.3161e-007   
  0.4             4.449e-008      5.459e-008      -1.092e-008    
  0.45            2.205e-008      5.1021e-007     -2.061e-008    
  0.5             1.1719e-007     5.085e-007      -1.4042e-007   
  0.55            3.914e-009      9.34e-009       -1.8267e-008   
  0.6             8.91e-009       1.0987e-007     -3.162e-008    
  0.65            2.065e-008      5.1344e-007     -5.13e-009     
  0.7             4.9e-009        5.0865e-007     3.09e-010      
  0.75            1.3276e-007     1.8861e-007     -6.087e-008    
  0.8             5.339e-008      5.1818e-007     -3.57e-008     
  0.85            2.628e-008      5.1339e-007     -6.77e-009     
  0.9             5.07e-009       5.122e-007      8.4e-011       
  0.95            9.5431e-008     4.34e-009       -6.4454e-007   
  1               2.307e-008      2.053e-008      -6.18e-009     
  1.05            5.11e-009       5.1051e-007     1.95e-010      
  1.1             1.3484e-007     1.8654e-007     -6.673e-008    
  1.15            5.607e-008      5.1892e-007     -3.946e-008    
  1.2             2.808e-008      5.1291e-007     -7.9e-009      
  1.25            5.18e-009       5.1504e-007     -8.5e-011      
  1.3             3.821e-009      6.81e-009       -2.5388e-007   
  1.35            1.3458e-007     4.9279e-007     -1.302e-008    
  1.4             2.116e-008      5.1716e-007     -2.331e-008    
  1.45            4.15e-009       5.1004e-007     -1.956e-008    
  1.5             1.3771e-007     1.2765e-007     -3.751e-007    
  1.55            1.1864e-007     4.2602e-007     -2.5451e-007   
  1.6             4.805e-009      1.292e-008      -2.5145e-007   
  1.65            1.3646e-007     5.0531e-007     -1.887e-008    
  1.7             2.657e-008      5.1558e-007     -2.567e-008    
  1.75            4.48e-009       5.1116e-007     -5.7826e-007   
  1.8             1.3606e-007     1.7875e-007     -2.6e-008      
  1.85            4.71e-009       5.132e-007      -5.9714e-007   
  1.9             1.3672e-007     1.5519e-007     -2.907e-008    
  1.95            1.488e-008      5.1135e-007     -1.2053e-007   
  2               1.3745e-007     1.1813e-007     -9.266e-008    
  2.05            5.841e-008      5.1883e-007     -2.115e-008    
  2.1             3.082e-008      5.1678e-007     -2.601e-008    
  2.15            4.37e-009       5.1225e-007     -2.0381e-008   
  2.2             1.4115e-007     1.2889e-007     -3.9568e-007   
  2.25            1.24e-007       4.0473e-007     -2.5006e-007   
  2.3             5.414e-009      1.854e-008      -5.19e-010     
  2.35            1.299e-007      3.8258e-007     -1.968e-008    
  2.4             2.684e-008      5.1646e-007     -2.626e-008    
  2.45            4.6e-009        5.1396e-007     -5.793e-007    
  2.5             1.3916e-007     1.8112e-007     -2.671e-008    
  2.55            4.85e-009       5.1547e-007     -6.0731e-007   
  2.6             1.3968e-007     1.5499e-007     -2.863e-008    
  2.65            1.521e-008      5.1631e-007     -1.2048e-007   
  2.7             7.06e-009       1.1922e-007     -2.5895e-007   
  2.75            5.879e-009      2.394e-008      -2.367e-008    
  2.8             8.11e-009       1.6304e-007     -2.7262e-007   
  2.85            6.962e-009      3.535e-008      -2.553e-007    
  2.9             1.4033e-007     5.0628e-007     -1.925e-008    
  2.95            2.516e-008      5.1777e-007     -2.48e-008     
  3               4.55e-009       5.1468e-007     -2.0698e-008   
  3.05            4.987e-009      1.202e-008      -1.219e-007    
  3.1             1.4143e-007     5.1298e-007     -3.444e-008    
  3.15            2.09e-008       5.1604e-007     -6.84e-009     
  3.2             5.87e-009       5.1674e-007     -6.0086e-007   
  3.25            1.4088e-007     1.9655e-007     -1.255e-008    
  3.3             1.742e-008      5.1756e-007     -2.347e-008    
  3.35            4.25e-009       5.1698e-007     -2.0188e-008   
  3.4             1.2405e-007     4.4933e-007     -1.423e-008    
  3.45            2.079e-008      5.1988e-007     -2.459e-008    
  3.5             4.63e-009       5.1608e-007     -5.7238e-007   
  3.55            1.4184e-007     1.9163e-007     -2.608e-008    
  3.6             5.17e-009       5.1573e-007     -1.2806e-007   
  3.65            4.692e-009      1.808e-008      -2.0185e-007   
  3.7             9.05e-008       5.1575e-007     -8.099e-008    
  3.75            6.319e-008      5.2507e-007     -4.618e-008    
  3.8             3.356e-008      5.1813e-007     -1.183e-008    
  3.85            1.546e-008      5.1706e-007     -2.388e-008    
  3.9             4.55e-009       5.1697e-007     -2.0356e-008   
  3.95            1.4621e-007     1.2976e-007     -3.8373e-007   
  4               1.2574e-007     4.3214e-007     -2.6182e-007   
  4.05            5.368e-009      1.442e-008      -2.6118e-007   
  4.1             1.4139e-007     4.0822e-007     -5.72e-009     
  4.15            5.76e-009       5.1657e-007     -7.14e-010     
  4.2             4.119e-009      6.6e-009        -2.6467e-007   
  4.25            5.18e-009       5.1326e-007     -3.2267e-007   
  4.3             5.098e-009      1.229e-008      -3.1187e-007   
  4.35            1.3172e-007     3.4018e-007     -1.4241e-007   
  4.4             4.42e-009       1.379e-008      -2.1378e-008   
  4.45            1.3918e-007     3.7277e-007     -4.156e-008    
  4.5             3.041e-008      5.1974e-007     -9.63e-009     
  4.55            6.53e-009       5.1861e-007     -6.2202e-007   
  4.6             1.4465e-007     1.8534e-007     -1.63e-008     
  4.65            2.356e-008      5.1944e-007     -2.501e-008    
  4.7             4.55e-009       5.1625e-007     -2.1323e-008   
  4.75            1.4805e-007     1.2953e-007     -3.8742e-007   
  4.8             1.2698e-007     4.2917e-007     -2.6308e-007   
  4.85            5.381e-009      1.487e-008      -2.5913e-007   
  4.9             1.443e-007      4.064e-007      -6.51e-009     
  4.95            5.53e-009       5.1802e-007     -2.5648e-007   
  5               5.522e-009      1.635e-008      -2.5763e-007   
END_DB

BEGIN_DB
 ICCAP_VAR VG         1              
 ICCAP_VAR VS         0              
 ICCAP_VAR VB         0              

 #VD              ID              IB              IG             
  0               -9.446e-007     1.4169e-007     -9.973e-010    
  0.05            4.816e-005      2.2491e-007     -2.5101e-009   
  0.1             8.2718e-005     1.457e-008      1.2084e-009    
  0.15            0.000106279     -3e-010         -9.325e-010    
  0.2             0.00011939      -2.883e-009     -2.3887e-009   
  0.25            0.0001245       3.9781e-008     2.5438e-009    
  0.3             0.00012812      4.59e-009       -2.4678e-009   
  0.35            0.00012824      2.557e-008      1.7895e-009    
  0.4             0.00013119      2e-011          -1.6095e-009   
  0.45            0.00012933      5.7e-009        1.4029e-009    
  0.5             0.00013226      -2.15e-009      -1.2385e-009   
  0.55            0.00013124      5.11e-009       1.046e-009     
  0.6             0.00013111      4.464e-009      2.7049e-009    
  0.65            0.00013112      -5.9e-009       1.2057e-009    
  0.7             0.0001328       1.7735e-007     -2.0076e-009   
  0.75            0.00013247      1.236e-008      2.1234e-009    
  0.8             0.000133        -2.07e-009      -1.842e-009    
  0.85            0.00013175      6.09e-009       1.7217e-009    
  0.9             0.00013446      -2.75e-009      -1.5727e-009   
  0.95            0.00013429      -2.885e-009     -1.6819e-009   
  1               0.00013424      1.4386e-008     -1.4482e-009   
  1.05            0.00013359      1.3603e-008     2.3651e-009    
  1.1             0.00013329      7.0026e-008     2.0927e-009    
  1.15            0.00013384      -2.361e-009     -3.8082e-009   
  1.2             0.00013283      1.5101e-008     -8.7611e-009   
  1.25            0.00013473      1.4373e-008     -7.2286e-008   
  1.3             0.00013452      7.9865e-008     -1.01361e-007  
  1.35            0.00013474      8.418e-008      -1.15941e-007  
  1.4             0.00013465      5.501e-009      -1.10835e-007  
  1.45            0.000135        8.6195e-008     -1.15062e-007  
  1.5             0.00013512      8.332e-008      -1.12241e-007  
  1.55            0.00013521      8.826e-008      -1.14484e-007  
  1.6             0.00013542      8.4928e-008     -1.12487e-007  
  1.65            0.00013588      8.7996e-008     -6.645e-008    
  1.7             0.00013571      8.945e-008      -3.357e-008    
  1.75            0.00013597      8.659e-008      -1.14871e-007  
  1.8             0.00013574      5.69e-009       -9.1e-009      
  1.85            0.00013687      1.6853e-008     -3.198e-008    
  1.9             0.00013648      1.3684e-008     -3.9e-008      
  1.95            0.00013637      9.2123e-008     -1.4971e-008   
  2               0.00013571      9.245e-008      -1.015e-008    
  2.05            0.00013652      8.9526e-008     -1.4913e-008   
  2.1             0.00013588      9.188e-008      -1.0909e-007   
  2.15            0.00013682      9.078e-008      -1.8544e-008   
  2.2             0.00013749      2.2485e-008     -1.15187e-007  
  2.25            0.00013683      9.2582e-008     -2.529e-008    
  2.3             0.00013724      9.2383e-008     -1.7174e-008   
  2.35            0.00013762      7.6785e-008     1.46e-009      
  2.4             0.00013649      4.3795e-008     -8.28e-009     
  2.45            0.00013768      9.3573e-008     -3.1178e-008   
  2.5             0.00013829      2.775e-008      -1.419e-008    
  2.55            0.00013841      3.8998e-008     -1.3e-009      
  2.6             0.00013777      1.3375e-008     -1.045e-008    
  2.65            0.00013811      9.0616e-008     -1.5818e-008   
  2.7             0.00013872      2.054e-008      1.05e-009      
  2.75            0.00013767      2.4446e-008     -8.35e-009     
  2.8             0.00013841      9.051e-008      -2.2299e-008   
  2.85            0.00013757      8.3314e-008     1.47e-009      
  2.9             0.00013754      4.1801e-008     -8.91e-009     
  2.95            0.00013882      8.9561e-008     -1.2613e-008   
  3               0.0001387       -1.342e-009     -1.451e-008    
  3.05            0.00013933      2.8304e-008     -3.19e-009     
  3.1             0.00013907      3.837e-009      -1.192e-008    
  3.15            0.00013919      -1.5191e-008    -5.54e-009     
  3.2             0.00013972      -9.89e-010      -1.458e-008    
  3.25            0.00013952      -2.0631e-008    -1.173e-008    
  3.3             0.00013951      7.5035e-008     -1.491e-008    
  3.35            0.00013985      7.0392e-008     1.24e-009      
  3.4             0.00013968      6.5943e-008     -1.16968e-007  
  3.45            0.00013987      -3.5339e-008    -1.067e-008    
  3.5             0.00013987      -3.9392e-008    -3.77e-009     
  3.55            0.00014017      -2.8674e-008    -1.296e-008    
  3.6             0.00014027      -5.1996e-008    -8.06e-009     
  3.65            0.00014072      -4.1891e-008    -1.712e-008    
  3.7             0.00014065      -6.6376e-008    1.52e-009      
  3.75            0.0001396       -1.2067e-008    -9.68e-009     
  3.8             0.00013967      -3.0497e-008    1.49e-009      
  3.85            0.0001394       -3.9967e-008    -8.76e-009     
  3.9             0.0001399       -6.2122e-008    1.41e-009      
  3.95            0.00013983      -6.9535e-008    -8.27e-009     
  4               0.0001412       -1.2749e-007    -1.437e-008    
  4.05            0.00014119      -4.3318e-008    -3.483e-008    
  4.1             0.00014157      -1.5779e-007    1.37e-009      
  4.15            0.00014041      -1.3015e-007    -8e-009        
  4.2             0.00014038      -1.5795e-007    1.28e-009      
  4.25            0.00014077      -1.7155e-007    -8.71e-009     
  4.3             0.00014073      -2.0505e-007    1.1e-009       
  4.35            0.00014095      -2.2084e-007    -8.47e-009     
  4.4             0.00014116      -2.5783e-007    8.7e-010       
  4.45            0.0001413       -2.7371e-007    -8.61e-009     
  4.5             0.00014142      -3.1481e-007    2.9e-010       
  4.55            0.00014181      -3.3431e-007    -9.03e-009     
  4.6             0.00014218      -3.8044e-007    -4.7e-010      
  4.65            0.00014217      -3.9988e-007    -1.003e-008    
  4.7             0.00014238      -4.5184e-007    -1.44e-009     
  4.75            0.00014275      -4.7336e-007    -1.112e-008    
  4.8             0.00014293      -5.2963e-007    -3.68e-009     
  4.85            0.00014328      -5.5437e-007    -1.391e-008    
  4.9             0.00014326      -6.1542e-007    -8.45e-009     
  4.95            0.00014378      -6.4471e-007    -1.782e-008    
  5               0.0001437       -7.1051e-007    -1.367e-008    
END_DB

BEGIN_DB
 ICCAP_VAR VG         2              
 ICCAP_VAR VS         0              
 ICCAP_VAR VB         0              

 #VD              ID              IB              IG             
  0               -3.003e-006     4.15e-008       -1.855e-010    
  0.05            0.00015464      3.7053e-007     1.6965e-009    
  0.1             0.00030734      2.1395e-007     -2.2784e-009   
  0.15            0.00045657      6.636e-008      -1.4941e-009   
  0.2             0.00060327      2.0407e-007     2.442e-009     
  0.25            0.00074633      6.698e-008      1.5157e-009    
  0.3             0.00088702      1.7914e-007     -2.3597e-009   
  0.35            0.00102364      1.2812e-007     2.3277e-009    
  0.4             0.0011577       2.7085e-007     2.5537e-009    
  0.45            0.0012868       2.123e-008      -1.8539e-009   
  0.5             0.0014117       1.122e-008      1.7227e-009    
  0.55            0.0015355       -2.17e-009      -1.558e-009    
  0.6             0.0016518       4.93e-009       1.3241e-009    
  0.65            0.0017662       -2.22e-009      -1.1722e-009   
  0.7             0.0018741       -2.349e-009     1.9323e-009    
  0.75            0.0019748       2.697e-008      2.4242e-009    
  0.8             0.0020736       2.324e-008      -2.1631e-009   
  0.85            0.0021648       1.175e-008      2.1137e-009    
  0.9             0.0022512       -2.23e-009      -1.8395e-009   
  0.95            0.0023306       5.93e-009       -2.3674e-009   
  1               0.0024039       4.5958e-008     -2.4447e-009   
  1.05            0.0024706       1.5056e-008     -1.4226e-009   
  1.1             0.0025297       1.8539e-008     2.3656e-009    
  1.15            0.0025827       6.6431e-008     2.0816e-009    
  1.2             0.002631        -2.175e-009     -2.0079e-009   
  1.25            0.0026742       1.5838e-008     -2.2057e-009   
  1.3             0.0027053       5.092e-009      1.9416e-009    
  1.35            0.0027361       3.4396e-008     2.6954e-009    
  1.4             0.0027599       2.3674e-008     2.166e-009     
  1.45            0.0027809       -2.621e-009     -1.9476e-009   
  1.5             0.002801        1.3808e-008     -2.2636e-009   
  1.55            0.0028101       5.146e-009      1.8672e-009    
  1.6             0.0028264       1.1498e-008     -2.4984e-009   
  1.65            0.0028357       1.3603e-008     -1.8312e-009   
  1.7             0.0028439       1.348e-008      -2.3225e-009   
  1.75            0.0028505       1.4815e-008     -1.4445e-009   
  1.8             0.0028554       1.3679e-008     -1.9305e-009   
  1.85            0.0028627       1.3031e-008     -2.3846e-009   
  1.9             0.0028662       1.4417e-008     -1.5194e-009   
  1.95            0.0028724       1.3849e-008     -2.0349e-009   
  2               0.0028753       1.2604e-008     -2.4331e-009   
  2.05            0.0028797       1.4214e-008     -1.6114e-009   
  2.1             0.0028834       1.41e-008       -2.1395e-009   
  2.15            0.0028867       1.2201e-008     -2.4749e-009   
  2.2             0.0028899       1.378e-008      -1.7195e-009   
  2.25            0.0028926       1.4025e-008     -2.3405e-009   
  2.3             0.0028969       1.1691e-008     -1.6482e-009   
  2.35            0.0028996       1.3671e-008     -2.7207e-009   
  2.4             0.002901        1.3491e-008     -2.3172e-008   
  2.45            0.0029033       1.3233e-008     -3.0558e-008   
  2.5             0.0029051       1.3969e-008     -2.9e-008      
  2.55            0.002909        1.3687e-008     -2.3628e-008   
  2.6             0.002911        1.3663e-008     -1.8701e-008   
  2.65            0.0029132       1.4295e-008     -1.5139e-008   
  2.7             0.0029157       1.5496e-008     -1.2977e-008   
  2.75            0.0029184       1.2625e-008     -1.4162e-008   
  2.8             0.0029211       1.4703e-008     -1.3652e-008   
  2.85            0.0029232       1.6848e-008     -1.2956e-008   
  2.9             0.0029244       1.2828e-008     -3.3384e-008   
  2.95            0.0029266       1.3685e-008     -3.169e-008    
  3               0.0029298       1.3844e-008     -2.6471e-008   
  3.05            0.0029318       1.3336e-008     -2.1075e-008   
  3.1             0.0029338       1.381e-008      -1.6977e-008   
  3.15            0.0029357       1.4352e-008     -1.3638e-008   
  3.2             0.0029378       1.158e-008      -1.4741e-008   
  3.25            0.0029403       1.3426e-008     -1.5389e-008   
  3.3             0.0029432       1.4313e-008     -1.3128e-008   
  3.35            0.0029444       1.076e-008      -1.4421e-008   
  3.4             0.0029459       1.2017e-008     -1.399e-008    
  3.45            0.0029486       8.414e-009      -1.4826e-008   
  3.5             0.0029498       9.456e-009      -1.611e-008    
  3.55            0.0029507       8.483e-009      -1.3274e-008   
  3.6             0.0029541       3.372e-009      -1.4579e-008   
  3.65            0.0029554       -1.2478e-008    -1.4676e-008   
  3.7             0.0029577       -1.605e-008     -1.3102e-008   
  3.75            0.0029602       -1.9657e-008    -1.4185e-008   
  3.8             0.0029621       -2.7386e-008    -2.9282e-008   
  3.85            0.0029638       -3.2842e-008    -1.3989e-008   
  3.9             0.0029643       -4.314e-008     -1.5371e-008   
  3.95            0.002967        -5.3359e-008    -1.5051e-008   
  4               0.0029687       -6.8938e-008    -1.4425e-008   
  4.05            0.0029689       -8.4679e-008    -3.0663e-008   
  4.1             0.0029698       -1.02011e-007   -1.4933e-008   
  4.15            0.0029728       -1.2185e-007    -1.3214e-008   
