! VERSION = 6.00
BEGIN_HEADER
 ICCAP_INPUTS
  VG         V  B GROUND SMU4 0.001 LIN        1    0          5          101  0.05      
  VS         V  E GROUND SMU2 0.1 CON        0
  VB         V  C GROUND SMU3 0.1 LIN        3    0          -5         3    -2.5      
  VD         V  S GROUND SMU1 0.1 LIN        2    0.1        5          2    4.9       
 ICCAP_OUTPUTS
  IG         I  B GROUND SMU4 B
  ID         I  S GROUND SMU1 B
  IB         I  C GROUND SMU3 B
END_HEADER

BEGIN_DB
 ICCAP_VAR VS         0              
 ICCAP_VAR VB         0              
 ICCAP_VAR VD         0.1            

 #VG              IG              ID              IB             
  0               9.39e-010       1.2571e-009     1.2089e-008    
  0.05            1.7012e-009     -4.86e-010      -2.166e-008    
  0.1             2.3527e-009     1.2839e-009     -9.382e-009    
  0.15            -1.6009e-009    1.1758e-009     2.0886e-008    
  0.2             2.6401e-009     -1.2714e-009    5.335e-009     
  0.25            -1.6119e-009    1.1958e-009     2.0616e-008    
  0.3             2.6414e-009     -1.19e-009      5.293e-009     
  0.35            -1.6157e-009    1.4742e-009     2.0494e-008    
  0.4             -1.4125e-009    1.1214e-009     5.19e-009      
  0.45            -1.2957e-009    4.036e-009      6.948e-009     
  0.5             -6.92e-010      1.163e-008      -9.04e-010     
  0.55            -1.0412e-009    4.4457e-008     -9.704e-009    
  0.6             -1.0504e-009    1.5582e-007     1.4553e-008    
  0.65            2.6241e-009     5.2953e-007     -2.37e-008     
  0.7             1.8722e-009     1.6051e-006     1.035e-008     
  0.75            -2.3955e-009    5.0472e-006     2.4473e-008    
  0.8             2.6784e-009     1.2385e-005     1.108e-009     
  0.85            -1.3936e-009    2.6419e-005     1.9418e-008    
  0.9             -2.566e-009     4.5895e-005     7.282e-009     
  0.95            2.4151e-009     6.74e-005       -2.5116e-008   
  1               1.7436e-009     8.9645e-005     -4.146e-009    
  1.05            2.5036e-009     0.000109397     -9.094e-009    
  1.1             5.24e-011       0.00012703      1.07e-008      
  1.15            -2.358e-009     0.00014231      1.038e-008     
  1.2             -1.7773e-009    0.00015502      1.905e-009     
  1.25            -1.3162e-009    0.00016615      4.379e-009     
  1.3             -2.5808e-009    0.0001759       8.35e-009      
  1.35            2.3098e-009     0.00018426      -2.4853e-008   
  1.4             1.6035e-009     0.00019193      -5.033e-009    
  1.45            2.5615e-009     0.00019871      -9.385e-009    
  1.5             -2.2334e-009    0.00020511      1.1182e-008    
  1.55            -1.6185e-009    0.00021062      2.425e-009     
  1.6             -2.4801e-009    0.00021574      5.302e-009     
  1.65            -7.909e-010     0.00022041      -1.0111e-008   
  1.7             2.7102e-009     0.00022463      -1.5478e-008   
  1.75            2.3891e-009     0.00022874      -1.809e-009    
  1.8             1.7267e-009     0.00023243      -4.364e-009    
  1.85            2.5035e-009     0.00023585      -9.072e-009    
  1.9             -2.3107e-009    0.00023924      1.0489e-008    
  1.95            -1.7226e-009    0.00024217      2.187e-009     
  2               -1.2983e-009    0.000245        4.572e-009     
  2.05            -2.5872e-009    0.00024774      8.553e-009     
  2.1             2.035e-009      0.00025023      -1.5894e-008   
  2.15            2.3773e-009     0.00025264      -7.173e-009    
  2.2             5.57e-010       0.00025486      8.607e-009     
  2.25            -1.6357e-009    0.00025705      1.6749e-008    
  2.3             -2.4766e-009    0.00025906      5.225e-009     
  2.35            -7.931e-010     0.00026096      -9.917e-009    
  2.4             1.5324e-009     0.00026282      -1.9726e-008   
  2.45            2.602e-009      0.00026457      -9.359e-009    
  2.5             -2.118e-009     0.00026631      1.1566e-008    
  2.55            2.5261e-009     0.00026792      -2.4173e-008   
  2.6             -1.2868e-009    0.00026944      2.2834e-008    
  2.65            -2.5859e-009    0.0002709       8.968e-009     
  2.7             1.9602e-009     0.00027238      -1.6446e-008   
  2.75            2.4045e-009     0.0002737       -7.743e-009    
  2.8             -1.3047e-009    0.00027505      2.2392e-008    
  2.85            -2.5863e-009    0.00027627      8.687e-009     
  2.9             2.013e-009      0.00027755      -1.6203e-008   
  2.95            2.385e-009      0.00027862      -7.221e-009    
  3               -1.318e-009     0.00027978      2.1846e-008    
  3.05            -2.5817e-009    0.00028084      8.488e-009     
  3.1             2.2463e-009     0.00028189      -2.3838e-008   
  3.15            1.5812e-009     0.00028293      -5.355e-009    
  3.2             2.5763e-009     0.00028386      -9.3e-009      
  3.25            -2.1731e-009    0.00028489      1.1227e-008    
  3.3             -1.5864e-009    0.00028574      2.373e-009     
  3.35            -2.4862e-009    0.00028665      5.423e-009     
  3.4             1.659e-010      0.00028736      -1.231e-008    
  3.45            2.6984e-009     0.0002883       -2.1645e-008   
  3.5             2.3402e-009     0.00028917      -1.833e-009    
  3.55            1.7086e-009     0.0002899       -4.471e-009    
  3.6             2.5167e-009     0.00029058      -9.268e-009    
  3.65            -2.398e-009     0.00029137      2.3895e-008    
  3.7             -1.8735e-009    0.000292        1.262e-009     
  3.75            -9.948e-010     0.00029268      -9.886e-009    
  3.8             1.348e-010      0.00029324      -1.1973e-008   
  3.85            2.675e-009      0.00029403      -2.2175e-008   
  3.9             -1.4601e-009    0.00029468      1.9078e-008    
  3.95            -2.5454e-009    0.00029521      6.594e-009     
  4               2.4496e-009     0.00029587      -2.4261e-008   
  4.05            2.3367e-009     0.00029626      5.823e-009     
  4.1             -1.3748e-009    0.00029695      2.0562e-008    
  4.15            -2.5695e-009    0.0002975       7.793e-009     
  4.2             2.3495e-009     0.00029802      -2.4293e-008   
  4.25            1.6919e-009     0.00029853      -4.421e-009    
  4.3             2.5227e-009     0.000299        -9.332e-009    
  4.35            -2.2605e-009    0.00029956      1.0566e-008    
  4.4             -1.6749e-009    0.00029991      2.029e-009     
  4.45            -2.5566e-009    0.00030048      -5.709e-009    
  4.5             -9.465e-010     0.00030082      -9.974e-009    
  4.55            1.827e-010      0.00030121      -1.2414e-008   
  4.6             2.703e-009      0.00030174      -2.1559e-008   
  4.65            2.3695e-009     0.00030217      -1.939e-009    
  4.7             2.3809e-009     0.00030241      5.452e-009     
  4.75            5.467e-010      0.00030291      8.529e-009     
  4.8             -1.6427e-009    0.00030328      1.6509e-008    
  4.85            -1.2694e-009    0.00030365      5.143e-009     
  4.9             -2.591e-009     0.00030403      9.076e-009     
  4.95            1.9234e-009     0.00030437      -1.6762e-008   
  5               2.4201e-009     0.00030479      -8.008e-009    
END_DB

BEGIN_DB
 ICCAP_VAR VS         0              
 ICCAP_VAR VB         0              
 ICCAP_VAR VD         5              

 #VG              IG              ID              IB             
  0               1.0939e-009     1.5029e-009     8.625e-009     
  0.05            2.1596e-009     1.4033e-009     -1.0629e-008   
  0.1             -2.0326e-009    1.023e-009      1.59e-008      
  0.15            2.6625e-009     -6.526e-010     -2.4546e-008   
  0.2             -1.6876e-009    1.2042e-009     1.9691e-008    
  0.25            2.6594e-009     -1.1566e-009    4.759e-009     
  0.3             -1.6832e-009    1.3131e-009     1.9729e-008    
  0.35            -1.4695e-009    4.874e-010      4.71e-009      
  0.4             -1.3298e-009    1.7011e-009     6.093e-009     
  0.45            -2.5026e-009    5.9051e-009     8.154e-009     
  0.5             2.6963e-009     2.0595e-008     1.9588e-008    
  0.55            2.6254e-009     6.6116e-008     -1.331e-009    
  0.6             2.4418e-009     2.1356e-007     -1.2188e-008   
  0.65            -2.3893e-009    7.265e-007      4.881e-009     
  0.7             -1.1196e-009    2.2177e-006     -2.2324e-008   
  0.75            -1.4827e-009    6.5723e-006     -5.2949e-008   
  0.8             1.2904e-009     1.652e-005      -1.1433e-007   
  0.85            2.7042e-009     3.6139e-005     -2.2436e-007   
  0.9             2.6058e-009     6.8201e-005     -3.7949e-007   
  0.95            -9.544e-010     0.00011327      -6.124e-007    
  1               -1.2967e-009    0.00017058      -8.2303e-007   
  1.05            -1.6533e-009    0.00023732      -1.05838e-006  
  1.1             2.654e-009      0.00030981      -1.2862e-006   
  1.15            2.1935e-009     0.00039401      -1.4777e-006   
  1.2             1.5529e-009     0.00048241      -1.6615e-006   
  1.25            2.5914e-009     0.00057655      -1.8177e-006   
  1.3             2.7152e-009     0.00067643      -1.9237e-006   
  1.35            2.4339e-009     0.00077916      -2.0178e-006   
  1.4             1.8158e-009     0.00088554      -2.0753e-006   
  1.45            2.4626e-009     0.00099508      -2.1109e-006   
  1.5             2.7062e-009     0.00110874      -2.104e-006    
  1.55            -2.5882e-009    0.0012263       -2.0963e-006   
  1.6             -2.453e-009     0.001343        -2.0496e-006   
  1.65            -1.9669e-009    0.0014631       -1.987e-006    
  1.7             -1.438e-009     0.0015857       -1.9122e-006   
  1.75            -2.5469e-009    0.0017098       -1.825e-006    
  1.8             -2.5445e-009    0.0018335       -1.7388e-006   
  1.85            -2.1989e-009    0.0019608       -1.6329e-006   
  1.9             -1.6238e-009    0.0020896       -1.5237e-006   
  1.95            -2.4706e-009    0.0022193       -1.4119e-006   
  2               -2.5888e-009    0.0023493       -1.309e-006    
  2.05            -2.3869e-009    0.0024812       -1.1946e-006   
  2.1             -1.8623e-009    0.0026146       -1.0825e-006   
  2.15            2.0682e-009     0.0027463       -9.7428e-007   
  2.2             2.3229e-009     0.0028816       -8.7363e-007   
  2.25            2.6159e-009     0.0030167       -7.7757e-007   
  2.3             2.7018e-009     0.003153        -6.9151e-007   
  2.35            2.3881e-009     0.0032902       -6.0832e-007   
  2.4             1.7559e-009     0.0034269       -5.3182e-007   
  2.45            2.4899e-009     0.0035648       -4.6433e-007   
  2.5             2.7141e-009     0.003705        -3.8633e-007   
  2.55            2.5737e-009     0.0038442       -3.3264e-007   
  2.6             2.0349e-009     0.003983        -2.8167e-007   
  2.65            2.3578e-009     0.0041226       -2.3945e-007   
  2.7             2.6533e-009     0.0042644       -1.8759e-007   
  2.75            2.6855e-009     0.0044048       -1.5825e-007   
  2.8             2.3089e-009     0.0045472       -1.3e-007      
  2.85            1.6659e-009     0.0046883       -1.0733e-007   
  2.9             -2.2971e-009    0.0048332       -5.7105e-008   
  2.95            -1.7153e-009    0.0049735       -6.2472e-008   
  3               -1.3056e-009    0.0051145       -4.5799e-008   
  3.05            -2.5867e-009    0.0052561       -3.0254e-008   
  3.1             -2.4584e-009    0.0053968       -3.0451e-008   
  3.15            -1.965e-009     0.0055388       -2.1455e-008   
  3.2             -2.479e-009     0.0056804       -2.3491e-008   
  3.25            -2.5883e-009    0.0058223       -1.6687e-008   
  3.3             -1.9056e-009    0.0059648       -1.8013e-008   
  3.35            -1.0458e-009    0.0061086       -1.6378e-008   
  3.4             -1.4029e-009    0.0062508       -1.4636e-008   
  3.45            -3.199e-010     0.0063915       -1.3543e-008   
  3.5             -7.699e-010     0.0065351       -1.2481e-008   
  3.55            1.5688e-009     0.006675        -1.7658e-008   
  3.6             2.5918e-009     0.0068148       -1.0479e-008   
  3.65            -2.1494e-009    0.0069608       1.0652e-008    
  3.7             -1.5614e-009    0.0071014       1.927e-009     
  3.75            -2.4958e-009    0.0072432       4.944e-009     
  3.8             1.517e-010      0.0073811       -1.2249e-008   
  3.85            2.6952e-009     0.0075197       -2.2152e-008   
  3.9             -1.4779e-009    0.0076667       1.8404e-008    
  3.95            -2.5418e-009    0.0078082       6.223e-009     
  4               2.4872e-009     0.0079303       -2.4651e-008   
  4.05            6.514e-010      0.0080706       8.667e-009     
  4.1             -1.5078e-009    0.0081619       1.8093e-008    
  4.15            -2.5261e-009    0.0083014       5.863e-009     
  4.2             2.5221e-009     0.0084276       -2.4503e-008   
  4.25            -1.2818e-009    0.0086766       2.2728e-008    
  4.3             -2.5878e-009    0.0087567       9.055e-009     
  4.35            1.9527e-009     0.0088695       -1.6567e-008   
  4.4             2.409e-009      0.0090065       -7.819e-009    
  4.45            -1.2948e-009    0.0091435       2.2069e-008    
  4.5             -2.5877e-009    0.0093216       8.745e-009     
  4.55            2.2195e-009     0.0093904       -2.4104e-008   
  4.6             1.5278e-009     0.0095203       -5.937e-009    
  4.65            2.5976e-009     0.0097869       -9.227e-009    
  4.7             -2.1641e-009    0.0098732       1.1722e-008    
  4.75            1.243e-010      0.0099654       -1.1543e-008   
  4.8             2.6925e-009     0.0100743       -2.2177e-008   
  4.85            -1.4307e-009    0.0099894       1.8766e-008    
  4.9             2.3629e-009     0.011532        -7.089e-009    
  4.95            -1.3336e-009    0.012532        2.0716e-008    
  5               -2.5781e-009    0.012387        8.191e-009     
END_DB

BEGIN_DB
 ICCAP_VAR VS         0              
 ICCAP_VAR VB         -2.5           
 ICCAP_VAR VD         0.1            

 #VG              IG              ID              IB             
  0               1.1387e-009     1.6177e-009     -1.0143e-008   
  0.05            2.0342e-009     1.4372e-009     -8.715e-009    
  0.1             8.264e-010      2.6074e-009     8.069e-009     
  0.15            -1.5602e-009    1.9637e-009     1.3738e-008    
  0.2             1.746e-010      -1.2574e-009    5.665e-009     
  0.25            1.6905e-009     -4.479e-010     -2.1203e-008   
  0.3             2.3639e-009     1.3284e-009     -9.513e-009    
  0.35            -1.5862e-009    1.2239e-009     2.0686e-008    
  0.4             1.948e-010      -1.2448e-009    5.384e-009     
  0.45            1.7207e-009     -4.329e-010     -2.0824e-008   
  0.5             2.3532e-009     1.3322e-009     -9.338e-009    
  0.55            -1.6163e-009    1.2083e-009     2.0163e-008    
  0.6             2.649e-009      -1.2327e-009    5.362e-009     
  0.65            -1.6098e-009    1.2101e-009     2.0204e-008    
  0.7             2.6451e-009     -1.2349e-009    5.206e-009     
  0.75            -1.6022e-009    1.2121e-009     2.0307e-008    
  0.8             2.6434e-009     -1.224e-009     5.238e-009     
  0.85            -1.6009e-009    1.2788e-009     2.045e-008     
  0.9             -1.3963e-009    3.92e-010       5.176e-009     
  0.95            -1.2774e-009    1.7326e-009     6.934e-009     
  1               -2.5298e-009    6.9192e-009     8.696e-009     
  1.05            2.709e-009      2.4493e-008     2.0348e-008    
  1.1             2.6005e-009     6.9971e-008     -1.106e-009    
  1.15            -5.875e-010     1.8907e-007     1.0015e-008    
  1.2             1.8153e-009     5.3887e-007     -1.7698e-008   
  1.25            2.3593e-009     1.702e-006      1.7269e-008    
  1.3             -1.3376e-009    5.5849e-006     2.0521e-008    
  1.35            2.647e-009      1.4885e-005     -1.0149e-008   
  1.4             -2.0473e-009    3.2979e-005     1.2325e-008    
  1.45            -9.197e-010     5.7185e-005     -1.0149e-008   
  1.5             2.651e-009      8.3079e-005     -1.2657e-008   
  1.55            -1.3569e-009    0.000108676     2.0302e-008    
  1.6             -1.6485e-009    0.00013056      7.767e-009     
  1.65            -1.261e-009     0.00014896      5.038e-009     
  1.7             -2.5842e-009    0.00016472      8.839e-009     
  1.75            1.9369e-009     0.00017787      -1.6675e-008   
  1.8             2.4273e-009     0.00018957      -8.028e-009    
  1.85            6.066e-010      0.00019993      8.757e-009     
  1.9             -1.5583e-009    0.00020901      1.7221e-008    
  1.95            -2.5029e-009    0.00021699      5.545e-009     
  2               1.382e-010      0.00022392      -1.1696e-008   
  2.05            2.6975e-009     0.00023062      -2.1878e-008   
  2.1             -1.4496e-009    0.0002367       1.8607e-008    
  2.15            -2.5407e-009    0.00024213      6.653e-009     
  2.2             2.4882e-009     0.00024705      -2.4824e-008   
  2.25            -1.3102e-009    0.00025165      1.3385e-008    
  2.3             -2.5774e-009    0.00025605      8.55e-009      
  2.35            2.2719e-009     0.00026005      -2.4711e-008   
  2.4             1.5634e-009     0.00026378      -5.602e-009    
  2.45            2.5801e-009     0.00026729      -9.446e-009    
  2.5             -2.194e-009     0.00027073      1.1537e-008    
  2.55            -1.5757e-009    0.00027375      2.72e-009      
  2.6             -2.4927e-009    0.0002767       5.464e-009     
  2.65            1.598e-010      0.00027933      -1.1959e-008   
  2.7             2.7064e-009     0.00028208      -2.1432e-008   
  2.75            -1.471e-009     0.00028462      1.8012e-008    
  2.8             -2.5343e-009    0.000287        6.301e-009     
  2.85            2.5147e-009     0.00028925      -2.4595e-008   
  2.9             6.519e-010      0.00029144      8.764e-009     
  2.95            -1.4967e-009    0.00029348      1.7851e-008    
  3               -2.5255e-009    0.00029542      6.059e-009     
  3.05            2.5304e-009     0.00029736      -2.4695e-008   
  3.1             6.287e-010      0.00029915      8.749e-009     
  3.15            -1.5241e-009    0.00030095      1.757e-008     
  3.2             -2.5133e-009    0.00030254      5.872e-009     
  3.25            2.5465e-009     0.00030416      -2.4347e-008   
  3.3             -1.2815e-009    0.0003057       2.2786e-008    
  3.35            -2.5848e-009    0.00030717      8.834e-009     
  3.4             1.9663e-009     0.00030863      -1.6586e-008   
  3.45            2.411e-009      0.00030997      -7.884e-009    
  3.5             -1.2941e-009    0.00031126      2.2381e-008    
  3.55            -2.5817e-009    0.00031251      8.731e-009     
  3.6             2.1968e-009     0.00031369      -2.3652e-008   
  3.65            1.517e-009      0.00031496      -5.736e-009    
  3.7             2.5984e-009     0.00031606      -9.471e-009    
  3.75            -2.1171e-009    0.00031721      1.1515e-008    
  3.8             -1.5308e-009    0.00031817      2.706e-009     
  3.85            -2.5079e-009    0.00031921      5.742e-009     
  3.9             2.5482e-009     0.00032031      -2.3956e-008   
  3.95            5.952e-010      0.00032123      8.612e-009     
  4               -1.5722e-009    0.00032225      1.7285e-008    
  4.05            -2.4961e-009    0.00032305      5.365e-009     
  4.1             1.458e-010      0.00032381      -1.2014e-008   
  4.15            2.6889e-009     0.0003248       -2.2234e-008   
