! VERSION = 6.00
BEGIN_HEADER
 ICCAP_INPUTS
  VG         V  B GROUND SMU4 0.001 LIN        1    0          5          101  0.05      
  VS         V  E GROUND SMU2 0.1 CON        0
  VB         V  C GROUND SMU3 0.1 LIN        3    0          -5         3    -2.5      
  VD         V  S GROUND SMU1 0.1 LIN        2    0.1        5          2    4.9       
 ICCAP_OUTPUTS
  IG         I  B GROUND SMU4 B
  ID         I  S GROUND SMU1 B
  IB         I  C GROUND SMU3 B
END_HEADER

BEGIN_DB
 ICCAP_VAR VS         0              
 ICCAP_VAR VB         0              
 ICCAP_VAR VD         0.1            

 #VG              IG              ID              IB             
  0               -3.937e-008     -3.5623e-007    4.0263e-007    
  0.05            -4.0825e-009    -1.16739e-007   -5.1e-010      
  0.1             2.6387e-009     -3.7802e-007    3.7982e-007    
  0.15            2.6712e-009     -1.12e-009      3.7653e-007    
  0.2             2.2068e-009     -1.74e-008      3.7592e-007    
  0.25            1.5167e-009     -1.0105e-007    3.7575e-007    
  0.3             2.6708e-009     -2.0442e-007    3.7431e-007    
  0.35            2.7419e-009     -1e-010         3.7217e-007    
  0.4             2.4272e-009     -7.89e-009      3.7166e-007    
  0.45            1.7426e-009     -6.559e-008     3.7181e-007    
  0.5             2.5886e-009     -1.6427e-007    3.7491e-007    
  0.55            2.6979e-009     -2.121e-007     3.7114e-007    
  0.6             2.7265e-009     3.73e-009       3.6991e-007    
  0.65            2.3421e-009     2.85e-009       3.6942e-007    
  0.7             1.6473e-009     -2.433e-008     3.7157e-007    
  0.75            2.621e-009      -3.584e-008     3.7235e-007    
  0.8             2.7529e-009     3.638e-007      3.7177e-007    
  0.85            2.529e-009      7.763e-007      3.7251e-007    
  0.9             2.6982e-009     1.0134e-006     1.2853e-007    
  0.95            2.2265e-009     2.1868e-006     3.8818e-007    
  1               1.5354e-009     3.0126e-006     3.9067e-007    
  1.05            2.6608e-009     3.8345e-006     3.9167e-007    
  1.1             2.7448e-009     4.9427e-006     3.8636e-007    
  1.15            2.4409e-009     5.8941e-006     3.873e-007     
  1.2             1.7738e-009     6.7812e-006     3.8889e-007    
  1.25            2.5792e-009     7.5823e-006     3.9059e-007    
  1.3             2.7547e-009     8.5819e-006     3.8518e-007    
  1.35            2.6047e-009     9.4318e-006     3.8598e-007    
  1.4             2.026e-009      1.0246e-005     3.8786e-007    
  1.45            1.3817e-009     1.09671e-005    3.8985e-007    
  1.5             2.688e-009      1.1829e-005     1.22e-009      
  1.55            2.2229e-009     1.2576e-005     3.881e-007     
  1.6             1.5262e-009     1.3246e-005     3.8885e-007    
  1.65            -2.54e-011      1.3896e-005     1.143e-008     
  1.7             -1.8341e-009    1.4669e-005     1.0853e-007    
  1.75            -2.1336e-009    1.5361e-005     2.1003e-007    
  1.8             -2.4782e-009    1.6018e-005     3.0976e-007    
  1.85            -2.5674e-009    1.6639e-005     3.7559e-007    
  1.9             -2.3687e-009    1.7253e-005     3.865e-007     
  1.95            -1.8228e-009    1.7845e-005     3.8819e-007    
  2               -1.342e-009     1.8361e-005     3.9389e-007    
  2.05            2.732e-009      1.8656e-005     1.007e-007     
  2.1             2.3771e-009     1.9568e-005     3.8657e-007    
  2.15            1.6775e-009     2.0072e-005     3.8962e-007    
  2.2             2.6119e-009     2.0496e-005     3.9063e-007    
  2.25            2.7548e-009     2.1148e-005     3.8672e-007    
  2.3             2.5503e-009     2.1651e-005     3.858e-007     
  2.35            1.9328e-009     2.2125e-005     3.8692e-007    
  2.4             1.3273e-009     2.2521e-005     3.9103e-007    
  2.45            4.122e-010      2.2732e-005     5.39e-008      
  2.5             -1.453e-009     2.3438e-005     1.056e-008     
  2.55            -1.7598e-009    2.394e-005      6.986e-008     
  2.6             -2.018e-009     2.4417e-005     1.7825e-007    
  2.65            -2.383e-009     2.4854e-005     2.763e-007     
  2.7             -2.563e-009     2.5263e-005     3.6186e-007    
  2.75            -2.4752e-009    2.5666e-005     3.8532e-007    
  2.8             -2.033e-009     2.6068e-005     3.8743e-007    
  2.85            -1.4555e-009    2.6404e-005     3.9093e-007    
  2.9             6.344e-010      2.684e-005      4.241e-008     
  2.95            -1.4406e-009    2.6891e-005     5.354e-008     
  3               -2.27e-011      2.7579e-005     4.102e-008     
  3.05            1.7839e-009     2.7922e-005     5.345e-008     
  3.1             2.1433e-009     2.829e-005      1.5328e-007    
  3.15            2.4147e-009     2.8628e-005     2.5596e-007    
  3.2             2.6752e-009     2.8969e-005     3.53e-007      
  3.25            2.7408e-009     2.9309e-005     3.8488e-007    
  3.3             2.4425e-009     2.9624e-005     3.861e-007     
  3.35            1.7589e-009     2.9907e-005     3.8834e-007    
  3.4             2.5891e-009     3.0124e-005     3.9175e-007    
  3.45            2.7544e-009     3.0542e-005     3.8613e-007    
  3.5             2.5919e-009     3.084e-005      3.8611e-007    
  3.55            2.0126e-009     3.111e-005      3.8675e-007    
  3.6             1.3765e-009     3.1316e-005     3.9103e-007    
  3.65            4.514e-010      3.1338e-005     5.238e-008     
  3.7             -1.4029e-009    3.1839e-005     8.8e-009       
  3.75            -1.7323e-009    3.215e-005      6.075e-008     
  3.8             -1.9784e-009    3.2453e-005     1.6441e-007    
  3.85            -2.3463e-009    3.2719e-005     2.6646e-007    
  3.9             -2.5517e-009    3.2959e-005     3.564e-007     
  3.95            -2.4929e-009    3.3187e-005     3.8656e-007    
  4               -2.0897e-009    3.342e-005      3.879e-007     
  4.05            -1.5002e-009    3.3608e-005     3.9027e-007    
  4.1             -2.5058e-009    3.3746e-005     3.8967e-007    
  4.15            -2.5475e-009    3.4091e-005     3.8242e-007    
  4.2             -2.2676e-009    3.4306e-005     3.8665e-007    
  4.25            -1.6857e-009    3.4501e-005     3.8851e-007    
  4.3             -1.2848e-009    3.4629e-005     3.9372e-007    
  4.35            2.6992e-009     3.4613e-005     9.532e-008     
  4.4             2.2375e-009     3.5141e-005     3.8789e-007    
  4.45            1.5426e-009     3.5275e-005     3.9114e-007    
  4.5             -2.2145e-009    3.5506e-005     5.5561e-008    
  4.55            -1.6096e-009    3.5649e-005     3.8996e-007    
  4.6             -2.4645e-009    3.575e-005      3.9241e-007    
  4.65            -2.5594e-009    3.6042e-005     3.7569e-007    
  4.7             -2.3624e-009    3.6208e-005     3.8522e-007    
  4.75            -1.8179e-009    3.6362e-005     3.8856e-007    
  4.8             -1.3385e-009    3.6461e-005     3.9282e-007    
  4.85            2.734e-009      3.6384e-005     9.578e-008     
  4.9             2.3707e-009     3.6871e-005     3.8719e-007    
  4.95            1.688e-009      3.6977e-005     3.903e-007     
  5               2.6233e-009     3.7039e-005     3.9323e-007    
END_DB

BEGIN_DB
 ICCAP_VAR VS         0              
 ICCAP_VAR VB         0              
 ICCAP_VAR VD         5              

 #VG              IG              ID              IB             
  0               -1.2337e-007    5.7432e-008     1.173e-008     
  0.05            -1.953e-008     2.9391e-008     3.9968e-007    
  0.1             -9.66e-009      1.4201e-008     3.8453e-007    
  0.15            1.24e-009       4.691e-009      3.5506e-007    
  0.2             -9.67e-009      9.4e-011        3.3273e-007    
  0.25            -9.673e-009     1.322e-009      3.0979e-007    
  0.3             -7.125e-008     3.9135e-008     2.7444e-007    
  0.35            -3.0243e-007    3.4453e-008     2.7292e-007    
  0.4             -5.99e-009      3.3567e-008     4.1263e-008    
  0.45            1.6e-010        3.0534e-008     -2.28e-009     
  0.5             -7.72e-009      2.875e-008      1.836e-008     
  0.55            -8.27e-009      2.7381e-008     2.4884e-008    
  0.6             -8.171e-009     5.918e-009      1.7684e-007    
  0.65            -7.588e-009     1.5263e-008     3.7411e-008    
  0.7             -4.061e-008     6.9978e-008     7.09e-009      
  0.75            -1.4718e-008    1.5357e-007     3.411e-008     
  0.8             -7.866e-009     4.0101e-007     1.1339e-007    
  0.85            -2.195e-008     9.1752e-007     9.388e-009     
  0.9             -1.5861e-008    1.7344e-006     -1.1529e-008   
  0.95            -7.0645e-008    2.9465e-006     -7.341e-009    
  1               -4.9295e-008    4.5709e-006     -2.3785e-008   
  1.05            -3.2724e-008    6.6217e-006     -3.4474e-008   
  1.1             -1.7852e-008    9.0894e-006     -4.2138e-008   
  1.15            -2.0397e-008    1.2037e-005     -4.7771e-008   
  1.2             -1.8571e-008    1.536e-005      -4.6528e-008   
  1.25            -1.7229e-008    1.9115e-005     -5.4604e-008   
  1.3             -2.5214e-008    2.3283e-005     -6.2815e-008   
  1.35            -1.694e-008     2.7866e-005     -7.1257e-008   
  1.4             -1.8446e-008    3.2839e-005     -7.8174e-008   
  1.45            -2.6647e-008    3.8245e-005     -8.2732e-008   
  1.5             -2.5052e-008    4.4029e-005     -8.8595e-008   
  1.55            -1.7004e-008    5.0198e-005     -9.2986e-008   
  1.6             -1.8488e-008    5.6724e-005     -9.6153e-008   
  1.65            -2.6649e-008    6.3678e-005     -9.6858e-008   
  1.7             -2.4769e-008    7.0958e-005     -9.8862e-008   
  1.75            -1.7278e-008    7.8617e-005     -9.9187e-008   
  1.8             -1.845e-008     8.6601e-005     -9.8704e-008   
  1.85            -1.7204e-008    9.4973e-005     -9.5731e-008   
  1.9             -2.4526e-008    0.000103676     -9.3774e-008   
  1.95            -2.2597e-008    0.00011275      -9.1639e-008   
  2               -2.4564e-008    0.00012208      -9.5569e-008   
  2.05            -2.1531e-008    0.00013173      -8.3924e-008   
  2.1             -1.8693e-008    0.0001417       -7.8725e-008   
  2.15            -1.7746e-008    0.000152        -7.3434e-008   
  2.2             -2.5935e-008    0.00016254      -6.8518e-008   
  2.25            -1.5214e-008    0.00017336      -6.4439e-008   
  2.3             -1.8662e-008    0.00018448      -6.3548e-008   
  2.35            -1.7551e-008    0.00019592      -5.2466e-008   
  2.4             -2.5915e-008    0.00020755      -4.7113e-008   
  2.45            -1.5466e-008    0.00021954      -4.3579e-008   
  2.5             -1.839e-008     0.00023167      -4.2846e-008   
  2.55            -1.7502e-008    0.00024413      -3.1846e-008   
  2.6             -2.5659e-008    0.00025681      -2.7317e-008   
  2.65            -1.5635e-008    0.00026972      -2.6162e-008   
  2.7             -1.8473e-008    0.00028282      -2.4932e-008   
  2.75            -1.7508e-008    0.00029621      -1.5173e-008   
  2.8             -2.5497e-008    0.00030999      -1.1736e-008   
  2.85            -2.2737e-008    0.00032379      -1.3605e-008   
  2.9             -1.8986e-008    0.00033777      -9.031e-009    
  2.95            -1.9504e-008    0.00035198      3.119e-009     
  3               -1.993e-008     0.00036629      5.575e-009     
  3.05            -2.0299e-008    0.00038087      7.728e-009     
  3.1             -2.0922e-008    0.00039552      9.566e-009     
  3.15            -2.1327e-008    0.00041046      1.1227e-008    
  3.2             -2.1706e-008    0.00042547      1.2602e-008    
  3.25            -2.2386e-008    0.00044069      1.3939e-008    
  3.3             -2.2608e-008    0.00045606      1.4783e-008    
  3.35            -2.3283e-008    0.00047155      1.5719e-008    
  3.4             -2.3479e-008    0.0004872       1.6449e-008    
  3.45            -2.362e-008     0.00050298      1.7065e-008    
  3.5             -2.3964e-008    0.00051886      1.7598e-008    
  3.55            -1.6781e-008    0.00053496      1.8137e-008    
  3.6             -1.682e-008     0.00055109      2.1037e-008    
  3.65            -1.7052e-008    0.00056737      1.1982e-008    
  3.7             -1.6926e-008    0.00058376      1.2125e-008    
  3.75            -1.6924e-008    0.00060025      1.2208e-008    
  3.8             -1.7043e-008    0.00061686      1.2623e-008    
  3.85            -1.7255e-008    0.00063351      1.2587e-008    
  3.9             -1.7584e-008    0.00065029      1.2903e-008    
  3.95            -1.7661e-008    0.00066715      1.3158e-008    
  4               -1.7997e-008    0.00068409      1.346e-008     
  4.05            -1.8009e-008    0.00070111      1.367e-008     
  4.1             -1.8077e-008    0.00071821      1.3864e-008    
  4.15            -1.8137e-008    0.00073536      1.3966e-008    
  4.2             -1.8228e-008    0.00075257      1.4048e-008    
  4.25            -1.8229e-008    0.00076984      1.4218e-008    
  4.3             -1.83e-008      0.00078721      1.4301e-008    
  4.35            -1.0725e-008    0.00080456      1.4602e-008    
  4.4             -1.1898e-008    0.0008222       1.6171e-008    
  4.45            -9.612e-009     0.00083969      1.7714e-008    
  4.5             -4.3176e-009    0.00085711      1.9628e-008    
  4.55            -1.6775e-009    0.00087489      1.2913e-008    
  4.6             -2.1823e-009    0.00089231      1.6404e-008    
  4.65            -1.8758e-009    0.00090978      5.092e-009     
  4.7             -1.7841e-009    0.00092728      9.565e-009     
  4.75            -1.72e-009      0.00094474      1.2312e-008    
  4.8             -2.3387e-009    0.0009622       1.4847e-008    
  4.85            -1.9547e-009    0.00097949      4.123e-009     
  4.9             -1.828e-009     0.00099689      7.997e-009     
  4.95            -1.7539e-009    0.00101419      1.1979e-008    
  5               -2.4968e-009    0.00103132      1.3924e-008    
END_DB

BEGIN_DB
 ICCAP_VAR VS         0              
 ICCAP_VAR VB         -2.5           
 ICCAP_VAR VD         0.1            

 #VG              IG              ID              IB             
  0               -4.12e-010      -1.5585e-008    1.3006e-008    
  0.05            -9.04e-011      -1.2852e-008    2.5424e-008    
  0.1             2.06e-011       -1.243e-008     2.5054e-008    
  0.15            7.55e-011       -1.2024e-008    2.465e-008     
  0.2             1.245e-010      -1.1291e-008    2.4185e-008    
  0.25            -1.0562e-009    -1.9517e-008    2.3906e-008    
  0.3             -1.0235e-009    -1.8963e-008    2.3443e-008    
  0.35            -9.919e-010     -1.8357e-008    2.2834e-008    
  0.4             -9.608e-010     -1.7551e-008    2.2405e-008    
  0.45            -9.283e-010     -1.7135e-008    2.1639e-008    
  0.5             -8.914e-010     -1.668e-008     2.104e-008     
  0.55            -8.64e-010      -1.649e-008     2.0267e-008    
  0.6             -8.276e-010     -1.6167e-008    1.9522e-008    
  0.65            -7.957e-010     -1.6143e-008    1.8804e-008    
  0.7             -7.595e-010     -1.6055e-008    1.8308e-008    
  0.75            -7.151e-010     -1.5868e-008    1.7781e-008    
  0.8             -6.58e-010      -1.5508e-008    1.7367e-008    
  0.85            -6.13e-010      -1.5148e-008    1.7145e-008    
  0.9             -5.552e-010     -1.5083e-008    1.6471e-008    
  0.95            -5.039e-010     -1.4803e-008    1.6075e-008    
  1               -4.521e-010     -1.4779e-008    1.5387e-008    
  1.05            -3.954e-010     -1.4897e-008    1.5075e-008    
  1.1             -3.307e-010     -1.4897e-008    1.4527e-008    
  1.15            -2.777e-010     -1.4655e-008    1.4361e-008    
  1.2             -2.165e-010     -1.3676e-008    1.4132e-008    
  1.25            -1.495e-010     -1.0115e-008    1.3752e-008    
  1.3             -2.1794e-009    1.3238e-008     1.3605e-008    
  1.35            -1.6185e-009    3.4194e-008     3.2e-009       
  1.4             -1.399e-009     8.9277e-008     6.172e-009     
  1.45            -8.704e-010     2.1148e-007     1.4146e-008    
  1.5             -1.4851e-009    5.3524e-007     1.9559e-008    
  1.55            -1.3912e-009    1.05588e-006    8.244e-009     
  1.6             2.2232e-009     1.7574e-006     1.7218e-008    
  1.65            -1.4721e-009    2.599e-006      1.9979e-008    
  1.7             -1.3933e-009    3.4926e-006     8.421e-009     
  1.75            -1.4061e-009    4.4061e-006     1.2347e-008    
  1.8             -2.1182e-009    5.3127e-006     1.3954e-008    
  1.85            -1.5714e-009    6.2038e-006     3.443e-009     
  1.9             -1.4011e-009    7.0799e-006     6.521e-009     
  1.95            -1.3971e-009    7.9313e-006     1.1255e-008    
  2               -1.4321e-009    8.7629e-006     1.3068e-008    
  2.05            -1.7546e-009    9.5597e-006     1.6494e-008    
  2.1             -1.4227e-009    1.03383e-005    5.197e-009     
  2.15            -1.3933e-009    1.10936e-005    9.833e-009     
  2.2             1.3232e-009     1.18e-005       8.035e-009     
  2.25            -1.5657e-009    1.2535e-005     1.8253e-008    
  2.3             -1.3991e-009    1.3227e-005     6.869e-009     
  2.35            -1.3992e-009    1.3896e-005     1.1436e-008    
  2.4             -1.4354e-009    1.4548e-005     1.2909e-008    
  2.45            -1.7254e-009    1.5174e-005     1.675e-008     
  2.5             -1.4183e-009    1.5786e-005     5.497e-009     
  2.55            -1.39e-009      1.6383e-005     9.839e-009     
  2.6             -1.4221e-009    1.6966e-005     1.2274e-008    
  2.65            -1.9326e-009    1.7529e-005     1.4822e-008    
  2.7             -1.4765e-009    1.8073e-005     4.322e-009     
  2.75            -1.3946e-009    1.8608e-005     8.393e-009     
  2.8             -1.4067e-009    1.9138e-005     1.2104e-008    
  2.85            -2.1344e-009    1.9648e-005     1.3887e-008    
  2.9             -1.5943e-009    2.0133e-005     3.258e-009     
  2.95            -1.4001e-009    2.0616e-005     6.402e-009     
  3               -1.3971e-009    2.1085e-005     1.1184e-008    
  3.05            -1.4338e-009    2.155e-005      1.2745e-008    
  3.1             -1.7705e-009    2.1989e-005     1.618e-008     
  3.15            -1.4295e-009    2.242e-005      5.017e-009     
  3.2             -1.3925e-009    2.2844e-005     9.625e-009     
  3.25            -1.415e-009     2.3262e-005     1.2268e-008    
  3.3             -1.9796e-009    2.3668e-005     1.4458e-008    
  3.35            -1.4999e-009    2.4049e-005     4.075e-009     
  3.4             -1.3937e-009    2.444e-005      7.841e-009     
  3.45            -1.4007e-009    2.4814e-005     1.1949e-008    
  3.5             -1.4387e-009    2.5183e-005     1.3731e-008    
  3.55            -1.6397e-009    2.5536e-005     1.7637e-008    
  3.6             -1.404e-009     2.5881e-005     6.159e-009     
  3.65            -1.3924e-009    2.6227e-005     1.073e-008     
  3.7             -1.4266e-009    2.6561e-005     1.2659e-008    
  3.75            -1.8209e-009    2.6886e-005     1.5794e-008    
  3.8             -1.4417e-009    2.7193e-005     4.807e-009     
  3.85            -1.3906e-009    2.7503e-005     9.159e-009     
  3.9             -1.4115e-009    2.7809e-005     1.2341e-008    
  3.95            -2.041e-009     2.8106e-005     1.4241e-008    
  4               -1.5243e-009    2.8381e-005     3.797e-009     
  4.05            -1.3942e-009    2.8665e-005     7.195e-009     
  4.1             -1.3976e-009    2.8942e-005     1.174e-008     
  4.15            -1.4353e-009    2.9212e-005     1.338e-008     
