! VERSION = 6.00
BEGIN_HEADER
 ICCAP_INPUTS
  VG         V  B GROUND SMU4 0.001 LIN        1    0          5          101  0.05      
  VS         V  E GROUND SMU2 0.1 CON        0
  VB         V  C GROUND SMU3 0.1 LIN        3    0          -5         3    -2.5      
  VD         V  S GROUND SMU1 0.1 LIN        2    0.1        5          2    4.9       
 ICCAP_OUTPUTS
  IG         I  B GROUND SMU4 B
  ID         I  S GROUND SMU1 B
  IB         I  C GROUND SMU3 B
END_HEADER

BEGIN_DB
 ICCAP_VAR VS         0              
 ICCAP_VAR VB         0              
 ICCAP_VAR VD         0.1            

 #VG              IG              ID              IB             
  0               -5.158e-010     7.453e-010      -1.1294e-008   
  0.05            -2.223e-009     1.0027e-009     1.5741e-008    
  0.1             2.6622e-009     -7.048e-010     -1.132e-008    
  0.15            -1.8376e-009    1.9492e-009     1.7862e-008    
  0.2             2.6854e-009     -1.2054e-009    4.817e-009     
  0.25            -1.993e-009     1.9039e-009     2.1516e-008    
  0.3             1.5983e-009     -1.121e-009     4.422e-009     
  0.35            2.5363e-009     1.4951e-009     -9.219e-009    
  0.4             -1.6861e-009    2.4368e-009     1.4671e-008    
  0.45            -1.422e-009     1.4989e-009     5.103e-009     
  0.5             -2.5453e-009    4.9315e-009     6.64e-009      
  0.55            2.5057e-009     1.8802e-008     8.451e-009     
  0.6             7.375e-010      3.7324e-008     9.874e-009     
  0.65            -3.053e-010     1.567e-007      9.024e-009     
  0.7             -7.936e-010     3.9162e-007     -1.1516e-008   
  0.75            -2.4158e-009    1.10546e-006    -8.236e-009    
  0.8             7.592e-010      2.1666e-006     1.084e-009     
  0.85            -1.4141e-009    4.6956e-006     1.5922e-008    
  0.9             -2.5817e-009    7.1286e-006     6.647e-009     
  0.95            2.4673e-009     1.04816e-005    -2.4439e-008   
  1               -8.88e-011      1.4251e-005     1.1399e-008    
  1.05            2.513e-009      1.8084e-005     -1.5333e-008   
  1.1             -2.4539e-009    2.2229e-005     1.1561e-008    
  1.15            -1.9747e-009    2.6432e-005     1.141e-009     
  1.2             -1.3784e-009    3.0241e-005     4.292e-009     
  1.25            -2.5799e-009    3.3837e-005     7.058e-009     
  1.3             2.2743e-009     3.7281e-005     -1.7224e-008   
  1.35            1.4915e-009     4.0952e-005     -6.421e-009    
  1.4             2.6553e-009     4.4237e-005     -8.999e-009    
  1.45            -2.1684e-009    4.7421e-005     1.4235e-008    
  1.5             -1.5143e-009    5.0699e-005     3.024e-009     
  1.55            -2.5782e-009    5.3559e-005     5.839e-009     
  1.6             2.4376e-009     5.6485e-005     -1.6334e-008   
  1.65            1.6948e-009     5.9178e-005     -4.599e-009    
  1.7             2.6136e-009     6.1913e-005     -9.26e-009     
  1.75            -2.3037e-009    6.4274e-005     1.3003e-008    
  1.8             -8.185e-010     6.7003e-005     -1.1395e-008   
  1.85            2.6896e-009     6.9301e-005     -1.5049e-008   
  1.9             -1.6689e-009    7.1721e-005     2.2784e-008    
  1.95            -2.5662e-009    7.3877e-005     4.951e-009     
  2               -8.247e-010     7.6095e-005     -1.1333e-008   
  2.05            2.6862e-009     7.8121e-005     -1.4666e-008   
  2.1             -1.6543e-009    8.0198e-005     2.2522e-008    
  2.15            -2.5726e-009    8.2163e-005     4.936e-009     
  2.2             -8.378e-010     8.4063e-005     -1.128e-008    
  2.25            2.6844e-009     8.5892e-005     -1.4407e-008   
  2.3             -1.6281e-009    8.7737e-005     2.1989e-008    
  2.35            -2.5739e-009    8.9474e-005     5.301e-009     
  2.4             -8.473e-010     9.1179e-005     -1.1559e-008   
  2.45            2.684e-009      9.2649e-005     -1.3991e-008   
  2.5             -1.603e-009     9.4439e-005     2.1422e-008    
  2.55            -2.5724e-009    9.5977e-005     5.272e-009     
  2.6             -8.588e-010     9.7543e-005     -1.1389e-008   
  2.65            2.6866e-009     9.8818e-005     -1.361e-008    
  2.7             -1.5794e-009    0.000100453     2.1099e-008    
  2.75            -2.5701e-009    0.000101767     5.4e-009       
  2.8             -8.646e-010     0.000103154     -1.1415e-008   
  2.85            2.6864e-009     0.000104364     -1.3265e-008   
  2.9             -1.5725e-009    0.000105819     2.05e-008      
  2.95            -2.5698e-009    0.000107055     5.438e-009     
  3               -8.8e-010       0.00010831      -1.1323e-008   
  3.05            2.6788e-009     0.000109455     -1.2981e-008   
  3.1             -1.5472e-009    0.000110638     2.0124e-008    
  3.15            -2.5733e-009    0.000111773     5.691e-009     
  3.2             -8.867e-010     0.000112896     -1.1313e-008   
  3.25            2.6796e-009     0.000113909     -1.2616e-008   
  3.3             2.017e-009      0.00011513      -8.623e-009    
  3.35            2.5427e-009     0.00011612      -7.989e-009    
  3.4             6.428e-010      0.00011712      1.0329e-008    
  3.45            -1.5505e-009    0.00011814      1.9976e-008    
  3.5             -2.5739e-009    0.00011903      5.594e-009     
  3.55            -8.847e-010     0.00011997      -1.0965e-008   
  3.6             2.6801e-009     0.00012074      -1.2631e-008   
  3.65            -1.5246e-009    0.00012167      1.9581e-008    
  3.7             -2.5743e-009    0.00012262      5.793e-009     
  3.75            -8.975e-010     0.00012338      -1.113e-008    
  3.8             2.6796e-009     0.00012413      -1.22e-008     
  3.85            -1.5084e-009    0.00012495      1.8953e-008    
  3.9             -2.5738e-009    0.00012577      5.845e-009     
  3.95            -9.071e-010     0.00012651      -1.1069e-008   
  4               2.6771e-009     0.00012719      -1.2065e-008   
  4.05            -1.4933e-009    0.00012796      1.86e-008      
  4.1             -2.5758e-009    0.00012866      6.017e-009     
  4.15            -9.195e-010     0.00012935      -1.0996e-008   
  4.2             2.6705e-009     0.00012994      -1.19e-008     
  4.25            -1.4868e-009    0.00013061      1.8379e-008    
  4.3             -2.5778e-009    0.00013129      5.944e-009     
  4.35            -9.224e-010     0.00013193      -1.0963e-008   
  4.4             2.6622e-009     0.00013243      -1.2011e-008   
  4.45            -1.4833e-009    0.00013306      1.8214e-008    
  4.5             -2.5799e-009    0.00013365      6.253e-009     
  4.55            -9.317e-010     0.0001342       -1.0889e-008   
  4.6             2.525e-010      0.00013467      -1.193e-008    
  4.65            2.6951e-009     0.00013527      -1.8471e-008   
  4.7             -1.5546e-009    0.0001358       1.6847e-008    
  4.75            -2.5768e-009    0.00013627      5.725e-009     
  4.8             2.4697e-009     0.00013675      -1.6086e-008   
  4.85            7.716e-010      0.00013723      9.77e-009      
  4.9             -1.3956e-009    0.00013764      1.5494e-008    
  4.95            -2.5787e-009    0.00013814      6.823e-009     
  5               2.4502e-009     0.00013861      -2.4467e-008   
END_DB

BEGIN_DB
 ICCAP_VAR VS         0              
 ICCAP_VAR VB         0              
 ICCAP_VAR VD         5              

 #VG              IG              ID              IB             
  0               1.016e-009      1.5545e-009     1.1724e-008    
  0.05            2.2522e-009     -1.06e-010      -1.7999e-008   
  0.1             2.3012e-009     1.5737e-009     -6.648e-009    
  0.15            -2.057e-009     1.2121e-009     1.6425e-008    
  0.2             1.6737e-009     -1.0454e-009    3.617e-009     
  0.25            2.5066e-009     1.5528e-009     -9.484e-009    
  0.3             -1.7456e-009    2.1436e-009     1.5917e-008    
  0.35            -1.4691e-009    3.112e-010      4.683e-009     
  0.4             -1.3129e-009    8.109e-010      6.027e-009     
  0.45            -2.5737e-009    2.2701e-009     7.272e-009     
  0.5             -6.428e-010     2.1969e-009     -1.1351e-008   
  0.55            2.0572e-009     1.1151e-008     8.204e-009     
  0.6             1.0071e-009     3.9099e-008     7.276e-009     
  0.65            2.6978e-009     1.0601e-007     -1.2404e-008   
  0.7             2.487e-009      3.4056e-007     -6.459e-009    
  0.75            -1.9318e-009    1.4662e-006     -1.647e-008    
  0.8             -2.5745e-009    2.3277e-006     -2.6416e-008   
  0.85            -2.5355e-009    4.94e-006       -3.8908e-008   
  0.9             -2.3314e-009    9.0554e-006     -5.6725e-008   
  0.95            2.6874e-009     1.5241e-005     -8.943e-008    
  1               2.67e-010       2.3124e-005     -1.0463e-007   
  1.05            -1.113e-010     3.3273e-005     -1.6058e-007   
  1.1             -6.172e-010     4.5018e-005     -2.0356e-007   
  1.15            -1.0084e-009    5.9229e-005     -2.4257e-007   
  1.2             -1.3881e-009    7.5502e-005     -2.8224e-007   
  1.25            -1.756e-009     9.3204e-005     -3.2323e-007   
  1.3             -8.442e-010     0.00011263      -3.7114e-007   
  1.35            -1.9846e-009    0.00013326      -3.5218e-007   
  1.4             -1.3798e-009    0.00015747      -4.0206e-007   
  1.45            -2.5777e-009    0.00018175      -4.2101e-007   
  1.5             -2.5038e-009    0.00020894      -4.4977e-007   
  1.55            -2.1625e-009    0.00023776      -4.6244e-007   
  1.6             -1.5284e-009    0.0002674       -4.6747e-007   
  1.65            -2.5757e-009    0.00029763      -4.6901e-007   
  1.7             -2.5389e-009    0.0003311       -4.7772e-007   
  1.75            -2.3171e-009    0.00036538      -4.6913e-007   
  1.8             -1.7268e-009    0.00040083      -4.5963e-007   
  1.85            -2.5461e-009    0.00043695      -4.4431e-007   
  1.9             -2.5603e-009    0.00047622      -4.3839e-007   
  1.95            -2.4336e-009    0.00051417      -4.1611e-007   
  2               -1.9461e-009    0.00055401      -3.9359e-007   
  2.05            -1.368e-009     0.00059484      -3.6842e-007   
  2.1             -2.5771e-009    0.00063752      -3.4198e-007   
  2.15            -2.5006e-009    0.00068273      -3.2612e-007   
  2.2             -2.1465e-009    0.00072771      -2.9896e-007   
  2.25            -1.5136e-009    0.00077482      -2.7193e-007   
  2.3             -2.5746e-009    0.00082071      -2.439e-007    
  2.35            -2.5368e-009    0.00086984      -2.2829e-007   
  2.4             -2.3106e-009    0.00092006      -2.0135e-007   
  2.45            -1.7156e-009    0.00096905      -1.7725e-007   
  2.5             -2.5509e-009    0.00101992      -1.5269e-007   
  2.55            -2.88e-010      0.001072        -1.2759e-007   
  2.6             8.17e-011       0.0011252       -1.1054e-007   
  2.65            -2.5746e-009    0.001181        -9.455e-008    
  2.7             2.6852e-009     0.0012315       -9.5766e-008   
  2.75            2.3677e-009     0.0012903       -7.4658e-008   
  2.8             1.6265e-009     0.0013471       -6.5564e-008   
  2.85            2.6247e-009     0.0014032       -5.9068e-008   
  2.9             2.6976e-009     0.0014629       -3.8918e-008   
  2.95            2.5214e-009     0.0015214       -3.4235e-008   
  3               1.8836e-009     0.001581        -2.9443e-008   
  3.05            2.5617e-009     0.0016402       -2.9089e-008   
  3.1             2.6973e-009     0.0017026       -1.1726e-008   
  3.15            2.6277e-009     0.0017644       -1.3295e-008   
  3.2             2.1408e-009     0.0018251       -1.1882e-008   
  3.25            2.48e-009       0.0018876       -1.3974e-008   
  3.3             -2.476e-009     0.0019517       5.947e-009     
  3.35            -1.4563e-009    0.0020176       -1.201e-008    
  3.4             -1.7996e-009    0.0020817       -1.3168e-008   
  3.45            -8.107e-010     0.0021454       -1.3485e-008   
  3.5             -1.1618e-009    0.0022104       -1.0149e-008   
  3.55            3.06e-011       0.0022733       -1.0213e-008   
  3.6             2.6151e-009     0.0023385       -2.3325e-008   
  3.65            2.4186e-009     0.0024067       6.371e-009     
  3.7             -1.6081e-009    0.0024717       2.0892e-008    
  3.75            -2.5676e-009    0.0025389       5.065e-009     
  3.8             -8.566e-010     0.0026075       -1.1384e-008   
  3.85            2.6808e-009     0.0026728       -1.3869e-008   
  3.9             -1.589e-009     0.0027402       2.0642e-008    
  3.95            -2.5674e-009    0.0028092       5.385e-009     
  4               -8.684e-010     0.0028767       -1.1188e-008   
  4.05            2.6823e-009     0.0029446       -1.3342e-008   
  4.1             -1.5599e-009    0.0030135       2.0255e-008    
  4.15            -2.5639e-009    0.0030839       5.333e-009     
  4.2             -8.774e-010     0.0031517       -1.1311e-008   
  4.25            2.6844e-009     0.0032199       -1.2932e-008   
  4.3             -1.5408e-009    0.0032909       1.9727e-008    
  4.35            -2.5675e-009    0.0033597       5.364e-009     
  4.4             -8.834e-010     0.0034285       -1.0959e-008   
  4.45            2.6823e-009     0.0034939       -1.2803e-008   
  4.5             -1.5311e-009    0.0035657       1.9457e-008    
  4.55            -2.5643e-009    0.0036334       5.557e-009     
  4.6             -8.911e-010     0.0037008       -1.0888e-008   
  4.65            2.6805e-009     0.0037651       -1.2521e-008   
  4.7             -1.5216e-009    0.0038358       1.903e-008     
  4.75            -2.5677e-009    0.0039039       5.602e-009     
  4.8             -9.017e-010     0.0039711       -1.122e-008    
  4.85            2.6781e-009     0.0040342       -1.2375e-008   
  4.9             -1.5083e-009    0.0041013       1.8851e-008    
  4.95            -2.5676e-009    0.0041683       5.488e-009     
  5               2.4427e-009     0.0042284       -1.6818e-008   
END_DB

BEGIN_DB
 ICCAP_VAR VS         0              
 ICCAP_VAR VB         -2.5           
 ICCAP_VAR VD         0.1            

 #VG              IG              ID              IB             
  0               1.2077e-009     1.9578e-009     -1.1393e-008   
  0.05            2.6688e-009     1.3945e-009     -8.323e-009    
  0.1             1.4547e-009     2.3699e-009     -3.97e-010     
  0.15            -2.0152e-009    1.1948e-009     1.647e-008     
  0.2             1.6255e-009     -1.0985e-009    4.03e-009      
  0.25            2.5203e-009     1.499e-009      -9.305e-009    
  0.3             -1.7139e-009    2.0751e-009     1.54e-008      
  0.35            -1.4555e-009    1.234e-010      4.825e-009     
  0.4             -2.5329e-009    2.245e-010      6.121e-009     
  0.45            -4.472e-010     -1.5826e-009    -1.1548e-008   
  0.5             2.6507e-009     -6.376e-010     -1.1207e-008   
  0.55            -1.8231e-009    2.0254e-009     1.7567e-008    
  0.6             2.688e-009      -1.1465e-009    4.729e-009     
  0.65            -1.9882e-009    1.9513e-009     2.1223e-008    
  0.7             1.5989e-009     -1.1026e-009    4.172e-009     
  0.75            2.5307e-009     1.4963e-009     -9.373e-009    
  0.8             -2.5366e-009    6.488e-010      1.1468e-008    
  0.85            2.3413e-009     -9.145e-010     -2.2193e-008   
  0.9             2.2487e-009     1.533e-009      -5.708e-009    
  0.95            -2.1484e-009    1.1199e-009     1.5975e-008    
  1               2.3551e-009     1.5335e-009     -1.4588e-008   
  1.05            -1.9575e-009    1.2416e-009     1.6628e-008    
  1.1             1.5525e-009     -1.0319e-009    4.324e-009     
  1.15            2.5419e-009     1.8535e-009     -9.222e-009    
  1.2             3.859e-010      4.3525e-009     9.999e-009     
  1.25            -2.2777e-009    9.7196e-009     1.5329e-008    
  1.3             2.6645e-009     2.7988e-008     1.666e-008     
  1.35            1.951e-010      1.166e-007      5.133e-009     
  1.4             2.6863e-009     3.7651e-007     -1.9733e-008   
  1.45            2.144e-009      1.0184e-006     1.3107e-008    
  1.5             1.0862e-009     2.5103e-006     7.078e-009     
  1.55            -2.49e-011      5.1091e-006     7.969e-009     
  1.6             -2.4238e-009    8.3495e-006     1.1825e-008    
  1.65            2.6928e-009     1.2085e-005     -1.0972e-008   
  1.7             2.6474e-009     1.6075e-005     -9.43e-010     
  1.75            -1.4758e-009    1.9958e-005     1.7479e-008    
  1.8             -2.5824e-009    2.3922e-005     6.181e-009     
  1.85            -9.396e-010     2.7766e-005     -1.0848e-008   
  1.9             2.545e-010      3.1283e-005     -1.1972e-008   
  1.95            2.7017e-009     3.4872e-005     -1.8983e-008   
  2               -1.5672e-009    3.8384e-005     1.6748e-008    
  2.05            -2.5792e-009    4.1703e-005     5.573e-009     
  2.1             -8.778e-010     4.4857e-005     -1.1349e-008   
  2.15            2.6769e-009     4.7758e-005     -1.3446e-008   
  2.2             -1.5746e-009    5.0765e-005     2.0151e-008    
  2.25            -2.5797e-009    5.361e-005      5.436e-009     
  2.3             2.4786e-009     5.6271e-005     -1.5894e-008   
  2.35            -2.4305e-009    5.8886e-005     1.1715e-008    
  2.4             -1.9393e-009    6.1446e-005     1.018e-009     
  2.45            -1.3685e-009    6.3841e-005     4.25e-009      
  2.5             -2.5805e-009    6.6176e-005     6.932e-009     
  2.55            -1.0126e-009    6.8475e-005     -1.0124e-008   
  2.6             1.851e-010      7.0532e-005     -1.0461e-008   
  2.65            2.6795e-009     7.2668e-005     -2.0108e-008   
  2.7             -1.6066e-009    7.4738e-005     2.1128e-008    
  2.75            -2.5753e-009    7.6724e-005     5.155e-009     
  2.8             -8.543e-010     7.8632e-005     -1.1176e-008   
  2.85            2.683e-009      8.0377e-005     -1.4192e-008   
  2.9             -1.6115e-009    8.2232e-005     2.1169e-008    
  2.95            -2.5716e-009    8.3983e-005     5.249e-009     
  3               1.956e-010      8.5576e-005     -1.0706e-008   
  3.05            2.6823e-009     8.724e-005      -2.0016e-008   
  3.1             -1.6172e-009    8.8835e-005     2.1364e-008    
  3.15            -2.5718e-009    9.0382e-005     5.174e-009     
  3.2             1.956e-010      9.1782e-005     -1.053e-008    
  3.25            2.6861e-009     9.3273e-005     -1.985e-008    
  3.3             -1.6192e-009    9.4684e-005     2.1391e-008    
  3.35            -2.5691e-009    9.6057e-005     5.088e-009     
  3.4             -8.455e-010     9.737e-005      -1.1193e-008   
  3.45            2.6873e-009     9.857e-005      -1.446e-008    
  3.5             -1.63e-009      9.989e-005      2.1732e-008    
  3.55            -2.5712e-009    0.000101103     5.04e-009      
  3.6             -8.43e-010      0.00010228      -1.1303e-008   
  3.65            2.6891e-009     0.000103355     -1.4404e-008   
  3.7             -1.6311e-009    0.000104514     2.1659e-008    
  3.75            -2.5697e-009    0.000105603     4.977e-009     
  3.8             -8.386e-010     0.000106657     -1.119e-008    
  3.85            2.6892e-009     0.000107594     -1.4646e-008   
  3.9             -1.6434e-009    0.000108638     2.2031e-008    
  3.95            -2.5688e-009    0.000109637     4.986e-009     
  4               -8.341e-010     0.000110557     -1.1349e-008   
  4.05            2.6932e-009     0.000111419     -1.4637e-008   
  4.1             -1.6524e-009    0.000112345     2.1962e-008    
  4.15            -2.5675e-009    0.000113226     4.96e-009      
