! VERSION = 6.00
BEGIN_HEADER
 ICCAP_INPUTS
  VG         V  B GROUND SMU4 0.001 LIN        1    0          5          101  0.05      
  VS         V  E GROUND SMU2 0.1 CON        0
  VB         V  C GROUND SMU3 0.1 LIN        3    0          -5         3    -2.5      
  VD         V  S GROUND SMU1 0.1 LIN        2    0.1        5          2    4.9       
 ICCAP_OUTPUTS
  IG         I  B GROUND SMU4 B
  ID         I  S GROUND SMU1 B
  IB         I  C GROUND SMU3 B
END_HEADER

BEGIN_DB
 ICCAP_VAR VS         0              
 ICCAP_VAR VB         0              
 ICCAP_VAR VD         0.1            

 #VG              IG              ID              IB             
  0               1.0408e-009     1.0984e-009     2.6106e-008    
  0.05            2.4962e-009     -3.475e-010     -1.4546e-008   
  0.1             -2.5766e-009    2.262e-010      1.1438e-008    
  0.15            2.3148e-009     -1.2406e-009    -2.0372e-008   
  0.2             1.1879e-009     2.1757e-009     -4.612e-009    
  0.25            -2.4212e-009    1.2447e-009     2.6612e-008    
  0.3             -9.56e-011      -1.7585e-009    1.906e-009     
  0.35            2.6926e-009     -9.322e-010     -2.4926e-008   
  0.4             -1.6571e-009    1.0359e-009     1.9401e-008    
  0.45            -1.4389e-009    1.786e-010      4.844e-009     
  0.5             -2.4155e-009    1.4897e-009     6.651e-009     
  0.55            -4.387e-010     3.8475e-009     -1.0407e-008   
  0.6             2.0506e-009     2.0856e-008     2.1122e-008    
  0.65            2.3683e-009     6.9001e-008     -6.233e-009    
  0.7             2.7315e-009     2.3352e-007     3.66e-009      
  0.75            2.4004e-009     6.7311e-007     -1.8e-009      
  0.8             2.0739e-009     1.7238e-006     1.1449e-008    
  0.85            1.0458e-009     3.6468e-006     7.586e-009     
  0.9             -2.3607e-009    6.5823e-006     2.5513e-008    
  0.95            -1.7403e-009    1.00517e-005    1.949e-009     
  1               2.1434e-009     1.3864e-005     3.771e-009     
  1.05            2.3447e-009     1.7899e-005     -5.614e-009    
  1.1             -1.4579e-009    2.2032e-005     1.742e-008     
  1.15            -2.5232e-009    2.6105e-005     6.499e-009     
  1.2             2.5042e-009     2.9891e-005     -2.5068e-008   
  1.25            -2.4842e-009    3.3783e-005     1.1395e-008    
  1.3             -1.9482e-009    3.7397e-005     1.599e-009     
  1.35            -1.4028e-009    4.0933e-005     3.399e-009     
  1.4             -2.5361e-009    4.4333e-005     7.086e-009     
  1.45            -9.522e-010     4.7588e-005     -9.394e-009    
  1.5             1.97e-010       5.0668e-005     -1.1228e-008   
  1.55            2.7259e-009     5.3744e-005     -2.0725e-008   
  1.6             -1.6301e-009    5.6771e-005     2.1342e-008    
  1.65            -2.4662e-009    5.9604e-005     4.908e-009     
  1.7             -8.086e-010     6.2325e-005     -1.0113e-008   
  1.75            2.7255e-009     6.4934e-005     -1.4029e-008   
  1.8             2.3806e-009     6.7572e-005     -1.637e-009    
  1.85            1.6934e-009     7.0057e-005     -3.985e-009    
  1.9             2.5041e-009     7.2457e-005     -8.742e-009    
  1.95            -2.3e-009       7.488e-005      1.1496e-008    
  2               -1.6699e-009    7.7116e-005     2.467e-009     
  2.05            -2.4459e-009    7.9335e-005     4.654e-009     
  2.1             -7.734e-010     8.1461e-005     -1.0287e-008   
  2.15            -1.0971e-009    8.3578e-005     -8.402e-009    
  2.2             2.5836e-009     8.5554e-005     -2.445e-008    
  2.25            6.075e-010      8.7555e-005     9.713e-009     
  2.3             -1.5563e-009    8.9479e-005     1.9815e-008    
  2.35            -2.4911e-009    9.1339e-005     5.464e-009     
  2.4             2.5929e-009     9.3121e-005     -2.4547e-008   
  2.45            6.011e-010      9.4916e-005     9.721e-009     
  2.5             -1.5676e-009    9.6637e-005     1.999e-008     
  2.55            -2.4851e-009    9.8314e-005     5.442e-009     
  2.6             2.604e-009      9.9916e-005     -2.445e-008    
  2.65            5.908e-010      0.000101539     9.759e-009     
  2.7             9.554e-010      0.000103064     8.062e-009     
  2.75            -2.4786e-009    0.000104611     2.4062e-008    
  2.8             -1.9416e-009    0.000106079     1.735e-009     
  2.85            -1.4069e-009    0.00010752      3.482e-009     
  2.9             -2.5354e-009    0.000108933     7.135e-009     
  2.95            2.4421e-009     0.000110275     -2.5096e-008   
  3               1.7443e-009     0.000111616     -3.684e-009    
  3.05            2.4862e-009     0.000112895     -8.461e-009    
  3.1             9.16e-011       0.00011424      9.368e-009     
  3.15            2.6778e-009     0.0001155       -2.3091e-008   
  3.2             -1.4772e-009    0.00011674      1.7844e-008    
  3.25            -2.5145e-009    0.00011793      6.13e-009      
  3.3             2.5257e-009     0.00011906      -2.4823e-008   
  3.35            6.629e-010      0.00012017      9.548e-009     
  3.4             -1.4913e-009    0.0001213       1.8297e-008    
  3.45            -2.5098e-009    0.00012236      6.072e-009     
  3.5             2.5414e-009     0.00012339      -2.4667e-008   
  3.55            6.531e-010      0.00012442      9.615e-009     
  3.6             -1.5098e-009    0.0001254       1.8549e-008    
  3.65            -2.5023e-009    0.00012637      6.04e-009      
  3.7             2.5534e-009     0.00012731      -2.4674e-008   
  3.75            6.441e-010      0.00012822      9.644e-009     
  3.8             -1.5232e-009    0.00012914      1.7142e-008    
  3.85            -2.4992e-009    0.00012999      5.839e-009     
  3.9             2.5631e-009     0.00013084      -2.4502e-008   
  3.95            6.317e-010      0.0001317       9.618e-009     
  4               -1.5406e-009    0.00013252      1.7006e-008    
  4.05            -2.4933e-009    0.00013329      5.723e-009     
  4.1             2.5722e-009     0.00013406      -2.4158e-008   
  4.15            -2.52e-009      0.00013479      1.4905e-008    
  4.2             -2.0657e-009    0.00013553      1.593e-009     
  4.25            -1.4854e-009    0.00013625      3.06e-009      
  4.3             -2.5129e-009    0.00013698      6.328e-009     
  4.35            2.5366e-009     0.00013764      -2.4483e-008   
  4.4             6.539e-010      0.00013836      9.57e-009      
  4.45            -1.5198e-009    0.00013899      1.7306e-008    
  4.5             -2.502e-009     0.00013961      6.017e-009     
  4.55            2.5453e-009     0.00014023      -2.4451e-008   
  4.6             6.411e-010      0.00014083      9.581e-009     
  4.65            -1.5304e-009    0.00014143      1.7183e-008    
  4.7             -2.5033e-009    0.00014197      5.879e-009     
  4.75            2.5617e-009     0.00014254      -2.4296e-008   
  4.8             6.329e-010      0.0001431       9.629e-009     
  4.85            -1.545e-009     0.00014366      1.7057e-008    
  4.9             -2.4945e-009    0.00014413      5.774e-009     
  4.95            2.57e-009       0.00014464      -2.4228e-008   
  5               6.172e-010      0.00014515      9.636e-009     
END_DB

BEGIN_DB
 ICCAP_VAR VS         0              
 ICCAP_VAR VB         0              
 ICCAP_VAR VD         5              

 #VG              IG              ID              IB             
  0               -1.0151e-009    -7.712e-010     -1.34e-008     
  0.05            -1.8917e-009    8.332e-010      1.6958e-008    
  0.1             -5.708e-010     -1.8864e-009    3.759e-009     
  0.15            2.2819e-009     -1.2293e-009    -1.9892e-008   
  0.2             1.207e-009      2.1825e-009     -4.664e-009    
  0.25            -2.2693e-009    6.244e-010      1.3001e-008    
  0.3             -2.542e-010     -1.7977e-009    2.478e-009     
  0.35            -4.552e-010     -1.8295e-009    -1.0309e-008   
  0.4             2.6569e-009     -8.334e-010     -9.443e-009    
  0.45            -1.6077e-009    1.4711e-009     2.0555e-008    
  0.5             -1.4113e-009    1.5676e-009     5.139e-009     
  0.55            -2.4409e-009    6.2266e-009     7.118e-009     
  0.6             2.6343e-009     2.2018e-008     1.7213e-008    
  0.65            1.8627e-009     7.3088e-008     8.338e-009     
  0.7             1.8869e-009     2.3869e-007     -2.4283e-008   
  0.75            -2.2672e-009    7.6274e-007     6.578e-009     
  0.8             -1.3552e-009    1.9471e-006     -2.1082e-008   
  0.85            -1.71e-009      4.2787e-006     -3.5237e-008   
  0.9             -1.9402e-009    8.0633e-006     -5.3554e-008   
  0.95            1.9401e-009     1.3531e-005     -8.1155e-008   
  1               2.3556e-009     2.0968e-005     -1.02248e-007  
  1.05            2.6236e-009     3.0155e-005     -1.3026e-007   
  1.1             2.7125e-009     4.1351e-005     -1.7407e-007   
  1.15            2.3644e-009     5.4637e-005     -2.1449e-007   
  1.2             1.6966e-009     6.9589e-005     -2.5495e-007   
  1.25            2.5069e-009     8.65e-005       -2.9699e-007   
  1.3             2.716e-009      0.000105485     -3.1909e-007   
  1.35            2.7096e-009     0.00012608      -3.4692e-007   
  1.4             2.5863e-009     0.0001488       -3.8372e-007   
  1.45            2.0248e-009     0.00017299      -4.0905e-007   
  1.5             2.3799e-009     0.00019904      -4.3243e-007   
  1.55            2.6474e-009     0.00022697      -4.352e-007    
  1.6             2.7027e-009     0.00025657      -4.5129e-007   
  1.65            2.3008e-009     0.00028778      -4.5841e-007   
  1.7             1.6317e-009     0.00032033      -4.6218e-007   
  1.75            2.5357e-009     0.00035537      -4.6374e-007   
  1.8             2.7229e-009     0.0003911       -4.4548e-007   
  1.85            2.5255e-009     0.00042859      -4.3849e-007   
  1.9             1.9078e-009     0.00046749      -4.2601e-007   
  1.95            2.4217e-009     0.00050768      -4.1388e-007   
  2               2.6822e-009     0.00054994      -3.8256e-007   
  2.05            2.6695e-009     0.00059321      -3.6726e-007   
  2.1             2.2081e-009     0.00063769      -3.4586e-007   
  2.15            2.3208e-009     0.00068333      -3.2535e-007   
  2.2             2.5851e-009     0.00073086      -2.8959e-007   
  2.25            2.7205e-009     0.00077933      -2.7097e-007   
  2.3             2.4508e-009     0.00082896      -2.4858e-007   
  2.35            1.7943e-009     0.00087932      -2.2634e-007   
  2.4             2.468e-009      0.00093133      -2.0767e-007   
  2.45            2.706e-009      0.00098458      -1.7278e-007   
  2.5             2.6335e-009     0.00103873      -1.5698e-007   
  2.55            2.1002e-009     0.00109367      -1.3825e-007   
  2.6             -1.366e-010     0.0011509       -1.0975e-007   
  2.65            -2.3468e-009    0.0012076       -9.13e-008     
  2.7             2.6829e-009     0.0012649       -9.3935e-008   
  2.75            2.6518e-009     0.0013244       -7.2493e-008   
  2.8             2.1554e-009     0.0013845       -6.1473e-008   
  2.85            2.3368e-009     0.0014452       -5.4048e-008   
  2.9             2.6042e-009     0.0015068       -3.3104e-008   
  2.95            2.7226e-009     0.0015692       -3.1808e-008   
  3               2.4114e-009     0.001632        -2.7015e-008   
  3.05            1.7474e-009     0.0016953       -2.3599e-008   
  3.1             2.4897e-009     0.0017593       -2.4004e-008   
  3.15            2.7138e-009     0.0018246       -7.812e-009    
  3.2             2.6057e-009     0.0018901       -1.0223e-008   
  3.25            2.0416e-009     0.0019562       -9.323e-009    
  3.3             2.3747e-009     0.0020229       -1.1369e-008   
  3.35            -2.4972e-009    0.0020923       7.618e-009     
  3.4             -5.461e-010     0.0021578       -1.3122e-008   
  3.45            -9.352e-010     0.002227        -1.105e-008    
  3.5             2.202e-010      0.0022947       -1.306e-008    
  3.55            2.7247e-009     0.0023637       -2.0991e-008   
  3.6             2.4296e-009     0.0024339       -2.318e-009    
  3.65            1.7629e-009     0.0025035       -3.895e-009    
  3.7             2.4802e-009     0.0025736       -8.765e-009    
  3.75            -2.3519e-009    0.0026466       1.0884e-008    
  3.8             -1.7592e-009    0.0027169       1.831e-009     
  3.85            -2.4085e-009    0.0027884       4.403e-009     
  3.9             2.6975e-009     0.0028584       -1.299e-008    
  3.95            -1.5473e-009    0.0029318       1.9521e-008    
  4               -2.4846e-009    0.0030042       5.603e-009     
  4.05            2.5925e-009     0.003074        -2.4179e-008   
  4.1             -2.53e-009      0.0031488       1.5081e-008    
  4.15            2.7206e-009     0.0032197       -1.7234e-008   
  4.2             2.5329e-009     0.0032931       -1.45e-009     
  4.25            -2.5054e-009    0.0033669       2.3001e-008    
  4.3             -2.0355e-009    0.0034392       1.492e-009     
  4.35            -1.4645e-009    0.0035126       3.179e-009     
  4.4             -2.5124e-009    0.0035868       6.334e-009     
  4.45            2.5218e-009     0.0036568       -2.4553e-008   
  4.5             -2.4974e-009    0.0037313       1.3727e-008    
  4.55            -2.0015e-009    0.0038035       1.447e-009     
  4.6             -1.4473e-009    0.0038761       3.124e-009     
  4.65            -2.5178e-009    0.0039478       6.449e-009     
  4.7             2.5028e-009     0.0040173       -2.4625e-008   
  4.75            6.793e-010      0.0040896       9.434e-009     
  4.8             -1.4892e-009    0.00416         1.7524e-008    
  4.85            -2.5071e-009    0.0042295       5.947e-009     
  4.9             2.5367e-009     0.0042964       -2.4514e-008   
  4.95            6.472e-010      0.0043655       9.492e-009     
  5               -1.5242e-009    0.0044328       1.691e-008     
END_DB

BEGIN_DB
 ICCAP_VAR VS         0              
 ICCAP_VAR VB         -2.5           
 ICCAP_VAR VD         0.1            

 #VG              IG              ID              IB             
  0               8.836e-010      9.253e-010      1.7079e-008    
  0.05            2.7234e-009     -9.031e-010     -2.487e-008    
  0.1             -1.9601e-009    1.5178e-009     2.0691e-008    
  0.15            -4.999e-010     -1.8858e-009    3.357e-009     
  0.2             2.3705e-009     -1.1946e-009    -2.1403e-008   
  0.25            1.1581e-009     2.2318e-009     -3.991e-009    
  0.3             -2.4779e-009    1.2316e-009     2.6841e-008    
  0.35            -4.22e-011      -1.7098e-009    1.569e-009     
  0.4             2.7221e-009     -9.036e-010     -2.4704e-008   
  0.45            -1.7745e-009    8.741e-010      1.7783e-008    
  0.5             -6.353e-010     -1.9167e-009    4.323e-009     
  0.55            2.5252e-009     -1.1046e-009    -9.013e-009    
  0.6             4.179e-010      2.2149e-009     9.506e-009     
  0.65            -2.2016e-009    6.575e-010      1.3715e-008    
  0.7             -3.168e-010     -1.8425e-009    2.936e-009     
  0.75            -5.155e-010     -1.8907e-009    -1.0119e-008   
  0.8             2.3553e-009     -1.208e-009     -2.1043e-008   
  0.85            1.1689e-009     2.2236e-009     -4.181e-009    
  0.9             -2.4611e-009    1.2405e-009     2.6722e-008    
  0.95            -5.65e-011      -1.723e-009     1.576e-009     
  1               2.7129e-009     -9.131e-010     -2.4723e-008   
  1.05            -1.7534e-009    8.95e-010       1.8155e-008    
  1.1             -6.598e-010     -1.8659e-009    4.439e-009     
  1.15            2.1477e-009     -1.0163e-009    -1.7952e-008   
  1.2             1.8406e-009     1.9562e-009     -5.75e-009     
  1.25            2.3003e-009     6.1316e-009     -7.855e-009    
  1.3             -2.2989e-009    2.053e-008      -2.4339e-008   
  1.35            -1.6897e-009    7.7097e-008     2.132e-009     
  1.4             9.884e-010      2.7224e-007     -1.5928e-008   
  1.45            -2.4506e-009    9.0577e-007     2.4533e-008    
  1.5             -1.8599e-009    2.2789e-006     -1.0415e-008   
  1.55            2.5912e-009     4.6201e-006     -2.4097e-008   
  1.6             -2.5307e-009    7.8825e-006     1.517e-008     
  1.65            2.7123e-009     1.1484e-005     1.462e-009     
  1.7             -1.4601e-009    1.5482e-005     1.8158e-008    
  1.75            -2.5207e-009    1.9437e-005     6.505e-009     
  1.8             2.5059e-009     2.325e-005      -2.4825e-008   
  1.85            6.779e-010      2.7139e-005     9.386e-009     
  1.9             -1.4958e-009    3.0879e-005     1.7747e-008    
  1.95            -2.5099e-009    3.4471e-005     6.157e-009     
  2               2.5336e-009     3.7845e-005     -2.4474e-008   
  2.05            6.486e-010      4.1244e-005     9.538e-009     
  2.1             -1.522e-009     4.4485e-005     1.9016e-008    
  2.15            -2.4972e-009    4.7596e-005     5.761e-009     
  2.2             2.5701e-009     5.0522e-005     -2.4274e-008   
  2.25            6.185e-010      5.3462e-005     9.548e-009     
  2.3             -1.551e-009     5.6264e-005     1.9772e-008    
  2.35            -2.4865e-009    5.8959e-005     5.411e-009     
  2.4             2.6083e-009     6.1503e-005     -2.4235e-008   
  2.45            5.902e-010      6.4061e-005     9.655e-009     
  2.5             -1.5895e-009    6.6517e-005     1.6136e-008    
  2.55            -2.4719e-009    6.8858e-005     5.113e-009     
  2.6             -8.209e-010     7.1111e-005     -9.939e-009    
  2.65            2.7284e-009     7.3269e-005     -1.3911e-008   
  2.7             -1.6312e-009    7.5486e-005     2.113e-008     
  2.75            -2.4552e-009    7.7552e-005     4.97e-009      
  2.8             2.6568e-009     7.9554e-005     -2.3832e-008   
  2.85            -1.4339e-009    8.1527e-005     1.6503e-008    
  2.9             -2.5163e-009    8.3447e-005     6.504e-009     
  2.95            -9.236e-010     8.5261e-005     -9.494e-009    
  3               2.6746e-009     8.6981e-005     -1.1603e-008   
  3.05            -1.3622e-009    8.8792e-005     2.0133e-008    
  3.1             -2.5455e-009    9.0468e-005     7.607e-009     
  3.15            2.3758e-009     9.2066e-005     -2.5272e-008   
  3.2             1.6707e-009     9.3677e-005     -3.913e-009    
  3.25            2.5052e-009     9.5206e-005     -8.78e-009     
  3.3             -2.301e-009     9.6765e-005     1.1437e-008    
  3.35            -1.675e-009     9.8176e-005     2.288e-009     
  3.4             -2.4286e-009    9.9604e-005     4.455e-009     
  3.45            -7.5e-010       0.000100972     -1.0312e-008   
  3.5             2.7339e-009     0.000102279     -1.5644e-008   
  3.55            2.4825e-009     0.000103644     -1.587e-009    
  3.6             -2.4829e-009    0.000104938     1.1495e-008    
  3.65            -1.9544e-009    0.000106137     1.59e-009      
  3.7             -1.4144e-009    0.000107334     3.527e-009     
  3.75            -2.5218e-009    0.000108527     6.552e-009     
  3.8             2.4821e-009     0.00010964      -2.5059e-008   
  3.85            6.951e-010      0.000110762     9.387e-009     
  3.9             -1.4602e-009    0.000111858     1.7799e-008    
  3.95            -2.508e-009     0.000112906     6.375e-009     
  4               2.5233e-009     0.000113913     -2.505e-008    
  4.05            1.42e-010       0.00011498      9.478e-009     
  4.1             2.7089e-009     0.000116        -2.2272e-008   
  4.15            -1.4295e-009    0.00011696      1.8444e-008    
