! VERSION = 6.00
BEGIN_HEADER
 ICCAP_INPUTS
  VG         V  B GROUND SMU4 0.001 LIN        1    0          5          101  0.05      
  VS         V  E GROUND SMU2 0.1 CON        0
  VB         V  C GROUND SMU3 0.1 LIN        3    0          -5         3    -2.5      
  VD         V  S GROUND SMU1 0.1 LIN        2    0.1        5          2    4.9       
 ICCAP_OUTPUTS
  IG         I  B GROUND SMU4 B
  ID         I  S GROUND SMU1 B
  IB         I  C GROUND SMU3 B
END_HEADER

BEGIN_DB
 ICCAP_VAR VS         0              
 ICCAP_VAR VB         0              
 ICCAP_VAR VD         0.1            

 #VG              IG              ID              IB             
  0               -2.6429e-008    -4.1286e-007    4.3895e-007    
  0.05            -7e-013         -4.094e-007     2.696e-009     
  0.1             1.9275e-009     -6.253e-008     2.9628e-007    
  0.15            2.3329e-009     -1.1434e-007    3.5036e-007    
  0.2             2.4902e-009     -1.7278e-007    3.975e-007     
  0.25            2.5961e-009     -2.2593e-007    4.3083e-007    
  0.3             2.7455e-009     -4.34e-009      4.37e-007      
  0.35            2.6094e-009     -1.204e-008     4.3539e-007    
  0.4             1.9355e-009     -5.975e-008     4.3717e-007    
  0.45            2.5651e-009     -1.7871e-007    4.3962e-007    
  0.5             2.6439e-009     -2.3335e-007    4.3014e-007    
  0.55            2.7518e-009     5.5e-010        4.3464e-007    
  0.6             2.5546e-009     3.87e-009       4.3521e-007    
  0.65            1.8521e-009     -1.858e-008     4.3625e-007    
  0.7             2.5848e-009     1.94e-009       4.3939e-007    
  0.75            2.726e-009      5.9168e-007     4.3401e-007    
  0.8             2.6193e-009     1.136e-006      1.318e-008     
  0.85            1.9403e-009     3.358e-006      4.5368e-007    
  0.9             2.565e-009      5.945e-006      4.5486e-007    
  0.95            2.7096e-009     9.4526e-006     4.4399e-007    
  1               -1.4513e-009    1.2769e-005     4.4825e-007    
  1.05            -2.525e-009     1.6951e-005     4.6143e-007    
  1.1             -2.5401e-009    2.0962e-005     4.4759e-007    
  1.15            -2.295e-009     2.4846e-005     4.4898e-007    
  1.2             -1.6462e-009    2.8653e-005     4.5401e-007    
  1.25            -2.5021e-009    3.2213e-005     4.6109e-007    
  1.3             -2.5471e-009    3.5863e-005     4.3972e-007    
  1.35            -2.4411e-009    3.9338e-005     4.5169e-007    
  1.4             -1.8886e-009    4.2735e-005     4.5217e-007    
  1.45            -2.4329e-009    4.5915e-005     4.5871e-007    
  1.5             -2.5381e-009    4.9124e-005     4.2284e-007    
  1.55            -2.5199e-009    5.2171e-005     4.4625e-007    
  1.6             -2.139e-009     5.518e-005      4.4928e-007    
  1.65            -1.4821e-009    5.8027e-005     4.5389e-007    
  1.7             -2.5227e-009    6.0712e-005     4.6041e-007    
  1.75            -2.5392e-009    6.3555e-005     4.4674e-007    
  1.8             -2.3351e-009    6.6204e-005     4.4808e-007    
  1.85            -1.6979e-009    6.8797e-005     4.5469e-007    
  1.9             -2.4903e-009    7.12e-005       4.5932e-007    
  1.95            -2.5443e-009    7.3715e-005     4.3762e-007    
  2               -2.4678e-009    7.6075e-005     4.5101e-007    
  2.05            -1.951e-009     7.842e-005      4.4997e-007    
  2.1             -1.3536e-009    8.0601e-005     4.5949e-007    
  2.15            2.322e-010      8.2757e-005     1.077e-008     
  2.2             -1.6469e-009    8.459e-005      9.637e-008     
  2.25            -2.5049e-009    8.6955e-005     4.6015e-007    
  2.3             -2.5468e-009    8.9092e-005     4.4551e-007    
  2.35            -2.433e-009     9.1083e-005     4.493e-007     
  2.4             -1.8766e-009    9.3045e-005     4.5162e-007    
  2.45            -2.4347e-009    9.4854e-005     4.5917e-007    
  2.5             -2.5421e-009    9.6784e-005     4.2277e-007    
  2.55            -2.5166e-009    9.8565e-005     4.491e-007     
  2.6             -2.1234e-009    0.000100348     4.5256e-007    
  2.65            -1.4712e-009    0.000102062     4.5713e-007    
  2.7             -2.5253e-009    0.000103628     4.609e-007     
  2.75            -2.5402e-009    0.000105411     4.4662e-007    
  2.8             -2.3325e-009    0.000107024     4.5041e-007    
  2.85            -1.6942e-009    0.000108578     4.5406e-007    
  2.9             -2.4879e-009    0.000110015     4.6055e-007    
  2.95            -2.5421e-009    0.000111615     4.3754e-007    
  3               -2.4654e-009    0.000113072     4.4857e-007    
  3.05            2.7269e-009     0.00011465      4.517e-007     
  3.1             2.6974e-009     0.00011607      4.4961e-007    
  3.15            2.1677e-009     0.00011744      4.5019e-007    
  3.2             2.509e-009      0.0001187       4.5214e-007    
  3.25            2.6884e-009     0.00012005      4.2824e-007    
  3.3             2.7454e-009     0.00012137      4.4955e-007    
  3.35            2.4233e-009     0.00012262      4.4828e-007    
  3.4             1.6534e-009     0.00012383      4.527e-007     
  3.45            2.6327e-009     0.00012487      4.5177e-007    
  3.5             2.7476e-009     0.00012619      4.502e-007     
  3.55            2.6106e-009     0.00012735      4.4843e-007    
  3.6             1.9508e-009     0.00012843      4.5096e-007    
  3.65            2.5633e-009     0.00012945      4.552e-007     
  3.7             2.7178e-009     0.00013061      4.4439e-007    
  3.75            2.7169e-009     0.00013168      4.492e-007     
  3.8             2.241e-009      0.00013269      4.5046e-007    
  3.85            1.4719e-009     0.00013359      4.5381e-007    
  3.9             2.6711e-009     0.00013446      4.5087e-007    
  3.95            2.7524e-009     0.00013559      4.5148e-007    
  4               2.4788e-009     0.00013651      4.4995e-007    
  4.05            1.7312e-009     0.0001374       4.5147e-007    
  4.1             2.6207e-009     0.00013819      4.5455e-007    
  4.15            2.7438e-009     0.00013915      4.5004e-007    
  4.2             2.6429e-009     0.00014004      4.5139e-007    
  4.25            2.021e-009      0.00014085      4.5226e-007    
  4.3             2.5491e-009     0.00014156      4.5539e-007    
  4.35            2.7126e-009     0.00014244      4.3845e-007    
  4.4             2.7325e-009     0.00014324      4.5022e-007    
  4.45            2.3034e-009     0.00014396      4.5111e-007    
  4.5             1.5316e-009     0.00014466      4.5367e-007    
  4.55            2.6594e-009     0.00014525      4.5399e-007    
  4.6             2.7561e-009     0.00014614      4.5011e-007    
  4.65            2.5256e-009     0.00014682      4.4993e-007    
  4.7             1.7948e-009     0.00014744      4.5275e-007    
  4.75            2.6039e-009     0.000148        4.5548e-007    
  4.8             2.7405e-009     0.00014875      4.5454e-007    
  4.85            2.6712e-009     0.00014939      4.4959e-007    
  4.9             2.0868e-009     0.00014997      4.5147e-007    
  4.95            2.5383e-009     0.00015048      4.5448e-007    
  5               2.7074e-009     0.0001511       4.3776e-007    
END_DB

BEGIN_DB
 ICCAP_VAR VS         0              
 ICCAP_VAR VB         0              
 ICCAP_VAR VD         5              

 #VG              IG              ID              IB             
  0               -1.182e-008     6.827e-009      1.0303e-008    
  0.05            -1.204e-008     1.408e-008      4.544e-007     
  0.1             -4.1432e-007    3.251e-009      4.3276e-007    
  0.15            1.15e-009       8.0781e-008     1.7411e-007    
  0.2             -1.227e-008     1.546e-009      3.949e-007     
  0.25            -1.2185e-008    1.916e-009      3.7325e-007    
  0.3             -9.427e-008     7.1069e-008     3.3351e-007    
  0.35            -9.52e-009      2.116e-009      1.12313e-007   
  0.4             -1.234e-008     4.2896e-008     3.1147e-007    
  0.45            -1.9076e-007    5.904e-008      2.9945e-007    
  0.5             -2.017e-008     5.6723e-008     2.4783e-008    
  0.55            -2.91e-009      5.5679e-008     -2.45e-009     
  0.6             -1.002e-008     1.9624e-008     1.877e-008     
  0.65            -2.712e-007     6.1079e-008     1.12896e-007   
  0.7             -3.999e-008     2.5461e-007     1.287e-007     
  0.75            -7.95e-009      6.802e-007      5.58e-010      
  0.8             -7.58e-009      1.7634e-006     -1.157e-008    
  0.85            -6.95e-009      3.7217e-006     1.453e-009     
  0.9             -1.935e-008     7.4988e-006     -4.5718e-008   
  0.95            1.49e-009       1.2866e-005     -1.7402e-008   
  1               1.422e-009      1.9853e-005     -2.7048e-008   
  1.05            -7.7167e-008    2.8639e-005     -1.2513e-007   
  1.1             -5.413e-008     3.9229e-005     -1.7464e-007   
  1.15            -2.8735e-008    5.1552e-005     -2.1234e-007   
  1.2             -1.1885e-008    6.5709e-005     -2.4913e-007   
  1.25            -2.8397e-008    8.1646e-005     -2.8448e-007   
  1.3             -1.5631e-008    9.9352e-005     -3.118e-007    
  1.35            -2.8865e-008    0.00011883      -3.5104e-007   
  1.4             -1.5069e-008    0.00013996      -3.7206e-007   
  1.45            -2.2414e-008    0.00016269      -3.9585e-007   
  1.5             -2.9552e-008    0.00018716      -4.1573e-007   
  1.55            -3.0528e-008    0.00021333      -4.3227e-007   
  1.6             -2.6582e-008    0.00024105      -4.453e-007    
  1.65            -1.8145e-008    0.00027036      -4.5325e-007   
  1.7             -2.657e-008     0.00030106      -4.5525e-007   
  1.75            -3.0286e-008    0.00033343      -4.5435e-007   
  1.8             -2.8942e-008    0.0003673       -4.5036e-007   
  1.85            -1.4787e-008    0.00040265      -4.4339e-007   
  1.9             -2.1957e-008    0.00043926      -4.3212e-007   
  1.95            -2.9536e-008    0.0004773       -4.1677e-007   
  2               -3.0402e-008    0.00051682      -3.9987e-007   
  2.05            -2.6882e-008    0.00055764      -3.8207e-007   
  2.1             -1.7711e-008    0.00059971      -3.6208e-007   
  2.15            -2.5956e-008    0.0006428       -3.4146e-007   
  2.2             -3.0378e-008    0.00068741      -3.1784e-007   
  2.25            -2.9179e-008    0.00073321      -2.94e-007     
  2.3             -1.4323e-008    0.00078014      -2.7069e-007   
  2.35            -2.1468e-008    0.00082798      -2.5005e-007   
  2.4             -2.9068e-008    0.00087703      -2.2616e-007   
  2.45            -3.0263e-008    0.0009273       -2.0312e-007   
  2.5             -2.7121e-008    0.00097867      -1.8078e-007   
  2.55            -1.7332e-008    0.00103088      -1.5968e-007   
  2.6             -2.5381e-008    0.0010839       -1.4191e-007   
  2.65            -3.0185e-008    0.0011389       -1.2344e-007   
  2.7             -1.9958e-008    0.0011947       -1.0733e-007   
  2.75            -1.283e-008     0.0012508       -9.6884e-008   
  2.8             -3.0328e-008    0.0013076       -6.9608e-008   
  2.85            -2.9247e-008    0.0013652       -6.5481e-008   
  2.9             -1.4225e-008    0.0014238       -5.4697e-008   
  2.95            -2.0984e-008    0.0014827       -4.4167e-008   
  3               -2.8902e-008    0.0015426       -3.5751e-008   
  3.05            -3.0294e-008    0.0016036       -2.9011e-008   
  3.1             -2.7081e-008    0.0016647       -2.3344e-008   
  3.15            -1.4514e-008    0.001727        -1.828e-008    
  3.2             -2.9038e-008    0.0017894       -7.344e-009    
  3.25            -3.0298e-008    0.0018527       -1.0206e-008   
  3.3             -2.9815e-008    0.0019167       4.543e-009     
  3.35            -2.6443e-008    0.0019808       7.858e-009     
  3.4             -1.7623e-008    0.0020458       9.287e-009     
  3.45            -1.7596e-008    0.0021113       1.0651e-008    
  3.5             -1.7885e-008    0.0021772       1.1564e-008    
  3.55            -1.4068e-008    0.0022436       1.2447e-008    
  3.6             -1.7783e-008    0.0023104       1.3425e-008    
  3.65            -2.5922e-008    0.0023776       1.4692e-008    
  3.7             -2.6319e-008    0.0024452       1.5538e-008    
  3.75            -2.9503e-008    0.0025132       1.1815e-008    
  3.8             -1.9408e-008    0.0025815       1.3122e-008    
  3.85            -1.899e-008     0.0026502       1.3377e-008    
  3.9             -1.8824e-008    0.0027189       1.3812e-008    
  3.95            -1.8556e-008    0.0027884       1.4139e-008    
  4               -1.7905e-008    0.0028579       1.4286e-008    
  4.05            -1.812e-008     0.0029276       1.4427e-008    
  4.1             -1.8024e-008    0.0029975       1.4674e-008    
  4.15            -1.7842e-008    0.0030679       1.4916e-008    
  4.2             -1.7655e-008    0.0031383       1.5107e-008    
  4.25            -1.7499e-008    0.0032088       1.5258e-008    
  4.3             -1.7308e-008    0.0032803       1.5117e-008    
  4.35            -1.6483e-008    0.003351        1.5134e-008    
  4.4             -1.2582e-008    0.0034219       1.502e-008     
  4.45            -2.6717e-009    0.0034929       1.4972e-008    
  4.5             -2.6247e-009    0.0035646       1.498e-008     
  4.55            -1.8382e-009    0.0036351       2.927e-009     
  4.6             -1.7084e-009    0.0037058       5.156e-009     
  4.65            -1.7294e-009    0.0037768       1.0113e-008    
  4.7             -1.5736e-009    0.0038472       1.4388e-008    
  4.75            -1.9974e-009    0.0039171       1.5167e-008    
  4.8             -1.7062e-009    0.0039874       4.323e-009     
  4.85            -1.7513e-009    0.0040573       8.216e-009     
  4.9             -1.6449e-009    0.0041266       1.3457e-008    
  4.95            -2.175e-009     0.0041952       1.4703e-008    
  5               -1.7386e-009    0.0042634       3.839e-009     
END_DB

BEGIN_DB
 ICCAP_VAR VS         0              
 ICCAP_VAR VB         -2.5           
 ICCAP_VAR VD         0.1            

 #VG              IG              ID              IB             
  0               -3.3685e-009    -1.4417e-008    1.728e-009     
  0.05            -6.477e-010     -1.461e-008     1.5118e-008    
  0.1             -5.622e-010     -1.5035e-008    1.4836e-008    
  0.15            -5.041e-010     -1.5344e-008    1.478e-008     
  0.2             -4.715e-010     -1.5764e-008    1.4829e-008    
  0.25            -4.318e-010     -1.6007e-008    1.4747e-008    
  0.3             -3.879e-010     -1.6138e-008    1.4694e-008    
  0.35            -3.404e-010     -1.623e-008     1.4827e-008    
  0.4             -2.94e-010      -1.6404e-008    1.4827e-008    
  0.45            -2.51e-010      -1.6468e-008    1.4975e-008    
  0.5             -1.985e-010     -1.6395e-008    1.4947e-008    
  0.55            -1.637e-010     -1.6043e-008    1.4832e-008    
  0.6             -1.139e-010     -1.5448e-008    1.4964e-008    
  0.65            -6.01e-011      -1.5092e-008    1.4693e-008    
  0.7             -1.57e-011      -1.4368e-008    1.4393e-008    
  0.75            3.07e-011       -1.3764e-008    1.4201e-008    
  0.8             7.39e-011       -1.3235e-008    1.3894e-008    
  0.85            1.275e-010      -1.2596e-008    1.386e-008     
  0.9             1.618e-010      -1.2029e-008    1.3676e-008    
  0.95            -1.7376e-009    -1.7408e-008    1.3497e-008    
  1               -1.7187e-009    -1.8347e-008    1.3291e-008    
  1.05            -1.7029e-009    -1.9278e-008    1.7171e-008    
  1.1             -7.926e-010     -1.4071e-008    1.8413e-008    
  1.15            -7.717e-010     -1.3885e-008    1.9515e-008    
  1.2             -7.434e-010     -1.2804e-008    2.0707e-008    
  1.25            -7.096e-010     -7.652e-009     2.2021e-008    
  1.3             -1.6317e-009    2.7131e-008     1.543e-008     
  1.35            -1.3441e-009    9.0741e-008     4.808e-009     
  1.4             -8.829e-010     2.9693e-007     1.4911e-008    
  1.45            -1.2998e-009    9.7802e-007     1.5593e-008    
  1.5             2.0478e-009     2.4075e-006     1.4895e-008    
  1.55            -1.8641e-009    4.8029e-006     1.4712e-008    
  1.6             -1.384e-009     7.9057e-006     4.172e-009     
  1.65            1.2896e-009     1.1347e-005     7.489e-009     
  1.7             -2.1006e-009    1.5177e-005     1.4975e-008    
  1.75            -1.494e-009     1.894e-005      3.45e-009      
  1.8             -1.343e-009     2.2701e-005     5.934e-009     
  1.85            -1.3554e-009    2.6389e-005     1.1223e-008    
  1.9             -1.2816e-009    2.9988e-005     1.496e-008     
  1.95            -1.6396e-009    3.3454e-005     1.5533e-008    
  2               -1.3408e-009    3.6855e-005     4.702e-009     
  2.05            -1.3609e-009    4.0141e-005     9.138e-009     
  2.1             -1.3106e-009    4.3331e-005     1.4113e-008    
  2.15            -1.8198e-009    4.6396e-005     1.4923e-008    
  2.2             -1.3675e-009    4.9384e-005     4.27e-009      
  2.25            -1.3558e-009    5.2287e-005     7.654e-009     
  2.3             -1.3329e-009    5.5102e-005     1.3256e-008    
  2.35            -2.0201e-009    5.781e-005      1.49e-008      
  2.4             -1.4371e-009    6.0439e-005     3.78e-009      
  2.45            -1.3422e-009    6.3011e-005     6.436e-009     
  2.5             -1.3494e-009    6.5515e-005     1.2084e-008    
  2.55            -2.189e-009     6.7936e-005     1.5067e-008    
  2.6             -1.5558e-009    7.0267e-005     2.88e-009      
  2.65            -1.3392e-009    7.2588e-005     5.117e-009     
  2.7             -1.3605e-009    7.4819e-005     9.958e-009     
  2.75            -1.2965e-009    7.6992e-005     1.4545e-008    
  2.8             -1.7409e-009    7.908e-005      1.522e-008     
  2.85            -1.3514e-009    8.1118e-005     4.523e-009     
  2.9             -1.3585e-009    8.3116e-005     8.152e-009     
  2.95            -1.3232e-009    8.5067e-005     1.3671e-008    
  3               -1.9284e-009    8.695e-005      1.4694e-008    
  3.05            -1.4017e-009    8.8771e-005     4.055e-009     
  3.1             -1.3474e-009    9.0566e-005     6.936e-009     
  3.15            -1.3419e-009    9.2329e-005     1.2834e-008    
  3.2             -2.1268e-009    9.4027e-005     1.5091e-008    
  3.25            -1.4956e-009    9.5664e-005     3.241e-009     
  3.3             -1.3404e-009    9.7292e-005     5.629e-009     
  3.35            -1.3594e-009    9.8871e-005     1.0924e-008    
  3.4             -1.2854e-009    0.000100418     1.4785e-008    
  3.45            -1.6598e-009    0.000101899     1.5227e-008    
  3.5             -1.3454e-009    0.000103352     4.728e-009     
  3.55            -1.3603e-009    0.000104778     8.933e-009     
  3.6             -1.3113e-009    0.000106187     1.3937e-008    
  3.65            -1.8444e-009    0.000107522     1.4768e-008    
  3.7             -1.3709e-009    0.000108836     4.371e-009     
  3.75            -1.3549e-009    0.000110117     7.484e-009     
  3.8             -1.3353e-009    0.000111394     1.3288e-008    
  3.85            -2.039e-009     0.000112624     1.4947e-008    
  3.9             -1.4471e-009    0.000113797     3.686e-009     
  3.95            2.2326e-009     0.00011506      6.2e-009       
  4               -2.2641e-009    0.00011624      1.4931e-008    
  4.05            -1.6142e-009    0.00011735      2.512e-009     
  4.1             -1.3409e-009    0.00011841      4.804e-009     
  4.15            -1.3627e-009    0.00011951      9.24e-009      
