! VERSION = 6.00
BEGIN_HEADER
 ICCAP_INPUTS
  VG         V  B GROUND SMU4 0.001 LIN        1    0          5          101  0.05      
  VS         V  E GROUND SMU2 0.1 CON        0
  VB         V  C GROUND SMU3 0.1 LIN        3    0          -5         3    -2.5      
  VD         V  S GROUND SMU1 0.1 LIN        2    0.1        5          2    4.9       
 ICCAP_OUTPUTS
  IG         I  B GROUND SMU4 B
  ID         I  S GROUND SMU1 B
  IB         I  C GROUND SMU3 B
END_HEADER

BEGIN_DB
 ICCAP_VAR VS         0              
 ICCAP_VAR VB         0              
 ICCAP_VAR VD         0.1            

 #VG              IG              ID              IB             
  0               1.1461e-009     1.5208e-009     6.693e-009     
  0.05            2.194e-009      1.419e-009      -1.084e-008    
  0.1             -2.1683e-009    9.715e-010      1.5112e-008    
  0.15            -3.742e-010     -1.6214e-009    2.987e-009     
  0.2             2.6885e-009     -6.507e-010     -1.0776e-008   
  0.25            -1.8716e-009    1.8867e-009     1.9115e-008    
  0.3             2.7112e-009     -1.0873e-009    4.484e-009     
  0.35            -1.8399e-009    1.5023e-009     1.7144e-008    
  0.4             -1.553e-009     1.2506e-009     4.495e-009     
  0.45            -1.3556e-009    4.6692e-009     5.021e-009     
  0.5             2.5e-009        1.7055e-008     1.4327e-008    
  0.55            -2.4697e-009    6.0049e-008     1.2017e-008    
  0.6             5.229e-010      2.0309e-007     -1.1266e-008   
  0.65            -1.6856e-009    7.2755e-007     1.5767e-008    
  0.7             -2.3495e-009    2.226e-006      -1.7205e-008   
  0.75            1.6515e-009     6.8417e-006     -1.8011e-008   
  0.8             -1.926e-009     1.8007e-005     -6.917e-009    
  0.85            -1.3461e-009    3.7767e-005     4.308e-009     
  0.9             -2.5683e-009    6.6694e-005     6.915e-009     
  0.95            -9.996e-010     0.000100358     -9.81e-009     
  1               -1.8035e-009    0.00013492      -1.1699e-008   
  1.05            -8.384e-010     0.00016626      -1.0905e-008   
  1.1             2.6986e-009     0.00019421      -1.3591e-008   
  1.15            -1.4157e-009    0.00022055      1.7953e-008    
  1.2             -2.5618e-009    0.0002433       6.214e-009     
  1.25            2.4709e-009     0.00026318      -2.5345e-008   
  1.3             1.7533e-009     0.00028162      -3.742e-009    
  1.35            2.5619e-009     0.00029826      -8.69e-009     
  1.4             -2.3576e-009    0.00031382      1.2275e-008    
  1.45            -1.7331e-009    0.00032759      1.84e-009      
  1.5             -2.5043e-009    0.00034047      4.33e-009      
  1.55            -7.32e-010      0.00035221      -1.1169e-008   
  1.6             -1.0893e-009    0.00036331      -9.082e-009    
  1.65            2.4931e-009     0.00037347      -1.4859e-008   
  1.7             -2.474e-009     0.00038333      1.1843e-008    
  1.75            -1.9334e-009    0.00039221      1.311e-009     
  1.8             -1.3603e-009    0.00040083      4.128e-009     
  1.85            -2.5673e-009    0.00040894      6.731e-009     
  1.9             -9.845e-010     0.00041646      -9.931e-009    
  1.95            1.895e-010      0.00042329      -1.042e-008    
  2               2.6988e-009     0.00043045      -2.0539e-008   
  2.05            -1.5866e-009    0.00043714      2.0928e-008    
  2.1             -2.5488e-009    0.00044329      5.12e-009      
  2.15            -8.42e-010      0.00044916      -1.1146e-008   
  2.2             2.6938e-009     0.00045462      -1.3546e-008   
  2.25            -1.5748e-009    0.00046039      2.0961e-008    
  2.3             -2.5504e-009    0.00046551      5.176e-009     
  2.35            -8.43e-010      0.00047042      -1.1148e-008   
  2.4             2.6922e-009     0.000475        -1.3493e-008   
  2.45            -1.5668e-009    0.00047987      2.0903e-008    
  2.5             -2.5573e-009    0.00048427      5.262e-009     
  2.55            -8.479e-010     0.00048849      -1.0977e-008   
  2.6             2.6839e-009     0.00049245      -1.3366e-008   
  2.65            -1.5585e-009    0.00049667      2.0715e-008    
  2.7             -2.5594e-009    0.00050047      5.25e-009      
  2.75            -8.581e-010     0.00050416      -1.0987e-008   
  2.8             2.6758e-009     0.00050741      -1.3198e-008   
  2.85            -1.5439e-009    0.00051113      2.0566e-008    
  2.9             -2.5622e-009    0.00051446      5.366e-009     
  2.95            -8.633e-010     0.00051767      -1.1166e-008   
  3               2.678e-009      0.00052046      -1.3049e-008   
  3.05            -1.5361e-009    0.00052375      2.0153e-008    
  3.1             -2.5639e-009    0.00052671      5.589e-009     
  3.15            2.4579e-009     0.00052958      -1.5875e-008   
  3.2             1.7137e-009     0.00053224      -4.369e-009    
  3.25            2.5897e-009     0.00053488      -9.013e-009    
  3.3             7.481e-010      0.00053744      9.638e-009     
  3.35            -1.3869e-009    0.00053988      1.5746e-008    
  3.4             -2.5678e-009    0.00054251      6.704e-009     
  3.45            2.4483e-009     0.00054482      -2.5468e-008   
  3.5             1.7081e-009     0.0005471       -4.251e-009    
  3.55            2.5841e-009     0.00054934      -8.897e-009    
  3.6             -2.3391e-009    0.00055159      1.2934e-008    
  3.65            -1.6954e-009    0.00055352      1.988e-009     
  3.7             -2.5296e-009    0.00055564      4.609e-009     
  3.75            -7.647e-010     0.00055761      -1.1319e-008   
  3.8             2.7009e-009     0.0005594       -1.5629e-008   
  3.85            2.4379e-009     0.00056153      -1.645e-009    
  3.9             1.7208e-009     0.00056331      -4.238e-009    
  3.95            2.5795e-009     0.00056505      -8.756e-009    
  4               -2.3436e-009    0.00056694      1.283e-008     
  4.05            -1.7005e-009    0.00056845      1.915e-009     
  4.1             -2.5274e-009    0.00057013      4.618e-009     
  4.15            -7.58e-010      0.00057175      -1.1174e-008   
  4.2             2.7053e-009     0.00057317      -1.591e-008    
  4.25            -1.5227e-009    0.00057498      1.6878e-008    
  4.3             -2.5562e-009    0.0005763       5.387e-009     
  4.35            -8.74e-010      0.00057775      -1.101e-008    
  4.4             2.6817e-009     0.00057891      -1.2566e-008   
  4.45            -1.5124e-009    0.00058054      1.9247e-008    
  4.5             -2.5601e-009    0.00058187      5.559e-009     
  4.55            2.4373e-009     0.00058329      -1.5871e-008   
  4.6             1.6892e-009     0.00058453      -4.491e-009    
  4.65            2.5919e-009     0.0005857       -9.029e-009    
  4.7             -2.3249e-009    0.00058699      1.2861e-008    
  4.75            -1.675e-009     0.00058798      2.032e-009     
  4.8             -2.5336e-009    0.00058921      4.833e-009     
  4.85            -7.788e-010     0.00059033      -1.1171e-008   
  4.9             2.7005e-009     0.0005912       -1.5408e-008   
  4.95            -1.4978e-009    0.00059257      1.6998e-008    
  5               -2.5617e-009    0.00059352      5.643e-009     
END_DB

BEGIN_DB
 ICCAP_VAR VS         0              
 ICCAP_VAR VB         0              
 ICCAP_VAR VD         5              

 #VG              IG              ID              IB             
  0               1.1361e-009     1.5914e-009     6.713e-009     
  0.05            2.1814e-009     1.4831e-009     -1.0595e-008   
  0.1             -2.2144e-009    1.0398e-009     1.5796e-008    
  0.15            2.6507e-009     -6.22e-010      -1.1041e-008   
  0.2             -1.8358e-009    1.9725e-009     1.8375e-008    
  0.25            2.6801e-009     -1.0984e-009    4.733e-009     
  0.3             -2.0129e-009    2.0141e-009     2.2347e-008    
  0.35            -1.7164e-009    4.416e-010      4.243e-009     
  0.4             -1.4585e-009    1.6772e-009     4.517e-009     
  0.45            -2.4985e-009    5.9547e-009     5.852e-009     
  0.5             2.6516e-009     2.1205e-008     1.6858e-008    
  0.55            2.6846e-009     7.2268e-008     -5.75e-010     
  0.6             2.5359e-009     2.5398e-007     -1.2389e-008   
  0.65            -2.4351e-009    9.3417e-007     5.339e-009     
  0.7             -1.2656e-009    2.9853e-006     -2.9486e-008   
  0.75            -1.6361e-009    9.0633e-006     -6.7706e-008   
  0.8             1.1562e-009     2.3574e-005     -1.5809e-007   
  0.85            2.7016e-009     5.3009e-005     -3.2e-007      
  0.9             2.4858e-009     0.000103504     -5.6707e-007   
  0.95            2.6164e-009     0.00017751      -9.0029e-007   
  1               1.6237e-009     0.0002748       -1.291e-006    
  1.05            2.0104e-009     0.00040031      -1.7138e-006   
  1.1             2.3579e-009     0.00054617      -2.1344e-006   
  1.15            2.5873e-009     0.00071128      -2.523e-006    
  1.2             2.7014e-009     0.00089466      -2.873e-006    
  1.25            2.5781e-009     0.00109417      -3.1655e-006   
  1.3             -1.3105e-009    0.001311        -3.4021e-006   
  1.35            -2.5652e-009    0.0015376       -3.5292e-006   
  1.4             -2.5048e-009    0.0017714       -3.6213e-006   
  1.45            -2.0609e-009    0.0020199       -3.6377e-006   
  1.5             -1.4327e-009    0.0022768       -3.5985e-006   
  1.55            -2.5625e-009    0.0025414       -3.5076e-006   
  1.6             -2.5486e-009    0.0028102       -3.3863e-006   
  1.65            -2.2822e-009    0.003089        -3.219e-006    
  1.7             -1.64e-009      0.0033749       -3.0274e-006   
  1.75            -2.5334e-009    0.0036658       -2.8112e-006   
  1.8             -2.5682e-009    0.0039586       -2.5971e-006   
  1.85            -2.4329e-009    0.0042574       -2.3635e-006   
  1.9             -1.8884e-009    0.0045629       -2.1297e-006   
  1.95            -1.3229e-009    0.0048713       -1.8972e-006   
  2               -2.5672e-009    0.0051832       -1.6775e-006   
  2.05            -2.517e-009     0.0054944       -1.4756e-006   
  2.1             -2.1206e-009    0.0058131       -1.2759e-006   
  2.15            -1.4645e-009    0.0061347       -1.0934e-006   
  2.2             2.6927e-009     0.0064533       -9.3077e-007   
  2.25            2.6393e-009     0.0067781       -7.8574e-007   
  2.3             2.1164e-009     0.0071038       -6.5509e-007   
  2.35            2.4594e-009     0.0074322       -5.4326e-007   
  2.4             2.6569e-009     0.007764        -4.3178e-007   
  2.45            2.6968e-009     0.0080973       -3.517e-007    
  2.5             2.3593e-009     0.0084308       -2.8216e-007   
  2.55            1.6119e-009     0.0087678       -2.2489e-007   
  2.6             2.6015e-009     0.0091033       -1.8063e-007   
  2.65            2.7076e-009     0.0094436       -1.2996e-007   
  2.7             2.5499e-009     0.0097819       -1.0266e-007   
  2.75            -1.5671e-009    0.0101255       -5.9704e-008   
  2.8             -2.5479e-009    0.0104635       -5.2121e-008   
  2.85            -2.5615e-009    0.010801        -4.5643e-008   
  2.9             -2.3808e-009    0.0111414       -3.1386e-008   
  2.95            2.0416e-009     0.011487        -2.3436e-008   
  3               2.4891e-009     0.011825        -2.3548e-008   
  3.05            2.667e-009      0.012165        -7.23e-009     
  3.1             2.6858e-009     0.01251         -8.883e-009    
  3.15            2.2993e-009     0.012847        -8.039e-009    
  3.2             1.5347e-009     0.013182        -9.7e-009      
  3.25            2.621e-009      0.01352         -1.1993e-008   
  3.3             -2.2322e-009    0.013868        1.1815e-008    
  3.35            -8.498e-010     0.0142          -1.2426e-008   
  3.4             2.6929e-009     0.014528        -1.4198e-008   
  3.45            -1.5549e-009    0.014871        1.9945e-008    
  3.5             -2.5513e-009    0.015201        4.616e-009     
  3.55            -8.479e-010     0.015523        -1.1215e-008   
  3.6             2.6912e-009     0.015845        -1.357e-008    
  3.65            -1.5641e-009    0.016171        2.0335e-008    
  3.7             -2.5508e-009    0.016483        4.985e-009     
  3.75            -8.449e-010     0.016791        -1.1068e-008   
  3.8             2.6906e-009     0.017088        -1.3398e-008   
  3.85            -1.5624e-009    0.017389        2.0665e-008    
  3.9             -2.5491e-009    0.017675        5.018e-009     
  3.95            -8.471e-010     0.017953        -1.1233e-008   
  4               2.6939e-009     0.018219        -1.3497e-008   
  4.05            -1.5677e-009    0.018487        2.0797e-008    
  4.1             -2.5522e-009    0.018738        4.99e-009      
  4.15            -8.43e-010      0.018976        -1.0986e-008   
  4.2             2.6894e-009     0.019206        -1.3439e-008   
  4.25            -1.5702e-009    0.019435        2.072e-008     
  4.3             -2.5505e-009    0.019647        4.96e-009      
  4.35            -8.435e-010     0.019849        -1.0979e-008   
  4.4             2.6905e-009     0.020041        -1.3579e-008   
  4.45            -1.5771e-009    0.020231        2.1054e-008    
  4.5             -2.5504e-009    0.020407        5.03e-009      
  4.55            -8.337e-010     0.020575        -1.1296e-008   
  4.6             2.6806e-009     0.020735        -1.4137e-008   
  4.65            -1.6138e-009    0.020898        2.1964e-008    
  4.7             -2.5569e-009    0.021043        5.028e-009     
  4.75            -8.257e-010     0.021189        -1.1419e-008   
  4.8             2.6816e-009     0.021323        -1.4523e-008   
  4.85            -1.4452e-009    0.021455        1.7646e-008    
  4.9             -2.5734e-009    0.021586        6.238e-009     
  4.95            -9.238e-010     0.021707        -1.0893e-008   
  5               2.6431e-009     0.021822        -1.1787e-008   
END_DB

BEGIN_DB
 ICCAP_VAR VS         0              
 ICCAP_VAR VB         -2.5           
 ICCAP_VAR VD         0.1            

 #VG              IG              ID              IB             
  0               -2.709e-010     1.072e-009      -6.826e-009    
  0.05            -1.65e-009      1.2745e-009     1.8284e-008    
  0.1             2.6509e-009     -1.2233e-009    4.704e-009     
  0.15            -1.8311e-009    1.9421e-009     1.793e-008     
  0.2             2.6809e-009     -1.1629e-009    4.528e-009     
  0.25            -2.0016e-009    1.8701e-009     2.194e-008     
  0.3             1.6006e-009     -1.1197e-009    4.165e-009     
  0.35            2.5078e-009     1.428e-009      -9.282e-009    
  0.4             -1.7043e-009    1.9966e-009     1.5331e-008    
  0.45            2.6644e-009     -1.2019e-009    4.65e-009      
  0.5             -1.8782e-009    1.9235e-009     1.8968e-008    
  0.55            2.6836e-009     -1.15e-009      4.619e-009     
  0.6             -2.0497e-009    1.8534e-009     2.299e-008     
  0.65            1.6546e-009     -1.1111e-009    3.966e-009     
  0.7             2.4903e-009     1.431e-009      -9.298e-009    
  0.75            -1.7503e-009    1.98e-009       1.6691e-008    
  0.8             2.6675e-009     -1.179e-009     4.553e-009     
  0.85            -1.9349e-009    1.9507e-009     2.046e-008     
  0.9             -1.6342e-009    2.266e-010      4.286e-009     
  0.95            -1.4017e-009    1.239e-009      4.86e-009      
  1               -2.5292e-009    5.3602e-009     6.516e-009     
  1.05            2.6367e-009     2.05e-008       1.6511e-008    
  1.1             -2.2308e-009    6.5483e-008     1.3724e-008    
  1.15            7.549e-010      2.0603e-007     -1.5689e-008   
  1.2             -1.3932e-009    7.0131e-007     1.5989e-008    
  1.25            -1.4159e-009    2.466e-006      -9.326e-009    
  1.3             2.1591e-009     7.8221e-006     -2.4603e-008   
  1.35            -1.9112e-009    2.1416e-005     1.4508e-008    
  1.4             -9.869e-010     4.6212e-005     -9.896e-009    
  1.45            1.88e-010       7.9534e-005     -1.0625e-008   
  1.5             -7.002e-010     0.00011818      -1.8423e-008   
  1.55            -1.0613e-009    0.00015437      -9.392e-009    
  1.6             1.099e-010      0.0001857       -9.495e-009    
  1.65            2.6522e-009     0.00021405      -2.204e-008    
  1.7             -1.4772e-009    0.00023919      1.8475e-008    
  1.75            -2.5739e-009    0.00026071      6.13e-009      
  1.8             -9.041e-010     0.00027957      -1.0613e-008   
  1.85            2.6504e-009     0.00029617      -1.2332e-008   
  1.9             -1.4769e-009    0.00031202      1.8467e-008    
  1.95            -2.5739e-009    0.00032592      6.091e-009     
  2               2.5253e-009     0.00033833      -2.4352e-008   
  2.05            6.774e-010      0.00035011      9.868e-009     
  2.1             -1.479e-009     0.00036094      1.8606e-008    
  2.15            -2.5746e-009    0.00037095      6.027e-009     
  2.2             -9.018e-010     0.00038016      -1.0979e-008   
  2.25            2.6508e-009     0.00038858      -1.2338e-008   
  2.3             -1.4847e-009    0.00039702      1.8487e-008    
  2.35            -2.5734e-009    0.0004047       6.089e-009     
  2.4             2.5276e-009     0.00041181      -2.4251e-008   
  2.45            -2.4758e-009    0.0004188       1.1528e-008    
  2.5             -2.018e-009     0.00042509      1.167e-009     
  2.55            -1.4112e-009    0.00043139      3.822e-009     
  2.6             -2.5797e-009    0.00043726      6.581e-009     
  2.65            2.4739e-009     0.00044271      -2.467e-008    
  2.7             7.271e-010      0.00044803      9.732e-009     
  2.75            -1.4225e-009    0.00045307      1.6932e-008    
  2.8             -2.5765e-009    0.00045799      6.491e-009     
  2.85            -9.396e-010     0.00046256      -1.0332e-008   
  2.9             2.331e-010      0.00046673      -1.1508e-008   
  2.95            2.6863e-009     0.00047125      -1.9598e-008   
  3               -1.5027e-009    0.00047541      1.7498e-008    
  3.05            -2.5735e-009    0.00047932      5.86e-009      
  3.1             2.5453e-009     0.00048303      -2.4068e-008   
  3.15            6.624e-010      0.00048672      9.844e-009     
  3.2             -1.5093e-009    0.00049019      1.9245e-008    
  3.25            -2.5746e-009    0.00049357      5.775e-009     
  3.3             2.5463e-009     0.00049686      -2.3971e-008   
  3.35            2.4399e-009     0.00049983      7.197e-009     
  3.4             -1.5092e-009    0.00050302      1.9251e-008    
  3.45            -2.5703e-009    0.00050602      5.8e-009       
  3.5             2.546e-009      0.00050889      -2.3885e-008   
  3.55            2.4425e-009     0.00051143      7.279e-009     
  3.6             -1.5104e-009    0.00051424      1.9329e-008    
  3.65            -2.5695e-009    0.00051688      5.873e-009     
  3.7             -8.829e-010     0.00051928      -1.0877e-008   
  3.75            2.6595e-009     0.00052151      -1.287e-008    
  3.8             -1.5112e-009    0.00052405      1.9328e-008    
  3.85            -2.5701e-009    0.00052637      5.784e-009     
  3.9             2.5436e-009     0.00052859      -2.3977e-008   
  3.95            -2.4857e-009    0.00053078      1.1147e-008    
  4               2.6947e-009     0.00053263      -1.7062e-008   
  4.05            -1.5733e-009    0.00053482      1.707e-008     
  4.1             -2.5657e-009    0.00053672      5.389e-009     
  4.15            -8.465e-010     0.00053861      -1.1103e-008   
