! VERSION = 6.00
BEGIN_HEADER
 ICCAP_INPUTS
  VG         V  B GROUND SMU4 0.001 LIN        1    0          5          101  0.05      
  VS         V  E GROUND SMU2 0.1 CON        0
  VB         V  C GROUND SMU3 0.1 LIN        3    0          -5         3    -2.5      
  VD         V  S GROUND SMU1 0.1 LIN        2    0.1        5          2    4.9       
 ICCAP_OUTPUTS
  IG         I  B GROUND SMU4 B
  ID         I  S GROUND SMU1 B
  IB         I  C GROUND SMU3 B
END_HEADER

BEGIN_DB
 ICCAP_VAR VS         0              
 ICCAP_VAR VB         0              
 ICCAP_VAR VD         0.1            

 #VG              IG              ID              IB             
  0               -5.848e-010     8.135e-010      -9.191e-009    
  0.05            -2.2916e-009    1.065e-009      1.2772e-008    
  0.1             2.2699e-009     1.5781e-009     -1.0551e-008   
  0.15            -2.0849e-009    1.182e-009      1.4418e-008    
  0.2             2.6409e-009     -6.775e-010     -9.328e-009    
  0.25            -2.6357e-009    6.314e-010      1.0122e-008    
  0.3             2.6126e-009     1.5337e-009     -1.6047e-008   
  0.35            -2.5516e-009    1.0474e-009     1.0275e-008    
  0.4             -2.3994e-009    6.275e-010      6.69e-010      
  0.45            -2.1631e-009    2.6382e-009     1.367e-009     
  0.5             2.7426e-009     1.101e-008      -1.3584e-008   
  0.55            1.9909e-009     3.5107e-008     7.781e-009     
  0.6             2.0788e-009     1.1565e-007     1.427e-009     
  0.65            2.4862e-009     3.606e-007      -6.586e-009    
  0.7             2.2072e-009     1.1007e-006     1.1214e-008    
  0.75            -1.8348e-009    3.2124e-006     1.34e-008      
  0.8             -1.3403e-009    7.6646e-006     3.768e-009     
  0.85            1.6737e-009     1.5281e-005     5.011e-009     
  0.9             2.6396e-009     2.5665e-005     -8.814e-009    
  0.95            -2.2691e-009    3.77e-005       1.0631e-008    
  1               2.6498e-009     4.8931e-005     -1.0957e-008   
  1.05            -2.5711e-009    6.0098e-005     9.964e-009     
  1.1             1.6868e-009     6.9546e-005     -1.6045e-008   
  1.15            2.6367e-009     7.8328e-005     -8.845e-009    
  1.2             -2.2809e-009    8.6359e-005     1.0694e-008    
  1.25            -8.429e-010     9.3332e-005     -9.578e-009    
  1.3             1.4707e-009     9.9617e-005     -1.8382e-008   
  1.35            2.7092e-009     0.00010546      -8.653e-009    
  1.4             -2.0763e-009    0.000110955     1.2033e-008    
  1.45            -2.5233e-009    0.00011597      -9.65e-009     
  1.5             -7.415e-010     0.00012046      -9.662e-009    
  1.55            1.6186e-009     0.00012462      -1.5156e-008   
  1.6             2.6591e-009     0.00012861      -8.84e-009     
  1.65            -2.2333e-009    0.0001324       1.0901e-008    
  1.7             2.6243e-009     0.00013576      -1.1279e-008   
  1.75            -2.5555e-009    0.00013911      9.991e-009     
  1.8             -2.0916e-009    0.00014215      5.67e-010      
  1.85            2.534e-009      0.00014502      -2.3193e-008   
  1.9             -2.5043e-009    0.00014787      1.0167e-008    
  1.95            -1.9517e-009    0.00015044      6.57e-010      
  2               -1.398e-009     0.00015296      3.14e-009      
  2.05            -2.6278e-009    0.00015536      6.627e-009     
  2.1             2.4334e-009     0.00015757      -2.3366e-008   
  2.15            1.686e-009      0.00015976      -4.441e-009    
  2.2             2.6219e-009     0.0001618       -8.787e-009    
  2.25            -2.296e-009     0.0001639       1.0547e-008    
  2.3             -8.293e-010     0.00016571      -9.595e-009    
  2.35            2.7641e-009     0.00016747      -1.3171e-008   
  2.4             -1.4813e-009    0.00016936      1.6776e-008    
  2.45            -2.6127e-009    0.00017102      5.806e-009     
  2.5             2.5282e-009     0.00017264      -2.3199e-008   
  2.55            -2.4999e-009    0.00017429      1.0158e-008    
  2.6             -1.9435e-009    0.00017576      8.39e-010      
  2.65            2.4165e-009     0.00017721      -2.3366e-008   
  2.7             1.6743e-009     0.00017865      -4.309e-009    
  2.75            2.6303e-009     0.00017996      -8.789e-009    
  2.8             -2.2873e-009    0.00018138      1.0488e-008    
  2.85            -8.416e-010     0.00018259      -9.545e-009    
  2.9             2.759e-009      0.00018377      -1.293e-008    
  2.95            -1.4677e-009    0.00018508      1.6976e-008    
  3               -2.6103e-009    0.00018621      5.791e-009     
  3.05            2.5121e-009     0.0001873       -2.3265e-008   
  3.1             -2.4889e-009    0.00018844      9.92e-009      
  3.15            -1.9243e-009    0.00018944      9.78e-010      
  3.2             2.4039e-009     0.00019047      -2.3314e-008   
  3.25            1.6571e-009     0.00019147      -4.633e-009    
  3.3             2.6375e-009     0.00019241      -8.801e-009    
  3.35            -2.2726e-009    0.00019342      1.07e-008      
  3.4             -8.458e-010     0.00019427      -9.543e-009    
  3.45            2.7584e-009     0.00019509      -1.2687e-008   
  3.5             -1.4601e-009    0.00019605      1.6877e-008    
  3.55            -2.6173e-009    0.00019688      5.967e-009     
  3.6             2.5004e-009     0.00019768      -2.3246e-008   
  3.65            -2.487e-009     0.00019849      9.943e-009     
  3.7             -1.9163e-009    0.00019922      9.39e-010      
  3.75            -1.3794e-009    0.00019996      3.28e-009      
  3.8             -2.6315e-009    0.00020073      6.72e-009      
  3.85            2.4068e-009     0.00020142      -2.3455e-008   
  3.9             1.6643e-009     0.00020214      -4.478e-009    
  3.95            2.6363e-009     0.00020279      -8.8e-009      
  4               -2.2764e-009    0.00020347      1.0804e-008    
  4.05            -8.441e-010     0.00020408      -9.605e-009    
  4.1             2.7576e-009     0.00020462      -1.2767e-008   
  4.15            -1.4575e-009    0.00020534      1.6879e-008    
  4.2             -2.6177e-009    0.0002059       5.816e-009     
  4.25            -9.595e-010     0.00020643      -9.281e-009    
  4.3             2.6861e-009     0.00020704      -1.0107e-008   
  4.35            -1.3488e-009    0.00020762      1.8897e-008    
  4.4             -2.6337e-009    0.0002081       7.644e-009     
  4.45            2.3035e-009     0.00020865      -2.2951e-008   
  4.5             1.5564e-009     0.00020916      -5.212e-009    
  4.55            2.676e-009      0.00020962      -8.718e-009    
  4.6             -2.1852e-009    0.00021017      1.1154e-008    
  4.65            2.6027e-009     0.00021061      -1.1866e-008   
  4.7             -2.5426e-009    0.00021106      1.0067e-008    
  4.75            -2.0523e-009    0.00021145      7.01e-010      
  4.8             -1.4453e-009    0.00021191      2.664e-009     
  4.85            -2.6105e-009    0.00021239      5.795e-009     
  4.9             -9.553e-010     0.00021276      -9.239e-009    
  4.95            2.221e-010      0.0002131       -1.0783e-008   
  5               2.773e-009      0.00021358      -1.9278e-008   
END_DB

BEGIN_DB
 ICCAP_VAR VS         0              
 ICCAP_VAR VB         0              
 ICCAP_VAR VD         5              

 #VG              IG              ID              IB             
  0               1.0237e-009     1.6724e-009     9.939e-009     
  0.05            2.6295e-009     1.6113e-009     -1.6822e-008   
  0.1             -2.5237e-009    9.971e-010      1.0303e-008    
  0.15            -1.85e-011      -1.2225e-009    7.13e-010      
  0.2             2.7497e-009     1.4876e-009     -1.141e-008    
  0.25            -1.7999e-009    1.467e-009      1.6648e-008    
  0.3             -1.5396e-009    3.36e-010       3.693e-009     
  0.35            -1.3734e-009    6.657e-010      4.976e-009     
  0.4             -2.5703e-009    1.5944e-009     6.854e-009     
  0.45            2.7208e-009     4.4779e-009     -1.2786e-008   
  0.5             2.475e-009      1.582e-008      1.1143e-008    
  0.55            -2.5211e-009    5.2449e-008     9.571e-009     
  0.6             -5.761e-010     1.6349e-007     9.003e-009     
  0.65            -9.783e-010     5.2058e-007     -1.2631e-008   
  0.7             1.9434e-009     1.5179e-006     -2.76e-010     
  0.75            2.2813e-009     4.2709e-006     -1.9784e-008   
  0.8             2.5432e-009     1.07362e-005    -5.7341e-008   
  0.85            2.3e-010        2.3111e-005     -1.182e-007    
  0.9             -1.765e-010     4.3029e-005     -2.3813e-007   
  0.95            -6.634e-010     7.1956e-005     -3.6385e-007   
  1               -1.042e-009     0.000110097     -5.0613e-007   
  1.05            -1.9273e-009    0.00015648      -6.585e-007    
  1.1             -2.225e-009     0.0002107       -8.0628e-007   
  1.15            -2.5412e-009    0.00027264      -9.4137e-007   
  1.2             -2.6386e-009    0.00034104      -1.05607e-006  
  1.25            -6.884e-010     0.00041482      -1.1364e-006   
  1.3             -1.467e-009     0.00049571      -1.1975e-006   
  1.35            -2.6103e-009    0.00058019      -1.2587e-006   
  1.4             -2.5951e-009    0.0006681       -1.2873e-006   
  1.45            -2.2406e-009    0.000761        -1.2821e-006   
  1.5             -1.5959e-009    0.00085759      -1.2571e-006   
  1.55            -2.5704e-009    0.00095699      -1.2169e-006   
  1.6             -2.6294e-009    0.00105822      -1.1704e-006   
  1.65            2.6362e-009     0.0011617       -1.097e-006    
  1.7             2.7774e-009     0.0012698       -1.0241e-006   
  1.75            -2.0806e-009    0.0013795       -9.5537e-007   
  1.8             -2.432e-009     0.0014908       -8.6998e-007   
  1.85            -2.6236e-009    0.0016039       -7.8287e-007   
  1.9             -2.5819e-009    0.0017184       -6.9531e-007   
  1.95            -2.1826e-009    0.0018343       -6.1128e-007   
  2               -1.5485e-009    0.0019524       -5.3149e-007   
  2.05            -2.5853e-009    0.002071        -4.5623e-007   
  2.1             -2.6231e-009    0.0021899       -3.9644e-007   
  2.15            -2.3495e-009    0.0023103       -3.3215e-007   
  2.2             -1.7211e-009    0.0024326       -2.7587e-007   
  2.25            -1.3148e-009    0.0025552       -2.2507e-007   
  2.3             -2.6368e-009    0.0026784       -1.7955e-007   
  2.35            -2.4799e-009    0.0028012       -1.5181e-007   
  2.4             -1.9274e-009    0.0029259       -1.1967e-007   
  2.45            5.833e-010      0.0030501       -7.848e-008    
  2.5             1.5473e-009     0.0031717       -6.7568e-008   
  2.55            1.9572e-009     0.0033012       -5.0006e-008   
  2.6             2.2969e-009     0.0034286       -3.7403e-008   
  2.65            2.5551e-009     0.0035548       -2.6849e-008   
  2.7             2.7665e-009     0.0036815       -2.1824e-008   
  2.75            2.6828e-009     0.0038087       -1.9753e-008   
  2.8             2.1242e-009     0.0039353       -1.6324e-008   
  2.85            2.4634e-009     0.004062        -1.6139e-008   
  2.9             -2.5395e-009    0.0041922       2.91e-009      
  2.95            -1.4641e-009    0.0043201       -1.3395e-008   
  3               -1.8134e-009    0.0044459       -1.3353e-008   
  3.05            -8.243e-010     0.0045705       -1.2436e-008   
  3.1             -1.1697e-009    0.0046985       -1.0214e-008   
  3.15            -1.11e-011      0.004821        -1.1145e-008   
  3.2             2.6277e-009     0.0049459       -2.348e-008    
  3.25            -2.5582e-009    0.0050746       9.611e-009     
  3.3             1.6496e-009     0.005195        -1.5958e-008   
  3.35            2.6467e-009     0.0053166       -9.086e-009    
  3.4             -2.2461e-009    0.0054409       1.0376e-008    
  3.45            2.6358e-009     0.0055564       -2.2644e-008   
  3.5             -2.5648e-009    0.0056774       9.99e-009      
  3.55            1.659e-009      0.0057893       -1.5758e-008   
  3.6             2.6357e-009     0.0059015       -8.855e-009    
  3.65            -2.264e-009     0.0060134       1.0568e-008    
  3.7             1.795e-010      0.0061162       -1.0441e-008   
  3.75            2.7562e-009     0.0062193       -2.0206e-008   
  3.8             -1.4448e-009    0.0063209       1.6843e-008    
  3.85            -2.6162e-009    0.0064154       5.643e-009     
  3.9             2.4964e-009     0.0065042       -2.3592e-008   
  3.95            -2.4784e-009    0.0065937       9.982e-009     
  4               -1.8962e-009    0.006676        6.77e-010      
  4.05            -1.3674e-009    0.0067552       3.324e-009     
  4.1             -2.6295e-009    0.0068311       6.754e-009     
  4.15            2.3857e-009     0.0069012       -2.3689e-008   
  4.2             1.6393e-009     0.0069698       -4.632e-009    
  4.25            2.6405e-009     0.0070358       -8.917e-009    
  4.3             -2.2538e-009    0.0070996       1.054e-008     
  4.35            -8.539e-010     0.0071579       -9.7e-009      
  4.4             2.7548e-009     0.0072137       -1.252e-008    
  4.45            -1.4439e-009    0.0072691       1.7017e-008    
  4.5             -2.6144e-009    0.0073209       5.729e-009     
  4.55            -9.663e-010     0.0073697       -9.326e-009    
  4.6             2.06e-010       0.0074162       -1.0749e-008   
  4.65            2.7688e-009     0.0074615       -1.9688e-008   
  4.7             -1.4784e-009    0.0075065       1.638e-008     
  4.75            -2.6021e-009    0.0075486       5.297e-009     
  4.8             2.534e-009      0.0075877       -2.3423e-008   
  4.85            -2.5005e-009    0.0076281       9.989e-009     
  4.9             -1.943e-009     0.0076651       5.5e-010       
  4.95            2.4251e-009     0.0077001       -2.3708e-008   
  5               1.6791e-009     0.0077354       -4.4e-009      
END_DB

BEGIN_DB
 ICCAP_VAR VS         0              
 ICCAP_VAR VB         -2.5           
 ICCAP_VAR VD         0.1            

 #VG              IG              ID              IB             
  0               -3.195e-010     1.0793e-009     -1.2071e-008   
  0.05            -1.7709e-009    1.4025e-009     1.6634e-008    
  0.1             -1.5015e-009    2.399e-010      3.773e-009     
  0.15            -1.3511e-009    3.408e-010      4.964e-009     
  0.2             -2.5748e-009    4.482e-010      7.214e-009     
  0.25            2.3617e-009     1.6456e-009     -1.2851e-008   
  0.3             -1.8188e-009    1.3784e-009     1.6291e-008    
  0.35            -1.5413e-009    2.17e-010       3.619e-009     
  0.4             -1.3691e-009    3.041e-010      4.642e-009     
  0.45            -2.5564e-009    4.213e-010      6.634e-009     
  0.5             2.3404e-009     1.6512e-009     -1.2511e-008   
  0.55            -1.8831e-009    1.3547e-009     1.5672e-008    
  0.6             2.6514e-009     -5.955e-010     -2.3559e-008   
  0.65            -2.6346e-009    7.047e-010      1.0048e-008    
  0.7             2.602e-009      1.5706e-009     -1.6197e-008   
  0.75            -2.558e-009     9.199e-010      1.0126e-008    
  0.8             2.0513e-009     -8.866e-010     -1.5202e-008   
  0.85            2.3534e-009     1.6927e-009     -6.929e-009    
  0.9             -1.8521e-009    1.5938e-009     1.5933e-008    
  0.95            -1.567e-009     1.2988e-009     3.459e-009     
  1               -1.3859e-009    5.2968e-009     4.566e-009     
  1.05            2.5157e-009     2.0719e-008     1.1913e-008    
  1.1             -2.4756e-009    6.3488e-008     9.863e-009     
  1.15            6.811e-010      1.7111e-007     -1.211e-008    
  1.2             -1.4917e-009    4.6312e-007     1.6275e-008    
  1.25            -1.4994e-009    1.3238e-006     -8.717e-009    
  1.3             1.8168e-009     3.6734e-006     -1.6499e-008   
  1.35            2.5807e-009     9.0987e-006     -8.437e-009    
  1.4             -1.0775e-009    1.8704e-005     1.8123e-008    
  1.45            2.6747e-009     3.0675e-005     -2.2141e-008   
  1.5             -2.5807e-009    4.4083e-005     9.707e-009     
  1.55            1.7282e-009     5.5998e-005     -1.6691e-008   
  1.6             2.6125e-009     6.6905e-005     -8.699e-009    
  1.65            -2.3113e-009    7.6714e-005     1.033e-008     
  1.7             -8.181e-010     8.4969e-005     -9.717e-009    
  1.75            2.7665e-009     9.2227e-005     -1.3372e-008   
  1.8             -1.4842e-009    9.9012e-005     1.6322e-008    
  1.85            -2.6015e-009    0.000104897     5.307e-009     
  1.9             2.5449e-009     0.000110108     -2.3347e-008   
  1.95            2.1789e-009     0.00011511      -8.798e-009    
  2               1.4632e-009     0.00011957      -6.021e-009    
  2.05            2.706e-009      0.00012367      -8.662e-009    
  2.1             -2.0791e-009    0.00012758      1.179e-008     
  2.15            -9.508e-010     0.00013106      -9.413e-009    
  2.2             2.25e-010       0.00013429      -1.0717e-008   
  2.25            2.7698e-009     0.00013741      -1.9366e-008   
  2.3             -1.5052e-009    0.00014043      1.6061e-008    
  2.35            -2.5945e-009    0.00014314      5.203e-009     
  2.4             2.5571e-009     0.00014569      -2.3185e-008   
  2.45            -2.514e-009     0.00014822      9.972e-009     
  2.5             -1.9816e-009    0.00015047      7.26e-010      
  2.55            2.4542e-009     0.00015274      -2.3702e-008   
  2.6             2.4978e-009     0.00015477      5.646e-009     
  2.65            -2.4996e-009    0.00015689      1.0015e-008    
  2.7             -1.939e-009     0.00015874      8.16e-010      
  2.75            -1.3868e-009    0.00016057      3.132e-009     
  2.8             -2.6233e-009    0.00016238      6.323e-009     
  2.85            2.4231e-009     0.00016402      -2.3647e-008   
  2.9             1.6762e-009     0.00016564      -4.489e-009    
  2.95            2.625e-009      0.00016717      -8.805e-009    
  3               -2.2922e-009    0.00016873      1.0318e-008    
  3.05            -8.319e-010     0.0001701       -9.669e-009    
  3.1             2.7582e-009     0.00017141      -1.2895e-008   
  3.15            -1.4643e-009    0.00017284      1.6711e-008    
  3.2             -2.6073e-009    0.00017412      5.643e-009     
  3.25            2.5193e-009     0.00017532      -2.3523e-008   
  3.3             -2.4875e-009    0.00017656      1.0029e-008    
  3.35            -1.9183e-009    0.00017768      8.47e-010      
  3.4             -1.3747e-009    0.00017879      3.087e-009     
  3.45            -2.6227e-009    0.00017989      6.457e-009     
  3.5             2.4097e-009     0.0001809       -2.3716e-008   
  3.55            1.6565e-009     0.00018194      -4.644e-009    
  3.6             2.6363e-009     0.0001829       -8.847e-009    
  3.65            -2.2664e-009    0.00018391      1.0656e-008    
  3.7             2.6564e-009     0.00018479      -1.1024e-008   
  3.75            -2.5673e-009    0.00018568      1.0041e-008    
  3.8             1.6828e-009     0.00018652      -1.6001e-008   
  3.85            2.6295e-009     0.00018738      -8.777e-009    
  3.9             -2.2764e-009    0.00018821      1.056e-008     
  3.95            -8.412e-010     0.00018899      -9.685e-009    
  4               2.7667e-009     0.00018968      -1.2659e-008   
  4.05            -1.451e-009     0.0001905       1.6714e-008    
  4.1             -2.6057e-009    0.00019121      5.759e-009     
  4.15            -9.593e-010     0.00019189      -9.354e-009    
