! VERSION = 6.00
BEGIN_HEADER
 ICCAP_INPUTS
  VG         V  B GROUND SMU4 0.001 LIN        1    0          5          101  0.05      
  VS         V  E GROUND SMU3 0.1 CON        0
  VB         V  C GROUND SMU1 0.1 LIN        3    0          -5         3    -2.5      
  VD         V  S GROUND SMU2 0.1 LIN        2    0.1        10         2    9.9       
 ICCAP_OUTPUTS
  IG         I  B GROUND SMU4 B
  ID         I  S GROUND SMU2 B
  IB         I  C GROUND SMU1 B
END_HEADER

BEGIN_DB
 ICCAP_VAR VS         0              
 ICCAP_VAR VB         0              
 ICCAP_VAR VD         0.1            

 #VG              IG              ID              IB             
  0               -5.066e-010     1.4032e-009     1.0329e-008    
  0.05            -1.3911e-009    5.11e-011       3.814e-009     
  0.1             -8.51e-010      -3.6651e-009    -1.4932e-008   
  0.15            1.9389e-009     -9.016e-010     -2.3261e-008   
  0.2             -1.3851e-009    5.879e-010      7.142e-009     
  0.25            -1.1986e-009    -3.3389e-009    -1.4375e-008   
  0.3             1.4046e-009     -1.3607e-009    -2.8305e-008   
  0.35            -2.5947e-009    1.6742e-009     9.915e-009     
  0.4             1.7366e-009     -9.333e-010     -1.4344e-008   
  0.45            -1.3908e-009    6.5596e-009     7.096e-009     
  0.5             -2.7471e-009    2.0376e-008     -2.5994e-008   
  0.55            -1.5283e-009    7.6126e-008     -1.4889e-008   
  0.6             -8.95e-011      2.96e-007       -1.2299e-008   
  0.65            -2.3801e-009    1.03217e-006    9.429e-009     
  0.7             2.0926e-009     3.268e-006      7.785e-009     
  0.75            -1.5378e-009    1.01282e-005    1.4611e-008    
  0.8             -1.3932e-009    2.5035e-005     -9.693e-009    
  0.85            -1.6527e-009    5.1943e-005     -1.5481e-008   
  0.9             1.5938e-009     8.6861e-005     -1.8985e-008   
  0.95            2.2829e-009     0.00012799      -4.688e-009    
  1               -2.7087e-009    0.00016895      6.454e-009     
  1.05            -1.6549e-009    0.00020511      -1.455e-008    
  1.1             1.5923e-009     0.0002356       -1.9027e-008   
  1.15            -2.3998e-009    0.00026368      9.295e-009     
  1.2             -1.9545e-009    0.00028771      -1.5973e-008   
  1.25            1.153e-010      0.00030834      -1.3982e-008   
  1.3             2.5768e-009     0.00032678      -1.9772e-008   
  1.35            -1.7667e-009    0.00034415      1.282e-008     
  1.4             -8.704e-010     0.00035918      -1.6232e-008   
  1.45            1.3378e-009     0.00037254      -2.6733e-008   
  1.5             -1.9395e-009    0.00038539      1.2305e-008    
  1.55            -7.633e-010     0.00039679      -1.6556e-008   
  1.6             1.3952e-009     0.00040709      -2.5308e-008   
  1.65            -2.1154e-009    0.00041708      1.1401e-008    
  1.7             -2.0706e-009    0.0004262       -1.5286e-008   
  1.75            -9.44e-011      0.00043462      -1.5094e-008   
  1.8             2.2727e-009     0.00044226      -2.1252e-008   
  1.85            -2.7086e-009    0.00045001      6.524e-009     
  1.9             -1.6568e-009    0.00045712      -1.5471e-008   
  1.95            1.5862e-009     0.00046362      -1.8885e-008   
  2               -2.3988e-009    0.00046968      9.219e-009     
  2.05            -1.9589e-009    0.0004756       -1.6043e-008   
  2.1             1.096e-010      0.00048129      -1.4039e-008   
  2.15            2.5683e-009     0.00048618      -1.9633e-008   
  2.2             -1.7522e-009    0.00049143      1.2811e-008    
  2.25            -8.726e-010     0.00049623      -1.6639e-008   
  2.3             1.3365e-009     0.00050065      -2.6995e-008   
  2.35            -1.9246e-009    0.00050508      1.2212e-008    
  2.4             -7.694e-010     0.00050931      -1.6623e-008   
  2.45            1.3915e-009     0.00051323      -2.5491e-008   
  2.5             -2.114e-009     0.00051705      1.1232e-008    
  2.55            -2.0738e-009    0.00052087      -1.4539e-008   
  2.6             -9.39e-011      0.00052445      -1.5063e-008   
  2.65            2.2663e-009     0.00052754      -2.136e-008    
  2.7             -2.7092e-009    0.00053109      6.459e-009     
  2.75            -1.6592e-009    0.00053429      -1.5633e-008   
  2.8             1.5899e-009     0.00053756      -1.883e-008    
  2.85            -2.398e-009     0.00054013      9.437e-009     
  2.9             -1.9583e-009    0.00054304      -1.5946e-008   
  2.95            1.112e-010      0.00054596      -1.4094e-008   
  3               2.5699e-009     0.00054812      -1.9648e-008   
  3.05            -1.7519e-009    0.00055083      1.3132e-008    
  3.1             -8.726e-010     0.00055332      -1.6514e-008   
  3.15            1.3374e-009     0.00055558      -2.6737e-008   
  3.2             -1.9263e-009    0.00055786      1.2387e-008    
  3.25            -7.676e-010     0.00056019      -1.6599e-008   
  3.3             1.386e-009      0.00056225      -2.5462e-008   
  3.35            -2.1083e-009    0.00056427      1.1323e-008    
  3.4             -2.0784e-009    0.00056645      -1.4448e-008   
  3.45            -1.064e-010     0.00056849      -1.5266e-008   
  3.5             2.2452e-009     0.00057003      -2.1243e-008   
  3.55            -2.7159e-009    0.00057214      6.535e-009     
  3.6             -1.6618e-009    0.00057399      -1.4663e-008   
  3.65            1.5602e-009     0.00057593      -1.7932e-008   
  3.7             -2.3861e-009    0.00057723      9.711e-009     
  3.75            -1.9622e-009    0.00057902      -1.5865e-008   
  3.8             9.11e-011       0.00058089      -1.41e-008     
  3.85            2.5601e-009     0.00058192      -1.995e-008    
  3.9             -1.7112e-009    0.00058351      1.232e-008     
  3.95            -8.833e-010     0.00058511      -1.627e-008    
  4               1.3457e-009     0.00058644      -2.7838e-008   
  4.05            -1.8842e-009    0.00058774      1.1602e-008    
  4.1             -7.707e-010     0.00058921      -1.6473e-008   
  4.15            1.3891e-009     0.00059048      -2.5944e-008   
  4.2             -2.0705e-009    0.00059161      1.0588e-008    
  4.25            -6.496e-010     0.00059305      -1.6799e-008   
  4.3             1.4769e-009     0.00059421      -2.3881e-008   
  4.35            -2.2651e-009    0.00059527      9.803e-009     
  4.4             -5.267e-010     0.00059658      -1.6913e-008   
  4.45            1.6082e-009     0.00059759      -2.2048e-008   
  4.5             -2.4362e-009    0.00059866      8.983e-009     
  4.55            -1.9342e-009    0.00059982      -1.5813e-008   
  4.6             1.371e-010      0.0006012       -1.4057e-008   
  4.65            2.6083e-009     0.00060162      -1.9507e-008   
  4.7             -1.7729e-009    0.00060274      1.2136e-008    
  4.75            -8.394e-010     0.00060383      -1.6027e-008   
  4.8             1.3538e-009     0.00060467      -2.7034e-008   
  4.85            -1.9554e-009    0.0006055       1.151e-008     
  4.9             -2.1396e-009    0.00060655      -1.4624e-008   
  4.95            -2.023e-010     0.0006074       -1.5917e-008   
  5               2.0846e-009     0.00060803      -2.1217e-008   
END_DB

BEGIN_DB
 ICCAP_VAR VS         0              
 ICCAP_VAR VB         0              
 ICCAP_VAR VD         10             

 #VG              IG              ID              IB             
  0               -2.7002e-009    -3.3751e-009    -1.9512e-008   
  0.05            -1.2188e-009    -3.0689e-009    -1.4227e-008   
  0.1             1.3908e-009     -1.2513e-009    -2.9489e-008   
  0.15            -2.5977e-009    1.5439e-009     9.91e-009      
  0.2             -1.3589e-009    -2.7919e-009    -1.4573e-008   
  0.25            1.3365e-009     -1.4336e-009    -2.9891e-008   
  0.3             -2.4315e-009    1.9462e-009     1.0987e-008    
  0.35            1.4827e-009     -1.7951e-009    -1.6249e-008   
  0.4             -1.3636e-009    3.9061e-009     8.033e-009     
  0.45            2.7646e-009     1.3528e-008     9.687e-009     
  0.5             -2.0715e-009    3.5656e-008     -2.1391e-008   
  0.55            2.8116e-009     1.3904e-007     -3.7559e-008   
  0.6             -2.5971e-009    4.902e-007      -8.2117e-008   
  0.65            -1.5109e-009    1.7342e-006     -2.8535e-007   
  0.7             -2.4513e-009    5.7513e-006     -9.2006e-007   
  0.75            -1.6146e-009    1.7552e-005     -2.5873e-006   
  0.8             -2.3484e-009    4.6354e-005     -7.035e-006    
  0.85            1.3059e-009     0.0001064       -1.5658e-005   
  0.9             1.331e-009      0.00021473      -3.1023e-005   
  0.95            2.809e-009      0.00038916      -5.4278e-005   
  1               1.0184e-009     0.00063583      -8.6592e-005   
  1.05            6.333e-010      0.00096892      -0.00012583    
  1.1             2.1753e-009     0.0013855       -0.0001718     
  1.15            1.613e-010      0.0034147       -0.00022626    
  1.2             -2.0096e-009    0.0037255       -0.00024263    
  1.25            -2.1179e-009    0.0040164       -0.00025898    
  1.3             -1.703e-010     0.004298        -0.00027463    
  1.35            2.1381e-009     0.0045742       -0.00028972    
  1.4             2.2021e-009     0.0048443       -0.00030371    
  1.45            1.778e-010      0.0051085       -0.00031675    
  1.5             -1.9777e-009    0.0053627       -0.00032841    
  1.55            -2.1332e-009    0.0056038       -0.00033867    
  1.6             -2.034e-010     0.0058393       -0.00034728    
  1.65            2.086e-009      0.0060669       -0.00035445    
  1.7             2.2243e-009     0.0062907       -0.00036002    
  1.75            2.005e-010      0.0065073       -0.0003643     
  1.8             -1.9414e-009    0.0067153       -0.00036706    
  1.85            -2.1501e-009    0.0069115       -0.00036842    
  1.9             -2.279e-010     0.0071014       -0.00036835    
  1.95            2.0412e-009     0.0072811       -0.00036696    
  2               2.2425e-009     0.0074504       -0.00036419    
  2.05            2.27e-010       0.0076046       -0.0003597     
  2.1             -1.8938e-009    0.007782        -0.00035298    
  2.15            -2.1741e-009    0.008003        -0.00034481    
  2.2             -2.615e-010     0.0082527       -0.00033606    
  2.25            1.9998e-009     0.0085108       -0.00032669    
  2.3             2.2687e-009     0.0087787       -0.00031682    
  2.35            2.555e-010      0.0090469       -0.00030638    
  2.4             -1.8596e-009    0.0093163       -0.00029548    
  2.45            -2.1909e-009    0.0095818       -0.00028433    
  2.5             -2.837e-010     0.0098521       -0.00027304    
  2.55            1.9603e-009     0.0101219       -0.00026152    
  2.6             2.2869e-009     0.0104001       -0.00024995    
  2.65            2.769e-010      0.0106787       -0.00023812    
  2.7             -1.8281e-009    0.0109584       -0.00022631    
  2.75            -2.2126e-009    0.0112391       -0.00021432    
  2.8             -1.4552e-009    0.011533        -0.00020275    
  2.85            -2.5193e-009    0.011814        -0.00019121    
  2.9             -1.8903e-009    0.012098        -0.00017989    
  2.95            1.986e-010      0.012376        -0.00016898    
  3               2.6897e-009     0.012669        -0.00015822    
  3.05            1.8592e-009     0.01296         -0.00014777    
  3.1             -1.82e-010      0.013259        -0.00013752    
  3.15            -2.4984e-009    0.013558        -0.00012763    
  3.2             -1.9032e-009    0.013852        -0.00011815    
  3.25            1.79e-010       0.014144        -0.0001092     
  3.3             2.6648e-009     0.014443        -0.00010061    
  3.35            -2.0815e-009    0.014752        -9.2306e-005   
  3.4             -1.137e-010     0.015054        -8.4567e-005   
  3.45            2.2254e-009     0.015359        -7.72e-005     
  3.5             2.151e-009      0.015668        -7.0303e-005   
  3.55            1.269e-010      0.015982        -6.3705e-005   
  3.6             -2.0549e-009    0.01629         -5.7562e-005   
  3.65            -2.0979e-009    0.0166          -5.1855e-005   
  3.7             -1.368e-010     0.01691         -4.6619e-005   
  3.75            2.1923e-009     0.01722         -4.1749e-005   
  3.8             2.1761e-009     0.017535        -3.7248e-005   
  3.85            1.471e-010      0.017853        -3.3056e-005   
  3.9             -2.0241e-009    0.018172        -2.9223e-005   
  3.95            -2.113e-009     0.018486        -2.5757e-005   
  4               -1.617e-010     0.018798        -2.2624e-005   
  4.05            2.1524e-009     0.019115        -1.9787e-005   
  4.1             2.1932e-009     0.019434        -1.7217e-005   
  4.15            1.688e-010      0.019756        -1.4891e-005   
  4.2             -1.9959e-009    0.020076        -1.2813e-005   
  4.25            -2.1254e-009    0.02039         -1.1e-005      
  4.3             2.1336e-009     0.020705        -9.4084e-006   
  4.35            1.032e-010      0.021027        -7.9753e-006   
  4.4             -2.0934e-009    0.021351        -6.7009e-006   
  4.45            -2.0836e-009    0.021666        -5.6446e-006   
  4.5             -1.13e-010      0.021974        -4.7268e-006   
  4.55            2.2301e-009     0.022291        -3.9351e-006   
  4.6             2.1542e-009     0.022608        -3.2367e-006   
  4.65            1.335e-010      0.022925        -2.6563e-006   
  4.7             -2.0576e-009    0.023242        -2.1649e-006   
  4.75            -2.0968e-009    0.023547        -1.7843e-006   
  4.8             -1.387e-010     0.023857        -1.4543e-006   
  4.85            2.178e-009      0.024165        -1.1879e-006   
  4.9             1.76e-011       0.024471        -9.5942e-007   
  4.95            2.4426e-009     0.024777        -7.8572e-007   
  5               2.0297e-009     0.025084        -6.1894e-007   
END_DB

BEGIN_DB
 ICCAP_VAR VS         0              
 ICCAP_VAR VB         -2.5           
 ICCAP_VAR VD         0.1            

 #VG              IG              ID              IB             
  0               -4.927e-010     1.4243e-009     9.46e-009      
  0.05            -1.3933e-009    8.97e-011       3.473e-009     
  0.1             -8.853e-010     -3.6411e-009    -1.4933e-008   
  0.15            1.8517e-009     -9.29e-010      -2.3978e-008   
  0.2             -1.3856e-009    6.922e-010      7.269e-009     
  0.25            -1.2466e-009    -3.2885e-009    -1.45e-008     
  0.3             1.3671e-009     -1.5648e-009    -2.9547e-008   
  0.35            -2.5559e-009    1.3264e-009     9.975e-009     
  0.4             -1.4061e-009    -2.9777e-009    -1.502e-008    
  0.45            1.3248e-009     -1.8269e-009    -2.9781e-008   
  0.5             -2.3647e-009    1.5561e-009     1.1525e-008    
  0.55            -1.5696e-009    -2.5928e-009    -1.5834e-008   
  0.6             1.3236e-009     -2.071e-009     -2.7903e-008   
  0.65            -2.1242e-009    1.7777e-009     1.2192e-008    
  0.7             -1.7159e-009    -2.1963e-009    -1.6532e-008   
  0.75            1.3225e-009     -2.2664e-009    -2.3872e-008   
  0.8             -2.0699e-009    1.8197e-009     1.2216e-008    
  0.85            -1.7451e-009    -2.0936e-009    -1.6406e-008   
  0.9             1.3194e-009     -2.2193e-009    -2.2699e-008   
  0.95            -1.3957e-009    9.86e-010       6.398e-009     
  1               2.0463e-009     -1.236e-010     -1.4666e-008   
  1.05            -1.412e-009     1.1608e-008     -1.6672e-008   
  1.1             -1.8524e-009    5.0949e-008     1.1519e-008    
  1.15            2.8177e-009     1.9844e-007     -1.6291e-008   
  1.2             -1.6441e-009    7.2439e-007     1.2273e-008    
  1.25            2.5284e-009     2.4336e-006     1.1142e-008    
  1.3             -2.4233e-009    8.0461e-006     8.841e-009     
  1.35            -1.6143e-009    2.2426e-005     -5.322e-009    
  1.4             -9.557e-010     5.0377e-005     -1.6522e-008   
  1.45            1.3274e-009     8.9755e-005     -2.92e-008     
  1.5             1.3278e-009     0.00013513      -1.1727e-008   
  1.55            -1.5739e-009    0.00017929      1.3025e-008    
  1.6             -9.887e-010     0.00021666      -1.616e-008    
  1.65            1.3262e-009     0.000248        -2.9613e-008   
  1.7             -1.6795e-009    0.00027611      1.2168e-008    
  1.75            -9.067e-010     0.00029937      -1.6503e-008   
  1.8             1.3338e-009     0.00031929      -2.8416e-008   
  1.85            -1.8216e-009    0.00033762      1.1563e-008    
  1.9             -8.298e-010     0.00035331      -1.6743e-008   
  1.95            1.3559e-009     0.00036715      -2.7122e-008   
  2               -1.9701e-009    0.00038022      1.1016e-008    
  2.05            -2.1386e-009    0.00039175      -1.5059e-008   
  2.1             -2.167e-010     0.00040223      -1.622e-008    
  2.15            2.0742e-009     0.00041168      -2.2017e-008   
  2.2             -2.6801e-009    0.00042096      7.339e-009     
  2.25            -1.7563e-009    0.00042932      -1.5729e-008   
  2.3             1.4397e-009     0.00043698      -1.6346e-008   
  2.35            -2.2046e-009    0.00044399      9.742e-009     
  2.4             -2.0391e-009    0.00045078      -1.5614e-008   
  2.45            -4.58e-011      0.00045715      -1.5361e-008   
  2.5             2.3392e-009     0.00046275      -2.0954e-008   
  2.55            -1.3652e-009    0.00046872      5.676e-009     
  2.6             -1.8417e-009    0.00047405      -1.6535e-008   
  2.65            2.617e-010      0.00047915      -1.511e-008    
  2.7             2.7521e-009     0.00048354      -1.8442e-008   
  2.75            -1.9563e-009    0.00048825      1.1046e-008    
  2.8             -2.1483e-009    0.00049266      -1.431e-008    
  2.85            -2.265e-010     0.00049677      -1.6271e-008   
  2.9             2.0482e-009     0.00050047      -2.1826e-008   
  2.95            -2.6717e-009    0.00050444      7.408e-009     
  3               -1.7605e-009    0.0005081       -1.6549e-008   
  3.05            1.4394e-009     0.00051174      -1.63e-008     
  3.1             -2.1914e-009    0.00051464      9.724e-009     
  3.15            -2.0444e-009    0.00051798      -1.544e-008    
  3.2             -4.92e-011      0.0005211       -1.5425e-008   
  3.25            2.3158e-009     0.00052366      -2.1166e-008   
  3.3             -1.3597e-009    0.00052677      5.801e-009     
  3.35            -1.8512e-009    0.00052946      -1.6682e-008   
  3.4             2.564e-010      0.00053227      -1.5116e-008   
  3.45            2.7415e-009     0.00053433      -1.8519e-008   
  3.5             -1.946e-009     0.00053687      1.1168e-008    
  3.55            -7.541e-010     0.00053927      -1.7118e-008   
  3.6             1.4008e-009     0.00054146      -2.5876e-008   
  3.65            -2.1034e-009    0.00054354      1.0372e-008    
  3.7             -2.0829e-009    0.00054589      -1.4915e-008   
  3.75            -1.209e-010     0.00054796      -1.5783e-008   
  3.8             2.2162e-009     0.00054965      -2.1777e-008   
  3.85            -2.7091e-009    0.00055177      6.752e-009     
  3.9             -1.6862e-009    0.00055365      -1.6505e-008   
  3.95            1.5292e-009     0.00055569      -1.7854e-008   
  4               -2.3291e-009    0.00055707      9.441e-009     
  4.05            -1.9938e-009    0.00055885      -1.6122e-008   
  4.1             4.1e-011        0.0005607       -1.4813e-008   
  4.15            2.4683e-009     0.00056185      -2.0582e-008   
