! VERSION = 6.00
BEGIN_HEADER
 ICCAP_INPUTS
  VG         V  B GROUND SMU4 0.001 LIN        2    0          -5         6    -1        
  VS         V  E GROUND SMU2 0.1 CON        0
  VD         V  S GROUND SMU1 0.1 LIN        1    0          -5         101  -0.05     
  VB         V  C GROUND SMU3 0.1 LIN        3    0          2.5        2    2.5       
 ICCAP_OUTPUTS
  ID         I  S GROUND SMU1 B
  IB         I  C GROUND SMU3 B
  IG         I  B GROUND SMU4 B
END_HEADER

BEGIN_DB
 ICCAP_VAR VG         0              
 ICCAP_VAR VS         0              
 ICCAP_VAR VB         0              

 #VD              ID              IB              IG             
  0               -6.3583e-008    7.08e-009       -1.0616e-009   
  -0.05           -2.595e-007     7.109e-009      1.2535e-009    
  -0.1            -9.992e-006     -1.3429e-008    2.147e-010     
  -0.15           -3.079e-006     -1.7138e-008    2.602e-010     
  -0.2            -1.6536e-006    7.181e-009      2.8821e-009    
  -0.25           -3.834e-006     -1.201e-009     3.1021e-009    
  -0.3            -1.671e-006     -1.7045e-008    3.1706e-009    
  -0.35           -5.459e-006     -1.3933e-008    2.1933e-009    
  -0.4            -1.787e-006     -2.1699e-008    1.2807e-009    
  -0.45           -5.584e-006     -1.8716e-008    3.0455e-009    
  -0.5            -2.192e-006     -1.7429e-008    3.1856e-009    
  -0.55           -8.68e-007      -1.5099e-008    1.4728e-009    
  -0.6            -2.834e-006     -1.6817e-008    3.1978e-009    
  -0.65           -2.41e-006      -2.3559e-008    3.1869e-009    
  -0.7            -2.603e-006     -2.2477e-008    3.1952e-009    
  -0.75           -4.368e-006     -2.3174e-008    3.1774e-009    
  -0.8            -6.764e-006     -2.5606e-008    9.311e-010     
  -0.85           -6.817e-006     -9.138e-009     1.3935e-009    
  -0.9            -5.619e-006     -1.7306e-008    3.1422e-009    
  -0.95           -2.593e-006     -1.7034e-008    3.1913e-009    
  -1              -9.23e-007      -1.4818e-008    1.467e-009     
  -1.05           -3.031e-006     -1.69e-008      3.1989e-009    
  -1.1            -6.409e-006     -2.3749e-008    3.0886e-009    
  -1.15           -3.929e-006     -1.6983e-008    3.1849e-009    
  -1.2            -7.296e-006     -2.508e-008     4.3e-012       
  -1.25           -7.913e-006     -1.9178e-008    2.6713e-009    
  -1.3            -7.933e-006     -1.843e-008     2.5838e-009    
  -1.35           -8.295e-006     -1.8957e-008    2.7244e-009    
  -1.4            -7.143e-006     -1.8028e-008    2.9984e-009    
  -1.45           -7.371e-006     -1.7118e-008    2.945e-009     
  -1.5            -6.024e-006     -1.7284e-008    1.4038e-009    
  -1.55           -1.8e-006       -1.4708e-008    1.3246e-009    
  -1.6            -8.078e-006     -2.0609e-008    2.7265e-009    
  -1.65           -7.313e-006     -1.7898e-008    2.9947e-009    
  -1.7            -5.945e-006     -1.7156e-008    1.3486e-009    
  -1.75           -1.973e-006     -1.3636e-008    1.3019e-009    
  -1.8            -8.359e-006     -2.1724e-008    2.8196e-009    
  -1.85           -4.579e-006     -1.7475e-008    1.2446e-009    
  -1.9            -1.627e-006     -1.2023e-008    1.3442e-009    
  -1.95           -5.826e-006     -1.754e-008     1.3428e-009    
  -2              -1.571e-006     -1.3529e-008    1.3646e-009    
  -2.05           -1.774e-005     -2.0013e-008    -5.001e-010    
  -2.1            -1.286e-006     -1.0862e-008    1.4055e-009    
  -2.15           3e-009          -2.2553e-008    -2.3553e-009   
  -2.2            -6.006e-006     -1.3817e-008    -9.732e-010    
  -2.25           -7.71e-006      -4.066e-009     2.3155e-009    
  -2.3            -6.981e-005     7.091e-009      -4.35e-011     
  -2.35           -7.857e-006     -1.7065e-008    -1.6373e-009   
  -2.4            -9.254e-006     -1.7255e-008    -7.316e-010    
  -2.45           -7.45e-007      -9.119e-009     2.7223e-009    
  -2.5            -4.671e-006     -1.7588e-008    1.2594e-009    
  -2.55           -9.69e-007      -1.2088e-008    1.5181e-009    
  -2.6            -1.6373e-005    -1.8953e-008    -5.637e-010    
  -2.65           -1.477e-006     -1.0423e-008    1.3844e-009    
  -2.7            -9.056e-006     -1.7068e-008    -7.852e-010    
  -2.75           -5.72e-007      -9.098e-009     2.8104e-009    
  -2.8            -5.45e-007      5.521e-009      1.9391e-009    
  -2.85           -1.2462e-006    -2.5947e-008    2.1343e-009    
  -2.9            -2.9076e-005    -2.4906e-008    -2.0588e-009   
  -2.95           -6.116e-006     -1.7991e-008    1.3338e-009    
  -3              -8.97e-007      -1.341e-008     1.5845e-009    
  -3.05           -9.22e-006      -1.6839e-008    9.475e-010     
  -3.1            -8.291e-006     -8.975e-009     1.86e-011      
  -3.15           -6.437e-006     -1.8836e-008    1.3937e-009    
  -3.2            -1.048e-006     -1.4635e-008    1.5152e-009    
  -3.25           -8.3e-006       -1.6782e-008    9.603e-010     
  -3.3            -2.5921e-005    -2.373e-008     -1.2746e-009   
  -3.35           -3.849e-006     -1.792e-008     1.2174e-009    
  -3.4            -8.332e-006     -2.6611e-008    9.194e-010     
  -3.45           -1.773e-006     7.127e-009      1.1885e-009    
  -3.5            -8.709e-005     7.392e-009      2.288e-010     
  -3.55           -1.1316e-005    -1.7233e-008    -1.3849e-009   
  -3.6            -2.1401e-005    -2.113e-008     1.3346e-009    
  -3.65           -7.66e-007      -1.3035e-008    1.8048e-009    
  -3.7            -2.3289e-006    -2.6645e-008    2.7275e-009    
  -3.75           -1.0929e-005    -1.7237e-008    -6.988e-010    
  -3.8            -6.88e-007      -9.398e-009     1.9344e-009    
  -3.85           -2.4006e-006    -2.622e-008     2.7652e-009    
  -3.9            -1.1998e-005    -1.7584e-008    -6.344e-010    
  -3.95           -6.64e-007      -9.446e-009     2.0588e-009    
  -4              -4.0694e-006    -2.5145e-008    -3.517e-010    
  -4.05           -2.705e-006     -2.4247e-008    1.2899e-009    
  -4.1            -9.504e-005     8.081e-009      4.966e-010     
  -4.15           -1.7688e-005    -1.9728e-008    -1.3008e-009   
  -4.2            -2.668e-006     -1.6947e-008    1.2856e-009    
  -4.25           -9.438e-005     8.161e-009      5.154e-010     
  -4.3            -1.7367e-005    -2.0235e-008    -1.2975e-009   
  -4.35           -2.64e-006      -1.7155e-008    1.281e-009     
  -4.4            -7.863e-006     8.208e-009      8.037e-010     
  -4.45           -8.77e-007      7.123e-009      1.2661e-009    
  -4.5            -1.9e-006       -2.187e-008     1.3308e-009    
  -4.55           -6.762e-006     -2.0877e-008    1.4031e-009    
  -4.6            -8.37e-007      -1.4487e-008    1.6826e-009    
  -4.65           -6.65e-007      -2.659e-008     -1.6352e-009   
  -4.7            -2.2831e-005    -2.2914e-008    2.82e-010      
  -4.75           -1.0957e-005    -1.7596e-008    -6.555e-010    
  -4.8            -6.7e-007       -9.267e-009     2.3623e-009    
  -4.85           -7.254e-005     7.116e-009      -7.58e-011     
  -4.9            -8.358e-006     -1.7198e-008    -1.6649e-009   
  -4.95           -9.746e-006     -1.6979e-008    -7.424e-010    
  -5              -6.44e-007      -9.073e-009     2.3712e-009    
END_DB

BEGIN_DB
 ICCAP_VAR VG         -1             
 ICCAP_VAR VS         0              
 ICCAP_VAR VB         0              

 #VD              ID              IB              IG             
  0               -2.8927e-007    7.612e-009      8.9e-012       
  -0.05           -3.4696e-006    -1.7794e-008    2.1673e-009    
  -0.1            -2.0591e-005    -1.4867e-008    2.37e-010      
  -0.15           -7.948e-006     -1.7552e-008    3.0944e-009    
  -0.2            -9.329e-006     -1.7037e-008    3.1635e-009    
  -0.25           -1.1073e-005    -2.3978e-008    2.9206e-009    
  -0.3            -1.2828e-005    -1.7459e-008    2.0051e-009    
  -0.35           -1.5835e-005    -1.5676e-008    2.8659e-009    
  -0.4            -1.5967e-005    -1.7697e-008    1.9161e-009    
  -0.45           -1.7017e-005    -2.3523e-008    2.9529e-009    
  -0.5            -1.8333e-005    -1.7287e-008    2.0587e-009    
  -0.55           -2.0047e-005    6.234e-009      1.0307e-009    
  -0.6            -6.134e-005     5.514e-009      -1.3895e-009   
  -0.65           -2.2912e-005    7.067e-009      1.832e-009     
  -0.7            -2.2037e-005    -1.7282e-008    2.2963e-009    
  -0.75           -1.903e-005     -1.3747e-008    3.1349e-009    
  -0.8            -2.489e-005     -1.4882e-008    -2.2456e-009   
  -0.85           -2.5558e-005    -1.7923e-008    1.7295e-009    
  -0.9            -2.339e-005     -1.6793e-008    3.1629e-009    
  -0.95           -2.657e-005     -1.6974e-008    7.168e-010     
  -1              -2.2091e-005    -1.3733e-008    -2.3487e-009   
  -1.05           -2.7567e-005    -1.7545e-008    1.848e-009     
  -1.1            -2.92e-005      -2.5918e-008    9.831e-010     
  -1.15           -3.302e-005     -1.78e-008      3.1585e-009    
  -1.2            -2.893e-005     -1.7113e-008    6.783e-010     
  -1.25           -2.699e-005     -1.4157e-008    8.685e-010     
  -1.3            -3.175e-005     -2.5042e-008    2.5964e-009    
  -1.35           -3.106e-005     -1.9852e-008    3.0309e-009    
  -1.4            -3.838e-005     -1.7275e-008    3.1704e-009    
  -1.45           -2.742e-005     -2.5558e-008    2.5569e-009    
  -1.5            -3.098e-005     -2.0245e-008    3.0147e-009    
  -1.55           -3.689e-005     -1.7618e-008    3.1668e-009    
  -1.6            -2.731e-005     -2.5743e-008    2.5147e-009    
  -1.65           -2.934e-005     -2.0596e-008    2.9812e-009    
  -1.7            -3.758e-005     -1.7714e-008    3.1671e-009    
  -1.75           -4.907e-005     -1.6799e-008    3.1106e-009    
  -1.8            -6.166e-005     -1.3723e-008    2.9213e-009    
  -1.85           -3.761e-005     -1.7699e-008    3.1564e-009    
  -1.9            -2.649e-005     -2.6241e-008    2.4253e-009    
  -1.95           -6.091e-005     -1.4359e-008    2.9371e-009    
  -2              -3.662e-005     -1.7585e-008    3.1573e-009    
  -2.05           -2.631e-005     -2.6142e-008    2.3908e-009    
  -2.1            -6.091e-005     -1.5092e-008    2.9592e-009    
  -2.15           -0.00013141     -1.7497e-008    2.3276e-009    
  -2.2            -2.947e-005     -2.1123e-008    2.9568e-009    
  -2.25           -0.00014112     -1.7723e-008    2.2975e-009    
  -2.3            -3.14e-005      -2.0738e-008    2.9828e-009    
  -2.35           -0.00014755     -1.7504e-008    2.2679e-009    
  -2.4            -9.483e-005     -2.0542e-008    2.5662e-009    
  -2.45           -2.868e-005     -2.483e-008     2.598e-009     
  -2.5            -9.905e-005     -2.0034e-008    2.5451e-009    
  -2.55           -3.008e-005     -2.4352e-008    2.6522e-009    
  -2.6            -0.00010262     -1.9602e-008    2.5171e-009    
  -2.65           -6.265e-005     -1.4987e-008    2.9743e-009    
  -2.7            -0.00013368     -1.7734e-008    2.3572e-009    
  -2.75           -7.066e-005     -1.2481e-008    2.8775e-009    
  -2.8            -0.00017554     -1.7556e-008    2.1873e-009    
  -2.85           -0.00010516     -1.9693e-008    2.5146e-009    
  -2.9            -2.908e-005     -2.3772e-008    2.7076e-009    
  -2.95           -0.00010618     -1.9192e-008    2.4802e-009    
  -3              -2.876e-005     -2.3297e-008    2.7455e-009    
  -3.05           -0.00011572     -1.866e-008     2.4552e-009    
  -3.1            -2.861e-005     -2.3168e-008    2.7919e-009    
  -3.15           -0.00011822     -1.8626e-008    2.4203e-009    
  -3.2            -6.575e-005     -1.3682e-008    2.9123e-009    
  -3.25           -0.00015167     -1.7781e-008    2.2649e-009    
  -3.3            -9.59e-005      -2.0316e-008    2.5644e-009    
  -3.35           -2.922e-005     -2.4519e-008    2.6022e-009    
  -3.4            -0.00010185     -1.9846e-008    2.5431e-009    
  -3.45           -2.911e-005     -2.415e-008     2.6473e-009    
  -3.5            -0.00010789     -1.9556e-008    2.5228e-009    
  -3.55           -2.898e-005     -2.37e-008      2.6812e-009    
  -3.6            -0.00010963     -1.9375e-008    2.4909e-009    
  -3.65           -2.932e-005     -2.335e-008     2.7301e-009    
  -3.7            -0.00011613     -1.9216e-008    2.474e-009     
  -3.75           -8.157e-005     -2.3221e-008    2.7098e-009    
  -3.8            -0.00027298     -1.6794e-008    1.8931e-009    
  -3.85           -0.00017226     -1.7852e-008    2.2248e-009    
  -3.9            -0.00010393     -1.9832e-008    2.5317e-009    
  -3.95           -3.036e-005     -2.3857e-008    2.6664e-009    
  -4              -0.00010802     -1.9645e-008    2.5089e-009    
  -4.05           -3.132e-005     -2.3565e-008    2.7128e-009    
  -4.1            -0.00011083     -1.9136e-008    2.4835e-009    
  -4.15           -6.375e-005     -1.4313e-008    2.9458e-009    
  -4.2            -0.00014623     -1.7872e-008    2.326e-009     
  -4.25           -9.595e-005     -2.1316e-008    2.6114e-009    
  -4.3            -2.971e-005     -2.5289e-008    2.4951e-009    
  -4.35           -0.00010154     -2.0675e-008    2.5898e-009    
  -4.4            -2.984e-005     -2.4861e-008    2.5586e-009    
  -4.45           -0.00010015     -2.0478e-008    2.5688e-009    
  -4.5            -2.985e-005     -2.443e-008     2.6036e-009    
  -4.55           -0.00010573     -1.9785e-008    2.547e-009     
  -4.6            -2.969e-005     -2.4084e-008    2.6506e-009    
  -4.65           -0.00010736     -1.9529e-008    2.5232e-009    
  -4.7            -3.178e-005     -2.3879e-008    2.6921e-009    
  -4.75           -0.00011085     -1.9382e-008    2.4991e-009    
  -4.8            -6.576e-005     -1.4605e-008    2.9587e-009    
  -4.85           -0.00017392     -1.781e-008     2.202e-009     
  -4.9            -0.0001076      -1.9428e-008    2.5154e-009    
  -4.95           -3.193e-005     -2.4e-008       2.6913e-009    
  -5              -0.00011337     -1.9189e-008    2.493e-009     
END_DB

BEGIN_DB
 ICCAP_VAR VG         -2             
 ICCAP_VAR VS         0              
 ICCAP_VAR VB         0              

 #VD              ID              IB              IG             
  0               -2.8478e-007    8.091e-009      -2.2566e-009   
  -0.05           -1.4348e-005    -1.6863e-008    7.26e-010      
  -0.1            -1.7526e-005    -9.269e-009     3.1543e-009    
  -0.15           -2.1284e-005    -1.2671e-008    3.0903e-009    
  -0.2            -2.6508e-005    -1.7042e-008    2.3179e-009    
  -0.25           -3.1769e-005    -2.0443e-008    1.4244e-009    
  -0.3            -3.5308e-005    -1.7237e-008    2.1996e-009    
  -0.35           -4.6544e-005    -1.4483e-008    3.0234e-009    
  -0.4            -4.622e-005     -1.7281e-008    2.1004e-009    
  -0.45           -5.2605e-005    -1.5163e-008    1.5837e-009    
  -0.5            -5.4255e-005    -1.6527e-008    7.17e-010      
  -0.55           -7.406e-005     7.823e-009      -2.2464e-009   
  -0.6            -5.866e-005     7.061e-009      -2.6418e-009   
  -0.65           -0.00012455     -1.7218e-008    3.2136e-009    
  -0.7            -0.00012668     -2.5045e-008    2.5906e-009    
  -0.75           -0.00013339     -1.9939e-008    3.0393e-009    
  -0.8            -0.00014284     -1.7364e-008    3.1948e-009    
  -0.85           -0.00013407     -2.5386e-008    2.5403e-009    
  -0.9            -0.00018121     -1.3222e-008    2.9115e-009    
  -0.95           -0.0001647      -1.7377e-008    3.1998e-009    
  -1              -0.0001525      -2.5755e-008    2.5067e-009    
  -1.05           -0.00020484     -1.3933e-008    2.9334e-009    
  -1.1            -0.00017134     -1.7524e-008    3.171e-009     
  -1.15           -0.00019556     -1.6588e-008    3.1251e-009    
  -1.2            -0.000221       -1.4037e-008    2.9292e-009    
  -1.25           -0.00018091     -1.7262e-008    3.1559e-009    
  -1.3            -0.00033375     -2.6054e-008    1.6464e-009    
  -1.35           -0.00011947     -1.6782e-008    2.4886e-009    
  -1.4            -0.00012899     -1.4772e-008    3.2213e-009    
  -1.45           -0.00011706     -1.7686e-008    1.7922e-009    
  -1.5            -0.00011559     -1.7e-008       2.4882e-009    
  -1.55           -0.00012976     -1.4127e-008    3.0217e-009    
  -1.6            -0.00022341     -1.7307e-008    3.1849e-009    
  -1.65           -0.00013377     -1.7052e-008    2.5612e-009    
  -1.7            -0.00014262     -1.351e-008     3.0624e-009    
  -1.75           -0.00012419     -1.7272e-008    1.9413e-009    
  -1.8            -0.00043228     -2.503e-008     1.4198e-009    
  -1.85           -0.00012753     -1.6519e-008    2.7624e-009    
  -1.9            -0.00013616     -1.8614e-008    1.5689e-009    
  -1.95           -0.00011468     -1.6899e-008    2.2044e-009    
  -2              -0.00046554     -2.3229e-008    1.2869e-009    
  -2.05           -0.00011067     -1.5121e-008    2.9152e-009    
  -2.1            -0.00020498     -1.7514e-008    3.1693e-009    
  -2.15           -0.00012963     -1.6904e-008    2.4181e-009    
  -2.2            -0.00011602     -2.1895e-008    3.0901e-009    
  -2.25           -0.00011274     -1.7124e-008    2.0466e-009    
  -2.3            -0.00010986     -2.4441e-008    2.9246e-009    
  -2.35           -0.00018651     -1.758e-008     3.1351e-009    
  -2.4            -0.00015675     -1.6813e-008    2.4228e-009    
  -2.45           -0.00012497     -1.5182e-008    2.9374e-009    
  -2.5            -0.00010921     -1.7423e-008    1.7766e-009    
  -2.55           -0.00054264     -2.6245e-008    1.5141e-009    
  -2.6            -0.00019526     -1.6752e-008    2.6762e-009    
  -2.65           -0.00011306     -1.9916e-008    1.4482e-009    
  -2.7            -0.00020762     -1.7286e-008    3.1676e-009    
  -2.75           -0.00055686     -2.5277e-008    1.4017e-009    
  -2.8            -0.00013747     -1.6494e-008    2.7937e-009    
  -2.85           -0.00012065     -1.8387e-008    1.7451e-009    
  -2.9            -0.0001331      -1.694e-008     2.4676e-009    
  -2.95           -0.00014817     -2.3114e-008    1.4256e-009    
  -3              -0.0001267      -1.8195e-008    1.837e-009     
  -3.05           -0.00012987     -1.6989e-008    2.5908e-009    
  -3.1            -0.00013244     -1.5203e-008    3.1752e-009    
  -3.15           -0.00013117     -1.7604e-008    1.929e-009     
  -3.2            -0.00012367     -2.6313e-008    1.326e-009     
  -3.25           -0.00012712     -1.4293e-008    3.2259e-009    
  -3.3            -0.00012236     -1.7442e-008    2.0446e-009    
  -3.35           -0.0001494      -2.6127e-008    1.3404e-009    
  -3.4            -0.00013315     -2.0603e-008    1.554e-009     
  -3.45           -0.00014189     -1.7408e-008    2.1488e-009    
  -3.5            -0.00013946     -2.521e-008     1.3547e-009    
  -3.55           -0.00014106     -1.9522e-008    1.6096e-009    
  -3.6            -0.00014102     -1.7165e-008    2.2658e-009    
  -3.65           -0.00014009     -2.4406e-008    1.3751e-009    
  -3.7            -0.00013082     -1.904e-008     1.6781e-009    
  -3.75           -0.00012721     -1.6801e-008    2.3752e-009    
  -3.8            -0.00012946     -2.374e-008     1.3948e-009    
  -3.85           -0.00014073     -1.8402e-008    1.7705e-009    
  -3.9            -0.00014152     -1.7068e-008    2.4905e-009    
  -3.95           -0.00014024     -1.5866e-008    3.1258e-009    
  -4              -0.00014226     -1.7693e-008    1.8489e-009    
  -4.05           -0.00014585     -1.6986e-008    2.612e-009     
  -4.1            -0.00014347     -1.4996e-008    3.1807e-009    
  -4.15           -0.00014495     -1.754e-008     1.9599e-009    
