! VERSION = 6.00
BEGIN_HEADER
 ICCAP_INPUTS
  VG         V  B GROUND SMU4 0.001 LIN        2    0          5          6    1         
  VS         V  E GROUND SMU2 0.1 CON        0
  VD         V  S GROUND SMU1 0.1 LIN        1    0          5          101  0.05      
  VB         V  C GROUND SMU3 0.1 LIN        3    0          -2.5       2    -2.5      
 ICCAP_OUTPUTS
  ID         I  S GROUND SMU1 B
  IB         I  C GROUND SMU3 B
  IG         I  B GROUND SMU4 B
END_HEADER

BEGIN_DB
 ICCAP_VAR VG         0              
 ICCAP_VAR VS         0              
 ICCAP_VAR VB         0              

 #VD              ID              IB              IG             
  0               -3.5932e-007    4.063e-007      -4.4021e-009   
  0.05            -5.74e-009      2.321e-008      -1.8878e-008   
  0.1             -5.053e-008     1.02974e-007    -1.5952e-008   
  0.15            4.8793e-008     -6.37e-009      1.44e-009      
  0.2             1.10377e-007    6.95e-009       -9.429e-008    
  0.25            2.218e-008      -7.809e-009     -7.82e-009     
  0.3             5.24e-008       2.8418e-007     -2.56e-009     
  0.35            1.519e-008      2.5535e-007     1.07e-009      
  0.4             3.12e-009       2.2314e-007     -2.3416e-007   
  0.45            9.9127e-008     8.188e-009      -2.921e-007    
  0.5             6.914e-008      2.36e-008       -9.53e-009     
  0.55            2.165e-008      3.1166e-007     1.01e-009      
  0.6             5.16e-009       2.6217e-007     -2.4948e-007   
  0.65            9.49e-008       2.3408e-007     -2.383e-008    
  0.7             7.8e-010        2.8346e-007     -7.7268e-008   
  0.75            7.791e-008      -7.624e-009     -6.608e-008    
  0.8             9.994e-008      1.9866e-008     -4.893e-008    
  0.85            7.4059e-008     3.402e-008      -1.6756e-007   
  0.9             9.987e-008      7.425e-008      -7.413e-008    
  0.95            1.0044e-007     7.83e-009       -2.3691e-007   
  1               6.4114e-008     1.01118e-007    -2.2829e-007   
  1.05            1.1085e-007     8.843e-008      -2.73e-008     
  1.1             5.83e-009       2.773e-007      -5.8391e-008   
  1.15            9.5432e-008     7.43e-009       -2.7433e-007   
  1.2             1.5635e-007     1.457e-008      -1.55e-008     
  1.25            1.01e-009       5.547e-008      -9.0978e-008   
  1.3             1.319e-009      6.88e-009       8.82e-010      
  1.35            6.7004e-008     5.3e-010        -3.3963e-008   
  1.4             1.326e-009      2.0612e-008     1.165e-009     
  1.45            1.2507e-007     7.734e-009      1.182e-009     
  1.5             1.281e-009      1.13361e-007    9.79e-010      
  1.55            1.09375e-007    1.0689e-007     -1.3449e-007   
  1.6             9.8531e-008     4.018e-008      -3.5523e-008   
  1.65            2.7875e-008     8.79e-009       3e-010         
  1.7             1.6166e-008     1.5e-010        -1.893e-008    
  1.75            1.1741e-008     6.6118e-008     -7.96e-010     
  1.8             2.2377e-008     9.866e-008      -1.373e-009    
  1.85            3.5023e-008     2.1446e-008     -1.9905e-008   
  1.9             -4.68e-010      1.7586e-008     -5.9088e-009   
  1.95            3.1969e-008     3.712e-009      -7.6527e-008   
  2               1.6023e-008     1.07981e-007    -7.0693e-008   
  2.05            2.2999e-008     7.2381e-008     -7.2105e-008   
  2.1             7.722e-008      1.6684e-008     -1.3536e-007   
  2.15            9.007e-008      1.936e-008      -1.911e-009    
  2.2             1.263e-009      -8.502e-009     1.5e-009       
  2.25            1.771e-008      7.715e-008      -7.7436e-008   
  2.3             6.218e-008      9.812e-009      -1.03732e-007  
  2.35            1.3031e-007     -1.0376e-008    8.4e-010       
  2.4             1.57e-009       2.1149e-007     -1.6867e-007   
  2.45            1.899e-009      1.09851e-007    -1.15854e-007  
  2.5             6.551e-008      1.3596e-007     -2.716e-008    
  2.55            1.063e-007      2.439e-008      -1.169e-008    
  2.6             4.2132e-008     8.151e-009      -6.9641e-008   
  2.65            1.07849e-007    -1.0698e-008    -1.6797e-007   
  2.7             5.9515e-008     1.678e-008      -1.3987e-007   
  2.75            1.3996e-007     1.14155e-007    -1.3521e-007   
  2.8             -4.6e-010       1.466e-008      -7.1555e-008   
  2.85            6.39e-009       1.3559e-008     -1.1181e-007   
  2.9             5.196e-008      -8.138e-009     -1.9722e-007   
  2.95            1.09326e-007    1.13983e-007    -1.4495e-007   
  3               1.1626e-007     6.735e-008      -8.341e-008    
  3.05            1.0529e-007     2.4803e-008     -9.3119e-008   
  3.1             1.549e-009      -6.322e-009     -1.3817e-007   
  3.15            5.4595e-008     4.5213e-008     -4.0907e-008   
  3.2             2.3521e-008     6.8061e-008     -3.5229e-008   
  3.25            4.972e-008      1.9436e-008     -1.545e-009    
  3.3             1.448e-009      9.5929e-008     -1.1766e-007   
  3.35            7.4017e-008     6.983e-009      -1.195e-009    
  3.4             7.4384e-008     7.526e-009      -1.2317e-007   
  3.45            6.6928e-008     -8.115e-009     1.2e-010       
  3.5             -3.82e-010      1.1548e-007     1.093e-009     
  3.55            -6.62e-010      8.652e-008      1.14e-009      
  3.6             2.3442e-008     1.5272e-007     -7.809e-009    
  3.65            1.0138e-008     2.2318e-008     -4.3827e-008   
  3.7             1.346e-008      1.6783e-008     4.12e-009      
  3.75            1.792e-009      1.8822e-008     -1.437e-009    
  3.8             4.9492e-008     3.9588e-008     -4.8387e-008   
  3.85            5.8357e-008     7.0222e-008     -8.8767e-008   
  3.9             2.88e-009       1.594e-008      -8.4e-010      
  3.95            1.74e-009       2.7075e-007     -2.6e-009      
  4               2.42e-009       2.1986e-007     -2.4005e-007   
  4.05            1.0085e-007     4.3677e-008     1.5e-009       
  4.1             9.063e-008      2.3089e-007     -1.1038e-007   
  4.15            1.47e-009       1.611e-008      -9.9848e-008   
  4.2             6.13e-008       9.025e-008      -1.9025e-007   
  4.25            1.2235e-007     1.2954e-008     -1.923e-009    
  4.3             4.755e-008      -8.785e-009     -1.766e-009    
  4.35            2.012e-008      1.1631e-007     -9.835e-008    
  4.4             5.3633e-008     7.0329e-008     -1.287e-009    
  4.45            1.2924e-009     -8.276e-009     2.5406e-009    
  4.5             2.41e-009       8.342e-009      4.255e-010     
  4.55            8.066e-010      1.3607e-008     -2.216e-009    
  4.6             1.2781e-009     -1.1177e-008    2.2709e-009    
  4.65            9.449e-010      1.487e-008      -2.0414e-009   
  4.7             1.2609e-009     -1.2676e-008    2.3455e-009    
  4.75            1.0136e-009     1.6334e-008     -1.8651e-009   
  4.8             -7.81e-011      -1.3827e-008    2.6246e-009    
  4.85            3.451e-010      1.0183e-008     -2.8549e-009   
  4.9             -7.928e-010     -8.113e-009     -1.9114e-009   
  4.95            -1.589e-010     -6.439e-009     -2.0727e-009   
  5               1.2441e-009     -1.4284e-008    2.4913e-009    
END_DB

BEGIN_DB
 ICCAP_VAR VG         1              
 ICCAP_VAR VS         0              
 ICCAP_VAR VB         0              

 #VD              ID              IB              IG             
  0               -8.9064e-008    -1.6027e-008    -9.777e-010    
  0.05            6.4374e-006     -1.8008e-008    -2.5005e-009   
  0.1             1.1479e-005     1.0403e-008     -3.529e-010    
  0.15            1.5459e-005     1.6542e-008     -1.5304e-009   
  0.2             1.8178e-005     1.0979e-008     -2.194e-009    
  0.25            1.8985e-005     7.728e-009      1.9311e-009    
  0.3             2.0633e-005     -1.9232e-008    2.756e-009     
  0.35            2.1327e-005     -2.3017e-008    2.4768e-009    
  0.4             2.1761e-005     -1.6922e-008    1.6543e-009    
  0.45            2.2129e-005     -2.2508e-008    2.5569e-009    
  0.5             2.2394e-005     -1.6184e-008    1.7778e-009    
  0.55            2.2432e-005     -1.1649e-008    2.5078e-009    
  0.6             2.2554e-005     -1.6672e-008    1.6996e-009    
  0.65            2.2474e-005     -2.2408e-008    2.5819e-009    
  0.7             2.3021e-005     -1.6046e-008    1.8187e-009    
  0.75            2.2822e-005     -1.1592e-008    2.5329e-009    
  0.8             2.3112e-005     -1.641e-008     1.7433e-009    
  0.85            2.3087e-005     -1.1793e-008    2.4767e-009    
  0.9             2.3307e-005     -1.7016e-008    1.6647e-009    
  0.95            2.3487e-005     -2.2512e-008    2.5597e-009    
  1               2.2791e-005     -1.6413e-008    1.7825e-009    
  1.05            2.3386e-005     -1.1718e-008    2.5058e-009    
  1.1             2.3185e-005     -1.6619e-008    1.7063e-009    
  1.15            2.3107e-005     -1.2299e-008    2.4472e-009    
  1.2             2.3229e-005     -1.7323e-008    1.6418e-009    
  1.25            2.3275e-005     -2.2673e-008    2.5424e-009    
  1.3             2.351e-005      -1.6403e-008    1.7561e-009    
  1.35            2.337e-005      -1.1893e-008    2.4847e-009    
  1.4             2.3583e-005     -1.6943e-008    1.6802e-009    
  1.45            2.3587e-005     -2.2315e-008    2.5686e-009    
  1.5             2.3625e-005     -1.6195e-008    1.7957e-009    
  1.55            2.3577e-005     -1.1648e-008    2.513e-009     
  1.6             2.3872e-005     -1.6682e-008    1.718e-009     
  1.65            2.3531e-005     -1.2114e-008    2.4572e-009    
  1.7             2.3818e-005     -1.7043e-008    1.6444e-009    
  1.75            2.4009e-005     -2.2663e-008    2.5414e-009    
  1.8             2.4021e-005     -1.6412e-008    1.7574e-009    
  1.85            2.3888e-005     -1.1967e-008    2.488e-009     
  1.9             2.4098e-005     -1.6915e-008    1.6842e-009    
  1.95            2.4215e-005     -2.2549e-008    2.5749e-009    
  2               2.4242e-005     -1.6208e-008    1.8004e-009    
  2.05            2.4029e-005     -1.1551e-008    2.5214e-009    
  2.1             2.4002e-005     -1.6634e-008    1.7324e-009    
  2.15            2.4311e-005     -2.2162e-008    2.6004e-009    
  2.2             2.4381e-005     -1.5769e-008    1.8529e-009    
  2.25            2.4162e-005     -1.114e-008     2.5514e-009    
  2.3             2.4177e-005     -1.6414e-008    1.7704e-009    
  2.35            2.4892e-005     -1.1895e-008    2.4945e-009    
  2.4             2.5096e-005     -1.7007e-008    1.6918e-009    
  2.45            2.5268e-005     -2.2549e-008    2.5686e-009    
  2.5             2.507e-005      -1.6298e-008    1.8113e-009    
  2.55            2.4994e-005     -1.1693e-008    2.5216e-009    
  2.6             2.5153e-005     -1.6817e-008    1.7317e-009    
  2.65            2.455e-005      -1.2233e-008    2.4654e-009    
  2.7             2.4482e-005     -1.7399e-008    1.6585e-009    
  2.75            2.4455e-005     -2.2981e-008    2.5525e-009    
  2.8             2.4735e-005     -1.9986e-008    1.9899e-009    
  2.85            2.4315e-005     -9.766e-009     -8.282e-010    
  2.9             2.4959e-005     7.173e-009      -2.6217e-009   
  2.95            2.5683e-005     8.984e-009      -2.3991e-009   
  3               2.5995e-005     1.3306e-008     -1.699e-009    
  3.05            2.5769e-005     8.516e-009      -2.3481e-009   
  3.1             2.5682e-005     1.3739e-008     -1.6306e-009   
  3.15            2.5861e-005     8.185e-009      -2.2956e-009   
  3.2             2.5685e-005     1.353e-008      -1.5724e-009   
  3.25            2.5929e-005     7.457e-009      -2.2339e-009   
  3.3             2.6122e-005     1.315e-008      -1.5174e-009   
  3.35            2.6057e-005     6.63e-009       -2.1728e-009   
  3.4             2.5706e-005     4.965e-009      -2.5833e-009   
  3.45            2.6102e-005     5.78e-009       -2.1011e-009   
  3.5             2.58e-005       3.664e-009      -2.5652e-009   
  3.55            2.6131e-005     4.283e-009      -2.0297e-009   
  3.6             2.5918e-005     1.71e-009       -2.5365e-009   
  3.65            2.6444e-005     2.71e-009       -1.9547e-009   
  3.7             2.6082e-005     -6.59e-010      -2.5074e-009   
  3.75            2.6378e-005     4.77e-010       -1.8908e-009   
  3.8             2.4506e-005     -6.645e-009     2.1134e-009    
  3.85            2.5627e-005     -2.5051e-008    -3.946e-010    
  3.9             2.4702e-005     -1.9531e-008    -2.5361e-009   
  3.95            2.4563e-005     -1.0787e-008    1.5905e-009    
  4               2.6277e-005     -3.1645e-008    1.749e-010     
  4.05            2.529e-005      -2.3848e-008    -1.9074e-009   
  4.1             2.4869e-005     -1.9216e-008    2.0955e-009    
  4.15            2.5792e-005     -3.8664e-008    -3.638e-010    
  4.2             2.6833e-005     -1.5186e-008    -1.5298e-009   
  4.25            2.4956e-005     -2.8679e-008    2.2921e-009    
  4.3             2.5956e-005     -4.8026e-008    -6.913e-010    
  4.35            2.6885e-005     -2.0552e-008    -1.3081e-009   
  4.4             2.495e-005      -4.099e-008     2.4615e-009    
  4.45            2.5835e-005     -5.9128e-008    -9.497e-010    
  4.5             2.6793e-005     -3.0563e-008    -2.2492e-009   
  4.55            2.5256e-005     -5.1728e-008    1.8997e-009    
  4.6             2.6583e-005     -7.4786e-008    -1.095e-010    
  4.65            2.7143e-005     -5.728e-008     -1.8236e-009   
  4.7             2.5409e-005     -6.8962e-008    2.1456e-009    
  4.75            2.6366e-005     -9.2145e-008    -4.397e-010    
  4.8             2.7281e-005     -7.1133e-008    -1.4509e-009   
  4.85            2.6024e-005     -1.17214e-007   -2.6243e-009   
  4.9             2.6007e-005     -1.1231e-007    1.6814e-009    
  4.95            2.6234e-005     -1.2328e-007    -2.1788e-009   
  5               2.6765e-005     -1.1092e-007    5.679e-010     
END_DB

BEGIN_DB
 ICCAP_VAR VG         2              
 ICCAP_VAR VS         0              
 ICCAP_VAR VB         0              

 #VD              ID              IB              IG             
  0               -3.168e-007     -2.2348e-008    1.3374e-009    
  0.05            1.9352e-005     1.568e-008      -8.613e-010    
  0.1             3.8515e-005     8.375e-009      -2.6209e-009   
  0.15            5.7456e-005     1.0101e-008     -2.3579e-009   
  0.2             7.6138e-005     1.5159e-008     -1.6463e-009   
  0.25            9.4568e-005     1.038e-008      -2.3106e-009   
  0.3             0.000112656     1.5716e-008     -1.5887e-009   
  0.35            0.00013048      1.0613e-008     -1.056e-010    
  0.4             0.000148        -1.4067e-008    2.1852e-009    
  0.45            0.00016511      -9.126e-009     -8.271e-010    
  0.5             0.00018198      9.119e-009      -2.6116e-009   
  0.55            0.00019855      1.1431e-008     -2.0956e-009   
  0.6             0.00021465      1.0618e-008     -2.4901e-009   
  0.65            0.00023041      1.4949e-008     -1.6627e-009   
  0.7             0.00024564      1.0959e-008     -2.1715e-009   
  0.75            0.00026046      1.9199e-008     -1.3681e-009   
  0.8             0.00027481      1.4118e-008     -1.7474e-009   
  0.85            0.00028867      1.0408e-008     -2.2493e-009   
  0.9             0.00030183      1.8435e-008     -1.409e-009    
  0.95            0.00031466      1.336e-008      -1.8245e-009   
  1               0.0003269       1.0061e-008     -2.3101e-009   
  1.05            0.00033785      7.474e-009      1.9647e-009    
  1.1             0.00034902      -9.145e-009     2.6969e-009    
  1.15            0.00035953      -1.5659e-008    1.8558e-009    
  1.2             0.0003693       -2.2446e-008    2.5512e-009    
  1.25            0.00037824      -1.762e-008     1.5917e-009    
  1.3             0.00038626      -1.3957e-008    2.1585e-009    
  1.35            0.00039394      -9.079e-009     -8.43e-010     
  1.4             0.0004012       9.038e-009      -2.614e-009    
  1.45            0.00040748      1.1719e-008     -2.0718e-009   
  1.5             0.00041311      1.0374e-008     -2.4785e-009   
  1.55            0.00041797      1.5068e-008     -1.6406e-009   
  1.6             0.00042252      1.1197e-008     -2.1507e-009   
  1.65            0.00042626      1.9515e-008     -1.3596e-009   
  1.7             0.00042995      1.4497e-008     -1.722e-009    
  1.75            0.00043266      1.0563e-008     -2.2283e-009   
  1.8             0.00043547      1.8772e-008     -1.3983e-009   
  1.85            0.00043765      1.3584e-008     -1.7988e-009   
  1.9             0.00043959      1.0201e-008     -2.2968e-009   
  1.95            0.00043973      7.41e-009       1.9765e-009    
  2               0.00044207      -9.349e-009     2.6866e-009    
  2.05            0.0004438       -1.5927e-008    1.8312e-009    
  2.1             0.00044527      -2.2588e-008    2.5427e-009    
  2.15            0.0004464       -1.7766e-008    1.5753e-009    
  2.2             0.00044715      -2.2635e-008    2.3227e-009    
  2.25            0.00044801      -9.199e-009     -7.433e-010    
  2.3             0.00044973      8.232e-009      -2.6224e-009   
  2.35            0.0004506       1.0669e-008     -2.2209e-009   
  2.4             0.00045165      1.8823e-008     -1.3954e-009   
  2.45            0.00045248      1.3475e-008     -1.7886e-009   
  2.5             0.0004531       1.0301e-008     -2.2962e-009   
  2.55            0.00045179      7.466e-009      1.9722e-009    
  2.6             0.00045306      -9.367e-009     2.687e-009     
  2.65            0.00045417      -1.6017e-008    1.8304e-009    
  2.7             0.00045533      -2.2738e-008    2.5348e-009    
  2.75            0.0004558       -1.7506e-008    1.5721e-009    
  2.8             0.00045624      -2.2703e-008    2.3207e-009    
  2.85            0.00045685      -9.308e-009     -7.455e-010    
  2.9             0.00045787      8.432e-009      -2.619e-009    
  2.95            0.00045905      1.0626e-008     -2.214e-009    
  3               0.00045899      1.8844e-008     -1.3922e-009   
  3.05            0.0004595       1.3495e-008     -1.7893e-009   
  3.1             0.0004605       1.0356e-008     -2.2872e-009   
  3.15            0.00045886      7.869e-009      1.9861e-009    
  3.2             0.00046017      -9.477e-009     2.6838e-009    
  3.25            0.00046096      -1.604e-008     1.8278e-009    
  3.3             0.00046133      -2.2801e-008    2.5381e-009    
  3.35            0.00046235      -1.7841e-008    1.5654e-009    
  3.4             0.00046281      -2.2775e-008    2.3183e-009    
  3.45            0.0004626       -9.662e-009     2.6922e-009    
  3.5             0.00046351      -1.6334e-008    1.838e-009     
  3.55            0.00046415      -9.335e-009     -9.966e-010    
  3.6             0.00046518      9.737e-009      -2.5437e-009   
  3.65            0.00046548      1.2497e-008     -1.7763e-009   
  3.7             0.00046608      8.988e-009      -2.285e-009    
  3.75            0.00046629      1.6106e-008     -1.4317e-009   
  3.8             0.00046688      1.0674e-008     -1.862e-009    
  3.85            0.00046707      7.158e-009      -2.3463e-009   
  3.9             0.00046688      1.3153e-008     -1.4783e-009   
  3.95            0.00046805      7.615e-009      -1.9432e-009   
  4               0.00046856      3.91e-009       -2.4034e-009   
  4.05            0.00046865      1.784e-009      -2.6075e-009   
  4.1             0.00046969      2.386e-009      -2.0279e-009   
  4.15            0.00046806      -4.574e-009     2.1423e-009    
