! VERSION = 6.00
BEGIN_HEADER
 ICCAP_INPUTS
  VG         V  B GROUND SMU4 0.001 LIN        2    0          5          6    1         
  VS         V  E GROUND SMU2 0.1 CON        0
  VD         V  S GROUND SMU1 0.1 LIN        1    0          5          101  0.05      
  VB         V  C GROUND SMU3 0.1 LIN        3    0          -2.5       2    -2.5      
 ICCAP_OUTPUTS
  ID         I  S GROUND SMU1 B
  IB         I  C GROUND SMU3 B
  IG         I  B GROUND SMU4 B
END_HEADER

BEGIN_DB
 ICCAP_VAR VG         0              
 ICCAP_VAR VS         0              
 ICCAP_VAR VB         0              

 #VD              ID              IB              IG             
  0               -4.2904e-007    2.1232e-007     -1.2153e-009   
  0.05            -1.445e-008     1.1331e-008     -2.8562e-009   
  0.1             -1.7943e-007    1.6665e-007     -2.6293e-008   
  0.15            -2.6032e-007    2.1767e-007     -6.45e-010     
  0.2             -5.7137e-008    6.59e-010       -1.619e-007    
  0.25            1.8606e-008     4.7352e-007     -2.384e-008    
  0.3             2.81e-009       4.6669e-007     -9.814e-008    
  0.35            7.7836e-008     3.71e-009       -2.5772e-007   
  0.4             3.337e-008      4.7746e-007     -3.268e-008    
  0.45            3.401e-009      4.6536e-007     -9.993e-008    
  0.5             7.9614e-008     4.95e-009       -3.0022e-007   
  0.55            3.8574e-008     4.7963e-007     -4.564e-008    
  0.6             4.382e-009      4.6843e-007     -1.0212e-007   
  0.65            7.9994e-008     6.98e-009       -3.3451e-007   
  0.7             4.407e-008      4.7683e-007     -6.45e-008     
  0.75            5.984e-009      4.6798e-007     -1.0153e-007   
  0.8             7.9484e-008     1.034e-008      -3.6991e-007   
  0.85            4.9604e-008     4.7454e-007     -8.903e-008    
  0.9             8.649e-009      4.6886e-007     -9.794e-008    
  0.95            7.7948e-008     1.367e-008      -4.13e-007     
  1               3.7309e-008     1.0602e-007     -1.3378e-007   
  1.05            1.4561e-008     4.688e-007      -3e-009        
  1.1             2.134e-009      4.5844e-007     6.72e-010      
  1.15            2.664e-009      1.7691e-007     -9.463e-008    
  1.2             7.611e-008      1.721e-008      -4.4507e-007   
  1.25            3.4235e-008     1.0844e-007     -1.6102e-007   
  1.3             1.8076e-008     4.6994e-007     -5e-009        
  1.35            2.368e-009      4.6489e-007     -5.2435e-007   
  1.4             7.6825e-008     3.6281e-007     -1.1964e-007   
  1.45            8.3775e-008     1.6965e-007     -8.56e-009     
  1.5             2.731e-009      4.6444e-007     -1.568e-008    
  1.55            7.2512e-008     3.0517e-007     -4.787e-007    
  1.6             6.8118e-008     4.2987e-007     -1.7916e-007   
  1.65            8.4353e-008     1.8191e-007     -6.42e-009     
  1.7             2.523e-009      4.678e-007      -5.3957e-007   
  1.75            7.993e-008      3.3618e-007     -1.0621e-007   
  1.8             8.4914e-008     1.7998e-007     -6.77e-009     
  1.85            2.722e-009      4.6543e-007     -5.4471e-007   
  1.9             8.1657e-008     3.2803e-007     -1.2928e-007   
  1.95            8.5683e-008     1.7846e-007     -7.53e-009     
  2               2.706e-009      4.6841e-007     -5.4319e-007   
  2.05            8.2704e-008     3.2284e-007     -1.2326e-007   
  2.1             8.603e-008      1.7442e-007     -8.18e-009     
  2.15            2.799e-009      4.6964e-007     -1.603e-008    
  2.2             7.5511e-008     3.0108e-007     -4.7779e-007   
  2.25            7.0128e-008     4.3101e-007     -1.8654e-007   
  2.3             8.6658e-008     1.8779e-007     -5.32e-009     
  2.35            2.727e-009      4.6581e-007     -5.3661e-007   
  2.4             8.1594e-008     3.4716e-007     -1.1274e-007   
  2.45            8.7024e-008     1.7979e-007     -6.04e-009     
  2.5             2.792e-009      4.6682e-007     -5.3893e-007   
  2.55            8.2268e-008     3.3832e-007     -1.3129e-007   
  2.6             8.7169e-008     1.7998e-007     -6.92e-009     
  2.65            2.923e-009      4.67e-007       -5.4539e-007   
  2.7             8.3729e-008     3.2856e-007     -1.2908e-007   
  2.75            8.7737e-008     1.6308e-007     -1.047e-008    
  2.8             3.375e-009      4.6895e-007     -1.595e-008    
  2.85            7.0017e-008     3.3311e-007     -5.0606e-007   
  2.9             7.7286e-008     4.0121e-007     -1.483e-007    
  2.95            8.8312e-008     1.7319e-007     -9.44e-009     
  3               3.1e-009        4.6752e-007     -1.626e-008    
  3.05            7.5515e-008     3.1123e-007     -4.9036e-007   
  3.1             7.4935e-008     4.2471e-007     -1.7304e-007   
  3.15            8.8895e-008     1.8059e-007     -7.08e-009     
  3.2             2.906e-009      4.6754e-007     -5.4744e-007   
  3.25            8.5174e-008     3.3119e-007     -1.2807e-007   
  3.3             8.9389e-008     1.7711e-007     -7.14e-009     
  3.35            2.902e-009      4.6962e-007     -1.614e-008    
  3.4             7.9763e-008     2.9769e-007     -4.7573e-007   
  3.45            7.0893e-008     4.3505e-007     -1.983e-007    
  3.5             8.9434e-008     1.9407e-007     -5.56e-009     
  3.55            2.786e-009      4.6789e-007     -5.3635e-007   
  3.6             8.3838e-008     3.5384e-007     -1.0287e-007   
  3.65            8.9931e-008     1.7044e-007     -9.49e-009     
  3.7             3.244e-009      4.6936e-007     -1.616e-008    
  3.75            7.5601e-008     3.1597e-007     -4.9588e-007   
  3.8             7.6142e-008     4.1896e-007     -1.3296e-007   
  3.85            9.0459e-008     1.8003e-007     -7.56e-009     
  3.9             3.078e-009      4.6858e-007     -5.4504e-007   
  3.95            8.7077e-008     3.2484e-007     -1.2838e-007   
  4               9.065e-008      1.6276e-007     -1.137e-008    
  4.05            3.448e-009      4.7101e-007     -1.647e-008    
  4.1             7.2044e-008     3.3475e-007     -5.1345e-007   
  4.15            7.939e-008      4.0197e-007     -1.5082e-007   
  4.2             9.1329e-008     1.6992e-007     -8.2e-009      
  4.25            3.244e-009      4.6932e-007     -1.615e-008    
  4.3             7.7531e-008     3.1318e-007     -4.9159e-007   
  4.35            7.6234e-008     4.238e-007      -1.7297e-007   
  4.4             9.2008e-008     1.802e-007      -6.93e-009     
  4.45            3.031e-009      4.6744e-007     -5.4861e-007   
  4.5             8.7123e-008     3.2937e-007     -1.2846e-007   
  4.55            9.1587e-008     1.6259e-007     -1.031e-008    
  4.6             3.567e-009      4.6932e-007     -1.629e-008    
  4.65            7.3617e-008     3.3098e-007     -5.0935e-007   
  4.7             8.0343e-008     4.0239e-007     -1.5149e-007   
  4.75            9.267e-008      1.7109e-007     -8.34e-009     
  4.8             3.277e-009      4.6728e-007     -1.63e-008     
  4.85            7.8875e-008     3.1561e-007     -4.8858e-007   
  4.9             7.6629e-008     4.2451e-007     -1.7829e-007   
  4.95            9.2574e-008     1.7941e-007     -7.21e-009     
  5               2.972e-009      4.6789e-007     -5.4838e-007   
END_DB

BEGIN_DB
 ICCAP_VAR VG         1              
 ICCAP_VAR VS         0              
 ICCAP_VAR VB         0              

 #VD              ID              IB              IG             
  0               -2.3018e-007    1.857e-007      1.4222e-009    
  0.05            7.2603e-006     3.5977e-007     1.8684e-009    
  0.1             1.3086e-005     1.3533e-007     8.946e-010     
  0.15            1.6142e-005     -2.13e-009      -4.833e-010    
  0.2             1.7627e-005     6.736e-008      7.426e-010     
  0.25            1.8348e-005     8.849e-008      2.7381e-009    
  0.3             1.8954e-005     1.23e-009       -1.5561e-009   
  0.35            1.8869e-005     5.78e-009       1.293e-009     
  0.4             1.9088e-005     -2.35e-009      -9.841e-010    
  0.45            1.9103e-005     3.1037e-007     2.6956e-009    
  0.5             1.9214e-005     -7.6e-010       -1.681e-009    
  0.55            1.8918e-005     6.16e-009       1.3975e-009    
  0.6             1.9245e-005     -2.15e-009      -1.1077e-009   
  0.65            1.9273e-005     -2.15e-009      2.7239e-009    
  0.7             1.9101e-005     -2.52e-009      1.9462e-009    
  0.75            1.9306e-005     -2.51e-009      -1.6646e-009   
  0.8             1.8993e-005     5.91e-009       1.3576e-009    
  0.85            1.9001e-005     5.973e-009      -6.26e-011     
  0.9             1.9248e-005     1.663e-008      1.4522e-009    
  0.95            1.9279e-005     9.24e-009       -2.2688e-009   
  1               1.9141e-005     1.0929e-007     2.427e-009     
  1.05            1.9203e-005     2.905e-008      2.4362e-009    
  1.1             1.9074e-005     8.4001e-008     1.5869e-009    
  1.15            1.9293e-005     6.381e-009      -2.194e-009    
  1.2             1.9274e-005     1.4911e-008     -1.2685e-008   
  1.25            1.9314e-005     1.5247e-008     -2.2034e-008   
  1.3             1.9283e-005     8.916e-009      -9.2919e-008   
  1.35            1.9347e-005     8.1764e-008     -9.128e-008    
  1.4             1.9299e-005     8.2611e-008     -9.3464e-008   
  1.45            1.9298e-005     8.0735e-008     -9.3616e-008   
  1.5             1.9316e-005     7.9394e-008     -9.3875e-008   
  1.55            1.9331e-005     7.9315e-008     -9.4168e-008   
  1.6             1.9334e-005     8.0674e-008     -9.963e-008    
  1.65            1.9349e-005     8.2558e-008     -9.5162e-008   
  1.7             1.935e-005      8.0401e-008     -9.2104e-008   
  1.75            1.9352e-005     8.265e-008      -9.1994e-008   
  1.8             1.9399e-005     8.1638e-008     -9.2383e-008   
  1.85            1.9368e-005     8.072e-008      -9.5927e-008   
  1.9             1.9368e-005     8.0926e-008     -9.3697e-008   
  1.95            1.9374e-005     8.1755e-008     -9.6317e-008   
  2               1.9387e-005     8.0656e-008     -9.6892e-008   
  2.05            1.9452e-005     7.9937e-008     -9.6789e-008   
  2.1             1.9403e-005     8.0952e-008     -1.00235e-007  
  2.15            1.9409e-005     8.1273e-008     -9.8768e-008   
  2.2             1.9424e-005     8.1457e-008     -9.365e-008    
  2.25            1.9421e-005     8.1746e-008     -9.1633e-008   
  2.3             1.9438e-005     8.0741e-008     -9.3317e-008   
  2.35            1.9432e-005     8.0835e-008     -9.6389e-008   
  2.4             1.9434e-005     8.2877e-008     -9.369e-008    
  2.45            1.9445e-005     8.1e-008        -9.4916e-008   
  2.5             1.945e-005      8.0133e-008     -9.5843e-008   
  2.55            1.9455e-005     8.1645e-008     -9.7611e-008   
  2.6             1.9504e-005     8.043e-008      -9.8482e-008   
  2.65            1.9527e-005     8.2614e-008     -9.9385e-008   
  2.7             1.9476e-005     8.1314e-008     -9.6742e-008   
  2.75            1.9503e-005     8.3054e-008     -9.1622e-008   
  2.8             1.9478e-005     8.0298e-008     -9.2964e-008   
  2.85            1.9487e-005     8.1687e-008     -9.5498e-008   
  2.9             1.9492e-005     8.0251e-008     -9.6203e-008   
  2.95            1.9495e-005     8.307e-008      -9.6535e-008   
  3               1.9496e-005     8.2565e-008     -9.4808e-008   
  3.05            1.9515e-005     8.0195e-008     -9.9116e-008   
  3.1             1.9518e-005     7.8867e-008     -9.8965e-008   
  3.15            1.9542e-005     7.894e-008      -9.8086e-008   
  3.2             1.9533e-005     7.862e-008      -9.9443e-008   
  3.25            1.9566e-005     8.0238e-008     -9.6054e-008   
  3.3             1.954e-005      7.8722e-008     -9.7475e-008   
  3.35            1.9566e-005     8.0658e-008     -9.5661e-008   
  3.4             1.9575e-005     -3.926e-009     -9.5288e-008   
  3.45            1.9554e-005     -6.063e-009     -9.5353e-008   
  3.5             1.956e-005      -7.44e-009      -9.6391e-008   
  3.55            1.956e-005      -8.951e-009     -9.4882e-008   
  3.6             1.9576e-005     -1.0222e-008    -9.3946e-008   
  3.65            1.9643e-005     -1.1034e-008    -3.137e-009    
  3.7             1.9577e-005     6.758e-009      -2.7264e-008   
  3.75            1.9589e-005     -3.455e-009     -9.6619e-008   
  3.8             1.9638e-005     -1.6576e-008    1.055e-009     
  3.85            1.96e-005       6.9139e-008     -3.0073e-008   
  3.9             1.9638e-005     -8.162e-009     -9.9378e-008   
  3.95            1.9641e-005     -2.2129e-008    1.499e-009     
  4               1.9624e-005     6.5467e-008     -8.4883e-008   
  4.05            1.9646e-005     -1.0265e-008    -9.7186e-008   
  4.1             1.9668e-005     -2.7058e-008    -9.8811e-008   
  4.15            1.9695e-005     -2.9263e-008    1.03e-009      
  4.2             1.9644e-005     5.5187e-008     -3.0396e-008   
  4.25            1.9642e-005     -2.331e-008     -9.9783e-008   
  4.3             1.9697e-005     -3.8324e-008    1.487e-009     
  4.35            1.9615e-005     2.3027e-008     -2.4828e-008   
  4.4             1.969e-005      -3.1433e-008    -9.7206e-008   
  4.45            1.9742e-005     -4.7409e-008    -9.7413e-008   
  4.5             1.9749e-005     -5.0834e-008    9.64e-010      
  4.55            1.9633e-005     -2.0731e-008    -3.0441e-008   
  4.6             1.9702e-005     -4.8103e-008    -9.9366e-008   
  4.65            1.9759e-005     -6.4805e-008    1.428e-009     
  4.7             1.9694e-005     -6.526e-009     -2.5239e-008   
  4.75            1.9723e-005     -6.1741e-008    -9.9071e-008   
  4.8             1.9797e-005     -7.9464e-008    1.429e-009     
  4.85            1.9756e-005     -6.162e-009     -1.8354e-008   
  4.9             1.9768e-005     -7.8899e-008    -6.3991e-008   
  4.95            1.9808e-005     -9.6767e-008    -1.01212e-007  
  5               1.983e-005      -1.05606e-007   1.434e-009     
END_DB

BEGIN_DB
 ICCAP_VAR VG         2              
 ICCAP_VAR VS         0              
 ICCAP_VAR VB         0              

 #VD              ID              IB              IG             
  0               -1.1217e-006    5.536e-008      -3.37e-011     
  0.05            3.8263e-005     4.7239e-007     -1.9012e-009   
  0.1             7.6055e-005     1.8715e-007     2.1798e-009    
  0.15            0.000112015     6.562e-008      -1.7853e-009   
  0.2             0.0001468       9.62e-009       2.5741e-009    
  0.25            0.00017998      -1.87e-009      -1.0592e-009   
  0.3             0.00021165      7.76e-009       9.606e-010     
  0.35            0.00024168      -2.73e-009      -7.412e-010    
  0.4             0.0002704       -2.578e-009     1.6409e-009    
  0.45            0.00029729      2.0624e-007     2.4943e-009    
  0.5             0.00032276      1.1947e-007     -2.289e-009    
  0.55            0.00034634      6.419e-008      2.2326e-009    
  0.6             0.00036839      1.471e-008      -1.9429e-009   
  0.65            0.00038832      9.8e-009        1.8658e-009    
  0.7             0.00040737      -2.49e-009      -1.6999e-009   
  0.75            0.00042299      7.15e-009       1.5017e-009    
  0.8             0.00043902      -2.15e-009      -1.3526e-009   
  0.85            0.00045126      1.7099e-007     2.0046e-009    
  0.9             0.00046265      3.76e-009       -2.0936e-009   
  0.95            0.00047191      6.48e-009       2.0325e-009    
  1               0.00048001      -2.79e-009      -1.8171e-009   
  1.05            0.00048602      -2.477e-009     -1.8907e-009   
  1.1             0.00049155      2.8501e-008     -2.4202e-009   
  1.15            0.00049378      7.002e-009      1.7861e-009    
  1.2             0.00049696      5.1082e-008     2.7258e-009    
  1.25            0.00049891      3.5914e-008     2.4436e-009    
  1.3             0.00050053      -2.62e-009      -1.8592e-009   
  1.35            0.00050231      1.4039e-008     -2.4265e-009   
  1.4             0.00050183      7.037e-009      1.7461e-009    
  1.45            0.00050371      2.1e-008        -1.5294e-009   
  1.5             0.00050349      6.552e-009      9.721e-010     
  1.55            0.00050477      1.7898e-008     -1.3609e-009   
  1.6             0.0005053       1.4926e-008     -1.7538e-009   
  1.65            0.0005058       1.488e-008      -2.2543e-009   
  1.7             0.00050597      1.7242e-008     -1.3894e-009   
  1.75            0.0005064       1.4852e-008     -1.8116e-009   
  1.8             0.00050691      1.4641e-008     -2.3085e-009   
  1.85            0.00050707      2.1417e-008     -1.2334e-009   
  1.9             0.00050733      1.4654e-008     -1.8711e-009   
  1.95            0.00050775      1.4233e-008     -2.3484e-009   
  2               0.00050787      2.2763e-008     -1.2499e-009   
  2.05            0.0005081       1.4772e-008     -1.9449e-009   
  2.1             0.00050852      1.4004e-008     -2.4689e-009   
  2.15            0.00050854      2.3857e-008     -1.5144e-009   
  2.2             0.00050883      1.4803e-008     -4.7629e-009   
  2.25            0.00050912      1.3756e-008     -4.9843e-009   
  2.3             0.00050859      1.5737e-008     -2.2776e-008   
  2.35            0.00050885      1.4732e-008     -1.8506e-008   
  2.4             0.000509        1.5163e-008     -1.4464e-008   
  2.45            0.0005092       2.3699e-008     -2.4797e-008   
  2.5             0.00050939      2.2589e-008     -2.5544e-008   
  2.55            0.00050954      2.1489e-008     -2.585e-008    
  2.6             0.00050979      2.0305e-008     -2.6754e-008   
  2.65            0.00050996      1.9328e-008     -2.7214e-008   
  2.7             0.00051011      1.3076e-008     -2.9448e-008   
  2.75            0.00051025      1.3808e-008     -2.9081e-008   
  2.8             0.00051049      1.4831e-008     -2.7142e-008   
  2.85            0.00051066      1.4883e-008     -2.1717e-008   
  2.9             0.0005108       1.4685e-008     -1.6685e-008   
  2.95            0.00051093      1.5398e-008     -1.2745e-008   
  3               0.00051109      2.1081e-008     -2.6448e-008   
  3.05            0.00051122      1.7153e-008     -2.7024e-008   
  3.1             0.00051137      1.7735e-008     -2.7573e-008   
  3.15            0.00051155      1.2888e-008     -2.9787e-008   
  3.2             0.00051173      1.3592e-008     -2.9425e-008   
  3.25            0.00051187      1.4674e-008     -2.7013e-008   
  3.3             0.00051206      1.4286e-008     -2.1493e-008   
  3.35            0.00051218      1.4136e-008     -1.6312e-008   
  3.4             0.00051231      1.465e-008      -2.3762e-008   
  3.45            0.00051245      1.4184e-008     -2.4386e-008   
  3.5             0.00051257      1.3819e-008     -2.4988e-008   
  3.55            0.00051271      1.3388e-008     -2.564e-008    
  3.6             0.00051289      1.2995e-008     -2.6068e-008   
  3.65            0.00051298      7.668e-009      -2.8948e-008   
  3.7             0.00051313      7.551e-009      -2.9808e-008   
  3.75            0.0005133       6.697e-009      -2.8776e-008   
  3.8             0.00051335      -7.647e-009     -2.847e-008    
  3.85            0.00051341      -8.772e-009     -1.5352e-008   
  3.9             0.0005136       -1.2978e-008    -2.6913e-008   
  3.95            0.00051374      -1.6651e-008    -2.9728e-008   
  4               0.00051386      -2.003e-008     -1.3167e-008   
  4.05            0.000514        -2.5911e-008    -2.3728e-008   
  4.1             0.00051413      -3.1653e-008    -2.9939e-008   
  4.15            0.00051426      -3.7772e-008    -2.5011e-008   
