! VERSION = 6.00
BEGIN_HEADER
 ICCAP_INPUTS
  VG         V  B GROUND SMU4 0.001 LIN        1    0          5          101  0.05      
  VS         V  E GROUND SMU2 0.1 CON        0
  VB         V  C GROUND SMU3 0.1 LIN        3    0          -5         3    -2.5      
  VD         V  S GROUND SMU1 0.1 LIN        2    0.1        5          2    4.9       
 ICCAP_OUTPUTS
  IG         I  B GROUND SMU4 B
  ID         I  S GROUND SMU1 B
  IB         I  C GROUND SMU3 B
END_HEADER

BEGIN_DB
 ICCAP_VAR VS         0              
 ICCAP_VAR VB         0              
 ICCAP_VAR VD         0.1            

 #VG              IG              ID              IB             
  0               1.1592e-009     1.6149e-009     1.8251e-008    
  0.05            2.243e-009      1.5086e-009     -9.956e-009    
  0.1             -2.1313e-009    1.0746e-009     1.4589e-008    
  0.15            2.7275e-009     -6.335e-010     -2.1937e-008   
  0.2             -1.7638e-009    1.2648e-009     1.7846e-008    
  0.25            2.7241e-009     -1.2145e-009    4.118e-009     
  0.3             -1.7573e-009    1.3206e-009     1.8075e-008    
  0.35            -1.53e-011      -1.2576e-009    -5.5e-009      
  0.4             2.7423e-009     1.9103e-009     -1.0957e-008   
  0.45            -1.8365e-009    3.6848e-009     1.7324e-008    
  0.5             -2.5155e-009    7.9001e-009     -5.987e-009    
  0.55            2.7208e-009     3.0733e-008     1.6037e-008    
  0.6             -1.151e-009     1.0774e-007     1.4908e-008    
  0.65            2.67e-011       3.8304e-007     -9.879e-009    
  0.7             2.4613e-009     1.1769e-006     1.6246e-008    
  0.75            -1.3905e-009    3.605e-006      1.9083e-008    
  0.8             -2.6514e-009    8.6444e-006     7.416e-009     
  0.85            1.2311e-009     1.6831e-005     -2.1547e-008   
  0.9             -1.9835e-009    2.8429e-005     1.2681e-008    
  0.95            -1.0021e-009    4.0641e-005     -8.988e-009    
  1               2.6292e-009     5.2064e-005     -1.0499e-008   
  1.05            -1.351e-009     6.3223e-005     1.9532e-008    
  1.1             -2.6499e-009    7.2918e-005     8.066e-009     
  1.15            2.078e-009      8.1315e-005     -1.5394e-008   
  1.2             2.4893e-009     8.9063e-005     -6.916e-009    
  1.25            -2.4852e-009    9.6201e-005     9.643e-009     
  1.3             -1.9857e-009    0.000102411     6.37e-010      
  1.35            2.4448e-009     0.000108018     -2.243e-008    
  1.4             2.5002e-009     0.00011327      5.467e-009     
  1.45            2.7741e-009     0.00011825      6.927e-009     
  1.5             2.0182e-009     0.00012267      7.433e-009     
  1.55            -2.2076e-009    0.00012698      1.0583e-008    
  1.6             2.6025e-009     0.00013072      -1.0889e-008   
  1.65            -2.5414e-009    0.00013447      9.853e-009     
  1.7             -2.1075e-009    0.00013778      5.97e-010      
  1.75            2.5403e-009     0.00014097      -1.172e-008    
  1.8             -2.5003e-009    0.00014409      9.779e-009     
  1.85            -2.0157e-009    0.00014688      7.34e-010      
  1.9             -9.731e-010     0.00014962      -9.244e-009    
  1.95            2.6549e-009     0.00015213      -9.996e-009    
  2               -1.3715e-009    0.00015466      1.9294e-008    
  2.05            -2.6475e-009    0.00015698      7.837e-009     
  2.1             2.1382e-009     0.00015922      -1.523e-008    
  2.15            2.4682e-009     0.00016132      -6.44e-009     
  2.2             -1.3744e-009    0.00016341      1.8886e-008    
  2.25            -2.6451e-009    0.00016533      7.547e-009     
  2.3             2.154e-009      0.00016722      -1.5058e-008   
  2.35            1.4807e-009     0.00016899      -6.213e-009    
  2.4             2.7319e-009     0.00017073      -8.703e-009    
  2.45            -2.073e-009     0.00017247      1.2067e-008    
  2.5             2.5072e-009     0.00017404      -1.2197e-008   
  2.55            2.4619e-009     0.00017554      5.577e-009     
  2.6             -1.3887e-009    0.00017712      1.882e-008     
  2.65            -2.6437e-009    0.00017853      7.574e-009     
  2.7             2.1834e-009     0.00017996      -1.4929e-008   
  2.75            1.5016e-009     0.00018126      -5.982e-009    
  2.8             2.7218e-009     0.00018256      -8.582e-009    
  2.85            -2.1016e-009    0.00018387      1.1637e-008    
  2.9             2.5253e-009     0.00018504      -2.2171e-008   
  2.95            -2.4855e-009    0.00018627      9.622e-009     
  3               -1.9938e-009    0.00018737      6.34e-010      
  3.05            -9.851e-010     0.00018846      -9.177e-009    
  3.1             2.6424e-009     0.00018954      -1.0185e-008   
  3.15            -1.3623e-009    0.0001906       1.9173e-008    
  3.2             -2.6456e-009    0.00019162      7.864e-009     
  3.25            2.1105e-009     0.00019261      -1.5244e-008   
  3.3             2.4766e-009     0.00019356      -6.468e-009    
  3.35            -1.3662e-009    0.00019448      1.91e-008      
  3.4             -2.6486e-009    0.00019535      7.84e-009      
  3.45            2.1208e-009     0.00019626      -1.4999e-008   
  3.5             1.4613e-009     0.00019707      -6.124e-009    
  3.55            2.7423e-009     0.0001979       -8.493e-009    
  3.6             -2.0466e-009    0.00019877      1.1847e-008    
  3.65            -9.659e-010     0.00019945      -9.327e-009    
  3.7             2.6701e-009     0.00020025      -9.789e-009    
  3.75            -1.3858e-009    0.00020099      1.9166e-008    
  3.8             -2.6533e-009    0.00020169      7.449e-009     
  3.85            2.1561e-009     0.00020246      -1.4591e-008   
  3.9             1.4837e-009     0.00020309      -6.057e-009    
  3.95            2.7331e-009     0.00020374      -8.523e-009    
  4               -2.0838e-009    0.00020445      1.1377e-008    
  4.05            2.524e-009      0.00020503      -2.2691e-008   
  4.1             -2.5081e-009    0.00020566      1.0101e-008    
  4.15            -1.9702e-009    0.00020619      8.64e-010      
  4.2             2.4569e-009     0.00020683      -2.2929e-008   
  4.25            -2.4604e-009    0.00020742      9.75e-009      
  4.3             -1.8885e-009    0.00020792      1.034e-009     
  4.35            2.3685e-009     0.0002085       -2.2738e-008   
  4.4             2.5311e-009     0.00020893      5.964e-009     
  4.45            -2.4711e-009    0.00020954      9.911e-009     
  4.5             -1.8999e-009    0.00020999      1.052e-009     
  4.55            2.3903e-009     0.0002105       -2.266e-008    
  4.6             1.6809e-009     0.000211        -4.01e-009     
  4.65            2.6421e-009     0.00021143      -8.741e-009    
  4.7             -2.2835e-009    0.00021196      1.0113e-008    
  4.75            -8.189e-010     0.00021232      -9.485e-009    
  4.8             1.5481e-009     0.00021271      -1.3291e-008   
  4.85            2.7089e-009     0.00021323      -8.772e-009    
  4.9             -2.1405e-009    0.00021362      1.098e-008     
  4.95            2.5753e-009     0.00021402      -2.2694e-008   
  5               -2.5434e-009    0.00021442      1.0202e-008    
END_DB

BEGIN_DB
 ICCAP_VAR VS         0              
 ICCAP_VAR VB         0              
 ICCAP_VAR VD         5              

 #VG              IG              ID              IB             
  0               -1.1053e-009    -3.743e-010     -1.0419e-008   
  0.05            -2.1753e-009    1.1725e-009     1.3421e-008    
  0.1             2.7809e-009     -4.926e-010     -2.2986e-008   
  0.15            -1.7815e-009    1.3599e-009     1.6787e-008    
  0.2             -1.5338e-009    1.797e-010      3.666e-009     
  0.25            -1.383e-009     2.898e-010      4.637e-009     
  0.3             -1.3027e-009    4.373e-010      6.634e-009     
  0.35            -2.6253e-009    7.168e-010      8.57e-009      
  0.4             2.7252e-009     2.1788e-009     -2.337e-008    
  0.45            -1.6539e-009    4.5198e-009     1.8275e-008    
  0.5             2.6719e-009     1.204e-008      1.4375e-008    
  0.55            -2.2209e-009    4.2077e-008     1.0147e-008    
  0.6             2.7951e-009     1.3816e-007     -1.067e-008    
  0.65            2.4346e-009     4.8092e-007     -5.345e-009    
  0.7             -2.2246e-009    1.6928e-006     -1.8977e-008   
  0.75            -1.5881e-009    4.7077e-006     -2.8727e-008   
  0.8             -1.3654e-009    1.2106e-005     -6.3339e-008   
  0.85            2.5173e-009     2.5825e-005     -1.5416e-007   
  0.9             2.7707e-009     4.8244e-005     -2.4852e-007   
  0.95            2.738e-009      8.0456e-005     -3.9024e-007   
  1               2.6673e-009     0.00012162      -5.4085e-007   
  1.05            2.0515e-009     0.00017269      -7.0658e-007   
  1.1             2.476e-009      0.00023111      -8.6536e-007   
  1.15            2.7506e-009     0.000298        -9.924e-007    
  1.2             2.767e-009      0.00037063      -1.11542e-006  
  1.25            8.53e-011       0.00044385      -1.1778e-006   
  1.3             -3.559e-010     0.00052619      -1.2745e-006   
  1.35            -8.196e-010     0.00061422      -1.3137e-006   
  1.4             -1.1735e-009    0.00070692      -1.3287e-006   
  1.45            -1.5595e-009    0.00080282      -1.3202e-006   
  1.5             -1.8871e-009    0.00089999      -1.2925e-006   
  1.55            -2.136e-009     0.00100064      -1.2466e-006   
  1.6             -2.4623e-009    0.00110469      -1.1867e-006   
  1.65            2.6174e-009     0.0012098       -1.107e-006    
  1.7             2.809e-009      0.0013194       -1.0276e-006   
  1.75            -2.0618e-009    0.0014308       -9.5486e-007   
  1.8             -2.386e-009     0.0015438       -8.666e-007    
  1.85            -2.6182e-009    0.0016579       -7.7777e-007   
  1.9             -2.6366e-009    0.0017733       -6.8907e-007   
  1.95            -2.2912e-009    0.0018908       -6.0333e-007   
  2               -1.6737e-009    0.0020095       -5.2344e-007   
  2.05            -1.315e-009     0.0021295       -4.4806e-007   
  2.1             -2.6634e-009    0.0022505       -3.7698e-007   
  2.15            -2.4744e-009    0.0023705       -3.2459e-007   
  2.2             -1.9054e-009    0.0024934       -2.6877e-007   
  2.25            -1.3987e-009    0.0026175       -2.1896e-007   
  2.3             -2.6414e-009    0.0027413       -1.7437e-007   
  2.35            -2.5953e-009    0.0028646       -1.4734e-007   
  2.4             -2.1526e-009    0.0029901       -1.1515e-007   
  2.45            7.026e-010      0.0031152       -7.644e-008    
  2.5             1.3861e-009     0.0032375       -6.4703e-008   
  2.55            1.7828e-009     0.0033669       -4.7037e-008   
  2.6             2.1691e-009     0.0034953       -3.4468e-008   
  2.65            2.4275e-009     0.0036226       -2.5093e-008   
  2.7             2.6967e-009     0.0037498       -1.8446e-008   
  2.75            2.7979e-009     0.0038773       -1.7053e-008   
  2.8             2.47e-009       0.0040048       -1.4669e-008   
  2.85            1.7946e-009     0.0041317       -1.2936e-008   
  2.9             2.5795e-009     0.0042587       -1.4952e-008   
  2.95            -2.3828e-009    0.0043899       5.14e-009      
  3               -1.6197e-009    0.0045182       -1.2804e-008   
  3.05            -5.336e-010     0.0046416       -1.2179e-008   
  3.1             -9.44e-010      0.004769        -1.092e-008    
  3.15            2.434e-010      0.0048935       -1.219e-008    
  3.2             1.4463e-009     0.0050181       -2.0084e-008   
  3.25            2.7425e-009     0.0051429       -8.93e-009     
  3.3             -2.024e-009     0.00527         1.1301e-008    
  3.35            -9.751e-010     0.0053908       -9.475e-009    
  3.4             2.193e-010      0.0055096       -1.0848e-008   
  3.45            1.4099e-009     0.0056276       -1.9854e-008   
  3.5             2.7535e-009     0.0057442       -8.471e-009    
  3.55            -1.9692e-009    0.005862        1.1786e-008    
  3.6             -1.4204e-009    0.0059725       2.718e-009     
  3.65            -2.6327e-009    0.0060816       6.007e-009     
  3.7             -9.854e-010     0.006185        -9.244e-009    
  3.75            2.6864e-009     0.0062836       -1.0548e-008   
  3.8             -1.3583e-009    0.006384        1.9421e-008    
  3.85            -2.6522e-009    0.0064772       7.396e-009     
  3.9             2.317e-009      0.0065637       -2.2789e-008   
  3.95            1.6081e-009     0.0066492       -4.716e-009    
  4               2.6646e-009     0.0067303       -8.758e-009    
  4.05            -2.2336e-009    0.0068097       1.0373e-008    
  4.1             2.6569e-009     0.0068808       -1.1083e-008   
  4.15            -2.5922e-009    0.0069533       1.0223e-008    
  4.2             1.7127e-009     0.0070183       -1.5923e-008   
  4.25            2.6211e-009     0.0070825       -8.663e-009    
  4.3             -2.3124e-009    0.0071447       9.888e-009     
  4.35            -8.039e-010     0.0072014       -9.636e-009    
  4.4             1.5591e-009     0.0072557       -1.3551e-008   
  4.45            2.6919e-009     0.0073083       -8.86e-009     
  4.5             -2.1685e-009    0.0073601       1.0853e-008    
  4.55            2.6042e-009     0.0074065       -2.3015e-008   
  4.6             -2.5648e-009    0.0074544       1.0284e-008    
  4.65            -2.0534e-009    0.0074981       6.92e-010      
  4.7             2.5342e-009     0.0075399       -2.3117e-008   
  4.75            -2.5186e-009    0.0075818       1.009e-008     
  4.8             -1.9709e-009    0.0076208       6.95e-010      
  4.85            -9.929e-010     0.0076586       -9.219e-009    
  4.9             2.6844e-009     0.0076943       -1.0592e-008   
  4.95            -1.3529e-009    0.0077308       1.9659e-008    
  5               -2.6506e-009    0.0077648       7.417e-009     
END_DB

BEGIN_DB
 ICCAP_VAR VS         0              
 ICCAP_VAR VB         -2.5           
 ICCAP_VAR VD         0.1            

 #VG              IG              ID              IB             
  0               1.0615e-009     1.5694e-009     1.0217e-008    
  0.05            2.5509e-009     1.5127e-009     -1.5192e-008   
  0.1             -2.6223e-009    7.44e-010       1.0046e-008    
  0.15            2.0499e-009     -2.033e-010     -1.7141e-008   
  0.2             2.3744e-009     1.5736e-009     -6.828e-009    
  0.25            -1.8819e-009    1.2885e-009     1.5854e-008    
  0.3             2.4424e-009     1.5489e-009     -1.3961e-008   
  0.35            -1.6678e-009    1.3778e-009     1.7727e-008    
  0.4             -1.449e-009     1.653e-010      4.313e-009     
  0.45            -1.3271e-009    2.683e-010      5.808e-009     
  0.5             -2.6085e-009    3.858e-010      7.552e-009     
  0.55            2.7698e-009     -5.445e-010     -2.3004e-008   
  0.6             -1.77e-009      1.3284e-009     1.691e-008     
  0.65            -1.5206e-009    1.396e-010      3.853e-009     
  0.7             -1.3615e-009    2.385e-010      4.964e-009     
  0.75            -1.2897e-009    3.439e-010      6.822e-009     
  0.8             -2.6314e-009    4.587e-010      8.591e-009     
  0.85            2.7216e-009     -6.158e-010     -2.3667e-008   
  0.9             -1.624e-009     1.4698e-009     1.8587e-008    
  0.95            -1.4156e-009    5.453e-010      4.566e-009     
  1               -1.3137e-009    1.977e-009      6.162e-009     
  1.05            -2.6141e-009    8.1702e-009     7.979e-009     
  1.1             2.2684e-009     3.3949e-008     1.0199e-008    
  1.15            1.6494e-009     1.2238e-007     -2.2943e-008   
  1.2             -1.4111e-009    4.4303e-007     1.7456e-008    
  1.25            -1.9944e-009    1.4252e-006     -1.1539e-008   
  1.3             2.3618e-009     4.2468e-006     -1.39e-008     
  1.35            1.6124e-009     1.05862e-005    -4.898e-009    
  1.4             -1.8823e-009    2.1507e-005     -7.059e-009    
  1.45            2.3653e-009     3.4357e-005     -2.3232e-008   
  1.5             1.6159e-009     4.7866e-005     -4.622e-009    
  1.55            2.6616e-009     6.0136e-005     -8.762e-009    
  1.6             -2.2654e-009    7.1194e-005     1.074e-008     
  1.65            -8.577e-010     8.0434e-005     -9.563e-009    
  1.7             2.7734e-009     8.8411e-005     -1.262e-008    
  1.75            -1.4748e-009    9.5844e-005     1.6672e-008    
  1.8             -2.6185e-009    0.000102241     5.542e-009     
  1.85            2.5463e-009     0.000107817     -2.3125e-008   
  1.9             -2.5174e-009    0.000113169     1.0098e-008    
  1.95            -2.492e-010     0.00011787      -1.4117e-008   
  2               -7.274e-010     0.00012224      -9.798e-009    
  2.05            1.6725e-009     0.00012622      -1.5596e-008   
  2.1             2.6539e-009     0.00012991      -8.778e-009    
  2.15            -2.2921e-009    0.00013345      1.0703e-008    
  2.2             2.6823e-009     0.00013657      -1.0655e-008   
  2.25            -2.5949e-009    0.00013967      9.854e-009     
  2.3             1.7466e-009     0.00014244      -1.6843e-008   
  2.35            2.6185e-009     0.00014511      -8.61e-009     
  2.4             -2.3539e-009    0.00014774      1.0247e-008    
  2.45            -1.699e-009     0.00015005      1.728e-009     
  2.5             -1.3128e-009    0.00015237      4.115e-009     
  2.55            -2.6519e-009    0.00015454      8.045e-009     
  2.6             2.0002e-009     0.00015658      -1.5445e-008   
  2.65            2.5286e-009     0.00015852      -7.216e-009    
  2.7             -2.4903e-009    0.00016044      1.0002e-008    
  2.75            -1.9218e-009    0.00016221      8.88e-010      
  2.8             -1.3895e-009    0.00016392      3.18e-009      
  2.85            -2.6388e-009    0.00016559      6.542e-009     
  2.9             2.4341e-009     0.00016713      -2.3465e-008   
  2.95            1.7036e-009     0.00016867      -4.461e-009    
  3               2.6341e-009     0.00017012      -8.626e-009    
  3.05            -2.3259e-009    0.00017157      1.031e-008     
  3.1             -8.133e-010     0.00017285      -9.68e-009     
  3.15            1.5298e-009     0.00017413      -1.3399e-008   
  3.2             2.7021e-009     0.0001754       -8.596e-009    
  3.25            -2.1666e-009    0.0001767       1.141e-008     
  3.3             2.6044e-009     0.00017781      -2.2839e-008   
  3.35            -2.551e-009     0.00017899      1.0327e-008    
  3.4             -2.0501e-009    0.00018004      7.69e-010      
  3.45            2.5299e-009     0.0001811       -2.3469e-008   
  3.5             -2.5027e-009    0.00018217      1.0194e-008    
  3.55            -1.9405e-009    0.0001831       9.13e-010      
  3.6             -1.0214e-009    0.00018407      -8.966e-009    
  3.65            1.703e-010      0.00018492      -1.0139e-008   
  3.7             2.7798e-009     0.0001859       -8.931e-009    
  3.75            -1.4548e-009    0.0001868       1.6798e-008    
  3.8             -2.6222e-009    0.00018764      5.703e-009     
  3.85            2.5383e-009     0.00018846      -2.3306e-008   
  3.9             -2.5111e-009    0.00018928      1.0121e-008    
  3.95            -1.9558e-009    0.00019002      7.63e-010      
  4               2.4561e-009     0.00019079      -2.3662e-008   
  4.05            1.7118e-009     0.00019152      -4.05e-009     
  4.1             2.6345e-009     0.00019224      -8.617e-009    
  4.15            -2.3358e-009    0.00019295      1.0271e-008    
