! VERSION = 6.00
BEGIN_HEADER
 ICCAP_INPUTS
  VG         V  B GROUND SMU4 0.001 LIN        1    0          -5         101  -0.05     
  VS         V  E GROUND SMU2 0.1 CON        0
  VB         V  C GROUND SMU3 0.1 LIN        3    0          5          3    2.5       
  VD         V  S GROUND SMU1 0.1 LIN        2    -0.1       -5         2    -4.9      
 ICCAP_OUTPUTS
  IG         I  B GROUND SMU4 B
  ID         I  S GROUND SMU1 B
  IB         I  C GROUND SMU3 B
END_HEADER

BEGIN_DB
 ICCAP_VAR VS         0              
 ICCAP_VAR VB         0              
 ICCAP_VAR VD         -0.1           

 #VG              IG              ID              IB             
  0               1.0134e-008     -1.149e-010     -1.9258e-008   
  -0.05           6.5235e-009     -1.928e-010     -1.8667e-008   
  -0.1            -1.1678e-009    -1.1359e-009    6.713e-009     
  -0.15           1.7424e-009     -1.4543e-009    -1.779e-008    
  -0.2            4e-012          -3.14e-009      -1.9621e-008   
  -0.25           1.9568e-009     1.233e-009      -1.6885e-008   
  -0.3            -1.1892e-009    -6.335e-007     7.053e-009     
  -0.35           -1.5031e-009    -1.53e-008      5.647e-009     
  -0.4            3.2177e-009     -1.3001e-006    -1.4016e-008   
  -0.45           3.2011e-009     -3.301e-010     -1.8756e-008   
  -0.5            -1.9712e-009    -1.2594e-009    6.975e-009     
  -0.55           1.4038e-009     -1.735e-009     -2.6175e-008   
  -0.6            1.3269e-009     -1.0417e-009    -1.0214e-008   
  -0.65           1.2885e-009     -2.2074e-009    -1.1768e-008   
  -0.7            3.3276e-009     -7.2867e-009    -1.4885e-008   
  -0.75           -2.5992e-009    -1.4079e-009    -1.7066e-008   
  -0.8            1.612e-009      -2.3079e-009    -2.3398e-008   
  -0.85           -1.9135e-009    -1.4839e-008    7.76e-009      
  -0.9            -2.691e-009     -1.1611e-008    -1.9908e-008   
  -0.95           -2.6862e-009    -5.2201e-008    -1.6888e-008   
  -1              -1.6447e-009    -9.0416e-007    -1.5091e-008   
  -1.05           -2.0614e-009    -6.7533e-007    -2.0899e-008   
  -1.1            1.6474e-009     -1.5821e-005    -2.594e-008    
  -1.15           -2.3581e-009    1e-009          8.482e-009     
  -1.2            -1.4755e-009    -6.6587e-006    -9.107e-009    
  -1.25           7.838e-010      -7.114e-006     7.056e-009     
  -1.3            2.9763e-009     -5.778e-006     -1.8256e-008   
  -1.35           3.0798e-009     -7.2822e-006    6.999e-009     
  -1.4            2.2836e-009     -7.939e-006     -1.4867e-008   
  -1.45           1.8864e-009     -7.424e-006     -6.529e-009    
  -1.5            1.5599e-009     -7.604e-006     -9.205e-009    
  -1.55           3.1613e-009     -1.3315e-005    -9.211e-009    
  -1.6            -2.3389e-009    -9.709e-006     7.687e-009     
  -1.65           2.106e-009      -1.0131e-005    -2.4947e-008   
  -1.7            1.7213e-009     -9.67e-006      -8.032e-009    
  -1.75           3.1359e-009     -1.4709e-005    -9.339e-009    
  -1.8            -2.4727e-009    -9.019e-006     7.276e-009     
  -1.85           2.9869e-009     -1.1649e-005    -2.3336e-008   
  -1.9            -1.6589e-009    -6.746e-006     6.979e-009     
  -1.95           -2.4344e-009    -1.1667e-005    7.458e-009     
  -2              2.9232e-009     -1.3706e-005    -1.527e-008    
  -2.05           -1.6457e-009    -9.041e-006     7.078e-009     
  -2.1            -2.3548e-009    -1.4789e-005    7.656e-009     
  -2.15           2.8438e-009     -1.3527e-005    -2.4706e-008   
  -2.2            2.0643e-009     -2.2286e-005    -2.711e-009    
  -2.25           3.0012e-009     -2.1387e-005    -7.876e-009    
  -2.3            -1.592e-009     -1.3706e-005    7.044e-009     
  -2.35           -2.1749e-009    -1.9879e-005    8.038e-009     
  -2.4            2.6445e-009     -1.7029e-005    -2.6013e-008   
  -2.45           1.7884e-009     -2.3609e-005    -4.246e-009    
  -2.5            3.0934e-009     -2.2747e-005    -9.302e-009    
  -2.55           -2.5243e-009    -1.875e-005     7.199e-009     
  -2.6            3.044e-009      -2.1424e-005    -1.3829e-008   
  -2.65           1.6237e-009     -2.0208e-005    -1.8789e-008   
  -2.7            3.1641e-009     -2.4073e-005    -9.036e-009    
  -2.75           -2.403e-009     -2.2371e-005    7.502e-009     
  -2.8            2.8977e-009     -2.1687e-005    -2.4348e-008   
  -2.85           -1.7288e-009    -1.9728e-005    7.039e-009     
  -2.9            -2.3478e-009    -2.3792e-005    7.639e-009     
  -2.95           2.9143e-009     -2.6144e-005    -2.4884e-008   
  -3              2.033e-009      -2.7298e-005    -3.017e-009    
  -3.05           3.0373e-009     -2.6949e-005    -8.055e-009    
  -3.1            -1.6196e-009    -2.3091e-005    7.013e-009     
  -3.15           -2.1704e-009    -2.5992e-005    8.119e-009     
  -3.2            2.6275e-009     -2.5901e-005    -1.6683e-008   
  -3.25           1.7639e-009     -2.8298e-005    -4.342e-009    
  -3.3            3.1353e-009     -2.7762e-005    -9.586e-009    
  -3.35           -2.523e-009     -2.5993e-005    7.253e-009     
  -3.4            3.0546e-009     -2.7645e-005    -1.4297e-008   
  -3.45           1.5807e-009     -2.6878e-005    -1.8785e-008   
  -3.5            3.196e-009      -2.8347e-005    -9.07e-009     
  -3.55           -2.3805e-009    -2.6863e-005    7.597e-009     
  -3.6            2.9168e-009     -2.7546e-005    -2.518e-008    
  -3.65           2.0998e-009     -2.9935e-005    -3.1e-009      
  -3.7            3.0417e-009     -2.961e-005     -8.004e-009    
  -3.75           -1.6437e-009    -2.7087e-005    7.094e-009     
  -3.8            -2.2023e-009    -2.8957e-005    8.086e-009     
  -3.85           2.6759e-009     -2.8544e-005    -2.6215e-008   
  -3.9            1.8083e-009     -3.0212e-005    -4.156e-009    
  -3.95           3.1703e-009     -3.0439e-005    -8.862e-009    
  -4              -2.5468e-009    -2.8828e-005    7.134e-009     
  -4.05           3.0973e-009     -3.0152e-005    -1.3765e-008   
  -4.1            1.6352e-009     -2.9872e-005    -1.8644e-008   
  -4.15           3.2153e-009     -3.0894e-005    -9.147e-009    
  -4.2            -2.4253e-009    -2.9818e-005    7.531e-009     
  -4.25           2.9444e-009     -3.0184e-005    -2.422e-008    
  -4.3            2.1636e-009     -3.2079e-005    -2.866e-009    
  -4.35           1.4448e-009     -3.1829e-005    -7.51e-009     
  -4.4            3.266e-009      -3.1532e-005    -9.399e-009    
  -4.45           -2.227e-009     -3.0852e-005    7.968e-009     
  -4.5            2.7307e-009     -3.0617e-005    -2.5937e-008   
  -4.55           1.8343e-009     -3.2045e-005    -3.964e-009    
  -4.6            3.1482e-009     -3.2257e-005    -9.109e-009    
  -4.65           -1.6243e-009    -3.0397e-005    7.142e-009     
  -4.7            -2.0377e-009    -3.1816e-005    8.561e-009     
  -4.75           2.4629e-009     -3.18e-005      -1.7289e-008   
  -4.8            1.5941e-009     -3.2603e-005    -5.654e-009    
  -4.85           3.2188e-009     -3.2415e-005    -9.384e-009    
  -4.9            -2.408e-009     -3.1855e-005    7.475e-009     
  -4.95           2.9299e-009     -3.2105e-005    -2.4448e-008   
  -5              2.1601e-009     -3.3256e-005    -2.863e-009    
END_DB

BEGIN_DB
 ICCAP_VAR VS         0              
 ICCAP_VAR VB         0              
 ICCAP_VAR VD         -5             

 #VG              IG              ID              IB             
  0               4.24e-010       -1.15695e-005   7.932e-009     
  -0.05           1.3302e-009     -9.9e-007       6.171e-009     
  -0.1            2.3818e-009     -1.86e-007      -1.108e-008    
  -0.15           1.4258e-009     -6.5e-007       -6.295e-009    
  -0.2            2.9634e-009     -3.12e-007      -9.729e-009    
  -0.25           2.9807e-009     -2.033e-007     7.042e-009     
  -0.3            3.2205e-009     -5.111e-006     -1.9079e-008   
  -0.35           2.6267e-009     -1.159e-006     -1.099e-009    
  -0.4            1.7972e-009     -1.426e-006     -4.491e-009    
  -0.45           1.2495e-009     -1.566e-006     7.085e-009     
  -0.5            -6.56e-010      -1.1161e-005    -1.8427e-008   
  -0.55           8.799e-010      -1.0828e-005    7.606e-009     
  -0.6            -1.4008e-009    -4.576e-006     -1.0579e-008   
  -0.65           -2.2589e-009    -7.26e-006      -1.4565e-008   
  -0.7            1.0336e-009     -1.403e-005     -2.3015e-008   
  -0.75           1.551e-010      -1.8882e-005    7.013e-009     
  -0.8            2.7846e-009     -2.145e-005     -2.3915e-008   
  -0.85           -2.3724e-009    3e-009          -4.09e-009     
  -0.9            3.0217e-009     -2.766e-005     -1.6821e-008   
  -0.95           1.5e-011        -3.2235e-005    7.045e-009     
  -1              8.488e-010      -3.388e-005     -1.5209e-008   
  -1.05           4.751e-010      -4.15e-005      7.016e-009     
  -1.1            3.2226e-009     -4.72e-005      -1.7431e-008   
  -1.15           -2.1238e-009    -2.791e-005     8.091e-009     
  -1.2            3.1548e-009     -6.991e-005     -1.6818e-008   
  -1.25           3.159e-010      -5.8314e-005    7.372e-009     
  -1.3            3.1875e-009     -7.801e-005     -1.6856e-008   
  -1.35           -2.349e-009     -3.498e-005     7.727e-009     
  -1.4            2.8462e-009     -0.0001282      -2.4933e-008   
  -1.45           2.2901e-009     -0.00020566     -1.7808e-008   
  -1.5            -1.6174e-009    -3.071e-005     7.008e-009     
  -1.55           -2.0858e-009    -7.295e-005     8.361e-009     
  -1.6            2.5118e-009     -0.00010702     -1.7104e-008   
  -1.65           1.6745e-009     -0.00011633     -5.24e-009     
  -1.7            3.1649e-009     -0.00011597     -9.323e-009    
  -1.75           -2.4236e-009    -7.043e-005     7.466e-009     
  -1.8            2.9438e-009     -0.00013851     -2.4214e-008   
  -1.85           2.1498e-009     -0.00016729     -2.542e-009    
  -1.9            1.4715e-009     -0.00016368     -7.824e-009    
  -1.95           3.2324e-009     -0.00016803     -9.41e-009     
  -2              3.1257e-009     -0.00022922     -4.33e-010     
  -2.05           1.731e-009      -0.0001874      -1.8459e-008   
  -2.1            3.17e-009       -0.00021132     -9.002e-009    
  -2.15           -2.4421e-009    -0.00012624     7.403e-009     
  -2.2            2.9606e-009     -0.00022341     -2.3935e-008   
  -2.25           -1.6704e-009    -8.353e-005     7.041e-009     
  -2.3            -2.3689e-009    -0.00016436     7.653e-009     
  -2.35           2.8824e-009     -0.00026347     -2.4922e-008   
  -2.4            2.0551e-009     -0.00032966     -3.244e-009    
  -2.45           1.4195e-009     -0.00031664     -8.401e-009    
  -2.5            3.2873e-009     -0.00032183     -9.646e-009    
  -2.55           -2.1427e-009    -0.00024185     8.158e-009     
  -2.6            2.6133e-009     -0.00033652     -1.6766e-008   
  -2.65           1.7526e-009     -0.00040345     -5.096e-009    
  -2.7            3.1761e-009     -0.00038722     -9.168e-009    
  -2.75           -2.4719e-009    -0.00024081     7.398e-009     
  -2.8            3.014e-009      -0.00040264     -1.5028e-008   
  -2.85           -1.6969e-009    -0.0001902      7.083e-009     
  -2.9            -2.3978e-009    -0.00028984     7.593e-009     
  -2.95           2.9623e-009     -0.00042525     -2.4886e-008   
  -3              2.1144e-009     -0.00050259     -3.058e-009    
  -3.05           1.4401e-009     -0.00047725     -7.905e-009    
  -3.1            3.2763e-009     -0.00049245     -9.575e-009    
  -3.15           -2.1718e-009    -0.00037662     8.085e-009     
  -3.2            2.6869e-009     -0.00051443     -1.7095e-008   
  -3.25           1.7862e-009     -0.00059196     -4.778e-009    
  -3.3            3.1692e-009     -0.00057995     -9.296e-009    
  -3.35           -1.6321e-009    -0.00040182     7.286e-009     
  -3.4            -1.7792e-009    -0.00023982     5.469e-009     
  -3.45           1.882e-009      -0.00058788     -1.8166e-008   
  -3.5            1.3516e-009     -0.00064526     -9.179e-009    
  -3.55           3.2715e-009     -0.00064582     -1.0433e-008   
  -3.6            2.9866e-009     -0.00073165     -1.115e-009    
  -3.65           2.1314e-009     -0.00072347     -2.943e-009    
  -3.7            1.4602e-009     -0.00071329     -8.073e-009    
  -3.75           3.2932e-009     -0.00070788     -9.443e-009    
  -3.8            -2.1883e-009    -0.00059319     8.108e-009     
  -3.85           2.6672e-009     -0.00071141     -1.6846e-008   
  -3.9            1.8056e-009     -0.00079444     -4.682e-009    
  -3.95           3.1856e-009     -0.00077907     -9.342e-009    
  -4              -1.6423e-009    -0.00061157     7.271e-009     
  -4.05           -1.7858e-009    -0.00043761     5.492e-009     
  -4.1            1.8399e-009     -0.00076787     -1.8184e-008   
  -4.15           3.2036e-009     -0.00083613     -9.26e-009     
  -4.2            -1.6668e-009    -0.00067711     7.291e-009     
  -4.25           -1.78e-009      -0.00053371     5.469e-009     
  -4.3            1.85e-009       -0.0008196      -1.8216e-008   
  -4.35           1.3667e-009     -0.00088579     -9.261e-009    
  -4.4            3.2909e-009     -0.00088041     -1.0506e-008   
  -4.45           2.9591e-009     -0.00094694     -1.066e-009    
  -4.5            2.1466e-009     -0.00093549     -3.228e-009    
  -4.55           1.488e-009      -0.00091617     -8.121e-009    
  -4.6            3.345e-009      -0.00091202     -9.572e-009    
  -4.65           -2.1346e-009    -0.00085807     8.133e-009     
  -4.7            2.7599e-009     -0.00091415     -1.675e-008    
  -4.75           1.8658e-009     -0.0009602      -4.645e-009    
  -4.8            1.193e-009      -0.00101673     -2.5513e-008   
  -4.85           1.2244e-009     -0.0009921      -2.4022e-008   
  -4.9            1.2251e-009     -0.00099214     -2.4464e-008   
  -4.95           1.1844e-009     -0.00099529     -2.6145e-008   
  -5              -2.403e-009     -0.00098795     -1.8165e-008   
END_DB

BEGIN_DB
 ICCAP_VAR VS         0              
 ICCAP_VAR VB         2.5            
 ICCAP_VAR VD         -0.1           

 #VG              IG              ID              IB             
  0               -1.6954e-009    -1.2375e-009    -1.674e-008    
  -0.05           2.4239e-009     -7.739e-010     -1.8061e-008   
  -0.1            4.232e-010      2.4293e-009     -6.853e-009    
  -0.15           2.8963e-009     -5.737e-010     -1.7059e-008   
  -0.2            1.295e-009      2.3308e-009     -4.053e-009    
  -0.25           -1.7425e-009    3.432e-010      7.803e-009     
  -0.3            -1.69e-009      5.023e-010      8.417e-009     
  -0.35           -1.5239e-009    -1.7268e-009    5.597e-009     
  -0.4            2.5366e-009     -1.2655e-009    -1.8044e-008   
  -0.45           2.1256e-009     -5.493e-010     -6.274e-009    
  -0.5            1.7763e-009     -2.4731e-009    -8.642e-009    
  -0.55           1.9428e-009     -9.027e-009     -1.7336e-008   
  -0.6            1.4012e-009     8.58e-010       -9.262e-009    
  -0.65           3.3442e-009     -1.7199e-008    -1.0596e-008   
  -0.7            3.223e-009      -1.3291e-007    -2.2326e-008   
  -0.75           -1.9098e-009    -2.0423e-007    8.441e-009     
  -0.8            2.6574e-009     -4.5259e-007    -1.6987e-008   
  -0.85           1.7484e-009     -1.4e-009       -5.513e-009    
  -0.9            1.3561e-009     -9.931e-008     -9.311e-009    
  -0.95           -2.269e-010     -7.199e-007     -1.1554e-008   
  -1              -1.9907e-009    -1.2017e-006    8.18e-009      
  -1.05           1.5324e-009     -9.29e-008      -2.6303e-008   
  -1.1            3.3316e-009     -8.289e-007     -9.512e-009    
  -1.15           -2.0148e-009    -2.1352e-006    8.112e-009     
  -1.2            2.8224e-009     -2.624e-006     -1.6973e-008   
  -1.25           1.8844e-009     -3.591e-007     -4.872e-009    
  -1.3            1.3952e-009     -1.2275e-006    -9.203e-009    
  -1.35           3.3574e-009     -2.44e-006      -1.0841e-008   
  -1.4            3.0307e-009     -4.979e-007     -1.172e-009    
  -1.45           2.1999e-009     -1.092e-006     -3.171e-009    
  -1.5            1.4967e-009     -2.1185e-006    -8.732e-009    
  -1.55           1.302e-009      -3.436e-006     -9.762e-009    
  -1.6            3.2308e-009     -4.9072e-006    -1.4969e-008   
  -1.65           -1.7808e-009    -4.5653e-006    7.015e-009     
  -1.7            -1.7249e-009    -5.6659e-006    7.447e-009     
  -1.75           -1.6621e-009    -3.9193e-006    5.508e-009     
  -1.8            1.8658e-009     -6.7119e-006    -1.8434e-008   
  -1.85           1.3808e-009     -5.8215e-006    -9.372e-009    
  -1.9            3.3692e-009     -7.1166e-006    -1.0798e-008   
  -1.95           3.008e-009      -6.2601e-006    -1.112e-009    
  -2              2.1369e-009     -7.1618e-006    -3.475e-009    
  -2.05           1.4697e-009     -8.05e-006      -9.002e-009    
  -2.1            1.2948e-009     -8.9061e-006    -9.952e-009    
  -2.15           3.2111e-009     -9.4603e-006    -1.4991e-008   
  -2.2            -1.7901e-009    -9.3837e-006    7.057e-009     
  -2.25           -8.21e-010      -1.03844e-005   -1.7918e-008   
  -2.3            7.388e-010      -1.1641e-005    -1.7863e-008   
  -2.35           -1.7862e-009    -1.1051e-005    7.028e-009     
  -2.4            -1.7323e-009    -1.1383e-005    7.567e-009     
  -2.45           -1.6623e-009    -1.3161e-005    5.545e-009     
  -2.5            1.8074e-009     -1.2408e-005    -1.8665e-008   
  -2.55           1.3669e-009     -1.4518e-005    -9.229e-009    
  -2.6            3.3705e-009     -1.4233e-005    -1.1148e-008   
  -2.65           2.9596e-009     -1.704e-005     -1.387e-009    
  -2.7            2.0573e-009     -1.7356e-005    -4.144e-009    
  -2.75           1.4447e-009     -1.7305e-005    -9.004e-009    
  -2.8            1.2857e-009     -1.7067e-005    -1.0276e-008   
  -2.85           3.178e-009      -1.6429e-005    -1.5574e-008   
  -2.9            -1.7888e-009    -1.7232e-005    7.088e-009     
  -2.95           -1.7154e-009    -1.7295e-005    7.681e-009     
  -3              -1.6562e-009    -1.9331e-005    5.628e-009     
  -3.05           1.7441e-009     -1.8511e-005    -1.9057e-008   
  -3.1            1.3479e-009     -2.023e-005     -9.215e-009    
  -3.15           3.3712e-009     -2.0089e-005    -1.1751e-008   
  -3.2            2.0497e-009     -2.0032e-005    -1.7918e-008   
  -3.25           1.4287e-009     -2.1399e-005    -9.11e-009     
  -3.3            1.2842e-009     -2.1368e-005    -1.0272e-008   
  -3.35           3.1635e-009     -2.1271e-005    -1.5847e-008   
  -3.4            2.3355e-009     -2.2437e-005    -2.755e-009    
  -3.45           1.5493e-009     -2.2587e-005    -7.658e-009    
  -3.5            1.3159e-009     -2.2683e-005    -9.481e-009    
  -3.55           3.2999e-009     -2.2604e-005    -1.3456e-008   
  -3.6            1.8207e-009     -2.2686e-005    -1.8528e-008   
  -3.65           1.3689e-009     -2.3505e-005    -9.258e-009    
  -3.7            3.3874e-009     -2.3558e-005    -1.1051e-008   
  -3.75           2.9819e-009     -2.4105e-005    -1.17e-009     
  -3.8            2.0777e-009     -2.4339e-005    -3.702e-009    
  -3.85           1.448e-009      -2.442e-005     -8.964e-009    
  -3.9            1.2885e-009     -2.4485e-005    -1.0329e-008   
  -3.95           3.192e-009      -2.4618e-005    -1.5505e-008   
  -4              -1.7937e-009    -2.4716e-005    7.02e-009      
  -4.05           -1.7248e-009    -2.4845e-005    7.683e-009     
  -4.1            -1.6591e-009    -2.5301e-005    5.593e-009     
  -4.15           1.7543e-009     -2.533e-005     -1.8807e-008   
