! VERSION = 6.00
BEGIN_HEADER
 ICCAP_INPUTS
  VG         V  B GROUND SMU4 0.001 LIN        1    0          5          101  0.05      
  VS         V  E GROUND SMU2 0.1 CON        0
  VB         V  C GROUND SMU3 0.1 LIN        3    0          -5         3    -2.5      
  VD         V  S GROUND SMU1 0.1 LIN        2    0.1        5          2    4.9       
 ICCAP_OUTPUTS
  IG         I  B GROUND SMU4 B
  ID         I  S GROUND SMU1 B
  IB         I  C GROUND SMU3 B
END_HEADER

BEGIN_DB
 ICCAP_VAR VS         0              
 ICCAP_VAR VB         0              
 ICCAP_VAR VD         0.1            

 #VG              IG              ID              IB             
  0               -9.982e-009     -4.4222e-007    4.6067e-007    
  0.05            -1.4631e-009    -4.4181e-007    1.9692e-007    
  0.1             -1.2834e-009    -4.4094e-007    1.1366e-007    
  0.15            -3.619e-010     -1.5298e-008    9.608e-008     
  0.2             -1.5228e-009    -1.0839e-007    3.332e-008     
  0.25            -2.5055e-009    -2.1896e-007    4.4438e-007    
  0.3             -2.5483e-009    -1.701e-008     4.2922e-007    
  0.35            -2.3694e-009    -2.479e-008     4.3144e-007    
  0.4             -1.755e-009     -6.898e-008     4.3305e-007    
  0.45            -2.4547e-009    -1.7117e-007    4.3587e-007    
  0.5             -2.5108e-009    -2.1885e-007    4.1032e-007    
  0.55            -2.5482e-009    6.21e-009       4.2285e-007    
  0.6             -2.3161e-009    5.14e-008       4.2511e-007    
  0.65            -2.0239e-009    2.2489e-007     4.2788e-007    
  0.7             -1.4158e-009    7.9752e-007     4.2864e-007    
  0.75            2.7417e-009     2.5671e-006     1.1804e-008    
  0.8             2.4552e-009     7.7734e-006     4.3031e-007    
  0.85            -2.4908e-009    1.7731e-005     4.3088e-007    
  0.9             -1.9702e-009    3.4027e-005     4.3441e-007    
  0.95            -1.3688e-009    5.4597e-005     4.3563e-007    
  1               1.596e-010      7.525e-005      1.162e-008     
  1.05            -1.6711e-009    9.6381e-005     1.0598e-007    
  1.1             -2.506e-009     0.00011649      4.3646e-007    
  1.15            -2.0003e-009    0.0001354       4.2915e-007    
  1.2             -1.3847e-009    0.00015237      4.3658e-007    
  1.25            8.553e-010      0.0001672       4.305e-007     
  1.3             -6.967e-010     0.0001816       1.32e-009      
  1.35            -1.0471e-009    0.00019508      6.12e-009      
  1.4             -1.4151e-009    0.00020739      1.674e-008     
  1.45            -1.7509e-009    0.00021865      7.334e-008     
  1.5             -2.0225e-009    0.00022934      1.7767e-007    
  1.55            -2.3767e-009    0.00023945      2.8742e-007    
  1.6             -2.5144e-009    0.00024879      3.8929e-007    
  1.65            -2.543e-009     0.00025748      4.2913e-007    
  1.7             -2.2335e-009    0.00026584      4.3224e-007    
  1.75            -1.5506e-009    0.00027382      4.3479e-007    
  1.8             -2.4878e-009    0.00028123      4.3844e-007    
  1.85            -2.5436e-009    0.00028828      4.2448e-007    
  1.9             -2.4131e-009    0.00029499      4.3032e-007    
  1.95            -1.7962e-009    0.00030155      4.3274e-007    
  2               -2.4337e-009    0.00030768      4.3743e-007    
  2.05            -2.5243e-009    0.00031353      4.1133e-007    
  2.1             -2.5279e-009    0.00031912      4.306e-007     
  2.15            -2.0621e-009    0.00032458      4.3216e-007    
  2.2             -1.4086e-009    0.00032979      4.3602e-007    
  2.25            -2.499e-009     0.00033473      4.3931e-007    
  2.3             -2.5539e-009    0.0003395       4.3161e-007    
  2.35            -2.2838e-009    0.00034413      4.3188e-007    
  2.4             -1.6054e-009    0.00034869      4.3478e-007    
  2.45            -2.47e-009      0.0003529       4.3946e-007    
  2.5             -2.5408e-009    0.00035699      4.2151e-007    
  2.55            -2.4638e-009    0.00036102      4.3031e-007    
  2.6             -1.8711e-009    0.00036491      4.33e-007      
  2.65            -2.4073e-009    0.00036872      4.3781e-007    
  2.7             -2.513e-009     0.00037238      4.0443e-007    
  2.75            -2.5404e-009    0.00037575      4.2978e-007    
  2.8             -2.1449e-009    0.00037922      4.3191e-007    
  2.85            -1.4785e-009    0.00038252      4.3858e-007    
  2.9             -2.4947e-009    0.00038563      4.4067e-007    
  2.95            -2.547e-009     0.00038872      4.2968e-007    
  3               -2.3664e-009    0.00039177      4.3004e-007    
  3.05            -1.7177e-009    0.0003947       4.3415e-007    
  3.1             -2.4627e-009    0.00039748      4.4034e-007    
  3.15            -2.5313e-009    0.00040025      4.1537e-007    
  3.2             -2.5033e-009    0.00040285      4.3082e-007    
  3.25            -1.9829e-009    0.0004055       4.3236e-007    
  3.3             -1.378e-009     0.00040803      4.389e-007     
  3.35            8.586e-010      0.00041024      4.3134e-007    
  3.4             -7.075e-010     0.00041271      2.29e-009      
  3.45            -1.0535e-009    0.00041514      7.73e-009      
  3.5             -1.4286e-009    0.00041734      1.957e-008     
  3.55            -1.7572e-009    0.00041961      7.892e-008     
  3.6             -2.031e-009     0.00042177      1.806e-007     
  3.65            -2.3936e-009    0.00042403      2.9034e-007    
  3.7             -2.5209e-009    0.00042601      3.9521e-007    
  3.75            -2.5357e-009    0.00042792      4.3169e-007    
  3.8             -2.206e-009     0.00042987      4.3281e-007    
  3.85            -1.5436e-009    0.00043176      4.3899e-007    
  3.9             -2.4947e-009    0.00043355      4.4089e-007    
  3.95            -2.5379e-009    0.00043537      4.2935e-007    
  4               -2.3919e-009    0.00043709      4.326e-007     
  4.05            -1.7701e-009    0.00043886      4.3529e-007    
  4.1             -2.45e-009      0.00044051      4.3989e-007    
  4.15            -2.5272e-009    0.00044215      4.1242e-007    
  4.2             -2.5052e-009    0.00044361      4.366e-007     
  4.25            -2.0317e-009    0.00044525      4.3406e-007    
  4.3             -1.3988e-009    0.00044678      4.3778e-007    
  4.35            -2.5057e-009    0.00044819      4.3969e-007    
  4.4             -2.5417e-009    0.00044963      4.2984e-007    
  4.45            -2.2698e-009    0.00045108      4.3415e-007    
  4.5             -1.5895e-009    0.00045245      4.3786e-007    
  4.55            -2.4863e-009    0.00045376      4.4139e-007    
  4.6             -2.5377e-009    0.0004551       4.2573e-007    
  4.65            -2.4396e-009    0.00045634      4.3338e-007    
  4.7             -1.8381e-009    0.00045759      4.3648e-007    
  4.75            -2.4236e-009    0.0004588       4.4018e-007    
  4.8             -2.5212e-009    0.00046009      4.0929e-007    
  4.85            -2.5223e-009    0.00046115      4.3223e-007    
  4.9             -2.1104e-009    0.0004623       4.3552e-007    
  4.95            -1.4412e-009    0.00046347      4.4036e-007    
  5               -2.501e-009     0.0004645       4.4171e-007    
END_DB

BEGIN_DB
 ICCAP_VAR VS         0              
 ICCAP_VAR VB         0              
 ICCAP_VAR VD         5              

 #VG              IG              ID              IB             
  0               -9.712e-008     1.4669e-007     4.7871e-007    
  0.05            -7.67e-009      5.584e-008      4.9812e-007    
  0.1             -1.225e-008     2.373e-008      4.7418e-007    
  0.15            -3.4773e-007    4.07e-009       4.4764e-007    
  0.2             1.29e-009       1.1092e-007     2.7142e-007    
  0.25            -2.57e-009      5.0377e-008     3.0844e-007    
  0.3             -1.09e-008      1.9965e-008     3.8211e-007    
  0.35            1.21e-009       6.026e-009      3.5256e-007    
  0.4             -4.2654e-007    4.699e-009      3.3005e-007    
  0.45            -2.414e-008     9.1406e-008     4.3773e-008    
  0.5             -3.7979e-007    1.3212e-008     -2.56e-009     
  0.55            -3.4745e-007    2.8922e-008     3.63e-009      
  0.6             -3.3827e-008    8.615e-008      -3.23e-009     
  0.65            -2.7974e-007    2.9269e-007     1.288e-008     
  0.7             1.33e-009       9.78e-007       9.351e-008     
  0.75            1.38e-009       3.2246e-006     -2.0293e-008   
  0.8             -1.075e-008     8.7289e-006     1.0522e-007    
  0.85            -1.5729e-007    2.2048e-005     -2.6917e-008   
  0.9             -3.2898e-008    4.4303e-005     -1.7143e-007   
  0.95            1.42e-009       8.032e-005      -2.9202e-007   
  1               -1.3788e-008    0.00012909      -4.3499e-007   
  1.05            -1.04022e-007   0.00019101      -6.0065e-007   
  1.1             -8.2906e-008    0.00026572      -7.7551e-007   
  1.15            -5.3175e-008    0.00035195      -9.3918e-007   
  1.2             -2.8049e-008    0.00044926      -1.08968e-006  
  1.25            -2.3491e-008    0.00055761      -1.214e-006    
  1.3             -9.704e-009     0.00067522      -1.3374e-006   
  1.35            -1.544e-008     0.00080239      -1.4229e-006   
  1.4             -1.5982e-008    0.00093724      -1.4831e-006   
  1.45            -1.5779e-008    0.00108029      -1.5228e-006   
  1.5             -3.4687e-008    0.0012311       -1.5383e-006   
  1.55            -1.3224e-008    0.001388        -1.5244e-006   
  1.6             -1.5245e-008    0.0015505       -1.4955e-006   
  1.65            -1.5776e-008    0.0017196       -1.4458e-006   
  1.7             -1.5377e-008    0.0018937       -1.3832e-006   
  1.75            -1.3808e-008    0.0020731       -1.3067e-006   
  1.8             -1.5091e-008    0.0022569       -1.2201e-006   
  1.85            -1.5796e-008    0.0024447       -1.1271e-006   
  1.9             -1.5715e-008    0.002637        -1.0312e-006   
  1.95            -1.523e-009     0.0028326       -9.3816e-007   
  2               -1.3161e-008    0.003032        -8.2377e-007   
  2.05            -1.5289e-008    0.0032331       -7.4134e-007   
  2.1             -1.5743e-008    0.003439        -6.4921e-007   
  2.15            -1.5244e-008    0.0036466       -5.6325e-007   
  2.2             -1.2258e-008    0.0038572       -4.8316e-007   
  2.25            -1.833e-008     0.0040699       -4.1085e-007   
  2.3             -1.5655e-008    0.004284        -3.4307e-007   
  2.35            -3.4855e-008    0.0045015       -2.8551e-007   
  2.4             -1.3655e-008    0.0047203       -2.3392e-007   
  2.45            -1.5413e-008    0.0049401       -1.8903e-007   
  2.5             -1.564e-008     0.0051621       -1.5129e-007   
  2.55            -1.5024e-008    0.0053854       -1.1982e-007   
  2.6             -1.9876e-008    0.0056105       -9.3342e-008   
  2.65            -1.5532e-008    0.0058383       -7.0793e-008   
  2.7             -1.473e-008     0.0060656       -5.4227e-008   
  2.75            -1.3326e-008    0.0062932       -4.0492e-008   
  2.8             -1.6709e-008    0.0065215       -2.9407e-008   
  2.85            -2.4215e-008    0.0067505       -2.0743e-008   
  2.9             -1.5264e-008    0.0069798       -1.4358e-008   
  2.95            -3.3457e-008    0.0072106       -1.0305e-008   
  3               -3.5099e-008    0.0074412       3.695e-009     
  3.05            -3.3793e-008    0.0076723       7.299e-009     
  3.1             -2.8825e-008    0.0079027       9.943e-009     
  3.15            -2.2791e-008    0.0081337       1.0344e-008    
  3.2             -1.7593e-008    0.0083641       1.1081e-008    
  3.25            -1.3997e-008    0.0085946       1.2232e-008    
  3.3             -3.4528e-008    0.0088245       1.0792e-008    
  3.35            -3.4558e-008    0.0090538       1.2098e-008    
  3.4             -3.2207e-008    0.0092825       1.3374e-008    
  3.45            -2.6236e-008    0.0095097       1.3319e-008    
  3.5             -2.0253e-008    0.0097352       1.2809e-008    
  3.55            -1.589e-008     0.0099593       1.3109e-008    
  3.6             -3.307e-008     0.0101813       1.021e-008     
  3.65            -3.4582e-008    0.0104012       1.1961e-008    
  3.7             -3.3911e-008    0.0106178       1.2974e-008    
  3.75            -2.9761e-008    0.0108309       1.3944e-008    
  3.8             -2.3461e-008    0.0110404       1.329e-008     
  3.85            -1.8292e-008    0.0112446       1.2819e-008    
  3.9             -3.4632e-008    0.011452        8.613e-009     
  3.95            -3.3209e-008    0.011645        1.3309e-008    
  4               -2.8019e-008    0.011834        1.3881e-008    
  4.05            -2.0353e-008    0.012015        1.3053e-008    
  4.1             -1.7359e-008    0.012191        1.2845e-008    
  4.15            -4.354e-009     0.012361        1.2906e-008    
  4.2             -2.6237e-009    0.012526        1.3293e-008    
  4.25            -1.5619e-009    0.012682        2.052e-009     
  4.3             -1.4655e-009    0.012835        4.329e-009     
  4.35            -1.5217e-009    0.012979        1.0533e-008    
  4.4             -1.4462e-009    0.013117        1.372e-008     
  4.45            -1.4787e-009    0.013252        2.427e-009     
  4.5             -1.4848e-009    0.013381        5.559e-009     
  4.55            -1.5198e-009    0.013504        1.1607e-008    
  4.6             -2.1868e-009    0.013622        1.3547e-008    
  4.65            -1.5923e-009    0.013735        1.701e-009     
  4.7             -1.4549e-009    0.013848        3.846e-009     
  4.75            -1.5271e-009    0.013951        9.076e-009     
  4.8             -1.4887e-009    0.014053        1.3251e-008    
  4.85            -1.7996e-009    0.014151        1.344e-008     
  4.9             -1.4603e-009    0.014243        2.7e-009       
  4.95            -1.5103e-009    0.014325        6.646e-009     
  5               -1.5269e-009    0.014378        1.205e-008     
END_DB

BEGIN_DB
 ICCAP_VAR VS         0              
 ICCAP_VAR VB         -2.5           
 ICCAP_VAR VD         0.1            

 #VG              IG              ID              IB             
  0               -2.8264e-009    -1.3512e-008    -1.652e-009    
  0.05            -5.651e-010     -1.5175e-008    -2.3e-011      
  0.1             -4.995e-010     -1.5668e-008    1.2854e-008    
  0.15            -4.534e-010     -1.6444e-008    1.2935e-008    
  0.2             -3.87e-010      -1.6593e-008    1.3199e-008    
  0.25            -3.372e-010     -1.6938e-008    1.3663e-008    
  0.3             -2.852e-010     -1.6887e-008    1.3849e-008    
  0.35            -2.316e-010     -1.6469e-008    1.4191e-008    
  0.4             -1.818e-010     -1.5784e-008    1.4023e-008    
  0.45            -1.198e-010     -1.5015e-008    1.3861e-008    
  0.5             -6.54e-011      -1.4305e-008    1.3492e-008    
  0.55            -4.3e-012       -1.3375e-008    1.3246e-008    
  0.6             4.46e-011       -1.2197e-008    1.2795e-008    
  0.65            -1.738e-009     -1.6286e-008    1.2656e-008    
  0.7             -9.417e-010     -1.4213e-008    1.218e-008     
  0.75            -1.69e-009      -1.9243e-008    1.2039e-008    
  0.8             -1.6631e-009    -2.0481e-008    1.1553e-008    
  0.85            -1.6376e-009    -2.1817e-008    1.109e-008     
  0.9             -8.191e-010     -1.3514e-008    1.4047e-008    
  0.95            -7.87e-010      -1.3649e-008    1.3555e-008    
  1               -7.513e-010     -1.3461e-008    1.343e-008     
  1.05            -7.061e-010     -1.216e-008     1.3208e-008    
  1.1             -1.6201e-009    1.1027e-008     1.3181e-008    
  1.15            -1.2976e-009    2.4225e-008     2.909e-009     
  1.2             -1.309e-009     6.2052e-008     7.399e-009     
  1.25            -5.354e-010     1.2911e-007     1.2401e-008    
  1.3             -1.8364e-009    4.1119e-007     1.2882e-008    
  1.35            1.795e-009      1.2848e-006     1.2334e-008    
  1.4             -2.2581e-009    4.3953e-006     1.4107e-008    
  1.45            1.3518e-009     1.2045e-005     1.336e-009     
  1.5             -1.2027e-009    2.7382e-005     1.3704e-008    
  1.55            -1.6877e-009    4.8251e-005     1.3073e-008    
  1.6             -1.3081e-009    7.179e-005      2.801e-009     
  1.65            -1.314e-009     9.5008e-005     6.778e-009     
  1.7             -1.1989e-009    0.00011628      9.996e-009     
  1.75            -1.65e-009      0.00013578      1.3233e-008    
  1.8             -1.3044e-009    0.00015323      2.81e-009      
  1.85            -1.3148e-009    0.00016899      7.06e-009      
  1.9             -1.2374e-009    0.0001833       1.2569e-008    
  1.95            -1.8921e-009    0.00019628      1.2831e-008    
  2               -1.3552e-009    0.00020814      2.395e-009     
  2.05            -1.3067e-009    0.0002192       5.152e-009     
  2.1             -1.2798e-009    0.00022943      1.1457e-008    
  2.15            -2.1309e-009    0.00023891      1.3939e-008    
  2.2             -1.4772e-009    0.0002477       1.705e-009     
  2.25            -1.2966e-009    0.00025604      3.595e-009     
  2.3             -1.304e-009     0.00026384      8.923e-009     
  2.35            -1.203e-009     0.00027126      1.3712e-008    
  2.4             -1.685e-009     0.00027815      1.3176e-008    
  2.45            -1.31e-009      0.00028469      2.818e-009     
  2.5             -1.3134e-009    0.00029099      6.708e-009     
  2.55            -1.2468e-009    0.00029692      1.2558e-008    
  2.6             -1.9244e-009    0.0003026       1.2984e-008    
  2.65            -1.3637e-009    0.000308        2.37e-009      
  2.7             -1.3062e-009    0.00031319      4.869e-009     
  2.75            -1.2866e-009    0.00031812      1.1392e-008    
  2.8             -2.164e-009     0.00032289      1.4102e-008    
  2.85            -1.5081e-009    0.00032735      1.556e-009     
  2.9             -1.296e-009     0.00033173      3.51e-009      
  2.95            -1.3092e-009    0.00033588      8.602e-009     
  3               -1.2125e-009    0.00034         1.3483e-008    
  3.05            -1.7287e-009    0.00034381      1.2874e-008    
  3.1             -1.311e-009     0.00034753      2.581e-009     
  3.15            -2.5246e-009    0.00035109      -1.674e-009    
  3.2             -2.4493e-009    0.00035473      2.1658e-009    
  3.25            -2.237e-009     0.00035801      1.4067e-008    
  3.3             -1.5705e-009    0.00036119      1.272e-009     
  3.35            -1.2985e-009    0.00036433      3.113e-009     
  3.4             -1.3101e-009    0.00036736      7.827e-009     
  3.45            -1.2276e-009    0.00037034      1.3063e-008    
  3.5             -1.8129e-009    0.00037319      1.3017e-008    
  3.55            -1.327e-009     0.00037589      2.484e-009     
  3.6             -2.5306e-009    0.00037851      -1.894e-009    
  3.65            -2.4255e-009    0.0003813       1.9312e-009    
  3.7             -1.1984e-009    0.0003837       1.3626e-008    
  3.75            -1.6624e-009    0.00038614      1.3117e-008    
  3.8             -1.3034e-009    0.00038846      2.873e-009     
  3.85            -1.3143e-009    0.00039078      6.865e-009     
  3.9             -1.2444e-009    0.00039302      1.2813e-008    
  3.95            -1.8935e-009    0.00039522      1.2975e-008    
  4               -1.3553e-009    0.00039724      2.466e-009     
  4.05            -1.3067e-009    0.0003993       5.247e-009     
  4.1             -1.2815e-009    0.00040131      1.1385e-008    
  4.15            -2.132e-009     0.00040329      1.3959e-008    
