! VERSION = 6.00
BEGIN_HEADER
 ICCAP_INPUTS
  VG         V  B GROUND SMU4 0.001 LIN        2    0          5          6    1         
  VS         V  E GROUND SMU3 0.1 CON        0
  VD         V  S GROUND SMU2 0.1 LIN        1    0          10         201  0.05      
  VB         V  C GROUND SMU1 0.1 LIN        3    0          -2.5       2    -2.5      
 ICCAP_OUTPUTS
  ID         I  S GROUND SMU2 B
  IB         I  C GROUND SMU1 B
  IG         I  B GROUND SMU4 B
END_HEADER

BEGIN_DB
 ICCAP_VAR VG         0              
 ICCAP_VAR VS         0              
 ICCAP_VAR VB         0              

 #VD              ID              IB              IG             
  0               2.6082e-009     6.284e-009      3.331e-010     
  0.05            1.4318e-009     1.1231e-008     -2.4852e-009   
  0.1             -2.8215e-009    -1.4528e-008    -1.4696e-009   
  0.15            -1.9153e-009    -2.8608e-008    1.317e-009     
  0.2             1.6704e-009     1.254e-008      -2.2692e-009   
  0.25            -2.4032e-009    -1.5623e-008    -1.6403e-009   
  0.3             -2.1331e-009    -2.586e-008     1.3215e-009    
  0.35            1.9142e-009     1.3411e-008     -2.0158e-009   
  0.4             -1.9976e-009    -1.5773e-008    -1.7834e-009   
  0.45            -2.3224e-009    -2.1036e-008    2.186e-009     
  0.5             4.476e-010      5.841e-009      -1.3951e-009   
  0.55            -3.4639e-009    -1.3904e-008    -1.0892e-009   
  0.6             -1.2526e-009    -2.6806e-008    1.4935e-009    
  0.65            1.1097e-009     9.402e-009      -2.671e-009    
  0.7             -3.2535e-009    -1.3855e-008    -1.2379e-009   
  0.75            -1.5052e-009    -2.8578e-008    1.3621e-009    
  0.8             1.3701e-009     1.0779e-008     -2.5513e-009   
  0.85            -2.9385e-009    -1.4323e-008    -1.4021e-009   
  0.9             -1.7648e-009    -2.9101e-008    1.3192e-009    
  0.95            1.6174e-009     1.225e-008      -2.372e-009    
  1               -2.5517e-009    -1.4759e-008    -1.5676e-009   
  1.05            -2.0088e-009    -2.7451e-008    1.3193e-009    
  1.1             1.8417e-009     1.3082e-008     -2.1309e-009   
  1.15            -2.1326e-009    -1.5279e-008    -1.7153e-009   
  1.2             -2.1979e-009    -2.3343e-008    1.3178e-009    
  1.25            2.0681e-009     1.4342e-008     -1.8683e-009   
  1.3             -3.542e-009     -1.6476e-008    -2.444e-010    
  1.35            6.53e-011       -2.0173e-008    2.7707e-009    
  1.4             1.6e-009        1.1911e-008     -2.3983e-009   
  1.45            -2.5984e-009    -1.5802e-008    -1.5399e-009   
  1.5             -1.9535e-009    -2.7812e-008    1.3191e-009    
  1.55            1.8278e-009     1.3127e-008     -2.1656e-009   
  1.6             -2.1568e-009    -1.5973e-008    -1.7009e-009   
  1.65            -2.1543e-009    -2.3972e-008    1.3185e-009    
  1.7             2.0555e-009     1.4063e-008     -1.9039e-009   
  1.75            -1.7953e-009    -1.5457e-008    -1.8361e-009   
  1.8             -2.325e-009     -1.9173e-008    1.2991e-009    
  1.85            6.092e-010      6.71e-009       -1.3918e-009   
  1.9             -3.3431e-009    -1.391e-008     -1.1432e-009   
  1.95            -1.2929e-009    -2.7569e-008    1.436e-009     
  2               1.2724e-009     9.979e-009      -2.6336e-009   
  2.05            -3.0855e-009    -1.4809e-008    -1.2964e-009   
  2.1             -1.5559e-009    -2.9095e-008    1.3395e-009    
  2.15            1.5215e-009     1.1085e-008     -2.4915e-009   
  2.2             -2.7384e-009    -1.5685e-008    -1.4633e-009   
  2.25            -1.8146e-009    -2.8672e-008    1.3152e-009    
  2.3             1.7553e-009     1.2512e-008     -2.2819e-009   
  2.35            -2.3354e-009    -1.609e-008     -1.6232e-009   
  2.4             -2.0312e-009    -2.6067e-008    1.3204e-009    
  2.45            1.9874e-009     1.322e-008      -2.0285e-009   
  2.5             -1.9331e-009    -1.5902e-008    -1.7739e-009   
  2.55            -2.2244e-009    -2.1549e-008    1.3102e-009    
  2.6             5.172e-010      5.971e-009      -1.3933e-009   
  2.65            -3.3902e-009    -1.3969e-008    -1.0763e-009   
  2.7             -1.1482e-009    -2.6611e-008    1.5083e-009    
  2.75            1.1803e-009     9.076e-009      -2.6738e-009   
  2.8             -3.183e-009     -1.4369e-008    -1.231e-009    
  2.85            -1.415e-009     -2.8467e-008    1.3703e-009    
  2.9             1.4309e-009     1.0517e-008     -2.5615e-009   
  2.95            -2.8703e-009    -1.521e-008     -1.3909e-009   
  3               -1.678e-009     -2.8969e-008    1.3181e-009    
  3.05            1.6801e-009     1.1993e-008     -2.3792e-009   
  3.1             -2.4926e-009    -1.5894e-008    -1.5596e-009   
  3.15            -1.9179e-009    -2.7555e-008    1.3154e-009    
  3.2             1.9161e-009     1.3228e-008     -2.1525e-009   
  3.25            -2.0803e-009    -1.593e-008     -1.7058e-009   
  3.3             -2.1191e-009    -2.3868e-008    1.3148e-009    
  3.35            2.1305e-009     1.4404e-008     -1.8933e-009   
  3.4             -1.7194e-009    -1.5491e-008    -1.8454e-009   
  3.45            -2.2896e-009    -1.9061e-008    1.2971e-009    
  3.5             6.833e-010      6.861e-009      -1.3897e-009   
  3.55            -3.262e-009     -1.4054e-008    -1.1579e-009   
  3.6             -1.257e-009     -2.7639e-008    1.4291e-009    
  3.65            1.3431e-009     9.712e-009      -2.6204e-009   
  3.7             -3.0065e-009    -1.3968e-008    -1.3131e-009   
  3.75            -1.5276e-009    -2.9008e-008    1.3352e-009    
  3.8             1.5885e-009     1.125e-008      -2.4725e-009   
  3.85            -2.6679e-009    -1.4522e-008    -1.4789e-009   
  3.9             -1.7768e-009    -2.8579e-008    1.3147e-009    
  3.95            1.817e-009      1.2601e-008     -2.2757e-009   
  4               -2.2657e-009    -1.6067e-008    -1.6343e-009   
  4.05            -1.9981e-009    -2.608e-008     1.3189e-009    
  4.1             2.0414e-009     1.3473e-008     -2.0278e-009   
  4.15            -1.8713e-009    -1.579e-008     -1.7788e-009   
  4.2             -2.1853e-009    -2.1423e-008    1.3086e-009    
  4.25            5.76e-010       5.705e-009      -1.3922e-009   
  4.3             -3.3385e-009    -1.3937e-008    -1.0786e-009   
  4.35            -1.1031e-009    -2.6559e-008    1.5142e-009    
  4.4             1.2148e-009     8.922e-009      -2.6769e-009   
  4.45            -3.1448e-009    -1.431e-008     -1.223e-009    
  4.5             -1.352e-009     -2.8393e-008    1.3754e-009    
  4.55            1.4752e-009     1.0383e-008     -2.5687e-009   
  4.6             -2.8477e-009    -1.5267e-008    -1.3779e-009   
  4.65            -1.6193e-009    -2.9009e-008    1.319e-009     
  4.7             1.7127e-009     1.1941e-008     -2.3971e-009   
  4.75            -2.4863e-009    -1.5842e-008    -1.542e-009    
  4.8             -1.8474e-009    -2.7758e-008    1.3165e-009    
  4.85            1.9361e-009     1.305e-008      -2.1731e-009   
  4.9             -2.0846e-009    -1.5956e-008    -1.6976e-009   
  4.95            -2.0609e-009    -2.4181e-008    1.3188e-009    
  5               2.1572e-009     1.4122e-008     -1.9135e-009   
  5.05            -1.7084e-009    -1.5721e-008    -1.8333e-009   
  5.1             -2.2336e-009    -1.9528e-008    2.0866e-009    
  5.15            6.93e-010       6.52e-009       -1.3937e-009   
  5.2             -3.2453e-009    -1.4031e-008    -1.1377e-009   
  5.25            -1.1856e-009    -2.75e-008      1.4438e-009    
  5.3             1.3552e-009     9.535e-009      -2.6365e-009   
  5.35            -3.0105e-009    -1.4697e-008    -1.2915e-009   
  5.4             -1.4492e-009    -2.8956e-008    1.3453e-009    
  5.45            1.5986e-009     1.0941e-008     -2.5046e-009   
  5.5             -2.673e-009     -1.5522e-008    -1.454e-009    
  5.55            -1.7076e-009    -2.876e-008     1.3154e-009    
  5.6             1.8268e-009     1.2545e-008     -2.3049e-009   
  5.65            -2.2862e-009    -1.5042e-008    -1.6146e-009   
  5.7             -1.9315e-009    -2.6478e-008    1.3201e-009    
  5.75            2.0511e-009     1.3262e-008     -2.0688e-009   
  5.8             -1.8897e-009    -1.5919e-008    -1.7574e-009   
  5.85            -2.112e-009     -2.2281e-008    1.3126e-009    
  5.9             5.719e-010      5.449e-009      -1.3934e-009   
  5.95            -3.3239e-009    -1.3913e-008    -1.0506e-009   
  6               -1.0196e-009    -2.6271e-008    1.5442e-009    
  6.05            1.2202e-009     8.733e-009      -2.6951e-009   
  6.1             -3.1425e-009    -1.4284e-008    -1.1977e-009   
  6.15            -1.264e-009     -2.8188e-008    1.3948e-009    
  6.2             1.4737e-009     1.0287e-008     -2.5958e-009   
  6.25            -2.8748e-009    -1.4187e-008    -1.3511e-009   
  6.3             -1.5279e-009    -2.9129e-008    1.3247e-009    
  6.35            1.7057e-009     1.1608e-008     -2.4325e-009   
  6.4             -2.5116e-009    -1.4655e-008    -1.5146e-009   
  6.45            -1.7672e-009    -2.8136e-008    1.3166e-009    
  6.5             1.9274e-009     1.2791e-008     -2.2206e-009   
  6.55            -2.1252e-009    -1.6091e-008    -1.6719e-009   
  6.6             -1.9893e-009    -2.5024e-008    1.3198e-009    
  6.65            2.1559e-009     1.376e-008      -1.9697e-009   
  6.7             -1.7439e-009    -1.5719e-008    -1.8096e-009   
  6.75            -2.1606e-009    -2.0445e-008    1.3066e-009    
  6.8             6.881e-010      6.168e-009      -1.3939e-009   
  6.85            -3.2469e-009    -1.3961e-008    -1.1023e-009   
  6.9             -1.0803e-009    -2.6955e-008    1.4822e-009    
  6.95            1.3435e-009     9.223e-009      -2.6625e-009   
  7               -3.0333e-009    -1.3915e-008    -1.2509e-009   
  7.05            -1.3368e-009    -2.8674e-008    1.3591e-009    
  7.1             1.5786e-009     1.0751e-008     -2.5416e-009   
  7.15            -2.7324e-009    -1.5402e-008    -1.4103e-009   
  7.2             -1.5881e-009    -2.9017e-008    1.3174e-009    
  7.25            1.811e-009      1.2329e-008     -2.3704e-009   
  7.3             -2.3706e-009    -1.5911e-008    -1.5651e-009   
  7.35            -1.8291e-009    -2.7534e-008    1.3174e-009    
  7.4             2.0215e-009     1.307e-008      -2.1392e-009   
  7.45            -1.9779e-009    -1.5957e-008    -1.718e-009    
  7.5             -2.0267e-009    -2.3719e-008    1.3161e-009    
  7.55            2.2362e-009     1.4276e-008     -1.89e-009     
  7.6             -1.6247e-009    -1.5646e-008    -1.8371e-009   
  7.65            -2.1873e-009    -1.9186e-008    2.0677e-009    
  7.7             7.668e-010      6.558e-009      -1.393e-009    
  7.75            -3.1798e-009    -1.3896e-008    -1.1441e-009   
  7.8             -1.1355e-009    -2.7483e-008    1.4416e-009    
  7.85            1.421e-009      9.587e-009      -2.6347e-009   
  7.9             -2.9444e-009    -1.3946e-008    -1.2921e-009   
  7.95            -1.3865e-009    -2.8845e-008    1.3475e-009    
  8               1.6477e-009     1.0868e-008     -2.5057e-009   
  8.05            -2.6389e-009    -1.448e-008     -1.4439e-009   
  8.1             -1.6323e-009    -2.8781e-008    1.3163e-009    
  8.15            1.8769e-009     1.2529e-008     -2.3202e-009   
  8.2             -2.2608e-009    -1.5217e-008    -1.6029e-009   
  8.25            -1.8597e-009    -2.6787e-008    1.3175e-009    
  8.3             2.0915e-009     1.3275e-008     -2.0855e-009   
  8.35            -1.8779e-009    -1.5957e-008    -1.7441e-009   
  8.4             -2.0413e-009    -2.2936e-008    2.283e-009     
  8.45            2.2936e-009     1.4858e-008     -1.8505e-009   
  8.5             -1.5573e-009    -1.5288e-008    -1.865e-009    
  8.55            -2.1968e-009    -1.8533e-008    2.0018e-009    
  8.6             8.423e-010      6.828e-009      -1.3876e-009   
  8.65            -3.1272e-009    -1.4118e-008    -1.1741e-009   
  8.7             -1.1711e-009    -2.7868e-008    1.4177e-009    
  8.75            1.4935e-009     9.979e-009      -2.6147e-009   
  8.8             -2.8584e-009    -1.4113e-008    -1.3221e-009   
  8.85            -1.4155e-009    -2.8976e-008    1.332e-009     
  8.9             1.724e-009      1.147e-008      -2.4709e-009   
  8.95            -2.5288e-009    -1.4711e-008    -1.4835e-009   
  9               -1.673e-009     -2.8404e-008    1.3158e-009    
  9.05            1.9497e-009     1.2568e-008     -2.2618e-009   
  9.1             -2.1394e-009    -1.5601e-008    -1.6409e-009   
  9.15            -1.8847e-009    -2.6113e-008    1.319e-009     
  9.2             2.1697e-009     1.3506e-008     -2.0279e-009   
  9.25            -1.754e-009     -1.5861e-008    -1.7777e-009   
  9.3             -2.0654e-009    -2.1579e-008    2.216e-009     
  9.35            6.941e-010      5.841e-009      -1.3928e-009   
  9.4             -3.2251e-009    -1.4043e-008    -1.0727e-009   
  9.45            -9.718e-010     -2.6603e-008    1.5274e-009    
  9.5             1.3366e-009     8.873e-009      -2.6824e-009   
  9.55            -3.032e-009     -1.3748e-008    -1.213e-009    
  9.6             -1.2174e-009    -2.8253e-008    1.3845e-009    
  9.65            1.5752e-009     1.0145e-008     -2.5783e-009   
  9.7             -2.7648e-009    -1.4198e-008    -1.3671e-009   
  9.75            -1.4706e-009    -2.8952e-008    1.323e-009     
  9.8             1.8103e-009     1.1664e-008     -2.4151e-009   
  9.85            -2.4061e-009    -1.5873e-008    -1.5304e-009   
  9.9             -1.6998e-009    -2.8077e-008    1.3155e-009    
  9.95            2.0238e-009     1.2816e-008     -2.2087e-009   
  10              -2.0293e-009    -1.5985e-008    -1.6758e-009   
END_DB

BEGIN_DB
 ICCAP_VAR VG         1              
 ICCAP_VAR VS         0              
 ICCAP_VAR VB         0              

 #VD              ID              IB              IG             
  0               1.8287e-006     2.561e-009      1.6053e-009    
  0.05            9.2987e-005     6.814e-009      2.31e-011      
  0.1             0.00016885      -1.5829e-008    -2.5004e-009   
  0.15            0.00022236      1.1092e-008     -2.1492e-009   
  0.2             0.00025685      1.2914e-008     -1.7214e-009   
  0.25            0.00027674      6.319e-009      -1.3572e-009   
  0.3             0.00028689      6.687e-009      -2.7108e-009   
  0.35            0.00029217      8.655e-009      -2.5307e-009   
  0.4             0.00029545      1.0951e-008     -2.1775e-009   
  0.45            0.00029752      1.2747e-008     -1.7461e-009   
  0.5             0.00029936      6.048e-009      -1.363e-009    
  0.55            0.00030083      6.412e-009      -1.3584e-009   
  0.6             0.00030195      6.566e-009      -2.7085e-009   
  0.65            0.00030309      8.503e-009      -2.5265e-009   
  0.7             0.00030405      1.088e-008      -2.1696e-009   
  0.75            0.00030477      1.2898e-008     -1.7474e-009   
  0.8             0.00030574      6.152e-009      -2.72e-009     
  0.85            0.00030653      8.186e-009      -2.5673e-009   
  0.9             0.00030719      1.034e-008      -2.2337e-009   
  0.95            0.00030778      1.2583e-008     -1.8005e-009   
  1               0.00030871      5.646e-009      -1.3729e-009   
  1.05            0.00030919      5.802e-009      -2.7236e-009   
  1.1             0.00030995      8.294e-009      -2.5824e-009   
  1.15            0.00031043      1.0215e-008     -2.2583e-009   
  1.2             0.00031107      1.2383e-008     -1.8305e-009   
  1.25            0.00031184      5.372e-009      -1.3747e-009   
  1.3             0.00031243      5.594e-009      -1.3708e-009   
  1.35            0.00031312      5.827e-009      -1.3656e-009   
  1.4             0.00031362      6.34e-009       -1.361e-009    
  1.45            0.00031434      6.678e-009      -2.7133e-009   
  1.5             0.00031493      8.46e-009       -2.5438e-009   
  1.55            0.0003155       1.0669e-008     -2.1887e-009   
  1.6             0.00031586      1.2805e-008     -1.7643e-009   
  1.65            0.00031643      6.123e-009      -1.3653e-009   
  1.7             0.00031706      6.439e-009      -1.3613e-009   
  1.75            0.00031761      6.427e-009      -1.355e-009    
  1.8             0.00031826      6.624e-009      -2.7089e-009   
  1.85            0.0003188       8.615e-009      -2.5228e-009   
  1.9             0.00031914      1.0803e-008     -2.1552e-009   
  1.95            0.00031955      1.2693e-008     -1.7243e-009   
  2               0.00032024      6.399e-009      -1.3601e-009   
  2.05            0.00032077      6.442e-009      -2.7125e-009   
  2.1             0.00032123      8.33e-009       -2.5384e-009   
  2.15            0.00032175      1.053e-008      -2.1831e-009   
  2.2             0.00032199      1.2533e-008     -1.7502e-009   
  2.25            0.0003227       5.933e-009      -1.364e-009    
  2.3             0.00032315      6.16e-009       -2.718e-009    
  2.35            0.00032359      8.044e-009      -2.5536e-009   
  2.4             0.00032406      9.805e-009      -2.204e-009    
  2.45            0.00032442      1.1654e-008     -1.7727e-009   
  2.5             0.00032509      4.488e-009      -2.7286e-009   
  2.55            0.00032564      6.493e-009      -2.589e-009    
  2.6             0.00032607      7.941e-009      -2.2636e-009   
  2.65            0.00032627      9.544e-009      -1.8396e-009   
  2.7             0.00032693      1.447e-009      -1.3769e-009   
  2.75            0.00032482      -1.9192e-008    -2.2194e-009   
  2.8             0.00032786      4.494e-009      -2.1421e-009   
  2.85            0.00032818      4.598e-009      -1.7102e-009   
  2.9             0.00032692      -1.8493e-008    -2.7451e-009   
  2.95            0.00032925      -5.286e-009     -2.6533e-009   
  3               0.00032954      -6.307e-009     -2.3878e-009   
  3.05            0.00032957      -1.3255e-008    -1.4232e-009   
  3.1             0.0003288       -1.628e-008     5.127e-010     
  3.15            0.0003275       -3.3452e-008    2.2484e-009    
  3.2             0.00032741      -4.7092e-008    1.096e-010     
  3.25            0.00032978      -4.6185e-008    -2.7168e-009   
  3.3             0.00033229      -2.7454e-008    -1.3576e-009   
  3.35            0.00032834      -4.9907e-008    1.1635e-009    
  3.4             0.00032922      -7.5173e-008    1.3292e-009    
  3.45            0.00033118      -8.9324e-008    -6.959e-010    
  3.5             0.00033288      -8.7667e-008    -1.914e-009    
  3.55            0.00033213      -9.122e-008     -2.4698e-009   
  3.6             0.00033501      -1.0155e-007    -1.4547e-009   
  3.65            0.00033402      -1.1741e-007    4.342e-010     
  3.7             0.00033213      -1.4565e-007    2.3853e-009    
  3.75            0.00033194      -1.7292e-007    1.887e-010     
  3.8             0.00033469      -1.8689e-007    -2.7383e-009   
  3.85            0.00033734      -1.7859e-007    -1.3725e-009   
  3.9             0.00033374      -2.199e-007     1.0984e-009    
  3.95            0.0003341       -2.6156e-007    1.353e-009     
  4               0.00033585      -2.9499e-007    -6.128e-010    
  4.05            0.00033783      -3.1349e-007    -2.0305e-009   
  4.1             0.00033846      -3.3648e-007    -5.83e-011     
  4.15            0.00033682      -3.7885e-007    2.8679e-009    
  4.2             0.00033702      -4.3922e-007    1.859e-009     
  4.25            0.00033749      -4.71e-007      -1.278e-010    
  4.3             0.00033936      -5.0716e-007    -2.5872e-009   
  4.35            0.0003414       -5.3429e-007    -1.541e-009    
