! VERSION = 6.00
BEGIN_HEADER
 ICCAP_INPUTS
  VG         V  B GROUND SMU4 0.001 LIN        2    0          5          6    1         
  VS         V  E GROUND SMU2 0.1 CON        0
  VD         V  S GROUND SMU1 0.1 LIN        1    0          5          101  0.05      
  VB         V  C GROUND SMU3 0.1 LIN        3    0          -2.5       2    -2.5      
 ICCAP_OUTPUTS
  ID         I  S GROUND SMU1 B
  IB         I  C GROUND SMU3 B
  IG         I  B GROUND SMU4 B
END_HEADER

BEGIN_DB
 ICCAP_VAR VG         0              
 ICCAP_VAR VS         0              
 ICCAP_VAR VB         0              

 #VD              ID              IB              IG             
  0               2.6382e-009     -1.2156e-008    2.1952e-009    
  0.05            1.453e-009      -6.098e-009     2.2923e-009    
  0.1             1.087e-009      1.6189e-008     -2.0234e-009   
  0.15            -1.6411e-009    3.622e-009      -4.805e-010    
  0.2             -8.39e-011      -1.7183e-008    2.4121e-009    
  0.25            1.4753e-009     -4.539e-009     2.1786e-009    
  0.3             9.778e-010      1.4826e-008     -2.2307e-009   
  0.35            -6.557e-010     -1.0889e-008    2.6796e-009    
  0.4             1.9153e-009     1.8847e-008     -1.8814e-009   
  0.45            -1.1787e-009    4.415e-009      2.7149e-009    
  0.5             1.1762e-009     1.6893e-008     -1.8705e-009   
  0.55            -1.1767e-009    4.191e-009      2.7143e-009    
  0.6             1.1829e-009     1.6574e-008     -1.8764e-009   
  0.65            -1.1721e-009    4.204e-009      2.713e-009     
  0.7             1.1869e-009     1.6655e-008     -1.8845e-009   
  0.75            -1.1654e-009    4.326e-009      2.7122e-009    
  0.8             1.8572e-009     2.2893e-008     -2.0795e-009   
  0.85            -1.6132e-009    3.696e-009      -4.598e-010    
  0.9             -6.888e-010     -1.0659e-008    2.673e-009     
  0.95            1.9767e-009     1.6943e-008     -1.8166e-009   
  1               -1.1815e-009    4.618e-009      2.7064e-009    
  1.05            1.8995e-009     2.1473e-008     -2.0154e-009   
  1.1             -1.1262e-009    4.324e-009      1.6214e-009    
  1.15            1.4724e-009     -9.132e-009     2.5174e-009    
  1.2             2.0242e-009     1.5451e-008     -1.7347e-009   
  1.25            -1.1987e-009    4.715e-009      2.6872e-009    
  1.3             1.9458e-009     1.9912e-008     -1.9376e-009   
  1.35            -1.1402e-009    4.364e-009      2.6942e-009    
  1.4             1.2071e-009     1.6576e-008     -1.931e-009    
  1.45            -1.1374e-009    4.444e-009      2.6934e-009    
  1.5             1.2119e-009     1.6656e-008     -1.9333e-009   
  1.55            -1.1356e-009    4.457e-009      2.6932e-009    
  1.6             1.2144e-009     1.6557e-008     -1.9256e-009   
  1.65            -1.1348e-009    4.631e-009      2.6995e-009    
  1.7             1.8892e-009     2.3992e-008     -2.1013e-009   
  1.75            -1.5976e-009    3.833e-009      -4.569e-010    
  1.8             -6.643e-010     -1.1205e-008    2.6636e-009    
  1.85            2.0065e-009     1.7278e-008     -1.8177e-009   
  1.9             -1.1586e-009    4.667e-009      2.6951e-009    
  1.95            1.9371e-009     2.1456e-008     -1.9999e-009   
  2               -1.1073e-009    4.279e-009      1.5974e-009    
  2.05            1.4923e-009     -9.169e-009     2.5228e-009    
  2.1             2.0539e-009     1.4614e-008     -1.703e-009    
  2.15            1.141e-010      4.617e-009      -1.4341e-009   
  2.2             2.156e-010      5.99e-009       -2.52e-009     
  2.25            -1.5786e-009    -1.1707e-008    -4.32e-010     
  2.3             -6.388e-010     -1.1158e-008    2.682e-009     
  2.35            1.9971e-009     1.7407e-008     -1.8286e-009   
  2.4             -1.1421e-009    4.4e-009        2.7053e-009    
  2.45            1.9282e-009     2.153e-008      -2.0123e-009   
  2.5             -1.0913e-009    3.862e-009      1.6283e-009    
  2.55            1.5024e-009     -9.038e-009     2.5043e-009    
  2.6             2.043e-009      1.5509e-008     -1.7259e-009   
  2.65            1.265e-010      4.54e-009       -1.4627e-009   
  2.7             2.2e-010        5.549e-009      -1.3124e-009   
  2.75            3.155e-010      7.262e-009      -2.5539e-009   
  2.8             1.5376e-009     -1.5242e-008    2.3845e-009    
  2.85            1.908e-009      2.2439e-008     -2.0545e-009   
  2.9             -1.0751e-009    3.461e-009      1.6946e-009    
  2.95            1.5108e-009     -9.166e-009     2.4797e-009    
  3               2.028e-009      1.6644e-008     -1.7748e-009   
  3.05            -1.1453e-009    4.251e-009      2.7016e-009    
  3.1             1.2931e-009     1.744e-008      -1.7681e-009   
  3.15            -1.1439e-009    4.377e-009      2.6973e-009    
  3.2             1.9533e-009     2.0437e-008     -1.9532e-009   
  3.25            -1.093e-009     3.945e-009      1.5856e-009    
  3.3             1.5016e-009     -9.309e-009     2.5078e-009    
  3.35            2.0817e-009     1.4972e-008     -1.6892e-009   
  3.4             1.311e-010      4.496e-009      -1.4508e-009   
  3.45            2.321e-010      5.746e-009      -1.3113e-009   
  3.5             3.407e-010      7.486e-009      -2.5592e-009   
  3.55            -6.064e-010     -1.1126e-008    2.6684e-009    
  3.6             2.0102e-009     1.7669e-008     -1.8328e-009   
  3.65            -1.1192e-009    4.193e-009      2.7026e-009    
  3.7             1.2791e-009     1.7195e-008     -1.8271e-009   
  3.75            -1.1159e-009    4.349e-009      2.706e-009     
  3.8             1.2769e-009     1.7163e-008     -1.8249e-009   
  3.85            -1.107e-009     4.23e-009       2.7038e-009    
  3.9             1.2815e-009     1.7153e-008     -1.8295e-009   
  3.95            -1.1139e-009    4.359e-009      2.7018e-009    
  4               1.2866e-009     1.714e-008      -1.8156e-009   
  4.05            -1.1144e-009    4.341e-009      2.6996e-009    
  4.1             1.2839e-009     1.7145e-008     -1.8182e-009   
  4.15            -1.1131e-009    4.268e-009      2.7061e-009    
  4.2             1.2853e-009     1.7022e-008     -1.8189e-009   
  4.25            -1.1088e-009    4.372e-009      2.6996e-009    
  4.3             1.2899e-009     1.7147e-008     -1.8186e-009   
  4.35            -1.109e-009     4.188e-009      2.7048e-009    
  4.4             1.9499e-009     2.1566e-008     -2.001e-009    
  4.45            -1.0596e-009    3.602e-009      1.6437e-009    
  4.5             1.5331e-009     -9.209e-009     2.4863e-009    
  4.55            2.0685e-009     1.5902e-008     -1.7343e-009   
  4.6             1.458e-010      4.375e-009      -1.4852e-009   
  4.65            2.423e-010      5.375e-009      -1.3242e-009   
  4.7             3.39e-010       6.927e-009      -2.5493e-009   
  4.75            -5.591e-010     -1.101e-008     2.688e-009     
  4.8             2.0071e-009     1.8966e-008     -1.8853e-009   
  4.85            -1.0844e-009    4.06e-009       2.7138e-009    
  4.9             1.2675e-009     1.6765e-008     -1.8884e-009   
  4.95            -1.0809e-009    4.264e-009      2.709e-009     
  5               1.2707e-009     1.6535e-008     -1.8848e-009   
END_DB

BEGIN_DB
 ICCAP_VAR VG         1              
 ICCAP_VAR VS         0              
 ICCAP_VAR VB         0              

 #VD              ID              IB              IG             
  0               -1.2367e-007    1.1714e-008     -2.5512e-009   
  0.05            8.5637e-006     -1.0898e-008    -2.5713e-009   
  0.1             1.4591e-005     1.49e-008       -7.181e-010    
  0.15            1.8508e-005     6.533e-009      -2.573e-009    
  0.2             2.0933e-005     1.1708e-008     -2.4863e-009   
  0.25            2.2871e-005     1.4821e-008     -1.9053e-009   
  0.3             2.1954e-005     9.661e-009      7.175e-010     
  0.35            2.2274e-005     -8.016e-009     2.6819e-009    
  0.4             2.371e-005      -1.0558e-008    2.031e-010     
  0.45            2.3513e-005     1.2891e-008     -2.3094e-009   
  0.5             2.4111e-005     2.3799e-008     -1.7473e-009   
  0.55            2.3768e-005     1.2383e-008     -2.387e-009    
  0.6             2.3937e-005     1.5827e-008     -1.6708e-009   
  0.65            2.3817e-005     1.2584e-008     -2.3371e-009   
  0.7             2.3761e-005     1.617e-008      -1.6001e-009   
  0.75            2.378e-005      1.3132e-008     -2.287e-009    
  0.8             2.3558e-005     1.6427e-008     -1.5304e-009   
  0.85            2.337e-005      1.35e-008       -2.2259e-009   
  0.9             2.1944e-005     7.988e-009      1.9293e-009    
  0.95            2.4309e-005     -1.8919e-008    2.7109e-009    
  1               2.3877e-005     -2.478e-008     2.5047e-009    
  1.05            2.3139e-005     -2.1196e-008    1.8736e-009    
  1.1             2.2736e-005     -1.0593e-008    -9.025e-010    
  1.15            2.3058e-005     7.768e-009      -2.5615e-009   
  1.2             2.3722e-005     1.2817e-008     -2.3502e-009   
  1.25            2.3862e-005     2.4842e-008     -1.793e-009    
  1.3             2.3888e-005     1.2286e-008     -2.4203e-009   
  1.35            2.4239e-005     1.5585e-008     -1.7141e-009   
  1.4             2.4006e-005     1.2708e-008     -2.3774e-009   
  1.45            2.4052e-005     1.5939e-008     -1.6356e-009   
  1.5             2.3646e-005     1.2998e-008     -2.3237e-009   
  1.55            2.4454e-005     2.4241e-008     -1.7511e-009   
  1.6             2.3655e-005     1.2417e-008     -2.3977e-009   
  1.65            2.3831e-005     2.5927e-008     -1.8717e-009   
  1.7             2.4031e-005     1.2189e-008     -2.4486e-009   
  1.75            2.4343e-005     1.5443e-008     -1.7789e-009   
  1.8             2.3572e-005     1.24e-008       -2.4158e-009   
  1.85            2.4056e-005     1.5688e-008     -1.7013e-009   
  1.9             2.2931e-005     1.2726e-008     -2.3758e-009   
  1.95            2.4092e-005     2.545e-008      -1.8214e-009   
  2               2.2525e-005     9.534e-009      7.736e-010     
  2.05            2.2827e-005     -7.79e-009      2.6895e-009    
  2.1             2.4459e-005     -9.698e-009     1.613e-010     
  2.15            2.4112e-005     1.3816e-008     -2.2737e-009   
  2.2             2.2115e-005     8.027e-009      1.908e-009     
  2.25            2.4418e-005     -1.8521e-008    2.7064e-009    
  2.3             2.449e-005      -2.4824e-008    2.5392e-009    
  2.35            2.4643e-005     -2.2281e-008    1.9116e-009    
  2.4             2.3078e-005     -1.0815e-008    -8.827e-010    
  2.45            2.3529e-005     7.351e-009      -2.5605e-009   
  2.5             2.3612e-005     1.2588e-008     -2.3745e-009   
  2.55            2.476e-005      1.5843e-008     -1.6295e-009   
  2.6             2.3842e-005     1.288e-008      -2.3236e-009   
  2.65            2.47e-005       2.4066e-008     -1.7528e-009   
  2.7             2.4283e-005     1.2214e-008     -2.4001e-009   
  2.75            2.4188e-005     1.5356e-008     -1.675e-009    
  2.8             2.436e-005      1.2423e-008     -2.349e-009    
  2.85            2.4514e-005     1.535e-008      -1.6e-009      
  2.9             2.3979e-005     1.2681e-008     -2.3025e-009   
  2.95            2.2382e-005     7.348e-009      1.8941e-009    
  3               2.38e-005       -1.9095e-008    2.6978e-009    
  3.05            2.4591e-005     -1.0554e-008    1.05e-011      
  3.1             2.4542e-005     1.3248e-008     -2.037e-009    
  3.15            2.3983e-005     9.105e-009      -2.5012e-009   
  3.2             2.4496e-005     1.2737e-008     -1.9623e-009   
  3.25            2.3853e-005     8.751e-009      -2.4762e-009   
  3.3             2.4446e-005     1.2209e-008     -1.8881e-009   
  3.35            2.445e-005      7.808e-009      -2.4522e-009   
  3.4             2.4474e-005     1.1263e-008     -1.8077e-009   
  3.45            2.3955e-005     6.797e-009      -2.4164e-009   
  3.5             2.4603e-005     9.895e-009      -1.7318e-009   
  3.55            2.449e-005      5.336e-009      -2.3763e-009   
  3.6             2.4188e-005     8.382e-009      -1.6547e-009   
  3.65            2.3868e-005     3.516e-009      -2.3301e-009   
  3.7             2.4409e-005     6.349e-009      -1.5904e-009   
  3.75            2.2227e-005     -5.339e-009     2.3139e-009    
  3.8             2.3401e-005     -2.4611e-008    -6.635e-010    
  3.85            2.3267e-005     -9.686e-009     -2.5798e-009   
  3.9             2.2477e-005     -9.785e-009     1.156e-009     
  3.95            2.4653e-005     -4.1884e-008    1.9936e-009    
  4               2.2574e-005     -2.91e-008      -2.0977e-009   
  4.05            2.3985e-005     -1.253e-008     4.374e-010     
  4.1             2.466e-005      -4.4092e-008    1.4592e-009    
  4.15            2.262e-005      -3.6852e-008    -2.3712e-009   
  4.2             2.3143e-005     -2.0453e-008    7.307e-010     
  4.25            2.5001e-005     -5.7449e-008    2.6412e-009    
  4.3             2.3593e-005     -4.7947e-008    -1.7803e-009   
  4.35            2.5251e-005     -3.2435e-008    -8.96e-011     
  4.4             2.5407e-005     -6.3702e-008    2.3655e-009    
  4.45            2.3331e-005     -5.8227e-008    -1.942e-009    
  4.5             2.4964e-005     -4.3438e-008    2.058e-010     
  4.55            2.5383e-005     -7.8164e-008    1.8477e-009    
  4.6             2.3086e-005     -7.3097e-008    -2.1696e-009   
  4.65            2.4212e-005     -5.7112e-008    5.166e-010     
  4.7             2.522e-005      -9.4083e-008    2.6909e-009    
  4.75            2.4128e-005     -8.9731e-008    -1.6223e-009   
  4.8             2.5877e-005     -7.2707e-008    -2.4762e-009   
  4.85            2.5429e-005     -8.504e-008     -1.2475e-009   
  4.9             2.3164e-005     -9.708e-008     2.5505e-009    
  4.95            2.426e-005      -1.1728e-007    -1.0069e-009   
  5               2.5825e-005     -8.865e-008     -2.2446e-009   
END_DB

BEGIN_DB
 ICCAP_VAR VG         2              
 ICCAP_VAR VS         0              
 ICCAP_VAR VB         0              

 #VD              ID              IB              IG             
  0               -5.0199e-007    1.0423e-008     -2.5636e-009   
  0.05            3.8417e-005     -9.278e-009     2.1977e-009    
  0.1             7.5775e-005     -1.3513e-008    2.5783e-009    
  0.15            0.000111923     -2.3534e-008    2.06e-009      
  0.2             0.00014682      -1.0653e-008    -1.874e-009    
  0.25            0.00018039      1.9137e-008     -1.3201e-009   
  0.3             0.00021266      1.6358e-008     -1.7163e-009   
  0.35            0.00024361      1.3744e-008     -2.2196e-009   
  0.4             0.0002732       1.7724e-008     -1.4737e-009   
  0.45            0.00030034      7.106e-009      1.091e-009     
  0.5             0.00032712      -2.1658e-008    1.9269e-009    
  0.55            0.00035197      -1.0015e-008    -9.923e-010    
  0.6             0.00037529      1.0751e-008     -2.5054e-009   
  0.65            0.00039692      1.5791e-008     -1.872e-009    
  0.7             0.00041685      1.2809e-008     -2.3275e-009   
  0.75            0.00043393      8.399e-009      1.9817e-009    
  0.8             0.00045098      -2.1328e-008    2.6615e-009    
  0.85            0.00046557      -2.3623e-008    2.095e-009     
  0.9             0.00047838      -1.1117e-008    -9.167e-010    
  0.95            0.0004894       9.405e-009      -2.5242e-009   
  1               0.00049935      1.5003e-008     -2.0156e-009   
  1.05            0.00050632      1.1855e-008     -2.4073e-009   
  1.1             0.0005109       8.726e-009      1.8937e-009    
  1.15            0.00051695      -1.9901e-008    2.6867e-009    
  1.2             0.00052132      -2.4444e-008    2.2492e-009    
  1.25            0.00052421      -1.1279e-008    -8.374e-010    
  1.3             0.00052614      8.489e-009      -2.5466e-009   
  1.35            0.00052841      1.4516e-008     -2.1537e-009   
  1.4             0.00052844      1.1422e-008     -2.4678e-009   
  1.45            0.00053014      1.6572e-008     -1.7066e-009   
  1.5             0.00053156      1.3878e-008     -2.2059e-009   
  1.55            0.00053168      1.7278e-008     -1.4676e-009   
  1.6             0.0005299       6.958e-009      1.0984e-009    
  1.65            0.00053299      -2.1502e-008    1.9018e-009    
  1.7             0.00053231      -1.6269e-008    2.4429e-009    
  1.75            0.00053267      -1.1451e-008    -6.98e-010     
  1.8             0.00053294      7.621e-009      -2.5708e-009   
  1.85            0.00053352      1.2792e-008     -2.308e-009    
  1.9             0.00053553      2.0279e-008     -1.5777e-009   
  1.95            0.00053252      7.489e-009      1.024e-009     
  2               0.00053503      -2.3384e-008    2.0635e-009    
  2.05            0.00053379      -1.0721e-008    -9.261e-010    
  2.1             0.00053467      9.56e-009       -2.5239e-009   
  2.15            0.00053498      1.5183e-008     -1.9918e-009   
  2.2             0.00053516      1.2021e-008     -2.3962e-009   
  2.25            0.00053307      8.379e-009      1.9036e-009    
  2.3             0.00053544      -2.0055e-008    2.6836e-009    
  2.35            0.00053701      -2.449e-008     2.2395e-009    
  2.4             0.00053557      -1.1475e-008    -8.462e-010    
  2.45            0.0005362       8.554e-009      -2.5442e-009   
  2.5             0.00053678      1.4509e-008     -2.1335e-009   
  2.55            0.00053745      1.546e-008      -1.4003e-009   
  2.6             0.00053704      1.5643e-008     -1.8764e-009   
  2.65            0.00053725      1.2612e-008     -2.3306e-009   
  2.7             0.00053506      8.362e-009      1.976e-009     
  2.75            0.00053601      -2.1218e-008    2.6584e-009    
  2.8             0.00053663      -2.3787e-008    2.1048e-009    
  2.85            0.00053734      -1.1177e-008    -9.109e-010    
  2.9             0.00053734      9.212e-009      -2.5316e-009   
  2.95            0.00053804      1.4917e-008     -2.0214e-009   
  3               0.00053798      1.1868e-008     -2.4106e-009   
  3.05            0.00053578      8.576e-009      1.8909e-009    
  3.1             0.00053906      -1.9813e-008    2.6844e-009    
  3.15            0.00054018      -2.4779e-008    2.2585e-009    
  3.2             0.00053923      -1.1478e-008    -8.324e-010    
  3.25            0.00053816      8.036e-009      -2.5514e-009   
  3.3             0.0005393       1.3945e-008     -2.1521e-009   
  3.35            0.00053892      1.0778e-008     -2.47e-009     
  3.4             0.00053948      1.549e-008      -1.7156e-009   
  3.45            0.00053946      1.2693e-008     -2.2175e-009   
  3.5             0.00053916      9.427e-009      -2.4906e-009   
  3.55            0.00053953      1.3805e-008     -1.7781e-009   
  3.6             0.00054024      1.0279e-008     -2.2699e-009   
  3.65            0.00054077      6.635e-009      -2.5065e-009   
  3.7             0.00054121      1.0592e-008     -1.8634e-009   
  3.75            0.00054136      6.169e-009      -2.321e-009    
  3.8             0.00053982      -1.6832e-008    -2.1155e-009   
  3.85            0.0005409       2.623e-009      -2.2632e-009   
  3.9             0.00054033      -1.7735e-008    -2.5591e-009   
  3.95            0.00054118      -8.921e-009     4.3e-012       
  4               0.00054112      -3.8662e-008    1.9937e-009    
  4.05            0.00054055      -3.347e-008     -2.2054e-009   
  4.1             0.0005417       -2.0884e-008    6.798e-010     
  4.15            0.00054207      -6.0085e-008    2.5875e-009    
