! VERSION = 6.00
BEGIN_HEADER
 ICCAP_INPUTS
  VG         V  B GROUND SMU4 0.001 LIN        2    0          5          6    1         
  VS         V  E GROUND SMU2 0.1 CON        0
  VD         V  S GROUND SMU1 0.1 LIN        1    0          5          101  0.05      
  VB         V  C GROUND SMU3 0.1 LIN        3    0          -2.5       2    -2.5      
 ICCAP_OUTPUTS
  ID         I  S GROUND SMU1 B
  IB         I  C GROUND SMU3 B
  IG         I  B GROUND SMU4 B
END_HEADER

BEGIN_DB
 ICCAP_VAR VG         0              
 ICCAP_VAR VS         0              
 ICCAP_VAR VB         0              

 #VD              ID              IB              IG             
  0               -3.4409e-007    2.2696e-007     -1.3027e-009   
  0.05            -5.3441e-007    1.5618e-007     -3.2251e-009   
  0.1             -3.8509e-007    4.7915e-007     -3.696e-008    
  0.15            -4.99e-009      1.9572e-007     -7.5e-009      
  0.2             -6.4694e-008    5.0662e-007     -1.517e-008    
  0.25            1.943e-009      5.078e-007      -5.2837e-007   
  0.3             5.4659e-008     3.8011e-007     -2.5265e-007   
  0.35            2.3962e-008     5.1243e-007     -1.018e-008    
  0.4             1.79e-009       5.0581e-007     -1.465e-008    
  0.45            4.9443e-008     3.6765e-007     -5.3197e-007   
  0.5             5.7429e-008     4.2355e-007     -2.0792e-007   
  0.55            1.9414e-008     5.1603e-007     -1.955e-008    
  0.6             2.247e-009      5.0719e-007     -1.0068e-007   
  0.65            6.5679e-008     1.7171e-007     -9.39e-009     
  0.7             1.8e-009        5.0815e-007     -1.456e-008    
  0.75            5.3586e-008     3.5614e-007     -5.1674e-007   
  0.8             5.7319e-008     4.391e-007      -1.5561e-007   
  0.85            6.6955e-008     2.0873e-007     -4.38e-009     
  0.9             1.258e-009      5.0057e-007     -5.4592e-007   
  0.95            6.1782e-008     3.9767e-007     -1.2463e-007   
  1               6.7242e-008     1.7235e-007     -9.51e-009     
  1.05            1.885e-009      5.0611e-007     -1.439e-008    
  1.1             5.4699e-008     3.5414e-007     -5.223e-007    
  1.15            5.8443e-008     4.3889e-007     -1.5377e-007   
  1.2             6.8232e-008     1.816e-007      -6.41e-009     
  1.25            1.577e-009      5.0593e-007     -5.7323e-007   
  1.3             6.6286e-008     3.4212e-007     -1.2124e-007   
  1.35            6.8689e-008     1.728e-007      -9.51e-009     
  1.4             1.921e-009      5.0687e-007     -1.432e-008    
  1.45            5.5766e-008     3.5449e-007     -5.1968e-007   
  1.5             6.0508e-008     4.3968e-007     -1.5467e-007   
  1.55            6.9648e-008     2.0907e-007     -4.38e-009     
  1.6             1.372e-009      5.0873e-007     -5.5175e-007   
  1.65            6.4341e-008     3.9964e-007     -1.2126e-007   
  1.7             7.0181e-008     1.7311e-007     -9.56e-009     
  1.75            1.937e-009      5.0891e-007     -1.473e-008    
  1.8             5.649e-008      3.5464e-007     -5.2382e-007   
  1.85            6.1109e-008     4.3963e-007     -1.545e-007    
  1.9             7.0528e-008     1.8251e-007     -6.86e-009     
  1.95            1.708e-009      5.0719e-007     -5.6744e-007   
  2               6.8633e-008     3.3981e-007     -1.0333e-007   
  2.05            7.1093e-008     1.8458e-007     -6.29e-009     
  2.1             1.733e-009      5.0447e-007     -5.693e-007    
  2.15            6.8966e-008     3.4597e-007     -1.0637e-007   
  2.2             7.1198e-008     1.7063e-007     -9.5e-009      
  2.25            2.007e-009      5.0615e-007     -1.471e-008    
  2.3             5.8531e-008     3.5413e-007     -5.2341e-007   
  2.35            6.2292e-008     4.3921e-007     -1.21e-007     
  2.4             7.234e-008      1.8423e-007     -6.4e-009      
  2.45            1.786e-009      5.0847e-007     -5.6803e-007   
  2.5             6.9986e-008     3.4737e-007     -1.2395e-007   
  2.55            7.2515e-008     1.8482e-007     -6.43e-009     
  2.6             1.671e-009      5.061e-007      -1.435e-008    
  2.65            6.5223e-008     3.1321e-007     -4.8975e-007   
  2.7             5.7454e-008     4.7472e-007     -1.4922e-007   
  2.75            1.51e-008       5.1561e-007     -1.692e-008    
  2.8             2.204e-009      5.0759e-007     -5.4913e-007   
  2.85            6.4754e-008     4.1156e-007     -2.2195e-007   
  2.9             7.3438e-008     1.5026e-007     -1.88e-008     
  2.95            2.288e-009      5.1102e-007     -1.0242e-007   
  3               7.3635e-008     1.7135e-007     -1.248e-008    
  3.05            2.414e-009      5.0672e-007     -1.489e-008    
  3.1             5.5126e-008     3.7674e-007     -5.4296e-007   
  3.15            6.6479e-008     4.1805e-007     -1.3317e-007   
  3.2             7.4269e-008     1.7517e-007     -8.62e-009     
  3.25            2.033e-009      5.0724e-007     -1.435e-008    
  3.3             6.2159e-008     3.4114e-007     -5.1335e-007   
  3.35            6.2586e-008     4.5645e-007     -1.7073e-007   
  3.4             7.4883e-008     2.2077e-007     -3.82e-009     
  3.45            1.462e-009      4.9894e-007     1.68e-010      
  3.5             6.8226e-008     4.5229e-007     -5.6903e-007   
  3.55            7.2429e-008     3.4335e-007     -1.2413e-007   
  3.6             7.4886e-008     1.8809e-007     -6.52e-009     
  3.65            1.84e-009       5.083e-007      -5.6693e-007   
  3.7             7.2378e-008     3.495e-007      -1.0643e-007   
  3.75            7.5311e-008     1.8715e-007     -6.53e-009     
  3.8             1.78e-009       5.0527e-007     -5.6725e-007   
  3.85            7.2013e-008     3.5316e-007     -1.029e-007    
  3.9             7.5539e-008     1.7497e-007     -9.76e-009     
  3.95            2.147e-009      5.0619e-007     -1.466e-008    
  4               6.2009e-008     3.4571e-007     -5.2136e-007   
  4.05            6.458e-008      4.4615e-007     -1.655e-007    
  4.1             7.6131e-008     2.1551e-007     -4.47e-009     
  4.15            1.548e-009      5.0186e-007     -5.4749e-007   
  4.2             6.9268e-008     4.0675e-007     -1.2795e-007   
  4.25            7.6011e-008     1.7388e-007     -9.11e-009     
  4.3             2.163e-009      5.0805e-007     -1.482e-008    
  4.35            6.2655e-008     3.4979e-007     -5.2473e-007   
  4.4             6.6062e-008     4.4487e-007     -1.2459e-007   
  4.45            7.6529e-008     1.8541e-007     -6.89e-009     
  4.5             1.868e-009      5.062e-007      -1.457e-008    
  4.55            6.8893e-008     3.1637e-007     -4.9209e-007   
  4.6             6.0795e-008     4.7239e-007     -1.5239e-007   
  4.65            1.6264e-008     5.1448e-007     -1.699e-008    
  4.7             2.274e-009      5.1126e-007     -5.5557e-007   
  4.75            6.8887e-008     4.0575e-007     -2.2322e-007   
  4.8             7.7264e-008     1.2128e-007     -2.292e-008    
  4.85            2.609e-009      5.0507e-007     -1.0673e-007   
  4.9             7.8103e-008     2.85e-009       -2.7096e-007   
  4.95            3.0876e-008     5.1823e-007     -2.77e-008     
  5               2.905e-009      5.0916e-007     -1.0889e-007   
END_DB

BEGIN_DB
 ICCAP_VAR VG         1              
 ICCAP_VAR VS         0              
 ICCAP_VAR VB         0              

 #VD              ID              IB              IG             
  0               -5.6755e-007    3.7457e-007     5.406e-010     
  0.05            4.2826e-006     1.4421e-008     -2.4293e-009   
  0.1             7.2374e-006     9.729e-008      1.9073e-009    
  0.15            9.1153e-006     1.7e-010        -1.0872e-009   
  0.2             1.0253e-005     4.2753e-007     2.7278e-009    
  0.25            1.03225e-005    8.822e-008      1.5112e-009    
  0.3             1.09956e-005    5.81e-008       -1.8705e-009   
  0.35            1.10439e-005    6.24e-009       1.2718e-009    
  0.4             1.1211e-005     -2.1e-009       2.6494e-009    
  0.45            1.1299e-005     2.94e-009       -1.7271e-009   
  0.5             1.118e-005      7.42e-009       1.4735e-009    
  0.55            1.1425e-005     -2.09e-009      -1.1548e-009   
  0.6             1.1459e-005     -2.128e-009     2.7068e-009    
  0.65            1.1394e-005     -2.32e-009      2.0086e-009    
  0.7             1.1497e-005     -2.92e-009      -1.6882e-009   
  0.75            1.1338e-005     6.9e-009        1.4035e-009    
  0.8             1.155e-005      1.8476e-007     -1.8873e-009   
  0.85            1.1506e-005     7.3e-009        2.0985e-009    
  0.9             1.1563e-005     -3.13e-009      -1.7651e-009   
  0.95            1.1514e-005     1.2087e-007     1.3426e-009    
  1               1.1587e-005     1.047e-008      -2.367e-009    
  1.05            1.161e-005      6.637e-009      -2.5157e-009   
  1.1             1.1724e-005     1.5442e-008     -1.8848e-009   
  1.15            1.1501e-005     7.34e-009       -3.562e-009    
  1.2             1.166e-005      6.1146e-008     -4.8162e-008   
  1.25            1.1668e-005     6.3001e-008     -6.4481e-008   
  1.3             1.1687e-005     6.2024e-008     -6.8847e-008   
  1.35            1.1722e-005     6.0987e-008     -6.9976e-008   
  1.4             1.1715e-005     6.0873e-008     -7.3296e-008   
  1.45            1.1742e-005     6.1871e-008     -7.1857e-008   
  1.5             1.1752e-005     6.1649e-008     -6.954e-008    
  1.55            1.1772e-005     6.1769e-008     -6.8479e-008   
  1.6             1.1789e-005     6.2009e-008     -6.7904e-008   
  1.65            1.1817e-005     6.143e-008      -6.8706e-008   
  1.7             1.1818e-005     6.1829e-008     -6.8844e-008   
  1.75            1.1846e-005     6.3666e-008     -7.0106e-008   
  1.8             1.1853e-005     6.3743e-008     -7.0211e-008   
  1.85            1.1876e-005     5.9831e-008     -7.2633e-008   
  1.9             1.1884e-005     5.9975e-008     -7.146e-008    
  1.95            1.19e-005       6.1918e-008     -7.3167e-008   
  2               1.1908e-005     6.3279e-008     -7.5438e-008   
  2.05            1.1936e-005     6.2894e-008     -6.819e-008    
  2.1             1.1947e-005     6.2869e-008     -6.985e-008    
  2.15            1.1974e-005     6.2574e-008     -6.8025e-008   
  2.2             1.1969e-005     6.3548e-008     -7.0632e-008   
  2.25            1.1985e-005     6.5017e-008     -6.9767e-008   
  2.3             1.1989e-005     6.269e-008      -7.0909e-008   
  2.35            1.2006e-005     6.1602e-008     -7.1429e-008   
  2.4             1.2023e-005     6.0559e-008     -7.2235e-008   
  2.45            1.2039e-005     6.3112e-008     -7.5188e-008   
  2.5             1.2056e-005     6.1035e-008     -6.9636e-008   
  2.55            1.2065e-005     6.203e-008      -7.0907e-008   
  2.6             1.2078e-005     6.2198e-008     -7.0146e-008   
  2.65            1.2087e-005     6.499e-008      -7.073e-008    
  2.7             1.2104e-005     6.3094e-008     -6.9907e-008   
  2.75            1.2121e-005     6.3842e-008     -7.1873e-008   
  2.8             1.212e-005      6.2317e-008     -6.9156e-008   
  2.85            1.2135e-005     6.0881e-008     -7.37e-008     
  2.9             1.215e-005      6.0834e-008     -7.4319e-008   
  2.95            1.2162e-005     6.1008e-008     -7.4555e-008   
  3               1.2184e-005     6.2121e-008     -7.222e-008    
  3.05            1.2184e-005     5.9612e-008     -6.8241e-008   
  3.1             1.2202e-005     6.3604e-008     -7.0635e-008   
  3.15            1.2215e-005     6.198e-008      -6.9146e-008   
  3.2             1.2215e-005     6.3684e-008     -6.9826e-008   
  3.25            1.2233e-005     6.1602e-008     -7.0161e-008   
  3.3             1.2253e-005     6.2533e-008     -7.2349e-008   
  3.35            1.2254e-005     5.9481e-008     -7.3852e-008   
  3.4             1.2267e-005     6.0239e-008     -7.2896e-008   
  3.45            1.2289e-005     5.9635e-008     -7.2774e-008   
  3.5             1.2292e-005     6.1027e-008     -7.3015e-008   
  3.55            1.2305e-005     6.0214e-008     -6.8591e-008   
  3.6             1.2318e-005     5.8628e-008     -6.8535e-008   
  3.65            1.2327e-005     -4.14e-009      -6.9021e-008   
  3.7             1.2329e-005     -5.431e-009     -7.0779e-008   
  3.75            1.2353e-005     -7.028e-009     -6.9632e-008   
  3.8             1.2352e-005     -8.2e-009       -6.9296e-008   
  3.85            1.2376e-005     -9.284e-009     -7.2676e-008   
  3.9             1.2429e-005     -1.0073e-008    -8.34e-010     
  3.95            1.2396e-005     8.64e-009       -2.7105e-008   
  4               1.2395e-005     -2.538e-009     -7.0419e-008   
  4.05            1.2438e-005     -1.4515e-008    1.139e-009     
  4.1             1.2425e-005     5.1264e-008     -2.8763e-008   
  4.15            1.2424e-005     -5.412e-009     -7.4061e-008   
  4.2             1.2465e-005     -1.8357e-008    1.517e-009     
  4.25            1.246e-005      4.9979e-008     -6.7264e-008   
  4.3             1.2444e-005     1.2563e-008     -2.8932e-008   
  4.35            1.2469e-005     -1.0348e-008    -7.1834e-008   
  4.4             1.2534e-005     -2.3322e-008    1.464e-009     
  4.45            1.2496e-005     4.2662e-008     -6.4903e-008   
  4.5             1.2519e-005     -1.0507e-008    -7.2264e-008   
  4.55            1.2551e-005     -2.7212e-008    -7.1167e-008   
  4.6             1.2574e-005     -2.8304e-008    1.051e-009     
  4.65            1.2539e-005     3.7134e-008     -2.9095e-008   
  4.7             1.2559e-005     -2.1707e-008    -7.3086e-008   
  4.75            1.2586e-005     -3.5322e-008    1.464e-009     
  4.8             1.2557e-005     1.4598e-008     -2.3942e-008   
  4.85            1.26e-005       -2.3812e-008    -7.3958e-008   
  4.9             1.2643e-005     -4.1273e-008    -7.0652e-008   
  4.95            1.2645e-005     -4.3156e-008    1.021e-009     
  5               1.2588e-005     -1.4681e-008    -2.9356e-008   
END_DB

BEGIN_DB
 ICCAP_VAR VG         2              
 ICCAP_VAR VS         0              
 ICCAP_VAR VB         0              

 #VD              ID              IB              IG             
  0               -4.2462e-007    4.527e-007      2.7459e-009    
  0.05            1.7757e-005     5.493e-008      -1.9107e-009   
  0.1             3.5246e-005     1.8727e-007     2.1739e-009    
  0.15            5.225e-005      6.222e-008      -1.7536e-009   
  0.2             6.8889e-005     1.332e-008      1.5697e-009    
  0.25            8.5093e-005     -1.64e-009      -1.1899e-009   
  0.3             0.000100918     7.9e-009        1.003e-009     
  0.35            0.00011631      1.8526e-008     -1.4509e-009   
  0.4             0.00013111      1.4999e-007     -2.2698e-009   
  0.45            0.00014536      9.021e-008      2.2312e-009    
  0.5             0.00015914      2.649e-008      -1.9169e-009   
  0.55            0.00017225      1.266e-008      1.8362e-009    
  0.6             0.00018509      -2.54e-009      -1.6455e-009   
  0.65            0.00019682      7.32e-009       1.463e-009     
  0.7             0.0002086       -2.19e-009      -1.2773e-009   
  0.75            0.00021917      2.0661e-007     2.1237e-009    
  0.8             0.00022936      4.87e-009       -2.0446e-009   
  0.85            0.00023872      6.89e-009       1.9669e-009    
  0.9             0.00024763      -3.09e-009      -1.773e-009    
  0.95            0.00025524      6.97e-009       1.5888e-009    
  1               0.00026276      1.0532e-007     -2.5001e-009   
  1.05            0.0002695       1.02584e-007    -2.4099e-009   
  1.1             0.00027517      6.778e-009      1.7883e-009    
  1.15            0.00028049      6.6539e-008     2.723e-009     
  1.2             0.00028502      4.7817e-008     2.4371e-009    
  1.25            0.00028898      -2.974e-009     -1.8741e-009   
  1.3             0.00029254      1.5872e-008     -2.441e-009    
  1.35            0.00029473      6.938e-009      1.7265e-009    
  1.4             0.00029766      2.1271e-008     -1.2333e-009   
  1.45            0.00029928      5.978e-009      1.872e-009     
  1.5             0.0003012       1.5032e-008     -1.3595e-009   
  1.55            0.00030266      1.5325e-008     -1.7789e-009   
  1.6             0.00030393      1.5861e-008     -2.3032e-009   
  1.65            0.00030489      2.1346e-008     -1.2344e-009   
  1.7             0.00030574      1.5353e-008     -1.874e-009    
  1.75            0.00030665      1.5472e-008     -2.3673e-009   
  1.8             0.00030727      2.3359e-008     -1.2532e-009   
  1.85            0.00030792      1.5603e-008     -1.9661e-009   
  1.9             0.00030859      1.5023e-008     -2.4274e-009   
  1.95            0.00030903      2.4857e-008     -1.27e-009     
  2               0.00030957      1.5797e-008     -2.0546e-009   
  2.05            0.00031017      1.4409e-008     -1.2362e-009   
  2.1             0.00031048      1.5215e-008     -1.8555e-009   
  2.15            0.00031098      1.5917e-008     -2.9456e-009   
  2.2             0.00031135      2.0625e-008     -2.6125e-009   
  2.25            0.00031172      1.5305e-008     -9.9222e-009   
  2.3             0.00031179      1.5413e-008     -2.7387e-008   
  2.35            0.00031218      1.5355e-008     -2.7814e-008   
  2.4             0.00031254      1.6159e-008     -2.4224e-008   
  2.45            0.00031279      1.5641e-008     -1.8587e-008   
  2.5             0.00031319      1.5313e-008     -1.3962e-008   
  2.55            0.00031348      2.5351e-008     -1.813e-008    
  2.6             0.00031382      2.0032e-008     -2.6041e-008   
  2.65            0.00031408      1.9159e-008     -2.667e-008    
  2.7             0.00031443      1.8188e-008     -2.7046e-008   
  2.75            0.00031465      1.7316e-008     -2.7483e-008   
  2.8             0.00031492      1.6632e-008     -2.8249e-008   
  2.85            0.00031522      1.5589e-008     -2.8536e-008   
  2.9             0.00031556      1.4444e-008     -2.9087e-008   
  2.95            0.00031583      1.5632e-008     -2.7312e-008   
  3               0.00031607      1.6069e-008     -2.2899e-008   
  3.05            0.00031633      1.5352e-008     -1.7446e-008   
  3.1             0.00031658      1.5501e-008     -1.3014e-008   
  3.15            0.00031684      2.397e-008      -1.9045e-008   
  3.2             0.00031703      1.8315e-008     -2.7166e-008   
  3.25            0.00031736      1.7402e-008     -2.7638e-008   
  3.3             0.00031756      1.6578e-008     -2.8052e-008   
  3.35            0.00031783      1.5591e-008     -2.8545e-008   
  3.4             0.00031811      1.4082e-008     -2.9009e-008   
  3.45            0.00031826      1.5137e-008     -2.7696e-008   
  3.5             0.00031858      1.5465e-008     -2.3544e-008   
  3.55            0.00031877      1.4512e-008     -1.7745e-008   
  3.6             0.000319        1.4259e-008     -1.3284e-008   
  3.65            0.00031922      1.422e-008      -1.9011e-008   
  3.7             0.00031941      1.3826e-008     -2.4426e-008   
  3.75            0.00031966      1.3636e-008     -2.4988e-008   
  3.8             0.00031986      1.3247e-008     -2.5512e-008   
  3.85            0.00032004      8.956e-009      -2.8499e-008   
  3.9             0.00032028      9.874e-009      -2.9184e-008   
  3.95            0.00032047      9.941e-009      -2.792e-008    
  4               0.00032068      9.249e-009      -2.351e-008    
  4.05            0.00032092      7.223e-009      -1.7938e-008   
  4.1             0.00032106      -7.384e-009     -2.8761e-008   
  4.15            0.00032124      -9.266e-009     -2.6624e-008   
