! VERSION = 6.00
BEGIN_HEADER
 ICCAP_INPUTS
  VG         V  B GROUND SMU4 0.001 LIN        1    0          5          101  0.05      
  VS         V  E GROUND SMU2 0.1 CON        0
  VB         V  C GROUND SMU3 0.1 LIN        3    0          -5         3    -2.5      
  VD         V  S GROUND SMU1 0.1 LIN        2    0.1        5          2    4.9       
 ICCAP_OUTPUTS
  IG         I  B GROUND SMU4 B
  ID         I  S GROUND SMU1 B
  IB         I  C GROUND SMU3 B
END_HEADER

BEGIN_DB
 ICCAP_VAR VS         0              
 ICCAP_VAR VB         0              
 ICCAP_VAR VD         0.1            

 #VG              IG              ID              IB             
  0               -9.927e-010     -6.778e-010     -1.5401e-008   
  0.05            -1.5453e-009    1.0507e-009     2.1917e-008    
  0.1             1.391e-010      -1.4999e-009    6.219e-009     
  0.15            1.6266e-009     -7.03e-010      -2.1744e-008   
  0.2             1.5913e-009     1.7281e-009     -9.382e-009    
  0.25            -1.6603e-009    9.941e-010      2.0195e-008    
  0.3             2.6349e-009     -1.4385e-009    5.402e-009     
  0.35            -1.6273e-009    1.0566e-009     2.0735e-008    
  0.4             2.6172e-009     -1.3028e-009    5.528e-009     
  0.45            -1.5903e-009    1.6406e-009     2.1162e-008    
  0.5             -1.3903e-009    2.053e-009      5.829e-009     
  0.55            -2.4878e-009    7.8051e-009     7.793e-009     
  0.6             2.3562e-009     2.6486e-008     8.509e-009     
  0.65            1.6799e-009     8.6076e-008     -4.337e-009    
  0.7             -1.1895e-009    2.7465e-007     1.768e-008     
  0.75            -6.7e-011       8.0666e-007     -1.0346e-008   
  0.8             2.2838e-009     2.105e-006      1.5504e-008    
  0.85            -1.4714e-009    4.8957e-006     1.9026e-008    
  0.9             -2.5572e-009    9.1845e-006     6.999e-009     
  0.95            2.6355e-009     1.4658e-005     -9.765e-009    
  1               -2.0779e-009    2.0872e-005     1.224e-008     
  1.05            2.4817e-009     2.6784e-005     -2.3736e-008   
  1.1             6.877e-010      3.2712e-005     8.894e-009     
  1.15            -1.479e-009     3.8272e-005     1.9043e-008    
  1.2             -2.5556e-009    4.3307e-005     6.77e-009      
  1.25            2.4455e-009     4.7848e-005     -2.407e-008    
  1.3             2.3782e-009     5.221e-005      5.711e-009     
  1.35            5.383e-010      5.6284e-005     8.7e-009       
  1.4             -1.6614e-009    6.0051e-005     1.6802e-008    
  1.45            -1.2671e-009    6.3557e-005     5.371e-009     
  1.5             -2.5886e-009    6.6857e-005     9.312e-009     
  1.55            1.8778e-009     6.9888e-005     -1.7058e-008   
  1.6             2.4781e-009     7.2824e-005     -8.528e-009    
  1.65            6.808e-010      7.5637e-005     8.937e-009     
  1.7             -1.4852e-009    7.8293e-005     1.8786e-008    
  1.75            -2.5535e-009    8.0802e-005     6.672e-009     
  1.8             2.4608e-009     8.3129e-005     -2.3949e-008   
  1.85            2.3707e-009     8.5387e-005     5.711e-009     
  1.9             -1.3526e-009    8.764e-005      2.1158e-008    
  1.95            -2.5863e-009    8.971e-005      8.29e-009      
  2               2.2702e-009     9.1669e-005     -2.3607e-008   
  2.05            1.5823e-009     9.3593e-005     -5.297e-009    
  2.1             2.5983e-009     9.5426e-005     -9.191e-009    
  2.15            -2.1398e-009    9.725e-005      1.1784e-008    
  2.2             2.5259e-009     9.8897e-005     -2.3647e-008   
  2.25            6.411e-010      0.000100554     8.882e-009     
  2.3             -1.528e-009     0.000102161     1.8361e-008    
  2.35            -2.5373e-009    0.000103682     6.367e-009     
  2.4             2.5006e-009     0.000105137     -2.3817e-008   
  2.45            -1.2676e-009    0.000106597     2.2999e-008    
  2.5             -2.5826e-009    0.000107968     9.493e-009     
  2.55            1.86e-009       0.000109284     -1.7625e-008   
  2.6             2.4907e-009     0.000110572     -8.644e-009    
  2.65            -2.4396e-009    0.000111856     2.3293e-008    
  2.7             -1.9345e-009    0.000113047     1.296e-009     
  2.75            -1.8211e-009    0.00011439      -2.4011e-008   
  2.8             -2.5475e-009    0.00011553      -5.983e-009    
  2.85            2.4829e-009     0.00011662      -2.3922e-008   
  2.9             6.893e-010      0.0001177       8.868e-009     
  2.95            -1.4777e-009    0.00011876      1.888e-008     
  3               -2.5582e-009    0.00011979      6.937e-009     
  3.05            2.4529e-009     0.00012076      -2.3963e-008   
  3.1             2.3785e-009     0.00012167      5.927e-009     
  3.15            -1.3488e-009    0.00012268      2.1089e-008    
  3.2             -2.5889e-009    0.00012357      8.562e-009     
  3.25            2.2721e-009     0.00012448      -2.3578e-008   
  3.3             1.5826e-009     0.00012532      -4.939e-009    
  3.35            2.6026e-009     0.00012614      -9.379e-009    
  3.4             -2.2876e-009    0.00012701      2.489e-008     
  3.45            -7.739e-010     0.00012777      -9.802e-009    
  3.5             1.5558e-009     0.00012857      -1.9482e-008   
  3.55            2.6149e-009     0.00012931      -9.279e-009    
  3.6             -2.1129e-009    0.00013009      1.2023e-008    
  3.65            2.5078e-009     0.00013077      -2.3794e-008   
  3.7             6.644e-010      0.00013148      8.924e-009     
  3.75            -1.4977e-009    0.00013219      1.8629e-008    
  3.8             -2.5481e-009    0.00013283      6.648e-009     
  3.85            2.478e-009      0.00013347      -2.3999e-008   
  3.9             2.3635e-009     0.00013406      6.039e-009     
  3.95            -1.3653e-009    0.00013476      2.0948e-008    
  4               -2.5849e-009    0.00013531      8.153e-009     
  4.05            2.3002e-009     0.00013592      -2.374e-008    
  4.1             1.6039e-009     0.00013652      -4.84e-009     
  4.15            2.5915e-009     0.00013705      -9.307e-009    
  4.2             -2.3057e-009    0.00013765      2.4728e-008    
  4.25            -1.7264e-009    0.00013814      2.185e-009     
  4.3             -1.3005e-009    0.00013868      4.809e-009     
  4.35            -2.5909e-009    0.0001392       8.974e-009     
  4.4             1.9786e-009     0.00013974      -1.6293e-008   
  4.45            2.4346e-009     0.00014019      -7.747e-009    
  4.5             -1.2914e-009    0.0001407       2.2381e-008    
  4.55            -2.588e-009     0.00014113      9.1e-009       
  4.6             1.9349e-009     0.0001416       -1.688e-008    
  4.65            2.4525e-009     0.00014204      -8.089e-009    
  4.7             -1.2789e-009    0.00014247      2.2886e-008    
  4.75            -2.5846e-009    0.00014288      9.174e-009     
  4.8             1.8944e-009     0.0001433       -1.7275e-008   
  4.85            2.4759e-009     0.0001437       -8.461e-009    
  4.9             -2.3503e-009    0.00014412      1.031e-008     
  4.95            -1.7843e-009    0.00014445      2.142e-009     
  5               -2.5566e-009    0.00014487      -5.799e-009    
END_DB

BEGIN_DB
 ICCAP_VAR VS         0              
 ICCAP_VAR VB         0              
 ICCAP_VAR VD         5              

 #VG              IG              ID              IB             
  0               1.0113e-009     1.1569e-009     1.0242e-008    
  0.05            2.193e-009      -4.428e-010     -1.7919e-008   
  0.1             1.2798e-009     2.1887e-009     -6.074e-009    
  0.15            -2.1605e-009    7.711e-010      1.4862e-008    
  0.2             2.7e-009        -8.282e-010     -2.3979e-008   
  0.25            -1.752e-009     9.794e-010      1.874e-008     
  0.3             -2.15e-011      -1.5753e-009    -5.54e-009     
  0.35            2.711e-009      -7.476e-010     -2.3788e-008   
  0.4             -1.8063e-009    1.1787e-009     1.8264e-008    
  0.45            -1.5343e-009    6.034e-010      4.471e-009     
  0.5             -1.3578e-009    2.8854e-009     5.682e-009     
  0.55            2.7203e-009     1.1433e-008     8.74e-009      
  0.6             2.476e-009      3.5707e-008     -1.745e-009    
  0.65            -8.74e-010      1.1136e-007     1.1203e-008    
  0.7             -1.2186e-009    3.4471e-007     -1.1056e-008   
  0.75            -1.5951e-009    9.9157e-007     -1.5677e-008   
  0.8             2.2136e-009     2.6099e-006     -9.466e-009    
  0.85            1.4959e-009     6.0015e-006     -4.244e-008    
  0.9             -1.313e-009     1.2604e-005     -7.217e-008    
  0.95            2.4902e-009     2.229e-005      -1.2842e-007   
  1               2.7155e-009     3.6087e-005     -1.7532e-007   
  1.05            2.6061e-009     5.4002e-005     -2.4994e-007   
  1.1             2.0546e-009     7.5574e-005     -3.2489e-007   
  1.15            2.3926e-009     0.000101348     -4.0465e-007   
  1.2             2.5044e-009     0.00013043      -4.5899e-007   
  1.25            1.8588e-009     0.00016246      -5.3591e-007   
  1.3             2.4791e-009     0.00019749      -5.9752e-007   
  1.35            2.7136e-009     0.00023566      -6.3173e-007   
  1.4             2.6128e-009     0.00027613      -6.7335e-007   
  1.45            2.0708e-009     0.00031875      -7.0113e-007   
  1.5             2.3823e-009     0.00036345      -7.2073e-007   
  1.55            2.6744e-009     0.00041061      -7.1446e-007   
  1.6             2.6837e-009     0.00045934      -7.1646e-007   
  1.65            2.2761e-009     0.0005096       -7.0598e-007   
  1.7             1.5804e-009     0.00056126      -6.9013e-007   
  1.75            2.593e-009      0.00061467      -6.6878e-007   
  1.8             2.7236e-009     0.00066986      -6.2778e-007   
  1.85            2.4433e-009     0.0007255       -5.9602e-007   
  1.9             1.7802e-009     0.0007826       -5.6032e-007   
  1.95            2.5102e-009     0.00084058      -5.2551e-007   
  2               2.7226e-009     0.00089991      -4.7218e-007   
  2.05            2.5767e-009     0.00095977      -4.3581e-007   
  2.1             1.9975e-009     0.0010203       -3.9675e-007   
  2.15            2.414e-009      0.00108147      -3.6113e-007   
  2.2             1.4389e-009     0.0011445       -3.0466e-007   
  2.25            2.6515e-009     0.0012068       -2.8774e-007   
  2.3             2.6946e-009     0.0012707       -2.4491e-007   
  2.35            2.3073e-009     0.0013341       -2.149e-007    
  2.4             1.6135e-009     0.0013984       -1.8871e-007   
  2.45            2.5751e-009     0.0014631       -1.6668e-007   
  2.5             2.7198e-009     0.001529        -1.3192e-007   
  2.55            2.4704e-009     0.0015945       -1.1402e-007   
  2.6             1.82e-009       0.0016604       -9.749e-008    
  2.65            -2.4024e-009    0.0017285       -5.4e-008      
  2.7             -1.8453e-009    0.0017944       -6.2161e-008   
  2.75            -1.3407e-009    0.0018613       -4.7978e-008   
  2.8             -2.581e-009     0.0019296       -3.4043e-008   
  2.85            -2.4914e-009    0.0019964       -3.4749e-008   
  2.9             -2.039e-009     0.0020642       -2.561e-008    
  2.95            -1.4523e-009    0.0021324       -1.8177e-008   
  3               -2.5854e-009    0.0021996       -2.0837e-008   
  3.05            -1.9248e-009    0.0022676       -2.1723e-008   
  3.1             -2.2495e-009    0.0023352       -1.7633e-008   
  3.15            -1.4476e-009    0.0024051       -1.7666e-008   
  3.2             -1.7724e-009    0.0024726       -1.5956e-008   
  3.25            -8.343e-010     0.0025401       -1.4516e-008   
  3.3             -1.1701e-009    0.0026092       -1.2519e-008   
  3.35            -4.15e-011      0.0026754       -1.2902e-008   
  3.4             -5.015e-010     0.0027443       -1.1551e-008   
  3.45            -9.199e-010     0.0028133       -1.1053e-008   
  3.5             2.6463e-009     0.0028804       -1.348e-008    
  3.55            -1.3485e-009    0.00295         1.9924e-008    
  3.6             -2.5825e-009    0.0030176       7.74e-009      
  3.65            2.3062e-009     0.003084        -2.474e-008    
  3.7             1.5895e-009     0.0031511       -5.377e-009    
  3.75            2.5908e-009     0.0032186       -9.424e-009    
  3.8             -2.1837e-009    0.0032869       1.1734e-008    
  3.85            2.5668e-009     0.0033511       -2.3957e-008   
  3.9             6.217e-010      0.0034183       8.862e-009     
  3.95            -1.5454e-009    0.0034839       1.7637e-008    
  4               -2.5284e-009    0.0035487       5.853e-009     
  4.05            2.5432e-009     0.0036112       -2.4103e-008   
  4.1             6.435e-010      0.0036755       8.983e-009     
  4.15            -1.5118e-009    0.0037381       1.7902e-008    
  4.2             -2.5376e-009    0.003799        6.214e-009     
  4.25            2.5187e-009     0.0038574       -2.4106e-008   
  4.3             2.3508e-009     0.003917        6.248e-009     
  4.35            4.946e-010      0.0039751       8.655e-009     
  4.4             -1.725e-009     0.0040325       1.5676e-008    
  4.45            -1.2811e-009    0.0040873       4.9e-009       
  4.5             -2.5884e-009    0.0041405       8.752e-009     
  4.55            1.9515e-009     0.0041909       -1.6572e-008   
  4.6             2.446e-009      0.0042409       -7.923e-009    
  4.65            6.309e-010      0.0042909       8.967e-009     
  4.7             -1.5333e-009    0.004338        1.7812e-008    
  4.75            -2.5312e-009    0.0043836       6.215e-009     
  4.8             2.5359e-009     0.0044265       -2.406e-008    
  4.85            -1.3351e-009    0.0044702       1.4129e-008    
  4.9             -2.5827e-009    0.0045116       8.273e-009     
  4.95            2.075e-009      0.0045507       -1.5556e-008   
  5               2.3951e-009     0.004589        -7.018e-009    
END_DB

BEGIN_DB
 ICCAP_VAR VS         0              
 ICCAP_VAR VB         -2.5           
 ICCAP_VAR VD         0.1            

 #VG              IG              ID              IB             
  0               -1.1783e-009    -8.908e-010     8.938e-009     
  0.05            -2.582e-009     3.069e-010      1.0534e-008    
  0.1             2.208e-009      -4.528e-010     -1.7754e-008   
  0.15            1.2753e-009     2.1921e-009     -6.049e-009    
  0.2             -2.1781e-009    7.527e-010      1.4775e-008    
  0.25            -3.591e-010     -1.8012e-009    3.02e-009      
  0.3             -5.609e-010     -1.8583e-009    -1.0037e-008   
  0.35            2.2678e-009     -4.128e-010     -1.7199e-008   
  0.4             1.2391e-009     2.2274e-009     -5.192e-009    
  0.45            -2.2242e-009    7.179e-010      1.4136e-008    
  0.5             -5.882e-010     -1.8648e-009    -9.854e-009    
  0.55            2.2386e-009     -4.369e-010     -1.763e-008    
  0.6             1.2607e-009     2.2061e-009     -5.614e-009    
  0.65            -2.1988e-009    7.369e-010      1.4613e-008    
  0.7             2.7052e-009     -8.208e-010     -2.3566e-008   
  0.75            -1.8098e-009    9.434e-010      1.8435e-008    
  0.8             -6.445e-010     -1.8743e-009    4.555e-009     
  0.85            2.4871e-009     -1.0504e-009    -9.686e-009    
  0.9             -2.5681e-009    3.694e-010      1.0498e-008    
  0.95            2.1118e-009     -4.009e-010     -1.8437e-008   
  1               2.2358e-009     1.6301e-009     -6.633e-009    
  1.05            -1.9133e-009    3.0898e-009     1.7489e-008    
  1.1             -8.227e-010     6.6812e-009     -9.709e-009    
  1.15            2.6207e-009     2.8744e-008     1.6711e-008    
  1.2             -2.1453e-009    7.3213e-008     1.2083e-008    
  1.25            8.928e-010      1.6703e-007     -1.5157e-008   
  1.3             -2.4175e-009    3.734e-007      1.2621e-008    
  1.35            -1.8749e-009    8.8043e-007     1.793e-009     
  1.4             -2.1645e-009    2.2104e-006     -1.5787e-008   
  1.45            1.695e-009      5.1426e-006     -1.8383e-008   
  1.5             2.5654e-009     1.00769e-005    -9.203e-009    
  1.55            -2.5365e-009    1.6587e-005     8.837e-009     
  1.6             2.5553e-009     2.3332e-005     -2.3861e-008   
  1.65            6.352e-010      3.009e-005      8.991e-009     
  1.7             -1.5328e-009    3.6263e-005     1.7892e-008    
  1.75            -2.5441e-009    4.1822e-005     6.106e-009     
  1.8             2.5291e-009     4.6743e-005     -2.3873e-008   
  1.85            6.548e-010      5.1416e-005     8.976e-009     
  1.9             -1.503e-009     5.5661e-005     1.8012e-008    
  1.95            -2.5493e-009    5.9516e-005     6.62e-009      
  2               -9.122e-010     6.3061e-005     -1.0046e-008   
  2.05            2.6568e-009     6.6295e-005     -1.2762e-008   
  2.1             -1.3631e-009    6.9508e-005     2.0396e-008    
  2.15            -2.5853e-009    7.2401e-005     7.977e-009     
  2.2             2.1398e-009     7.5087e-005     -1.5275e-008   
  2.25            1.4463e-009     7.7653e-005     -6.378e-009    
  2.3             2.6561e-009     8.0077e-005     -8.742e-009    
  2.35            -2.0343e-009    8.2453e-005     1.3068e-008    
  2.4             -9.512e-010     8.4613e-005     -9.881e-009    
  2.45            1.748e-010      8.6613e-005     -1.2021e-008   
  2.5             2.7106e-009     8.865e-005      -2.0838e-008   
  2.55            -1.4871e-009    9.0595e-005     1.8285e-008    
  2.6             -2.5504e-009    9.2405e-005     6.72e-009      
  2.65            -9.22e-010      9.413e-005      -9.952e-009    
  2.7             2.6454e-009     9.5723e-005     -1.2587e-008   
  2.75            -1.3529e-009    9.7416e-005     2.0588e-008    
  2.8             -2.5855e-009    9.8979e-005     8.184e-009     
  2.85            2.1169e-009     0.000100435     -1.5473e-008   
  2.9             2.383e-009      0.000101857     -6.791e-009    
  2.95            5.444e-010      0.000103247     8.777e-009     
  3               -1.6472e-009    0.000104587     1.668e-008     
  3.05            -2.4997e-009    0.000105855     5.416e-009     
  3.1             1.668e-010      0.000107017     -1.169e-008    
  3.15            2.7045e-009     0.000108274     -2.132e-008    
  3.2             -1.464e-009     0.000109456     1.8544e-008    
  3.25            -2.555e-009     0.000110568     6.937e-009     
  3.3             -9.362e-010     0.000111638     -9.93e-009     
  3.35            1.958e-010      0.000112616     -1.217e-008    
  3.4             2.7179e-009     0.000113697     -2.0674e-008   
  3.45            2.6932e-009     0.0001148       1.8014e-008    
  3.5             -1.4171e-009    0.00011576      1.9411e-008    
  3.55            -2.5684e-009    0.00011669      7.236e-009     
  3.6             -9.724e-010     0.00011761      -9.803e-009    
  3.65            1.58e-010       0.00011841      -1.1636e-008   
  3.7             2.7072e-009     0.00011932      -2.1527e-008   
  3.75            -1.4611e-009    0.00012017      1.866e-008     
  3.8             -2.5602e-009    0.00012096      6.779e-009     
  3.85            -9.41e-010      0.00012172      -9.874e-009    
  3.9             1.906e-010      0.00012243      -1.2089e-008   
  3.95            2.7172e-009     0.00012321      -2.0807e-008   
  4               -1.5049e-009    0.00012396      1.8195e-008    
  4.05            -2.5424e-009    0.00012464      6.299e-009     
  4.1             2.5136e-009     0.00012534      -2.4321e-008   
  4.15            -2.4701e-009    0.00012601      2.3221e-008    
