! VERSION = 6.00
BEGIN_HEADER
 ICCAP_INPUTS
  VG         V  B GROUND SMU4 0.001 LIN        1    0          5          101  0.05      
  VS         V  E GROUND SMU3 0.1 CON        0
  VB         V  C GROUND SMU1 0.1 LIN        3    0          -5         3    -2.5      
  VD         V  S GROUND SMU2 0.1 LIN        2    0.1        10         2    9.9       
 ICCAP_OUTPUTS
  IG         I  B GROUND SMU4 B
  ID         I  S GROUND SMU2 B
  IB         I  C GROUND SMU1 B
END_HEADER

BEGIN_DB
 ICCAP_VAR VS         0              
 ICCAP_VAR VB         0              
 ICCAP_VAR VD         0.1            

 #VG              IG              ID              IB             
  0               -2.316e-010     1.206e-009      1.2754e-008    
  0.05            -1.3067e-009    1.8938e-009     1.2164e-008    
  0.1             1.3032e-009     -1.8239e-009    -1.2468e-008   
  0.15            -1.3119e-009    1.8234e-009     1.2401e-008    
  0.2             1.3123e-009     -1.7475e-009    -1.268e-008    
  0.25            -1.322e-009     1.7679e-009     1.2612e-008    
  0.3             1.3242e-009     -1.623e-009     -1.288e-008    
  0.35            -1.3348e-009    1.8798e-009     1.2589e-008    
  0.4             9.866e-010      2.5605e-009     -5.459e-009    
  0.45            -1.3146e-009    4.3253e-009     1.2428e-008    
  0.5             1.3132e-009     7.247e-009      -1.2733e-008   
  0.55            1.3569e-009     3.2836e-008     1.2092e-008    
  0.6             4.206e-010      1.1744e-007     4.634e-009     
  0.65            -1.3434e-009    4.0651e-007     1.253e-008     
  0.7             1.3292e-009     1.3072e-006     1.1994e-008    
  0.75            -1.3599e-009    3.8246e-006     1.2418e-008    
  0.8             1.347e-009      9.0553e-006     -1.2987e-008   
  0.85            1.0723e-009     1.8004e-005     -1.2794e-008   
  0.9             -1.3119e-009    3.0554e-005     1.1692e-008    
  0.95            1.3627e-009     4.4747e-005     -1.2229e-008   
  1               -1.3389e-009    6.017e-005      1.2752e-008    
  1.05            1.3522e-009     7.5303e-005     -1.2606e-008   
  1.1             -1.3545e-009    9.05e-005       1.2749e-008    
  1.15            1.3328e-009     0.000104738     -1.2785e-008   
  1.2             9.185e-010      0.00011857      1.2749e-008    
  1.25            -1.3122e-009    0.00013172      1.2699e-008    
  1.3             1.364e-009      0.00014397      -1.1976e-008   
  1.35            -1.3391e-009    0.00015588      1.2866e-008    
  1.4             1.3506e-009     0.00016684      -1.2586e-008   
  1.45            -1.3512e-009    0.0001776       1.2871e-008    
  1.5             1.3291e-009     0.00018754      -1.2797e-008   
  1.55            -1.3776e-009    0.00019722      1.2773e-008    
  1.6             1.3142e-009     0.00020624      -1.3038e-008   
  1.65            -1.3771e-009    0.00021505      1.1761e-008    
  1.7             1.3416e-009     0.00022327      -1.3086e-008   
  1.75            -1.3429e-009    0.00023134      1.2506e-008    
  1.8             1.368e-009      0.00023886      -1.3072e-008   
  1.85            -1.3128e-009    0.00024623      1.2754e-008    
  1.9             1.3703e-009     0.00025316      -1.1842e-008   
  1.95            -1.326e-009     0.00025994      1.2896e-008    
  2               1.3665e-009     0.00026627      -1.2274e-008   
  2.05            -1.3411e-009    0.0002726       1.286e-008     
  2.1             1.3523e-009     0.0002785       -1.261e-008    
  2.15            -1.3542e-009    0.0002843       1.2854e-008    
  2.2             1.3308e-009     0.00028978      -1.2788e-008   
  2.25            -1.3764e-009    0.00029517      1.2754e-008    
  2.3             1.3149e-009     0.00030028      -1.3026e-008   
  2.35            -1.3761e-009    0.00030529      1.173e-008     
  2.4             1.3285e-009     0.00031         -1.3043e-008   
  2.45            -1.3683e-009    0.00031474      1.2263e-008    
  2.5             1.3381e-009     0.00031917      -1.3109e-008   
  2.55            -1.351e-009     0.00032359      1.2517e-008    
  2.6             1.3534e-009     0.00032776      -1.3158e-008   
  2.65            -1.3285e-009    0.00033187      1.2671e-008    
  2.7             1.3703e-009     0.0003358       -1.2716e-008   
  2.75            -1.3407e-009    0.00033965      1.2476e-008    
  2.8             1.3506e-009     0.00034328      -1.2671e-008   
  2.85            -1.3552e-009    0.00034693      1.2764e-008    
  2.9             1.3293e-009     0.00035037      -1.2805e-008   
  2.95            -1.377e-009     0.00035375      1.2671e-008    
  3               1.316e-009      0.00035696      -1.3046e-008   
  3.05            -1.3776e-009    0.00036018      1.1842e-008    
  3.1             1.3254e-009     0.00036322      -1.3038e-008   
  3.15            -1.37e-009      0.00036628      1.2279e-008    
  3.2             1.3414e-009     0.00036914      -1.299e-008    
  3.25            -1.3508e-009    0.00037199      1.2456e-008    
  3.3             1.3534e-009     0.00037466      -1.3078e-008   
  3.35            -1.3261e-009    0.00037737      1.2573e-008    
  3.4             1.3735e-009     0.00037996      -1.2839e-008   
  3.45            -1.3246e-009    0.00038246      1.2777e-008    
  3.5             1.3675e-009     0.00038487      -1.2177e-008   
  3.55            -1.3551e-009    0.00038725      1.2903e-008    
  3.6             1.3288e-009     0.0003895       -1.2785e-008   
  3.65            -1.3767e-009    0.00039179      1.2717e-008    
  3.7             1.3164e-009     0.00039394      -1.3009e-008   
  3.75            -1.3778e-009    0.00039603      1.1867e-008    
  3.8             1.3282e-009     0.0003981       -1.3127e-008   
  3.85            -1.3708e-009    0.00040015      1.2212e-008    
  3.9             1.3383e-009     0.00040201      -1.3087e-008   
  3.95            -1.3525e-009    0.00040393      1.2483e-008    
  4               1.3546e-009     0.00040575      -1.3149e-008   
  4.05            -1.3135e-009    0.00040754      1.1732e-008    
  4.1             1.3746e-009     0.00040926      -1.1717e-008   
  4.15            -1.3247e-009    0.00041094      1.2804e-008    
  4.2             1.3675e-009     0.00041261      -1.2156e-008   
  4.25            -1.3355e-009    0.00041422      1.2846e-008    
  4.3             1.357e-009      0.00041578      -1.251e-008    
  4.35            -1.3526e-009    0.00041724      1.2841e-008    
  4.4             1.336e-009      0.00041874      -1.2723e-008   
  4.45            -1.3754e-009    0.00042014      1.2834e-008    
  4.5             1.3285e-009     0.00042156      -1.2561e-008   
  4.55            -1.3691e-009    0.00042291      1.2299e-008    
  4.6             1.3417e-009     0.00042425      -1.3058e-008   
  4.65            -1.3471e-009    0.00042552      1.2519e-008    
  4.7             1.3548e-009     0.00042677      -1.3101e-008   
  4.75            -1.3052e-009    0.00042799      1.2623e-008    
  4.8             1.3707e-009     0.00042916      -1.2602e-008   
  4.85            -1.3436e-009    0.00043026      1.257e-008     
  4.9             1.3469e-009     0.00043138      -1.2715e-008   
  4.95            -1.373e-009     0.00043256      1.2974e-008    
  5               1.3095e-009     0.00043355      -1.2944e-008   
END_DB

BEGIN_DB
 ICCAP_VAR VS         0              
 ICCAP_VAR VB         0              
 ICCAP_VAR VD         10             

 #VG              IG              ID              IB             
  0               7.46e-011       2.1725e-009     -1.2777e-008   
  0.05            -1.3748e-009    1.4649e-009     1.2763e-008    
  0.1             1.3706e-009     -1.3906e-009    -1.2891e-008   
  0.15            -1.3751e-009    1.4122e-009     1.2819e-008    
  0.2             1.3493e-009     -7.385e-010     -1.2819e-008   
  0.25            -1.3097e-009    7.567e-010      1.1447e-008    
  0.3             1.3173e-009     -1.0705e-009    -1.2017e-008   
  0.35            -1.3204e-009    2.0986e-009     1.2417e-008    
  0.4             1.0801e-009     2.6744e-009     -6.949e-009    
  0.45            -1.3768e-009    4.1235e-009     1.1911e-008    
  0.5             1.3718e-009     1.3722e-008     1.0937e-008    
  0.55            1.3526e-009     3.9146e-008     -1.7189e-008   
  0.6             1.3689e-009     1.45e-007       -1.9724e-008   
  0.65            6.234e-010      5.1521e-007     -7.2131e-008   
  0.7             -1.3767e-009    1.705e-006      -2.6792e-007   
  0.75            -6.24e-010      4.9588e-006     -7.9188e-007   
  0.8             5.574e-010      1.2301e-005     -1.9176e-006   
  0.85            -1.3581e-009    2.6001e-005     -3.9256e-006   
  0.9             -5.654e-010     4.7795e-005     -7.1957e-006   
  0.95            5.51e-010       7.8314e-005     -1.1471e-005   
  1               1.3202e-009     0.00011832      -1.709e-005    
  1.05            1.3534e-009     0.00016803      -2.3832e-005   
  1.1             7.1e-010        0.00022847      -3.1647e-005   
  1.15            -1.3554e-009    0.00029917      -4.0498e-005   
  1.2             -7.132e-010     0.00037813      -5.0244e-005   
  1.25            1.3478e-009     0.00046598      -6.0581e-005   
  1.3             7.216e-010      0.00056418      -7.13e-005     
  1.35            -1.35e-009      0.00067239      -8.265e-005    
  1.4             -7.274e-010     0.0007851       -9.4238e-005   
  1.45            1.3419e-009     0.00090509      -0.000105715   
  1.5             1.3698e-009     0.00103243      -0.00011711    
  1.55            -8.831e-010     0.0011712       -0.0001288     
  1.6             8.589e-010      0.0013003       -0.00013891    
  1.65            -1.3379e-009    0.0014488       -0.00014971    
  1.7             1.3485e-009     0.0015982       -0.00016016    
  1.75            5.644e-010      0.0017479       -0.00016936    
  1.8             -1.3625e-009    0.0019039       -0.00017834    
  1.85            -5.733e-010     0.0020608       -0.0001865     
  1.9             1.3586e-009     0.0022232       -0.00019426    
  1.95            5.799e-010      0.0023869       -0.00020081    
  2               -1.3681e-009    0.0025496       -0.00020678    
  2.05            -5.869e-010     0.0027255       -0.00021274    
  2.1             1.3637e-009     0.0028937       -0.00021731    
  2.15            5.97e-010       0.0030732       -0.00022142    
  2.2             -1.3719e-009    0.0032427       -0.00022425    
  2.25            -6.007e-010     0.0034065       -0.00022618    
  2.3             1.3679e-009     0.0035827       -0.000228      
  2.35            6.104e-010      0.0037732       -0.00022941    
  2.4             -1.3771e-009    0.0039575       -0.00023001    
  2.45            -6.173e-010     0.0041374       -0.00022972    
  2.5             1.3712e-009     0.0043216       -0.00022898    
  2.55            6.216e-010      0.004508        -0.00022763    
  2.6             -1.3757e-009    0.0046994       -0.00022566    
  2.65            -6.278e-010     0.0048888       -0.00022321    
  2.7             1.3729e-009     0.0050757       -0.0002202     
  2.75            6.371e-010      0.0052681       -0.00021686    
  2.8             -1.3775e-009    0.0054614       -0.00021298    
  2.85            -6.406e-010     0.0056542       -0.00020869    
  2.9             1.3722e-009     0.0058451       -0.00020411    
  2.95            6.478e-010      0.0060419       -0.00019921    
  3               -1.3752e-009    0.0062379       -0.00019398    
  3.05            -6.571e-010     0.0064346       -0.00018842    
  3.1             1.368e-009      0.0066305       -0.00018276    
  3.15            6.611e-010      0.0068295       -0.00017689    
  3.2             -1.3733e-009    0.0070309       -0.00017082    
  3.25            -6.678e-010     0.007231        -0.00016458    
  3.3             1.3664e-009     0.0074315       -0.00015834    
  3.35            6.74e-010       0.0076365       -0.00015204    
  3.4             -1.3695e-009    0.0078411       -0.00014558    
  3.45            -6.797e-010     0.008045        -0.00013912    
  3.5             1.3608e-009     0.0082491       -0.00013269    
  3.55            6.889e-010      0.0084563       -0.0001264     
  3.6             -1.3624e-009    0.0086662       -0.00012003    
  3.65            -6.959e-010     0.0088734       -0.00011376    
  3.7             1.3555e-009     0.0090815       -0.00010765    
  3.75            7.023e-010      0.0092941       -0.00010167    
  3.8             1.3173e-009     0.0095028       -9.5787e-005   
  3.85            7.9e-010        0.0097165       -9.0089e-005   
  3.9             -1.3149e-009    0.0099323       -8.4496e-005   
  3.95            -7.991e-010     0.0101451       -7.9011e-005   
  4               1.3143e-009     0.0103595       -7.3816e-005   
  4.05            7.996e-010      0.0105759       -6.882e-005    
  4.1             -1.3114e-009    0.0107963       -6.4001e-005   
  4.15            -8.112e-010     0.0110136       -5.9386e-005   
  4.2             1.3099e-009     0.0112304       -5.4935e-005   
  4.25            1.3611e-009     0.011454        -5.0782e-005   
  4.3             1.3049e-009     0.011676        -4.6727e-005   
  4.35            8.342e-010      0.011897        -4.2989e-005   
  4.4             -1.3021e-009    0.012124        -3.9408e-005   
  4.45            -8.5e-010       0.012343        -3.6021e-005   
  4.5             1.3212e-009     0.012563        -3.2867e-005   
  4.55            -1.3488e-009    0.012789        -2.994e-005    
  4.6             -5.501e-010     0.013012        -2.7155e-005   
  4.65            1.349e-009      0.013235        -2.4577e-005   
  4.7             5.532e-010      0.013459        -2.2155e-005   
  4.75            -1.3586e-009    0.013685        -1.9899e-005   
  4.8             -5.615e-010     0.013908        -1.7847e-005   
  4.85            1.3543e-009     0.014134        -1.5974e-005   
  4.9             5.654e-010      0.014359        -1.4219e-005   
  4.95            -1.3674e-009    0.01459         -1.2604e-005   
  5               -5.752e-010     0.014813        -1.1158e-005   
END_DB

BEGIN_DB
 ICCAP_VAR VS         0              
 ICCAP_VAR VB         -2.5           
 ICCAP_VAR VD         0.1            

 #VG              IG              ID              IB             
  0               1.172e-009      5.3e-010        -1.163e-008    
  0.05            -1.3412e-009    1.6378e-009     1.2626e-008    
  0.1             1.3421e-009     -1.578e-009     -1.3033e-008   
  0.15            -1.3566e-009    1.5752e-009     1.2851e-008    
  0.2             1.3572e-009     -1.5107e-009    -1.3144e-008   
  0.25            -1.367e-009     1.5122e-009     1.2964e-008    
  0.3             1.3657e-009     -1.4516e-009    -1.3115e-008   
  0.35            -1.3726e-009    1.4567e-009     1.2937e-008    
  0.4             1.3687e-009     -1.396e-009     -1.3155e-008   
  0.45            -1.3755e-009    1.4043e-009     1.2888e-008    
  0.5             1.3554e-009     -7.487e-010     -1.3189e-008   
  0.55            -1.3159e-009    7.267e-010      1.1868e-008    
  0.6             1.3052e-009     -1.1568e-009    -1.1864e-008   
  0.65            -1.3092e-009    1.8336e-009     1.2371e-008    
  0.7             1.3136e-009     -1.7635e-009    -1.2692e-008   
  0.75            -1.3206e-009    1.7609e-009     1.2567e-008    
  0.8             1.3189e-009     -1.6901e-009    -1.2911e-008   
  0.85            -1.3315e-009    1.6903e-009     1.269e-008     
  0.9             1.3301e-009     -1.6213e-009    -1.2947e-008   
  0.95            -1.3444e-009    1.6203e-009     1.2789e-008    
  1               1.3471e-009     -1.5396e-009    -1.3027e-008   
  1.05            -1.3731e-009    9.98e-010       1.2441e-008    
  1.1             8.664e-010      2.3517e-009     -4.139e-009    
  1.15            -1.3539e-009    3.373e-009      1.2764e-008    
  1.2             1.3541e-009     6.9105e-009     -1.315e-008    
  1.25            1.3526e-009     3.579e-008      1.2304e-008    
  1.3             7.664e-010      1.3455e-007     -1.1684e-008   
  1.35            -1.3226e-009    4.8619e-007     1.2794e-008    
  1.4             1.3427e-009     1.6709e-006     1.2568e-008    
  1.45            -1.3763e-009    5.092e-006      1.2833e-008    
  1.5             -9.855e-010     1.2153e-005     1.2766e-008    
  1.55            1.3296e-009     2.2954e-005     -1.2574e-008   
  1.6             -1.3652e-009    3.6763e-005     1.2363e-008    
  1.65            1.3482e-009     5.1472e-005     -1.3019e-008   
  1.7             -1.3479e-009    6.6864e-005     1.2538e-008    
  1.75            1.3694e-009     8.1613e-005     -1.3085e-008   
  1.8             -1.3289e-009    9.6152e-005     1.2182e-008    
  1.85            1.3634e-009     0.000109742     -1.2425e-008   
  1.9             9.839e-010      0.00012276      1.248e-008     
  1.95            -1.3315e-009    0.00013526      1.2224e-008    
  2               1.3588e-009     0.00014684      -1.2569e-008   
  2.05            -1.3446e-009    0.00015811      1.2839e-008    
  2.1             1.3426e-009     0.00016849      -1.2807e-008   
  2.15            -1.3735e-009    0.00017864      1.29e-008      
  2.2             1.3091e-009     0.00018807      -1.3012e-008   
  2.25            -1.3766e-009    0.00019721      1.1533e-008    
  2.3             1.3176e-009     0.0002057       -1.3099e-008   
  2.35            -1.3767e-009    0.00021406      1.1971e-008    
  2.4             1.332e-009      0.0002218       -1.3052e-008   
  2.45            -1.363e-009     0.00022944      1.2276e-008    
  2.5             1.3467e-009     0.00023653      -1.3038e-008   
  2.55            -1.3486e-009    0.0002435       1.2575e-008    
  2.6             1.3564e-009     0.00025007      -1.3129e-008   
  2.65            -1.307e-009     0.00025651      1.269e-008     
  2.7             1.3717e-009     0.0002625       -1.262e-008    
  2.75            -1.3444e-009    0.00026842      1.2616e-008    
  2.8             1.3451e-009     0.0002739       -1.2703e-008   
  2.85            -1.3731e-009    0.00027936      1.2989e-008    
  2.9             1.3081e-009     0.00028447      -1.2906e-008   
  2.95            -1.37e-009      0.00028955      1.1857e-008    
  3               1.3331e-009     0.00029425      -1.3034e-008   
  3.05            -1.3594e-009    0.00029895      1.2516e-008    
  3.1             1.3493e-009     0.0003034       -1.304e-008    
  3.15            -1.336e-009     0.00030774      1.2665e-008    
  3.2             1.3721e-009     0.00031185      -1.2888e-008   
  3.25            -1.3174e-009    0.00031591      1.2757e-008    
  3.3             1.3701e-009     0.00031975      -1.2031e-008   
  3.35            -1.3288e-009    0.00032355      1.285e-008     
  3.4             1.3635e-009     0.00032716      -1.2479e-008   
  3.45            -1.3454e-009    0.00033072      1.2781e-008    
  3.5             1.3472e-009     0.00033402      -1.2735e-008   
  3.55            -1.3596e-009    0.00033738      1.2811e-008    
  3.6             1.3237e-009     0.00034054      -1.2927e-008   
  3.65            -1.3759e-009    0.00034364      1.2521e-008    
  3.7             1.3383e-009     0.00034655      -1.2767e-008   
  3.75            -1.3621e-009    0.0003495       1.2392e-008    
  3.8             1.3488e-009     0.00035225      -1.3022e-008   
  3.85            -1.3395e-009    0.00035503      1.2625e-008    
  3.9             1.3704e-009     0.00035761      -1.2954e-008   
  3.95            -1.3165e-009    0.00036016      1.277e-008     
  4               1.3689e-009     0.0003626       -1.1959e-008   
  4.05            -1.3482e-009    0.00036499      1.2585e-008    
  4.1             1.3413e-009     0.00036728      -1.2811e-008   
  4.15            -1.361e-009     0.00036954      1.2783e-008    
