! VERSION = 6.00
BEGIN_HEADER
 ICCAP_INPUTS
  VG         V  B GROUND SMU4 0.001 LIN        2    0          5          6    1         
  VS         V  E GROUND SMU2 0.1 CON        0
  VD         V  S GROUND SMU1 0.1 LIN        1    0          5          101  0.05      
  VB         V  C GROUND SMU3 0.1 LIN        3    0          -2.5       2    -2.5      
 ICCAP_OUTPUTS
  ID         I  S GROUND SMU1 B
  IB         I  C GROUND SMU3 B
  IG         I  B GROUND SMU4 B
END_HEADER

BEGIN_DB
 ICCAP_VAR VG         0              
 ICCAP_VAR VS         0              
 ICCAP_VAR VB         0              

 #VD              ID              IB              IG             
  0               1.0782e-009     -9.753e-009     1.1493e-009    
  0.05            -8.13e-011      -1.2889e-008    2.697e-009     
  0.1             1.4852e-009     2.3602e-008     -2.0868e-009   
  0.15            -2.0611e-009    4.243e-009      -4.48e-010     
  0.2             -2.0548e-009    -1.0401e-008    -6.396e-010    
  0.25            -2.0418e-009    -9.354e-009     -8.128e-010    
  0.3             -1.493e-009     -1.4599e-008    1.9306e-009    
  0.35            1.9041e-009     -7.498e-009     1.4693e-009    
  0.4             7.252e-010      1.6831e-008     -2.0334e-009   
  0.45            -2.0604e-009    4.415e-009      -4.953e-010    
  0.5             -1.316e-009     -2.3282e-008    2.4297e-009    
  0.55            2.208e-010      1.2469e-008     -2.5348e-009   
  0.6             -1.39e-009      -2.0673e-008    2.2743e-009    
  0.65            2.1251e-009     -5.35e-009      1.2872e-009    
  0.7             5.725e-010      1.5855e-008     -2.3002e-009   
  0.75            -2.0269e-009    2.62e-009       -2.604e-010    
  0.8             -3.111e-010     -1.6728e-008    2.6143e-009    
  0.85            1.6583e-009     1.5008e-008     -1.6986e-009   
  0.9             -2.0431e-009    5.087e-009      -7.277e-010    
  0.95            -1.4433e-009    -1.7463e-008    2.0991e-009    
  1               2.0262e-009     -6.369e-009     1.3805e-009    
  1.05            6.545e-010      1.6511e-008     -2.1616e-009   
  1.1             -2.0484e-009    3.703e-009      -3.896e-010    
  1.15            -1.2414e-009    -2.4467e-008    2.5359e-009    
  1.2             2.246e-009      1.0333e-008     4.537e-010     
  1.25            6.132e-010      1.6095e-008     -2.233e-009    
  1.3             -6.47e-011      -1.2744e-008    2.6953e-009    
  1.35            1.4895e-009     2.3548e-008     -2.0833e-009   
  1.4             -2.0508e-009    3.901e-009      -4.5e-010      
  1.45            -2.0446e-009    -1.0503e-008    -6.369e-010    
  1.5             -1.3942e-009    -1.9879e-008    2.2381e-009    
  1.55            2.111e-009      -5.66e-009      1.3069e-009    
  1.6             5.998e-010      1.6138e-008     -2.2711e-009   
  1.65            -2.0313e-009    2.918e-009      -2.917e-010    
  1.7             -3.282e-010     -1.6707e-008    2.6027e-009    
  1.75            1.674e-009      1.4431e-008     -1.6692e-009   
  1.8             -2.0358e-009    5.394e-009      -7.362e-010    
  1.85            -1.447e-009     -1.675e-008     2.0653e-009    
  1.9             2.012e-009      -6.605e-009     1.3961e-009    
  1.95            6.701e-010      1.6541e-008     -2.1432e-009   
  2               -2.0423e-009    3.682e-009      -3.987e-010    
  2.05            -1.2527e-009    -2.4369e-008    2.5224e-009    
  2.1             1.729e-010      1.2206e-008     -2.5506e-009   
  2.15            -1.3307e-009    -2.2668e-008    2.3901e-009    
  2.2             2.1971e-009     -4.526e-009     1.2171e-009    
  2.25            5.158e-010      1.5361e-008     -2.3777e-009   
  2.3             -1.9834e-009    1.956e-009      -1.654e-010    
  2.35            -2.225e-010     -1.6054e-008    2.6611e-009    
  2.4             1.6014e-009     1.7633e-008     -1.82e-009     
  2.45            -2.0409e-009    4.928e-009      -6.32e-010     
  2.5             -2.022e-009     -9.359e-009     -8.053e-010    
  2.55            -1.4771e-009    -1.4661e-008    1.941e-009     
  2.6             1.9283e-009     -7.219e-009     1.4622e-009    
  2.65            7.32e-010       1.6578e-008     -2.0432e-009   
  2.7             -2.0409e-009    4.453e-009      -4.815e-010    
  2.75            -1.2958e-009    -2.3509e-008    2.4448e-009    
  2.8             2.2301e-009     -4.047e-009     1.1825e-009    
  2.85            4.841e-010      1.531e-008      -2.4164e-009   
  2.9             -1.956e-009     1.713e-009      -1.235e-010    
  2.95            -1.859e-010     -1.572e-008     2.6794e-009    
  3               1.5776e-009     1.9171e-008     -1.8962e-009   
  3.05            -2.038e-009     4.87e-009       -5.826e-010    
  3.1             -1.356e-009     -2.1499e-008    2.3257e-009    
  3.15            2.1673e-009     -5.049e-009     1.2563e-009    
  3.2             5.585e-010      1.5732e-008     -2.3219e-009   
  3.25            -1.9975e-009    2.347e-009      -2.278e-010    
  3.3             -1.1275e-009    -2.5008e-008    2.6388e-009    
  3.35            1.6403e-009     1.6025e-008     -1.7479e-009   
  3.4             -2.0296e-009    5.257e-009      -6.785e-010    
  3.45            -1.407e-009     -1.8557e-008    2.1646e-009    
  3.5             2.0795e-009     -6.228e-009     1.3422e-009    
  3.55            6.358e-010      1.5952e-008     -2.2094e-009   
  3.6             -6.77e-011      -1.3184e-008    2.6998e-009    
  3.65            1.5103e-009     2.3026e-008     -2.0581e-009   
  3.7             -2.0342e-009    4.284e-009      -4.58e-010     
  3.75            -1.2771e-009    -2.3614e-008    2.4603e-009    
  3.8             2.2359e-009     -3.856e-009     1.1685e-009    
  3.85            4.696e-010      1.5014e-008     -2.4262e-009   
  3.9             -1.9363e-009    1.687e-009      -1.007e-010    
  3.95            -1.608e-010     -1.4984e-008    2.6837e-009    
  4               1.5687e-009     1.9431e-008     -1.9063e-009   
  4.05            -2.0348e-009    5.055e-009      -5.687e-010    
  4.1             -1.3421e-009    -2.1602e-008    2.3284e-009    
  4.15            2.1737e-009     -4.956e-009     1.2506e-009    
  4.2             5.51e-010       1.5448e-008     -2.3374e-009   
  4.25            -1.987e-009     2.249e-009      -2.134e-010    
  4.3             -2.0316e-009    -1.1158e-008    -4.101e-010    
  4.35            -2.0298e-009    -1.0525e-008    -5.999e-010    
  4.4             -1.3581e-009    -2.0913e-008    2.2798e-009    
  4.45            2.154e-009      -5.227e-009     1.2739e-009    
  4.5             5.798e-010      1.5615e-008     -2.3107e-009   
  4.55            -1.996e-009     2.438e-009      -2.481e-010    
  4.6             -2.0314e-009    -1.1098e-008    -4.451e-010    
  4.65            -2.026e-009     -1.0423e-008    -6.25e-010     
  4.7             -1.3741e-009    -2.0007e-008    2.2421e-009    
  4.75            2.1245e-009     -5.479e-009     1.2996e-009    
  4.8             6.045e-010      1.5765e-008     -2.2758e-009   
  4.85            -2.0045e-009    2.726e-009      -2.821e-010    
  4.9             -1.1595e-009    -2.4995e-008    2.6114e-009    
  4.95            1.6771e-009     1.4494e-008     -1.668e-009    
  5               -2.0225e-009    5.088e-009      -7.313e-010    
END_DB

BEGIN_DB
 ICCAP_VAR VG         1              
 ICCAP_VAR VS         0              
 ICCAP_VAR VB         0              

 #VD              ID              IB              IG             
  0               -2.7505e-008    1.05e-008       -1.2445e-009   
  0.05            1.8814e-006     -1.0163e-008    -2.5548e-009   
  0.1             3.1667e-006     2.0927e-008     -1.5723e-009   
  0.15            3.8813e-006     8.901e-009      1.8883e-009    
  0.2             4.2482e-006     -1.3053e-008    2.6957e-009    
  0.25            4.3886e-006     -1.2694e-008    2.6903e-009    
  0.3             4.4365e-006     -1.2184e-008    2.6859e-009    
  0.35            4.4557e-006     -1.1687e-008    2.6831e-009    
  0.4             4.4711e-006     -1.1233e-008    2.6754e-009    
  0.45            4.4714e-006     -1.0854e-008    2.6711e-009    
  0.5             4.4748e-006     -1.0443e-008    2.527e-010     
  0.55            4.5268e-006     8.205e-009      -2.5642e-009   
  0.6             4.5412e-006     2.3153e-008     -1.6589e-009   
  0.65            4.5431e-006     2.5995e-008     -1.8276e-009   
  0.7             4.544e-006      1.6104e-008     -1.7907e-009   
  0.75            4.5477e-006     1.62e-008       -1.7532e-009   
  0.8             4.5502e-006     1.629e-008      -1.714e-009    
  0.85            4.554e-006      2.6573e-008     -1.8807e-009   
  0.9             4.5529e-006     1.5965e-008     -1.838e-009    
  0.95            4.5566e-006     1.597e-008      -1.8031e-009   
  1               4.5588e-006     1.6042e-008     -1.7632e-009   
  1.05            4.5665e-006     1.6159e-008     -1.7239e-009   
  1.1             4.5621e-006     1.6134e-008     -1.6892e-009   
  1.15            4.5733e-006     2.6204e-008     -1.8611e-009   
  1.2             4.571e-006      1.59e-008       -1.8122e-009   
  1.25            4.5712e-006     1.5843e-008     -1.7832e-009   
  1.3             4.5731e-006     2.6856e-008     -1.9421e-009   
  1.35            4.5755e-006     1.55e-008       -1.9033e-009   
  1.4             4.5777e-006     1.5594e-008     -1.8665e-009   
  1.45            4.5783e-006     1.5679e-008     -1.8359e-009   
  1.5             4.5822e-006     1.5804e-008     -1.7957e-009   
  1.55            4.5834e-006     2.6757e-008     -1.9605e-009   
  1.6             4.5857e-006     1.5399e-008     -1.923e-009    
  1.65            4.5862e-006     1.5439e-008     -1.8838e-009   
  1.7             4.5864e-006     1.5436e-008     -1.8489e-009   
  1.75            4.5902e-006     1.5714e-008     -1.8132e-009   
  1.8             4.5938e-006     2.6657e-008     -1.9738e-009   
  1.85            4.5934e-006     2.7064e-008     -2.1331e-009   
  1.9             4.596e-006      1.4979e-008     -2.0979e-009   
  1.95            4.5984e-006     1.5042e-008     -2.06e-009     
  2               4.6026e-006     1.4934e-008     -2.0229e-009   
  2.05            4.6015e-006     1.5043e-008     -1.9901e-009   
  2.1             4.6026e-006     1.5138e-008     -1.9539e-009   
  2.15            4.6029e-006     1.5357e-008     -1.9262e-009   
  2.2             4.6064e-006     2.6965e-008     -2.0876e-009   
  2.25            4.6069e-006     1.4982e-008     -2.0529e-009   
  2.3             4.6087e-006     2.6757e-008     -2.2002e-009   
  2.35            4.5949e-006     8.643e-009      3.22e-011      
  2.4             4.5461e-006     -1.0407e-008    2.6895e-009    
  2.45            4.5628e-006     -1.1205e-008    2.6779e-009    
  2.5             4.5544e-006     -1.0816e-008    2.534e-010     
  2.55            4.6037e-006     8.289e-009      -2.5762e-009   
  2.6             4.6213e-006     2.2292e-008     -1.6449e-009   
  2.65            4.6196e-006     2.4976e-008     -1.8064e-009   
  2.7             4.6194e-006     1.5722e-008     -1.7664e-009   
  2.75            4.6167e-006     1.5922e-008     -1.7324e-009   
  2.8             4.6245e-006     2.5932e-008     -1.8948e-009   
  2.85            4.6275e-006     1.5327e-008     -1.8614e-009   
  2.9             4.6245e-006     2.6576e-008     -2.0234e-009   
  2.95            4.6278e-006     1.4941e-008     -1.9863e-009   
  3               4.6257e-006     1.5006e-008     -1.9516e-009   
  3.05            4.6287e-006     1.5034e-008     -1.9133e-009   
  3.1             4.6296e-006     1.5037e-008     -1.8825e-009   
  3.15            4.6302e-006     1.5178e-008     -1.8473e-009   
  3.2             4.6314e-006     1.5028e-008     -1.8044e-009   
  3.25            4.6342e-006     1.5235e-008     -1.7786e-009   
  3.3             4.6309e-006     1.5317e-008     -1.7439e-009   
  3.35            4.6371e-006     1.5387e-008     -1.7075e-009   
  3.4             4.6364e-006     1.5441e-008     -1.6749e-009   
  3.45            4.6372e-006     1.5419e-008     -1.6383e-009   
  3.5             4.6396e-006     1.5389e-008     -1.611e-009    
  3.55            4.6395e-006     1.536e-008      -1.5793e-009   
  3.6             4.6383e-006     1.5285e-008     -1.551e-009    
  3.65            4.6483e-006     1.528e-008      -1.5204e-009   
  3.7             4.6453e-006     1.5077e-008     -1.4909e-009   
  3.75            4.6463e-006     1.5027e-008     -1.4657e-009   
  3.8             4.6483e-006     1.4987e-008     -1.4449e-009   
  3.85            4.6486e-006     1.4853e-008     -1.4169e-009   
  3.9             4.6518e-006     7.984e-009      -2.5446e-009   
  3.95            4.6514e-006     7.663e-009      -2.536e-009    
  4               4.6578e-006     7.573e-009      -2.5283e-009   
  4.05            4.6557e-006     7.441e-009      -2.5243e-009   
  4.1             4.6564e-006     6.963e-009      -2.5168e-009   
  4.15            4.6599e-006     6.572e-009      -2.5015e-009   
  4.2             4.6611e-006     6.363e-009      -2.4929e-009   
  4.25            4.6623e-006     5.725e-009      -2.4799e-009   
  4.3             4.6638e-006     5.057e-009      -2.461e-009    
  4.35            4.6671e-006     4.637e-009      -2.4477e-009   
  4.4             4.6675e-006     4.082e-009      -2.427e-009    
  4.45            4.6721e-006     3.276e-009      -2.4102e-009   
  4.5             4.6724e-006     2.737e-009      -2.3876e-009   
  4.55            4.6741e-006     1.98e-009       -2.3648e-009   
  4.6             4.6827e-006     1.059e-009      -2.3407e-009   
  4.65            4.6806e-006     3.98e-010       -2.3224e-009   
  4.7             4.68e-006       -3.88e-010      -2.2888e-009   
  4.75            4.682e-006      -1.525e-009     -2.2621e-009   
  4.8             4.6891e-006     -2.388e-009     -2.2355e-009   
  4.85            4.6717e-006     -9.26e-009      2.2e-012       
  4.9             4.6255e-006     -2.9104e-008    2.6929e-009    
  4.95            4.6832e-006     -2.8481e-008    -1.2535e-009   
  5               4.6962e-006     2.773e-009      -2.4292e-009   
END_DB

BEGIN_DB
 ICCAP_VAR VG         2              
 ICCAP_VAR VS         0              
 ICCAP_VAR VB         0              

 #VD              ID              IB              IG             
  0               -1.6894e-007    -1.7506e-008    2.3913e-009    
  0.05            9.5575e-006     1.6798e-008     2.4282e-009    
  0.1             1.8832e-005     -1.1582e-008    1.591e-010     
  0.15            2.7744e-005     -1.7755e-008    1.918e-009     
  0.2             3.6359e-005     -1.0619e-008    -8.755e-010    
  0.25            4.4617e-005     8.393e-009      -2.5759e-009   
  0.3             5.2505e-005     1.2823e-008     -2.3636e-009   
  0.35            6.0008e-005     1.7225e-008     -1.6564e-009   
  0.4             6.7155e-005     1.3467e-008     -2.3184e-009   
  0.45            7.3895e-005     2.4775e-008     -1.7718e-009   
  0.5             8.0187e-005     9.893e-009      8.113e-010     
  0.55            8.6071e-005     -7.724e-009     2.7019e-009    
  0.6             9.1564e-005     -9.171e-009     1.341e-010     
  0.65            9.68e-005       1.4628e-008     -2.2158e-009   
  0.7             0.000101312     8.814e-009      1.9683e-009    
  0.75            0.000105491     -1.888e-008     2.6942e-009    
  0.8             0.000109234     -9.149e-009     -3.31e-011     
  0.85            0.000112704     1.5944e-008     -1.9434e-009   
  0.9             0.00011556      1.2914e-008     3.7e-012       
  0.95            0.00011783      -1.7699e-008    1.973e-009     
  1               0.00011979      -1.5003e-008    2.4966e-009    
  1.05            0.00012142      -1.7604e-008    1.6691e-009    
  1.1             0.0001228       -8.919e-009     -1.0843e-009   
  1.15            0.00012384      1.2013e-008     -2.463e-009    
  1.2             0.00012448      1.7198e-008     -1.6635e-009   
  1.25            0.00012484      8.654e-009      9.707e-010     
  1.3             0.00012515      -2.3755e-008    2.1683e-009    
  1.35            0.00012564      -1.0809e-008    -8.612e-010    
  1.4             0.00012595      9.1e-009        -2.5574e-009   
  1.45            0.00012619      1.5316e-008     -2.0939e-009   
  1.5             0.00012614      1.0153e-008     7.367e-010     
  1.55            0.00012615      -7.51e-009      2.7022e-009    
  1.6             0.00012622      -1.6473e-008    2.3676e-009    
  1.65            0.00012652      -1.096e-008     -7.419e-010    
  1.7             0.00012673      8.133e-009      -2.5824e-009   
  1.75            0.00012685      1.3811e-008     -2.2658e-009   
  1.8             0.00012693      1.9315e-008     -1.5205e-009   
  1.85            0.00012676      7.815e-009      1.0513e-009    
  1.9             0.0001268       -2.2316e-008    1.9975e-009    
  1.95            0.00012681      -1.4919e-008    2.4975e-009    
  2               0.00012696      -1.7974e-008    1.6853e-009    
  2.05            0.00012694      -1.6775e-008    2.2912e-009    
  2.1             0.00012722      -1.0855e-008    -7.933e-010    
  2.15            0.00012741      8.437e-009      -2.5746e-009   
  2.2             0.00012746      1.4421e-008     -2.2009e-009   
  2.25            0.00012749      1.7324e-008     -1.4525e-009   
  2.3             0.00012759      1.588e-008      -1.9662e-009   
  2.35            0.00012763      1.2605e-008     -2.3922e-009   
  2.4             0.00012736      8.937e-009      1.93e-009      
  2.45            0.00012741      -2.0003e-008    2.6802e-009    
  2.5             0.00012748      -2.398e-008     2.2039e-009    
  2.55            0.00012751      -1.2216e-008    2.662e-009     
  2.6             0.00012762      -2.3466e-008    2.13e-009      
  2.65            0.00012755      -1.1425e-008    2.505e-010     
  2.7             0.00012796      1.4033e-008     -2.2567e-009   
  2.75            0.00012797      1.9043e-008     -1.5057e-009   
  2.8             0.00012777      7.872e-009      1.0632e-009    
  2.85            0.00012781      -2.1999e-008    1.9793e-009    
  2.9             0.00012782      -1.5092e-008    2.4844e-009    
  2.95            0.0001279       -1.7524e-008    1.6625e-009    
  3               0.00012812      -8.85e-009      -1.0893e-009   
  3.05            0.00012825      1.1874e-008     -2.4622e-009   
  3.1             0.00012829      2.5678e-008     -1.8583e-009   
  3.15            0.00012833      1.3153e-008     -2.3266e-009   
  3.2             0.00012809      8.642e-009      1.9908e-009    
  3.25            0.00012811      -2.1114e-008    2.6503e-009    
  3.3             0.00012817      -2.3468e-008    2.088e-009     
  3.35            0.00012817      -1.1107e-008    2.298e-010     
  3.4             0.0001285       1.4305e-008     -2.2268e-009   
  3.45            0.00012854      1.7819e-008     -1.4739e-009   
  3.5             0.00012834      7.312e-009      1.083e-009     
  3.55            0.00012838      -2.2057e-008    1.9256e-009    
  3.6             0.00012853      -1.0775e-008    -9.694e-010    
  3.65            0.00012872      1.0007e-008     -2.5205e-009   
  3.7             0.00012875      1.5039e-008     -1.8862e-009   
  3.75            0.00012881      1.1431e-008     -2.3538e-009   
  3.8             0.0001288       1.5545e-008     -1.4537e-009   
  3.85            0.00012885      1.3181e-008     -1.9774e-009   
  3.9             0.0001289       9.166e-009      -2.4022e-009   
  3.95            0.0001289       1.317e-008      -1.5198e-009   
  4               0.00012896      1.0355e-008     -2.0635e-009   
  4.05            0.00012901      5.71e-009       -2.4465e-009   
  4.1             0.000129        9.324e-009      -1.6017e-009   
  4.15            0.00012907      5.92e-009       -2.1413e-009   
