! VERSION = 6.00
BEGIN_HEADER
 ICCAP_INPUTS
  VG         V  B GROUND SMU4 0.001 LIN        2    0          5          6    1         
  VS         V  E GROUND SMU2 0.1 CON        0
  VD         V  S GROUND SMU1 0.1 LIN        1    0          5          101  0.05      
  VB         V  C GROUND SMU3 0.1 LIN        3    0          -2.5       2    -2.5      
 ICCAP_OUTPUTS
  ID         I  S GROUND SMU1 B
  IB         I  C GROUND SMU3 B
  IG         I  B GROUND SMU4 B
END_HEADER

BEGIN_DB
 ICCAP_VAR VG         0              
 ICCAP_VAR VS         0              
 ICCAP_VAR VB         0              

 #VD              ID              IB              IG             
  0               9.961e-010      2.2766e-008     8.706e-010     
  0.05            2.3337e-009     -8.172e-009     8.74e-010      
  0.1             1.7995e-009     1.1627e-008     -1.5052e-009   
  0.15            -1.616e-009     6.008e-009      1.909e-010     
  0.2             -7.491e-010     -1.9712e-008    1.5735e-009    
  0.25            1.6769e-009     -8.724e-009     1.6397e-009    
  0.3             1.6277e-009     1.9293e-008     -1.8835e-009   
  0.35            -1.9375e-009    5.154e-009      -5.98e-010     
  0.4             -1.2774e-009    -2.0821e-008    2.2538e-009    
  0.45            2.1692e-009     -5.705e-009     1.3011e-009    
  0.5             6.854e-010      1.614e-008      -2.2531e-009   
  0.55            -1.9185e-009    2.975e-009      -3.235e-010    
  0.6             -1.1045e-009    -2.5299e-008    2.5639e-009    
  0.65            2.25e-010       1.1722e-008     -2.5564e-009   
  0.7             -1.2014e-009    -2.3578e-008    2.4241e-009    
  0.75            2.2602e-009     -4.45e-009      1.2078e-009    
  0.8             5.977e-010      1.5586e-008     -2.3754e-009   
  0.85            -1.8723e-009    2.009e-009      -1.973e-010    
  0.9             -1.0208e-009    -2.533e-008     2.6393e-009    
  0.95            1.6935e-009     1.6248e-008     -1.7405e-009   
  1               -1.9236e-009    5.178e-009      -6.957e-010    
  1.05            -1.1579e-009    -9.004e-009     2.4821e-009    
  1.1             2.947e-010      1.2309e-008     -2.5406e-009   
  1.15            -1.2538e-009    -2.1436e-008    2.2863e-009    
  1.2             2.2e-009        -5.432e-009     1.2838e-009    
  1.25            6.763e-010      1.6059e-008     -2.2771e-009   
  1.3             -1.9045e-009    2.681e-009      -2.946e-010    
  1.35            -1.9285e-009    -1.1227e-008    -5.029e-010    
  1.4             -1.209e-009     -2.3173e-008    2.3865e-009    
  1.45            2.2544e-009     -4.69e-009      1.2232e-009    
  1.5             6.223e-010      1.5658e-008     -2.3552e-009   
  1.55            -1.8783e-009    2.213e-009      -2.234e-010    
  1.6             -1.926e-009     -1.1287e-008    -4.304e-010    
  1.65            -1.9209e-009    -1.0673e-008    -6.228e-010    
  1.7             -1.2734e-009    -2.0086e-008    2.2191e-009    
  1.75            2.1606e-009     -5.987e-009     1.3258e-009    
  1.8             7.182e-010      1.6202e-008     -2.2245e-009   
  1.85            -1.9119e-009    3.184e-009      -3.551e-010    
  1.9             -1.9232e-009    -1.1147e-008    -5.53e-010     
  1.95            -1.2291e-009    -2.2212e-008    2.3287e-009    
  2               2.2256e-009     -5.245e-009     1.2621e-009    
  2.05            6.642e-010      1.5814e-008     -2.3084e-009   
  2.1             -1.8898e-009    2.512e-009      -2.658e-010    
  2.15            -1.0532e-009    -2.5414e-008    2.6013e-009    
  2.2             1.753e-009      1.4174e-008     -1.6502e-009   
  2.25            -1.5261e-009    5.448e-009      2.6557e-009    
  2.3             1.6772e-009     1.7809e-008     -1.8297e-009   
  2.35            -1.9148e-009    5.099e-009      -6.439e-010    
  2.4             -1.1035e-009    -9.391e-009     2.5349e-009    
  2.45            2.677e-010      1.193e-008      -2.5518e-009   
  2.5             -1.2102e-009    -2.2886e-008    2.3687e-009    
  2.55            2.2533e-009     -4.796e-009     1.2356e-009    
  2.6             6.45e-010       1.5771e-008     -2.3371e-009   
  2.65            -1.8759e-009    2.267e-009      -2.367e-010    
  2.7             -1.023e-009     -2.553e-008     2.6187e-009    
  2.75            1.7334e-009     1.5193e-008     -1.6884e-009   
  2.8             -1.5077e-009    5.065e-009      2.6663e-009    
  2.85            1.6601e-009     1.8974e-008     -1.8712e-009   
  2.9             -1.9138e-009    4.881e-009      -6.078e-010    
  2.95            -1.2573e-009    -2.0599e-008    2.2492e-009    
  3               2.1921e-009     -5.767e-009     1.309e-009     
  3.05            7.119e-010      1.6225e-008     -2.2512e-009   
  3.1             -1.8993e-009    2.988e-009      -3.333e-010    
  3.15            -1.915e-009     -1.1182e-008    -5.402e-010    
  3.2             -1.9007e-009    -1.0306e-008    -7.228e-010    
  3.25            -1.3155e-009    -1.7184e-008    2.0528e-009    
  3.3             2.0781e-009     -6.981e-009     1.4091e-009    
  3.35            7.978e-010      1.67e-008       -2.1013e-009   
  3.4             -1.9129e-009    4.071e-009      -4.557e-010    
  3.45            -1.9066e-009    -1.0581e-008    -6.434e-010    
  3.5             -1.272e-009     -1.9336e-008    2.1839e-009    
  3.55            2.1514e-009     -6.289e-009     1.3467e-009    
  3.6             7.495e-010      1.6327e-008     -2.195e-009    
  3.65            1.9912e-009     -1.3811e-008    1.4718e-009    
  3.7             8.489e-010      1.6959e-008     -1.9904e-009   
  3.75            -1.9135e-009    4.682e-009      -5.279e-010    
  3.8             -1.2065e-009    -2.2689e-008    2.3578e-009    
  3.85            2.2591e-009     -4.976e-009     1.2425e-009    
  3.9             6.574e-010      1.5711e-008     -2.3327e-009   
  3.95            -1.8706e-009    2.306e-009      -2.371e-010    
  4               -1.0169e-009    -2.5486e-008    2.6157e-009    
  4.05            2.3073e-009     1.0468e-008     3.5e-010       
  4.1             2.3457e-009     1.0005e-008     5.274e-010     
  4.15            7.943e-010      1.6683e-008     -2.1168e-009   
  4.2             -1.9094e-009    3.962e-009      -4.472e-010    
  4.25            -1.9036e-009    -1.0678e-008    -6.32e-010     
  4.3             -1.2629e-009    -1.98e-008      2.2018e-009    
  4.35            2.1713e-009     -6.072e-009     1.3336e-009    
  4.4             7.423e-010      1.615e-008      -2.2145e-009   
  4.45            -1.8982e-009    3.241e-009      -3.515e-010    
  4.5             -1.9082e-009    -1.0935e-008    -5.538e-010    
  4.55            -1.2167e-009    -2.2099e-008    2.3253e-009    
  4.6             2.2447e-009     -5.378e-009     1.2619e-009    
  4.65            6.807e-010      1.5801e-008     -2.3119e-009   
  4.7             -1.876e-009     2.465e-009      -2.601e-010    
  4.75            -1.9091e-009    -1.1258e-008    -4.66e-010     
  4.8             -1.898e-009     -1.0534e-008    -6.608e-010    
  4.85            -1.2745e-009    -1.9215e-008    2.1744e-009    
  4.9             2.1506e-009     -6.439e-009     1.349e-009     
  4.95            7.572e-010      1.6457e-008     -2.1909e-009   
  5               -1.8996e-009    3.369e-009      -3.713e-010    
END_DB

BEGIN_DB
 ICCAP_VAR VG         1              
 ICCAP_VAR VS         0              
 ICCAP_VAR VB         0              

 #VD              ID              IB              IG             
  0               -4.2955e-007    7.571e-009      -5.478e-010    
  0.05            2.4358e-005     1.1081e-008     5.4e-012       
  0.1             4.3373e-005     1.6007e-008     -2.0164e-009   
  0.15            5.6477e-005     1.7135e-008     -1.4262e-009   
  0.2             6.4367e-005     8.192e-009      1.0091e-009    
  0.25            6.8618e-005     -8.903e-009     2.6712e-009    
  0.3             7.1413e-005     -2.4687e-008    2.4036e-009    
  0.35            7.3027e-005     -1.9805e-008    1.7437e-009    
  0.4             7.35e-005       -1.5047e-008    2.4931e-009    
  0.45            7.4452e-005     -2.1913e-008    1.8793e-009    
  0.5             7.4886e-005     -1.0704e-008    -8.793e-010    
  0.55            7.5634e-005     8.175e-009      -2.5647e-009   
  0.6             7.6263e-005     1.3044e-008     -2.3415e-009   
  0.65            7.6468e-005     1.7336e-008     -1.6111e-009   
  0.7             7.6748e-005     1.3683e-008     -2.2964e-009   
  0.75            7.5364e-005     8.831e-009      1.8997e-009    
  0.8             7.6306e-005     -1.8317e-008    2.6831e-009    
  0.85            7.6554e-005     -2.3867e-008    2.5341e-009    
  0.9             7.6999e-005     -2.2877e-008    1.9609e-009    
  0.95            7.7186e-005     -1.0838e-008    -8.484e-010    
  1               7.7704e-005     7.965e-009      -2.5697e-009   
  1.05            7.8259e-005     1.2605e-008     -2.3857e-009   
  1.1             7.835e-005      1.7056e-008     -1.6687e-009   
  1.15            7.8606e-005     1.3097e-008     -2.3377e-009   
  1.2             7.8839e-005     2.5533e-008     -1.782e-009    
  1.25            7.7897e-005     9.877e-009      8.013e-010     
  1.3             7.7781e-005     -7.56e-009      2.6852e-009    
  1.35            7.8165e-005     -1.4149e-008    2.5457e-009    
  1.4             7.8683e-005     -2.3194e-008    1.9779e-009    
  1.45            7.8885e-005     -1.0946e-008    -8.352e-010    
  1.5             7.9348e-005     7.851e-009      -2.5715e-009   
  1.55            7.9872e-005     1.2606e-008     -2.403e-009    
  1.6             8.0001e-005     1.6921e-008     -1.6846e-009   
  1.65            8.0219e-005     1.3193e-008     -2.3529e-009   
  1.7             8.0392e-005     2.5872e-008     -1.8078e-009   
  1.75            7.9445e-005     9.946e-009      7.866e-010     
  1.8             7.9253e-005     -7.623e-009     2.6851e-009    
  1.85            7.9847e-005     -9.108e-009     1.476e-010     
  1.9             8.0893e-005     1.4671e-008     -2.2376e-009   
  1.95            7.9456e-005     8.386e-009      1.9431e-009    
  2               8.0207e-005     -1.8586e-008    2.6844e-009    
  2.05            8.0487e-005     -2.4605e-008    2.4907e-009    
  2.1             8.0849e-005     -2.1606e-008    1.861e-009     
  2.15            8.0935e-005     -1.0695e-008    -8.833e-010    
  2.2             8.1543e-005     8.147e-009      -2.5596e-009   
  2.25            8.1968e-005     1.327e-008      -2.3451e-009   
  2.3             8.2013e-005     1.6993e-008     -1.5861e-009   
  2.35            8.2213e-005     1.382e-008      -2.2884e-009   
  2.4             8.064e-005      8.531e-009      1.9029e-009    
  2.45            8.1531e-005     -1.841e-008     2.6862e-009    
  2.5             8.1614e-005     -2.462e-008     2.5309e-009    
  2.55            8.2031e-005     -2.3006e-008    1.9376e-009    
  2.6             8.2105e-005     -1.1433e-008    -8.536e-010    
  2.65            8.2679e-005     7.087e-009      -2.5621e-009   
  2.7             8.3157e-005     1.1861e-008     -2.3854e-009   
  2.75            8.3197e-005     1.5644e-008     -1.6433e-009   
  2.8             8.341e-005      1.1886e-008     -2.3397e-009   
  2.85            8.3486e-005     1.5109e-008     -1.5665e-009   
  2.9             8.3647e-005     1.143e-008      -2.2837e-009   
  2.95            8.3702e-005     1.4092e-008     -1.503e-009    
  3               8.3846e-005     1.0671e-008     -2.2206e-009   
  3.05            8.3958e-005     1.268e-008      -1.4378e-009   
  3.1             8.4121e-005     9.365e-009      -2.1503e-009   
  3.15            8.4152e-005     3.884e-009      -2.5255e-009   
  3.2             8.4406e-005     7.089e-009      -2.0733e-009   
  3.25            8.4433e-005     1.272e-009      -2.5102e-009   
  3.3             8.4685e-005     4.084e-009      -1.9956e-009   
  3.35            8.3398e-005     -5.777e-009     2.0936e-009    
  3.4             8.4199e-005     -2.6847e-008    -3.524e-010    
  3.45            8.3969e-005     -2.0192e-008    -2.5226e-009   
  3.5             8.2826e-005     -1.3364e-008    1.5942e-009    
  3.55            8.4387e-005     -3.5007e-008    2.23e-010      
  3.6             8.4646e-005     -2.7299e-008    -2.0058e-009   
  3.65            8.4181e-005     -2.4681e-008    2.0785e-009    
  3.7             8.4978e-005     -4.7322e-008    -3.286e-010    
  3.75            8.5835e-005     -2.4296e-008    -1.5489e-009   
  3.8             8.4723e-005     -3.9495e-008    2.3308e-009    
  3.85            8.5426e-005     -6.4197e-008    -6.641e-010    
  3.9             8.6356e-005     -3.839e-008     -2.514e-009    
  3.95            8.415e-005      -5.6739e-008    1.6224e-009    
  4               8.5728e-005     -8.3025e-008    2.04e-010      
  4.05            8.6826e-005     -6.7977e-008    -2.3144e-009   
  4.1             8.5182e-005     -8.1383e-008    1.8843e-009    
  4.15            8.6206e-005     -1.09635e-007   1.1347e-009    
  4.2             8.6423e-005     -1.1506e-007    -2.5589e-009   
  4.25            8.5481e-005     -1.142e-007     1.3518e-009    
  4.3             8.7045e-005     -1.5048e-007    2.6893e-009    
  4.35            8.8032e-005     -1.5695e-007    -1.5675e-009   
  4.4             8.8206e-005     -1.4749e-007    -2.5e-009      
  4.45            8.6039e-005     -1.6647e-007    1.6522e-009    
  4.5             8.7647e-005     -2.0135e-007    1.743e-010     
  4.55            8.8884e-005     -1.957e-007     -2.2752e-009   
  4.6             8.7295e-005     -2.1847e-007    1.9142e-009    
  4.65            8.8312e-005     -2.5747e-007    -1.151e-010    
  4.7             8.9509e-005     -2.5229e-007    -1.8399e-009   
  4.75            8.8485e-005     -2.8266e-007    2.172e-009     
  4.8             8.9378e-005     -3.267e-007     -4.674e-010    
  4.85            9.0496e-005     -3.2177e-007    -1.4077e-009   
  4.9             8.9309e-005     -3.5868e-007    2.4153e-009    
  4.95            9.0257e-005     -4.0788e-007    -7.844e-010    
  5               9.1344e-005     -4.0039e-007    -2.4697e-009   
END_DB

BEGIN_DB
 ICCAP_VAR VG         2              
 ICCAP_VAR VS         0              
 ICCAP_VAR VB         0              

 #VD              ID              IB              IG             
  0               -1.4841e-006    -7.421e-009     -1.7209e-009   
  0.05            7.5414e-005     1.297e-008      -3.063e-010    
  0.1             0.00015036      1.079e-008      -2.4687e-009   
  0.15            0.00022439      1.6938e-008     -1.6481e-009   
  0.2             0.00029744      1.4948e-008     -2.1892e-009   
  0.25            0.00036923      1.0433e-008     6.681e-010     
  0.3             0.0004399       -7.507e-009     2.6821e-009    
  0.35            0.00050955      -1.6145e-008    2.4471e-009    
  0.4             0.00057812      -1.1327e-008    -6.719e-010    
  0.45            0.00064534      7.592e-009      -2.5696e-009   
  0.5             0.0007113       1.3582e-008     -2.3304e-009   
  0.55            0.00077504      8.5e-009        1.9863e-009    
  0.6             0.00083812      -2.1418e-008    2.6565e-009    
  0.65            0.00089941      -2.4015e-008    2.0675e-009    
  0.7             0.00095885      -1.4453e-008    2.5489e-009    
  0.75            0.00101697      -1.9579e-008    1.7339e-009    
  0.8             0.00107318      -9.19e-009      -1.0408e-009   
  0.85            0.00112761      1.1797e-008     -2.492e-009    
  0.9             0.0011789       1.6853e-008     2.6897e-009    
  0.95            0.0012286       -1.7269e-008    2.1795e-009    
  1               0.0012767       -1.1032e-008    -8.441e-010    
  1.05            0.0013224       8.811e-009      -2.5483e-009   
  1.1             0.001365        1.5533e-008     -2.1098e-009   
  1.15            0.001404        1.0279e-008     7.281e-010     
  1.2             0.0014404       -7.641e-009     2.6871e-009    
  1.25            0.0014746       -1.671e-008     2.3704e-009    
  1.3             0.0015074       -1.1241e-008    -7.365e-010    
  1.35            0.001537        7.796e-009      -2.5648e-009   
  1.4             0.001563        1.4332e-008     -2.2724e-009   
  1.45            0.0015859       1.8946e-008     -1.4841e-009   
  1.5             0.0016044       7.438e-009      1.0623e-009    
  1.55            0.0016226       -2.2587e-008    1.9517e-009    
  1.6             0.0016371       -1.5667e-008    2.4888e-009    
  1.65            0.001652        -1.7495e-008    1.6137e-009    
  1.7             0.0016634       -2.5144e-008    2.4213e-009    
  1.75            0.0016751       -1.1357e-008    -6.928e-010    
  1.8             0.0016847       7.667e-009      -2.57e-009     
  1.85            0.0016928       1.3621e-008     -2.316e-009    
  1.9             0.0016996       2.048e-008      -1.5443e-009   
  1.95            0.0017029       7.711e-009      1.0283e-009    
  2               0.0017083       -2.3434e-008    2.0252e-009    
  2.05            0.0017144       -1.0353e-008    -9.123e-010    
  2.1             0.0017201       9.988e-009      -2.5332e-009   
  2.15            0.0017238       1.5995e-008     -1.973e-009    
  2.2             0.0017281       1.2667e-008     -2.4033e-009   
  2.25            0.0017274       8.827e-009      1.9076e-009    
  2.3             0.0017311       -1.9959e-008    2.6787e-009    
  2.35            0.0017344       -2.5059e-008    2.1964e-009    
  2.4             0.0017388       -1.1112e-008    -8.397e-010    
  2.45            0.0017428       8.774e-009      -2.5492e-009   
  2.5             0.0017452       1.5529e-008     -2.1174e-009   
  2.55            0.0017473       1.5035e-008     -1.3599e-009   
  2.6             0.0017505       1.6259e-008     -1.8508e-009   
  2.65            0.0017527       1.3605e-008     -2.3389e-009   
  2.7             0.0017511       8.59e-009       1.9839e-009    
  2.75            0.0017534       -2.155e-008     2.654e-009     
  2.8             0.001756        -2.4177e-008    2.065e-009     
  2.85            0.0017575       -1.4454e-008    2.5458e-009    
  2.9             0.0017609       -1.9623e-008    1.7251e-009    
  2.95            0.001761        -1.6952e-008    2.3459e-009    
  3               0.0017652       -1.1239e-008    -7.56e-010     
  3.05            0.0017683       7.979e-009      -2.5623e-009   
  3.1             0.0017701       1.4348e-008     -2.2421e-009   
  3.15            0.0017722       1.8013e-008     -1.4583e-009   
  3.2             0.0017707       7.199e-009      1.0834e-009    
  3.25            0.0017736       -2.2124e-008    1.9177e-009    
  3.3             0.0017761       -1.0131e-008    -9.63e-010     
  3.35            0.0017792       1.0287e-008     -2.5237e-009   
  3.4             0.0017806       1.5703e-008     -1.8656e-009   
  3.45            0.0017825       1.2272e-008     -2.3455e-009   
  3.5             0.0017841       2.0164e-008     -1.5851e-009   
  3.55            0.0017854       1.3461e-008     -2.139e-009    
  3.6             0.0017875       9.604e-009      -2.4774e-009   
  3.65            0.0017886       1.3443e-008     -1.6587e-009   
  3.7             0.0017909       1.0412e-008     -2.206e-009    
  3.75            0.0017918       5.391e-009      -2.4938e-009   
  3.8             0.001793        8.62e-009       -1.7408e-009   
  3.85            0.0017922       -3.18e-009      2.3306e-009    
  3.9             0.0017951       -2.4536e-008    -7.865e-010    
  3.95            0.0017964       -2.2843e-008    -2.5839e-009   
  4               0.0017949       -1.4697e-008    1.2752e-009    
  4.05            0.0017979       -4.1838e-008    2.6843e-009    
  4.1             0.001803        -4.2869e-008    -1.703e-009    
  4.15            0.0018032       -3.3545e-008    -6.05e-011     
