! VERSION = 6.00
BEGIN_HEADER
 ICCAP_INPUTS
  VG         V  B GROUND SMU4 0.001 LIN        2    0          5          6    1         
  VS         V  E GROUND SMU2 0.1 CON        0
  VD         V  S GROUND SMU1 0.1 LIN        1    0          5          101  0.05      
  VB         V  C GROUND SMU3 0.1 LIN        3    0          -2.5       2    -2.5      
 ICCAP_OUTPUTS
  ID         I  S GROUND SMU1 B
  IB         I  C GROUND SMU3 B
  IG         I  B GROUND SMU4 B
END_HEADER

BEGIN_DB
 ICCAP_VAR VG         0              
 ICCAP_VAR VS         0              
 ICCAP_VAR VB         0              

 #VD              ID              IB              IG             
  0               -3.2235e-007    4.0103e-007     -2.5815e-009   
  0.05            -1.3801e-008    1.53e-008       -1.5278e-009   
  0.1             -2.801e-008     1.8776e-007     -4.193e-009    
  0.15            -1.5161e-007    3.6429e-007     -3.8412e-008   
  0.2             -1.07643e-007   1.9028e-007     1.125e-009     
  0.25            3.4254e-008     5.06e-009       -8.667e-008    
  0.3             1.0994e-008     4.5503e-007     -1.231e-008    
  0.35            2.276e-009      4.452e-007      -1.1631e-008   
  0.4             8.8898e-008     8.956e-008      -2.4686e-007   
  0.45            3.4362e-008     4.6186e-007     -2.102e-008    
  0.5             2.702e-009      4.5457e-007     -7.775e-008    
  0.55            8.9782e-008     -4.9e-010       -2.7988e-007   
  0.6             4.0764e-008     4.6856e-007     -2.89e-008     
  0.65            3.202e-009      4.5606e-007     -7.778e-008    
  0.7             9.0846e-008     3e-011          -3.1327e-007   
  0.75            4.5626e-008     4.7074e-007     -4.014e-008    
  0.8             4.001e-009      4.5706e-007     -7.627e-008    
  0.85            9.0296e-008     9.8e-010        -3.4033e-007   
  0.9             5.0811e-008     4.6762e-007     -5.706e-008    
  0.95            5.612e-009      4.5729e-007     -7.776e-008    
  1               8.919e-008      2.35e-009       -3.7157e-007   
  1.05            5.5786e-008     4.667e-007      -7.888e-008    
  1.1             8.015e-009      4.5774e-007     -7.597e-008    
  1.15            8.8069e-008     4.64e-009       -4.0205e-007   
  1.2             4.3475e-008     9.074e-008      -1.0143e-007   
  1.25            1.1568e-008     4.5977e-007     7.5e-010       
  1.3             1.798e-009      4.3769e-007     -5.76e-007     
  1.35            3.8512e-008     4.462e-008      -1.4776e-007   
  1.4             1.792e-008      4.6131e-007     2.4e-010       
  1.45            1.891e-009      4.5102e-007     -5.1072e-007   
  1.5             8.2128e-008     3.7079e-007     -1.327e-007    
  1.55            9.2592e-008     1.549e-007      -2.26e-009     
  1.6             2.273e-009      4.5693e-007     -1.211e-008    
  1.65            7.6699e-008     3.1514e-007     -4.872e-007    
  1.7             7.7319e-008     4.0734e-007     -1.6984e-007   
  1.75            9.3136e-008     2.0251e-007     1.8e-010       
  1.8             1.946e-009      4.4982e-007     -5.1474e-007   
  1.85            8.3597e-008     3.7417e-007     -1.0212e-007   
  1.9             9.3736e-008     1.5547e-007     -2.48e-009     
  1.95            2.328e-009      4.5971e-007     -1.225e-008    
  2               7.6949e-008     3.1689e-007     -4.8745e-007   
  2.05            7.9464e-008     4.0908e-007     -1.6919e-007   
  2.1             9.3967e-008     2.0287e-007     2e-010         
  2.15            2.034e-009      4.5262e-007     1.043e-009     
  2.2             9.1806e-008     3.772e-007      -5.3994e-007   
  2.25            9.0977e-008     3.1218e-007     9.8e-010       
  2.3             1.83e-009       4.1068e-007     -2.0965e-007   
  2.35            9.4535e-008     1.4281e-007     -1.571e-008    
  2.4             2.43e-009       4.6105e-007     -8.86e-008     
  2.45            9.4795e-008     1.5814e-007     -2.94e-009     
  2.5             2.336e-009      4.5955e-007     -1.228e-008    
  2.55            7.889e-008      3.1156e-007     -4.9108e-007   
  2.6             7.906e-008      4.1154e-007     -1.8135e-007   
  2.65            9.4948e-008     2.0677e-007     2.5e-010       
  2.7             2.007e-009      4.4944e-007     -5.1554e-007   
  2.75            8.4751e-008     3.7764e-007     -1.3822e-007   
  2.8             9.5633e-008     1.571e-007      -2.53e-009     
  2.85            2.418e-009      4.6049e-007     -1.229e-008    
  2.9             8.0314e-008     3.1567e-007     -4.9267e-007   
  2.95            7.9883e-008     4.1196e-007     -1.7679e-007   
  3               9.6143e-008     2.0374e-007     1.6e-010       
  3.05            2.052e-009      4.5186e-007     1.032e-009     
  3.1             8.8685e-008     4.08e-007       -5.4368e-007   
  3.15            9.2198e-008     3.1489e-007     -8.705e-008    
  3.2             9.6501e-008     1.4792e-007     -8.84e-009     
  3.25            3.183e-009      4.6175e-007     -1.24e-008     
  3.3             6.7175e-008     3.5822e-007     -5.279e-007    
  3.35            8.8515e-008     3.5706e-007     -1.2277e-007   
  3.4             9.6865e-008     1.5332e-007     -4.1e-009      
  3.45            2.642e-009      4.6306e-007     -1.226e-008    
  3.5             7.7394e-008     3.2954e-007     -5.0546e-007   
  3.55            8.4143e-008     3.9564e-007     -1.5678e-007   
  3.6             9.7237e-008     1.6514e-007     -1.72e-009     
  3.65            2.362e-009      4.6027e-007     -1.246e-008    
  3.7             8.4161e-008     3.0004e-007     -4.7686e-007   
  3.75            7.7688e-008     4.2587e-007     -1.4827e-007   
  3.8             2.1106e-008     4.6878e-007     -1.498e-008    
  3.85            2.432e-009      4.6343e-007     -5.3078e-007   
  3.9             9.968e-008      1.0254e-007     -1.35e-008     
  3.95            9.7736e-008     4.6976e-007     -1.515e-008    
  4               3.968e-009      4.6376e-007     -1.273e-008    
  4.05            6.2782e-008     3.7686e-007     -5.4067e-007   
  4.1             9.1344e-008     3.3595e-007     -1.1095e-007   
  4.15            9.8128e-008     1.5004e-007     -6.73e-009     
  4.2             3.023e-009      4.6324e-007     -1.231e-008    
  4.25            7.3978e-008     3.481e-007      -5.2378e-007   
  4.3             8.7515e-008     3.7782e-007     -1.3933e-007   
  4.35            9.8431e-008     1.5852e-007     -2.96e-009     
  4.4             2.55e-009       4.6173e-007     -1.237e-008    
  4.45            8.2359e-008     3.1674e-007     -4.9455e-007   
  4.5             8.2161e-008     4.1268e-007     -1.8076e-007   
  4.55            9.8893e-008     2.0592e-007     -1.2e-010      
  4.6             2.154e-009      4.5479e-007     -5.2264e-007   
  4.65            8.8494e-008     3.7631e-007     -1.0777e-007   
  4.7             9.9182e-008     1.5019e-007     -7.49e-009     
  4.75            3.213e-009      4.6272e-007     -1.244e-008    
  4.8             7.267e-008      3.4936e-007     -5.263e-007    
  4.85            8.9198e-008     3.6954e-007     -1.372e-007    
  4.9             9.9703e-008     1.5813e-007     -3.74e-009     
  4.95            2.731e-009      4.634e-007      -1.267e-008    
  5               8.1643e-008     3.2232e-007     -5.0306e-007   
END_DB

BEGIN_DB
 ICCAP_VAR VG         1              
 ICCAP_VAR VS         0              
 ICCAP_VAR VB         0              

 #VD              ID              IB              IG             
  0               -1.149e-006     2.004e-008      -3.347e-010    
  0.05            5.0225e-005     3.712e-007      -1.296e-009    
  0.1             8.6756e-005     2.4989e-007     2.3787e-009    
  0.15            0.000109057     6.969e-008      1.549e-009     
  0.2             0.00012349      4.53e-009       -2.294e-009    
  0.25            0.00012857      4.555e-008      1.8749e-009    
  0.3             0.00013298      7.79e-009       -1.6612e-009   
  0.35            0.00013217      8.1e-009        1.4793e-009    
  0.4             0.00013579      -2.32e-009      -1.338e-009    
  0.45            0.00013407      6.8e-009        1.1178e-009    
  0.5             0.00013604      1.8826e-007     -2.0525e-009   
  0.55            0.00013542      2.243e-008      2.0189e-009    
  0.6             0.0001367       3e-010          -1.7551e-009   
  0.65            0.000135        7.41e-009       1.6477e-009    
  0.7             0.00013811      -2.7e-009       -1.4913e-009   
  0.75            0.000138        -2.793e-009     -1.6046e-009   
  0.8             0.00013786      1.6812e-008     -1.5094e-009   
  0.85            0.00013729      1.9174e-008     2.2332e-009    
  0.9             0.000137        7.3757e-008     2.1686e-009    
  0.95            0.00013791      -1.833e-009     -1.8708e-009   
  1               0.00013928      1.8717e-008     -2.24e-009     
  1.05            0.00013745      5.978e-009      1.8229e-009    
  1.1             0.00013814      4.2874e-008     2.6659e-009    
  1.15            0.00013719      3.8476e-008     1.3427e-009    
  1.2             0.00013887      2.3851e-008     -1.2424e-008   
  1.25            0.00013905      1.3749e-008     -1.7426e-008   
  1.3             0.0001394       1.3925e-008     -1.9766e-008   
  1.35            0.00013917      1.5298e-008     -5.4166e-008   
  1.4             0.00013934      4.8413e-008     -5.6685e-008   
  1.45            0.00013953      4.8326e-008     -5.7202e-008   
  1.5             0.0001397       4.8487e-008     -5.9537e-008   
  1.55            0.00013982      4.8817e-008     -5.8489e-008   
  1.6             0.00013999      4.901e-008      -6.2339e-008   
  1.65            0.00014011      5.0216e-008     -6.0467e-008   
  1.7             0.00014029      5.0671e-008     -6.2174e-008   
  1.75            0.00014051      4.9219e-008     -6.2059e-008   
  1.8             0.00014058      5.0206e-008     -6.3325e-008   
  1.85            0.0001407       5.1108e-008     -6.2603e-008   
  1.9             0.00014087      5.1427e-008     -6.2724e-008   
  1.95            0.00014107      5.2023e-008     -6.3733e-008   
  2               0.00014121      5.2343e-008     -6.3498e-008   
  2.05            0.00014123      5.1803e-008     -6.3154e-008   
  2.1             0.00014143      4.9943e-008     -6.4008e-008   
  2.15            0.00014156      5.1957e-008     -6.4379e-008   
  2.2             0.00014166      5.2521e-008     -6.3749e-008   
  2.25            0.00014181      5.4152e-008     -6.4286e-008   
  2.3             0.00014193      5.464e-008      -6.4426e-008   
  2.35            0.00014211      5.4956e-008     -6.446e-008    
  2.4             0.00014228      5.4332e-008     -6.3467e-008   
  2.45            0.00014234      5.4705e-008     -6.5123e-008   
  2.5             0.00014247      5.3527e-008     -6.5705e-008   
  2.55            0.00014259      5.5513e-008     -6.581e-008    
  2.6             0.00014272      5.4525e-008     -6.5009e-008   
  2.65            0.00014285      5.4018e-008     -6.5666e-008   
  2.7             0.00014293      5.3849e-008     -6.5048e-008   
  2.75            0.00014304      5.1916e-008     -6.5533e-008   
  2.8             0.00014321      5.21e-008       -6.4812e-008   
  2.85            0.00014333      5.2869e-008     -6.5938e-008   
  2.9             0.00014338      -6.264e-009     -6.6116e-008   
  2.95            0.00014365      -8.926e-009     -6.3851e-008   
  3               0.00014398      -1.0739e-008    -6.9164e-008   
  3.05            0.00014404      -1.4145e-008    1.47e-009      
  3.1             0.00014389      4.4706e-008     -2.7352e-008   
  3.15            0.00014395      -6.381e-009     -7.0413e-008   
  3.2             0.00014416      -2.0606e-008    1.413e-009     
  3.25            0.00014432      3.8649e-008     -2.7851e-008   
  3.3             0.0001443       -1.5419e-008    -7.0353e-008   
  3.35            0.00014452      -3.0132e-008    1.401e-009     
  3.4             0.00014406      2.745e-009      -2.8272e-008   
  3.45            0.00014464      -2.7866e-008    -6.9649e-008   
  3.5             0.000145        -4.3865e-008    1.352e-009     
  3.55            0.00014437      -1.7977e-008    -2.8985e-008   
  3.6             0.00014516      -4.2605e-008    -6.9477e-008   
  3.65            0.00014523      -6.2838e-008    1.316e-009     
  3.7             0.00014479      -4.0271e-008    -2.9573e-008   
  3.75            0.00014538      -6.8512e-008    -6.9147e-008   
  3.8             0.00014567      -8.8285e-008    1.287e-009     
  3.85            0.00014535      -7.0731e-008    -2.9821e-008   
  3.9             0.00014573      -9.9182e-008    -6.9529e-008   
  3.95            0.00014547      -1.1906e-007    -3.4113e-008   
  4               0.00014618      -1.2226e-007    -6.9478e-008   
  4.05            0.00014642      -1.4908e-007    1.103e-009     
  4.1             0.00014588      -1.4333e-007    -2.913e-008    
  4.15            0.00014635      -1.7116e-007    -6.9288e-008   
  4.2             0.00014689      -1.9947e-007    1.006e-009     
  4.25            0.0001462       -1.9957e-007    -2.876e-008    
  4.3             0.00014676      -2.2983e-007    -6.9209e-008   
  4.35            0.00014742      -2.6268e-007    8.54e-010      
  4.4             0.00014672      -2.6914e-007    -2.817e-008    
  4.45            0.0001471       -3.0236e-007    -7.0346e-008   
  4.5             0.00014763      -3.4075e-007    5.76e-010      
  4.55            0.0001472       -3.5282e-007    -2.7439e-008   
  4.6             0.00014753      -3.9072e-007    -7.0055e-008   
  4.65            0.00014798      -4.3593e-007    2.33e-010      
  4.7             0.00014772      -4.5495e-007    -2.6516e-008   
  4.75            0.00014793      -4.9745e-007    -6.9557e-008   
  4.8             0.00014859      -5.5066e-007    -2.27e-010     
  4.85            0.00014826      -5.7665e-007    -2.5245e-008   
  4.9             0.00014843      -6.2467e-007    -7.0019e-008   
  4.95            0.00014895      -6.871e-007     -8.3e-010      
  5               0.00014908      -7.2115e-007    -2.3843e-008   
END_DB

BEGIN_DB
 ICCAP_VAR VG         2              
 ICCAP_VAR VS         0              
 ICCAP_VAR VB         0              

 #VD              ID              IB              IG             
  0               -2.7686e-006    1.2765e-007     -1.0858e-009   
  0.05            0.00019101      7.861e-008      2.1421e-009    
  0.1             0.00037838      1.409e-007      -1.9543e-009   
  0.15            0.0005622       8.762e-008      1.956e-009     
  0.2             0.00074296      3.137e-008      -1.7385e-009   
  0.25            0.00091874      1.547e-008      1.5831e-009    
  0.3             0.00109217      -1.09e-009      -1.4404e-009   
  0.35            0.0012608       9.82e-009       -1.7401e-009   
  0.4             0.0014234       1.006e-008      1.5809e-009    
  0.45            0.0015841       -2.17e-009      -1.4356e-009   
  0.5             0.0017366       6.89e-009       1.2082e-009    
  0.55            0.0018871       1.8514e-007     -1.8738e-009   
  0.6             0.0020303       3.163e-008      2.0977e-009    
  0.65            0.0021691       5.39e-009       -1.8101e-009   
  0.7             0.0022998       8.11e-009       1.7504e-009    
  0.75            0.0024286       -2.61e-009      -1.5942e-009   
  0.8             0.002548        -2.553e-009     -1.6817e-009   
  0.85            0.0026609       1.8465e-008     -1.3817e-009   
  0.9             0.0027657       3.1661e-008     2.2959e-009    
  0.95            0.0028637       7.533e-008      1.9394e-009    
  1               0.0029572       6.03e-010       -1.9614e-009   
  1.05            0.003043        1.6208e-008     -2.0526e-009   
  1.1             0.0031161       5.639e-009      1.9493e-009    
  1.15            0.0031859       5.1485e-008     2.6163e-009    
  1.2             0.0032493       -2.73e-009      -1.6784e-009   
  1.25            0.0033036       1.8958e-008     -1.3614e-009   
  1.3             0.0033479       7.277e-009      2.268e-009     
  1.35            0.0033886       1.8243e-008     2.651e-009     
  1.4             0.0034231       4.538e-009      2.2086e-009    
  1.45            0.0034555       1.4118e-008     -1.7896e-009   
  1.5             0.0034811       1.2007e-008     -2.2574e-009   
  1.55            0.0034955       6.026e-009      1.7536e-009    
  1.6             0.003518        2.0057e-008     -1.3354e-009   
  1.65            0.0035333       1.5519e-008     -1.6578e-009   
  1.7             0.0035465       1.2812e-008     -2.1377e-009   
  1.75            0.0035563       1.9163e-008     -1.3643e-009   
  1.8             0.0035674       1.5002e-008     -1.721e-009    
  1.85            0.0035763       1.2419e-008     -2.1939e-009   
  1.9             0.0035824       1.8421e-008     -1.3936e-009   
  1.95            0.0035901       1.4369e-008     -1.7811e-009   
  2               0.0035973       1.2026e-008     -2.2474e-009   
  2.05            0.0036016       1.7678e-008     -1.4353e-009   
  2.1             0.0036086       1.3873e-008     -1.8532e-009   
  2.15            0.0036142       1.1892e-008     -2.3037e-009   
  2.2             0.0036176       1.7158e-008     -1.5009e-009   
  2.25            0.0036231       1.3614e-008     -2.0852e-009   
  2.3             0.0036274       1.1575e-008     -1.7023e-009   
  2.35            0.0036302       1.5273e-008     -6.0904e-009   
  2.4             0.0036352       1.2738e-008     -5.7972e-009   
  2.45            0.0036348       1.092e-008      -2.2653e-008   
  2.5             0.0036389       1.4346e-008     -1.8919e-008   
  2.55            0.0036426       1.6098e-008     -1.5815e-008   
  2.6             0.0036456       1.7669e-008     -2.69e-008     
  2.65            0.0036487       1.8079e-008     -2.732e-008    
  2.7             0.0036524       1.85e-008       -2.739e-008    
  2.75            0.003656        1.8899e-008     -2.7706e-008   
  2.8             0.0036587       1.9282e-008     -2.8057e-008   
  2.85            0.0036616       1.9669e-008     -2.8448e-008   
  2.9             0.0036648       2.0108e-008     -2.8779e-008   
  2.95            0.0036683       2.0766e-008     -2.9057e-008   
  3               0.0036714       2.107e-008      -2.9113e-008   
  3.05            0.0036744       1.1359e-008     -2.878e-008    
  3.1             0.003677        1.2071e-008     -2.7078e-008   
  3.15            0.0036797       1.268e-008      -2.3554e-008   
  3.2             0.0036831       1.3548e-008     -1.9369e-008   
  3.25            0.0036853       1.4946e-008     -1.6035e-008   
  3.3             0.0036874       1.5821e-008     -1.3446e-008   
  3.35            0.0036907       1.7573e-008     -2.8743e-008   
  3.4             0.0036935       8.012e-009      -2.9194e-008   
  3.45            0.0036959       7.148e-009      -2.7891e-008   
  3.5             0.0036982       6.23e-009       -2.546e-008    
  3.55            0.0037009       4.654e-009      -2.1185e-008   
  3.6             0.0037028       -1.0709e-008    -2.8618e-008   
  3.65            0.0037053       -1.4257e-008    -2.7577e-008   
  3.7             0.0037073       -1.8439e-008    -1.9017e-008   
  3.75            0.0037102       -2.5614e-008    -2.7665e-008   
  3.8             0.0037124       -3.3434e-008    -2.8673e-008   
  3.85            0.0037147       -4.2447e-008    -1.7296e-008   
  3.9             0.0037172       -5.4609e-008    -2.6259e-008   
  3.95            0.0037193       -6.8809e-008    -2.9378e-008   
  4               0.0037216       -8.5506e-008    -1.5666e-008   
  4.05            0.0037236       -1.06209e-007   -2.4292e-008   
  4.1             0.0037263       -1.2881e-007    -2.0319e-008   
  4.15            0.0037278       -1.5799e-007    -2.8456e-008   
