! VERSION = 6.00
BEGIN_HEADER
 ICCAP_INPUTS
  VG         V  B GROUND SMU4 0.001 LIN        2    0          5          6    1         
  VS         V  E GROUND SMU2 0.1 CON        0
  VD         V  S GROUND SMU1 0.1 LIN        1    0          5          101  0.05      
  VB         V  C GROUND SMU3 0.1 LIN        3    0          -2.5       2    -2.5      
 ICCAP_OUTPUTS
  ID         I  S GROUND SMU1 B
  IB         I  C GROUND SMU3 B
  IG         I  B GROUND SMU4 B
END_HEADER

BEGIN_DB
 ICCAP_VAR VG         0              
 ICCAP_VAR VS         0              
 ICCAP_VAR VB         0              

 #VD              ID              IB              IG             
  0               -6.969e-010     -1.6961e-008    -9.381e-010    
  0.05            1.153e-009      2.4567e-008     -1.3707e-009   
  0.1             -1.6674e-009    8.113e-009      -7.6e-012      
  0.15            -8.54e-010      -2.3795e-008    1.4299e-009    
  0.2             1.5336e-009     -8.972e-009     1.7413e-009    
  0.25            2.3269e-009     8.861e-009      4.807e-010     
  0.3             7.461e-010      1.536e-008      -2.1156e-009   
  0.35            -1.883e-009     3.015e-009      -3.926e-010    
  0.4             -1.9395e-009    -9.629e-009     -5.855e-010    
  0.45            -4.726e-010     -1.7121e-008    2.2625e-009    
  0.5             2.2148e-009     -5.158e-009     1.2307e-009    
  0.55            6.554e-010      1.3434e-008     -2.2698e-009   
  0.6             -1.9256e-009    -9.7e-009       -5.474e-010    
  0.65            -4.284e-010     -1.6597e-008    2.3193e-009    
  0.7             2.2465e-009     -4.628e-009     1.2008e-009    
  0.75            6.269e-010      1.3039e-008     -2.3062e-009   
  0.8             -1.8061e-009    2.435e-009      -2.262e-010    
  0.85            -1.0112e-009    -2.4344e-008    2.6363e-009    
  0.9             2.2362e-009     8.787e-009      3e-010         
  0.95            2.3295e-009     8.856e-009      4.65e-010      
  1               7.333e-010      1.492e-008      -2.1465e-009   
  1.05            -1.8702e-009    2.94e-009       -3.693e-010    
  1.1             -1.9272e-009    -9.662e-009     -5.607e-010    
  1.15            -4.417e-010     -1.6933e-008    2.2971e-009    
  1.2             2.2416e-009     -4.86e-009      1.2102e-009    
  1.25            6.435e-010      1.313e-008      -2.2897e-009   
  1.3             -1.9164e-009    -9.69e-009      -5.215e-010    
  1.35            -4.042e-010     -1.6265e-008    2.3541e-009    
  1.4             2.2693e-009     -4.411e-009     1.182e-009     
  1.45            6.133e-010      1.2787e-008     -2.3374e-009   
  1.5             -1.7872e-009    2.301e-009      -1.95e-010     
  1.55            -1.8747e-009    -9.723e-009     -3.86e-010     
  1.6             -1.9292e-009    -9.591e-009     -5.791e-010    
  1.65            -4.562e-010     -1.7102e-008    2.2761e-009    
  1.7             2.2267e-009     -4.874e-009     1.2255e-009    
  1.75            6.538e-010      1.3419e-008     -2.2768e-009   
  1.8             -1.8174e-009    2.478e-009      -2.534e-010    
  1.85            -1.8916e-009    -9.781e-009     -4.539e-010    
  1.9             -3.371e-010     -1.5399e-008    2.4375e-009    
  1.95            2.4361e-009     5.888e-009      7.295e-010     
  2               9.495e-010      1.9279e-008     -1.76e-009     
  2.05            -1.9434e-009    4.674e-009      -6.793e-010    
  2.1             -5.274e-010     -1.8179e-008    2.1475e-009    
  2.15            2.1498e-009     -5.995e-009     1.3052e-009    
  2.2             7.337e-010      1.4895e-008     -2.1732e-009   
  2.25            -1.8606e-009    2.781e-009      -3.551e-010    
  2.3             -1.9188e-009    -9.76e-009      -5.499e-010    
  2.35            -4.189e-010     -1.66e-008      2.3204e-009    
  2.4             2.2649e-009     -4.633e-009     1.2049e-009    
  2.45            6.428e-010      1.324e-008      -2.3152e-009   
  2.5             -1.8062e-009    2.515e-009      -2.259e-010    
  2.55            -1.8822e-009    -9.771e-009     -4.191e-010    
  2.6             -1.9305e-009    -9.676e-009     -6.115e-010    
  2.65            -4.788e-010     -1.7328e-008    2.2381e-009    
  2.7             2.2138e-009     -5.23e-009      1.2532e-009    
  2.75            6.889e-010      1.4088e-008     -2.2478e-009   
  2.8             -1.9217e-009    -9.703e-009     -5.727e-010    
  2.85            -4.476e-010     -1.6993e-008    2.295e-009     
  2.9             2.2447e-009     -4.836e-009     1.2247e-009    
  2.95            6.626e-010      1.3336e-008     -2.2881e-009   
  3               -1.9117e-009    -9.753e-009     -5.317e-010    
  3.05            -3.997e-010     -1.6687e-008    2.343e-009     
  3.1             2.2823e-009     -4.362e-009     1.1915e-009    
  3.15            6.34e-010       1.2923e-008     -2.3333e-009   
  3.2             -1.789e-009     2.193e-009      -2.15e-010     
  3.25            -1.8736e-009    -9.759e-009     -4.088e-010    
  3.3             -1.9264e-009    -9.645e-009     -5.92e-010     
  3.35            -4.603e-010     -1.74e-008      2.2722e-009    
  3.4             2.229e-009      -5.048e-009     1.2402e-009    
  3.45            6.819e-010      1.382e-008      -2.2596e-009   
  3.5             -1.9135e-009    -9.833e-009     -5.592e-010    
  3.55            -4.197e-010     -1.6778e-008    2.3183e-009    
  3.6             2.2647e-009     -4.95e-009      1.2127e-009    
  3.65            6.558e-010      1.3322e-008     -2.3076e-009   
  3.7             -1.9055e-009    -9.81e-009      -5.168e-010    
  3.75            -3.859e-010     -1.6285e-008    2.3637e-009    
  3.8             2.2909e-009     -4.406e-009     1.18e-009      
  3.85            6.24e-010       1.2964e-008     -2.3496e-009   
  3.9             -1.7775e-009    2.216e-009      -2.044e-010    
  3.95            -1.8693e-009    -9.776e-009     -3.889e-010    
  4               -1.9157e-009    -9.726e-009     -5.837e-010    
  4.05            -4.445e-010     -1.7178e-008    2.2802e-009    
  4.1             2.2465e-009     -5.135e-009     1.2292e-009    
  4.15            6.725e-010      1.3596e-008     -2.2749e-009   
  4.2             -1.8125e-009    2.597e-009      -2.648e-010    
  4.25            -1.0192e-009    -2.4435e-008    2.6175e-009    
  4.3             1.0662e-009     2.1942e-008     -1.5484e-009   
  4.35            -1.53e-009      6.058e-009      1.521e-010     
  4.4             -7.031e-010     -2.1469e-008    1.6763e-009    
  4.45            1.8044e-009     -9.168e-009     1.565e-009     
  4.5             1.5671e-009     8.187e-009      1.7227e-009    
  4.55            2.3483e-009     8.939e-009      4.674e-010     
  4.6             7.566e-010      1.4912e-008     -2.161e-009    
  4.65            -1.8561e-009    3.06e-009       -3.692e-010    
  4.7             -1.9084e-009    -9.737e-009     -5.621e-010    
  4.75            -1.941e-009     -9.614e-009     -7.5e-010      
  4.8             -5.612e-010     -1.8698e-008    2.0354e-009    
  4.85            2.0916e-009     -7.02e-009      1.365e-009     
  4.9             8.019e-010      1.5993e-008     -2.0809e-009   
  4.95            -1.8725e-009    3.332e-009      -4.406e-010    
  5               -3.126e-010     -1.5452e-008    2.4589e-009    
END_DB

BEGIN_DB
 ICCAP_VAR VG         1              
 ICCAP_VAR VS         0              
 ICCAP_VAR VB         0              

 #VD              ID              IB              IG             
  0               -2.6357e-008    7.27e-009       1.1961e-009    
  0.05            1.8157e-006     1.1627e-008     2.1081e-009    
  0.1             3.0432e-006     -1.8193e-008    1.7397e-009    
  0.15            3.7748e-006     -1.8347e-008    1.6975e-009    
  0.2             4.129e-006      -1.8379e-008    1.6599e-009    
  0.25            4.269e-006      -1.8607e-008    1.6318e-009    
  0.3             4.3203e-006     -1.8924e-008    1.5827e-009    
  0.35            4.3397e-006     -1.8847e-008    1.5438e-009    
  0.4             4.3571e-006     -1.7544e-008    1.6937e-009    
  0.45            4.3583e-006     -1.844e-008     1.662e-009     
  0.5             4.3719e-006     -1.9315e-008    1.8272e-009    
  0.55            4.3675e-006     -1.7993e-008    1.7795e-009    
  0.6             4.3715e-006     -1.8215e-008    1.7401e-009    
  0.65            4.3797e-006     -1.8281e-008    1.69e-009      
  0.7             4.3786e-006     -1.8471e-008    1.6504e-009    
  0.75            4.3882e-006     -1.9347e-008    1.8236e-009    
  0.8             4.3819e-006     -1.7949e-008    1.7781e-009    
  0.85            4.3928e-006     -2.1013e-008    1.9428e-009    
  0.9             4.3879e-006     -1.7076e-008    1.8999e-009    
  0.95            4.3904e-006     -1.7433e-008    1.859e-009     
  1               4.3913e-006     -1.7562e-008    1.8163e-009    
  1.05            4.3947e-006     -1.7981e-008    1.7743e-009    
  1.1             4.3944e-006     -1.8197e-008    1.7416e-009    
  1.15            4.3964e-006     -1.8347e-008    1.6971e-009    
  1.2             4.3991e-006     -1.8454e-008    1.6572e-009    
  1.25            4.4001e-006     -1.8698e-008    1.6168e-009    
  1.3             4.4022e-006     -1.8741e-008    1.5809e-009    
  1.35            4.404e-006      -1.8974e-008    1.5429e-009    
  1.4             4.4103e-006     -9.676e-009     -6.309e-010    
  1.45            4.4564e-006     1.4246e-008     -1.9113e-009   
  1.5             4.4573e-006     1.4442e-008     -1.872e-009    
  1.55            4.4581e-006     1.4833e-008     -1.8354e-009   
  1.6             4.4595e-006     1.5241e-008     -1.8009e-009   
  1.65            4.4634e-006     1.5666e-008     -1.7605e-009   
  1.7             4.4631e-006     1.6116e-008     -1.7266e-009   
  1.75            4.4657e-006     1.6625e-008     -1.6888e-009   
  1.8             4.4662e-006     1.6795e-008     -1.6535e-009   
  1.85            4.4665e-006     1.7078e-008     -1.622e-009    
  1.9             4.4687e-006     1.7367e-008     -1.5867e-009   
  1.95            4.4697e-006     1.764e-008      -1.5641e-009   
  2               4.4056e-006     8.98e-009       1.8812e-009    
  2.05            4.4269e-006     -1.3493e-008    2.7157e-009    
  2.1             4.4277e-006     -1.3336e-008    2.7052e-009    
  2.15            4.4363e-006     -1.2893e-008    2.692e-009     
  2.2             4.4348e-006     -1.2514e-008    2.6741e-009    
  2.25            4.4306e-006     -1.2191e-008    1.905e-010     
  2.3             4.4735e-006     9.159e-009      -2.609e-009    
  2.35            4.4852e-006     1.7056e-008     -1.6495e-009   
  2.4             4.4836e-006     1.7068e-008     -1.6163e-009   
  2.45            4.4851e-006     1.7357e-008     -1.587e-009    
  2.5             4.4204e-006     9.021e-009      1.8673e-009    
  2.55            4.4433e-006     -1.3997e-008    2.7197e-009    
  2.6             4.4428e-006     -1.3736e-008    2.712e-009     
  2.65            4.443e-006      -1.3287e-008    2.7028e-009    
  2.7             4.4438e-006     -1.2966e-008    2.6944e-009    
  2.75            4.4448e-006     -1.2582e-008    2.047e-010     
  2.8             4.4855e-006     8.955e-009      -2.6129e-009   
  2.85            4.4956e-006     1.6479e-008     -1.6788e-009   
  2.9             4.4965e-006     1.6739e-008     -1.653e-009    
  2.95            4.4992e-006     1.7062e-008     -1.6153e-009   
  3               4.499e-006      1.7268e-008     -1.5806e-009   
  3.05            4.4349e-006     8.763e-009      1.8699e-009    
  3.1             4.4559e-006     -1.4233e-008    2.7215e-009    
  3.15            4.4557e-006     -1.4055e-008    2.711e-009     
  3.2             4.4609e-006     -1.3746e-008    2.6994e-009    
  3.25            4.4578e-006     -1.3476e-008    2.6868e-009    
  3.3             4.4582e-006     -1.3176e-008    2.026e-010     
  3.35            4.4994e-006     8.454e-009      -2.6113e-009   
  3.4             4.5089e-006     1.5676e-008     -1.6743e-009   
  3.45            4.5096e-006     1.5846e-008     -1.6418e-009   
  3.5             4.5103e-006     1.6028e-008     -1.6114e-009   
  3.55            4.5121e-006     1.6171e-008     -1.5761e-009   
  3.6             4.5148e-006     1.6362e-008     -1.5456e-009   
  3.65            4.4509e-006     7.074e-009      1.891e-009     
  3.7             4.4707e-006     -1.5385e-008    2.7097e-009    
  3.75            4.5108e-006     -1.1036e-008    -1.2454e-009   
  3.8             4.508e-006      6.066e-009      -2.6095e-009   
  3.85            4.5212e-006     1.2982e-008     -1.7376e-009   
  3.9             4.5229e-006     1.3071e-008     -1.7035e-009   
  3.95            4.5222e-006     1.29e-008       -1.6701e-009   
  4               4.5244e-006     1.2873e-008     -1.6416e-009   
  4.05            4.5273e-006     1.2723e-008     -1.6119e-009   
  4.1             4.5277e-006     1.2566e-008     -1.5801e-009   
  4.15            4.531e-006      1.2426e-008     -1.5491e-009   
  4.2             4.5308e-006     1.2105e-008     -1.5191e-009   
  4.25            4.5324e-006     1.1923e-008     -1.4884e-009   
  4.3             4.5303e-006     3.026e-009      -2.5738e-009   
  4.35            4.5343e-006     2.536e-009      -2.5618e-009   
  4.4             4.5366e-006     1.793e-009      -2.5512e-009   
  4.45            4.5396e-006     1.044e-009      -2.542e-009    
  4.5             4.5413e-006     2.9e-010        -2.5304e-009   
  4.55            4.5445e-006     -6.97e-010      -2.5164e-009   
  4.6             4.5464e-006     -1.599e-009     -2.5015e-009   
  4.65            4.5479e-006     -2.65e-009      -2.4829e-009   
  4.7             4.5498e-006     -3.959e-009     -2.4652e-009   
  4.75            4.5527e-006     -5.038e-009     -2.4442e-009   
  4.8             4.5183e-006     -1.7478e-008    -2.5049e-009   
  4.85            4.5194e-006     -1.9665e-008    -2.5566e-009   
  4.9             4.4939e-006     -1.1196e-008    1.1087e-009    
  4.95            4.5106e-006     -4.4163e-008    2.6505e-009    
  5               4.5613e-006     -3.1097e-008    -1.3358e-009   
END_DB

BEGIN_DB
 ICCAP_VAR VG         2              
 ICCAP_VAR VS         0              
 ICCAP_VAR VB         0              

 #VD              ID              IB              IG             
  0               -1.3499e-007    2.5519e-008     -1.2744e-009   
  0.05            9.6198e-006     -2.4544e-008    -2.6032e-009   
  0.1             1.8878e-005     2.0075e-008     -1.0272e-009   
  0.15            2.7778e-005     1.0433e-008     -2.5764e-009   
  0.2             3.6322e-005     1.2308e-008     -2.0961e-009   
  0.25            4.4456e-005     1.9519e-008     -1.4232e-009   
  0.3             5.2168e-005     8.506e-009      1.0231e-009    
  0.35            5.9501e-005     -8.938e-009     2.7115e-009    
  0.4             6.6467e-005     -1.4889e-008    2.1539e-009    
  0.45            7.3029e-005     -9.883e-009     -7.547e-010    
  0.5             7.9198e-005     2.367e-008      -1.2781e-009   
  0.55            8.4894e-005     1.607e-008      -1.6927e-009   
  0.6             9.0168e-005     2.393e-008      -2.4552e-009   
  0.65            9.4982e-005     1.4984e-008     -1.789e-009    
  0.7             9.9319e-005     1.4245e-008     -1.3534e-009   
  0.75            0.000103261     1.3919e-008     -1.8949e-009   
  0.8             0.000106709     2.2094e-008     -1.3188e-009   
  0.85            0.000109725     1.4864e-008     -1.8152e-009   
  0.9             0.000112288     2.3005e-008     -1.2921e-009   
  0.95            0.00011429      1.5579e-008     2.7521e-009    
  1               0.00011599      -1.4567e-008    2.2348e-009    
  1.05            0.00011744      -9.865e-009     -8.203e-010    
  1.1             0.00011862      2.562e-008      -2.3122e-009   
  1.15            0.00011915      8.824e-009      1.9348e-009    
  1.2             0.00011966      -2.292e-008     2.6855e-009    
  1.25            0.00012016      -1.7073e-008    1.8571e-009    
  1.3             0.00012047      -2.4287e-008    2.5455e-009    
  1.35            0.00012073      -1.8898e-008    1.58e-009      
  1.4             0.00012087      -2.4243e-008    2.328e-009     
  1.45            0.00012115      -9.85e-009      -7.64e-010     
  1.5             0.00012142      2.494e-008      -2.3814e-009   
  1.55            0.00012129      8.483e-009      1.8821e-009    
  1.6             0.00012138      -2.2311e-008    2.7162e-009    
  1.65            0.00012149      -1.6362e-008    1.9562e-009    
  1.7             0.0001216       -2.3871e-008    2.6063e-009    
  1.75            0.0001217       -1.8477e-008    1.6735e-009    
  1.8             0.00012173      -2.4711e-008    2.4075e-009    
  1.85            0.00012186      -9.858e-009     -6.945e-010    
  1.9             0.00012218      2.4344e-008     -2.4452e-009   
  1.95            0.00012219      1.7227e-008     -1.5971e-009   
  2               0.00012225      2.5915e-008     -2.2622e-009   
  2.05            0.00012231      1.98e-008       -1.4119e-009   
  2.1             0.00012239      1.4566e-008     -1.8343e-009   
  2.15            0.00012249      2.4348e-008     -2.4309e-009   
  2.2             0.00012246      1.7337e-008     -1.5852e-009   
  2.25            0.00012254      1.2617e-008     -2.0796e-009   
  2.3             0.00012256      2.2154e-008     -1.3197e-009   
  2.35            0.00012262      1.6791e-008     -1.6471e-009   
  2.4             0.00012272      2.5647e-008     -2.2981e-009   
  2.45            0.00012248      8.769e-009      1.9495e-009    
  2.5             0.00012249      -2.3215e-008    2.6789e-009    
  2.55            0.00012263      -1.7331e-008    1.8244e-009    
  2.6             0.00012266      -2.4526e-008    2.5269e-009    
  2.65            0.00012273      -9.608e-009     -5.85e-010     
  2.7             0.00012299      2.3306e-008     -1.2901e-009   
  2.75            0.00012299      1.7477e-008     -1.5668e-009   
  2.8             0.00012279      8.347e-009      1.0071e-009    
  2.85            0.00012275      -1.0149e-008    2.6559e-009    
  2.9             0.00012287      -1.7876e-008    1.7682e-009    
  2.95            0.00012293      -2.4512e-008    2.4901e-009    
  3               0.00012307      -9.711e-009     -6.257e-010    
  3.05            0.00012323      8.032e-009      -2.6044e-009   
  3.1             0.00012331      1.0554e-008     -2.3646e-009   
  3.15            0.00012305      8.276e-009      1.9023e-009    
  3.2             0.00012316      -2.2544e-008    2.7076e-009    
  3.25            0.00012313      -1.6723e-008    1.9164e-009    
  3.3             0.00012314      -2.4263e-008    2.5818e-009    
  3.35            0.00012324      -1.8794e-008    1.6319e-009    
  3.4             0.00012329      -2.4797e-008    2.3752e-009    
  3.45            0.00012339      -1.0224e-008    -7.188e-010    
  3.5             0.0001236       8.153e-009      -2.6207e-009   
  3.55            0.00012365      1.0749e-008     -2.2641e-009   
  3.6             0.00012366      1.8756e-008     -1.4155e-009   
  3.65            0.0001237       1.3477e-008     -1.8378e-009   
  3.7             0.00012375      9.265e-009      -2.3181e-009   
  3.75            0.00012372      1.714e-008      -1.4561e-009   
  3.8             0.00012382      1.12e-008       -1.9051e-009   
  3.85            0.00012385      7.538e-009      -2.3748e-009   
  3.9             0.00012388      1.4361e-008     -1.503e-009    
  3.95            0.00012389      8.48e-009       -1.9711e-009   
  4               0.00012397      4.282e-009      -2.417e-009    
  4.05            0.00012398      1.0451e-008     -1.5572e-009   
  4.1             0.00012401      4.116e-009      -2.0416e-009   
  4.15            0.00012405      -1.17e-010      -2.455e-009    
