! VERSION = 6.00
BEGIN_HEADER
 ICCAP_INPUTS
  VG         V  B GROUND SMU4 0.001 LIN        2    0          5          6    1         
  VS         V  E GROUND SMU3 0.1 CON        0
  VD         V  S GROUND SMU2 0.1 LIN        1    0          10         201  0.05      
  VB         V  C GROUND SMU1 0.1 LIN        3    0          -2.5       2    -2.5      
 ICCAP_OUTPUTS
  ID         I  S GROUND SMU2 B
  IB         I  C GROUND SMU1 B
  IG         I  B GROUND SMU4 B
END_HEADER

BEGIN_DB
 ICCAP_VAR VG         0              
 ICCAP_VAR VS         0              
 ICCAP_VAR VB         0              

 #VD              ID              IB              IG             
  0               1.8093e-009     5.079e-009      -1.882e-010    
  0.05            1.8654e-009     1.3481e-008     -1.4023e-009   
  0.1             -1.8184e-009    -1.3765e-008    1.4008e-009    
  0.15            1.7763e-009     1.3425e-008     -1.4146e-009   
  0.2             -1.7321e-009    -1.3817e-008    1.4153e-009    
  0.25            1.6919e-009     1.3694e-008     -1.4286e-009   
  0.3             -1.6529e-009    -1.4011e-008    1.4328e-009    
  0.35            1.6161e-009     1.3815e-008     -1.4474e-009   
  0.4             -1.5797e-009    -1.4016e-008    1.4459e-009    
  0.45            1.5404e-009     1.3855e-008     -1.4589e-009   
  0.5             -1.5043e-009    -1.4114e-008    1.4545e-009    
  0.55            1.4756e-009     1.3896e-008     -1.4635e-009   
  0.6             -8.282e-010     -1.4029e-008    1.4426e-009    
  0.65            1.3498e-009     1.3389e-008     -1.3828e-009   
  0.7             -2.0722e-009    -1.2773e-008    1.3782e-009    
  0.75            2.0288e-009     1.2941e-008     -1.3873e-009   
  0.8             -1.9881e-009    -1.3412e-008    1.3861e-009    
  0.85            1.9359e-009     1.3321e-008     -1.3939e-009   
  0.9             -1.8853e-009    -1.3655e-008    1.3952e-009    
  0.95            1.8464e-009     1.3507e-008     -1.4042e-009   
  1               -1.8007e-009    -1.372e-008     1.4054e-009    
  1.05            1.754e-009      1.3495e-008     -1.4193e-009   
  1.1             -1.7142e-009    -1.3893e-008    1.419e-009     
  1.15            1.6724e-009     1.3702e-008     -1.4371e-009   
  1.2             -1.6254e-009    -1.4066e-008    1.4365e-009    
  1.25            1.5968e-009     1.3741e-008     -1.4516e-009   
  1.3             -1.5556e-009    -1.407e-008     1.4502e-009    
  1.35            1.523e-009      1.3856e-008     -1.4603e-009   
  1.4             -1.4898e-009    -1.4208e-008    1.455e-009     
  1.45            1.462e-009      1.3891e-008     -1.4626e-009   
  1.5             -8.135e-010     -1.3893e-008    1.4345e-009    
  1.55            1.335e-009      1.3213e-008     -1.3831e-009   
  1.6             -2.0477e-009    -1.3004e-008    1.3804e-009    
  1.65            2.0035e-009     1.3125e-008     -1.3893e-009   
  1.7             -1.9556e-009    -1.3491e-008    1.3861e-009    
  1.75            1.9086e-009     1.3433e-008     -1.3981e-009   
  1.8             -1.8619e-009    -1.3752e-008    1.3948e-009    
  1.85            1.8151e-009     1.3557e-008     -1.4097e-009   
  1.9             -1.7677e-009    -1.3748e-008    1.41e-009      
  1.95            1.7269e-009     1.356e-008      -1.4246e-009   
  2               -1.6866e-009    -1.402e-008     1.4271e-009    
  2.05            1.6514e-009     1.3734e-008     -1.4421e-009   
  2.1             -1.6091e-009    -1.4079e-008    1.44e-009      
  2.15            1.5669e-009     1.3818e-008     -1.4549e-009   
  2.2             -1.5309e-009    -1.409e-008     1.4521e-009    
  2.25            1.5052e-009     1.3878e-008     -1.4618e-009   
  2.3             -1.4649e-009    -1.4282e-008    1.4552e-009    
  2.35            8.374e-010      1.3718e-008     -1.4457e-009   
  2.4             -1.3366e-009    -1.3603e-008    1.3783e-009    
  2.45            2.0655e-009     1.2626e-008     -1.3856e-009   
  2.5             -2.0159e-009    -1.3162e-008    1.3822e-009    
  2.55            1.9755e-009     1.3204e-008     -1.3909e-009   
  2.6             -1.9274e-009    -1.3577e-008    1.3908e-009    
  2.65            1.8842e-009     1.3508e-008     -1.3981e-009   
  2.7             -1.839e-009     -1.3814e-008    1.398e-009     
  2.75            1.7977e-009     1.3596e-008     -1.4113e-009   
  2.8             -1.7501e-009    -1.3865e-008    1.4112e-009    
  2.85            1.7044e-009     1.3629e-008     -1.4278e-009   
  2.9             -1.6638e-009    -1.3977e-008    1.4271e-009    
  2.95            1.6282e-009     1.3811e-008     -1.4456e-009   
  3               -1.5897e-009    -1.4106e-008    1.4463e-009    
  3.05            1.5547e-009     1.3803e-008     -1.4584e-009   
  3.1             -1.5188e-009    -1.4074e-008    1.4545e-009    
  3.15            1.4862e-009     1.3858e-008     -1.4641e-009   
  3.2             -1.4471e-009    -1.4199e-008    1.4545e-009    
  3.25            8.23e-010       1.3677e-008     -1.4396e-009   
  3.3             -1.3165e-009    -1.3413e-008    1.3773e-009    
  3.35            2.0386e-009     1.2954e-008     -1.3862e-009   
  3.4             -1.9923e-009    -1.3386e-008    1.3834e-009    
  3.45            1.9486e-009     1.3302e-008     -1.3939e-009   
  3.5             -1.8965e-009    -1.3699e-008    1.3933e-009    
  3.55            1.853e-009      1.3552e-008     -1.4032e-009   
  3.6             -1.8009e-009    -1.3777e-008    1.405e-009     
  3.65            1.7667e-009     1.3521e-008     -1.4175e-009   
  3.7             -1.7205e-009    -1.3872e-008    1.4179e-009    
  3.75            1.6754e-009     1.369e-008      -1.4343e-009   
  3.8             -1.6397e-009    -1.4031e-008    1.4334e-009    
  3.85            1.5998e-009     1.3779e-008     -1.4527e-009   
  3.9             -1.5528e-009    -1.4018e-008    1.4497e-009    
  3.95            1.5268e-009     1.3708e-008     -1.4608e-009   
  4               -1.4849e-009    -1.413e-008     1.4571e-009    
  4.05            1.4625e-009     1.3822e-008     -1.4637e-009   
  4.1             -8.131e-010     -1.3835e-008    1.4361e-009    
  4.15            1.3341e-009     1.3329e-008     -1.3843e-009   
  4.2             -2.0435e-009    -1.31e-008      1.3841e-009    
  4.25            2.0078e-009     1.3179e-008     -1.3897e-009   
  4.3             -1.9523e-009    -1.356e-008     1.392e-009     
  4.35            1.9062e-009     1.3461e-008     -1.4028e-009   
  4.4             -1.8575e-009    -1.379e-008     1.4044e-009    
  4.45            1.8168e-009     1.354e-008      -1.4195e-009   
  4.5             -1.7706e-009    -1.3754e-008    1.4182e-009    
  4.55            1.7309e-009     1.3506e-008     -1.4335e-009   
  4.6             -1.6798e-009    -1.3824e-008    1.43e-009      
  4.65            1.6466e-009     1.3574e-008     -1.447e-009    
  4.7             -1.6029e-009    -1.39e-008      1.4449e-009    
  4.75            1.572e-009      1.36e-008       -1.4584e-009   
  4.8             -1.5295e-009    -1.3889e-008    1.4535e-009    
  4.85            1.5022e-009     1.3692e-008     -1.462e-009    
  4.9             -1.4625e-009    -1.4113e-008    1.4541e-009    
  4.95            8.359e-010      1.3459e-008     -1.4403e-009   
  5               -1.3289e-009    -1.3668e-008    1.3847e-009    
  5.05            2.0528e-009     1.2951e-008     -1.3918e-009   
  5.1             -2.0037e-009    -1.335e-008     1.389e-009     
  5.15            1.9687e-009     1.3346e-008     -1.3963e-009   
  5.2             -1.9158e-009    -1.3736e-008    1.3971e-009    
  5.25            1.8769e-009     1.3557e-008     -1.4064e-009   
  5.3             -1.8211e-009    -1.3807e-008    1.408e-009     
  5.35            1.784e-009      1.3506e-008     -1.4197e-009   
  5.4             -1.7335e-009    -1.3798e-008    1.42e-009      
  5.45            1.7015e-009     1.3613e-008     -1.436e-009    
  5.5             -1.6532e-009    -1.3972e-008    1.4359e-009    
  5.55            1.6213e-009     1.3735e-008     -1.4506e-009   
  5.6             -1.5774e-009    -1.4069e-008    1.4492e-009    
  5.65            1.5433e-009     1.3669e-008     -1.4617e-009   
  5.7             -1.4978e-009    -1.4026e-008    1.4579e-009    
  5.75            1.4776e-009     1.3847e-008     -1.4634e-009   
  5.8             -8.275e-010     -1.4046e-008    1.4402e-009    
  5.85            1.348e-009      1.3324e-008     -1.3809e-009   
  5.9             -2.0628e-009    -1.2986e-008    1.3794e-009    
  5.95            2.0194e-009     1.302e-008      -1.3868e-009   
  6               -1.9708e-009    -1.3458e-008    1.3834e-009    
  6.05            1.9297e-009     1.3426e-008     -1.3966e-009   
  6.1             -1.8793e-009    -1.3758e-008    1.3954e-009    
  6.15            1.8382e-009     1.3609e-008     -1.4097e-009   
  6.2             -1.7853e-009    -1.3811e-008    1.4089e-009    
  6.25            1.7471e-009     1.3578e-008     -1.4257e-009   
  6.3             -1.6946e-009    -1.3899e-008    1.4272e-009    
  6.35            1.6597e-009     1.3789e-008     -1.4431e-009   
  6.4             -1.6174e-009    -1.4026e-008    1.4426e-009    
  6.45            1.5849e-009     1.3791e-008     -1.4573e-009   
  6.5             -1.5416e-009    -1.4014e-008    1.4558e-009    
  6.55            1.5128e-009     1.3724e-008     -1.4664e-009   
  6.6             -1.4706e-009    -1.4142e-008    1.4595e-009    
  6.65            8.435e-010      1.3835e-008     -1.4466e-009   
  6.7             -1.3388e-009    -1.3588e-008    1.3762e-009    
  6.75            2.072e-009      1.2739e-008     -1.3841e-009   
  6.8             -2.0219e-009    -1.3171e-008    1.3818e-009    
  6.85            1.9875e-009     1.3221e-008     -1.3891e-009   
  6.9             -1.9282e-009    -1.3644e-008    1.3884e-009    
  6.95            1.8894e-009     1.3534e-008     -1.4002e-009   
  7               -1.8358e-009    -1.3796e-008    1.4023e-009    
  7.05            1.7927e-009     1.3573e-008     -1.4163e-009   
  7.1             -1.7407e-009    -1.3806e-008    1.417e-009     
  7.15            1.7001e-009     1.3615e-008     -1.4355e-009   
  7.2             -1.657e-009     -1.4033e-008    1.4357e-009    
  7.25            1.6217e-009     1.3734e-008     -1.4509e-009   
  7.3             -1.5752e-009    -1.3989e-008    1.4509e-009    
  7.35            1.55e-009       1.3687e-008     -1.464e-009    
  7.4             -1.5033e-009    -1.3975e-008    1.4572e-009    
  7.45            1.4779e-009     1.3701e-008     -1.468e-009    
  7.5             -8.233e-010     -1.3949e-008    1.4393e-009    
  7.55            1.3511e-009     1.3243e-008     -1.3819e-009   
  7.6             -2.0645e-009    -1.2982e-008    1.3797e-009    
  7.65            2.0209e-009     1.3065e-008     -1.3903e-009   
  7.7             -1.9682e-009    -1.3486e-008    1.3894e-009    
  7.75            1.9277e-009     1.3461e-008     -1.4005e-009   
  7.8             -1.8754e-009    -1.3798e-008    1.4004e-009    
  7.85            1.8343e-009     1.3534e-008     -1.4151e-009   
  7.9             -1.7752e-009    -1.374e-008     1.4168e-009    
  7.95            1.7453e-009     1.3481e-008     -1.4327e-009   
  8               -1.6857e-009    -1.3841e-008    1.4321e-009    
  8.05            1.6554e-009     1.3662e-008     -1.4482e-009   
  8.1             -1.6069e-009    -1.3963e-008    1.4465e-009    
  8.15            1.575e-009      1.3594e-008     -1.46e-009     
  8.2             -1.5267e-009    -1.3917e-008    1.4544e-009    
  8.25            1.5025e-009     1.3636e-008     -1.4644e-009   
  8.3             -1.4654e-009    -1.4086e-008    1.4584e-009    
  8.35            8.398e-010      1.3658e-008     -1.4464e-009   
  8.4             -1.3269e-009    -1.3551e-008    1.3811e-009    
  8.45            2.0615e-009     1.2827e-008     -1.3887e-009   
  8.5             -2.0071e-009    -1.3331e-008    1.3882e-009    
  8.55            1.9711e-009     1.3315e-008     -1.3955e-009   
  8.6             -1.9236e-009    -1.3657e-008    1.3977e-009    
  8.65            1.8694e-009     1.3535e-008     -1.4057e-009   
  8.7             -1.8245e-009    -1.381e-008     1.4084e-009    
  8.75            1.7765e-009     1.3529e-008     -1.4242e-009   
  8.8             -1.7305e-009    -1.3798e-008    1.4254e-009    
  8.85            1.6953e-009     1.3618e-008     -1.442e-009    
  8.9             -1.6438e-009    -1.3968e-008    1.4404e-009    
  8.95            1.6154e-009     1.3661e-008     -1.4548e-009   
  9               -1.5655e-009    -1.3892e-008    1.4544e-009    
  9.05            1.535e-009      1.3603e-008     -1.4648e-009   
  9.1             -1.4906e-009    -1.3926e-008    1.4581e-009    
  9.15            1.4685e-009     1.3742e-008     -1.4671e-009   
  9.2             -8.205e-010     -1.3771e-008    1.4351e-009    
  9.25            1.34e-009       1.334e-008      -1.3837e-009   
  9.3             -2.0446e-009    -1.3176e-008    1.3833e-009    
  9.35            2.013e-009      1.3181e-008     -1.3929e-009   
  9.4             -1.9561e-009    -1.3552e-008    1.3919e-009    
  9.45            1.9121e-009     1.3404e-008     -1.403e-009    
  9.5             -1.8602e-009    -1.3756e-008    1.4e-009       
  9.55            1.822e-009      1.3511e-008     -1.4132e-009   
  9.6             -1.7713e-009    -1.3781e-008    1.4172e-009    
  9.65            1.7254e-009     1.3489e-008     -1.4319e-009   
  9.7             -1.6753e-009    -1.3849e-008    1.4351e-009    
  9.75            1.6487e-009     1.3663e-008     -1.4498e-009   
  9.8             -1.6006e-009    -1.3832e-008    1.4507e-009    
  9.85            1.5697e-009     1.3585e-008     -1.4631e-009   
  9.9             -1.5159e-009    -1.3879e-008    1.4569e-009    
  9.95            1.494e-009      1.3656e-008     -1.466e-009    
  10              -8.363e-010     -1.4018e-008    1.4429e-009    
END_DB

BEGIN_DB
 ICCAP_VAR VG         1              
 ICCAP_VAR VS         0              
 ICCAP_VAR VB         0              

 #VD              ID              IB              IG             
  0               2.926e-007      1.3449e-008     6.055e-010     
  0.05            2.5546e-005     -1.2819e-008    -1.4117e-009   
  0.1             4.5702e-005     7.058e-009      -1.3944e-009   
  0.15            6.0528e-005     1.374e-008      -1.4465e-009   
  0.2             7.0299e-005     1.2636e-008     -1.4599e-009   
  0.25            7.6046e-005     1.2563e-008     -1.397e-009    
  0.3             7.9322e-005     1.3735e-008     -1.4511e-009   
  0.35            8.1016e-005     1.2377e-008     -1.4545e-009   
  0.4             8.2067e-005     1.2706e-008     -1.4017e-009   
  0.45            8.2746e-005     8.001e-009      -1.388e-009    
  0.5             8.3419e-005     1.3712e-008     -1.4326e-009   
  0.55            8.3817e-005     1.3011e-008     -1.4646e-009   
  0.6             8.4156e-005     1.2351e-008     -1.3911e-009   
  0.65            8.4588e-005     1.3743e-008     -1.4388e-009   
  0.7             8.4824e-005     1.2786e-008     -1.4627e-009   
  0.75            8.5086e-005     1.2384e-008     -1.3929e-009   
  0.8             8.5431e-005     1.3787e-008     -1.4458e-009   
  0.85            8.5629e-005     1.2619e-008     -1.4595e-009   
  0.9             8.5828e-005     1.2514e-008     -1.3969e-009   
  0.95            8.6159e-005     1.3737e-008     -1.4512e-009   
  1               8.6293e-005     1.2433e-008     -1.4541e-009   
  1.05            8.6474e-005     1.2706e-008     -1.4012e-009   
  1.1             8.6783e-005     1.3742e-008     -1.4553e-009   
  1.15            8.691e-005      1.2249e-008     -1.451e-009    
  1.2             8.7098e-005     1.289e-008      -1.4061e-009   
  1.25            8.7266e-005     7.737e-009      -1.3915e-009   
  1.3             8.7569e-005     1.3767e-008     -1.4366e-009   
  1.35            8.7684e-005     1.2908e-008     -1.4652e-009   
  1.4             8.7853e-005     1.2474e-008     -1.3928e-009   
  1.45            8.8146e-005     1.375e-008      -1.4448e-009   
  1.5             8.8252e-005     1.2692e-008     -1.4606e-009   
  1.55            8.8398e-005     1.2549e-008     -1.3956e-009   
  1.6             8.8651e-005     1.3749e-008     -1.4504e-009   
  1.65            8.8759e-005     1.2475e-008     -1.4568e-009   
  1.7             8.892e-005      1.267e-008      -1.4014e-009   
  1.75            8.9179e-005     1.372e-008      -1.4538e-009   
  1.8             8.9267e-005     1.2209e-008     -1.4489e-009   
  1.85            8.9418e-005     1.2852e-008     -1.4059e-009   
  1.9             8.9547e-005     7.752e-009      -1.3895e-009   
  1.95            8.9824e-005     1.3698e-008     -1.4378e-009   
  2               8.9946e-005     1.2919e-008     -1.4641e-009   
  2.05            9.0041e-005     1.2438e-008     -1.393e-009    
  2.1             9.0326e-005     1.3638e-008     -1.4419e-009   
  2.15            9.042e-005      1.2657e-008     -1.462e-009    
  2.2             9.0536e-005     1.2466e-008     -1.393e-009    
  2.25            9.0782e-005     1.3609e-008     -1.4499e-009   
  2.3             9.0834e-005     1.2433e-008     -1.4571e-009   
  2.35            9.1e-005        1.2526e-008     -1.3992e-009   
  2.4             9.1216e-005     1.3549e-008     -1.4554e-009   
  2.45            9.1258e-005     1.205e-008      -1.452e-009    
  2.5             9.1447e-005     1.2347e-008     -1.4051e-009   
  2.55            9.1529e-005     7.404e-009      -1.39e-009     
  2.6             9.1813e-005     1.3102e-008     -1.4356e-009   
  2.65            9.1776e-005     5.264e-009      -1.4088e-009   
  2.7             9.1962e-005     6.305e-009      -1.3934e-009   
  2.75            9.2232e-005     1.2378e-008     -1.4417e-009   
  2.8             9.2243e-005     4.172e-009      -1.4144e-009   
  2.85            9.2357e-005     4.795e-009      -1.3951e-009   
  2.9             9.253e-005      6.246e-009      -1.3844e-009   
  2.95            9.2668e-005     7.732e-009      -1.3751e-009   
  3               9.291e-005      -2.31e-010      -1.4625e-009   
  3.05            9.2798e-005     -1.6158e-008    -6.201e-010    
  3.1             9.2971e-005     -1.7698e-008    -5.886e-010    
  3.15            9.3137e-005     -1.9147e-008    -5.605e-010    
  3.2             9.3263e-005     -2.0248e-008    1.3808e-009    
  3.25            9.2997e-005     -2.4287e-008    1.4254e-009    
  3.3             9.3197e-005     -2.5477e-008    1.4579e-009    
  3.35            9.3366e-005     -2.6694e-008    1.3854e-009    
  3.4             9.3399e-005     -3.0523e-008    1.4314e-009    
  3.45            9.3559e-005     -3.2269e-008    1.4586e-009    
  3.5             9.3752e-005     -3.4695e-008    1.3888e-009    
  3.55            9.3782e-005     -3.9288e-008    1.4366e-009    
  3.6             9.3995e-005     -4.1817e-008    1.4552e-009    
  3.65            9.4158e-005     -4.5528e-008    1.3901e-009    
  3.7             9.4176e-005     -5.1326e-008    1.4438e-009    
  3.75            9.4395e-005     -5.4923e-008    1.4482e-009    
  3.8             9.4541e-005     -6.0318e-008    1.3957e-009    
  3.85            9.4579e-005     -6.7352e-008    1.4473e-009    
  3.9             9.4783e-005     -7.2e-008       1.4434e-009    
  3.95            9.4874e-005     -7.9402e-008    1.4001e-009    
  4               9.4955e-005     -8.7892e-008    1.4525e-009    
  4.05            9.5137e-005     -9.4361e-008    1.3735e-009    
  4.1             9.5145e-005     -1.04808e-007   1.4035e-009    
  4.15            9.5335e-005     -1.14196e-007   1.4571e-009    
  4.2             9.5744e-005     -1.1059e-007    5.228e-010     
  4.25            9.6079e-005     -1.2868e-007    -9.544e-010    
  4.3             9.6172e-005     -1.264e-007     -1.3983e-009   
  4.35            9.6417e-005     -1.3169e-007    -1.453e-009    
