! VERSION = 6.00
BEGIN_HEADER
 ICCAP_INPUTS
  VG         V  B GROUND SMU4 0.001 LIN        1    0          5          101  0.05      
  VS         V  E GROUND SMU2 0.1 CON        0
  VB         V  C GROUND SMU3 0.1 LIN        3    0          -5         3    -2.5      
  VD         V  S GROUND SMU1 0.1 LIN        2    0.1        5          2    4.9       
 ICCAP_OUTPUTS
  IG         I  B GROUND SMU4 B
  ID         I  S GROUND SMU1 B
  IB         I  C GROUND SMU3 B
END_HEADER

BEGIN_DB
 ICCAP_VAR VS         0              
 ICCAP_VAR VB         0              
 ICCAP_VAR VD         0.1            

 #VG              IG              ID              IB             
  0               -3.6231e-008    -3.7932e-007    4.173e-007     
  0.05            -4.0404e-009    -1.2928e-008    1.206e-008     
  0.1             2.6697e-009     -6e-011         1.956e-009     
  0.15            2.6835e-009     -5e-009         3.371e-007     
  0.2             2.1467e-009     -1.675e-008     3.3195e-007    
  0.25            2.5297e-009     -7.43e-008      3.2785e-007    
  0.3             2.6145e-009     -1.1207e-007    3.1413e-007    
  0.35            2.6816e-009     -1.5521e-007    3.2012e-007    
  0.4             2.7326e-009     -2.0009e-007    3.1389e-007    
  0.45            2.6584e-009     -1.83e-009      3.0959e-007    
  0.5             2.0646e-009     -1.167e-008     3.0306e-007    
  0.55            2.5592e-009     -5.743e-008     2.9568e-007    
  0.6             2.6432e-009     -8.585e-008     2.8457e-007    
  0.65            2.6985e-009     -9.712e-008     2.9081e-007    
  0.7             2.739e-009      -7.243e-008     2.8405e-007    
  0.75            2.6143e-009     3.0214e-007     2.7835e-007    
  0.8             1.9763e-009     7.7066e-007     2.7219e-007    
  0.85            8.886e-010      1.7584e-006     1.13816e-007   
  0.9             -2.0414e-009    3.4698e-006     2.6905e-007    
  0.95            -1.4357e-009    5.7297e-006     2.6421e-007    
  1               7.057e-010      7.9517e-006     2.5919e-007    
  1.05            -2.1419e-009    1.07209e-005    2.5473e-007    
  1.1             2.4189e-009     1.2836e-005     2.5388e-007    
  1.15            1.6211e-009     1.5342e-005     2.4744e-007    
  1.2             -2.224e-010     1.7386e-005     8.95e-009      
  1.25            -1.9759e-009    1.9378e-005     4.502e-008     
  1.3             -2.3468e-009    2.1185e-005     1.0764e-007    
  1.35            -2.5305e-009    2.286e-005      2.0575e-007    
  1.4             -2.5272e-009    2.4405e-005     2.4456e-007    
  1.45            -2.2418e-009    2.5874e-005     2.4565e-007    
  1.5             -1.6067e-009    2.7247e-005     2.4706e-007    
  1.55            2.238e-010      2.8535e-005     5.6e-010       
  1.6             2.1308e-009     2.9767e-005     4.621e-008     
  1.65            2.4725e-009     3.0922e-005     9.964e-008     
  1.7             2.6576e-009     3.2023e-005     2.024e-007     
  1.75            2.732e-009      3.3084e-005     2.4808e-007    
  1.8             2.5811e-009     3.4091e-005     2.4621e-007    
  1.85            1.9086e-009     3.5036e-005     2.4469e-007    
  1.9             -5.23e-011      3.5886e-005     8.26e-009      
  1.95            -1.8747e-009    3.6812e-005     3.575e-008     
  2               -2.2185e-009    3.7669e-005     8.002e-008     
  2.05            -2.5011e-009    3.8476e-005     1.7366e-007    
  2.1             -2.5377e-009    3.9237e-005     2.4313e-007    
  2.15            -2.401e-009     3.9983e-005     2.4513e-007    
  2.2             -1.8318e-009    4.0703e-005     2.4736e-007    
  2.25            3.385e-010      4.1391e-005     2.32e-009      
  2.3             2.2157e-009     4.2073e-005     5.408e-008     
  2.35            2.5273e-009     4.2709e-005     1.2213e-007    
  2.4             2.6724e-009     4.3338e-005     2.2043e-007    
  2.45            2.7378e-009     4.396e-005      2.4644e-007    
  2.5             2.4697e-009     4.4541e-005     2.4433e-007    
  2.55            1.7036e-009     4.5094e-005     2.4321e-007    
  2.6             -1.718e-010     4.5602e-005     9.93e-009      
  2.65            -1.943e-009     4.6186e-005     4.393e-008     
  2.7             -2.3127e-009    4.6716e-005     9.953e-008     
  2.75            -2.5158e-009    4.722e-005      2.0026e-007    
  2.8             -2.5295e-009    4.7695e-005     2.4431e-007    
  2.85            -2.3004e-009    4.8164e-005     2.448e-007     
  2.9             -1.6594e-009    4.8624e-005     2.4692e-007    
  2.95            1.89e-010       4.9076e-005     5.4e-010       
  3               2.0934e-009     4.9519e-005     4.418e-008     
  3.05            2.4515e-009     4.9929e-005     9.508e-008     
  3.1             2.6441e-009     5.0344e-005     1.9665e-007    
  3.15            2.7268e-009     5.0768e-005     2.4784e-007    
  3.2             2.6276e-009     5.1156e-005     2.4557e-007    
  3.25            1.9684e-009     5.1529e-005     2.4544e-007    
  3.3             -2.976e-010     5.1854e-005     1.259e-008     
  3.35            -2.0272e-009    5.2257e-005     5.39e-008      
  3.4             -2.4039e-009    5.2626e-005     1.217e-007     
  3.45            -2.5305e-009    5.2956e-005     2.1695e-007    
  3.5             -2.5143e-009    5.3285e-005     2.4507e-007    
  3.55            -2.1513e-009    5.3609e-005     2.4616e-007    
  3.6             -1.4907e-009    5.3918e-005     2.4814e-007    
  3.65            3.323e-010      5.4236e-005     2.16e-009      
  3.7             2.2029e-009     5.4553e-005     5.374e-008     
  3.75            2.5194e-009     5.4837e-005     1.1845e-007    
  3.8             2.6695e-009     5.5138e-005     2.2136e-007    
  3.85            2.7426e-009     5.5435e-005     2.4709e-007    
  3.9             2.4981e-009     5.5708e-005     2.4583e-007    
  3.95            1.7188e-009     5.5961e-005     2.4355e-007    
  4               -1.539e-010     5.6179e-005     9.26e-009      
  4.05            -1.9332e-009    5.6473e-005     4.335e-008     
  4.1             -2.3017e-009    5.6744e-005     9.89e-008      
  4.15            -2.5139e-009    5.6981e-005     1.9622e-007    
  4.2             -2.5321e-009    5.7206e-005     2.4663e-007    
  4.25            -2.3094e-009    5.7444e-005     2.472e-007     
  4.3             -1.6604e-009    5.7664e-005     2.4811e-007    
  4.35            1.939e-010      5.7893e-005     7e-010         
  4.4             2.0892e-009     5.8117e-005     4.146e-008     
  4.45            2.4488e-009     5.8323e-005     9.352e-008     
  4.5             2.6396e-009     5.853e-005      1.9389e-007    
  4.55            2.7268e-009     5.8759e-005     2.4908e-007    
  4.6             2.6333e-009     5.8961e-005     2.4937e-007    
  4.65            1.9799e-009     5.9143e-005     2.4591e-007    
  4.7             -2.815e-010     5.9291e-005     1.195e-008     
  4.75            -2.0183e-009    5.9514e-005     5.251e-008     
  4.8             -2.39e-009      5.9713e-005     1.2104e-007    
  4.85            -2.5268e-009    5.9875e-005     2.1542e-007    
  4.9             -2.516e-009     6.0032e-005     2.4785e-007    
  4.95            -2.1479e-009    6.021e-005      2.4712e-007    
  5               -1.506e-009     6.0365e-005     2.4784e-007    
END_DB

BEGIN_DB
 ICCAP_VAR VS         0              
 ICCAP_VAR VB         0              
 ICCAP_VAR VD         5              

 #VG              IG              ID              IB             
  0               -5.0942e-007    3.1414e-008     4.4571e-007    
  0.05            -4.7968e-007    2.0595e-008     -1.94e-009     
  0.1             -1.00727e-007   3.5393e-008     -2.614e-009    
  0.15            -3.5492e-007    5.7232e-008     1.6351e-007    
  0.2             -1.3493e-007    5.2839e-008     2.1654e-008    
  0.25            -8.089e-008     4.912e-008      9.99e-009      
  0.3             -7.96e-009      2.649e-009      1.12371e-007   
  0.35            -1.126e-008     2.8022e-008     -2.368e-009    
  0.4             -1.5065e-007    3.8583e-008     2.5522e-007    
  0.45            -1.745e-008     3.6203e-008     2.798e-008     
  0.5             -2.38e-009      3.372e-008      -2.47e-009     
  0.55            -9.91e-009      3.4055e-008     1.895e-008     
  0.6             -2.1343e-007    1.2671e-008     1.09107e-007   
  0.65            -1.01e-008      4.4425e-008     -2.88e-009     
  0.7             -1.8758e-008    1.2973e-007     1.5009e-007    
  0.75            -1.822e-008     3.8772e-007     1.3103e-007    
  0.8             -1.716e-008     9.5177e-007     1.3555e-008    
  0.85            -1.15108e-007   2.2291e-006     7.2006e-008    
  0.9             -9.1379e-008    4.6228e-006     -2.9202e-008   
  0.95            1.528e-009      8.4672e-006     -4.9982e-008   
  1               1.207e-009      1.3851e-005     -2.6355e-008   
  1.05            -1.7618e-008    2.0824e-005     -6.783e-008    
  1.1             -1.1451e-008    2.9421e-005     -1.1286e-007   
  1.15            -1.3652e-008    3.9531e-005     -1.5535e-007   
  1.2             -2.037e-008     5.0991e-005     -1.769e-007    
  1.25            -2.7764e-008    6.3831e-005     -2.0312e-007   
  1.3             -2.8604e-008    7.7866e-005     -2.2769e-007   
  1.35            -2.5729e-008    9.3085e-005     -2.4793e-007   
  1.4             -1.6369e-008    0.000109342     -2.6456e-007   
  1.45            -2.8721e-008    0.00012657      -2.7013e-007   
  1.5             -2.6171e-008    0.0001447       -2.8309e-007   
  1.55            -1.5911e-008    0.00016362      -2.874e-007    
  1.6             -2.3221e-008    0.00018333      -2.8536e-007   
  1.65            -2.8627e-008    0.00020375      -2.8139e-007   
  1.7             -2.8319e-008    0.00022492      -2.7525e-007   
  1.75            -1.2788e-008    0.00024662      -2.6687e-007   
  1.8             -1.8798e-008    0.00026881      -2.5511e-007   
  1.85            -2.6782e-008    0.00029154      -2.4027e-007   
  1.9             -2.8701e-008    0.00031487      -2.2536e-007   
  1.95            -2.6493e-008    0.00033858      -2.1039e-007   
  2               -1.5309e-008    0.0003627       -1.9488e-007   
  2.05            -2.266e-008     0.00038707      -1.7903e-007   
  2.1             -2.8254e-008    0.00041194      -1.6145e-007   
  2.15            -2.8252e-008    0.00043712      -1.4484e-007   
  2.2             -1.7094e-008    0.0004627       -1.2924e-007   
  2.25            -2.2964e-008    0.00048838      -1.1144e-007   
  2.3             -2.8292e-008    0.00051434      -1.0154e-007   
  2.35            -8.588e-009     0.00054076      -9.3313e-008   
  2.4             -2.4225e-008    0.00056717      -5.7209e-008   
  2.45            -1.8784e-008    0.00059382      -6.2539e-008   
  2.5             -2.6165e-008    0.00062063      -5.5829e-008   
  2.55            -2.864e-008     0.00064771      -4.6932e-008   
  2.6             -2.6614e-008    0.000675        -3.8737e-008   
  2.65            -1.4487e-008    0.00070278      -3.0737e-008   
  2.7             -2.6438e-008    0.00073035      -1.99e-008     
  2.75            -2.848e-008     0.00075797      -2.0996e-008   
  2.8             -2.6285e-008    0.00078566      -1.7042e-008   
  2.85            -1.4086e-008    0.00081359      -1.3086e-008   
  2.9             -1.7836e-008    0.00084156      3.313e-009     
  2.95            -1.3049e-008    0.00086961      -1.2541e-008   
  3               -1.6402e-008    0.00089776      7.557e-009     
  3.05            -2.4293e-008    0.00092591      1.0388e-008    
  3.1             -2.7247e-008    0.00095414      6.837e-009     
  3.15            -2.8798e-008    0.00098243      9.194e-009     
  3.2             -1.7701e-008    0.00101071      1.0885e-008    
  3.25            -1.7519e-008    0.00103909      1.1767e-008    
  3.3             -1.7525e-008    0.00106752      1.2496e-008    
  3.35            -1.7289e-008    0.00109592      1.3157e-008    
  3.4             -1.7407e-008    0.0011243       1.3665e-008    
  3.45            -1.7261e-008    0.0011533       1.4076e-008    
  3.5             -1.2823e-008    0.0011816       1.4146e-008    
  3.55            -1.6421e-008    0.00121         1.4975e-008    
  3.6             -1.9442e-008    0.0012382       1.6199e-008    
  3.65            -1.9663e-008    0.0012663       1.1517e-008    
  3.7             -1.9722e-008    0.0012946       1.1893e-008    
  3.75            -1.9784e-008    0.0013226       1.2294e-008    
  3.8             -1.9647e-008    0.0013504       1.2457e-008    
  3.85            -1.9347e-008    0.001378        1.2658e-008    
  3.9             -1.9032e-008    0.0014056       1.2856e-008    
  3.95            -1.8675e-008    0.0014328       1.3018e-008    
  4               -1.8548e-008    0.00146         1.3245e-008    
  4.05            -1.7871e-008    0.0014863       1.3336e-008    
  4.1             -1.7168e-008    0.0015126       1.3461e-008    
  4.15            -1.3447e-008    0.0015387       1.3726e-008    
  4.2             -2.3272e-009    0.0015639       1.3903e-008    
  4.25            -1.6674e-009    0.0015895       1.3216e-008    
  4.3             -2.2155e-009    0.0016144       1.4521e-008    
  4.35            -1.7987e-009    0.001638        4.656e-009     
  4.4             -1.8015e-009    0.0016616       7.457e-009     
  4.45            -1.7419e-009    0.0016846       1.2614e-008    
  4.5             -2.3903e-009    0.0017064       1.4782e-008    
  4.55            -1.8785e-009    0.001728        4.026e-009     
  4.6             -1.8053e-009    0.001749        6.149e-009     
  4.65            -1.801e-009     0.0017691       1.109e-008     
  4.7             -1.598e-009     0.0017887       1.4532e-008    
  4.75            -2.0246e-009    0.0018077       1.5214e-008    
  4.8             -1.8105e-009    0.0018258       4.937e-009     
  4.85            -1.8385e-009    0.0018438       8.887e-009     
  4.9             -1.6874e-009    0.0018609       1.3394e-008    
  4.95            -2.1925e-009    0.0018772       1.4608e-008    
  5               -1.8314e-009    0.0018933       4.544e-009     
END_DB

BEGIN_DB
 ICCAP_VAR VS         0              
 ICCAP_VAR VB         -2.5           
 ICCAP_VAR VD         0.1            

 #VG              IG              ID              IB             
  0               -3.6438e-009    -1.4472e-008    1.4861e-008    
  0.05            -2.766e-010     -1.6748e-008    1.478e-008     
  0.1             -1.813e-010     -1.6681e-008    1.4651e-008    
  0.15            -1.34e-010      -1.6009e-008    1.4547e-008    
  0.2             -6.77e-011      -1.5258e-008    1.4326e-008    
  0.25            -3.9e-012       -1.4926e-008    1.4089e-008    
  0.3             5.28e-011       -1.3872e-008    1.3695e-008    
  0.35            1.076e-010      -1.3451e-008    1.3502e-008    
  0.4             1.524e-010      -1.2434e-008    1.3188e-008    
  0.45            -1.7402e-009    -1.7172e-008    1.3151e-008    
  0.5             -9.443e-010     -1.5016e-008    1.2926e-008    
  0.55            -1.7005e-009    -1.9515e-008    1.2764e-008    
  0.6             -1.6785e-009    -2.0694e-008    1.8388e-008    
  0.65            -7.621e-010     -1.4602e-008    1.9859e-008    
  0.7             -7.313e-010     -1.4696e-008    2.1049e-008    
  0.75            -6.828e-010     -1.4873e-008    2.2564e-008    
  0.8             -6.401e-010     -1.5031e-008    2.3832e-008    
  0.85            -5.943e-010     -1.5203e-008    2.4887e-008    
  0.9             -5.496e-010     -1.5742e-008    1.4895e-008    
  0.95            -4.937e-010     -1.5985e-008    1.4741e-008    
  1               -4.509e-010     -1.6222e-008    1.4744e-008    
  1.05            -3.985e-010     -1.61e-008      1.4675e-008    
  1.1             -3.396e-010     -1.4012e-008    1.4696e-008    
  1.15            -2.0809e-009    1.1385e-008     1.4689e-008    
  1.2             -1.504e-009     3.233e-008      4.023e-009     
  1.25            -1.4194e-009    8.1412e-008     6.538e-009     
  1.3             -1.0836e-009    1.581e-007      1.53e-008      
  1.35            -1.4508e-009    3.7879e-007     1.3698e-008    
  1.4             -1.7952e-009    8.4393e-007     1.4941e-008    
  1.45            2.5046e-009     1.8363e-006     1.7658e-008    
  1.5             -1.4636e-009    3.6763e-006     1.3236e-008    
  1.55            -1.9167e-009    6.1258e-006     1.4626e-008    
  1.6             -1.44e-009      8.8621e-006     4.64e-009      
  1.65            1.331e-009      1.1516e-005     4.854e-009     
  1.7             -1.8912e-009    1.4108e-005     1.4617e-008    
  1.75            -1.4342e-009    1.6419e-005     4.681e-009     
  1.8             -1.4442e-009    1.8541e-005     7.708e-009     
  1.85            -1.4742e-009    2.0476e-005     1.2736e-008    
  1.9             -2.105e-009     2.223e-005      1.4724e-008    
  1.95            -1.5237e-009    2.3844e-005     3.929e-009     
  2               -1.4241e-009    2.5344e-005     6.047e-009     
  2.05            -1.4764e-009    2.6748e-005     1.1112e-008    
  2.1             -1.4457e-009    2.8049e-005     1.4389e-008    
  2.15            -1.6824e-009    2.9268e-005     1.5483e-008    
  2.2             -1.4135e-009    3.041e-005      5.731e-009     
  2.25            -1.4703e-009    3.1501e-005     9.201e-009     
  2.3             -1.4663e-009    3.2527e-005     1.3302e-008    
  2.35            -1.8828e-009    3.349e-005      1.465e-008     
  2.4             -1.4343e-009    3.4408e-005     4.688e-009     
  2.45            -1.4493e-009    3.5289e-005     7.69e-009      
  2.5             -1.4779e-009    3.6133e-005     1.2799e-008    
  2.55            -2.0832e-009    3.6939e-005     1.475e-008     
  2.6             -1.5102e-009    3.7688e-005     3.992e-009     
  2.65            -1.4252e-009    3.8438e-005     6.385e-009     
  2.7             -1.4802e-009    3.9142e-005     1.1429e-008    
  2.75            -1.445e-009     3.9826e-005     1.4497e-008    
  2.8             -1.6693e-009    4.0473e-005     1.5612e-008    
  2.85            -1.4133e-009    4.1095e-005     5.507e-009     
  2.9             -1.4704e-009    4.1705e-005     9.193e-009     
  2.95            -1.4643e-009    4.229e-005      1.3439e-008    
  3               -1.8735e-009    4.2858e-005     1.4659e-008    
  3.05            -1.4295e-009    4.3394e-005     4.658e-009     
  3.1             -1.4528e-009    4.3918e-005     7.911e-009     
  3.15            -1.4738e-009    4.4433e-005     1.2879e-008    
  3.2             -2.076e-009     4.4926e-005     1.4715e-008    
  3.25            -1.5062e-009    4.5391e-005     4.13e-009      
  3.3             -1.4266e-009    4.5857e-005     6.594e-009     
  3.35            -1.4776e-009    4.631e-005      1.1392e-008    
  3.4             -1.4481e-009    4.6748e-005     1.4504e-008    
  3.45            -1.656e-009     4.7166e-005     1.5632e-008    
  3.5             -1.4123e-009    4.757e-005      5.254e-009     
  3.55            -1.4718e-009    4.797e-005      9.356e-009     
  3.6             -1.4621e-009    4.8364e-005     1.3567e-008    
  3.65            -1.8492e-009    4.874e-005      1.4877e-008    
  3.7             -1.4287e-009    4.9092e-005     4.505e-009     
  3.75            -1.4522e-009    4.945e-005      7.901e-009     
  3.8             -1.4721e-009    4.9801e-005     1.2903e-008    
  3.85            -2.068e-009     5.0144e-005     1.4587e-008    
  3.9             -1.4935e-009    5.0455e-005     4.189e-009     
  3.95            -1.4265e-009    5.0775e-005     6.63e-009      
  4               -1.4749e-009    5.1084e-005     1.1759e-008    
  4.05            -2.2555e-009    5.1393e-005     1.4627e-008    
  4.1             -1.6366e-009    5.1678e-005     3.051e-009     
  4.15            -1.4108e-009    5.1964e-005     5.433e-009     
