! VERSION = 6.00
BEGIN_HEADER
 ICCAP_INPUTS
  VG         V  B GROUND SMU4 0.001 LIN        1    0          5          101  0.05      
  VS         V  E GROUND SMU2 0.1 CON        0
  VB         V  C GROUND SMU3 0.1 LIN        3    0          -5         3    -2.5      
  VD         V  S GROUND SMU1 0.1 LIN        2    0.1        5          2    4.9       
 ICCAP_OUTPUTS
  IG         I  B GROUND SMU4 B
  ID         I  S GROUND SMU1 B
  IB         I  C GROUND SMU3 B
END_HEADER

BEGIN_DB
 ICCAP_VAR VS         0              
 ICCAP_VAR VB         0              
 ICCAP_VAR VD         0.1            

 #VG              IG              ID              IB             
  0               -3.158e-010     1.1653e-009     -6.041e-009    
  0.05            -1.8446e-009    1.3574e-009     1.832e-008     
  0.1             -1.5952e-009    2.314e-010      3.979e-009     
  0.15            -1.4123e-009    3.284e-010      5.181e-009     
  0.2             -1.2943e-009    4.216e-010      6.962e-009     
  0.25            -2.5494e-009    5.334e-010      8.37e-009      
  0.3             2.7016e-009     -3.612e-010     -2.4712e-008   
  0.35            -1.7868e-009    1.568e-009      1.8809e-008    
  0.4             -1.5474e-009    8.705e-010      4.135e-009     
  0.45            -1.3773e-009    2.5394e-009     5.476e-009     
  0.5             -1.2719e-009    8.3109e-009     7.384e-009     
  0.55            -8.564e-010     2.522e-008      -1.808e-009    
  0.6             2.6987e-009     9.9284e-008     -1.467e-008    
  0.65            -3.907e-010     3.398e-007      1.022e-008     
  0.7             2.0662e-009     1.1387e-006     1.082e-008     
  0.75            1.0492e-009     3.6125e-006     8.037e-009     
  0.8             -2.2334e-009    1.05546e-005    1.0901e-008    
  0.85            2.4385e-009     2.3609e-005     -9.947e-009    
  0.9             5.833e-010      4.5375e-005     8.373e-009     
  0.95            -1.6219e-009    7.2839e-005     1.7036e-008    
  1               -1.2597e-009    0.000103112     5.061e-009     
  1.05            -1.614e-009     0.00013292      8.393e-009     
  1.1             -2.5139e-009    0.00016103      5.154e-009     
  1.15            -8.172e-010     0.00018709      -1.0265e-008   
  1.2             1.5132e-009     0.00021051      -1.5656e-008   
  1.25            2.6373e-009     0.0002324       -9.527e-009    
  1.3             -2.129e-009     0.00025307      1.182e-008     
  1.35            2.5382e-009     0.00027124      -2.4459e-008   
  1.4             -1.2903e-009    0.00028899      2.2449e-008    
  1.45            -2.6009e-009    0.00030508      8.69e-009      
  1.5             1.9877e-009     0.00031986      -1.705e-008    
  1.55            2.4232e-009     0.00033397      -8.031e-009    
  1.6             5.794e-010      0.00034748      8.24e-009      
  1.65            -1.632e-009     0.00036007      1.6933e-008    
  1.7             -1.2649e-009    0.00037189      5.046e-009     
  1.75            -2.6015e-009    0.00038314      9.027e-009     
  1.8             1.9305e-009     0.00039366      -1.7344e-008   
  1.85            2.4574e-009     0.00040376      -8.419e-009    
  1.9             6.155e-010      0.0004136       8.454e-009     
  1.95            -1.5836e-009    0.00042293      1.7578e-008    
  2               -2.5217e-009    0.00043169      5.308e-009     
  2.05            1.432e-010      0.00043978      -1.2292e-008   
  2.1             2.7136e-009     0.00044812      -2.2053e-008   
  2.15            -1.4976e-009    0.00045611      1.8581e-008    
  2.2             -2.5583e-009    0.00046351      6.116e-009     
  2.25            2.5239e-009     0.00047059      -2.4768e-008   
  2.3             2.3404e-009     0.00047738      6.28e-009      
  2.35            -1.4177e-009    0.00048435      1.9646e-008    
  2.4             -2.5798e-009    0.00049078      6.984e-009     
  2.45            2.4415e-009     0.00049688      -2.5114e-008   
  2.5             1.7916e-009     0.00050286      -4.167e-009    
  2.55            2.5061e-009     0.00050863      -9.351e-009    
  2.6             -2.3708e-009    0.00051446      1.0006e-008    
  2.65            -1.8094e-009    0.00051968      1.626e-009     
  2.7             -1.3374e-009    0.00052488      3.936e-009     
  2.75            -2.5988e-009    0.00053005      7.889e-009     
  2.8             -1.0185e-009    0.00053498      -1.0293e-008   
  2.85            1.221e-010      0.00053952      -1.1991e-008   
  2.9             2.7034e-009     0.00054439      -2.2652e-008   
  2.95            -1.4565e-009    0.00054896      1.8917e-008    
  3               -2.5698e-009    0.00055331      6.315e-009     
  3.05            2.4953e-009     0.0005575       -2.5098e-008   
  3.1             6.711e-010      0.0005616       8.558e-009     
  3.15            -1.5063e-009    0.00056565      1.8265e-008    
  3.2             -2.5493e-009    0.00056949      5.837e-009     
  3.25            2.5553e-009     0.00057326      -2.486e-008    
  3.3             6.23e-010       0.00057685      8.436e-009     
  3.35            -1.5695e-009    0.0005806       1.7575e-008    
  3.4             -2.5252e-009    0.00058393      5.373e-009     
  3.45            1.466e-010      0.00058709      -1.2162e-008   
  3.5             2.7177e-009     0.00059065      -2.1881e-008   
  3.55            -1.4825e-009    0.00059383      1.8274e-008    
  3.6             -2.5545e-009    0.00059696      6.171e-009     
  3.65            2.5335e-009     0.00059998      -2.4987e-008   
  3.7             6.439e-010      0.0006029       8.519e-009     
  3.75            -1.5419e-009    0.00060591      1.7765e-008    
  3.8             -2.5393e-009    0.00060862      5.459e-009     
  3.85            2.5847e-009     0.00061134      -2.4579e-008   
  3.9             5.936e-010      0.00061404      8.432e-009     
  3.95            -1.6068e-009    0.00061666      1.7208e-008    
  4               -1.2513e-009    0.00061913      5.173e-009     
  4.05            -2.6038e-009    0.00062166      8.931e-009     
  4.1             1.9075e-009     0.00062405      -1.7832e-008   
  4.15            2.4706e-009     0.00062638      -8.733e-009    
  4.2             -2.4356e-009    0.00062871      9.935e-009     
  4.25            -1.8977e-009    0.00063078      1.215e-009     
  4.3             2.3783e-009     0.00063307      -2.5402e-008   
  4.35            1.6864e-009     0.00063526      -4.93e-009     
  4.4             2.5546e-009     0.0006373       -9.744e-009    
  4.45            -2.3193e-009    0.00063948      1.0408e-008    
  4.5             -7.562e-010     0.00064122      -1.036e-008    
  4.55            1.5987e-009     0.00064314      -1.7137e-008   
  4.6             2.6058e-009     0.00064509      -9.864e-009    
  4.65            -2.2305e-009    0.00064708      1.1161e-008    
  4.7             -8.201e-010     0.00064872      -1.0461e-008   
  4.75            1.4913e-009     0.00065029      -1.5381e-008   
  4.8             2.6474e-009     0.00065225      -9.452e-009    
  4.85            -2.1385e-009    0.00065404      1.2114e-008    
  4.9             1.003e-010      0.0006552       -1.1626e-008   
  4.95            2.6952e-009     0.00065717      -2.2691e-008   
  5               -1.4204e-009    0.0006587       1.9166e-008    
END_DB

BEGIN_DB
 ICCAP_VAR VS         0              
 ICCAP_VAR VB         0              
 ICCAP_VAR VD         5              

 #VG              IG              ID              IB             
  0               -6.915e-010     7.37e-011       -2.5511e-008   
  0.05            -2.4817e-009    1.0277e-009     1.1098e-008    
  0.1             -4.36e-011      -1.1391e-009    8.28e-010      
  0.15            2.7213e-009     -3.319e-010     -2.4791e-008   
  0.2             1.7647e-009     1.9992e-009     -2.241e-009    
  0.25            -2.5602e-009    9.165e-010      9.86e-009      
  0.3             2.6365e-009     1.6482e-009     -1.93e-008     
  0.35            -2.4331e-009    1.2689e-009     1.1829e-008    
  0.4             -2.2442e-009    7.605e-010      1.229e-009     
  0.45            -5.357e-010     9.967e-010      -1.0641e-008   
  0.5             -7.208e-010     7.0764e-009     -1.0498e-008   
  0.55            1.8218e-009     3.214e-008      7.578e-009     
  0.6             3.11e-011       1.1087e-007     5.865e-009     
  0.65            -3.875e-010     3.8199e-007     -1.3107e-008   
  0.7             2.1445e-009     1.2959e-006     2.406e-009     
  0.75            2.4087e-009     4.1258e-006     -2.3379e-008   
  0.8             -2.5772e-009    1.1852e-005     -6.8583e-008   
  0.85            9.869e-010      2.9192e-005     -1.7057e-007   
  0.9             1.5907e-009     6.0399e-005     -3.6618e-007   
  0.95            2.5922e-009     0.000108881     -5.92e-007     
  1               2.34e-009       0.00017723      -8.6928e-007   
  1.05            1.77e-009       0.00026331      -1.2034e-006   
  1.1             2.1054e-009     0.00037044      -1.5573e-006   
  1.15            2.3601e-009     0.00049576      -1.9147e-006   
  1.2             2.6469e-009     0.00063464      -2.2433e-006   
  1.25            2.7218e-009     0.00078867      -2.5492e-006   
  1.3             2.3991e-009     0.00095564      -2.81e-006     
  1.35            -1.3593e-009    0.0011384       -3.0208e-006   
  1.4             -2.5885e-009    0.0013297       -3.1756e-006   
  1.45            -2.53e-009      0.0015288       -3.2971e-006   
  1.5             -2.1322e-009    0.0017401       -3.3542e-006   
  1.55            -1.5461e-009    0.0019599       -3.3699e-006   
  1.6             -2.5234e-009    0.0021874       -3.3389e-006   
  1.65            -2.5993e-009    0.0024198       -3.2837e-006   
  1.7             -2.3644e-009    0.0026614       -3.1816e-006   
  1.75            -1.8105e-009    0.0029099       -3.057e-006    
  1.8             -1.3468e-009    0.0031632       -2.9042e-006   
  1.85            -2.5963e-009    0.0034222       -2.7372e-006   
  1.9             -2.524e-009     0.0036826       -2.5663e-006   
  1.95            -2.0992e-009    0.0039511       -2.375e-006    
  2               -1.5209e-009    0.0042234       -2.1814e-006   
  2.05            -2.5356e-009    0.0044995       -1.9883e-006   
  2.1             -2.5937e-009    0.0047761       -1.8055e-006   
  2.15            -2.3358e-009    0.0050585       -1.6186e-006   
  2.2             -1.771e-009     0.0053441       -1.4384e-006   
  2.25            -1.3276e-009    0.0056324       -1.2661e-006   
  2.3             -2.5963e-009    0.0059237       -1.1043e-006   
  2.35            1.1523e-009     0.0062071       -9.6134e-007   
  2.4             1.5142e-009     0.0064987       -8.2715e-007   
  2.45            1.8866e-009     0.0067986       -7.0591e-007   
  2.5             2.1903e-009     0.0071006       -5.9846e-007   
  2.55            2.4628e-009     0.0074006       -5.0365e-007   
  2.6             2.7137e-009     0.007702        -4.2082e-007   
  2.65            2.6676e-009     0.0080055       -3.519e-007    
  2.7             2.2045e-009     0.0083081       -2.9043e-007   
  2.75            1.5454e-009     0.0086128       -2.3977e-007   
  2.8             2.6034e-009     0.0089222       -1.9774e-007   
  2.85            2.7325e-009     0.0092327       -1.4944e-007   
  2.9             2.4782e-009     0.0095397       -1.216e-007    
  2.95            1.8521e-009     0.0098479       -9.829e-008    
  3               -2.4503e-009    0.0101644       -4.9854e-008   
  3.05            -1.9347e-009    0.0104715       -5.5983e-008   
  3.1             -1.4029e-009    0.0107827       -4.05e-008     
  3.15            -2.574e-009     0.0110945       -2.6937e-008   
  3.2             1.8271e-009     0.011401        -2.8123e-008   
  3.25            2.1496e-009     0.011717        -1.2225e-008   
  3.3             2.4128e-009     0.012029        -9.271e-009    
  3.35            2.6867e-009     0.012338        -6.11e-009     
  3.4             2.7001e-009     0.012651        -8.761e-009    
  3.45            2.3188e-009     0.01296         -8.189e-009    
  3.5             1.6569e-009     0.013269        -9.243e-009    
  3.55            2.565e-009      0.013578        -1.2862e-008   
  3.6             -2.2868e-009    0.013896        8.355e-009     
  3.65            -7.796e-010     0.014198        -1.1845e-008   
  3.7             -1.1132e-009    0.014511        -1.0908e-008   
  3.75            2.28e-011       0.014811        -1.1861e-008   
  3.8             -3.868e-010     0.015122        -1.0592e-008   
  3.85            -8.255e-010     0.015426        -1.0628e-008   
  3.9             1.4849e-009     0.015726        -1.546e-008    
  3.95            2.6482e-009     0.016025        -9.657e-009    
  4               -2.1129e-009    0.016332        1.1703e-008    
  4.05            9.45e-011       0.016614        -1.1804e-008   
  4.1             2.6929e-009     0.016906        -2.3088e-008   
  4.15            -1.4207e-009    0.017198        1.9303e-008    
  4.2             -2.5753e-009    0.017482        6.736e-009     
  4.25            2.4533e-009     0.017753        -2.5262e-008   
  4.3             2.3846e-009     0.018028        5.511e-009     
  4.35            -1.3608e-009    0.018301        2.0504e-008    
  4.4             -2.596e-009     0.018567        7.692e-009     
  4.45            -1.0017e-009    0.018822        -1.0321e-008   
  4.5             1.402e-010      0.019063        -1.2076e-008   
  4.55            2.7131e-009     0.019303        -2.2296e-008   
  4.6             -1.476e-009     0.019545        1.8344e-008    
  4.65            -2.5568e-009    0.019772        6.061e-009     
  4.7             2.5318e-009     0.019988        -2.5046e-008   
  4.75            6.454e-010      0.020209        8.417e-009     
  4.8             -1.5396e-009    0.020422        1.7678e-008    
  4.85            -2.5375e-009    0.020619        5.393e-009     
  4.9             1.298e-010      0.02081         -1.1927e-008   
  4.95            2.7091e-009     0.021002        -2.2314e-008   
  5               -1.4558e-009    0.02119         1.8429e-008    
END_DB

BEGIN_DB
 ICCAP_VAR VS         0              
 ICCAP_VAR VB         -2.5           
 ICCAP_VAR VD         0.1            

 #VG              IG              ID              IB             
  0               1.0083e-009     1.6145e-009     1.0999e-008    
  0.05            2.6179e-009     1.5824e-009     -1.9217e-008   
  0.1             -2.4686e-009    1.0169e-009     1.1487e-008    
  0.15            -5.74e-011      -1.1756e-009    8.42e-010      
  0.2             -2.231e-010     -1.2904e-009    -1.001e-008    
  0.25            1.4084e-009     -3.082e-010     -1.0386e-008   
  0.3             2.538e-009      1.5992e-009     -9.453e-009    
  0.35            -2.5327e-009    9.279e-010      1.0102e-008    
  0.4             2.116e-009      -7.831e-010     -1.8514e-008   
  0.45            2.2294e-009     1.6541e-009     -6.869e-009    
  0.5             -1.9701e-009    1.3358e-009     1.6832e-008    
  0.55            2.6543e-009     -4.615e-010     -2.552e-008    
  0.6             -1.6212e-009    1.4954e-009     2.0226e-008    
  0.65            -1.4135e-009    3.601e-010      5.081e-009     
  0.7             -1.2881e-009    4.542e-010      6.843e-009     
  0.75            -2.5475e-009    5.543e-010      8.332e-009     
  0.8             2.7123e-009     -3.791e-010     -2.4818e-008   
  0.85            -1.7848e-009    1.417e-009      1.851e-008     
  0.9             2.5e-012        -1.1195e-009    -6.34e-009     
  0.95            2.2488e-009     1.6704e-009     -2.4303e-008   
  1               -1.9104e-009    1.4802e-009     1.7232e-008    
  1.05            2.6249e-009     1.9959e-009     -1.0365e-008   
  1.1             -1.5788e-009    4.3278e-009     2.0964e-008    
  1.15            2.3731e-009     1.399e-008      1.1819e-008    
  1.2             -1.3654e-009    5.2999e-008     2.018e-008     
  1.25            1.2477e-009     1.9421e-007     -2.0673e-008   
  1.3             -1.8967e-009    7.9825e-007     1.3866e-008    
  1.35            -2.1346e-009    2.8563e-006     -1.5906e-008   
  1.4             1.7746e-009     9.2173e-006     -1.8601e-008   
  1.45            -2.21e-009      2.4281e-005     -5.268e-009    
  1.5             -8.406e-010     4.8743e-005     -1.0354e-008   
  1.55            1.4606e-009     7.9693e-005     -1.4991e-008   
  1.6             -1.6733e-009    0.00011475      -1.5834e-008   
  1.65            -6.589e-010     0.00014618      -1.0325e-008   
  1.7             1.7323e-009     0.00017535      -1.8866e-008   
  1.75            2.5339e-009     0.00020201      -9.71e-009     
  1.8             -2.3286e-009    0.00022658      1.0368e-008    
  1.85            -7.49e-010      0.00024782      -1.0442e-008   
  1.9             -1.0857e-009    0.0002677       -1.0121e-008   
  1.95            5.22e-011       0.00028509      -1.1214e-008   
  2               2.6586e-009     0.00030183      -2.3574e-008   
  2.05            -1.3638e-009    0.00031754      2.0099e-008    
  2.1             -2.5892e-009    0.00033178      7.554e-009     
  2.15            -9.969e-010     0.00034496      -1.0341e-008   
  2.2             1.409e-010      0.00035698      -1.2041e-008   
  2.25            2.7125e-009     0.00036885      -2.2062e-008   
  2.3             -1.4672e-009    0.00038014      1.8376e-008    
  2.35            -2.5534e-009    0.00039051      6.21e-009      
  2.4             2.5118e-009     0.00040015      -2.5261e-008   
  2.45            2.3561e-009     0.00040943      6.112e-009     
  2.5             -1.3867e-009    0.00041863      1.9737e-008    
  2.55            -2.5809e-009    0.00042706      7.258e-009     
  2.6             -9.781e-010     0.00043509      -1.0319e-008   
  2.65            1.551e-010      0.00044254      -1.2249e-008   
  2.7             2.7193e-009     0.00045016      -2.1753e-008   
  2.75            -1.4874e-009    0.00045741      1.82e-008      
  2.8             -2.5489e-009    0.00046432      5.984e-009     
  2.85            -8.954e-010     0.00047077      -1.0495e-008   
  2.9             2.6777e-009     0.00047674      -1.3501e-008   
  2.95            -1.3915e-009    0.00048317      1.9687e-008    
  3               -2.5755e-009    0.00048896      6.815e-009     
  3.05            -9.653e-010     0.00049448      -1.0364e-008   
  3.1             1.692e-010      0.00049965      -1.2482e-008   
  3.15            2.7162e-009     0.00050509      -2.1926e-008   
  3.2             2.3687e-009     0.00051025      -2.188e-009    
  3.25            1.7067e-009     0.0005151       -4.698e-009    
  3.3             2.5382e-009     0.00051974      -9.632e-009    
  3.35            -2.3002e-009    0.00052452      1.0345e-008    
  3.4             -7.562e-010     0.00052872      -1.0411e-008   
  3.45            1.5896e-009     0.00053292      -1.6498e-008   
  3.5             2.5957e-009     0.00053714      -9.881e-009    
  3.55            -2.1866e-009    0.00054132      1.1109e-008    
  3.6             -8.364e-010     0.00054501      -1.0432e-008   
  3.65            2.7041e-009     0.0005487       -1.4834e-008   
  3.7             -1.4721e-009    0.00055256      1.8546e-008    
  3.75            -2.5496e-009    0.00055609      6.302e-009     
  3.8             -9.077e-010     0.00055954      -1.0434e-008   
  3.85            2.6593e-009     0.00056259      -1.3387e-008   
  3.9             -1.3839e-009    0.00056618      2.0126e-008    
  3.95            -2.5754e-009    0.00056931      7.285e-009     
  4               -9.792e-010     0.00057239      -1.0234e-008   
  4.05            1.551e-010      0.00057508      -1.2469e-008   
  4.1             2.7122e-009     0.00057828      -2.2243e-008   
  4.15            -1.4818e-009    0.00058116      1.833e-008     
