! VERSION = 6.00
BEGIN_HEADER
 ICCAP_INPUTS
  VG         V  B GROUND SMU4 0.001 LIN        1    0          5          101  0.05      
  VS         V  E GROUND SMU2 0.1 CON        0
  VB         V  C GROUND SMU3 0.1 LIN        3    0          -5         3    -2.5      
  VD         V  S GROUND SMU1 0.1 LIN        2    0.1        5          2    4.9       
 ICCAP_OUTPUTS
  IG         I  B GROUND SMU4 B
  ID         I  S GROUND SMU1 B
  IB         I  C GROUND SMU3 B
END_HEADER

BEGIN_DB
 ICCAP_VAR VS         0              
 ICCAP_VAR VB         0              
 ICCAP_VAR VD         0.1            

 #VG              IG              ID              IB             
  0               1.1266e-009     1.3068e-009     7.062e-009     
  0.05            1.2384e-009     2.1233e-009     -9.084e-009    
  0.1             -2.2073e-009    6.429e-010      1.4556e-008    
  0.15            -5.948e-010     -1.9283e-009    -9.828e-009    
  0.2             2.2231e-009     -5.022e-010     -1.7726e-008   
  0.25            1.25e-009       2.1244e-009     -5.424e-009    
  0.3             -2.2006e-009    6.909e-010      1.4556e-008    
  0.35            2.708e-009      -7.519e-010     -2.3725e-008   
  0.4             -1.818e-009     1.2925e-009     1.8459e-008    
  0.45            -1.5586e-009    1.2423e-009     4.538e-009     
  0.5             -1.3763e-009    5.2805e-009     5.873e-009     
  0.55            2.5247e-009     1.9561e-008     1.4545e-008    
  0.6             -2.4336e-009    7.1651e-008     1.3126e-008    
  0.65            5.248e-010      2.3297e-007     -9.912e-009    
  0.7             -1.6796e-009    7.9495e-007     1.6553e-008    
  0.75            -2.2865e-009    2.2241e-006     -1.7634e-008   
  0.8             1.491e-009      5.7727e-006     -1.9322e-008   
  0.85            -1.5532e-009    1.2556e-005     -9e-009        
  0.9             -2.5326e-009    2.2191e-005     5.997e-009     
  0.95            -8.638e-010     3.363e-005      -9.986e-009    
  1               2.6792e-009     4.5109e-005     -1.3641e-008   
  1.05            -1.415e-009     5.6517e-005     1.967e-008     
  1.1             -2.5725e-009    6.6655e-005     7.72e-009      
  1.15            -9.672e-010     7.5828e-005     -9.758e-009    
  1.2             1.693e-010      8.3734e-005     -1.1577e-008   
  1.25            2.7011e-009     9.1155e-005     -2.1439e-008   
  1.3             -1.4647e-009    9.7985e-005     1.8736e-008    
  1.35            -2.559e-009     0.000104085     6.803e-009     
  1.4             2.4714e-009     0.00010951      -2.4458e-008   
  1.45            -1.7776e-009    0.00011491      6.25e-009      
  1.5             -8.447e-010     0.00011962      -9.758e-009    
  1.55            1.4295e-009     0.00012399      -2.0164e-008   
  1.6             2.6567e-009     0.00012811      -8.632e-009    
  1.65            1.8722e-009     0.00013198      8.882e-009     
  1.7             -2.3949e-009    0.00013571      2.4522e-008    
  1.75            -1.8257e-009    0.00013914      1.732e-009     
  1.8             -1.3336e-009    0.00014238      4.412e-009     
  1.85            -2.5818e-009    0.00014543      8.45e-009      
  1.9             2.2948e-009     0.00014831      -2.4383e-008   
  1.95            1.5911e-009     0.00015109      -4.822e-009    
  2               2.5808e-009     0.00015368      -9.011e-009    
  2.05            -2.1881e-009    0.00015629      1.1946e-008    
  2.1             -1.5655e-009    0.00015863      2.787e-009     
  2.15            -2.5123e-009    0.00016093      5.703e-009     
  2.2             2.5765e-009     0.00016313      -2.3802e-008   
  2.25            -1.2956e-009    0.00016525      2.243e-008     
  2.3             -2.5929e-009    0.00016727      8.936e-009     
  2.35            1.9749e-009     0.00016919      -1.6151e-008   
  2.4             2.4229e-009     0.00017104      -7.534e-009    
  2.45            6.11e-010       0.00017286      9.184e-009     
  2.5             -1.5488e-009    0.00017463      1.7565e-008    
  2.55            -2.5219e-009    0.00017624      5.87e-009      
  2.6             2.5548e-009     0.00017787      -2.4028e-008   
  2.65            6.165e-010      0.00017945      9.132e-009     
  2.7             -1.5392e-009    0.00018096      1.7717e-008    
  2.75            -2.5224e-009    0.00018242      5.809e-009     
  2.8             2.5457e-009     0.0001838       -2.4294e-008   
  2.85            6.234e-010      0.00018518      9.173e-009     
  2.9             -1.5335e-009    0.00018653      1.7794e-008    
  2.95            -2.5245e-009    0.00018776      5.896e-009     
  3               2.541e-009      0.00018901      -2.4177e-008   
  3.05            -1.3485e-009    0.00019017      1.4583e-008    
  3.1             -2.5872e-009    0.00019137      8.343e-009     
  3.15            2.3031e-009     0.00019251      -2.4487e-008   
  3.2             1.6022e-009     0.00019361      -4.811e-009    
  3.25            2.5697e-009     0.00019465      -9.015e-009    
  3.3             -2.3482e-009    0.00019571      2.5289e-008    
  3.35            -1.75e-009      0.00019666      1.999e-009     
  3.4             -1.3096e-009    0.0001977       4.65e-009      
  3.45            -2.5915e-009    0.00019861      8.938e-009     
  3.5             2.0308e-009     0.00019959      -1.5741e-008   
  3.55            2.4017e-009     0.00020047      -7.071e-009    
  3.6             -1.3122e-009    0.00020133      2.2075e-008    
  3.65            -2.5917e-009    0.00020214      8.903e-009     
  3.7             2.0171e-009     0.00020301      -1.5873e-008   
  3.75            2.402e-009      0.00020381      -7.097e-009    
  3.8             5.766e-010      0.00020457      9.028e-009     
  3.85            -1.6002e-009    0.00020538      1.7007e-008    
  3.9             -2.5049e-009    0.00020608      5.546e-009     
  3.95            2.5891e-009     0.00020682      -2.3977e-008   
  4               5.817e-010      0.00020748      9.087e-009     
  4.05            -1.5913e-009    0.00020821      1.7042e-008    
  4.1             -2.5087e-009    0.00020887      5.574e-009     
  4.15            2.5876e-009     0.00020953      -2.4015e-008   
  4.2             5.892e-010      0.00021013      9.117e-009     
  4.25            -1.5844e-009    0.00021079      1.7309e-008    
  4.3             -2.5063e-009    0.00021136      5.643e-009     
  4.35            2.5814e-009     0.00021199      -2.4042e-008   
  4.4             5.954e-010      0.00021253      9.108e-009     
  4.45            -1.5739e-009    0.00021312      1.7325e-008    
  4.5             -2.512e-009     0.00021362      5.64e-009      
  4.55            2.5801e-009     0.0002142       -2.4011e-008   
  4.6             6.004e-010      0.00021466      9.101e-009     
  4.65            -1.5735e-009    0.00021523      1.7306e-008    
  4.7             -2.5167e-009    0.00021566      5.712e-009     
  4.75            2.5773e-009     0.00021617      -2.4077e-008   
  4.8             6.022e-010      0.00021664      9.064e-009     
  4.85            -1.5668e-009    0.00021711      1.7541e-008    
  4.9             -2.5177e-009    0.00021755      5.816e-009     
  4.95            2.5745e-009     0.000218        -2.4193e-008   
  5               6.071e-010      0.00021843      9.133e-009     
END_DB

BEGIN_DB
 ICCAP_VAR VS         0              
 ICCAP_VAR VB         0              
 ICCAP_VAR VD         5              

 #VG              IG              ID              IB             
  0               1.4493e-009     1.9344e-009     3.266e-009     
  0.05            1.6874e-009     1.5608e-009     -8.897e-009    
  0.1             4.483e-010      2.2855e-009     9.017e-009     
  0.15            -2.1512e-009    7.297e-010      1.509e-008     
  0.2             -3.697e-010     -1.8191e-009    3.031e-009     
  0.25            -5.687e-010     -1.8647e-009    -9.804e-009    
  0.3             2.2604e-009     -4.073e-010     -1.7197e-008   
  0.35            2.166e-009      1.2944e-009     -5.44e-009     
  0.4             -2.0737e-009    1.3033e-009     1.591e-008     
  0.45            2.4938e-009     2.2977e-009     -2.4608e-008   
  0.5             -2.5341e-009    7.2375e-009     1.0563e-008    
  0.55            2.5015e-009     2.4092e-008     1.3938e-008    
  0.6             -2.3502e-009    8.8316e-008     1.0214e-008    
  0.65            -1.3619e-009    3.0993e-007     -1.0063e-008   
  0.7             -1.3906e-009    1.00152e-006    -1.5546e-008   
  0.75            2.5304e-009     2.9982e-006     -1.0984e-008   
  0.8             1.9025e-009     7.7162e-006     -5.2469e-008   
  0.85            -6.965e-010     1.7869e-005     -1.0647e-007   
  0.9             -1.5789e-009    3.5168e-005     -1.6895e-007   
  0.95            -2.5085e-009    6.0303e-005     -3.0463e-007   
  1               -2.5778e-009    9.3966e-005     -4.5225e-007   
  1.05            -1.5946e-009    0.00013681      -6.0691e-007   
  1.1             -2.5005e-009    0.00018738      -7.4401e-007   
  1.15            -2.5816e-009    0.00024557      -8.9693e-007   
  1.2             -2.372e-009     0.00030986      -1.01938e-006  
  1.25            -1.8021e-009    0.00038049      -1.1238e-006   
  1.3             -2.476e-010     0.00045571      -1.2311e-006   
  1.35            1.08e-010       0.00053693      -1.2563e-006   
  1.4             5.161e-010      0.0006214       -1.2925e-006   
  1.45            8.98e-010       0.00070873      -1.3047e-006   
  1.5             1.2345e-009     0.00079925      -1.2969e-006   
  1.55            1.6137e-009     0.00089398      -1.2675e-006   
  1.6             1.9892e-009     0.00099337      -1.2268e-006   
  1.65            2.274e-009      0.00109438      -1.1726e-006   
  1.7             -1.6575e-009    0.0012001       -1.1033e-006   
  1.75            -1.8871e-009    0.0013037       -1.0446e-006   
  1.8             2.783e-010      0.0014117       -9.4854e-007   
  1.85            6.93e-010       0.0015193       -8.6602e-007   
  1.9             1.0359e-009     0.001628        -7.8323e-007   
  1.95            1.3954e-009     0.0017382       -7.0116e-007   
  2               1.7836e-009     0.0018525       -6.2025e-007   
  2.05            2.1161e-009     0.0019685       -5.4526e-007   
  2.1             2.3871e-009     0.0020845       -4.7513e-007   
  2.15            2.6627e-009     0.0022006       -4.0886e-007   
  2.2             2.6972e-009     0.0023184       -3.5315e-007   
  2.25            2.3048e-009     0.0024363       -2.9988e-007   
  2.3             1.6127e-009     0.0025549       -2.5338e-007   
  2.35            2.5722e-009     0.0026752       -2.1507e-007   
  2.4             2.7247e-009     0.0027965       -1.6638e-007   
  2.45            2.494e-009      0.0029172       -1.3811e-007   
  2.5             1.8621e-009     0.0030383       -1.13e-007     
  2.55            2.468e-009      0.0031603       -9.557e-008    
  2.6             -2.5752e-009    0.0032859       -5.8789e-008   
  2.65            -2.3221e-009    0.0034073       -5.2749e-008   
  2.7             -1.7409e-009    0.0035313       -3.8995e-008   
  2.75            -1.2988e-009    0.0036554       -2.684e-008    
  2.8             -2.5506e-009    0.0037794       -2.6057e-008   
  2.85            -2.2086e-009    0.0039036       -1.7173e-008   
  2.9             -2.4031e-009    0.0040271       -2.0588e-008   
  2.95            -1.6007e-009    0.0041533       -2.0205e-008   
  3               -1.8508e-009    0.0042756       -1.6688e-008   
  3.05            -9.628e-010     0.0043992       -1.4943e-008   
  3.1             -1.3158e-009    0.0045246       -1.3011e-008   
  3.15            -2.012e-010     0.0046448       -1.2723e-008   
  3.2             -6.767e-010     0.0047684       -1.1846e-008   
  3.25            -1.0352e-009    0.0048935       -1.0967e-008   
  3.3             9.4e-011        0.005013        -1.2018e-008   
  3.35            2.6754e-009     0.0051349       -2.3341e-008   
  3.4             -1.3875e-009    0.0052589       1.9377e-008    
  3.45            -2.5681e-009    0.0053795       7.36e-009      
  3.5             -9.859e-010     0.0054979       -9.969e-009    
  3.55            2.6751e-009     0.0056131       -2.2794e-008   
  3.6             -1.3895e-009    0.0057322       1.98e-008      
  3.65            -2.5679e-009    0.0058468       7.593e-009     
  3.7             -9.866e-010     0.0059589       -9.768e-009    
  3.75            1.446e-010      0.0060667       -1.1559e-008   
  3.8             2.7044e-009     0.0061744       -2.1682e-008   
  3.85            -1.4516e-009    0.0062816       1.8841e-008    
  3.9             -2.5529e-009    0.0063834       6.867e-009     
  3.95            -9.337e-010     0.006481        -9.797e-009    
  4               2.006e-010      0.0065746       -1.221e-008    
  4.05            2.7208e-009     0.0066664       -2.066e-008    
  4.1             -1.5219e-009    0.0067567       1.783e-008     
  4.15            -2.5311e-009    0.0068413       6.131e-009     
  4.2             -8.812e-010     0.0069216       -9.969e-009    
  4.25            2.6789e-009     0.0069982       -1.3057e-008   
  4.3             -1.3947e-009    0.007075        1.9688e-008    
  4.35            -2.5715e-009    0.0071458       7.685e-009     
  4.4             2.399e-009      0.0072134       -2.4758e-008   
  4.45            1.6972e-009     0.0072786       -4.436e-009    
  4.5             2.5389e-009     0.0073408       -9.161e-009    
  4.55            -2.2802e-009    0.0074023       1.1142e-008    
  4.6             1.931e-010      0.0074579       -1.2153e-008   
  4.65            2.7163e-009     0.007513        -2.0695e-008   
  4.7             2.39e-009       0.0075659       -1.553e-009    
  4.75            2.4157e-009     0.0076168       6e-009         
  4.8             -1.3077e-009    0.0076661       2.1865e-008    
  4.85            -2.5868e-009    0.0077128       8.779e-009     
  4.9             2.0264e-009     0.0077566       -1.5925e-008   
  4.95            2.4078e-009     0.0078001       -7.328e-009    
  5               -1.3059e-009    0.0078426       2.1861e-008    
END_DB

BEGIN_DB
 ICCAP_VAR VS         0              
 ICCAP_VAR VB         -2.5           
 ICCAP_VAR VD         0.1            

 #VG              IG              ID              IB             
  0               -8.593e-010     -2e-013         -1.0682e-008   
  0.05            -2.5854e-009    1.868e-010      1.0433e-008    
  0.1             2.3445e-009     -4.068e-010     -1.6571e-008   
  0.15            1.1834e-009     2.2234e-009     -4.557e-009    
  0.2             -2.2982e-009    6.167e-010      1.3339e-008    
  0.25            -5.091e-010     -1.877e-009     -9.857e-009    
  0.3             2.3412e-009     -4.072e-010     -1.6435e-008   
  0.35            1.1904e-009     2.2182e-009     -4.566e-009    
  0.4             -2.3011e-009    6.174e-010      1.3466e-008    
  0.45            -5.102e-010     -1.8813e-009    -9.847e-009    
  0.5             2.3282e-009     -4.083e-010     -1.6667e-008   
  0.55            1.1919e-009     2.2124e-009     -4.868e-009    
  0.6             -2.2944e-009    6.193e-010      1.3517e-008    
  0.65            -5.175e-010     -1.8825e-009    -9.868e-009    
  0.7             2.3285e-009     -4.148e-010     -1.6676e-008   
  0.75            1.195e-009      2.2128e-009     -4.833e-009    
  0.8             -2.2921e-009    6.251e-010      1.3398e-008    
  0.85            -2.443e-010     -1.7708e-009    2.483e-009     
  0.9             -4.46e-010      -1.7745e-009    -9.896e-009    
  0.95            2.4594e-009     1.4752e-009     -1.5721e-008   
  1               3.949e-010      4.0257e-009     9.045e-009     
  1.05            -2.2204e-009    8.522e-009      1.4324e-008    
  1.1             2.7007e-009     3.0248e-008     1.9223e-008    
  1.15            2.6436e-009     1.02039e-007    -7.93e-010     
  1.2             -5.41e-010      3.1617e-007     1.068e-008     
  1.25            1.9015e-009     9.706e-007      -1.694e-008    
  1.3             2.2764e-009     2.8646e-006     1.545e-008     
  1.35            -1.4753e-009    7.5924e-006     1.8371e-008    
  1.4             1.9648e-009     1.5867e-005     4.887e-009     
  1.45            2.4362e-009     2.7512e-005     -7.764e-009    
  1.5             6.192e-010      4.0596e-005     9.031e-009     
  1.55            -1.5553e-009    5.3102e-005     1.7521e-008    
  1.6             -2.5173e-009    6.4325e-005     6.023e-009     
  1.65            2.5609e-009     7.3965e-005     -2.4076e-008   
  1.7             6.206e-010      8.2832e-005     9.07e-009      
  1.75            -1.5472e-009    9.0592e-005     1.7632e-008    
  1.8             -2.5203e-009    9.7458e-005     5.847e-009     
  1.85            2.5565e-009     0.000103469     -2.3902e-008   
  1.9             6.254e-010      0.000109145     9.093e-009     
  1.95            2.7016e-009     0.00011426      1.7555e-008    
  2               -1.4561e-009    0.00011912      1.8721e-008    
  2.05            -2.5508e-009    0.00012343      6.822e-009     
  2.1             2.4706e-009     0.00012732      -2.4467e-008   
  2.15            2.374e-009      0.00013101      6.203e-009     
  2.2             -1.3451e-009    0.00013462      2.0894e-008    
  2.25            -2.5803e-009    0.00013787      8.443e-009     
  2.3             2.3146e-009     0.0001409       -2.4629e-008   
  2.35            1.6124e-009     0.0001438       -4.806e-009    
  2.4             2.576e-009      0.00014654      -9.25e-009     
  2.45            -2.2144e-009    0.00014925      1.1769e-008    
  2.5             2.5919e-009     0.00015163      -2.3826e-008   
  2.55            -1.2991e-009    0.00015403      2.204e-008     
  2.6             -2.5885e-009    0.00015623      8.816e-009     
  2.65            2.0041e-009     0.00015837      -1.6001e-008   
  2.7             2.4154e-009     0.00016039      -7.404e-009    
  2.75            5.909e-010      0.00016233      9.072e-009     
  2.8             -1.5832e-009    0.0001643       1.7229e-008    
  2.85            -2.5095e-009    0.00016606      5.811e-009     
  2.9             2.5872e-009     0.00016775      -2.3983e-008   
  2.95            5.986e-010      0.00016943      9.028e-009     
  3               -1.5825e-009    0.00017106      1.7361e-008    
  3.05            -2.5106e-009    0.00017256      5.74e-009      
  3.1             2.5844e-009     0.00017402      -2.3867e-008   
  3.15            6.027e-010      0.00017544      9.033e-009     
  3.2             -1.5767e-009    0.00017686      1.7291e-008    
  3.25            -2.5113e-009    0.00017814      5.806e-009     
  3.3             2.583e-009      0.00017943      -2.3908e-008   
  3.35            6.064e-010      0.00018067      9.018e-009     
  3.4             -1.5745e-009    0.0001819       1.7271e-008    
  3.45            -2.5082e-009    0.00018301      5.73e-009      
  3.5             2.5764e-009     0.00018415      -2.4006e-008   
  3.55            6.037e-010      0.00018522      9.065e-009     
  3.6             -1.5709e-009    0.0001863       1.7225e-008    
  3.65            -2.5095e-009    0.00018728      5.785e-009     
  3.7             2.574e-009      0.00018829      -2.3952e-008   
  3.75            -1.2919e-009    0.00018929      2.2467e-008    
  3.8             -2.5855e-009    0.00019021      8.894e-009     
  3.85            1.9739e-009     0.00019111      -1.6274e-008   
  3.9             2.426e-009      0.00019198      -7.517e-009    
  3.95            6.109e-010      0.00019282      9.052e-009     
  4               -1.559e-009     0.00019366      1.733e-008     
  4.05            -2.5094e-009    0.00019443      5.795e-009     
  4.1             2.5747e-009     0.00019523      -2.4024e-008   
  4.15            6.079e-010      0.00019599      9.038e-009     
