! VERSION = 6.00
BEGIN_HEADER
 ICCAP_INPUTS
  VG         V  B GROUND SMU4 0.001 LIN        1    0          5          101  0.05      
  VS         V  E GROUND SMU2 0.1 CON        0
  VB         V  C GROUND SMU3 0.1 LIN        3    0          -5         3    -2.5      
  VD         V  S GROUND SMU1 0.1 LIN        2    0.1        5          2    4.9       
 ICCAP_OUTPUTS
  IG         I  B GROUND SMU4 B
  ID         I  S GROUND SMU1 B
  IB         I  C GROUND SMU3 B
END_HEADER

BEGIN_DB
 ICCAP_VAR VS         0              
 ICCAP_VAR VB         0              
 ICCAP_VAR VD         0.1            

 #VG              IG              ID              IB             
  0               -4.501e-010     8.499e-010      -1.3364e-008   
  0.05            -2.0719e-009    1.1133e-009     1.6092e-008    
  0.1             -5.193e-010     -1.6679e-009    4.042e-009     
  0.15            2.6601e-009     -7.809e-010     -1.0516e-008   
  0.2             -1.7024e-009    2.0275e-009     1.4759e-008    
  0.25            -1.4267e-009    8.53e-011       4.927e-009     
  0.3             -2.5601e-009    1.99e-010       6.404e-009     
  0.35            -5.144e-010     -1.6239e-009    -1.1538e-008   
  0.4             2.6619e-009     -6.042e-010     -1.0335e-008   
  0.45            -1.712e-009     2.5865e-009     1.4952e-008    
  0.5             -1.4342e-009    2.0936e-009     4.927e-009     
  0.55            -2.5568e-009    7.3374e-009     6.279e-009     
  0.6             2.6556e-009     2.5513e-008     1.6019e-008    
  0.65            -2.2222e-009    8.948e-008      1.4436e-008    
  0.7             8.312e-010      2.7378e-007     -1.6985e-008   
  0.75            -1.3323e-009    8.3255e-007     1.3079e-008    
  0.8             -1.4415e-009    2.0257e-006     -9.193e-009    
  0.85            2.2162e-009     4.0572e-006     -2.503e-008    
  0.9             2.5106e-009     6.9519e-006     -7.018e-009    
  0.95            -1.4284e-009    1.06268e-005    1.6176e-008    
  1               1.6446e-009     1.447e-005      5.595e-009     
  1.05            2.6424e-009     1.8554e-005     -9.191e-009    
  1.1             -2.2757e-009    2.2756e-005     1.4089e-008    
  1.15            -8.786e-010     2.6746e-005     -1.1367e-008   
  1.2             2.7109e-009     3.0592e-005     -1.2936e-008   
  1.25            -1.5496e-009    3.4514e-005     1.9761e-008    
  1.3             -2.5849e-009    3.8199e-005     5.701e-009     
  1.35            2.47e-009       4.1643e-005     -1.685e-008    
  1.4             1.6736e-009     4.5087e-005     -4.815e-009    
  1.45            2.6314e-009     4.8371e-005     -9.188e-009    
  1.5             -2.3148e-009    5.1635e-005     1.3702e-008    
  1.55            -8.545e-010     5.4641e-005     -1.1344e-008   
  1.6             2.7086e-009     5.7514e-005     -1.3658e-008   
  1.65            -1.5949e-009    6.0454e-005     2.0893e-008    
  1.7             -2.5875e-009    6.3209e-005     5.513e-009     
  1.75            -8.904e-010     6.5826e-005     -1.1299e-008   
  1.8             2.7051e-009     6.8332e-005     -1.268e-008    
  1.85            -1.5254e-009    7.0895e-005     1.9155e-008    
  1.9             -2.5839e-009    7.3316e-005     5.758e-009     
  1.95            2.4487e-009     7.5593e-005     -1.6975e-008   
  2               1.647e-009      7.7846e-005     -5.1e-009      
  2.05            2.6356e-009     8.0029e-005     -9.159e-009    
  2.1             -2.2942e-009    8.2227e-005     1.3924e-008    
  2.15            -1.6114e-009    8.4251e-005     2.458e-009     
  2.2             -2.5836e-009    8.6256e-005     5.344e-009     
  2.25            -8.716e-010     8.8184e-005     -1.1114e-008   
  2.3             2.7102e-009     9.0002e-005     -1.3119e-008   
  2.35            -1.5593e-009    9.1909e-005     2.0041e-008    
  2.4             -2.5889e-009    9.3718e-005     5.614e-009     
  2.45            -9.054e-010     9.5424e-005     -1.0801e-008   
  2.5             2.6995e-009     9.7046e-005     -1.2221e-008   
  2.55            -1.4984e-009    9.8767e-005     1.84e-008      
  2.6             -2.5883e-009    0.000100394     5.955e-009     
  2.65            2.4184e-009     0.000101928     -1.7108e-008   
  2.7             1.6166e-009     0.000103435     -5.4e-009      
  2.75            2.6407e-009     0.000104907     -9.098e-009    
  2.8             -2.2737e-009    0.000106406     1.4295e-008    
  2.85            -1.577e-009     0.000107767     2.591e-009     
  2.9             -2.5828e-009    0.000109129     5.427e-009     
  2.95            2.5126e-009     0.000110444     -1.6266e-008   
  3               1.7499e-009     0.000111735     -4.39e-009     
  3.05            2.6144e-009     0.000112978     -9.08e-009     
  3.1             2.6483e-009     0.00011432      1.329e-008     
  3.15            -2.2418e-009    0.00011558      1.4473e-008    
  3.2             -1.551e-009     0.00011672      2.821e-009     
  3.25            -2.586e-009     0.00011786      5.617e-009     
  3.3             -9.04e-010      0.00011897      -1.0896e-008   
  3.35            2.7039e-009     0.00012001      -1.2243e-008   
  3.4             -1.5042e-009    0.00012111      1.8526e-008    
  3.45            -2.5881e-009    0.00012215      5.928e-009     
  3.5             -9.417e-010     0.00012313      -1.0439e-008   
  3.55            2.463e-010      0.00012404      -1.1479e-008   
  3.6             2.7154e-009     0.00012506      -1.8413e-008   
  3.65            -1.714e-009     0.00012606      2.3662e-008    
  3.7             -2.5768e-009    0.00012691      4.915e-009     
  3.75            -8.284e-010     0.00012779      -1.148e-008    
  3.8             2.7105e-009     0.00012862      -1.4585e-008   
  3.85            -1.6529e-009    0.0001295       2.2235e-008    
  3.9             -2.5841e-009    0.00013033      5.09e-009      
  3.95            -8.62e-010      0.00013112      -1.1153e-008   
  4               2.7074e-009     0.00013182      -1.3725e-008   
  4.05            -1.5902e-009    0.00013265      2.0845e-008    
  4.1             -2.5877e-009    0.00013339      5.574e-009     
  4.15            -8.941e-010     0.00013411      -1.0988e-008   
  4.2             2.7015e-009     0.00013477      -1.2761e-008   
  4.25            -1.5346e-009    0.00013551      1.9394e-008    
  4.3             -2.5898e-009    0.0001362       5.988e-009     
  4.35            -9.213e-010     0.00013683      -1.0646e-008   
  4.4             2.626e-010      0.0001374       -1.1878e-008   
  4.45            2.72e-009       0.00013808      -1.8171e-008   
  4.5             -1.7444e-009    0.00013873      2.4349e-008    
  4.55            -2.5714e-009    0.00013927      4.959e-009     
  4.6             -8.138e-010     0.00013987      -1.141e-008    
  4.65            2.7145e-009     0.00014036      -1.5227e-008   
  4.7             -1.6725e-009    0.000141        2.2797e-008    
  4.75            -2.5815e-009    0.00014149      5.105e-009     
  4.8             -8.46e-010      0.000142        -1.1294e-008   
  4.85            2.7099e-009     0.00014248      -1.4143e-008   
  4.9             -1.6062e-009    0.00014302      2.1295e-008    
  4.95            -2.5894e-009    0.0001435       5.469e-009     
  5               -8.854e-010     0.00014394      -1.1021e-008   
END_DB

BEGIN_DB
 ICCAP_VAR VS         0              
 ICCAP_VAR VB         0              
 ICCAP_VAR VD         5              

 #VG              IG              ID              IB             
  0               2.7076e-009     9.6e-012        -2.414e-008    
  0.05            -1.9853e-009    2.0219e-009     2.0684e-008    
  0.1             1.5577e-009     -1.0984e-009    4.222e-009     
  0.15            2.5685e-009     1.5381e-009     -9.179e-009    
  0.2             -2.5398e-009    7.385e-010      1.2018e-008    
  0.25            2.2572e-009     -9.309e-010     -2.0458e-008   
  0.3             2.3337e-009     1.6001e-009     -6.56e-009     
  0.35            -2.0411e-009    1.2918e-009     1.6209e-008    
  0.4             -1.7175e-009    2.23e-010       3.866e-009     
  0.45            -1.4601e-009    7.681e-010      4.706e-009     
  0.5             -2.5538e-009    2.3986e-009     6.346e-009     
  0.55            -4.817e-010     5.6828e-009     -1.179e-008    
  0.6             1.7384e-009     2.7896e-008     5.531e-009     
  0.65            -2.4956e-009    9.3592e-008     1.0918e-008    
  0.7             -1.3577e-009    3.1164e-007     -1.0216e-008   
  0.75            -1.4597e-009    8.8023e-007     -1.4422e-008   
  0.8             2.5498e-009     2.2249e-006     -6.381e-009    
  0.85            1.8469e-009     4.684e-006      -3.1436e-008   
  0.9             2.5981e-009     8.6984e-006     -5.6977e-008   
  0.95            -1.9785e-009    1.4556e-005     -6.5517e-008   
  1               2.3239e-009     2.2112e-005     -1.116e-007    
  1.05            1.5368e-009     3.1547e-005     -1.4766e-007   
  1.1             2.6612e-009     4.3022e-005     -1.8849e-007   
  1.15            2.717e-009      5.6581e-005     -2.1847e-007   
  1.2             2.463e-009      7.1928e-005     -2.5869e-007   
  1.25            1.7366e-009     8.9176e-005     -2.9888e-007   
  1.3             2.6258e-009     0.000108385     -3.3888e-007   
  1.35            2.4548e-009     0.00012978      -3.5339e-007   
  1.4             1.7113e-009     0.00015254      -3.9476e-007   
  1.45            2.6297e-009     0.0001774       -4.2365e-007   
  1.5             2.7228e-009     0.0002041       -4.3206e-007   
  1.55            2.5691e-009     0.00023257      -4.5027e-007   
  1.6             1.9119e-009     0.00026235      -4.6235e-007   
  1.65            2.5823e-009     0.00029412      -4.7287e-007   
  1.7             2.7121e-009     0.00032758      -4.6118e-007   
  1.75            2.6486e-009     0.00036269      -4.6298e-007   
  1.8             2.1237e-009     0.00039907      -4.5689e-007   
  1.85            2.5232e-009     0.00043697      -4.5086e-007   
  1.9             2.6974e-009     0.00047667      -4.2435e-007   
  1.95            2.7001e-009     0.00051785      -4.1262e-007   
  2               2.3049e-009     0.00055987      -3.9445e-007   
  2.05            1.5285e-009     0.00060348      -3.771e-007    
  2.1             2.6637e-009     0.0006487       -3.5697e-007   
  2.15            2.717e-009      0.0006954       -3.2389e-007   
  2.2             2.4698e-009     0.00074288      -3.0078e-007   
  2.25            1.7234e-009     0.00079149      -2.7872e-007   
  2.3             2.6278e-009     0.00084127      -2.584e-007    
  2.35            2.7164e-009     0.0008928       -2.225e-007    
  2.4             2.5807e-009     0.00094509      -2.0224e-007   
  2.45            1.9244e-009     0.00099817      -1.8151e-007   
  2.5             2.5815e-009     0.00105231      -1.6474e-007   
  2.55            2.7069e-009     0.0011088       -1.3191e-007   
  2.6             -6.327e-010     0.001166        -9.815e-008    
  2.65            -9.68e-011      0.0012233       -9.361e-008    
  2.7             2.3162e-009     0.0012815       -7.8185e-008   
  2.75            2.5873e-009     0.0013402       -6.3116e-008   
  2.8             2.711e-009      0.0014          -5.5035e-008   
  2.85            2.6658e-009     0.0014609       -4.9451e-008   
  2.9             2.1446e-009     0.0015221       -4.177e-008    
  2.95            2.5203e-009     0.0015841       -3.8978e-008   
  3               2.6901e-009     0.0016473       -2.0113e-008   
  3.05            2.7043e-009     0.0017112       -2.026e-008    
  3.1             2.3311e-009     0.001775        -1.725e-008    
  3.15            1.5446e-009     0.0018395       -1.793e-008    
  3.2             2.6594e-009     0.0019047       -1.8024e-008   
  3.25            2.7164e-009     0.0019715       -6.715e-009    
  3.3             2.4808e-009     0.0020379       -6.612e-009    
  3.35            1.7473e-009     0.0021047       -8.229e-009    
  3.4             2.6274e-009     0.0021721       -1.1839e-008   
  3.45            -2.3319e-009    0.0022423       1.1385e-008    
  3.5             -8.336e-010     0.0023093       -1.2924e-008   
  3.55            2.7163e-009     0.0023778       -1.552e-008    
  3.6             -1.4743e-009    0.0024484       1.6216e-008    
  3.65            -2.5898e-009    0.002518        5.986e-009     
  3.7             -9.656e-010     0.0025877       -1.0611e-008   
  3.75            2.244e-010      0.0026568       -1.1509e-008   
  3.8             2.717e-009      0.0027276       -1.9359e-008   
  3.85            -1.6638e-009    0.0028007       2.2254e-008    
  3.9             -2.5814e-009    0.0028715       5.065e-009     
  3.95            -8.576e-010     0.002942        -1.1274e-008   
  4               2.7106e-009     0.0030129       -1.4083e-008   
  4.05            -1.5938e-009    0.0030864       2.0738e-008    
  4.1             -2.5883e-009    0.0031584       5.467e-009     
  4.15            -8.93e-010      0.0032299       -1.1275e-008   
  4.2             2.7027e-009     0.0033011       -1.3027e-008   
  4.25            -1.5364e-009    0.0033765       1.9128e-008    
  4.3             -2.5929e-009    0.0034486       5.717e-009     
  4.35            -9.288e-010     0.0035199       -1.1006e-008   
  4.4             2.6e-010        0.0035917       -1.2142e-008   
  4.45            2.7223e-009     0.0036634       -1.8662e-008   
  4.5             -1.5487e-009    0.0037375       1.6614e-008    
  4.55            -2.5902e-009    0.0038094       5.694e-009     
  4.6             -9.119e-010     0.0038798       -1.1116e-008   
  4.65            2.6942e-009     0.0039497       -1.2455e-008   
  4.7             -1.4931e-009    0.0040228       1.7995e-008    
  4.75            -2.591e-009     0.0040928       5.972e-009     
  4.8             -9.498e-010     0.0041617       -1.0834e-008   
  4.85            2.345e-010      0.0042295       -1.1582e-008   
  4.9             2.7191e-009     0.0042974       -1.9116e-008   
  4.95            -1.6868e-009    0.0043662       2.2843e-008    
  5               -2.5801e-009    0.0044323       4.864e-009     
END_DB

BEGIN_DB
 ICCAP_VAR VS         0              
 ICCAP_VAR VB         -2.5           
 ICCAP_VAR VD         0.1            

 #VG              IG              ID              IB             
  0               1.3746e-009     2.3342e-009     3.242e-009     
  0.05            2.6196e-009     1.4712e-009     -8.07e-009     
  0.1             -2.5236e-009    7.922e-010      1.3221e-008    
  0.15            2.0866e-009     -1.0261e-009    -1.7195e-008   
  0.2             2.4092e-009     1.5461e-009     -7.937e-009    
  0.25            -2.0839e-009    1.9402e-009     2.2915e-008    
  0.3             1.6443e-009     -1.1119e-009    4.002e-009     
  0.35            2.5434e-009     1.5145e-009     -9.279e-009    
  0.4             3.664e-010      2.6636e-009     1.0226e-008    
  0.45            5.552e-010      2.7056e-009     9.566e-009     
  0.5             -2.1035e-009    1.1716e-009     1.6079e-008    
  0.55            1.6876e-009     -1.1073e-009    4.024e-009     
  0.6             2.5356e-009     1.5188e-009     -9.351e-009    
  0.65            -1.7417e-009    2.084e-009      1.5597e-008    
  0.7             -1.4482e-009    1.243e-010      4.856e-009     
  0.75            -2.5539e-009    2.313e-010      6.129e-009     
  0.8             -4.851e-010     -1.6027e-009    -1.1773e-008   
  0.85            2.6735e-009     -6.883e-010     -1.0651e-008   
  0.9             2.2214e-009     1.5434e-009     6.823e-009     
  0.95            -2.2359e-009    1.0992e-009     1.55e-008      
  1               2.6812e-009     -6.664e-010     -1.0981e-008   
  1.05            -1.8021e-009    2.0682e-009     1.6748e-008    
  1.1             -1.4992e-009    1.701e-010      4.581e-009     
  1.15            -1.3189e-009    4.868e-010      5.842e-009     
  1.2             -2.5853e-009    1.585e-009      7.139e-009     
  1.25            2.6806e-009     5.7886e-009     -1.6209e-008   
  1.3             -1.9991e-009    2.2659e-008     -2.1751e-008   
  1.35            -1.3912e-009    9.0259e-008     4.058e-009     
  1.4             1.3099e-009     3.1685e-007     -1.8214e-008   
  1.45            -1.8918e-009    1.04191e-006    1.5445e-008    
  1.5             -2.3404e-009    2.5415e-006     -1.7522e-008   
  1.55            1.8397e-009     5.0438e-006     -2.0836e-008   
  1.6             2.6097e-009     8.3458e-006     -9.116e-009    
  1.65            -3.805e-010     1.2181e-005     1.2995e-008    
  1.7             -8.524e-010     1.6196e-005     -1.1418e-008   
  1.75            2.7139e-009     2.0159e-005     -1.4118e-008   
  1.8             -1.6107e-009    2.4263e-005     2.0743e-008    
  1.85            -2.5835e-009    2.8149e-005     5.353e-009     
  1.9             -8.883e-010     3.1881e-005     -1.0977e-008   
  1.95            2.7033e-009     3.5442e-005     -1.3161e-008   
  2               -1.5465e-009    3.9053e-005     1.9314e-008    
  2.05            -2.5884e-009    4.2431e-005     5.717e-009     
  2.1             2.4511e-009     4.5606e-005     -1.6633e-008   
  2.15            1.6793e-009     4.8745e-005     -4.847e-009    
  2.2             2.6401e-009     5.1754e-005     -9.431e-009    
  2.25            -2.3001e-009    5.4738e-005     1.3457e-008    
  2.3             -1.639e-009     5.7504e-005     2.292e-009     
  2.35            -2.5809e-009    6.02e-005       5.293e-009     
  2.4             -8.627e-010     6.2788e-005     -1.114e-008    
  2.45            2.7118e-009     6.5223e-005     -1.3925e-008   
  2.5             -1.5889e-009    6.7738e-005     2.0535e-008    
  2.55            -2.5846e-009    7.0117e-005     5.425e-009     
  2.6             -8.919e-010     7.236e-005      -1.0919e-008   
  2.65            2.7021e-009     7.4488e-005     -1.294e-008    
  2.7             -1.5361e-009    7.6683e-005     1.9138e-008    
  2.75            -2.5901e-009    7.8762e-005     5.713e-009     
  2.8             -9.246e-010     8.0722e-005     -1.0628e-008   
  2.85            2.602e-010      8.2581e-005     -1.2169e-008   
  2.9             2.7243e-009     8.4487e-005     -1.8557e-008   
  2.95            -1.563e-009     8.6342e-005     1.6495e-008    
  3               -2.5874e-009    8.8095e-005     5.66e-009      
  3.05            -9.121e-010     8.9772e-005     -1.0994e-008   
  3.1             2.6958e-009     9.1359e-005     -1.2414e-008   
  3.15            -1.5004e-009    9.3029e-005     1.8298e-008    
  3.2             -2.5884e-009    9.4609e-005     5.967e-009     
  3.25            2.557e-009      9.6095e-005     -2.4084e-008   
  3.3             2.5115e-009     9.7524e-005     6.357e-009     
  3.35            -1.4585e-009    9.898e-005      1.6858e-008    
  3.4             -2.5895e-009    0.000100401     6.403e-009     
  3.45            2.5114e-009     0.000101719     -2.4612e-008   
  3.5             1.7903e-009     0.000103039     -4.466e-009    
  3.55            2.6164e-009     0.000104291     -9.143e-009    
  3.6             -2.3531e-009    0.000105579     1.2797e-008    
  3.65            -8.058e-010     0.000106742     -1.1448e-008   
  3.7             2.72e-009       0.00010786      -1.5583e-008   
  3.75            -1.6829e-009    0.000109063     2.272e-008     
  3.8             -2.579e-009     0.000110176     4.902e-009     
  3.85            -8.383e-010     0.000111236     -1.1485e-008   
  3.9             2.716e-009      0.000112228     -1.4428e-008   
  3.95            -1.6278e-009    0.0001133       2.1622e-008    
  4               2.4339e-009     0.00011439      5.354e-009     
  4.05            1.6882e-009     0.00011539      -5.038e-009    
  4.1             2.6388e-009     0.0001163       -9.425e-009    
  4.15            -2.2962e-009    0.00011725      1.3427e-008    
