! VERSION = 6.00
BEGIN_HEADER
 ICCAP_INPUTS
  VG         V  B GROUND SMU4 0.001 LIN        2    0          5          6    1         
  VS         V  E GROUND SMU2 0.1 CON        0
  VD         V  S GROUND SMU1 0.1 LIN        1    0          5          101  0.05      
  VB         V  C GROUND SMU3 0.1 LIN        3    0          -2.5       2    -2.5      
 ICCAP_OUTPUTS
  ID         I  S GROUND SMU1 B
  IB         I  C GROUND SMU3 B
  IG         I  B GROUND SMU4 B
END_HEADER

BEGIN_DB
 ICCAP_VAR VG         0              
 ICCAP_VAR VS         0              
 ICCAP_VAR VB         0              

 #VD              ID              IB              IG             
  0               -3.3742e-007    2.5225e-007     3.091e-010     
  0.05            -2.408e-007     4.0135e-007     -1.6311e-009   
  0.1             -2.039e-008     3.75e-009       -2.501e-009    
  0.15            3.4e-010        4.043e-007      -9.2792e-008   
  0.2             -3.9589e-008    1.1121e-007     -3.5591e-007   
  0.25            2.9014e-008     1.675e-007      -2.022e-008    
  0.3             2.694e-009      4.8554e-007     -1.308e-008    
  0.35            4.1666e-008     3.9949e-007     -5.2812e-007   
  0.4             6.0963e-008     3.5463e-007     -1.1798e-007   
  0.45            6.5255e-008     1.9812e-007     -6.61e-009     
  0.5             1.498e-009      4.8477e-007     -1.317e-008    
  0.55            5.9002e-008     3.114e-007      -4.613e-007    
  0.6             5.2165e-008     4.5553e-007     -1.5709e-007   
  0.65            1.5281e-008     4.9321e-007     -1.842e-008    
  0.7             2.19e-009       4.8528e-007     -5.2432e-007   
  0.75            5.9268e-008     3.9387e-007     -2.1997e-007   
  0.8             6.6669e-008     1.583e-007      -2.138e-008    
  0.85            2.386e-009      4.853e-007      -1.0412e-007   
  0.9             6.7059e-008     1.7563e-007     -1.107e-008    
  0.95            2.086e-009      4.8847e-007     -1.343e-008    
  1               5.3884e-008     3.3919e-007     -5.0268e-007   
  1.05            5.7671e-008     4.1644e-007     -1.6151e-007   
  1.1             6.7881e-008     1.8805e-007     -7.48e-009     
  1.15            1.926e-009      4.8633e-007     -1.359e-008    
  1.2             5.9682e-008     3.4474e-007     -4.948e-007    
  1.25            5.8482e-008     4.5027e-007     -2.0653e-007   
  1.3             6.8372e-008     2.0311e-007     -7.4e-009      
  1.35            1.687e-009      4.8546e-007     -1.343e-008    
  1.4             6.1967e-008     3.1422e-007     -4.6613e-007   
  1.45            5.4991e-008     4.5893e-007     -2.2594e-007   
  1.5             6.8777e-008     2.192e-007      -3.28e-009     
  1.55            1.702e-009      4.8554e-007     -5.2715e-007   
  1.6             6.4431e-008     3.8449e-007     -1.1179e-007   
  1.65            6.965e-008      1.8773e-007     -7.33e-009     
  1.7             1.939e-009      4.8797e-007     -1.339e-008    
  1.75            5.975e-008      3.348e-007      -4.9053e-007   
  1.8             5.9484e-008     4.4122e-007     -2.0437e-007   
  1.85            7.0265e-008     2.0178e-007     -5.01e-009     
  1.9             1.997e-009      4.8602e-007     -1.339e-008    
  1.95            6.3094e-008     3.0683e-007     -4.6786e-007   
  2               5.5639e-008     4.6045e-007     -4.2748e-007   
  2.05            5.9181e-008     3.43e-008       -4.9611e-007   
  2.1             5.7658e-008     4.4348e-007     -2.0977e-007   
  2.15            2.1414e-008     4.9455e-007     -5.21e-009     
  2.2             1.786e-009      4.8647e-007     -1.334e-008    
  2.25            6.338e-008      3.1815e-007     -4.6985e-007   
  2.3             5.621e-008      4.5983e-007     -2.2733e-007   
  2.35            7.1193e-008     2.5518e-007     -1.54e-009     
  2.4             1.547e-009      4.7059e-007     -5.0723e-007   
  2.45            6.2178e-008     4.2269e-007     -1.6666e-007   
  2.5             7.1391e-008     1.8818e-007     -7.43e-009     
  2.55            1.995e-009      4.8846e-007     -1.496e-008    
  2.6             6.1344e-008     3.3633e-007     -4.8891e-007   
  2.65            6.007e-008      4.4245e-007     -1.992e-007    
  2.7             7.1723e-008     2.0076e-007     -5.49e-009     
  2.75            1.835e-009      4.8757e-007     -1.332e-008    
  2.8             6.5036e-008     3.1493e-007     -4.6875e-007   
  2.85            5.7325e-008     4.6222e-007     -2.3192e-007   
  2.9             7.2341e-008     2.1868e-007     -6.25e-009     
  2.95            1.756e-009      4.8259e-007     -5.3354e-007   
  3               6.7328e-008     3.8104e-007     -1.376e-007    
  3.05            7.2414e-008     1.8855e-007     -8.74e-009     
  3.1             2.067e-009      4.8827e-007     -1.333e-008    
  3.15            6.2836e-008     3.3499e-007     -4.9171e-007   
  3.2             6.0236e-008     4.4742e-007     -2.0119e-007   
  3.25            7.3007e-008     2.0366e-007     -7.56e-009     
  3.3             1.996e-009      4.8844e-007     -1.381e-008    
  3.35            6.6303e-008     3.1424e-007     -4.7181e-007   
  3.4             5.7536e-008     4.6027e-007     -4.3e-007      
  3.45            6.0995e-008     3.675e-008      -5.0057e-007   
  3.5             5.9907e-008     4.4576e-007     -2.116e-007    
  3.55            2.1976e-008     4.9504e-007     -6.2e-009      
  3.6             2.157e-009      4.8773e-007     -1.391e-008    
  3.65            6.5759e-008     3.1745e-007     -4.7422e-007   
  3.7             5.8213e-008     4.5873e-007     -2.2802e-007   
  3.75            7.3643e-008     2.1235e-007     -4.76e-009     
  3.8             1.745e-009      4.8636e-007     -5.3574e-007   
  3.85            6.8667e-008     3.789e-007      -1.3281e-007   
  3.9             7.3825e-008     1.8605e-007     -7.75e-009     
  3.95            2.295e-009      4.8908e-007     -1.348e-008    
  4               6.285e-008      3.3638e-007     -4.9714e-007   
  4.05            6.2478e-008     4.4059e-007     -1.9671e-007   
  4.1             7.435e-008      2.0092e-007     -7.88e-009     
  4.15            2.119e-009      4.9062e-007     -1.376e-008    
  4.2             6.7169e-008     3.1656e-007     -4.7293e-007   
  4.25            5.8749e-008     4.5961e-007     -2.3129e-007   
  4.3             7.4581e-008     2.2014e-007     -4.27e-009     
  4.35            1.818e-009      4.8447e-007     -5.3638e-007   
  4.4             6.9442e-008     3.8549e-007     -1.3474e-007   
  4.45            7.47e-008       1.8989e-007     -8.64e-009     
  4.5             2.586e-009      4.9098e-007     -1.343e-008    
  4.55            6.4013e-008     3.3621e-007     -4.9386e-007   
  4.6             6.2877e-008     4.4498e-007     -1.9974e-007   
  4.65            7.4896e-008     2.0321e-007     -7.5e-009      
  4.7             2.071e-009      4.8922e-007     -1.439e-008    
  4.75            6.783e-008      3.1587e-007     -4.7334e-007   
  4.8             5.9765e-008     4.6226e-007     -2.3219e-007   
  4.85            6.7882e-008     4.0486e-007     -1.2047e-007   
  4.9             7.5295e-008     2.0243e-007     -7.94e-009     
  4.95            2.02e-009       4.892e-007      -1.371e-008    
  5               6.7573e-008     3.2058e-007     -4.7876e-007   
END_DB

BEGIN_DB
 ICCAP_VAR VG         1              
 ICCAP_VAR VS         0              
 ICCAP_VAR VB         0              

 #VD              ID              IB              IG             
  0               -1.3531e-006    2.3518e-007     -1.13e-011     
  0.05            5.9129e-005     3.7722e-007     1.7661e-009    
  0.1             0.000103109     1.6928e-007     -2.0648e-009   
  0.15            0.0001309       1.112e-008      2.7372e-009    
  0.2             0.00014705      1.499e-008      -1.6068e-009   
  0.25            0.0001522       9.19e-009       1.4226e-009    
  0.3             0.00015869      -1.96e-009      -1.2548e-009   
  0.35            0.00015815      7.82e-009       1.0735e-009    
  0.4             0.00016031      2.3469e-007     -2.1796e-009   
  0.45            0.00016002      2.886e-008      1.9912e-009    
  0.5             0.00016192      3.42e-009       -1.7498e-009   
  0.55            0.00016003      7.99e-009       1.6135e-009    
  0.6             0.00016375      -2.39e-009      -1.4583e-009   
  0.65            0.00016162      1.4468e-007     1.7249e-009    
  0.7             0.00016289      2.814e-008      -2.1232e-009   
  0.75            0.0001624       1.1002e-007     1.3363e-009    
  0.8             0.00016348      4.252e-008      -2.3827e-009   
  0.85            0.0001638       5.2213e-008     -2.4744e-009   
  0.9             0.00016476      1.997e-008      -1.3594e-009   
  0.95            0.00016394      2.6914e-008     2.3761e-009    
  1               0.00016362      6.369e-008      1.8569e-009    
  1.05            0.00016466      -7.03e-010      -2.1217e-009   
  1.1             0.00016642      1.4174e-008     -1.4592e-009   
  1.15            0.0001618       6.7164e-008     1.056e-010     
  1.2             0.0001653       4.4824e-008     -2.5203e-008   
  1.25            0.00016573      1.48e-008       -1.866e-008    
  1.3             0.00016548      7.244e-009      -7.3049e-008   
  1.35            0.0001659       8.1639e-008     -8.8896e-008   
  1.4             0.000166        8.0336e-008     -8.8925e-008   
  1.45            0.00016622      8.1327e-008     -8.9558e-008   
  1.5             0.00016649      8.1921e-008     -8.9513e-008   
  1.55            0.00016667      8.2715e-008     -8.9316e-008   
  1.6             0.00016678      8.0979e-008     -9.1267e-008   
  1.65            0.00016708      8.2104e-008     -9.1196e-008   
  1.7             0.00016721      8.2532e-008     -9.483e-008    
  1.75            0.00016732      8.2335e-008     -9.4607e-008   
  1.8             0.00016766      8.245e-008      -9.5965e-008   
  1.85            0.00016784      8.1865e-008     -9.7524e-008   
  1.9             0.00016792      8.2494e-008     -9.6366e-008   
  1.95            0.00016813      8.3683e-008     -9.7719e-008   
  2               0.00016837      8.2709e-008     -9.6339e-008   
  2.05            0.00016854      8.3476e-008     -9.8643e-008   
  2.1             0.00016855      8.3291e-008     -9.6498e-008   
  2.15            0.00016869      8.2235e-008     -9.7462e-008   
  2.2             0.00016897      8.2704e-008     -9.4706e-008   
  2.25            0.00016919      8.2363e-008     -9.4427e-008   
  2.3             0.00016931      8.3449e-008     -9.5283e-008   
  2.35            0.00016944      8.5411e-008     -9.5228e-008   
  2.4             0.00016968      8.7453e-008     -9.7237e-008   
  2.45            0.00016971      8.5443e-008     -9.7094e-008   
  2.5             0.00016988      8.4633e-008     -9.5684e-008   
  2.55            0.00017005      8.4473e-008     -9.7196e-008   
  2.6             0.00017016      8.5201e-008     -9.57e-008     
  2.65            0.0001704       8.4744e-008     -9.6518e-008   
  2.7             0.00017064      8.2891e-008     -9.5439e-008   
  2.75            0.00017078      8.1312e-008     -9.6655e-008   
  2.8             0.00017089      8.1064e-008     -9.6463e-008   
  2.85            0.00017068      -4.624e-009     -9.6747e-008   
  2.9             0.00017109      -8.995e-009     -9.5573e-008   
  2.95            0.00017165      -1.097e-008     -9.9316e-008   
  3               0.00017146      -1.4385e-008    1.434e-009     
  3.05            0.00017164      7.3788e-008     -2.6128e-008   
  3.1             0.00017166      -6.241e-009     -1.00981e-007  
  3.15            0.00017215      -2.1061e-008    1.38e-009      
  3.2             0.00017207      6.7604e-008     -2.6864e-008   
  3.25            0.00017209      -1.5223e-008    -9.8854e-008   
  3.3             0.00017234      -3.1186e-008    1.397e-009     
  3.35            0.0001724       5.6093e-008     -2.7523e-008   
  3.4             0.00017248      -2.846e-008     -9.8533e-008   
  3.45            0.00017274      -4.5828e-008    1.363e-009     
  3.5             0.00017175      -7.34e-009      -2.7763e-008   
  3.55            0.00017292      -4.7123e-008    -9.9656e-008   
  3.6             0.0001733       -6.632e-008     1.304e-009     
  3.65            0.00017251      -3.6084e-008    -2.7641e-008   
  3.7             0.00017359      -7.0501e-008    -9.7129e-008   
  3.75            0.00017368      -9.4155e-008    1.235e-009     
  3.8             0.00017299      -7.2849e-008    -2.7472e-008   
  3.85            0.00017386      -1.06206e-007   -9.8232e-008   
  3.9             0.00017408      -3.6941e-008    -9.6751e-008   
  3.95            0.00017465      -1.4426e-007    -1.544e-009    
  4               0.00017415      -1.4271e-007    -1.9876e-008   
  4.05            0.00017447      -1.662e-007     -5.9679e-008   
  4.1             0.00017506      -1.9707e-007    -1.0066e-007   
  4.15            0.00017511      -2.1772e-007    1.027e-009     
  4.2             0.00017414      -2.0798e-007    -1.7984e-008   
  4.25            0.0001752       -2.5068e-007    -9.817e-008    
  4.3             0.00017607      -2.8618e-007    -2.1964e-008   
  4.35            0.00017566      -2.9452e-007    -1.6208e-008   
  4.4             0.00017553      -2.9424e-007    -9.8025e-008   
  4.45            0.00017672      -3.7371e-007    -2.7497e-008   
  4.5             0.00017634      -3.8756e-007    -1.531e-008    
  4.55            0.00017607      -3.8811e-007    -9.8072e-008   
  4.6             0.00017658      -4.8334e-007    1.419e-009     
  4.65            0.00017599      -4.4915e-007    -2.4638e-008   
  4.7             0.00017644      -5.5493e-007    -1.01533e-007  
  4.75            0.0001768       -6.1279e-007    1.441e-009     
  4.8             0.0001766       -5.9288e-007    -2.5538e-008   
  4.85            0.00017692      -7.0077e-007    -1.02974e-007  
  4.9             0.00017731      -7.6753e-007    1.47e-009      
  4.95            0.00017698      -7.6117e-007    -2.6067e-008   
  5               0.00017758      -8.7403e-007    -1.03731e-007  
END_DB

BEGIN_DB
 ICCAP_VAR VG         2              
 ICCAP_VAR VS         0              
 ICCAP_VAR VB         0              

 #VD              ID              IB              IG             
  0               -3.3517e-006    3.988e-008      2.284e-010     
  0.05            0.00021646      3.6844e-007     -1.6954e-009   
  0.1             0.00042889      1.8933e-007     2.2534e-009    
  0.15            0.00063737      1.1972e-007     -1.9487e-009   
  0.2             0.0008414       7.171e-008      1.9692e-009    
  0.25            0.00104118      2.725e-008      -1.7371e-009   
  0.3             0.0012366       4.507e-008      -1.9644e-009   
  0.35            0.0014257       4.423e-008      1.9802e-009    
  0.4             0.0016111       1.251e-008      -1.7484e-009   
  0.45            0.0017888       1.053e-008      1.6037e-009    
  0.5             0.0019643       -2.12e-009      -1.4488e-009   
  0.55            0.0021302       7.44e-009       1.2342e-009    
  0.6             0.0022934       1.7238e-007     -1.8641e-009   
  0.65            0.0024474       2.885e-008      2.1431e-009    
  0.7             0.002596        5.69e-009       -1.8394e-009   
  0.75            0.0027349       8.39e-009       1.8092e-009    
  0.8             0.0028695       -2.1e-009       -7.19e-011     
  0.85            0.0029962       1.9561e-008     -1.4074e-009   
  0.9             0.0031125       3.4135e-008     2.3449e-009    
  0.95            0.0032208       7.6073e-008     1.9487e-009    
  1               0.0033233       3.083e-009      -1.9953e-009   
  1.05            0.0034163       1.8573e-008     -2.05e-009     
  1.1             0.0034962       6.477e-009      2.0127e-009    
  1.15            0.0035713       5.2154e-008     2.6136e-009    
  1.2             0.0036391       -2.662e-009     -1.7032e-009   
  1.25            0.0036965       2.0241e-008     -1.3749e-009   
  1.3             0.003743        1.0848e-008     2.3314e-009    
  1.35            0.0037835       3.0064e-008     1.8739e-009    
  1.4             0.0038211       -2.12e-009      -2.0047e-009   
  1.45            0.0038537       1.3831e-008     -1.9823e-009   
  1.5             0.0038735       5.905e-009      1.9755e-009    
  1.55            0.0039          1.1904e-008     -2.3565e-009   
  1.6             0.0039155       1.7743e-008     -1.5472e-009   
  1.65            0.0039317       1.3699e-008     -1.9956e-009   
  1.7             0.0039433       2.1966e-008     -1.3228e-009   
  1.75            0.0039546       1.7149e-008     -1.5979e-009   
  1.8             0.0039653       1.3399e-008     -2.0471e-009   
  1.85            0.0039733       2.1245e-008     -1.3461e-009   
  1.9             0.0039815       1.6858e-008     -1.5403e-009   
  1.95            0.0039893       1.1268e-008     -2.1734e-009   
  2               0.0039941       2.0691e-008     -1.371e-009    
  2.05            0.0040004       1.5249e-008     -1.7493e-009   
  2.1             0.0040067       2.4337e-008     -2.3547e-009   
  2.15            0.0040048       8.472e-009      1.868e-009     
  2.2             0.0040106       -2.2912e-008    2.6854e-009    
  2.25            0.0040157       -1.725e-008     1.9357e-009    
  2.3             0.00402         -2.4332e-008    2.562e-009     
  2.35            0.0040257       -9.922e-009     -4.993e-010    
  2.4             0.0040347       2.2099e-008     -1.3174e-009   
  2.45            0.0040381       1.6714e-008     -1.6458e-009   
  2.5             0.0040426       1.1624e-008     -2.1171e-009   
  2.55            0.0040465       2.1419e-008     -1.3415e-009   
  2.6             0.0040504       1.593e-008      -1.6963e-009   
  2.65            0.0040545       1.1101e-008     -2.1636e-009   
  2.7             0.0040578       2.0556e-008     -1.3698e-009   
  2.75            0.0040611       1.5286e-008     -1.7449e-009   
  2.8             0.0040638       2.4373e-008     -2.3529e-009   
  2.85            0.0040596       8.054e-009      1.8678e-009    
  2.9             0.004063        -2.2975e-008    2.6848e-009    
  2.95            0.0040674       -1.747e-008     1.9303e-009    
  3               0.0040703       -1.2385e-008    1.28e-010      
  3.05            0.0040814       1.1822e-008     -2.0662e-009   
  3.1             0.0040832       2.1439e-008     -1.316e-009    
  3.15            0.0040862       1.6032e-008     -1.64e-009     
  3.2             0.0040903       1.0555e-008     -2.112e-009    
  3.25            0.0040929       8.726e-009      -2.4765e-009   
  3.3             0.0040961       1.3981e-008     -1.6903e-009   
  3.35            0.0040992       8.248e-009      -2.1619e-009   
  3.4             0.0041021       6.058e-009      -2.5033e-009   
  3.45            0.004104        9.621e-009      -1.743e-009    
  3.5             0.0041074       3.04e-009       -2.2158e-009   
  3.55            0.0041096       -4.08e-010      -2.5268e-009   
  3.6             0.004109        -2.1051e-008    -2.5504e-009   
  3.65            0.0041058       -1.1355e-008    1.1486e-009    
  3.7             0.0041117       -4.293e-008     1.6794e-009    
  3.75            0.0041167       -4.0199e-008    -2.2441e-009   
  3.8             0.0041184       -3.3313e-008    8.041e-010     
  3.85            0.004117        -7.7617e-008    2.3533e-009    
  3.9             0.0041251       -7.5459e-008    -1.9146e-009   
  3.95            0.0041285       -7.5247e-008    3.926e-010     
  4               0.0041311       -1.0192e-007    -1.837e-009    
  4.05            0.0041299       -1.2011e-007    2.1518e-009    
  4.1             0.0041322       -1.6528e-007    -6.929e-010    
  4.15            0.0041389       -1.6454e-007    -2.4074e-009   
