! VERSION = 6.00
BEGIN_HEADER
 ICCAP_INPUTS
  VG         V  B GROUND SMU4 0.001 LIN        1    0          -5         101  -0.05     
  VS         V  E GROUND SMU2 0.1 CON        0
  VB         V  C GROUND SMU3 0.1 LIN        3    0          5          3    2.5       
  VD         V  S GROUND SMU1 0.1 LIN        2    -0.1       -5         2    -4.9      
 ICCAP_OUTPUTS
  IG         I  B GROUND SMU4 B
  ID         I  S GROUND SMU1 B
  IB         I  C GROUND SMU3 B
END_HEADER

BEGIN_DB
 ICCAP_VAR VS         0              
 ICCAP_VAR VB         0              
 ICCAP_VAR VD         -0.1           

 #VG              IG              ID              IB             
  0               -3.437e-010     9.875e-010      7.355e-009     
  -0.05           -1.7114e-009    3.631e-010      8.182e-009     
  -0.1            -1.6641e-009    5.343e-010      8.752e-009     
  -0.15           -1.5487e-009    -1.7598e-009    5.757e-009     
  -0.2            2.554e-009      -7.613e-010     -1.8378e-008   
  -0.25           3.607e-010      2.4406e-009     -5.985e-009    
  -0.3            -1.6791e-009    5.193e-010      8.624e-009     
  -0.35           -2.3743e-009    -1.2742e-009    5.832e-009     
  -0.4            2.3163e-009     -8.287e-010     -1.9054e-008   
  -0.45           4.986e-010      2.483e-009      -7.473e-009    
  -0.5            2.8381e-009     -6.352e-010     -1.7479e-008   
  -0.55           1.3779e-009     2.3079e-009     -4.316e-009    
  -0.6            -1.7093e-009    3.895e-010      8.168e-009     
  -0.65           -1.6629e-009    5.54e-010       8.83e-009      
  -0.7            -2.4222e-009    -1.2934e-009    5.774e-009     
  -0.75           2.233e-009      -9.433e-010     -1.9789e-008   
  -0.8            5.588e-010      2.1798e-009     -8.04e-009     
  -0.85           2.7599e-009     -1.967e-009     -1.767e-008    
  -0.9            2.3516e-009     -4.331e-009     -4.558e-009    
  -0.95           -2.5545e-009    -1.9056e-008    -2.6999e-008   
  -1              1.5311e-009     -6.5918e-008    -2.2103e-008   
  -1.05           1.418e-010      -2.0567e-007    6.117e-009     
  -1.1            1.4606e-009     -5.4366e-007    -2.3506e-008   
  -1.15           2.2887e-009     -1.1915e-006    7.415e-009     
  -1.2            -1.7213e-009    -2.1784e-006    7.432e-009     
  -1.25           -1.9126e-009    -3.5e-006       8.805e-009     
  -1.3            2.6399e-009     -5.0265e-006    -1.7352e-008   
  -1.35           1.735e-009      -6.5431e-006    -5.464e-009    
  -1.4            1.3679e-009     -8.0085e-006    -9.303e-009    
  -1.45           3.3861e-009     -9.3826e-006    -1.1664e-008   
  -1.5            2.9303e-009     -1.06273e-005   -1.381e-009    
  -1.55           -1.7627e-009    -1.1752e-005    -9.69e-010     
  -1.6            2.334e-009      -1.285e-005     -1.7623e-008   
  -1.65           1.5544e-009     -1.3824e-005    -7.638e-009    
  -1.7            3.3681e-009     -1.474e-005     -9.46e-009     
  -1.75           -2.0796e-009    -1.5548e-005    8.372e-009     
  -1.8            2.9039e-009     -1.6357e-005    -2.6916e-008   
  -1.85           1.9794e-009     -1.708e-005     -4.12e-009     
  -1.9            1.4287e-009     -1.7776e-005    -9.171e-009    
  -1.95           1.2895e-009     -1.8423e-005    -1.0849e-008   
  -2              3.1564e-009     -1.9027e-005    -1.6235e-008   
  -2.05           2.3302e-009     -1.9595e-005    -2.661e-009    
  -2.1            1.5645e-009     -2.0141e-005    -7.6e-009      
  -2.15           1.3285e-009     -2.066e-005     -9.272e-009    
  -2.2            3.3152e-009     -2.1148e-005    -1.3477e-008   
  -2.25           1.8765e-009     -2.1614e-005    -1.8803e-008   
  -2.3            1.3945e-009     -2.2062e-005    -9.123e-009    
  -2.35           3.3955e-009     -2.2491e-005    -1.1158e-008   
  -2.4            3.048e-009      -2.289e-005     -1.117e-009    
  -2.45           2.2045e-009     -2.3287e-005    -3.236e-009    
  -2.5            1.5154e-009     -2.3665e-005    -8.481e-009    
  -2.55           3.3915e-009     -2.4026e-005    -9.913e-009    
  -2.6            3.2441e-009     -2.4366e-005    -6.49e-010     
  -2.65           -1.7663e-009    -2.4699e-005    7.216e-009     
  -2.7            -1.7432e-009    -2.5022e-005    7.72e-009      
  -2.75           -1.8368e-009    -2.5338e-005    9.209e-009     
  -2.8            2.4871e-009     -2.5643e-005    -1.7939e-008   
  -2.85           1.6432e-009     -2.5939e-005    -6.957e-009    
  -2.9            1.3491e-009     -2.6223e-005    -9.268e-009    
  -2.95           3.3413e-009     -2.6497e-005    -1.2805e-008   
  -3              1.9879e-009     -2.676e-005     -1.8945e-008   
  -3.05           1.4308e-009     -2.7021e-005    -9.359e-009    
  -3.1            3.4091e-009     -2.7273e-005    -1.0942e-008   
  -3.15           3.1196e-009     -2.7509e-005    -8.99e-010     
  -3.2            2.3158e-009     -2.7748e-005    -2.788e-009    
  -3.25           1.5642e-009     -2.7979e-005    -7.842e-009    
  -3.3            3.3937e-009     -2.8205e-005    -9.502e-009    
  -3.35           -2.0681e-009    -2.8409e-005    8.455e-009     
  -3.4            1.3355e-009     -2.8632e-005    -2.6425e-008   
  -3.45           3.3098e-009     -2.8839e-005    -1.3944e-008   
  -3.5            -1.7758e-009    -2.9038e-005    7.175e-009     
  -3.55           -1.7627e-009    -2.9227e-005    7.602e-009     
  -3.6            -1.8739e-009    -2.9423e-005    9.103e-009     
  -3.65           2.5707e-009     -2.961e-005     -1.757e-008    
  -3.7            1.693e-009      -2.9794e-005    -6.386e-009    
  -3.75           1.3624e-009     -2.9974e-005    -9.413e-009    
  -3.8            3.3809e-009     -3.0148e-005    -1.2377e-008   
  -3.85           2.0713e-009     -3.0319e-005    -1.8779e-008   
  -3.9            1.4542e-009     -3.0487e-005    -9.263e-009    
  -3.95           3.4292e-009     -3.0654e-005    -1.0648e-008   
  -4              3.1777e-009     -3.0801e-005    -8.59e-010     
  -4.05           2.3974e-009     -3.0963e-005    -2.439e-009    
  -4.1            1.6096e-009     -3.1116e-005    -7.311e-009    
  -4.15           3.4089e-009     -3.1269e-005    -9.542e-009    
  -4.2            -1.6993e-009    -3.1408e-005    8.346e-009     
  -4.25           -1.674e-009     -3.1556e-005    5.952e-009     
  -4.3            1.6515e-009     -3.1702e-005    -2.0968e-008   
  -4.35           3.4062e-009     -3.1841e-005    -9.399e-009    
  -4.4            -1.7075e-009    -3.1964e-005    8.329e-009     
  -4.45           -1.6699e-009    -3.2102e-005    5.937e-009     
  -4.5            1.6659e-009     -3.2236e-005    -2.075e-008    
  -4.55           3.4029e-009     -3.2365e-005    -9.525e-009    
  -4.6            -1.7112e-009    -3.2478e-005    8.258e-009     
  -4.65           -1.6776e-009    -3.261e-005     5.904e-009     
  -4.7            1.6838e-009     -3.2731e-005    -2.0607e-008   
  -4.75           1.3534e-009     -3.2849e-005    -9.33e-009     
  -4.8            3.3943e-009     -3.2962e-005    -1.2395e-008   
  -4.85           2.0137e-009     -3.3079e-005    -1.8774e-008   
  -4.9            1.4343e-009     -3.3189e-005    -9.394e-009    
  -4.95           1.2916e-009     -3.3298e-005    -1.0829e-008   
  -5              3.1771e-009     -3.3405e-005    -1.6385e-008   
END_DB

BEGIN_DB
 ICCAP_VAR VS         0              
 ICCAP_VAR VB         0              
 ICCAP_VAR VD         -5             

 #VG              IG              ID              IB             
  0               -1.5923e-009    -1.2044e-009    -1.7653e-008   
  -0.05           1.8385e-009     -9.958e-010     -2.2513e-008   
  -0.1            8.04e-010       2.5288e-009     -9.261e-009    
  -0.15           -1.7015e-009    -1.104e-010     7.312e-009     
  -0.2            -1.7263e-009    5.04e-011       7.351e-009     
  -0.25           -1.729e-009     2.267e-010      7.762e-009     
  -0.3            -1.7081e-009    3.97e-010       8.307e-009     
  -0.35           -1.668e-009     5.62e-010       8.938e-009     
  -0.4            -2.4268e-009    -1.2723e-009    5.839e-009     
  -0.45           2.2428e-009     -8.652e-010     -1.9711e-008   
  -0.5            5.569e-010      2.5004e-009     -8.276e-009    
  -0.55           2.7737e-009     -6.803e-010     -1.8156e-008   
  -0.6            1.4128e-009     2.2633e-009     -4.677e-009    
  -0.65           -1.7079e-009    4.024e-010      8.336e-009     
  -0.7            -1.6636e-009    5.325e-010      9.007e-009     
  -0.75           -2.4468e-009    -1.4764e-009    5.873e-009     
  -0.8            2.1947e-009     -1.7246e-009    -1.9969e-008   
  -0.85           1.8159e-009     -2.9157e-009    -8.421e-009    
  -0.9            -2.6323e-009    -1.3955e-008    -2.5203e-008   
  -0.95           1.6805e-009     -4.8838e-008    -2.0214e-008   
  -1              1.1534e-009     -1.5774e-007    -1.8112e-008   
  -1.05           -1.7082e-009    -4.5243e-007    7.61e-009      
  -1.1            -2.7525e-009    -1.1245e-006    -2.44e-008     
  -1.15           1.3241e-009     -2.4196e-006    -2.6782e-008   
  -1.2            3.2882e-009     -4.437e-006     -1.3678e-008   
  -1.25           -1.7382e-009    -7.1412e-006    7.135e-009     
  -1.3            -1.7221e-009    -1.07889e-005   7.523e-009     
  -1.35           1.0427e-009     -1.5451e-005    -2.0468e-008   
  -1.4            -1.7368e-009    -2.0635e-005    7.359e-009     
  -1.45           -1.9716e-009    -2.6776e-005    8.694e-009     
  -1.5            1.3082e-009     -3.3856e-005    -2.6601e-008   
  -1.55           3.2318e-009     -4.1496e-005    -1.5271e-008   
  -1.6            -1.7508e-009    -4.9411e-005    7.296e-009     
  -1.65           -1.7132e-009    -5.8267e-005    7.776e-009     
  -1.7            -1.6535e-009    -6.7717e-005    5.728e-009     
  -1.75           1.905e-009      -7.8014e-005    -1.8632e-008   
  -1.8            1.4024e-009     -8.853e-005     -9.469e-009    
  -1.85           3.3899e-009     -9.9523e-005    -1.0761e-008   
  -1.9            3.0716e-009     -0.00011101     -1.012e-009    
  -1.95           -4.356e-010     -0.00012273     7.377e-009     
  -2              -1.7624e-009    -0.00013489     7.388e-009     
  -2.05           -1.6952e-009    -0.00014763     8.1e-009       
  -2.1            -1.6487e-009    -0.00016074     5.868e-009     
  -2.15           1.7462e-009     -0.00017453     -1.9688e-008   
  -2.2            1.3718e-009     -0.00018821     -9.243e-009    
  -2.25           3.3747e-009     -0.00020236     -1.1472e-008   
  -2.3            2.9219e-009     -0.0002165      -1.44e-009     
  -2.35           2.0368e-009     -0.00023119     -3.658e-009    
  -2.4            1.4606e-009     -0.00024608     -8.829e-009    
  -2.45           1.3024e-009     -0.0002612      -1.0537e-008   
  -2.5            3.2017e-009     -0.00027665     -1.5646e-008   
  -2.55           2.4189e-009     -0.00029208     -2.296e-009    
  -2.6            1.6384e-009     -0.00030794     -6.795e-009    
  -2.65           1.352e-009      -0.00032397     -9.357e-009    
  -2.7            3.3528e-009     -0.00034033     -1.28e-008     
  -2.75           -1.7455e-009    -0.00035604     6.953e-009     
  -2.8            -1.7656e-009    -0.00037259     7.371e-009     
  -2.85           -1.9601e-009    -0.00038933     8.679e-009     
  -2.9            2.7325e-009     -0.00040673     -2.6605e-008   
  -2.95           1.8262e-009     -0.00042371     -4.73e-009     
  -3              1.3982e-009     -0.00044091     -9.116e-009    
  -3.05           3.4125e-009     -0.00045826     -1.1479e-008   
  -3.1            3.0398e-009     -0.00047537     -1.128e-009    
  -3.15           2.1795e-009     -0.00049302     -3.154e-009    
  -3.2            1.5143e-009     -0.00051057     -8.624e-009    
  -3.25           1.3244e-009     -0.00052838     -9.931e-009    
  -3.3            3.2781e-009     -0.00054616     -1.485e-008    
  -3.35           -1.7761e-009    -0.00056328     7.206e-009     
  -3.4            -1.7567e-009    -0.00058117     7.671e-009     
  -3.45           -1.6749e-009    -0.00059918     5.702e-009     
  -3.5            1.9637e-009     -0.00061756     -1.8321e-008   
  -3.55           1.4311e-009     -0.00063555     -9.255e-009    
  -3.6            3.4316e-009     -0.00065341     -1.0989e-008   
  -3.65           3.1344e-009     -0.00067102     -9.24e-010     
  -3.7            2.3053e-009     -0.00068898     -2.644e-009    
  -3.75           1.5684e-009     -0.0007067      -7.611e-009    
  -3.8            1.3403e-009     -0.00072434     -9.685e-009    
  -3.85           3.3452e-009     -0.00074169     -1.3771e-008   
  -3.9            -1.7704e-009    -0.00075837     7.085e-009     
  -3.95           -1.7726e-009    -0.00077508     7.525e-009     
  -4              -1.8878e-009    -0.0007917      8.908e-009     
  -4.05           2.6338e-009     -0.00080831     -1.7395e-008   
  -4.1            1.7361e-009     -0.00082407     -5.826e-009    
  -4.15           1.3784e-009     -0.00083954     -9.291e-009    
  -4.2            3.4173e-009     -0.00085447     -1.1767e-008   
  -4.25           2.9749e-009     -0.00086868     -1.247e-009    
  -4.3            2.0768e-009     -0.00088276     -3.734e-009    
  -4.35           1.4688e-009     -0.00089629     -9.104e-009    
  -4.4            3.443e-009      -0.00090938     -1.0618e-008   
  -4.45           3.2335e-009     -0.00092182     -8.79e-010     
  -4.5            -1.7891e-009    -0.0009336      7.295e-009     
  -4.55           -1.7512e-009    -0.00094529     7.88e-009      
  -4.6            -1.6687e-009    -0.00095654     5.731e-009     
  -4.65           1.8748e-009     -0.00096766     -1.9228e-008   
  -4.7            1.4027e-009     -0.00097809     -9.44e-009     
  -4.75           3.4328e-009     -0.00098807     -1.1117e-008   
  -4.8            3.0735e-009     -0.00099765     -1.11e-009     
  -4.85           2.2181e-009     -0.00100703     -3.026e-009    
  -4.9            1.5226e-009     -0.00101603     -8.684e-009    
  -4.95           1.3212e-009     -0.00102479     -1.0042e-008   
  -5              3.3109e-009     -0.00103318     -1.4578e-008   
END_DB

BEGIN_DB
 ICCAP_VAR VS         0              
 ICCAP_VAR VB         2.5            
 ICCAP_VAR VD         -0.1           

 #VG              IG              ID              IB             
  0               -1.5417e-009    -1.1111e-009    -1.9273e-008   
  -0.05           1.4491e-009     -1.2238e-009    -2.6616e-008   
  -0.1            1.1687e-009     2.4517e-009     -1.0534e-008   
  -0.15           -1.7728e-009    2.004e-010      7.655e-009     
  -0.2            -1.7591e-009    3.735e-010      8.267e-009     
  -0.25           -1.7228e-009    5.452e-010      8.823e-009     
  -0.3            -1.5602e-009    -1.7479e-009    5.771e-009     
  -0.35           2.5683e-009     -7.723e-010     -1.824e-008    
  -0.4            3.682e-010      2.4477e-009     -6.148e-009    
  -0.45           -1.726e-009     5.243e-010      8.74e-009      
  -0.5            -2.379e-009     -1.2713e-009    5.746e-009     
  -0.55           2.3303e-009     -8.379e-010     -1.9202e-008   
  -0.6            5.103e-010      2.4867e-009     -7.762e-009    
  -0.65           2.8622e-009     -6.465e-010     -1.7835e-008   
  -0.7            1.3804e-009     2.3026e-009     -4.361e-009    
  -0.75           -1.768e-009     3.914e-010      8.22e-009      
  -0.8            -1.7275e-009    5.636e-010      8.836e-009     
  -0.85           -2.4081e-009    -1.2701e-009    5.845e-009     
  -0.9            2.2575e-009     -8.593e-010     -1.9523e-008   
  -0.95           5.57e-010       2.4961e-009     -8.154e-009    
  -1              2.8078e-009     -6.807e-010     -1.7755e-008   
  -1.05           1.4294e-009     2.2652e-009     -4.84e-009     
  -1.1            -1.7608e-009    4.294e-010      8.338e-009     
  -1.15           -1.7115e-009    5.943e-010      9.015e-009     
  -1.2            -2.4476e-009    -1.2707e-009    5.831e-009     
  -1.25           2.1833e-009     -8.847e-010     -1.9993e-008   
  -1.3            5.958e-010      2.4935e-009     -8.546e-009    
  -1.35           -1.9787e-009    -1.3482e-009    7.068e-009     
  -1.4            1.5108e-009     -1.4389e-009    -2.5948e-008   
  -1.45           1.3946e-009     -1.1019e-009    -9.988e-009    
  -1.5            1.3382e-009     -5.8334e-009    -1.13e-008     
  -1.55           -2.6516e-009    -2.5413e-008    -2.5511e-008   
  -1.6            1.7063e-009     -9.6015e-008    -2.0232e-008   
  -1.65           2.615e-010      -3.0594e-007    5.872e-009     
  -1.7            1.604e-009      -7.8968e-007    -2.1255e-008   
  -1.75           1.8202e-009     -1.6535e-006    6.669e-009     
  -1.8            2.1042e-009     -2.842e-006     -1.831e-008    
  -1.85           1.4751e-009     -4.2556e-006    -8.851e-009    
  -1.9            3.4437e-009     -5.7375e-006    -1.0539e-008   
  -1.95           3.2415e-009     -7.1245e-006    -9.13e-010     
  -2              -1.7895e-009    -8.3857e-006    7.293e-009     
  -2.05           -1.7465e-009    -9.564e-006     7.912e-009     
  -2.1            -1.6663e-009    -1.06372e-005   5.798e-009     
  -2.15           4.872e-010      -1.1606e-005    -1.7484e-008   
  -2.2            2.3765e-009     -1.2503e-005    -1.7825e-008   
  -2.25           1.5736e-009     -1.3313e-005    -7.413e-009    
  -2.3            1.344e-009      -1.406e-005     -9.554e-009    
  -2.35           3.3749e-009     -1.4753e-005    -1.3714e-008   
  -2.4            1.8722e-009     -1.5399e-005    -1.8535e-008   
  -2.45           1.4103e-009     -1.6003e-005    -9.235e-009    
  -2.5            3.4582e-009     -1.6574e-005    -1.1137e-008   
  -2.55           3.1047e-009     -1.7098e-005    -1.212e-009    
  -2.6            2.2048e-009     -1.7608e-005    -3.155e-009    
  -2.65           1.5139e-009     -1.8091e-005    -8.218e-009    
  -2.7            3.4466e-009     -1.8544e-005    -9.864e-009    
  -2.75           -2.0117e-009    -1.8967e-005    8.466e-009     
  -2.8            2.8474e-009     -1.9393e-005    -2.7011e-008   
  -2.85           1.8831e-009     -1.9788e-005    -4.566e-009    
  -2.9            1.4199e-009     -2.0167e-005    -9.285e-009    
  -2.95           3.4675e-009     -2.0533e-005    -1.1237e-008   
  -3              3.135e-009      -2.0875e-005    -1.238e-009    
  -3.05           2.2407e-009     -2.1212e-005    -2.92e-009     
  -3.1            1.5305e-009     -2.1538e-005    -8.007e-009    
  -3.15           1.3343e-009     -2.1849e-005    -9.796e-009    
  -3.2            3.3574e-009     -2.215e-005     -1.4659e-008   
  -3.25           -1.7887e-009    -2.2432e-005    7.209e-009     
  -3.3            -1.7745e-009    -2.2708e-005    7.644e-009     
  -3.35           -1.6756e-009    -2.2988e-005    5.695e-009     
  -3.4            1.9868e-009     -2.3251e-005    -1.8356e-008   
  -3.45           1.4371e-009     -2.3508e-005    -9.114e-009    
  -3.5            3.4738e-009     -2.3758e-005    -1.0732e-008   
  -3.55           3.1844e-009     -2.3988e-005    -1.064e-009    
  -3.6            2.32e-009       -2.4223e-005    -2.721e-009    
  -3.65           1.5598e-009     -2.4451e-005    -7.518e-009    
  -3.7            1.3421e-009     -2.4673e-005    -9.647e-009    
  -3.75           3.3793e-009     -2.4886e-005    -1.4013e-008   
  -3.8            -1.7859e-009    -2.5093e-005    7.069e-009     
  -3.85           -1.7792e-009    -2.5289e-005    7.501e-009     
  -3.9            -1.8709e-009    -2.5489e-005    8.86e-009      
  -3.95           2.6022e-009     -2.5681e-005    -1.7675e-008   
  -4              1.7027e-009     -2.5881e-005    -6.292e-009    
  -4.05           1.3736e-009     -2.6063e-005    -9.11e-009     
  -4.1            3.4498e-009     -2.6241e-005    -1.2082e-008   
  -4.15           2.0772e-009     -2.6413e-005    -1.7986e-008   
