! VERSION = 6.00
BEGIN_HEADER
 ICCAP_INPUTS
  VG         V  B GROUND SMU4 0.001 LIN        2    0          5          6    1         
  VS         V  E GROUND SMU3 0.1 CON        0
  VD         V  S GROUND SMU2 0.1 LIN        1    0          10         201  0.05      
  VB         V  C GROUND SMU1 0.1 LIN        3    0          -2.5       2    -2.5      
 ICCAP_OUTPUTS
  ID         I  S GROUND SMU2 B
  IB         I  C GROUND SMU1 B
  IG         I  B GROUND SMU4 B
END_HEADER

BEGIN_DB
 ICCAP_VAR VG         0              
 ICCAP_VAR VS         0              
 ICCAP_VAR VB         0              

 #VD              ID              IB              IG             
  0               -2.1089e-009    1.1849e-008     -3.36e-010     
  0.05            -1.6614e-009    -1.2661e-008    1.3157e-009    
  0.1             9.893e-010      1.1381e-008     -1.3418e-009   
  0.15            -1.486e-009     -1.3133e-008    1.3452e-009    
  0.2             1.4836e-009     1.2937e-008     -1.3554e-009   
  0.25            -1.4198e-009    -1.3201e-008    1.3562e-009    
  0.3             1.4248e-009     1.3059e-008     -1.3627e-009   
  0.35            -1.3607e-009    -1.3411e-008    1.36e-009      
  0.4             7.863e-010      1.2777e-008     -1.356e-009    
  0.45            -6.734e-010     -1.2244e-008    1.307e-009     
  0.5             -1.8417e-009    -1.238e-008     1.3043e-009    
  0.55            1.8352e-009     1.2225e-008     -1.31e-009     
  0.6             -1.7607e-009    -1.2551e-008    1.3094e-009    
  0.65            1.7515e-009     1.2401e-008     -1.3151e-009   
  0.7             -1.6789e-009    -1.27e-008      1.316e-009     
  0.75            1.6661e-009     1.256e-008      -1.3215e-009   
  0.8             -1.5925e-009    -1.2806e-008    1.3257e-009    
  0.85            1.5959e-009     1.2726e-008     -1.3339e-009   
  0.9             -1.5261e-009    -1.3066e-008    1.3384e-009    
  0.95            9.076e-010      1.2067e-008     -1.3628e-009   
  1               -1.3779e-009    -1.3346e-008    1.3601e-009    
  1.05            7.987e-010      1.2845e-008     -1.3598e-009   
  1.1             -6.828e-010     -1.2343e-008    1.3161e-009    
  1.15            -1.8582e-009    -1.2291e-008    1.3029e-009    
  1.2             1.8532e-009     1.2207e-008     -1.3062e-009   
  1.25            -1.7762e-009    -1.2501e-008    1.3057e-009    
  1.3             1.7671e-009     1.2422e-008     -1.3121e-009   
  1.35            -1.6952e-009    -1.2676e-008    1.3133e-009    
  1.4             1.6871e-009     1.2487e-008     -1.3197e-009   
  1.45            -1.6129e-009    -1.2798e-008    1.3245e-009    
  1.5             9.663e-010      1.1673e-008     -1.3537e-009   
  1.55            -1.4542e-009    -1.3303e-008    1.3548e-009    
  1.6             1.4494e-009     1.3067e-008     -1.3645e-009   
  1.65            -1.3895e-009    -1.3384e-008    1.3632e-009    
  1.7             8.068e-010      1.3031e-008     -1.3653e-009   
  1.75            -6.937e-010     -1.2486e-008    1.3208e-009    
  1.8             -1.8662e-009    -1.2211e-008    1.3022e-009    
  1.85            1.8615e-009     1.2189e-008     -1.3076e-009   
  1.9             -1.7847e-009    -1.2511e-008    1.3073e-009    
  1.95            1.7831e-009     1.2424e-008     -1.31e-009     
  2               -1.7081e-009    -1.2741e-008    1.3138e-009    
  2.05            1.6972e-009     1.2536e-008     -1.3198e-009   
  2.1             -1.6241e-009    -1.2774e-008    1.3243e-009    
  2.15            1.6177e-009     1.2681e-008     -1.3336e-009   
  2.2             -9.012e-010     -1.2034e-008    1.3532e-009    
  2.25            1.4614e-009     1.3059e-008     -1.3617e-009   
  2.3             -1.3951e-009    -1.338e-008     1.3592e-009    
  2.35            1.3959e-009     1.3168e-008     -1.3685e-009   
  2.4             -1.3392e-009    -1.3379e-008    1.3603e-009    
  2.45            7.734e-010      1.2683e-008     -1.3506e-009   
  2.5             -1.2188e-009    -1.2693e-008    1.3327e-009    
  2.55            -1.9036e-009    -1.2036e-008    1.3051e-009    
  2.6             1.8916e-009     1.2047e-008     -1.3062e-009   
  2.65            -1.8162e-009    -1.2444e-008    1.3064e-009    
  2.7             1.8157e-009     1.2305e-008     -1.3083e-009   
  2.75            -1.7331e-009    -1.2692e-008    1.3101e-009    
  2.8             1.0477e-009     1.1293e-008     -1.3319e-009   
  2.85            -9.077e-010     -1.207e-008     1.3553e-009    
  2.9             1.4679e-009     1.3059e-008     -1.3653e-009   
  2.95            -1.3952e-009    -1.3343e-008    1.3624e-009    
  3               1.4055e-009     1.3137e-008     -1.3709e-009   
  3.05            -7.522e-010     -1.3037e-008    1.3535e-009    
  3.1             7.298e-010      1.1982e-008     -1.3156e-009   
  3.15            -1.1537e-009    -1.1816e-008    1.3043e-009    
  3.2             1.8225e-009     1.229e-008      -1.3094e-009   
  3.25            -1.7448e-009    -1.2574e-008    1.3086e-009    
  3.3             1.7408e-009     1.2462e-008     -1.3172e-009   
  3.35            -1.6614e-009    -1.2845e-008    1.3191e-009    
  3.4             1.6544e-009     1.2597e-008     -1.3295e-009   
  3.45            -1.5781e-009    -1.2941e-008    1.3321e-009    
  3.5             1.5774e-009     1.2883e-008     -1.3434e-009   
  3.55            -8.761e-010     -1.2475e-008    1.3612e-009    
  3.6             1.434e-009      1.3075e-008     -1.3701e-009   
  3.65            -7.69e-010      -1.3283e-008    1.3603e-009    
  3.7             7.424e-010      1.2244e-008     -1.3291e-009   
  3.75            -1.1712e-009    -1.2095e-008    1.3039e-009    
  3.8             1.8555e-009     1.2264e-008     -1.3077e-009   
  3.85            -1.7741e-009    -1.2588e-008    1.3101e-009    
  3.9             1.7736e-009     1.2502e-008     -1.3146e-009   
  3.95            -1.6825e-009    -1.2842e-008    1.3155e-009    
  4               1.0206e-009     1.137e-008      -1.3411e-009   
  4.05            -1.5103e-009    -1.3193e-008    1.3435e-009    
  4.1             9e-010          1.2337e-008     -1.3685e-009   
  4.15            -1.3637e-009    -1.3441e-008    1.3642e-009    
  4.2             7.941e-010      1.2983e-008     -1.3611e-009   
  4.25            -6.754e-010     -1.2275e-008    1.3078e-009    
  4.3             -1.83e-009      -1.2322e-008    1.3031e-009    
  4.35            1.8248e-009     1.2363e-008     -1.3082e-009   
  4.4             -1.7428e-009    -1.274e-008     1.3093e-009    
  4.45            1.7375e-009     1.2634e-008     -1.318e-009    
  4.5             -1.6571e-009    -1.2829e-008    1.3237e-009    
  4.55            1.6579e-009     1.2655e-008     -1.3366e-009   
  4.6             -9.236e-010     -1.2417e-008    1.3596e-009    
  4.65            1.4878e-009     1.286e-008      -1.3717e-009   
  4.7             -1.4127e-009    -1.3134e-008    1.3706e-009    
  4.75            1.4248e-009     1.2844e-008     -1.3789e-009   
  4.8             -7.66e-010      -1.3234e-008    1.3596e-009    
  4.85            7.429e-010      1.1964e-008     -1.3253e-009   
  4.9             -1.1644e-009    -1.1916e-008    1.3032e-009    
  4.95            1.8455e-009     1.2486e-008     -1.3096e-009   
  5               -1.7631e-009    -1.2785e-008    1.3148e-009    
  5.05            1.7618e-009     1.259e-008      -1.3233e-009   
  5.1             -1.6837e-009    -1.2861e-008    1.3244e-009    
  5.15            1.0094e-009     1.1956e-008     -1.3584e-009   
  5.2             -1.5033e-009    -1.3133e-008    1.3576e-009    
  5.25            1.5122e-009     1.292e-008      -1.3695e-009   
  5.3             -1.4358e-009    -1.3005e-008    1.3694e-009    
  5.35            1.4437e-009     1.2873e-008     -1.3772e-009   
  5.4             -1.3749e-009    -1.307e-008     1.3718e-009    
  5.45            8.066e-010      1.2827e-008     -1.361e-009    
  5.5             -1.2432e-009    -1.2639e-008    1.3459e-009    
  5.55            1.2665e-009     1.2185e-008     -1.3379e-009   
  5.6             -1.1915e-009    -1.2138e-008    1.3173e-009    
  5.65            -1.8583e-009    -1.2347e-008    1.302e-009     
  5.7             1.8583e-009     1.235e-008      -1.3096e-009   
  5.75            -1.7706e-009    -1.2678e-008    1.3107e-009    
  5.8             1.7789e-009     1.2581e-008     -1.3211e-009   
  5.85            -1.6947e-009    -1.2862e-008    1.3229e-009    
  5.9             1.6926e-009     1.2607e-008     -1.3341e-009   
  5.95            -1.6152e-009    -1.2896e-008    1.3387e-009    
  6               1.6115e-009     1.2778e-008     -1.3493e-009   
  6.05            -1.5381e-009    -1.311e-008     1.352e-009     
  6.1             9.143e-010      1.2564e-008     -1.3752e-009   
  6.15            -1.3788e-009    -1.3159e-008    1.371e-009     
  6.2             8.11e-010       1.3018e-008     -1.3665e-009   
  6.25            -6.827e-010     -1.2188e-008    1.3135e-009    
  6.3             -1.8501e-009    -1.2435e-008    1.3022e-009    
  6.35            1.8536e-009     1.2369e-008     -1.3096e-009   
  6.4             -1.7738e-009    -1.2663e-008    1.3107e-009    
  6.45            1.7776e-009     1.2613e-008     -1.3185e-009   
  6.5             -1.6904e-009    -1.2918e-008    1.3217e-009    
  6.55            1.6908e-009     1.2658e-008     -1.3327e-009   
  6.6             -1.6035e-009    -1.2933e-008    1.3379e-009    
  6.65            9.675e-010      1.2224e-008     -1.3678e-009   
  6.7             -1.443e-009     -1.3046e-008    1.3669e-009    
  6.75            1.4553e-009     1.2826e-008     -1.3756e-009   
  6.8             -1.3803e-009    -1.3096e-008    1.3714e-009    
  6.85            8.079e-010      1.2959e-008     -1.3652e-009   
  6.9             -6.803e-010     -1.2115e-008    1.3108e-009    
  6.95            -1.852e-009     -1.2455e-008    1.3035e-009    
  7               1.8486e-009     1.2342e-008     -1.3117e-009   
  7.05            -1.7645e-009    -1.2704e-008    1.3108e-009    
  7.1             1.7688e-009     1.2649e-008     -1.319e-009    
  7.15            -1.6834e-009    -1.2955e-008    1.3227e-009    
  7.2             1.6897e-009     1.2579e-008     -1.3319e-009   
  7.25            -1.6053e-009    -1.2885e-008    1.3378e-009    
  7.3             1.6073e-009     1.2686e-008     -1.3506e-009   
  7.35            -1.5262e-009    -1.301e-008     1.3527e-009    
  7.4             9.103e-010      1.2713e-008     -1.3759e-009   
  7.45            -1.3744e-009    -1.3049e-008    1.3697e-009    
  7.5             8.085e-010      1.2875e-008     -1.3644e-009   
  7.55            -6.771e-010     -1.2039e-008    1.3101e-009    
  7.6             -1.8438e-009    -1.2471e-008    1.3033e-009    
  7.65            1.8502e-009     1.2353e-008     -1.3098e-009   
  7.7             -1.7642e-009    -1.2686e-008    1.313e-009     
  7.75            1.7701e-009     1.2589e-008     -1.3193e-009   
  7.8             -1.6776e-009    -1.2853e-008    1.3244e-009    
  7.85            1.6788e-009     1.2553e-008     -1.3337e-009   
  7.9             -1.5969e-009    -1.289e-008     1.3369e-009    
  7.95            1.6065e-009     1.2722e-008     -1.3498e-009   
  8               -1.5224e-009    -1.3064e-008    1.3521e-009    
  8.05            1.5335e-009     1.2835e-008     -1.3639e-009   
  8.1             -1.4557e-009    -1.3093e-008    1.3632e-009    
  8.15            1.4648e-009     1.2845e-008     -1.3731e-009   
  8.2             -1.3868e-009    -1.3078e-008    1.3692e-009    
  8.25            1.4054e-009     1.2931e-008     -1.3757e-009   
  8.3             -7.453e-010     -1.3014e-008    1.3502e-009    
  8.35            7.289e-010      1.1614e-008     -1.308e-009    
  8.4             -1.1325e-009    -1.1774e-008    1.3045e-009    
  8.45            1.8142e-009     1.2403e-008     -1.3109e-009   
  8.5             -1.7284e-009    -1.272e-008     1.3108e-009    
  8.55            1.7274e-009     1.2624e-008     -1.3182e-009   
  8.6             -9.669e-010     -1.185e-008     1.3421e-009    
  8.65            9.316e-010      1.2195e-008     -1.3663e-009   
  8.7             -1.3904e-009    -1.3165e-008    1.3641e-009    
  8.75            1.4095e-009     1.2994e-008     -1.3698e-009   
  8.8             -7.419e-010     -1.303e-008     1.3521e-009    
  8.85            7.259e-010      1.1784e-008     -1.3115e-009   
  8.9             -1.146e-009     -1.1802e-008    1.3048e-009    
  8.95            1.8189e-009     1.236e-008      -1.3098e-009   
  9               -1.7305e-009    -1.2647e-008    1.3124e-009    
  9.05            1.734e-009      1.2503e-008     -1.3186e-009   
  9.1             -1.6445e-009    -1.2693e-008    1.3203e-009    
  9.15            1.6493e-009     1.2504e-008     -1.3323e-009   
  9.2             -1.5667e-009    -1.2945e-008    1.3357e-009    
  9.25            1.57e-009       1.2694e-008     -1.3478e-009   
  9.3             -1.4927e-009    -1.3114e-008    1.3487e-009    
  9.35            1.5036e-009     1.2934e-008     -1.3604e-009   
  9.4             -1.4227e-009    -1.3179e-008    1.3591e-009    
  9.45            1.4375e-009     1.2986e-008     -1.3685e-009   
  9.5             -1.3588e-009    -1.3223e-008    1.3638e-009    
  9.55            7.999e-010      1.2684e-008     -1.3574e-009   
  9.6             -6.702e-010     -1.21e-008      1.3044e-009    
  9.65            -1.8236e-009    -1.2428e-008    1.3058e-009    
  9.7             1.8312e-009     1.2329e-008     -1.3091e-009   
  9.75            -1.7372e-009    -1.2629e-008    1.3115e-009    
  9.8             1.7485e-009     1.2502e-008     -1.32e-009     
  9.85            -1.6549e-009    -1.2722e-008    1.3211e-009    
  9.9             1.655e-009      1.2529e-008     -1.3334e-009   
  9.95            -1.5685e-009    -1.2925e-008    1.3347e-009    
  10              9.485e-010      1.2006e-008     -1.3625e-009   
END_DB

BEGIN_DB
 ICCAP_VAR VG         1              
 ICCAP_VAR VS         0              
 ICCAP_VAR VB         0              

 #VD              ID              IB              IG             
  0               4.0217e-007     1.2025e-008     -3.54e-010     
  0.05            3.5132e-005     1.2925e-008     1.3029e-009    
  0.1             6.0098e-005     -1.0607e-008    1.3336e-009    
  0.15            7.5999e-005     -1.2107e-008    1.3233e-009    
  0.2             8.4473e-005     -6.882e-009     1.3094e-009    
  0.25            8.8019e-005     -8.305e-009     1.3031e-009    
  0.3             8.9174e-005     -1.3236e-008    1.3271e-009    
  0.35            8.977e-005      -6.487e-009     1.3141e-009    
  0.4             9.0009e-005     -7.907e-009     1.3049e-009    
  0.45            9.0045e-005     -1.3194e-008    1.3344e-009    
  0.5             9.0218e-005     -1.2709e-008    1.3648e-009    
  0.55            9.0351e-005     -1.1523e-008    1.3064e-009    
  0.6             9.0344e-005     -1.328e-008     1.3393e-009    
  0.65            9.049e-005      -1.2452e-008    1.3635e-009    
  0.7             9.0582e-005     -1.162e-008     1.3086e-009    
  0.75            9.0567e-005     -1.3245e-008    1.3445e-009    
  0.8             9.0685e-005     -1.2218e-008    1.3598e-009    
  0.85            9.0756e-005     -1.1619e-008    1.3093e-009    
  0.9             9.0738e-005     -1.3408e-008    1.3509e-009    
  0.95            9.0848e-005     -1.2007e-008    1.3573e-009    
  1               9.0909e-005     -1.1715e-008    1.3146e-009    
  1.05            9.0988e-005     -7.808e-009     1.3059e-009    
  1.1             9.0914e-005     -1.3238e-008    1.3345e-009    
  1.15            9.1024e-005     -1.2686e-008    1.3648e-009    
  1.2             9.1098e-005     -1.1507e-008    1.3054e-009    
  1.25            9.1052e-005     -1.332e-008     1.34e-009      
  1.3             9.1158e-005     -1.2434e-008    1.3629e-009    
  1.35            9.1236e-005     -1.1668e-008    1.3097e-009    
  1.4             9.1179e-005     -1.331e-008     1.3458e-009    
  1.45            9.1292e-005     -1.2158e-008    1.3592e-009    
  1.5             9.1355e-005     -1.1673e-008    1.3108e-009    
  1.55            9.1311e-005     -1.3366e-008    1.3511e-009    
  1.6             9.1404e-005     -1.1922e-008    1.3562e-009    
  1.65            9.1455e-005     -1.1786e-008    1.3143e-009    
  1.7             9.1528e-005     -7.904e-009     1.308e-009     
  1.75            9.1439e-005     -1.324e-008     1.3359e-009    
  1.8             9.1603e-005     -5.963e-009     1.3186e-009    
  1.85            9.1641e-005     -7.425e-009     1.3056e-009    
  1.9             9.1567e-005     -1.3386e-008    1.3406e-009    
  1.95            9.1662e-005     -1.2385e-008    1.3632e-009    
  2               9.1713e-005     -1.1576e-008    1.3108e-009    
  2.05            9.1678e-005     -1.334e-008     1.3472e-009    
  2.1             9.1764e-005     -1.2196e-008    1.358e-009     
  2.15            9.1804e-005     -1.1657e-008    1.3115e-009    
  2.2             9.1775e-005     -1.3439e-008    1.3519e-009    
  2.25            9.1873e-005     -1.1957e-008    1.3539e-009    
  2.3             9.1903e-005     -1.1874e-008    1.3149e-009    
  2.35            9.1982e-005     -7.837e-009     1.3079e-009    
  2.4             9.1887e-005     -1.3446e-008    1.3365e-009    
  2.45            9.1983e-005     -1.2873e-008    1.3641e-009    
  2.5             9.204e-005      -1.1891e-008    1.3074e-009    
  2.55            9.199e-005      -1.3828e-008    1.3408e-009    
  2.6             9.2083e-005     -1.2994e-008    1.3638e-009    
  2.65            9.2128e-005     -1.2463e-008    1.3094e-009    
  2.7             9.2079e-005     -1.4461e-008    1.3492e-009    
  2.75            9.2175e-005     -1.3582e-008    1.3576e-009    
  2.8             9.2217e-005     -1.3509e-008    1.3129e-009    
  2.85            9.2185e-005     -1.579e-008     1.3524e-009    
  2.9             9.2272e-005     -1.4732e-008    1.3527e-009    
  2.95            9.2309e-005     -1.5463e-008    1.3146e-009    
  3               9.2272e-005     -1.7825e-008    1.357e-009     
  3.05            9.2363e-005     -1.7269e-008    1.3455e-009    
  3.1             9.2389e-005     -1.8525e-008    1.3156e-009    
  3.15            9.2375e-005     -2.1151e-008    1.3603e-009    
  3.2             9.2449e-005     -2.0993e-008    1.3375e-009    
  3.25            9.247e-005      -2.3303e-008    1.3213e-009    
  3.3             9.2458e-005     -2.626e-008     1.3638e-009    
  3.35            9.2533e-005     -2.697e-008     1.326e-009     
  3.4             9.2569e-005     -3.0156e-008    1.3269e-009    
  3.45            9.2559e-005     -3.3689e-008    1.3636e-009    
  3.5             9.2623e-005     -3.5414e-008    1.3045e-009    
  3.55            9.2562e-005     -4.0653e-008    1.3308e-009    
  3.6             9.265e-005      -4.4052e-008    1.3649e-009    
  3.65            9.2709e-005     -4.7113e-008    1.3071e-009    
  3.7             9.2655e-005     -5.3588e-008    1.3391e-009    
  3.75            9.2747e-005     -5.8037e-008    1.3627e-009    
  3.8             9.2801e-005     -6.2666e-008    1.3091e-009    
  3.85            9.2756e-005     -7.0764e-008    1.3427e-009    
  3.9             9.2852e-005     -7.6373e-008    1.3613e-009    
  3.95            9.29e-005       -8.317e-008     1.3108e-009    
  4               9.2861e-005     -9.2971e-008    1.3483e-009    
  4.05            9.2957e-005     -1.00289e-007   1.3555e-009    
  4.1             9.2998e-005     -1.09194e-007   1.3109e-009    
  4.15            9.2951e-005     -1.1671e-007    1.3052e-009    
  4.2             9.2983e-005     -1.32e-007      1.3393e-009    
  4.25            9.3096e-005     -1.4281e-007    1.3607e-009    
  4.3             9.3151e-005     -1.5454e-007    1.309e-009     
  4.35            9.3103e-005     -1.7001e-007    1.3464e-009    
