! VERSION = 6.00
BEGIN_HEADER
 ICCAP_INPUTS
  VG         V  B GROUND SMU4 0.001 LIN        1    0          5          101  0.05      
  VS         V  E GROUND SMU3 0.1 CON        0
  VB         V  C GROUND SMU1 0.1 LIN        3    0          -5         3    -2.5      
  VD         V  S GROUND SMU2 0.1 LIN        2    0.1        10         2    9.9       
 ICCAP_OUTPUTS
  IG         I  B GROUND SMU4 B
  ID         I  S GROUND SMU2 B
  IB         I  C GROUND SMU1 B
END_HEADER

BEGIN_DB
 ICCAP_VAR VS         0              
 ICCAP_VAR VB         0              
 ICCAP_VAR VD         0.1            

 #VG              IG              ID              IB             
  0               -2.781e-010     -2.3264e-009    1.3455e-008    
  0.05            1.383e-009      -1.9121e-009    -1.3424e-008   
  0.1             -1.393e-009     1.8614e-009     1.3393e-008    
  0.15            1.3968e-009     -1.8121e-009    -1.3561e-008   
  0.2             -1.4082e-009    1.77e-009       1.3236e-008    
  0.25            1.4093e-009     -1.7069e-009    -1.3487e-008   
  0.3             -1.4246e-009    1.7249e-009     1.3317e-008    
  0.35            1.423e-009      -1.4754e-009    -1.3587e-008   
  0.4             -1.4387e-009    2.1795e-009     1.3458e-008    
  0.45            1.399e-009      3.1384e-009     -7.945e-009    
  0.5             -1.4164e-009    9.5888e-009     1.3281e-008    
  0.55            -1.4421e-009    2.8284e-008     -1.3045e-008   
  0.6             1.4095e-009     1.00266e-007    -1.3622e-008   
  0.65            8.441e-010      3.4346e-007     -1.2492e-008   
  0.7             -1.3852e-009    1.06139e-006    1.3351e-008    
  0.75            1.0915e-009     2.8873e-006     1.3421e-008    
  0.8             -1.3918e-009    6.9849e-006     1.2714e-008    
  0.85            1.3756e-009     1.4064e-005     1.3749e-008    
  0.9             -1.4527e-009    2.3975e-005     1.2829e-008    
  0.95            1.4005e-009     3.4742e-005     -1.3782e-008   
  1               -1.4405e-009    4.5593e-005     1.3218e-008    
  1.05            1.4198e-009     5.5229e-005     -1.3971e-008   
  1.1             -1.3729e-009    6.4104e-005     1.35e-008      
  1.15            1.446e-009      7.1769e-005     -1.3855e-008   
  1.2             -1.3915e-009    7.8745e-005     1.3581e-008    
  1.25            1.4434e-009     8.4825e-005     -1.2949e-008   
  1.3             -1.4019e-009    9.0434e-005     1.3666e-008    
  1.35            1.4351e-009     9.539e-005      -1.3403e-008   
  1.4             -1.4213e-009    0.000100008     1.3761e-008    
  1.45            1.3684e-009     0.000104135     -1.3536e-008   
  1.5             -1.453e-009     0.000108028     1.3758e-008    
  1.55            1.3841e-009     0.000111542     -1.3778e-008   
  1.6             -1.4541e-009    0.00011486      -1.2497e-008   
  1.65            1.3912e-009     0.00011787      -1.3884e-008   
  1.7             -1.447e-009     0.00012081      1.3044e-008    
  1.75            1.4081e-009     0.00012347      -1.3922e-008   
  1.8             -1.3696e-009    0.00012603      1.3308e-008    
  1.85            1.4413e-009     0.0001284       -1.4129e-008   
  1.9             -1.3841e-009    0.0001307       1.3512e-008    
  1.95            1.446e-009      0.00013281      -1.2875e-008   
  2               -1.4003e-009    0.00013489      1.3534e-008    
  2.05            1.4379e-009     0.00013679      -1.3323e-008   
  2.1             -1.4238e-009    0.00013864      1.3497e-008    
  2.15            1.3724e-009     0.00014038      -1.3605e-008   
  2.2             -1.45e-009      0.00014209      1.3509e-008    
  2.25            1.3899e-009     0.00014368      -1.3642e-008   
  2.3             -1.4506e-009    0.00014523      1.269e-008     
  2.35            1.3989e-009     0.00014669      -1.3729e-008   
  2.4             -1.4481e-009    0.00014813      1.3178e-008    
  2.45            1.414e-009      0.00014949      -1.3724e-008   
  2.5             -1.3712e-009    0.00015079      1.3396e-008    
  2.55            1.4426e-009     0.00015204      -1.3784e-008   
  2.6             -1.3894e-009    0.00015329      1.3469e-008    
  2.65            1.4442e-009     0.00015445      -1.2753e-008   
  2.7             -1.4045e-009    0.00015557      1.3476e-008    
  2.75            1.4359e-009     0.00015666      -1.3298e-008   
  2.8             -1.4182e-009    0.00015773      1.3552e-008    
  2.85            1.3676e-009     0.00015873      -1.3562e-008   
  2.9             -1.4453e-009    0.00015974      1.3664e-008    
  2.95            1.3847e-009     0.00016066      -1.3707e-008   
  3               -1.4513e-009    0.0001616       1.2572e-008    
  3.05            1.4003e-009     0.00016248      -1.3725e-008   
  3.1             -1.4469e-009    0.00016335      1.3061e-008    
  3.15            1.4136e-009     0.0001642       -1.373e-008    
  3.2             -1.3716e-009    0.00016502      1.3418e-008    
  3.25            1.4424e-009     0.00016579      -1.3867e-008   
  3.3             -1.3906e-009    0.00016655      1.3472e-008    
  3.35            1.4468e-009     0.0001673       -1.2695e-008   
  3.4             -1.4047e-009    0.00016803      1.3503e-008    
  3.45            1.4432e-009     0.00016874      -1.3217e-008   
  3.5             -1.419e-009     0.00016943      1.354e-008     
  3.55            1.3712e-009     0.00017007      -1.3562e-008   
  3.6             -1.4514e-009    0.00017073      1.3631e-008    
  3.65            1.3871e-009     0.00017134      -1.361e-008    
  3.7             -1.4548e-009    0.00017197      1.2569e-008    
  3.75            1.3997e-009     0.00017256      -1.3674e-008   
  3.8             -1.4493e-009    0.00017312      1.3095e-008    
  3.85            1.4124e-009     0.00017371      -1.3744e-008   
  3.9             -1.3752e-009    0.00017422      1.3363e-008    
  3.95            1.4452e-009     0.00017477      -1.3868e-008   
  4               -1.3929e-009    0.00017528      1.3396e-008    
  4.05            1.4498e-009     0.0001758       -1.2647e-008   
  4.1             -1.4022e-009    0.00017629      1.3517e-008    
  4.15            1.448e-009      0.00017675      -1.3234e-008   
  4.2             -1.4202e-009    0.00017725      1.3517e-008    
  4.25            1.3708e-009     0.00017771      -1.3525e-008   
  4.3             -1.4529e-009    0.00017815      1.3676e-008    
  4.35            1.3902e-009     0.00017856      -1.3583e-008   
  4.4             -1.4529e-009    0.00017901      1.2827e-008    
  4.45            1.4147e-009     0.00017942      -1.3787e-008   
  4.5             -1.3779e-009    0.00017982      1.3391e-008    
  4.55            1.4455e-009     0.0001802       -1.4061e-008   
  4.6             -1.3941e-009    0.00018058      1.3411e-008    
  4.65            1.4483e-009     0.00018096      -1.2733e-008   
  4.7             -1.4046e-009    0.00018134      1.3509e-008    
  4.75            1.4465e-009     0.00018169      -1.3205e-008   
  4.8             -1.42e-009      0.00018203      1.356e-008     
  4.85            1.3733e-009     0.00018235      -1.3598e-008   
  4.9             -1.4531e-009    0.00018271      1.3755e-008    
  4.95            1.3882e-009     0.00018301      -1.3597e-008   
  5               -1.4555e-009    0.00018332      1.2471e-008    
END_DB

BEGIN_DB
 ICCAP_VAR VS         0              
 ICCAP_VAR VB         0              
 ICCAP_VAR VD         10             

 #VG              IG              ID              IB             
  0               -2.368e-010     -2.2996e-009    1.3481e-008    
  0.05            1.3733e-009     -1.9784e-009    -1.3315e-008   
  0.1             -1.3794e-009    1.9295e-009     1.3196e-008    
  0.15            1.3834e-009     -1.8783e-009    -1.356e-008    
  0.2             -1.3938e-009    1.8397e-009     1.3434e-008    
  0.25            1.395e-009      -1.7617e-009    -1.3499e-008   
  0.3             -1.4044e-009    1.8189e-009     1.3269e-008    
  0.35            1.4098e-009     -1.4083e-009    -1.3465e-008   
  0.4             -1.4252e-009    2.7049e-009     1.327e-008     
  0.45            1.4283e-009     2.3652e-009     -1.4228e-008   
  0.5             -1.2712e-009    1.3655e-008     -1.5768e-008   
  0.55            1.3805e-009     5.2315e-008     -1.8209e-008   
  0.6             -8.506e-010     1.9248e-007     -1.4126e-008   
  0.65            1.3685e-009     6.3203e-007     -1.01042e-007  
  0.7             1.4191e-009     1.9073e-006     -2.5249e-007   
  0.75            7.235e-010      5.2496e-006     -7.195e-007    
  0.8             -1.4421e-009    1.281e-005      -1.7819e-006   
  0.85            1.3944e-009     2.6888e-005     -3.773e-006    
  0.9             7.783e-010      5.0735e-005     -6.986e-006    
  0.95            -1.2909e-009    8.4818e-005     -1.1472e-005   
  1               1.4424e-009     0.00012784      -1.6924e-005   
  1.05            1.3941e-009     0.0001808       -2.3286e-005   
  1.1             -1.3688e-009    0.00024196      -3.0156e-005   
  1.15            -9.093e-010     0.00031066      -3.7518e-005   
  1.2             1.3661e-009     0.00038373      -4.4776e-005   
  1.25            9.075e-010      0.00046315      -5.18e-005     
  1.3             -1.3651e-009    0.00054734      -5.8655e-005   
  1.35            -9.139e-010     0.00063366      -6.5203e-005   
  1.4             1.3648e-009     0.00072179      -7.1097e-005   
  1.45            9.074e-010      0.00081375      -7.636e-005    
  1.5             -1.3684e-009    0.00090841      -8.1107e-005   
  1.55            -9.117e-010     0.00100294      -8.5296e-005   
  1.6             1.3636e-009     0.00109781      -8.8745e-005   
  1.65            -1.0524e-009    0.0011966       -9.1543e-005   
  1.7             1.4437e-009     0.0012935       -9.3731e-005   
  1.75            6.349e-010      0.0013927       -9.5316e-005   
  1.8             -1.4527e-009    0.0014925       -9.6331e-005   
  1.85            -6.345e-010     0.0015916       -9.6822e-005   
  1.9             1.4461e-009     0.0016912       -9.6771e-005   
  1.95            6.368e-010      0.0017918       -9.6203e-005   
  2               -1.4496e-009    0.0018933       -9.5209e-005   
  2.05            -6.365e-010     0.0019935       -9.3809e-005   
  2.1             1.445e-009      0.002094        -9.2027e-005   
  2.15            6.379e-010      0.0021961       -8.9917e-005   
  2.2             -1.4513e-009    0.0022981       -8.7471e-005   
  2.25            -6.391e-010     0.0023995       -8.4766e-005   
  2.3             1.4439e-009     0.0025006       -8.188e-005    
  2.35            6.381e-010      0.0026033       -7.8799e-005   
  2.4             -1.4488e-009    0.0027064       -7.5518e-005   
  2.45            -6.366e-010     0.0028086       -7.2131e-005   
  2.5             1.4376e-009     0.0029109       -6.8667e-005   
  2.55            6.382e-010      0.0030143       -6.5139e-005   
  2.6             -1.4435e-009    0.0031201       -6.1481e-005   
  2.65            -6.358e-010     0.0032232       -5.7888e-005   
  2.7             1.4395e-009     0.0033265       -5.4338e-005   
  2.75            6.38e-010       0.0034311       -5.0826e-005   
  2.8             -1.4506e-009    0.0035362       -4.7334e-005   
  2.85            -6.401e-010     0.0036404       -4.3929e-005   
  2.9             1.4467e-009     0.0037447       -4.0659e-005   
  2.95            6.399e-010      0.0038502       -3.7478e-005   
  3               -1.4534e-009    0.0039565       -3.4388e-005   
  3.05            -6.403e-010     0.0040616       -3.1439e-005   
  3.1             1.4462e-009     0.0041666       -2.8665e-005   
  3.15            6.409e-010      0.0042734       -2.6021e-005   
  3.2             -1.4526e-009    0.0043801       -2.3502e-005   
  3.25            -6.426e-010     0.0044861       -2.115e-005    
  3.3             1.4439e-009     0.0045923       -1.8968e-005   
  3.35            6.432e-010      0.0046995       -1.6925e-005   
  3.4             -1.4537e-009    0.0048074       -1.5017e-005   
  3.45            -6.429e-010     0.0049141       -1.3276e-005   
  3.5             1.4455e-009     0.0050205       -1.169e-005    
  3.55            6.453e-010      0.0051286       -1.0225e-005   
  3.6             -6.23e-010      0.0052365       -8.9022e-006   
  3.65            1.4428e-009     0.0053432       -7.7154e-006   
  3.7             6.262e-010      0.005451        -6.6316e-006   
  3.75            -1.4534e-009    0.0055593       -5.6676e-006   
  3.8             -6.241e-010     0.0056668       -4.8315e-006   
  3.85            1.4436e-009     0.0057731       -4.0924e-006   
  3.9             6.272e-010      0.0058814       -3.4199e-006   
  3.95            -1.4525e-009    0.0059892       -2.8467e-006   
  4               -6.287e-010     0.0060968       -2.3734e-006   
  4.05            1.4458e-009     0.0062028       -1.9594e-006   
  4.1             6.273e-010      0.0063098       -1.5843e-006   
  4.15            -1.4527e-009    0.006417        -1.283e-006    
  4.2             -6.298e-010     0.0065224       -1.0553e-006   
  4.25            -1.4527e-009    0.0066288       -8.3568e-007   
  4.3             -6.35e-010      0.0067351       -6.8075e-007   
  4.35            1.4449e-009     0.0068387       -5.5014e-007   
  4.4             6.343e-010      0.0069427       -4.207e-007    
  4.45            -1.4513e-009    0.0070457       -3.3372e-007   
  4.5             -6.345e-010     0.0071467       -2.9091e-007   
  4.55            1.4432e-009     0.0072463       -2.4362e-007   
  4.6             6.345e-010      0.0073454       -1.8254e-007   
  4.65            -1.4492e-009    0.007443        -1.5202e-007   
  4.7             -6.349e-010     0.007538        -1.5515e-007   
  4.75            1.4405e-009     0.0076307       -1.4427e-007   
  4.8             6.366e-010      0.0077218       -1.1317e-007   
  4.85            -1.4463e-009    0.0078107       -1.0866e-007   
  4.9             -6.353e-010     0.0078955       -1.3567e-007   
  4.95            1.4383e-009     0.0079769       -1.4767e-007   
  5               6.346e-010      0.0080556       -1.4032e-007   
END_DB

BEGIN_DB
 ICCAP_VAR VS         0              
 ICCAP_VAR VB         -2.5           
 ICCAP_VAR VD         0.1            

 #VG              IG              ID              IB             
  0               7.98e-011       -1.8895e-009    -4.501e-009    
  0.05            -9.487e-010     -2.0147e-009    4.373e-009     
  0.1             7.895e-010      2.2159e-009     -4.027e-009    
  0.15            1.408e-009      -1.6784e-009    -1.3671e-008   
  0.2             -1.4257e-009    1.6352e-009     1.3629e-008    
  0.25            1.4246e-009     -1.5864e-009    -1.3858e-008   
  0.3             -1.4412e-009    1.5392e-009     1.358e-008     
  0.35            1.4373e-009     -1.5064e-009    -1.3873e-008   
  0.4             -1.4472e-009    1.4697e-009     1.3566e-008    
  0.45            1.4393e-009     -1.4326e-009    -1.391e-008    
  0.5             -1.4205e-009    8.027e-010      1.3517e-008    
  0.55            1.3623e-009     -1.2897e-009    -1.3045e-008   
  0.6             -1.3627e-009    1.9954e-009     1.2948e-008    
  0.65            1.3637e-009     -1.9558e-009    -1.3336e-008   
  0.7             -1.3739e-009    1.884e-009      1.3327e-008    
  0.75            1.3802e-009     -1.8328e-009    -1.3601e-008   
  0.8             -1.3929e-009    1.7829e-009     1.3467e-008    
  0.85            1.3982e-009     -1.7064e-009    -1.3574e-008   
  0.9             -1.4149e-009    1.7963e-009     1.3487e-008    
  0.95            9.87e-010       2.5754e-009     -5.043e-009    
  1               -1.3909e-009    4.726e-009      1.3477e-008    
  1.05            -1.1086e-009    1.2496e-008     -1.3843e-008   
  1.1             1.3709e-009     5.4582e-008     -1.2483e-008   
  1.15            1.0889e-009     1.9288e-007     -1.3818e-008   
  1.2             -1.3842e-009    5.5477e-007     1.2571e-008    
  1.25            1.17e-009       1.4029e-006     1.3461e-008    
  1.3             -1.3717e-009    3.4634e-006     1.2179e-008    
  1.35            1.4392e-009     7.8393e-006     -1.3273e-008   
  1.4             1.0179e-009     1.5603e-005     -1.3701e-008   
  1.45            -1.4441e-009    2.6491e-005     1.236e-008     
  1.5             1.3891e-009     3.8222e-005     -1.3747e-008   
  1.55            -1.4359e-009    4.9739e-005     1.3069e-008    
  1.6             1.405e-009      5.9681e-005     -1.3697e-008   
  1.65            -1.363e-009     6.8585e-005     1.3348e-008    
  1.7             1.4366e-009     7.6087e-005     -1.3804e-008   
  1.75            -1.3815e-009    8.2804e-005     1.3538e-008    
  1.8             1.4356e-009     8.8584e-005     -1.2707e-008   
  1.85            -1.3953e-009    9.3847e-005     1.3541e-008    
  1.9             1.425e-009      9.8459e-005     -1.3253e-008   
  1.95            -1.4181e-009    0.000102745     1.3498e-008    
  2               1.3586e-009     0.000106533     -1.3576e-008   
  2.05            -1.4446e-009    0.000110097     1.3533e-008    
  2.1             1.3773e-009     0.000113305     -1.3732e-008   
  2.15            -5.441e-010     0.00011634      -1.2939e-008   
  2.2             1.3595e-009     0.00011907      -1.2169e-008   
  2.25            -1.447e-009     0.00012169      1.3392e-008    
  2.3             1.3843e-009     0.00012411      -1.384e-008    
  2.35            -1.4391e-009    0.00012643      1.2998e-008    
  2.4             1.4053e-009     0.00012854      -1.3852e-008   
  2.45            -1.3623e-009    0.00013061      1.3362e-008    
  2.5             1.4408e-009     0.00013252      -1.3943e-008   
  2.55            -1.3793e-009    0.00013435      1.3643e-008    
  2.6             1.4401e-009     0.0001361       -1.2699e-008   
  2.65            -1.3953e-009    0.00013778      1.3648e-008    
  2.7             1.429e-009      0.00013932      -1.3255e-008   
  2.75            -1.417e-009     0.00014085      1.3674e-008    
  2.8             1.3604e-009     0.00014227      -1.3548e-008   
  2.85            -1.4464e-009    0.00014363      1.3696e-008    
  2.9             1.3778e-009     0.00014494      -1.3879e-008   
  2.95            -1.4449e-009    0.00014624      1.277e-008     
  3               1.3931e-009     0.00014743      -1.3901e-008   
  3.05            -1.433e-009     0.0001486       1.3243e-008    
  3.1             1.4148e-009     0.0001497       -1.3929e-008   
  3.15            -1.3672e-009    0.00015082      1.3463e-008    
  3.2             1.4417e-009     0.00015182      -1.3592e-008   
  3.25            -1.3872e-009    0.00015285      1.3612e-008    
  3.3             1.4389e-009     0.0001538       -1.2981e-008   
  3.35            -1.4044e-009    0.00015473      1.3605e-008    
  3.4             1.3587e-009     0.00015562      -1.3441e-008   
  3.45            -1.442e-009     0.00015651      1.3529e-008    
  3.5             1.3696e-009     0.00015736      -1.3789e-008   
  3.55            -1.4465e-009    0.00015817      1.2377e-008    
  3.6             1.3874e-009     0.00015897      -1.3818e-008   
  3.65            -1.4408e-009    0.00015974      1.2999e-008    
  3.7             1.4025e-009     0.00016047      -1.3776e-008   
  3.75            -1.3639e-009    0.0001612       1.3367e-008    
  3.8             1.4381e-009     0.00016187      -1.3936e-008   
  3.85            -1.3799e-009    0.00016255      1.3608e-008    
  3.9             1.4424e-009     0.00016321      -1.2674e-008   
  3.95            -1.3937e-009    0.00016384      1.3668e-008    
  4               1.4312e-009     0.00016446      -1.3239e-008   
  4.05            -1.4136e-009    0.00016507      1.3697e-008    
  4.1             1.3575e-009     0.00016563      -1.3555e-008   
  4.15            -1.4451e-009    0.00016621      1.3746e-008    
