! VERSION = 6.00
BEGIN_HEADER
 ICCAP_INPUTS
  VG         V  B GROUND SMU4 0.001 LIN        1    0          5          101  0.05      
  VS         V  E GROUND SMU3 0.1 CON        0
  VB         V  C GROUND SMU1 0.1 LIN        3    0          -5         3    -2.5      
  VD         V  S GROUND SMU2 0.1 LIN        2    0.1        10         2    9.9       
 ICCAP_OUTPUTS
  IG         I  B GROUND SMU4 B
  ID         I  S GROUND SMU2 B
  IB         I  C GROUND SMU1 B
END_HEADER

BEGIN_DB
 ICCAP_VAR VS         0              
 ICCAP_VAR VB         0              
 ICCAP_VAR VD         0.1            

 #VG              IG              ID              IB             
  0               -3.712e-010     1.9629e-009     1.185e-008     
  0.05            -1.3913e-009    6.033e-010      5.197e-009     
  0.1             -1.003e-009     -3.2718e-009    -1.4172e-008   
  0.15            1.6433e-009     -8.389e-010     -2.5772e-008   
  0.2             -1.3535e-009    1.2027e-009     7.93e-009      
  0.25            -1.3804e-009    -2.6769e-009    -1.5384e-008   
  0.3             1.3303e-009     -1.3557e-009    -2.8684e-008   
  0.35            -2.4005e-009    2.2918e-009     1.1519e-008    
  0.4             1.5002e-009     -8.274e-010     -1.5814e-008   
  0.45            -1.271e-010     9.498e-009      -1.5951e-008   
  0.5             1.303e-010      2.1243e-008     -1.4211e-008   
  0.55            2.5712e-009     8.3665e-008     -1.9207e-008   
  0.6             1.4591e-009     2.9253e-007     -1.6106e-008   
  0.65            -2.234e-009     1.06808e-006    1.0068e-008    
  0.7             2.1956e-009     3.3977e-006     8.175e-009     
  0.75            -1.358e-009     1.04375e-005    6.57e-009      
  0.8             -1.3885e-009    2.5911e-005     -9.604e-009    
  0.85            -1.646e-009     5.3549e-005     -1.5573e-008   
  0.9             1.6243e-009     8.9327e-005     -1.9174e-008   
  0.95            2.6349e-009     0.00013088      -3.253e-009    
  1               -1.847e-009     0.00017213      1.2689e-008    
  1.05            -8.162e-010     0.00020809      -1.6302e-008   
  1.1             1.3714e-009     0.00023931      -2.6239e-008   
  1.15            -2.0173e-009    0.00026775      1.1801e-008    
  1.2             -2.1235e-009    0.00029179      -1.4039e-008   
  1.25            -1.656e-010     0.00031264      -1.5392e-008   
  1.3             2.1392e-009     0.00033126      -2.175e-008    
  1.35            -2.6735e-009    0.00034877      7.057e-009     
  1.4             -1.7298e-009    0.0003641       -1.581e-008    
  1.45            1.511e-009      0.00037747      -1.7281e-008   
  1.5             -2.2818e-009    0.00039006      9.878e-009     
  1.55            -5.121e-010     0.0004015       -1.6473e-008   
  1.6             1.6434e-009     0.00041186      -2.2767e-008   
  1.65            -2.4198e-009    0.00042194      8.829e-009     
  1.7             -1.9454e-009    0.00043109      -1.5965e-008   
  1.75            1.381e-010      0.00043954      -1.4181e-008   
  1.8             2.5886e-009     0.00044712      -1.9285e-008   
  1.85            -1.785e-009     0.00045482      1.3141e-008    
  1.9             -8.534e-010     0.00046183      -1.6411e-008   
  1.95            1.3517e-009     0.00046821      -2.669e-008    
  2               -1.9522e-009    0.00047458      1.2229e-008    
  2.05            -7.506e-010     0.00048048      -1.643e-008    
  2.1             1.4142e-009     0.00048595      -2.5428e-008   
  2.15            -2.1248e-009    0.00049129      1.1045e-008    
  2.2             -2.0737e-009    0.00049644      -1.4592e-008   
  2.25            -8.32e-011      0.00050125      -1.5042e-008   
  2.3             2.2677e-009     0.00050554      -2.088e-008    
  2.35            -2.7083e-009    0.0005102       6.679e-009     
  2.4             -1.6603e-009    0.00051448      -1.5672e-008   
  2.45            1.6035e-009     0.00051856      -1.8929e-008   
  2.5             -2.3841e-009    0.00052215      9.143e-009     
  2.55            -1.9677e-009    0.00052594      -1.5906e-008   
  2.6             1.028e-010      0.00052966      -1.4238e-008   
  2.65            2.5488e-009     0.00053263      -1.9397e-008   
  2.7             -1.745e-009     0.0005361       1.3395e-008    
  2.75            -8.814e-010     0.00053932      -1.6023e-008   
  2.8             1.3401e-009     0.00054223      -2.6966e-008   
  2.85            -1.9139e-009    0.0005452       1.2361e-008    
  2.9             -7.799e-010     0.00054812      -1.6429e-008   
  2.95            1.3947e-009     0.00055069      -2.5742e-008   
  3               -2.0842e-009    0.00055335      1.1328e-008    
  3.05            -2.0946e-009    0.00055601      -1.5011e-008   
  3.1             -1.143e-010     0.00055848      -1.5189e-008   
  3.15            2.2228e-009     0.00056059      -2.1346e-008   
  3.2             -2.7004e-009    0.00056311      7.164e-009     
  3.25            -1.685e-009     0.00056542      -1.4737e-008   
  3.3             1.5641e-009     0.00056777      -1.8279e-008   
  3.35            -2.3449e-009    0.00056947      9.214e-009     
  3.4             -1.985e-009     0.0005716       -1.5812e-008   
  3.45            7.41e-011       0.00057383      -1.4279e-008   
  3.5             2.5079e-009     0.00057527      -1.9891e-008   
  3.55            -1.7058e-009    0.00057723      1.3364e-008    
  3.6             -8.998e-010     0.00057907      -1.6084e-008   
  3.65            1.3339e-009     0.00058072      -2.7326e-008   
  3.7             -1.8615e-009    0.00058242      1.2745e-008    
  3.75            -8.09e-010      0.00058418      -1.6528e-008   
  3.8             1.3782e-009     0.00058567      -2.615e-008    
  3.85            -2.0398e-009    0.00058718      1.1697e-008    
  3.9             -6.902e-010     0.0005888       -1.6584e-008   
  3.95            1.4605e-009     0.00059019      -2.4808e-008   
  4               -2.2029e-009    0.00059153      1.0216e-008    
  4.05            -2.0432e-009    0.00059306      -1.5067e-008   
  4.1             -1.32e-011      0.00059458      -1.4773e-008   
  4.15            2.3654e-009     0.00059547      -2.0478e-008   
  4.2             -1.5947e-009    0.00059697      1.4313e-008    
  4.25            -9.865e-010     0.00059825      -1.5645e-008   
  4.3             1.3211e-009     0.00059934      -2.8194e-008   
  4.35            -1.727e-009     0.00060054      1.349e-008     
  4.4             -8.899e-010     0.00060178      -1.6524e-008   
  4.45            1.3402e-009     0.00060276      -2.7113e-008   
  4.5             -1.8931e-009    0.00060384      1.2569e-008    
  4.55            -7.911e-010     0.00060504      -1.6541e-008   
  4.6             1.3876e-009     0.00060593      -2.6021e-008   
  4.65            -2.0641e-009    0.00060687      1.1607e-008    
  4.7             -2.1004e-009    0.00060806      -1.4111e-008   
  4.75            -1.264e-010     0.00060905      -1.5254e-008   
  4.8             2.2095e-009     0.00060971      -2.1517e-008   
  4.85            -2.6971e-009    0.0006107       6.966e-009     
  4.9             -1.6883e-009    0.00061169      -1.5604e-008   
  4.95            1.5514e-009     0.00061287      -1.8134e-008   
  5               -2.3327e-009    0.00061326      9.452e-009     
END_DB

BEGIN_DB
 ICCAP_VAR VS         0              
 ICCAP_VAR VB         0              
 ICCAP_VAR VD         10             

 #VG              IG              ID              IB             
  0               6.257e-010      3.854e-009      8.059e-009     
  0.05            -2.0734e-009    2.5715e-009     1.373e-008     
  0.1             1.851e-010      -2.4407e-009    -1.6246e-008   
  0.15            2.906e-009      3.1238e-009     -1.3915e-008   
  0.2             -2.7175e-009    1.6532e-009     7.698e-009     
  0.25            2.1273e-009     -1.6538e-009    -1.4301e-008   
  0.3             -1.3913e-009    1.4254e-009     6.241e-009     
  0.35            2.1757e-009     -8.765e-010     -1.4657e-008   
  0.4             -2.1486e-009    5.3925e-009     1.2492e-008    
  0.45            2.8245e-009     1.4527e-008     1.101e-008     
  0.5             -2.224e-009     3.8889e-008     -2.1359e-008   
  0.55            4.515e-010      1.532e-007      -3.8117e-008   
  0.6             -2.5592e-009    5.3129e-007     -9.0705e-008   
  0.65            -7.21e-010      1.9168e-006     -3.1355e-007   
  0.7             1.4322e-009     6.353e-006      -1.02234e-006  
  0.75            1.3795e-009     1.8561e-005     -2.9757e-006   
  0.8             2.64e-009       5.0457e-005     -7.6123e-006   
  0.85            -1.3445e-009    0.00011994      -1.8e-005      
  0.9             -1.0566e-009    0.00024065      -3.5248e-005   
  0.95            1.3193e-009     0.00042538      -6.188e-005    
  1               2.8119e-009     0.00068485      -9.4308e-005   
  1.05            -1.8329e-009    0.00100586      -0.00013374    
  1.1             -1.6804e-009    0.0013703       -0.00017445    
  1.15            -2.3071e-009    0.0017645       -0.00021559    
  1.2             -4.264e-010     0.0021777       -0.00025283    
  1.25            1.7715e-009     0.0025898       -0.00028686    
  1.3             2.3906e-009     0.0030118       -0.00031702    
  1.35            3.752e-010      0.0034065       -0.00034092    
  1.4             -1.6967e-009    0.0037448       -0.00035876    
  1.45            -2.3064e-009    0.0041158       -0.00037509    
  1.5             -4.259e-010     0.0044504       -0.00038752    
  1.55            1.7678e-009     0.0047434       -0.00039513    
  1.6             2.3932e-009     0.0050672       -0.00040193    
  1.65            3.817e-010      0.0053919       -0.00040781    
  1.7             -1.6962e-009    0.0056765       -0.00041073    
  1.75            -2.3098e-009    0.0059532       -0.00041085    
  1.8             -4.235e-010     0.0062302       -0.00041069    
  1.85            1.761e-009      0.0065098       -0.00040859    
  1.9             2.3946e-009     0.0068052       -0.00040571    
  1.95            3.901e-010      0.0070781       -0.0004011     
  2               -1.6911e-009    0.0073528       -0.00039531    
  2.05            -2.3156e-009    0.0076317       -0.00038869    
  2.1             -4.362e-010     0.0079056       -0.00038115    
  2.15            1.7511e-009     0.0081808       -0.00037285    
  2.2             2.394e-009      0.008459        -0.0003639     
  2.25            3.878e-010      0.0087336       -0.000354      
  2.3             -1.6772e-009    0.0090134       -0.0003437     
  2.35            -2.3111e-009    0.0092874       -0.00033271    
  2.4             -4.32e-010      0.0095594       -0.0003216     
  2.45            1.748e-009      0.0098373       -0.00030998    
  2.5             2.4041e-009     0.0101162       -0.00029826    
  2.55            3.988e-010      0.0104012       -0.00028604    
  2.6             -1.6758e-009    0.0106822       -0.00027374    
  2.65            -2.3199e-009    0.0109629       -0.00026122    
  2.7             -4.408e-010     0.011245        -0.00024891    
  2.75            1.3479e-009     0.011537        -0.00023622    
  2.8             -1.2902e-009    0.011831        -0.00022398    
  2.85            1.3066e-009     0.012113        -0.0002115     
  2.9             2.8958e-009     0.012405        -0.00019996    
  2.95            1.2079e-009     0.012695        -0.00018796    
  3               -1.379e-009     0.013001        -0.00017668    
  3.05            -2.7892e-009    0.013294        -0.00016491    
  3.1             -1.297e-009     0.013595        -0.00015411    
  3.15            1.3063e-009     0.013889        -0.00014327    
  3.2             2.897e-009      0.014193        -0.00013342    
  3.25            1.2165e-009     0.014496        -0.00012344    
  3.3             -1.3776e-009    0.014813        -0.0001142     
  3.35            -2.7877e-009    0.01512         -0.00010478    
  3.4             1.4841e-009     0.015421        -9.6417e-005   
  3.45            -1.6559e-009    0.015746        -8.8347e-005   
  3.5             -2.3358e-009    0.016055        -8.0449e-005   
  3.55            -4.561e-010     0.016371        -7.3248e-005   
  3.6             1.7117e-009     0.016684        -6.644e-005    
  3.65            2.4197e-009     0.017006        -6.0138e-005   
  3.7             4.163e-010      0.017328        -5.4135e-005   
  3.75            -1.6482e-009    0.017651        -4.8588e-005   
  3.8             -2.3385e-009    0.017968        -4.3415e-005   
  3.85            -4.687e-010     0.018293        -3.8737e-005   
  3.9             1.7073e-009     0.018611        -3.4397e-005   
  3.95            2.4246e-009     0.018941        -3.0463e-005   
  4               4.234e-010      0.019269        -2.6784e-005   
  4.05            -1.6426e-009    0.019597        -2.3475e-005   
  4.1             -2.3459e-009    0.01992         -2.0469e-005   
  4.15            -4.746e-010     0.020246        -1.7809e-005   
  4.2             1.6891e-009     0.020566        -1.5395e-005   
  4.25            2.4302e-009     0.020901        -1.3258e-005   
  4.3             4.307e-010      0.021231        -1.1323e-005   
  4.35            -3.965e-010     0.021555        -9.6483e-006   
  4.4             1.7985e-009     0.021885        -8.1481e-006   
  4.45            2.375e-009      0.022215        -6.8515e-006   
  4.5             3.593e-010      0.022547        -5.7144e-006   
  4.55            -1.7195e-009    0.022875        -4.7387e-006   
  4.6             -2.2924e-009    0.023195        -3.9287e-006   
  4.65            -4.067e-010     0.023521        -3.2308e-006   
  4.7             1.7903e-009     0.023841        -2.6444e-006   
  4.75            2.3827e-009     0.024171        -2.127e-006    
  4.8             3.766e-010      0.024496        -1.7072e-006   
  4.85            -1.7022e-009    0.024822        -1.3564e-006   
  4.9             -2.3006e-009    0.025135        -1.0992e-006   
  4.95            -1.7308e-009    0.025459        -8.5029e-007   
  5               -2.2829e-009    0.025771        -6.9241e-007   
END_DB

BEGIN_DB
 ICCAP_VAR VS         0              
 ICCAP_VAR VB         -2.5           
 ICCAP_VAR VD         0.1            

 #VG              IG              ID              IB             
  0               -2.7838e-009    -3.2664e-009    -2.8729e-008   
  0.05            -8.923e-010     -3.238e-009     -1.5097e-008   
  0.1             1.8521e-009     -5.421e-010     -2.4836e-008   
  0.15            -1.3778e-009    1.118e-009      6.829e-009     
  0.2             -1.2594e-009    -2.8392e-009    -1.5103e-008   
  0.25            1.3755e-009     -1.1791e-009    -2.9096e-008   
  0.3             -2.5285e-009    1.7479e-009     9.929e-009     
  0.35            -1.4117e-009    -2.55e-009      -1.4948e-008   
  0.4             1.3248e-009     -1.4402e-009    -2.9084e-008   
  0.45            -2.3589e-009    1.9707e-009     1.1763e-008    
  0.5             -1.5692e-009    -2.1936e-009    -1.6388e-008   
  0.55            1.3179e-009     -1.6715e-009    -2.7582e-008   
  0.6             -2.1409e-009    2.1782e-009     1.2853e-008    
  0.65            2.234e-010      -2.6879e-009    -1.6503e-008   
  0.7             2.9027e-009     2.8207e-009     -1.3766e-008   
  0.75            -1.3895e-009    8.693e-010      6.028e-009     
  0.8             -1.1116e-009    -3.0548e-009    -1.4861e-008   
  0.85            1.4967e-009     -9.082e-010     -2.7547e-008   
  0.9             -2.6567e-009    1.6349e-009     8.558e-009     
  0.95            1.8889e-009     -1.4819e-009    -1.4408e-008   
  1               -1.3901e-009    4.0974e-009     5.955e-009     
  1.05            -9.886e-010     1.1656e-008     -5.79e-009     
  1.1             1.3184e-009     6.7156e-008     -2.8696e-008   
  1.15            1.4126e-009     2.6015e-007     -1.6689e-008   
  1.2             -2.1276e-009    9.5467e-007     1.0475e-008    
  1.25            2.2679e-009     3.1875e-006     8.361e-009     
  1.3             -2.6892e-009    1.0265e-005     6.806e-009     
  1.35            -2.1104e-009    2.7154e-005     -3.729e-009    
  1.4             -2.0853e-009    5.7633e-005     -1.4936e-008   
  1.45            -1.043e-010     9.9552e-005     -1.5595e-008   
  1.5             -2.0328e-009    0.00014585      -1.4755e-008   
  1.55            -1.21e-011      0.00018744      -1.5217e-008   
  1.6             2.3628e-009     0.00022445      -2.0947e-008   
  1.65            -1.3638e-009    0.00025712      5.939e-009     
  1.7             -1.8356e-009    0.00028401      -1.5844e-008   
  1.75            2.798e-010      0.00030637      -1.5757e-008   
  1.8             2.747e-009      0.0003262       -1.7202e-008   
  1.85            -2.0085e-009    0.00034439      1.1368e-008    
  1.9             -2.1276e-009    0.00035993      -1.5182e-008   
  1.95            -1.78e-010      0.00037375      -1.5819e-008   
  2               2.1213e-009     0.00038614      -2.2451e-008   
  2.05            -2.6653e-009    0.00039803      6.822e-009     
  2.1             -1.7437e-009    0.00040854      -1.5362e-008   
  2.15            1.4931e-009     0.00041801      -1.7404e-008   
  2.2             -2.2467e-009    0.00042682      9.463e-009     
  2.25            -2.0305e-009    0.00043509      -1.614e-008    
  2.3             4e-012          0.00044275      -1.502e-008    
  2.35            2.3862e-009     0.00044954      -2.0995e-008   
  2.4             -1.5993e-009    0.00045654      1.3772e-008    
  2.45            -9.81e-010      0.0004628       -1.6533e-008   
  2.5             1.3203e-009     0.00046854      -2.8735e-008   
  2.55            -1.7254e-009    0.00047427      1.3079e-008    
  2.6             -8.935e-010     0.0004796       -1.6616e-008   
  2.65            1.3356e-009     0.00048443      -2.7595e-008   
  2.7             -1.863e-009     0.00048931      1.2228e-008    
  2.75            -8.068e-010     0.00049392      -1.6816e-008   
  2.8             1.377e-009      0.00049809      -2.672e-008    
  2.85            -2.0186e-009    0.00050222      1.1276e-008    
  2.9             -2.127e-009     0.00050619      -1.5343e-008   
  2.95            -1.768e-010     0.00050998      -1.5869e-008   
  3               2.1277e-009     0.00051336      -2.2221e-008   
  3.05            -2.6662e-009    0.00051696      6.959e-009     
  3.1             -1.7401e-009    0.00052036      -1.5389e-008   
  3.15            1.4904e-009     0.00052369      -1.7474e-008   
  3.2             -2.2378e-009    0.00052633      9.483e-009     
  3.25            -2.0295e-009    0.00052942      -1.6138e-008   
  3.3             1.7e-012        0.00053234      -1.5095e-008   
  3.35            2.386e-009      0.00053467      -2.0914e-008   
  3.4             -1.5957e-009    0.00053746      1.3878e-008    
  3.45            -9.791e-010     0.00054002      -1.6575e-008   
  3.5             1.317e-009      0.00054235      -2.8614e-008   
  3.55            -1.7182e-009    0.00054471      1.3117e-008    
  3.6             -8.998e-010     0.00054702      -1.6852e-008   
  3.65            1.3366e-009     0.0005491       -2.7824e-008   
  3.7             -1.8569e-009    0.00055126      1.2439e-008    
  3.75            -8.108e-010     0.00055336      -1.6896e-008   
  3.8             1.3699e-009     0.00055524      -2.6689e-008   
  3.85            -2.0024e-009    0.00055711      1.1391e-008    
  3.9             -2.1308e-009    0.00055913      -1.4517e-008   
  3.95            -1.875e-010     0.0005609       -1.5833e-008   
  4               2.1077e-009     0.00056244      -2.233e-008    
  4.05            -2.6638e-009    0.00056428      6.916e-009     
  4.1             -1.7512e-009    0.00056603      -1.6358e-008   
  4.15            1.4794e-009     0.00056784      -1.7281e-008   
