! VERSION = 6.00
BEGIN_HEADER
 ICCAP_INPUTS
  VG         V  B GROUND SMU4 0.001 LIN        1    0          5          101  0.05      
  VS         V  E GROUND SMU2 0.1 CON        0
  VB         V  C GROUND SMU3 0.1 LIN        3    0          -5         3    -2.5      
  VD         V  S GROUND SMU1 0.1 LIN        2    0.1        5          2    4.9       
 ICCAP_OUTPUTS
  IG         I  B GROUND SMU4 B
  ID         I  S GROUND SMU1 B
  IB         I  C GROUND SMU3 B
END_HEADER

BEGIN_DB
 ICCAP_VAR VS         0              
 ICCAP_VAR VB         0              
 ICCAP_VAR VD         0.1            

 #VG              IG              ID              IB             
  0               2.1853e-009     2.2327e-009     -9.659e-009    
  0.05            1.3438e-009     2.0545e-009     -5.998e-009    
  0.1             -2.2052e-009    6.282e-010      1.6615e-008    
  0.15            -3.606e-010     -2.0347e-009    3.299e-009     
  0.2             -5.65e-010      -2.0443e-009    -1.0833e-008   
  0.25            2.2971e-009     -1.3425e-009    -2.1471e-008   
  0.3             1.2878e-009     2.128e-009      -5.2e-009      
  0.35            -2.2777e-009    6.492e-010      1.6323e-008    
  0.4             -5.689e-010     -1.7907e-009    -1.0822e-008   
  0.45            2.2988e-009     -4.222e-010     -2.1398e-008   
  0.5             1.9728e-009     3.8768e-009     -5.314e-009    
  0.55            2.6111e-009     1.256e-008      1.6406e-008    
  0.6             -2.3615e-009    4.3196e-008     1.3053e-008    
  0.65            7.713e-010      1.4143e-007     -1.5868e-008   
  0.7             -1.388e-009     4.7309e-007     1.5779e-008    
  0.75            -2.2881e-009    1.295e-006      -1.7583e-008   
  0.8             1.9149e-009     3.3784e-006     -2.2137e-008   
  0.85            2.5712e-009     7.0843e-006     -7.683e-009    
  0.9             -1.8979e-009    1.2812e-005     1.6195e-008    
  0.95            2.4915e-009     1.9441e-005     -1.5365e-008   
  1               -2.46e-009      2.6734e-005     1.2345e-008    
  1.05            -1.9482e-009    3.3443e-005     1.662e-009     
  1.1             -1.3493e-009    3.9637e-005     5.017e-009     
  1.15            -2.5936e-009    4.5247e-005     7.299e-009     
  1.2             -9.973e-010     5.025e-005      -9.639e-009    
  1.25            1.872e-010      5.4675e-005     -9.511e-009    
  1.3             2.6847e-009     5.885e-005      -1.9625e-008   
  1.35            -1.5915e-009    6.2736e-005     2.1633e-008    
  1.4             -2.5867e-009    6.6197e-005     5.824e-009     
  1.45            -8.455e-010     6.9365e-005     -1.0728e-008   
  1.5             2.6853e-009     7.226e-005      -1.322e-008    
  1.55            -1.588e-009     7.5096e-005     2.166e-008     
  1.6             -2.5904e-009    7.7677e-005     5.804e-009     
  1.65            2.5097e-009     8.0031e-005     -1.5214e-008   
  1.7             -2.4736e-009    8.2357e-005     1.2207e-008    
  1.75            -1.9729e-009    8.4456e-005     1.456e-009     
  1.8             -1.3632e-009    8.6478e-005     4.802e-009     
  1.85            -2.5938e-009    8.8394e-005     7.262e-009     
  1.9             -9.859e-010     9.019e-005      -9.795e-009    
  1.95            2.04e-010       9.1842e-005     -1.003e-008    
  2               2.6883e-009     9.3527e-005     -1.9363e-008   
  2.05            -1.6103e-009    9.5119e-005     2.2148e-008    
  2.1             -2.589e-009     9.6618e-005     5.7e-009       
  2.15            -8.299e-010     9.803e-005      -1.0852e-008   
  2.2             2.6881e-009     9.9333e-005     -1.3734e-008   
  2.25            -1.6154e-009    0.000100717     2.2291e-008    
  2.3             -2.5867e-009    0.000101981     5.555e-009     
  2.35            2.5236e-009     0.000103185     -1.4894e-008   
  2.4             -2.4771e-009    0.000104382     1.2254e-008    
  2.45            -2.0115e-009    0.000105466     1.551e-009     
  2.5             -1.3878e-009    0.000106549     4.764e-009     
  2.55            -2.6023e-009    0.000107624     7.244e-009     
  2.6             -9.659e-010     0.000108617     -1.0115e-008   
  2.65            2.191e-010      0.000109527     -1.059e-008    
  2.7             2.689e-009      0.000110529     -1.9151e-008   
  2.75            -1.6582e-009    0.000111444     2.3105e-008    
  2.8             -2.591e-009     0.000112324     5.486e-009     
  2.85            2.221e-010      0.000113115     -1.0583e-008   
  2.9             2.6849e-009     0.000113991     -1.914e-008    
  2.95            2.6945e-009     0.0001149       2.3285e-008    
  3               -1.5401e-009    0.00011571      1.7694e-008    
  3.05            -2.604e-009     0.00011645      6.233e-009     
  3.1             2.4535e-009     0.00011717      -1.567e-008    
  3.15            1.727e-009      0.00011787      -3.902e-009    
  3.2             2.6166e-009     0.00011857      -8.424e-009    
  3.25            -2.3453e-009    0.00011923      1.3232e-008    
  3.3             -1.7321e-009    0.00011986      2.102e-009     
  3.35            -2.5722e-009    0.00012052      5.338e-009     
  3.4             -7.568e-010     0.00012114      -1.1076e-008   
  3.45            1.5647e-009     0.00012168      -1.6375e-008   
  3.5             2.6537e-009     0.0001223       -8.707e-009    
  3.55            -2.2256e-009    0.00012288      1.4583e-008    
  3.6             -1.567e-009     0.0001234       3.128e-009     
  3.65            -2.5954e-009    0.00012393      5.902e-009     
  3.7             2.4863e-009     0.00012446      -1.5072e-008   
  3.75            -2.4585e-009    0.00012495      1.216e-008     
  3.8             -1.9606e-009    0.00012542      1.563e-009     
  3.85            -1.3688e-009    0.00012593      5.01e-009      
  3.9             -2.6051e-009    0.0001264       7.458e-009     
  3.95            -9.915e-010     0.00012684      -9.893e-009    
  4               1.986e-010      0.00012724      -9.926e-009    
  4.05            2.6837e-009     0.00012773      -1.9668e-008   
  4.1             -1.6151e-009    0.00012817      2.2187e-008    
  4.15            -2.5949e-009    0.00012856      5.776e-009     
  4.2             -8.354e-010     0.00012897      -1.1025e-008   
  4.25            2.6809e-009     0.00012931      -1.3854e-008   
  4.3             -1.6201e-009    0.00012976      2.2226e-008    
  4.35            -2.5917e-009    0.00013011      5.446e-009     
  4.4             2.5121e-009     0.00013048      -1.4676e-008   
  4.45            -2.4706e-009    0.00013083      1.1985e-008    
  4.5             -1.9873e-009    0.00013114      1.535e-009     
  4.55            -1.3828e-009    0.00013149      4.723e-009     
  4.6             -2.599e-009     0.00013184      7.287e-009     
  4.65            2.2874e-009     0.00013218      -1.7007e-008   
  4.7             1.512e-009      0.00013246      -5.451e-009    
  4.75            2.6578e-009     0.00013277      -8.595e-009    
  4.8             -2.208e-009     0.00013307      1.4586e-008    
  4.85            -1.5521e-009    0.00013333      3.277e-009     
  4.9             -2.5971e-009    0.00013362      5.921e-009     
  4.95            2.4709e-009     0.00013393      -1.5206e-008   
  5               7.444e-010      0.00013416      1.0122e-008    
END_DB

BEGIN_DB
 ICCAP_VAR VS         0              
 ICCAP_VAR VB         0              
 ICCAP_VAR VD         5              

 #VG              IG              ID              IB             
  0               1.4286e-009     1.9168e-009     5.306e-009     
  0.05            1.677e-009      1.5105e-009     -8.105e-009    
  0.1             4.404e-010      2.268e-009      1.0344e-008    
  0.15            -2.2334e-009    8.21e-010       1.6373e-008    
  0.2             2.6863e-009     6.7142e-009     -1.1121e-008   
  0.25            -2.0364e-009    1.6001e-009     2.2912e-008    
  0.3             -4.965e-010     -1.905e-009     4.682e-009     
  0.35            2.6174e-009     -4.573e-010     -1.0166e-008   
  0.4             -1.7418e-009    3.5201e-009     1.6265e-008    
  0.45            -1.4701e-009    5.6109e-009     5.041e-009     
  0.5             1.8736e-009     1.1941e-008     1.8476e-008    
  0.55            1.8433e-009     3.0997e-008     4.821e-009     
  0.6             2.6267e-009     1.8627e-007     -1.0235e-008   
  0.65            -2.0377e-009    3.5142e-006     -1.4634e-008   
  0.7             -1.4061e-009    1.3606e-006     -3.9995e-008   
  0.75            2.6944e-009     5.452e-006      -5.0763e-008   
  0.8             -1.1882e-009    6.83e-006       -8.2485e-008   
  0.85            -9.457e-010     1.8569e-005     -9.1248e-008   
  0.9             2.3406e-009     2.4929e-005     -1.9123e-007   
  0.95            1.5944e-009     4.5488e-005     -2.6469e-007   
  1               2.6339e-009     6.9751e-005     -3.6417e-007   
  1.05            -1.5645e-009    9.681e-005      -4.6883e-007   
  1.1             -2.5952e-009    0.0001369       -5.2571e-007   
  1.15            -2.5625e-009    0.00017682      -6.1994e-007   
  1.2             -2.3546e-009    0.00023224      -6.8381e-007   
  1.25            -1.793e-009     0.00026677      -7.3891e-007   
  1.3             -2.557e-009     0.00033261      -7.7729e-007   
  1.35            -2.576e-009     0.00038153      -8.1488e-007   
  1.4             -2.4806e-009    0.00043526      -8.1817e-007   
  1.45            -2.027e-009     0.00048749      -8.1445e-007   
  1.5             -1.4094e-009    0.00053462      -7.9799e-007   
  1.55            -2.5934e-009    0.0006016       -7.7298e-007   
  1.6             -2.5375e-009    0.00066383      -7.4955e-007   
  1.65            -2.2181e-009    0.00071586      -7.0665e-007   
  1.7             -1.6096e-009    0.00077039      -6.6014e-007   
  1.75            -2.5874e-009    0.00084154      -6.0962e-007   
  1.8             2.6713e-009     0.00089474      -5.7914e-007   
  1.85            2.6823e-009     0.00097325      -5.2841e-007   
  1.9             -1.6599e-009    0.001038        -4.7718e-007   
  1.95            -1.933e-009     0.0011005       -4.261e-007    
  2               -2.2704e-009    0.0011632       -3.7646e-007   
  2.05            -2.578e-009     0.001232        -3.2927e-007   
  2.1             -2.5835e-009    0.001299        -2.8336e-007   
  2.15            -2.4526e-009    0.0013642       -2.4096e-007   
  2.2             -1.9592e-009    0.0014349       -2.0346e-007   
  2.25            -1.3688e-009    0.0015071       -1.6829e-007   
  2.3             -2.6046e-009    0.0015794       -1.3708e-007   
  2.35            -2.525e-009     0.0016505       -1.2072e-007   
  2.4             -2.6059e-009    0.0017273       -9.13e-008     
  2.45            2.6807e-009     0.0017884       -8.9256e-008   
  2.5             2.3091e-009     0.0018677       -6.5365e-008   
  2.55            1.5706e-009     0.0019426       -5.5405e-008   
  2.6             2.6463e-009     0.0020194       -4.8501e-008   
  2.65            2.6971e-009     0.0020915       -2.7191e-008   
  2.7             2.5022e-009     0.0021665       -2.5216e-008   
  2.75            1.8449e-009     0.0022421       -2.1675e-008   
  2.8             2.5779e-009     0.0023199       -2.144e-008    
  2.85            2.6994e-009     0.0023921       -6.118e-009    
  2.9             2.622e-009      0.0024682       -8.695e-009    
  2.95            2.1112e-009     0.0025463       -7.518e-009    
  3               2.4864e-009     0.0026162       -1.0972e-008   
  3.05            -2.4974e-009    0.0027021       8.729e-009     
  3.1             -1.4448e-009    0.0027748       -1.0078e-008   
  3.15            2.126e-009      0.0028489       -2.5331e-008   
  3.2             2.4857e-009     0.002924        -7.89e-009     
  3.25            -1.4299e-009    0.0030142       1.6057e-008    
  3.3             -2.6003e-009    0.0030761       6.543e-009     
  3.35            2.4749e-009     0.0031624       -2.4678e-008   
  3.4             1.7825e-009     0.0032265       -4.054e-009    
  3.45            2.599e-009      0.0033012       -8.065e-009    
  3.5             7.254e-010      0.0033746       1.026e-008     
  3.55            -1.4361e-009    0.003447        1.7297e-008    
  3.6             -2.5997e-009    0.0035195       6.771e-009     
  3.65            2.3503e-009     0.0035995       -1.6814e-008   
  3.7             1.5704e-009     0.003654        -4.961e-009    
  3.75            2.6447e-009     0.0037208       -8.682e-009    
  3.8             -2.2559e-009    0.0037871       1.4441e-008    
  3.85            -8.442e-010     0.0038529       -1.0976e-008   
  3.9             2.6861e-009     0.0039121       -1.3437e-008   
  3.95            -1.593e-009     0.0039739       2.1741e-008    
  4               -2.5907e-009    0.004033        5.609e-009     
  4.05            2.507e-009      0.0040864       -1.5053e-008   
  4.1             7.106e-010      0.0041404       1.0312e-008    
  4.15            -1.4387e-009    0.004193        1.7294e-008    
  4.2             -2.5952e-009    0.0042429       6.868e-009     
  4.25            2.3526e-009     0.0043042       -1.6738e-008   
  4.3             1.5863e-009     0.0043341       -4.598e-009    
  4.35            2.641e-009      0.0043805       -8.763e-009    
  4.4             -2.2752e-009    0.0044206       1.4189e-008    
  4.45            -1.6193e-009    0.0044605       2.818e-009     
  4.5             -2.5917e-009    0.0044982       5.499e-009     
  4.55            2.157e-010      0.0045371       -1.0254e-008   
  4.6             2.6889e-009     0.0045721       -1.9364e-008   
  4.65            -1.6444e-009    0.0046064       2.2689e-008    
  4.7             -2.5976e-009    0.0046353       5.693e-009     
  4.75            -8.249e-010     0.0046641       -1.1002e-008   
  4.8             2.6859e-009     0.0047013       -1.4171e-008   
  4.85            -1.6472e-009    0.0047317       2.2681e-008    
  4.9             -2.5983e-009    0.0047526       5.403e-009     
  4.95            -8.196e-010     0.0047803       -1.099e-008    
  5               2.684e-009      0.0048065       -1.4202e-008   
END_DB

BEGIN_DB
 ICCAP_VAR VS         0              
 ICCAP_VAR VB         -2.5           
 ICCAP_VAR VD         0.1            

 #VG              IG              ID              IB             
  0               -2.2407e-009    -1.9842e-009    1.4758e-008    
  0.05            -2.82e-010      -1.973e-009     2.638e-009     
  0.1             2.5633e-009     -1.15e-009      -2.4076e-008   
  0.15            -1.6262e-009    1.6872e-009     1.4121e-008    
  0.2             -7.568e-010     -2.014e-009     4.993e-009     
  0.25            1.971e-009      -1.4367e-009    -1.5537e-008   
  0.3             1.4338e-009     1.9083e-009     -7.024e-009    
  0.35            -2.0169e-009    7.221e-010      1.691e-008     
  0.4             -4.769e-010     -2.0111e-009    4.168e-009     
  0.45            2.3743e-009     -1.2766e-009    -2.2206e-008   
  0.5             1.1985e-009     2.1707e-009     -4.014e-009    
  0.55            -2.4557e-009    1.2204e-009     2.5774e-008    
  0.6             -4.04e-011      -1.8539e-009    1.606e-009     
  0.65            2.6886e-009     -1.004e-010     -1.3438e-008   
  0.7             -1.9423e-009    1.5319e-009     2.1013e-008    
  0.75            -5.307e-010     -2.0145e-009    4.378e-009     
  0.8             2.3107e-009     -5.045e-010     -1.7128e-008   
  0.85            1.2371e-009     2.1366e-009     -4.536e-009    
  0.9             -2.3e-009       5.843e-010      1.5263e-008    
  0.95            -2.327e-010     -1.7915e-009    2.286e-009     
  1               2.6002e-009     -3.26e-010      -2.4206e-008   
  1.05            -1.6971e-009    5.2789e-009     1.5665e-008    
  1.1             2.3617e-009     1.5707e-008     1.2311e-008    
  1.15            -1.5437e-009    5.6966e-008     1.7759e-008    
  1.2             7.169e-010      1.7996e-007     -1.4463e-008   
  1.25            -1.4492e-009    5.6958e-007     1.7346e-008    
  1.3             -1.4898e-009    1.6165e-006     -8.499e-009    
  1.35            1.8055e-009     4.0013e-006     -1.7537e-008   
  1.4             2.5759e-009     8.5197e-006     -8.085e-009    
  1.45            -1.8572e-009    1.5256e-005     1.8515e-008    
  1.5             2.437e-010      2.2653e-005     -1.126e-008    
  1.55            2.7067e-009     3.0256e-005     -1.9592e-008   
  1.6             -1.5342e-009    3.74e-005       1.7886e-008    
  1.65            -2.5778e-009    4.3596e-005     5.936e-009     
  1.7             2.4267e-009     4.8918e-005     -1.5081e-008   
  1.75            -2.4276e-009    5.3903e-005     1.2142e-008    
  1.8             -1.8893e-009    5.8176e-005     1.64e-009      
  1.85            -1.3562e-009    6.206e-005      4.464e-009     
  1.9             -2.5924e-009    6.5564e-005     7.621e-009     
  1.95            2.3775e-009     6.8695e-005     -2.414e-008    
  2               1.6734e-009     7.1636e-005     -3.953e-009    
  2.05            2.61e-009       7.4326e-005     -8.638e-009    
  2.1             -2.2954e-009    7.6909e-005     1.2828e-008    
  2.15            -1.6845e-009    7.9206e-005     2.208e-009     
  2.2             -2.5481e-009    8.1389e-005     5.224e-009     
  2.25            -7.602e-010     8.3414e-005     -1.0794e-008   
  2.3             2.7122e-009     8.5276e-005     -1.5572e-008   
  2.35            -1.5487e-009    8.7165e-005     1.7663e-008    
  2.4             -2.5767e-009    8.8871e-005     5.659e-009     
  2.45            2.4466e-009     9.047e-005      -1.4777e-008   
  2.5             -2.4417e-009    9.2056e-005     1.1994e-008    
  2.55            -1.9179e-009    9.3495e-005     1.732e-009     
  2.6             -1.3684e-009    9.4899e-005     4.324e-009     
  2.65            -2.5907e-009    9.6251e-005     7.369e-009     
  2.7             2.3946e-009     9.7495e-005     -2.4277e-008   
  2.75            1.6981e-009     9.8712e-005     -3.774e-009    
  2.8             2.5982e-009     9.9868e-005     -8.443e-009    
  2.85            -2.3091e-009    0.000101046     1.2618e-008    
  2.9             -1.7051e-009    0.000102079     2.149e-009     
  2.95            -2.543e-009     0.000103129     5.172e-009     
  3               -7.458e-010     0.000104109     -1.0608e-008   
  3.05            1.5674e-009     0.000105027     -1.5905e-008   
  3.1             2.6349e-009     0.00010598      -8.738e-009    
  3.15            -2.2107e-009    0.00010691      1.3814e-008    
  3.2             -1.577e-009     0.000107739     2.933e-009     
  3.25            -2.5682e-009    0.000108574     5.382e-009     
  3.3             2.4878e-009     0.000109374     -1.4179e-008   
  3.35            6.983e-010      0.000110129     1.0032e-008    
  3.4             -1.4589e-009    0.000110855     1.7601e-008    
  3.45            -2.5867e-009    0.00011162      6.319e-009     
  3.5             2.5e-009        0.000112312     -2.4176e-008   
  3.55            6.906e-010      0.000112986     9.978e-009     
  3.6             -1.4755e-009    0.000113627     1.8032e-008    
  3.65            2.2489e-009     0.00011444      6.22e-009      
  3.7             1.5385e-009     0.00011503      -5.041e-009    
  3.75            2.6401e-009     0.00011562      -8.643e-009    
  3.8             -2.1958e-009    0.00011624      1.3629e-008    
  3.85            -1.5693e-009    0.00011676      2.977e-009     
  3.9             -2.5702e-009    0.00011732      5.531e-009     
  3.95            2.481e-009      0.00011789      -1.4299e-008   
  4               7.106e-010      0.00011838      9.988e-009     
  4.05            -1.4477e-009    0.00011887      1.7383e-008    
  4.1             -2.5888e-009    0.00011939      6.443e-009     
  4.15            -9.191e-010     0.00011985      -1.0408e-008   
