! VERSION = 6.00
BEGIN_HEADER
 ICCAP_INPUTS
  VG         V  B GROUND SMU4 0.001 LIN        2    0          5          6    1         
  VS         V  E GROUND SMU3 0.1 CON        0
  VD         V  S GROUND SMU2 0.1 LIN        1    0          10         201  0.05      
  VB         V  C GROUND SMU1 0.1 LIN        3    0          -2.5       2    -2.5      
 ICCAP_OUTPUTS
  ID         I  S GROUND SMU2 B
  IB         I  C GROUND SMU1 B
  IG         I  B GROUND SMU4 B
END_HEADER

BEGIN_DB
 ICCAP_VAR VG         0              
 ICCAP_VAR VS         0              
 ICCAP_VAR VB         0              

 #VD              ID              IB              IG             
  0               1.9584e-009     3.663e-009      9.55e-011      
  0.05            1.4296e-009     1.2852e-008     -1.3775e-009   
  0.1             -1.3714e-009    -1.3085e-008    1.3733e-009    
  0.15            7.875e-010      1.2691e-008     -1.3577e-009   
  0.2             -6.787e-010     -1.1772e-008    1.2935e-009    
  0.25            1.9406e-009     1.1887e-008     -1.3283e-009   
  0.3             -1.193e-009     -1.1995e-008    1.3019e-009    
  0.35            1.8583e-009     1.2369e-008     -1.3105e-009   
  0.4             -1.7925e-009    -1.2715e-008    1.3115e-009    
  0.45            1.7685e-009     1.262e-008      -1.322e-009    
  0.5             -1.703e-009     -1.2974e-008    1.3244e-009    
  0.55            1.6814e-009     1.2642e-008     -1.3357e-009   
  0.6             -1.6136e-009    -1.2934e-008    1.3385e-009    
  0.65            1.603e-009      1.2778e-008     -1.3532e-009   
  0.7             -1.5402e-009    -1.3054e-008    1.3553e-009    
  0.75            1.5276e-009     1.2869e-008     -1.3691e-009   
  0.8             -1.4637e-009    -1.3072e-008    1.3676e-009    
  0.85            1.4547e-009     1.2771e-008     -1.3786e-009   
  0.9             -1.3935e-009    -1.3107e-008    1.3728e-009    
  0.95            8.029e-010      1.2975e-008     -1.366e-009    
  1               -6.947e-010     -1.2002e-008    1.3108e-009    
  1.05            -1.8572e-009    -1.2452e-008    1.3034e-009    
  1.1             1.8447e-009     1.2433e-008     -1.3134e-009   
  1.15            -1.7737e-009    -1.2708e-008    1.3131e-009    
  1.2             1.7532e-009     1.2632e-008     -1.3253e-009   
  1.25            -1.6874e-009    -1.2878e-008    1.3269e-009    
  1.3             1.6686e-009     1.2646e-008     -1.3387e-009   
  1.35            -9.426e-010     -1.2387e-008    1.3633e-009    
  1.4             1.5006e-009     1.2799e-008     -1.3731e-009   
  1.45            -1.4337e-009    -1.307e-008     1.3702e-009    
  1.5             1.4355e-009     1.2785e-008     -1.3788e-009   
  1.55            -7.761e-010     -1.3232e-008    1.359e-009     
  1.6             7.387e-010      1.1917e-008     -1.3229e-009   
  1.65            -1.1732e-009    -1.1945e-008    1.3073e-009    
  1.7             1.8352e-009     1.2431e-008     -1.313e-009    
  1.75            -1.7699e-009    -1.2714e-008    1.3157e-009    
  1.8             1.7559e-009     1.268e-008      -1.3242e-009   
  1.85            -1.678e-009     -1.2887e-008    1.3287e-009    
  1.9             1.664e-009      1.2623e-008     -1.3385e-009   
  1.95            -1.5964e-009    -1.2925e-008    1.3444e-009    
  2               9.398e-010      1.2388e-008     -1.3719e-009   
  2.05            -1.4307e-009    -1.309e-008     1.3733e-009    
  2.1             1.4223e-009     1.2873e-008     -1.3797e-009   
  2.15            -1.3609e-009    -1.3136e-008    1.3733e-009    
  2.2             7.91e-010       1.2675e-008     -1.3557e-009   
  2.25            -6.719e-010     -1.1713e-008    1.297e-009     
  2.3             1.9339e-009     1.2013e-008     -1.3049e-009   
  2.35            -1.8663e-009    -1.2453e-008    1.3036e-009    
  2.4             1.8487e-009     1.2439e-008     -1.3125e-009   
  2.45            -1.778e-009     -1.2708e-008    1.314e-009     
  2.5             1.7572e-009     1.2658e-008     -1.3233e-009   
  2.55            -1.6934e-009    -1.29e-008      1.3262e-009    
  2.6             1.6736e-009     1.2674e-008     -1.338e-009    
  2.65            -1.609e-009     -1.2966e-008    1.3427e-009    
  2.7             1.5929e-009     1.2824e-008     -1.3554e-009   
  2.75            -1.5273e-009    -1.305e-008     1.3587e-009    
  2.8             1.5171e-009     1.2912e-008     -1.3716e-009   
  2.85            -1.4495e-009    -1.3e-008       1.3703e-009    
  2.9             1.4505e-009     1.2785e-008     -1.3784e-009   
  2.95            -7.793e-010     -1.3327e-008    1.3629e-009    
  3               7.45e-010       1.2093e-008     -1.33e-009     
  3.05            -1.1896e-009    -1.202e-008     1.3039e-009    
  3.1             1.8558e-009     1.2391e-008     -1.3098e-009   
  3.15            -1.7882e-009    -1.2716e-008    1.3127e-009    
  3.2             1.7708e-009     1.2666e-008     -1.3192e-009   
  3.25            -1.7008e-009    -1.2961e-008    1.3251e-009    
  3.3             1.6849e-009     1.2686e-008     -1.3367e-009   
  3.35            -9.451e-010     -1.2374e-008    1.3626e-009    
  3.4             1.5112e-009     1.2821e-008     -1.3715e-009   
  3.45            -1.4494e-009    -1.3052e-008    1.3699e-009    
  3.5             1.4366e-009     1.278e-008      -1.3767e-009   
  3.55            -1.3799e-009    -1.314e-008     1.372e-009     
  3.6             7.924e-010      1.2742e-008     -1.3598e-009   
  3.65            -1.2481e-009    -1.256e-008     1.3436e-009    
  3.7             1.2539e-009     1.214e-008      -1.3358e-009   
  3.75            -1.1915e-009    -1.2148e-008    1.3031e-009    
  3.8             1.8658e-009     1.2314e-008     -1.3094e-009   
  3.85            -1.8028e-009    -1.2722e-008    1.3101e-009    
  3.9             1.7817e-009     1.2573e-008     -1.3201e-009   
  3.95            -1.7142e-009    -1.285e-008     1.3238e-009    
  4               1.7014e-009     1.2718e-008     -1.3307e-009   
  4.05            -1.6247e-009    -1.2877e-008    1.3378e-009    
  4.1             1.6185e-009     1.2763e-008     -1.3499e-009   
  4.15            -9.019e-010     -1.2686e-008    1.368e-009     
  4.2             1.4539e-009     1.2869e-008     -1.3767e-009   
  4.25            -1.3923e-009    -1.2959e-008    1.3751e-009    
  4.3             8.021e-010      1.2965e-008     -1.3658e-009   
  4.35            -6.859e-010     -1.2115e-008    1.3123e-009    
  4.4             -1.8557e-009    -1.2465e-008    1.3038e-009    
  4.45            1.8417e-009     1.2492e-008     -1.3136e-009   
  4.5             -1.7708e-009    -1.2758e-008    1.3128e-009    
  4.55            1.755e-009      1.268e-008      -1.3247e-009   
  4.6             -9.913e-010     -1.2033e-008    1.3481e-009    
  4.65            1.5707e-009     1.2938e-008     -1.3592e-009   
  4.7             -8.737e-010     -1.3001e-008    1.371e-009     
  4.75            1.4218e-009     1.2765e-008     -1.3794e-009   
  4.8             -7.61e-010      -1.3069e-008    1.3548e-009    
  4.85            7.248e-010      1.1709e-008     -1.3177e-009   
  4.9             -1.1623e-009    -1.1768e-008    1.3087e-009    
  4.95            1.8194e-009     1.2477e-008     -1.3118e-009   
  5               -1.7433e-009    -1.2848e-008    1.318e-009     
  5.05            1.7305e-009     1.2764e-008     -1.3282e-009   
  5.1             -1.6619e-009    -1.289e-008     1.3311e-009    
  5.15            1.6472e-009     1.2716e-008     -1.344e-009    
  5.2             -9.256e-010     -1.2511e-008    1.3671e-009    
  5.25            1.4786e-009     1.2836e-008     -1.3727e-009   
  5.3             -1.4172e-009    -1.3183e-008    1.3733e-009    
  5.35            8.157e-010      1.3084e-008     -1.3718e-009   
  5.4             -7.05e-010      -1.2424e-008    1.3244e-009    
  5.45            -1.8805e-009    -1.2312e-008    1.3027e-009    
  5.5             1.8715e-009     1.2285e-008     -1.3093e-009   
  5.55            -1.8023e-009    -1.2708e-008    1.3148e-009    
  5.6             1.7826e-009     1.2658e-008     -1.3165e-009   
  5.65            -1.7071e-009    -1.2862e-008    1.3255e-009    
  5.7             1.6954e-009     1.2673e-008     -1.3359e-009   
  5.75            -1.6196e-009    -1.291e-008     1.3403e-009    
  5.8             1.6101e-009     1.2706e-008     -1.3525e-009   
  5.85            -1.5441e-009    -1.2985e-008    1.3593e-009    
  5.9             1.5346e-009     1.2803e-008     -1.3669e-009   
  5.95            -1.4631e-009    -1.3025e-008    1.3683e-009    
  6               1.4645e-009     1.2718e-008     -1.377e-009    
  6.05            -1.3941e-009    -1.3094e-008    1.3714e-009    
  6.1             8.064e-010      1.2837e-008     -1.365e-009    
  6.15            -6.892e-010     -1.2094e-008    1.3127e-009    
  6.2             -1.8563e-009    -1.2483e-008    1.3107e-009    
  6.25            1.8438e-009     1.2433e-008     -1.3113e-009   
  6.3             -1.7677e-009    -1.2706e-008    1.3179e-009    
  6.35            1.7598e-009     1.2643e-008     -1.3263e-009   
  6.4             -1.6847e-009    -1.2837e-008    1.3284e-009    
  6.45            1.6678e-009     1.2619e-008     -1.3397e-009   
  6.5             -1.5987e-009    -1.2948e-008    1.3471e-009    
  6.55            1.5876e-009     1.2706e-008     -1.356e-009    
  6.6             -1.5179e-009    -1.3077e-008    1.3622e-009    
  6.65            1.514e-009      1.2754e-008     -1.3722e-009   
  6.7             -1.4377e-009    -1.2988e-008    1.3708e-009    
  6.75            1.4403e-009     1.2747e-008     -1.3778e-009   
  6.8             -7.736e-010     -1.3297e-008    1.3621e-009    
  6.85            7.449e-010      1.1918e-008     -1.3257e-009   
  6.9             -1.1793e-009    -1.2037e-008    1.3058e-009    
  6.95            1.8538e-009     1.2476e-008     -1.315e-009    
  7               -1.776e-009     -1.2733e-008    1.3148e-009    
  7.05            1.7618e-009     1.2587e-008     -1.3264e-009   
  7.1             -1.6916e-009    -1.2841e-008    1.3298e-009    
  7.15            1.6726e-009     1.2605e-008     -1.3392e-009   
  7.2             -9.393e-010     -1.2469e-008    1.3634e-009    
  7.25            1.5e-009        1.2712e-008     -1.3738e-009   
  7.3             -1.4311e-009    -1.2947e-008    1.3694e-009    
  7.35            1.4328e-009     1.2738e-008     -1.3797e-009   
  7.4             -1.3667e-009    -1.3002e-008    1.3735e-009    
  7.45            7.934e-010      1.2724e-008     -1.3572e-009   
  7.5             -1.2312e-009    -1.2571e-008    1.3367e-009    
  7.55            -1.9174e-009    -1.2055e-008    1.3278e-009    
  7.6             -1.8833e-009    -1.2256e-008    1.3038e-009    
  7.65            1.8811e-009     1.2338e-008     -1.3109e-009   
  7.7             -1.8004e-009    -1.2707e-008    1.3136e-009    
  7.75            1.7903e-009     1.2541e-008     -1.3218e-009   
  7.8             -1.709e-009     -1.2886e-008    1.3276e-009    
  7.85            1.0302e-009     1.1933e-008     -1.3551e-009   
  7.9             -1.5328e-009    -1.307e-008     1.3605e-009    
  7.95            9.023e-010      1.2763e-008     -1.3794e-009   
  8               -1.3682e-009    -1.3035e-008    1.3726e-009    
  8.05            7.934e-010      1.2683e-008     -1.359e-009    
  8.1             -1.2387e-009    -1.2452e-008    1.3416e-009    
  8.15            -1.924e-009     -1.1958e-008    1.3279e-009    
  8.2             -1.8941e-009    -1.2243e-008    1.3047e-009    
  8.25            1.884e-009      1.2339e-008     -1.3075e-009   
  8.3             -1.8071e-009    -1.2706e-008    1.3116e-009    
  8.35            1.7999e-009     1.2582e-008     -1.3223e-009   
  8.4             -1.7131e-009    -1.2923e-008    1.3228e-009    
  8.45            1.7057e-009     1.2644e-008     -1.3366e-009   
  8.5             -1.6327e-009    -1.2869e-008    1.3404e-009    
  8.55            1.6163e-009     1.2722e-008     -1.3519e-009   
  8.6             -1.541e-009     -1.306e-008     1.3584e-009    
  8.65            1.5371e-009     1.2723e-008     -1.3688e-009   
  8.7             -1.4669e-009    -1.3006e-008    1.369e-009     
  8.75            1.4634e-009     1.2738e-008     -1.3787e-009   
  8.8             -1.3949e-009    -1.2986e-008    1.3736e-009    
  8.85            8.077e-010      1.3005e-008     -1.3667e-009   
  8.9             -6.873e-010     -1.2026e-008    1.3113e-009    
  8.95            -1.8527e-009    -1.2545e-008    1.3073e-009    
  9               1.8445e-009     1.2515e-008     -1.3131e-009   
  9.05            -1.7671e-009    -1.2797e-008    1.3183e-009    
  9.1             1.7523e-009     1.269e-008      -1.3281e-009   
  9.15            -1.6759e-009    -1.2872e-008    1.33e-009      
  9.2             1.0006e-009     1.2116e-008     -1.3643e-009   
  9.25            -1.4985e-009    -1.3125e-008    1.3668e-009    
  9.3             1.4923e-009     1.2807e-008     -1.3767e-009   
  9.35            -1.4172e-009    -1.3113e-008    1.3724e-009    
  9.4             1.4183e-009     1.2685e-008     -1.3789e-009   
  9.45            -7.596e-010     -1.3059e-008    1.3561e-009    
  9.5             7.298e-010      1.1657e-008     -1.3155e-009   
  9.55            -1.1578e-009    -1.1903e-008    1.3112e-009    
  9.6             1.8169e-009     1.2506e-008     -1.3189e-009   
  9.65            -1.7458e-009    -1.2751e-008    1.3221e-009    
  9.7             1.7274e-009     1.2669e-008     -1.3305e-009   
  9.75            -1.655e-009     -1.2865e-008    1.3351e-009    
  9.8             1.6414e-009     1.268e-008      -1.3474e-009   
  9.85            -1.5656e-009    -1.2983e-008    1.3514e-009    
  9.9             1.5568e-009     1.285e-008      -1.3653e-009   
  9.95            -1.4895e-009    -1.3061e-008    1.3663e-009    
  10              1.4818e-009     1.2846e-008     -1.3753e-009   
END_DB

BEGIN_DB
 ICCAP_VAR VG         1              
 ICCAP_VAR VS         0              
 ICCAP_VAR VB         0              

 #VD              ID              IB              IG             
  0               4.0514e-007     1.2987e-008     -1.314e-010    
  0.05            3.5172e-005     1.1597e-008     -6.596e-010    
  0.1             6.0287e-005     3.619e-009      -1.3624e-009   
  0.15            7.616e-005      1.2039e-008     -1.324e-009    
  0.2             8.4528e-005     7.235e-009      -1.308e-009    
  0.25            8.8028e-005     9.124e-009      -1.3176e-009   
  0.3             8.9331e-005     1.2751e-008     -1.3538e-009   
  0.35            8.9757e-005     6.062e-009      -1.3285e-009   
  0.4             8.9998e-005     7.136e-009      -1.3109e-009   
  0.45            9.0277e-005     1.2792e-008     -1.3583e-009   
  0.5             9.0343e-005     1.1881e-008     -1.3774e-009   
  0.55            9.0402e-005     1.1784e-008     -1.3147e-009   
  0.6             9.0566e-005     1.2709e-008     -1.3654e-009   
  0.65            9.0582e-005     1.1827e-008     -1.3695e-009   
  0.7             9.0639e-005     1.1863e-008     -1.318e-009    
  0.75            9.078e-005      1.2768e-008     -1.3696e-009   
  0.8             9.0779e-005     1.1623e-008     -1.366e-009    
  0.85            9.0832e-005     1.2079e-008     -1.3261e-009   
  0.9             9.085e-005      7.308e-009      -1.308e-009    
  0.95            9.1026e-005     1.2809e-008     -1.356e-009    
  1               9.0957e-005     5.791e-009      -1.3303e-009   
  1.05            9.1007e-005     6.952e-009      -1.3108e-009   
  1.1             9.1173e-005     1.2734e-008     -1.3627e-009   
  1.15            9.1154e-005     1.185e-008      -1.3745e-009   
  1.2             9.1178e-005     1.1857e-008     -1.3172e-009   
  1.25            9.1303e-005     1.2775e-008     -1.3668e-009   
  1.3             9.1297e-005     1.1654e-008     -1.3685e-009   
  1.35            9.1321e-005     1.19e-008       -1.3215e-009   
  1.4             9.1326e-005     7.487e-009      -1.3072e-009   
  1.45            9.1493e-005     1.2799e-008     -1.35e-009     
  1.5             9.1403e-005     6.007e-009      -1.3263e-009   
  1.55            9.1453e-005     7.175e-009      -1.3101e-009   
  1.6             9.1617e-005     1.2872e-008     -1.3576e-009   
  1.65            9.1593e-005     1.1977e-008     -1.3761e-009   
  1.7             9.1625e-005     1.1767e-008     -1.3151e-009   
  1.75            9.1721e-005     1.2783e-008     -1.3648e-009   
  1.8             9.1704e-005     1.1765e-008     -1.3725e-009   
  1.85            9.1722e-005     1.1799e-008     -1.3178e-009   
  1.9             9.1723e-005     7.736e-009      -1.3052e-009   
  1.95            9.1766e-005     9.684e-009      -1.3345e-009   
  2               9.1845e-005     1.2474e-008     -1.3433e-009   
  2.05            9.1829e-005     6.219e-009      -1.3209e-009   
  2.1             9.1863e-005     7.591e-009      -1.307e-009    
  2.15            9.2031e-005     1.2746e-008     -1.3493e-009   
  2.2             9.1933e-005     5.993e-009      -1.3286e-009   
  2.25            9.1966e-005     7.056e-009      -1.3128e-009   
  2.3             9.2141e-005     1.2612e-008     -1.3582e-009   
  2.35            9.2094e-005     1.1975e-008     -1.3759e-009   
  2.4             9.2094e-005     1.1606e-008     -1.3177e-009   
  2.45            9.2213e-005     1.2536e-008     -1.3639e-009   
  2.5             9.2188e-005     1.1558e-008     -1.3707e-009   
  2.55            9.2198e-005     1.1458e-008     -1.3245e-009   
  2.6             9.2201e-005     7.266e-009      -1.3093e-009   
  2.65            9.2234e-005     8.829e-009      -1.335e-009    
  2.7             9.2366e-005     2.508e-009      -1.3676e-009   
  2.75            9.231e-005      1.0451e-008     -1.3249e-009   
  2.8             9.2312e-005     5.732e-009      -1.3113e-009   
  2.85            9.2344e-005     7.123e-009      -1.3288e-009   
  2.9             9.1966e-005     -1.5932e-008    1.3134e-009    
  2.95            9.1993e-005     -1.682e-008     1.3553e-009    
  3               9.2077e-005     -1.7018e-008    1.366e-009     
  3.05            9.2134e-005     -1.7721e-008    1.3185e-009    
  3.1             9.2094e-005     -1.99e-008      1.3606e-009    
  3.15            9.2184e-005     -2.0393e-008    1.3618e-009    
  3.2             9.2222e-005     -2.1787e-008    1.3223e-009    
  3.25            9.2185e-005     -2.4568e-008    1.365e-009     
  3.3             9.2272e-005     -2.5507e-008    1.3542e-009    
  3.35            9.2324e-005     -2.8029e-008    1.327e-009     
  3.4             9.2276e-005     -3.1507e-008    1.3669e-009    
  3.45            9.2364e-005     -3.3217e-008    1.345e-009     
  3.5             9.2405e-005     -3.6728e-008    1.3299e-009    
  3.55            9.2385e-005     -4.1089e-008    1.369e-009     
  3.6             9.2465e-005     -4.3857e-008    1.3346e-009    
  3.65            9.2497e-005     -4.888e-008     1.3374e-009    
  3.7             9.2475e-005     -5.4135e-008    1.3701e-009    
  3.75            9.2567e-005     -5.8305e-008    1.3228e-009    
  3.8             9.2582e-005     -6.4936e-008    1.3413e-009    
  3.85            9.2591e-005     -7.1398e-008    1.3716e-009    
  3.9             9.2663e-005     -7.7389e-008    1.3107e-009    
  3.95            9.2611e-005     -8.6031e-008    1.348e-009     
  4               9.2694e-005     -9.3784e-008    1.369e-009     
  4.05            9.2771e-005     -1.01875e-007   1.3115e-009    
  4.1             9.2719e-005     -1.12595e-007   1.3534e-009    
  4.15            9.3005e-005     -1.0827e-007    1.948e-010     
  4.2             9.3249e-005     -1.2263e-007    -1.2241e-009   
  4.25            9.3284e-005     -1.2e-007       -1.3767e-009   
  4.3             9.3332e-005     -1.3385e-007    -1.333e-009    
  4.35            9.3367e-005     -1.4694e-007    -1.3439e-009   
