! VERSION = 6.00
BEGIN_HEADER
 ICCAP_INPUTS
  VG         V  B GROUND SMU4 0.001 LIN        1    0          5          101  0.05      
  VS         V  E GROUND SMU2 0.1 CON        0
  VB         V  C GROUND SMU3 0.1 LIN        3    0          -5         3    -2.5      
  VD         V  S GROUND SMU1 0.1 LIN        2    0.1        5          2    4.9       
 ICCAP_OUTPUTS
  IG         I  B GROUND SMU4 B
  ID         I  S GROUND SMU1 B
  IB         I  C GROUND SMU3 B
END_HEADER

BEGIN_DB
 ICCAP_VAR VS         0              
 ICCAP_VAR VB         0              
 ICCAP_VAR VD         0.1            

 #VG              IG              ID              IB             
  0               -6.552e-010     -5.527e-010     -2.4856e-008   
  0.05            -1.8313e-009    1.6221e-009     1.7178e-008    
  0.1             -6.214e-010     -2.002e-009     5.32e-009      
  0.15            2.2513e-009     -1.3387e-009    -2.0284e-008   
  0.2             1.2778e-009     2.162e-009      -5.254e-009    
  0.25            -2.3182e-009    6.868e-010      1.5705e-008    
  0.3             -2.295e-010     -1.1095e-009    2.53e-009      
  0.35            2.631e-009      -5.48e-010      -2.5117e-008   
  0.4             -1.7738e-009    2.3885e-009     1.609e-008     
  0.45            -1.5082e-009    2.4052e-009     5.183e-009     
  0.5             -1.3445e-009    8.3889e-009     5.795e-009     
  0.55            2.3629e-009     1.5229e-008     1.3066e-008    
  0.6             2.2502e-009     8.1191e-008     1.2236e-008    
  0.65            1.501e-010      2.9203e-007     5.539e-009     
  0.7             2.696e-009      3.7621e-007     4.906e-009     
  0.75            2.6421e-009     1.1785e-006     2.3753e-008    
  0.8             -1.4367e-009    2.8636e-006     1.6895e-008    
  0.85            -2.5853e-009    3.9054e-006     6.443e-009     
  0.9             2.418e-009      5.6123e-006     -1.6281e-008   
  0.95            -2.4565e-009    8.17e-006       1.249e-008     
  1               8.155e-010      1.1104e-005     -1.7735e-008   
  1.05            2.6576e-009     1.3515e-005     -9.685e-009    
  1.1             -1.5726e-009    1.6455e-005     2.0651e-008    
  1.15            -2.5981e-009    1.885e-005      5.686e-009     
  1.2             2.5176e-009     2.07e-005       -1.4875e-008   
  1.25            -2.4852e-009    2.286e-005      1.204e-008     
  1.3             -2.0765e-009    2.4385e-005     1.305e-009     
  1.35            -1.4752e-009    2.5913e-005     4.143e-009     
  1.4             -2.5911e-009    2.7456e-005     6.415e-009     
  1.45            2.4402e-009     2.883e-005      -1.5888e-008   
  1.5             7.591e-010      3.0283e-005     9.924e-009     
  1.55            -1.4485e-009    3.1242e-005     1.7221e-008    
  1.6             -2.6021e-009    3.236e-005      6.789e-009     
  1.65            2.3875e-009     3.3408e-005     -1.6113e-008   
  1.7             1.6994e-009     3.4217e-005     -4.038e-009    
  1.75            2.6087e-009     3.5173e-005     -8.625e-009    
  1.8             -2.3668e-009    3.6168e-005     1.2964e-008    
  1.85            -1.8037e-009    3.6799e-005     1.942e-009     
  1.9             -2.545e-009     3.767e-005      5.149e-009     
  1.95            2.6802e-009     3.8395e-005     -1.3299e-008   
  2               -1.6281e-009    3.9133e-005     2.1979e-008    
  2.05            -2.584e-009     3.9748e-005     5.572e-009     
  2.1             -7.987e-010     4.0386e-005     -1.092e-008    
  2.15            2.694e-009      4.1041e-005     -1.5401e-008   
  2.2             -1.7684e-009    4.1679e-005     2.4603e-008    
  2.25            -2.5504e-009    4.2232e-005     4.961e-009     
  2.3             -7.128e-010     4.2869e-005     -1.1221e-008   
  2.35            1.6876e-009     4.3514e-005     -1.7929e-008   
  2.4             2.6145e-009     4.3917e-005     -8.691e-009    
  2.45            -2.3573e-009    4.4355e-005     1.3138e-008    
  2.5             -1.7799e-009    4.478e-005      2.117e-009     
  2.55            -2.5468e-009    4.5247e-005     4.806e-009     
  2.6             -6.965e-010     4.5778e-005     -1.1095e-008   
  2.65            1.7208e-009     4.6065e-005     -1.8526e-008   
  2.7             2.6098e-009     4.6619e-005     -8.288e-009    
  2.75            7.34e-010       4.6937e-005     1.0168e-008    
  2.8             -1.4653e-009    4.736e-005      1.7627e-008    
  2.85            -2.6006e-009    4.7699e-005     6.746e-009     
  2.9             2.4156e-009     4.8158e-005     -1.6077e-008   
  2.95            1.715e-009      4.8468e-005     -3.797e-009    
  3               2.6101e-009     4.8846e-005     -8.567e-009    
  3.05            -2.3825e-009    4.9148e-005     1.2732e-008    
  3.1             -1.8308e-009    4.9394e-005     1.648e-009     
  3.15            -2.5364e-009    4.9721e-005     5.142e-009     
  3.2             2.682e-009      5.0029e-005     -1.3639e-008   
  3.25            -1.6521e-009    5.0348e-005     2.2496e-008    
  3.3             -2.5819e-009    5.0604e-005     5.643e-009     
  3.35            -1.7481e-009    5.0882e-005     -9.111e-009    
  3.4             1.5738e-009     5.1168e-005     -1.5995e-008   
  3.45            2.6443e-009     5.1407e-005     -8.973e-009    
  3.5             -2.2684e-009    5.1727e-005     1.4198e-008    
  3.55            -1.6652e-009    5.1919e-005     3.22e-009      
  3.6             -2.5784e-009    5.2179e-005     5.465e-009     
  3.65            -7.805e-010     5.2416e-005     -1.1094e-008   
  3.7             1.5846e-009     5.2654e-005     -1.6338e-008   
  3.75            2.6266e-009     5.2866e-005     -8.814e-009    
  3.8             -2.2821e-009    5.3137e-005     1.3824e-008    
  3.85            -8.065e-010     5.33e-005       -1.0895e-008   
  3.9             2.6873e-009     5.3518e-005     -1.5221e-008   
  3.95            -1.5696e-009    5.378e-005      1.7553e-008    
  4               -2.5904e-009    5.3929e-005     6.031e-009     
  4.05            -8.349e-010     5.4115e-005     -1.0824e-008   
  4.1             2.6841e-009     5.4314e-005     -1.4371e-008   
  4.15            -1.6953e-009    5.4528e-005     2.3425e-008    
  4.2             -2.5709e-009    5.4681e-005     5.258e-009     
  4.25            -7.559e-010     5.4858e-005     -1.0993e-008   
  4.3             1.6206e-009     5.5059e-005     -1.6715e-008   
  4.35            2.6374e-009     5.5212e-005     -8.707e-009    
  4.4             -2.3034e-009    5.5389e-005     1.3582e-008    
  4.45            -1.7148e-009    5.5504e-005     2.221e-009     
  4.5             -2.5688e-009    5.5674e-005     5.237e-009     
  4.55            2.6603e-009     5.5836e-005     -1.2093e-008   
  4.6             -1.5484e-009    5.6007e-005     1.9896e-008    
  4.65            -2.596e-009     5.6132e-005     5.968e-009     
  4.7             2.5036e-009     5.631e-005      -1.4829e-008   
  4.75            -2.4848e-009    5.6437e-005     1.1838e-008    
  4.8             -2.0534e-009    5.6525e-005     1.46e-009      
  4.85            -1.4546e-009    5.6668e-005     4.036e-009     
  4.9             -2.5977e-009    5.6814e-005     6.607e-009     
  4.95            2.4289e-009     5.6979e-005     -1.592e-008    
  5               -2.4443e-009    5.7099e-005     1.2291e-008    
END_DB

BEGIN_DB
 ICCAP_VAR VS         0              
 ICCAP_VAR VB         0              
 ICCAP_VAR VD         5              

 #VG              IG              ID              IB             
  0               1.0017e-009     1.1063e-009     1.3374e-008    
  0.05            2.2698e-009     -4.976e-010     -1.7322e-008   
  0.1             1.2704e-009     2.1928e-009     -4.994e-009    
  0.15            -2.3084e-009    6.553e-010      1.4831e-008    
  0.2             -2.194e-010     -1.8605e-009    2.368e-009     
  0.25            -4e-010         -1.8725e-009    -1.1119e-008   
  0.3             2.683e-009      -7.402e-010     -1.0568e-008   
  0.35            -1.9182e-009    1.9321e-009     1.9571e-008    
  0.4             -1.6436e-009    3.8721e-009     4.308e-009     
  0.45            2.4308e-009     5.67e-009       2.0298e-008    
  0.5             -6.292e-010     6.83e-008       1.2494e-008    
  0.55            2.57e-009       2.2306e-008     -9.629e-009    
  0.6             2.6476e-009     5.9866e-008     1.6445e-008    
  0.65            -4.729e-010     2.5002e-007     9.964e-009     
  0.7             -2.5712e-009    1.2346e-006     -1.2779e-008   
  0.75            -2.0102e-009    1.113e-006      -1.513e-008    
  0.8             -2.3514e-009    2.4829e-006     -2.3835e-008   
  0.85            -2.5846e-009    5.0289e-006     -3.9528e-008   
  0.9             -2.1376e-009    9.8164e-006     -5.7596e-008   
  0.95            -1.4512e-009    1.6089e-005     -6.3687e-008   
  1               2.5057e-009     2.3666e-005     -1.1955e-007   
  1.05            2.6653e-009     3.4186e-005     -1.4576e-007   
  1.1             2.7048e-009     4.5496e-005     -1.6934e-007   
  1.15            2.4269e-009     5.8669e-005     -2.2238e-007   
  1.2             1.7373e-009     7.4898e-005     -2.4684e-007   
  1.25            2.5981e-009     8.9055e-005     -2.7328e-007   
  1.3             1.391e-009      0.00011211      -2.9445e-007   
  1.35            2.6714e-009     0.00013459      -3.2451e-007   
  1.4             2.7043e-009     0.00015432      -3.2273e-007   
  1.45            2.4132e-009     0.00017506      -3.3049e-007   
  1.5             1.7342e-009     0.00019702      -3.4154e-007   
  1.55            2.596e-009      0.00021974      -3.4274e-007   
  1.6             2.7085e-009     0.00024518      -3.156e-007    
  1.65            2.6456e-009     0.00027016      -3.0978e-007   
  1.7             2.1587e-009     0.0002943       -2.9579e-007   
  1.75            2.4871e-009     0.00031882      -2.8508e-007   
  1.8             2.6619e-009     0.00034937      -2.5539e-007   
  1.85            2.7052e-009     0.00038221      -2.4045e-007   
  1.9             2.5022e-009     0.00040029      -2.209e-007    
  1.95            1.8458e-009     0.00043744      -2.0224e-007   
  2               2.5609e-009     0.00046443      -1.8595e-007   
  2.05            2.6951e-009     0.00049299      -1.5359e-007   
  2.1             2.669e-009      0.00051296      -1.3985e-007   
  2.15            2.241e-009      0.00054674      -1.2198e-007   
  2.2             1.5271e-009     0.00058269      -1.0948e-007   
  2.25            2.6338e-009     0.00060537      -9.837e-008    
  2.3             -2.5412e-009    0.00063487      -6.4787e-008   
  2.35            -2.2398e-009    0.00066455      -6.2609e-008   
  2.4             -1.6085e-009    0.00069499      -4.997e-008    
  2.45            -2.5673e-009    0.00072546      -3.8293e-008   
  2.5             -2.5717e-009    0.00075618      -3.9177e-008   
  2.55            -2.4685e-009    0.00078733      -2.8701e-008   
  2.6             -1.992e-009     0.00081837      -2.1493e-008   
  2.65            -2.5759e-009    0.00084941      -2.5352e-008   
  2.7             -2.5675e-009    0.00088075      -1.7938e-008   
  2.75            -1.9905e-009    0.00091176      -1.993e-008    
  2.8             -1.0535e-009    0.00094357      -1.7738e-008   
  2.85            -1.4109e-009    0.00097555      -1.4454e-008   
  2.9             -1.7553e-009    0.00100707      -1.4756e-008   
  2.95            -7.168e-010     0.00103789      -1.5244e-008   
  3               -1.0593e-009    0.00106965      -1.1883e-008   
  3.05            -1.4249e-009    0.00110199      -9.99e-009     
  3.1             2.2284e-009     0.0011321       -2.6298e-008   
  3.15            -2.5839e-009    0.0011649       -7.422e-009    
  3.2             -8.044e-010     0.0011964       -1.2035e-008   
  3.25            2.691e-009      0.0012278       -1.616e-008    
  3.3             2.4767e-009     0.0012586       -1.72e-009     
  3.35            2.5023e-009     0.0012902       6.475e-009     
  3.4             -1.4792e-009    0.0013228       1.8015e-008    
  3.45            -2.5923e-009    0.001353        6.238e-009     
  3.5             -8.866e-010     0.0013832       -1.0937e-008   
  3.55            2.6755e-009     0.0014136       -1.2973e-008   
  3.6             -1.6072e-009    0.0014444       2.1552e-008    
  3.65            -2.5852e-009    0.0014739       5.489e-009     
  3.7             2.232e-010      0.0015029       -1.0517e-008   
  3.75            2.6882e-009     0.0015313       -1.8748e-008   
  3.8             -1.5532e-009    0.0015603       1.726e-008     
  3.85            -2.5877e-009    0.0015878       5.773e-009     
  3.9             -8.432e-010     0.0016144       -1.0804e-008   
  3.95            2.6877e-009     0.0016407       -1.397e-008    
  4               -1.6807e-009    0.0016667       2.3334e-008    
  4.05            -2.5712e-009    0.0016909       5.132e-009     
  4.1             2.6644e-009     0.0017142       -1.1261e-008   
  4.15            -1.4977e-009    0.0017379       1.8779e-008    
  4.2             -2.586e-009     0.0017603       6.191e-009     
  4.25            2.4841e-009     0.0017809       -1.577e-008    
  4.3             -2.472e-009     0.0018023       1.2027e-008    
  4.35            -2.014e-009     0.0018211       1.395e-009     
  4.4             -1.4121e-009    0.00184         4.467e-009     
  4.45            -2.5876e-009    0.001858        6.673e-009     
  4.5             2.4001e-009     0.0018754       -1.6741e-008   
  4.55            1.6709e-009     0.0018915       -4.377e-009    
  4.6             2.6129e-009     0.0019073       -8.734e-009    
  4.65            7.462e-010      0.0019228       1.0108e-008    
  4.7             -1.4466e-009    0.0019379       1.7121e-008    
  4.75            -2.5862e-009    0.001952        6.563e-009     
  4.8             -9.034e-010     0.0019654       -1.0701e-008   
  4.85            2.6743e-009     0.0019786       -1.2174e-008   
  4.9             -1.5569e-009    0.0019916       2.0386e-008    
  4.95            -2.587e-009     0.0020053       5.65e-009      
  5               -8.307e-010     0.0020179       -1.0909e-008   
END_DB

BEGIN_DB
 ICCAP_VAR VS         0              
 ICCAP_VAR VB         -2.5           
 ICCAP_VAR VD         0.1            

 #VG              IG              ID              IB             
  0               5.534e-010      7.309e-010      1.3229e-008    
  0.05            1.7084e-009     -1.4711e-009    -1.1711e-008   
  0.1             1.5689e-009     1.804e-009      -8.404e-009    
  0.15            1.7057e-009     1.544e-009      8.442e-009     
  0.2             -1.8234e-009    1.6523e-009     1.7234e-008    
  0.25            -6.237e-010     -1.979e-009     5.163e-009     
  0.3             2.2695e-009     -1.3162e-009    -2.0437e-008   
  0.35            1.2785e-009     2.1829e-009     -5.449e-009    
  0.4             -2.3177e-009    6.18e-010       1.5461e-008    
  0.45            -2.305e-010     -1.9386e-009    2.283e-009     
  0.5             -4.098e-010     -1.9776e-009    -1.1128e-008   
  0.55            -5.892e-010     -1.9781e-009    -1.0567e-008   
  0.6             2.3058e-009     -1.2996e-009    -2.126e-008    
  0.65            1.2436e-009     2.2055e-009     -5.133e-009    
  0.7             -2.3513e-009    5.94e-010       1.5494e-008    
  0.75            -1.943e-010     -1.9226e-009    2.222e-009     
  0.8             2.6618e-009     -1.639e-010     -1.6133e-008   
  0.85            -1.834e-009     1.6838e-009     1.757e-008     
  0.9             -6.121e-010     -1.8111e-009    4.96e-009      
  0.95            2.5884e-009     -2.022e-010     -9.64e-009     
  1               -1.6606e-009    5.5253e-009     1.4463e-008    
  1.05            2.6808e-009     1.5732e-008     1.0405e-008    
  1.1             -1.6364e-009    4.932e-008      2.2221e-008    
  1.15            8.452e-010      1.2365e-007     -1.7268e-008   
  1.2             -1.3383e-009    2.6677e-007     1.3672e-008    
  1.25            -2.591e-009     5.2527e-007     7.554e-009     
  1.3             -2.4336e-009    1.0013e-006     -2.0051e-008   
  1.35            -1.9512e-009    2.0472e-006     1.333e-009     
  1.4             -1.3798e-009    3.9066e-006     4.785e-009     
  1.45            -2.5889e-009    6.5651e-006     7.124e-009     
  1.5             2.3565e-009     9.4415e-006     -1.6945e-008   
  1.55            -2.2329e-009    1.2588e-005     -4.906e-009    
  1.6             -1.6115e-009    1.5486e-005     2.811e-009     
  1.65            -2.5788e-009    1.7975e-005     5.436e-009     
  1.7             -7.978e-010     2.0198e-005     -1.099e-008    
  1.75            2.6898e-009     2.2094e-005     -1.5724e-008   
  1.8             -1.5884e-009    2.3965e-005     1.7206e-008    
  1.85            -2.5855e-009    2.5586e-005     5.472e-009     
  1.9             2.112e-010      2.6964e-005     -1.0485e-008   
  1.95            2.6902e-009     2.8326e-005     -1.8841e-008   
  2               -1.7325e-009    2.9594e-005     2.4161e-008    
  2.05            -2.5608e-009    3.0766e-005     5.269e-009     
  2.1             -7.257e-010     3.1815e-005     -1.1089e-008   
  2.15            1.664e-009      3.2766e-005     -1.7945e-008   
  2.2             2.6265e-009     3.3744e-005     -8.382e-009    
  2.25            -2.3437e-009    3.4638e-005     1.3338e-008    
  2.3             -1.757e-009     3.546e-005      1.912e-009     
  2.35            -2.5497e-009    3.6239e-005     5.326e-009     
  2.4             -6.961e-010     3.695e-005      -1.1212e-008   
  2.45            1.7051e-009     3.7655e-005     -1.8812e-008   
  2.5             2.6153e-009     3.8317e-005     -8.756e-009    
  2.55            -2.3613e-009    3.8992e-005     1.2895e-008    
  2.6             -1.8011e-009    3.9577e-005     1.806e-009     
  2.65            -2.5362e-009    4.016e-005      4.908e-009     
  2.7             -6.699e-010     4.071e-005      -1.1204e-008   
  2.75            1.7561e-009     4.123e-005      -1.9612e-008   
  2.8             2.6037e-009     4.1739e-005     -8.73e-009     
  2.85            7.126e-010      4.2233e-005     1.0368e-008    
  2.9             -1.4914e-009    4.2701e-005     1.8482e-008    
  2.95            -2.59e-009      4.3162e-005     6.245e-009     
  3               2.4687e-009     4.3594e-005     -1.574e-008    
  3.05            7.416e-010      4.4012e-005     1.0235e-008    
  3.1             -1.4586e-009    4.4405e-005     1.7669e-008    
  3.15            -2.5919e-009    4.4809e-005     6.584e-009     
  3.2             2.4385e-009     4.5186e-005     -1.617e-008    
  3.25            -2.4413e-009    4.556e-005      1.2408e-008    
  3.3             -1.9578e-009    4.5897e-005     1.531e-009     
  3.35            -1.3784e-009    4.6242e-005     4.511e-009     
  3.4             -2.5938e-009    4.6575e-005     7.166e-009     
  3.45            -9.425e-010     4.689e-005      -1.0382e-008   
  3.5             2.6553e-009     4.7178e-005     -1.133e-008    
  3.55            -1.4957e-009    4.7495e-005     1.8736e-008    
  3.6             -2.5895e-009    4.7796e-005     6.257e-009     
  3.65            2.4757e-009     4.8081e-005     -1.567e-008    
  3.7             7.408e-010      4.8349e-005     1.0138e-008    
  3.75            -1.4573e-009    4.8607e-005     1.7646e-008    
  3.8             -2.5931e-009    4.8876e-005     6.575e-009     
  3.85            2.4344e-009     4.9135e-005     -1.6048e-008   
  3.9             1.7431e-009     4.9376e-005     -3.857e-009    
  3.95            2.6059e-009     4.9607e-005     -8.37e-009     
  4               -2.3904e-009    4.985e-005      1.2833e-008    
  4.05            -1.8463e-009    5.0064e-005     1.599e-009     
  4.1             -1.3245e-009    5.0285e-005     5.085e-009     
  4.15            -2.5891e-009    5.0524e-005     7.613e-009     
