! VERSION = 6.00
BEGIN_HEADER
 ICCAP_INPUTS
  VG         V  B GROUND SMU4 0.001 LIN        2    0          5          6    1         
  VS         V  E GROUND SMU2 0.1 CON        0
  VD         V  S GROUND SMU1 0.1 LIN        1    0          5          101  0.05      
  VB         V  C GROUND SMU3 0.1 LIN        3    0          -2.5       2    -2.5      
 ICCAP_OUTPUTS
  ID         I  S GROUND SMU1 B
  IB         I  C GROUND SMU3 B
  IG         I  B GROUND SMU4 B
END_HEADER

BEGIN_DB
 ICCAP_VAR VG         0              
 ICCAP_VAR VS         0              
 ICCAP_VAR VB         0              

 #VD              ID              IB              IG             
  0               -7.31e-010      -8.116e-009     -1.1795e-009   
  0.05            6.256e-010      1.1078e-008     -2.52e-009     
  0.1             -1.6056e-009    9.09e-010       -2.74e-011     
  0.15            1.327e-009      -1.1423e-008    2.3172e-009    
  0.2             9.819e-010      1.5608e-008     -2.0043e-009   
  0.25            -1.7993e-009    3.212e-009      -5.305e-010    
  0.3             -2.738e-010     -1.5539e-008    2.3874e-009    
  0.35            1.3587e-009     -4.449e-009     2.2388e-009    
  0.4             9.014e-010      1.4151e-008     -2.1817e-009   
  0.45            -7.733e-010     -2.2259e-008    2.7544e-009    
  0.5             1.0978e-009     1.7053e-008     -1.7825e-009   
  0.55            -1.3697e-009    3.982e-009      2.7477e-009    
  0.6             1.1107e-009     1.7458e-008     -1.7632e-009   
  0.65            -1.3749e-009    4.301e-009      2.7375e-009    
  0.7             1.1261e-009     1.7772e-008     -1.7362e-009   
  0.75            -1.3773e-009    4.262e-009      2.7325e-009    
  0.8             1.14e-009       1.7908e-008     -1.7135e-009   
  0.85            -1.3825e-009    4.548e-009      2.7284e-009    
  0.9             1.1528e-009     1.8065e-008     -1.687e-009    
  0.95            -1.3877e-009    4.569e-009      2.7232e-009    
  1               1.1685e-009     1.8315e-008     -1.667e-009    
  1.05            -1.3938e-009    4.778e-009      2.505e-010     
  1.1             -5.165e-010     -1.854e-008     1.7982e-009    
  1.15            1.3161e-009     -8.407e-009     2.4524e-009    
  1.2             1.176e-009      1.8296e-008     -1.6574e-009   
  1.25            -1.3943e-009    4.669e-009      2.396e-010     
  1.3             -5.132e-010     -1.8517e-008    1.7926e-009    
  1.35            1.319e-009      -8.531e-009     2.4534e-009    
  1.4             1.1801e-009     1.8297e-008     -1.6535e-009   
  1.45            -1.3901e-009    4.814e-009      2.42e-010      
  1.5             -5.107e-010     -1.8636e-008    1.7826e-009    
  1.55            1.3232e-009     -8.507e-009     2.4584e-009    
  1.6             1.189e-009      1.8438e-008     -1.6491e-009   
  1.65            -1.3903e-009    4.857e-009      2.349e-010     
  1.7             -5.113e-010     -1.8709e-008    1.7796e-009    
  1.75            1.327e-009      -8.547e-009     2.4626e-009    
  1.8             1.1951e-009     1.8546e-008     -1.6445e-009   
  1.85            -1.3864e-009    4.857e-009      2.349e-010     
  1.9             -5.056e-010     -1.8863e-008    1.7664e-009    
  1.95            1.3296e-009     -8.571e-009     2.4643e-009    
  2               1.1991e-009     1.8616e-008     -1.6348e-009   
  2.05            -1.3856e-009    4.861e-009      2.287e-010     
  2.1             -5.092e-010     -1.8812e-008    1.7559e-009    
  2.15            1.3321e-009     -8.605e-009     2.4666e-009    
  2.2             1.2038e-009     1.8658e-008     -1.6323e-009   
  2.25            -1.3866e-009    4.898e-009      2.289e-010     
  2.3             -5.068e-010     -1.8981e-008    1.7577e-009    
  2.35            1.3345e-009     -8.605e-009     2.4693e-009    
  2.4             1.2145e-009     1.8629e-008     -1.6283e-009   
  2.45            -1.379e-009     4.888e-009      2.264e-010     
  2.5             -5.068e-010     -1.8999e-008    1.7522e-009    
  2.55            1.3377e-009     -8.614e-009     2.4733e-009    
  2.6             1.22e-009       1.875e-008      -1.6175e-009   
  2.65            -1.3836e-009    4.87e-009       2.178e-010     
  2.7             -5.087e-010     -1.8899e-008    1.7246e-009    
  2.75            1.3396e-009     -8.528e-009     2.4764e-009    
  2.8             1.2223e-009     1.8616e-008     -1.5974e-009   
  2.85            -1.3871e-009    4.812e-009      2.155e-010     
  2.9             1.4591e-009     -8.298e-009     2.1204e-009    
  2.95            8.225e-010      1.2425e-008     -2.3869e-009   
  3               -1.6452e-009    1.745e-009      -2.058e-010    
  3.05            -1.7204e-009    -9.619e-009     -4.16e-010     
  3.1             -7.673e-010     -9.232e-009     2.7421e-009    
  3.15            1.1951e-009     1.8034e-008     -1.6488e-009   
  3.2             -1.3586e-009    4.526e-009      2.538e-010     
  3.25            -4.726e-010     -1.8519e-008    1.779e-009     
  3.3             1.3585e-009     -8.251e-009     2.4477e-009    
  3.35            1.203e-009      1.8305e-008     -1.6401e-009   
  3.4             -1.3616e-009    4.571e-009      2.535e-010     
  3.45            -4.743e-010     -1.865e-008     1.7718e-009    
  3.5             1.3585e-009     -8.278e-009     2.4487e-009    
  3.55            1.2056e-009     1.8481e-008     -1.6345e-009   
  3.6             -1.3615e-009    4.561e-009      2.47e-010      
  3.65            -4.758e-010     -1.8861e-008    1.7642e-009    
  3.7             1.3607e-009     -8.282e-009     2.4476e-009    
  3.75            1.2119e-009     1.867e-008      -1.6291e-009   
  3.8             -1.3589e-009    4.547e-009      2.443e-010     
  3.85            -4.734e-010     -1.897e-008     1.7569e-009    
  3.9             1.3611e-009     -8.226e-009     2.4476e-009    
  3.95            1.2158e-009     1.8842e-008     -1.6253e-009   
  4               -1.3541e-009    4.488e-009      2.464e-010     
  4.05            -4.722e-010     -1.9081e-008    1.765e-009     
  4.1             1.3627e-009     -8.254e-009     2.4436e-009    
  4.15            1.2174e-009     1.8783e-008     -1.6282e-009   
  4.2             -1.3538e-009    4.476e-009      2.484e-010     
  4.25            -4.682e-010     -1.9051e-008    1.7599e-009    
  4.3             1.3659e-009     -8.295e-009     2.4421e-009    
  4.35            1.2207e-009     1.8672e-008     -1.6285e-009   
  4.4             -1.3513e-009    4.504e-009      2.477e-010     
  4.45            -4.649e-010     -1.916e-008     1.7676e-009    
  4.5             1.3684e-009     -8.242e-009     2.4421e-009    
  4.55            1.2216e-009     1.8787e-008     -1.6302e-009   
  4.6             -1.3489e-009    4.491e-009      2.509e-010     
  4.65            -4.613e-010     -1.9008e-008    1.7632e-009    
  4.7             1.3701e-009     -8.255e-009     2.4464e-009    
  4.75            1.2207e-009     1.8816e-008     -1.6315e-009   
  4.8             -1.3451e-009    4.394e-009      2.525e-010     
  4.85            -4.614e-010     -1.9068e-008    1.77e-009      
  4.9             1.373e-009      -8.213e-009     2.4421e-009    
  4.95            1.2238e-009     1.8741e-008     -1.6347e-009   
  5               -1.3453e-009    4.388e-009      2.517e-010     
END_DB

BEGIN_DB
 ICCAP_VAR VG         1              
 ICCAP_VAR VS         0              
 ICCAP_VAR VB         0              

 #VD              ID              IB              IG             
  0               -4.46e-007      -1.6962e-008    2.0269e-009    
  0.05            2.7367e-005     1.055e-008      -3.791e-010    
  0.1             4.9458e-005     1.6614e-008     -1.5452e-009   
  0.15            6.5814e-005     1.1332e-008     -2.2161e-009   
  0.2             7.637e-005      7.99e-009       1.9878e-009    
  0.25            8.267e-005      -1.9122e-008    2.7656e-009    
  0.3             8.6373e-005     -1.3885e-008    2.3206e-009    
  0.35            8.8618e-005     -1.5055e-008    1.6542e-009    
  0.4             8.9675e-005     -1.3315e-008    2.4175e-009    
  0.45            9.0769e-005     -1.675e-008     1.7678e-009    
  0.5             9.1106e-005     -1.2661e-008    2.5099e-009    
  0.55            9.1952e-005     -1.8424e-008    1.8885e-009    
  0.6             9.2031e-005     -1.1737e-008    2.5847e-009    
  0.65            9.256e-005      -1.6541e-008    1.8001e-009    
  0.7             9.2802e-005     -2.1763e-008    2.6509e-009    
  0.75            9.3207e-005     -1.5847e-008    1.9171e-009    
  0.8             9.3311e-005     -1.1459e-008    2.5997e-009    
  0.85            9.3792e-005     -1.6408e-008    1.8242e-009    
  0.9             9.3857e-005     -1.2227e-008    2.5478e-009    
  0.95            9.4253e-005     -1.6704e-008    1.7444e-009    
  1               9.4367e-005     -1.2839e-008    2.4822e-009    
  1.05            9.471e-005      -1.7157e-008    1.6572e-009    
  1.1             9.4926e-005     -2.2501e-008    2.5643e-009    
  1.15            9.523e-005      -1.6554e-008    1.7619e-009    
  1.2             9.5279e-005     -1.2631e-008    2.5111e-009    
  1.25            9.5619e-005     -1.6981e-008    1.6871e-009    
  1.3             9.566e-005      -1.3285e-008    2.4477e-009    
  1.35            9.6024e-005     -1.7217e-008    1.6054e-009    
  1.4             9.6239e-005     -2.2672e-008    2.5294e-009    
  1.45            9.6459e-005     -1.677e-008     1.7138e-009    
  1.5             9.6605e-005     -2.2144e-008    2.6076e-009    
  1.55            9.6895e-005     -1.6302e-008    1.8358e-009    
  1.6             9.6862e-005     -1.2174e-008    2.5525e-009    
  1.65            9.7277e-005     -1.6877e-008    1.7433e-009    
  1.7             9.7365e-005     -2.1932e-008    2.6219e-009    
  1.75            9.7674e-005     -1.6305e-008    1.8699e-009    
  1.8             9.7657e-005     -1.1887e-008    2.5664e-009    
  1.85            9.8069e-005     -1.6733e-008    1.7782e-009    
  1.9             9.8042e-005     -1.2579e-008    2.5191e-009    
  1.95            9.8345e-005     -1.6913e-008    1.693e-009     
  2               9.8476e-005     -2.2436e-008    2.5898e-009    
  2.05            9.8728e-005     -1.6522e-008    1.8055e-009    
  2.1             9.8824e-005     -2.1588e-008    2.6551e-009    
  2.15            9.91e-005       -1.5847e-008    1.9334e-009    
  2.2             9.9757e-005     -9.302e-009     -8.904e-010    
  2.25            0.000100389     8.324e-009      -2.638e-009    
  2.3             0.000100803     1.0164e-008     -2.3724e-009   
  2.35            0.000100819     1.52e-008       -1.6419e-009   
  2.4             0.000101106     1.0507e-008     -2.3097e-009   
  2.45            0.000101125     1.5765e-008     -1.5747e-009   
  2.5             0.000101367     1.0759e-008     -2.2483e-009   
  2.55            0.000100222     7.259e-009      1.9598e-009    
  2.6             0.000100565     -1.9246e-008    1.4313e-009    
  2.65            0.000100785     -2.3616e-008    2.359e-009     
  2.7             0.000101254     -1.0781e-008    -6.376e-010    
  2.75            0.000102097     4.314e-009      -2.6132e-009   
  2.8             0.000102421     8.244e-009      -2.5703e-009   
  2.85            0.000102584     1.0203e-008     -2.0205e-009   
  2.9             0.000102707     7.184e-009      -2.5413e-009   
  2.95            0.000102894     9.351e-009      -1.9457e-009   
  3               0.000103091     5.67e-009       -2.5105e-009   
  3.05            0.000103205     8.018e-009      -1.8648e-009   
  3.1             0.000103369     3.243e-009      -2.468e-009    
  3.15            0.000103506     6.106e-009      -1.7809e-009   
  3.2             0.000103751     4.86e-010       -2.4223e-009   
  3.25            0.000103137     -1.6992e-008    -2.6242e-009   
  3.3             0.000103216     -2.156e-008     -2.1719e-009   
  3.35            0.000103394     -1.6241e-008    -2.4543e-009   
  3.4             0.000102552     -1.0297e-008    1.7753e-009    
  3.45            0.000103151     -3.1356e-008    4.2e-011       
  3.5             0.000104107     -2.3063e-008    -1.7186e-009   
  3.55            0.000103727     -2.1399e-008    2.2408e-009    
  3.6             0.000103955     -4.2555e-008    -5.541e-010    
  3.65            0.000104961     -1.8985e-008    -1.3943e-009   
  3.7             0.000104178     -3.5765e-008    2.4223e-009    
  3.75            0.000104623     -5.7763e-008    -8.612e-010    
  3.8             0.000105547     -3.1528e-008    -2.433e-009    
  3.85            0.000103851     -5.2585e-008    1.8088e-009    
  3.9             0.00010518      -7.8096e-008    -4.455e-010    
  3.95            0.0001057       -6.2287e-008    -1.4268e-009   
  4               0.00010506      -7.9053e-008    2.4722e-009    
  4.05            0.00010516      -1.03237e-007   2.6639e-009    
  4.1             0.00010598      -1.1341e-007    2.6761e-009    
  4.15            0.00010623      -1.2565e-007    -1.8723e-009   
  4.2             0.00010656      -1.1924e-007    1.642e-010     
  4.25            0.00010574      -1.581e-007     1.7449e-009    
  4.3             0.00010628      -1.6309e-007    -2.3197e-009   
  4.35            0.00010619      -1.6175e-007    8.122e-010     
  4.4             0.00010595      -2.1015e-007    2.4562e-009    
  4.45            0.00010686      -2.1204e-007    -1.991e-009    
  4.5             0.0001073       -2.1251e-007    3.887e-010     
  4.55            0.00010663      -2.6095e-007    1.4278e-009    
  4.6             0.00010722      -2.7021e-007    -2.4979e-009   
  4.65            0.00010697      -2.7694e-007    1.004e-009     
  4.7             0.00010715      -3.3043e-007    2.1028e-009    
  4.75            0.00010762      -3.4241e-007    -2.1404e-009   
  4.8             0.00010795      -3.5093e-007    6.108e-010     
  4.85            0.00010763      -4.1222e-007    2.6764e-009    
  4.9             0.00010857      -4.2898e-007    -1.8822e-009   
  4.95            0.00010891      -4.4052e-007    1.746e-010     
  5               0.00010813      -5.0134e-007    1.7194e-009    
END_DB

BEGIN_DB
 ICCAP_VAR VG         2              
 ICCAP_VAR VS         0              
 ICCAP_VAR VB         0              

 #VD              ID              IB              IG             
  0               -1.432e-006     1.6254e-008     1.0073e-009    
  0.05            7.6665e-005     -1.6614e-008    8.223e-010     
  0.1             0.00015286      -1.437e-008     -3.18e-010     
  0.15            0.00022815      1.7034e-008     -1.4485e-009   
  0.2             0.00030266      1.3058e-008     -1.9198e-009   
  0.25            0.00037597      1.0266e-008     -2.4002e-009   
  0.3             0.0004482       7.648e-009      1.9607e-009    
  0.35            0.00051947      -8.78e-009      2.7461e-009    
  0.4             0.00058972      -1.5491e-008    1.9314e-009    
  0.45            0.00065864      -2.2297e-008    2.6277e-009    
  0.5             0.00072664      -1.7842e-008    1.8355e-009    
  0.55            0.00079299      -2.2861e-008    2.5747e-009    
  0.6             0.00085839      -1.6505e-008    1.7472e-009    
  0.65            0.00092255      -8.45e-009      -1.0724e-009   
  0.7             0.00098498      1.0389e-008     -2.5278e-009   
  0.75            0.00104564      1.4783e-008     -1.6998e-009   
  0.8             0.00110463      1.13e-008       -2.2208e-009   
  0.85            0.0011622       -1.301e-009     -1.9371e-009   
  0.9             0.0012176       1.0327e-008     -2.4165e-009   
  0.95            0.001271        1.622e-008      -1.5325e-009   
  1               0.0013212       7.107e-009      1.0591e-009    
  1.05            0.0013701       -1.0509e-008    2.6645e-009    
  1.1             0.001417        -1.67e-008      1.7199e-009    
  1.15            0.0014611       -1.4094e-008    2.3033e-009    
  1.2             0.0015031       -9.998e-009     2.6939e-009    
  1.25            0.0015422       -1.6517e-008    1.7922e-009    
  1.3             0.0015788       -2.2792e-008    2.5331e-009    
  1.35            0.0016127       -1.5874e-008    1.7018e-009    
  1.4             0.0016434       -2.315e-008     2.4629e-009    
  1.45            0.0016727       -9.579e-009     -6.922e-010    
  1.5             0.0016992       7.727e-009      -2.6379e-009   
  1.55            0.0017222       1.0507e-008     -2.3338e-009   
  1.6             0.0017422       1.7173e-008     -1.4516e-009   
  1.65            0.0017604       1.3205e-008     -1.9054e-009   
  1.7             0.0017765       1.0251e-008     -2.3848e-009   
  1.75            0.0017876       7.654e-009      1.9747e-009    
  1.8             0.0017988       -8.987e-009     2.7339e-009    
  1.85            0.0018097       -1.6002e-008    1.914e-009     
  1.9             0.0018183       -2.2356e-008    2.6081e-009    
  1.95            0.0018267       -1.7129e-008    1.6229e-009    
  2               0.0018333       -1.4566e-008    2.2003e-009    
  2.05            0.0018414       -9.403e-009     -8.572e-010    
  2.1             0.0018482       9.011e-009      -2.6266e-009   
  2.15            0.0018537       1.2108e-008     -2.1055e-009   
  2.2             0.0018581       1.0101e-008     -2.4974e-009   
  2.25            0.001862        1.519e-008      -1.6487e-009   
  2.3             0.0018659       1.1741e-008     -2.1681e-009   
  2.35            0.0018697       1.0281e-008     -2.53e-009     
  2.4             0.0018727       1.4657e-008     -1.7061e-009   
  2.45            0.0018761       1.1306e-008     -2.2215e-009   
  2.5             0.0018789       1.0183e-008     -2.5497e-009   
  2.55            0.0018818       1.4265e-008     -1.7658e-009   
  2.6             0.0018845       1.0894e-008     -2.2753e-009   
  2.65            0.0018868       1.7879e-008     -1.4092e-009   
  2.7             0.0018891       1.3782e-008     -1.8277e-009   
  2.75            0.0018918       1.0507e-008     -2.3274e-009   
  2.8             0.0018911       7.467e-009      2.0122e-009    
  2.85            0.0018924       -9.546e-009     2.7108e-009    
  2.9             0.0018953       -1.638e-008     1.8317e-009    
  2.95            0.0018966       -2.2687e-008    2.5661e-009    
  3               0.0018998       -1.6693e-008    1.749e-009     
  3.05            0.001901        -1.3947e-008    2.3292e-009    
  3.1             0.0019052       -9.584e-009     -7.928e-010    
  3.15            0.0019086       8.194e-009      -2.6374e-009   
  3.2             0.0019109       1.1101e-008     -2.2139e-009   
  3.25            0.0019125       1.0101e-008     -2.5443e-009   
  3.3             0.001914        1.4177e-008     -1.7547e-009   
  3.35            0.0019162       1.0561e-008     -2.2697e-009   
  3.4             0.0019176       1.7484e-008     -1.4037e-009   
  3.45            0.0019197       1.3123e-008     -1.8188e-009   
  3.5             0.0019216       9.641e-009      -2.3195e-009   
  3.55            0.0019226       1.6028e-008     -1.4398e-009   
  3.6             0.0019244       1.1545e-008     -1.8868e-009   
  3.65            0.0019265       7.704e-009      -2.3666e-009   
  3.7             0.0019276       1.3311e-008     -1.4828e-009   
  3.75            0.0019295       8.254e-009      -1.9567e-009   
  3.8             0.0019311       4.1e-009        -2.411e-009    
  3.85            0.001931        -1.6589e-008    -2.0659e-009   
  3.9             0.0019344       -4.8e-011       -2.3595e-009   
  3.95            0.0019342       -1.759e-008     -2.6383e-009   
  4               0.0019319       -1.0007e-008    1.4382e-009    
  4.05            0.0019354       -3.2407e-008    2.425e-010     
  4.1             0.001939        -2.5866e-008    -1.8713e-009   
  4.15            0.001939        -2.6503e-008    2.2524e-009    
