! VERSION = 6.00
BEGIN_HEADER
 ICCAP_INPUTS
  VG         V  B GROUND SMU4 0.001 LIN        1    0          5          101  0.05      
  VS         V  E GROUND SMU2 0.1 CON        0
  VB         V  C GROUND SMU3 0.1 LIN        3    0          -5         3    -2.5      
  VD         V  S GROUND SMU1 0.1 LIN        2    0.1        5          2    4.9       
 ICCAP_OUTPUTS
  IG         I  B GROUND SMU4 B
  ID         I  S GROUND SMU1 B
  IB         I  C GROUND SMU3 B
END_HEADER

BEGIN_DB
 ICCAP_VAR VS         0              
 ICCAP_VAR VB         0              
 ICCAP_VAR VD         0.1            

 #VG              IG              ID              IB             
  0               9.889e-010      1.2576e-009     1.0448e-008    
  0.05            2.0353e-009     -4.495e-010     -1.7017e-008   
  0.1             2.3727e-009     1.3146e-009     -6.613e-009    
  0.15            -1.8523e-009    1.0498e-009     1.6177e-008    
  0.2             2.7778e-009     -1.3571e-009    3.681e-009     
  0.25            -1.83e-009      1.0705e-009     1.6624e-008    
  0.3             2.771e-009      -1.3251e-009    3.797e-009     
  0.35            -1.7975e-009    1.2351e-009     1.6771e-008    
  0.4             -1.5368e-009    4.532e-010      4.051e-009     
  0.45            -1.3717e-009    2.0382e-009     5.191e-009     
  0.5             -1.293e-009     7.4855e-009     7.153e-009     
  0.55            2.7179e-009     2.6222e-008     1.5685e-008    
  0.6             -2.0972e-009    9.5752e-008     1.2265e-008    
  0.65            8.605e-010      3.0929e-007     -1.4094e-008   
  0.7             -1.3496e-009    1.04686e-006    1.1838e-008    
  0.75            -1.4442e-009    2.9867e-006     -8.544e-009    
  0.8             1.9544e-009     7.3565e-006     -1.5332e-008   
  0.85            -2.1754e-009    1.5275e-005     -4.701e-009    
  0.9             2.599e-009      2.55e-005       -1.1794e-008   
  0.95            -2.5443e-009    3.779e-005      1.0497e-008    
  1               -2.0375e-009    4.9535e-005     1.004e-009     
  1.05            -1.4462e-009    6.0503e-005     3.147e-009     
  1.1             -2.6134e-009    7.0289e-005     5.906e-009     
  1.15            2.5179e-009     7.8802e-005     -2.3187e-008   
  1.2             -2.5023e-009    8.6877e-005     1.0435e-008    
  1.25            -1.9306e-009    9.3869e-005     1.147e-009     
  1.3             -1.3938e-009    0.00010025      3.556e-009     
  1.35            -2.6256e-009    0.000106043     6.701e-009     
  1.4             2.2471e-009     0.000111222     -1.4199e-008   
  1.45            -1.04e-010      0.00011628      1.0462e-008    
  1.5             -2.5413e-009    0.00012086      1.0339e-008    
  1.55            -2.0581e-009    0.00012498      9.37e-010      
  1.6             2.5123e-009     0.00012883      -2.283e-008    
  1.65            -2.4906e-009    0.0001326       1.0316e-008    
  1.7             -1.9372e-009    0.00013596      1.177e-009     
  1.75            -1.3965e-009    0.00013922      3.463e-009     
  1.8             -2.6322e-009    0.00014226      6.882e-009     
  1.85            -1.0221e-009    0.00014512      -8.77e-009     
  1.9             2.6469e-009     0.00014782      -1.0832e-008   
  1.95            -2.5682e-009    0.00015048      1.014e-008     
  2               1.6836e-009     0.00015285      -1.5671e-008   
  2.05            2.6499e-009     0.00015521      -8.595e-009    
  2.1             -2.283e-009     0.00015756      1.1008e-008    
  2.15            2.6653e-009     0.00015965      -1.0552e-008   
  2.2             -1.3388e-009    0.00016176      1.9595e-008    
  2.25            -2.6399e-009    0.0001637       7.927e-009     
  2.3             2.0557e-009     0.0001656       -1.5234e-008   
  2.35            2.5074e-009     0.00016736      -6.541e-009    
  2.4             -2.4977e-009    0.00016914      1.0279e-008    
  2.45            -1.9692e-009    0.00017079      1.055e-009     
  2.5             2.4374e-009     0.00017242      -2.2964e-008   
  2.55            1.7192e-009     0.00017398      -3.77e-009     
  2.6             2.6285e-009     0.00017548      -8.577e-009    
  2.65            -2.313e-009     0.00017701      1.0662e-008    
  2.7             2.6838e-009     0.00017833      -1.0127e-008   
  2.75            -1.3615e-009    0.00017972      1.916e-008     
  2.8             -2.643e-009     0.00018101      7.728e-009     
  2.85            2.1127e-009     0.00018231      -1.4829e-008   
  2.9             2.4887e-009     0.00018346      -6.389e-009    
  2.95            -2.519e-009     0.00018469      1.0398e-008    
  3               -2.0033e-009    0.00018579      9.13e-010      
  3.05            -1.4453e-009    0.00018694      3.122e-009     
  3.1             -2.6223e-009    0.00018803      6.493e-009     
  3.15            -9.846e-010     0.00018905      -8.968e-009    
  3.2             2.6769e-009     0.00019006      -1.0435e-008   
  3.25            -1.3538e-009    0.00019106      1.9278e-008    
  3.3             -2.6363e-009    0.00019199      8.06e-009      
  3.35            2.0886e-009     0.00019297      -1.5063e-008   
  3.4             2.4946e-009     0.00019384      -6.376e-009    
  3.45            -2.5087e-009    0.00019475      1.016e-008     
  3.5             -1.9831e-009    0.00019556      1.083e-009     
  3.55            2.4556e-009     0.0001964       -2.2871e-008   
  3.6             1.7473e-009     0.00019721      -3.794e-009    
  3.65            2.6249e-009     0.00019798      -8.498e-009    
  3.7             -2.3332e-009    0.00019881      1.0699e-008    
  3.75            2.6937e-009     0.00019952      -9.933e-009    
  3.8             -1.3709e-009    0.00020024      1.8987e-008    
  3.85            -2.6344e-009    0.00020091      7.837e-009     
  3.9             2.137e-009      0.00020163      -1.4862e-008   
  3.95            2.4801e-009     0.00020227      -5.989e-009    
  4               -1.3619e-009    0.00020296      1.9055e-008    
  4.05            -2.6393e-009    0.00020356      7.749e-009     
  4.1             2.1114e-009     0.00020423      -1.4834e-008   
  4.15            2.4849e-009     0.0002048       -6.147e-009    
  4.2             -2.5192e-009    0.00020538      1.04e-008      
  4.25            -2.0071e-009    0.00020592      1.011e-009     
  4.3             2.4743e-009     0.00020653      -1.3022e-008   
  4.35            2.5071e-009     0.00020698      5.871e-009     
  4.4             -2.5117e-009    0.00020761      1.0257e-008    
  4.45            -1.9923e-009    0.00020805      1.054e-009     
  4.5             2.4566e-009     0.0002086       -1.3113e-008   
  4.55            1.7437e-009     0.00020908      -3.696e-009    
  4.6             2.6215e-009     0.00020956      -8.554e-009    
  4.65            -2.3356e-009    0.00021006      1.0576e-008    
  4.7             -8.022e-010     0.00021048      -9.488e-009    
  4.75            1.5657e-009     0.00021088      -1.384e-008    
  4.8             2.6941e-009     0.00021135      -8.628e-009    
  4.85            -2.1629e-009    0.0002118       1.1656e-008    
  4.9             2.5838e-009     0.00021223      -2.2363e-008   
  4.95            -2.5313e-009    0.00021264      1.0387e-008    
  5               -2.035e-009     0.00021296      9.86e-010      
END_DB

BEGIN_DB
 ICCAP_VAR VS         0              
 ICCAP_VAR VB         0              
 ICCAP_VAR VD         5              

 #VG              IG              ID              IB             
  0               9.974e-010      1.3469e-009     1.0929e-008    
  0.05            2.0368e-009     -3.586e-010     -1.7073e-008   
  0.1             2.3712e-009     1.404e-009      -6.657e-009    
  0.15            -1.8614e-009    1.1253e-009     1.614e-008     
  0.2             2.4445e-009     1.3806e-009     -1.3756e-008   
  0.25            -1.6574e-009    1.2361e-009     1.8239e-008    
  0.3             2.584e-010      -1.2841e-009    4.424e-009     
  0.35            1.7882e-009     -2.622e-010     -1.8663e-008   
  0.4             2.446e-009      2.0461e-009     -8.233e-009    
  0.45            -1.6507e-009    3.8013e-009     1.8196e-008    
  0.5             -1.4363e-009    9.3023e-009     4.291e-009     
  0.55            2.5593e-009     3.3189e-008     1.2327e-008    
  0.6             2.7421e-009     1.149e-007      -9.911e-009    
  0.65            -1.4051e-009    4.2653e-007     1.5122e-008    
  0.7             -1.6281e-009    1.3768e-006     -1.8254e-008   
  0.75            -1.2912e-009    3.9217e-006     -2.0594e-008   
  0.8             -2.6387e-009    1.02581e-005    -5.2306e-008   
  0.85            -8.667e-010     2.2249e-005     -1.3264e-007   
  0.9             -1.9547e-009    4.2524e-005     -1.9246e-007   
  0.95            -1.3964e-009    7.1083e-005     -3.4124e-007   
  1               -2.6219e-009    0.000109304     -4.7901e-007   
  1.05            -1.9731e-009    0.00015589      -6.4504e-007   
  1.1             -1.4125e-009    0.00021098      -7.8011e-007   
  1.15            -2.6197e-009    0.00027379      -9.1172e-007   
  1.2             -2.5982e-009    0.00034191      -1.03678e-006  
  1.25            -2.191e-009     0.00041722      -1.12878e-006  
  1.3             -1.9477e-009    0.00049765      -1.2091e-006   
  1.35            -2.2362e-009    0.00058273      -1.2516e-006   
  1.4             -2.5458e-009    0.00067231      -1.2712e-006   
  1.45            -2.6433e-009    0.00076562      -1.2676e-006   
  1.5             -2.4876e-009    0.00086239      -1.2425e-006   
  1.55            -1.9196e-009    0.00096281      -1.2014e-006   
  1.6             -1.3887e-009    0.00106573      -1.1455e-006   
  1.65            2.5988e-009     0.0011701       -1.0847e-006   
  1.7             1.9349e-009     0.0012771       -1.0114e-006   
  1.75            -2.6137e-009    0.0013885       -9.3383e-007   
  1.8             -2.62e-009      0.0014998       -8.4773e-007   
  1.85            -2.2577e-009    0.0016136       -7.6115e-007   
  1.9             -1.6125e-009    0.0017294       -6.7626e-007   
  1.95            -2.5653e-009    0.001846        -5.9334e-007   
  2               -2.6419e-009    0.0019625       -5.2433e-007   
  2.05            -2.43e-009      0.0020814       -4.4955e-007   
  2.1             -1.8257e-009    0.0022021       -3.8167e-007   
  2.15            -1.3502e-009    0.0023232       -3.1914e-007   
  2.2             -2.6408e-009    0.0024456       -2.6209e-007   
  2.25            -2.5518e-009    0.0025669       -2.2297e-007   
  2.3             -2.0493e-009    0.0026907       -1.7989e-007   
  2.35            -1.4551e-009    0.002815        -1.4288e-007   
  2.4             -2.6084e-009    0.0029402       -1.1052e-007   
  2.45            -1.4478e-009    0.0030646       -7.707e-008    
  2.5             2.4231e-009     0.0031876       -9.4469e-008   
  2.55            1.6749e-009     0.0033157       -5.9343e-008   
  2.6             2.6273e-009     0.0034418       -5.0497e-008   
  2.65            2.7975e-009     0.0035694       -2.9229e-008   
  2.7             2.5947e-009     0.0036964       -2.4991e-008   
  2.75            1.9277e-009     0.0038224       -2.0451e-008   
  2.8             2.534e-009      0.0039492       -2.0023e-008   
  2.85            2.7663e-009     0.0040774       -5.818e-009    
  2.9             2.7171e-009     0.0042047       -7.495e-009    
  2.95            2.1768e-009     0.0043312       -6.931e-009    
  3               1.4821e-009     0.0044579       -8.808e-009    
  3.05            2.7022e-009     0.004584        -1.0699e-008   
  3.1             -2.11e-009      0.004714        1.017e-008     
  3.15            2.5578e-009     0.0048359       -2.4456e-008   
  3.2             -2.5249e-009    0.004965        9.669e-009     
  3.25            -1.9717e-009    0.0050883       5.47e-010      
  3.3             -9.991e-010     0.0052117       -9.128e-009    
  3.35            2.6747e-009     0.0053309       -1.1027e-008   
  3.4             -2.5904e-009    0.0054556       1.0056e-008    
  3.45            1.7191e-009     0.0055718       -1.6145e-008   
  3.5             2.621e-009      0.0056878       -8.548e-009    
  3.55            -2.3178e-009    0.0058053       1.0467e-008    
  3.6             -1.661e-009     0.0059165       2.012e-009     
  3.65            -1.3052e-009    0.0060253       4.403e-009     
  3.7             -2.6428e-009    0.006131        8.374e-009     
  3.75            1.9327e-009     0.00623         -1.5408e-008   
  3.8             2.5366e-009     0.006328        -7.172e-009    
  3.85            -2.4627e-009    0.006424        1.0247e-008    
  3.9             -1.8566e-009    0.0065136       1.249e-009     
  3.95            -1.3654e-009    0.0065999       3.679e-009     
  4               -2.629e-009     0.0066822       7.104e-009     
  4.05            2.1628e-009     0.0067579       -1.4435e-008   
  4.1             2.4534e-009     0.0068329       -5.951e-009    
  4.15            -1.3688e-009    0.0069051       1.8839e-008    
  4.2             -2.6366e-009    0.0069729       7.166e-009     
  4.25            2.3677e-009     0.0070363       -2.3383e-008   
  4.3             1.6168e-009     0.0070977       -4.421e-009    
  4.35            2.6512e-009     0.0071558       -8.649e-009    
  4.4             -2.2549e-009    0.007213        1.1062e-008    
  4.45            2.6581e-009     0.0072649       -1.1044e-008   
  4.5             -2.5868e-009    0.0073175       1.0267e-008    
  4.55            1.6886e-009     0.0073651       -1.5547e-008   
  4.6             2.6339e-009     0.0074118       -8.561e-009    
  4.65            -2.3e-009       0.0074579       1.0846e-008    
  4.7             2.6862e-009     0.0074996       -1.046e-008    
  4.75            -1.3427e-009    0.0075422       1.9393e-008    
  4.8             -2.6421e-009    0.007582        7.691e-009     
  4.85            2.2995e-009     0.0076198       -2.2919e-008   
  4.9             1.5532e-009     0.0076569       -5.044e-009    
  4.95            2.6785e-009     0.0076925       -8.671e-009    
  5               -2.1912e-009    0.007728        1.1481e-008    
END_DB

BEGIN_DB
 ICCAP_VAR VS         0              
 ICCAP_VAR VB         -2.5           
 ICCAP_VAR VD         0.1            

 #VG              IG              ID              IB             
  0               -4.211e-010     8.262e-010      -1.911e-008    
  0.05            -1.9184e-009    1.0531e-009     1.5315e-008    
  0.1             1.5863e-009     -1.2868e-009    3.197e-009     
  0.15            2.5162e-009     1.3151e-009     -8.464e-009    
  0.2             -2.6327e-009    5.321e-010      1.0703e-008    
  0.25            2.0729e-009     -3.695e-010     -1.6722e-008   
  0.3             2.3523e-009     1.38e-009       -6.085e-009    
  0.35            -1.8885e-009    1.0663e-009     1.5626e-008    
  0.4             1.5557e-009     -1.2959e-009    3.375e-009     
  0.45            2.5288e-009     1.3109e-009     -8.403e-009    
  0.5             -2.6251e-009    5.465e-010      1.0568e-008    
  0.55            2.0366e-009     -3.792e-010     -1.6714e-008   
  0.6             2.3649e-009     1.3783e-009     -6.392e-009    
  0.65            -1.8585e-009    1.079e-009      1.5794e-008    
  0.7             1.5367e-009     -1.3023e-009    3.533e-009     
  0.75            2.5427e-009     1.3063e-009     -8.601e-009    
  0.8             -2.6215e-009    5.611e-010      1.0468e-008    
  0.85            2.0069e-009     -3.811e-010     -1.7017e-008   
  0.9             2.371e-009      1.4399e-009     -6.487e-009    
  0.95            -1.8301e-009    1.4387e-009     1.6226e-008    
  1               -1.5626e-009    1.5236e-009     3.412e-009     
  1.05            -1.3972e-009    7.3009e-009     4.588e-009     
  1.1             2.345e-009      2.7794e-008     7.642e-009     
  1.15            1.6167e-009     9.8593e-008     -4.141e-009    
  1.2             -1.2365e-009    3.4129e-007     1.5577e-008    
  1.25            -2.0947e-009    1.1301e-006     -1.2869e-008   
  1.3             2.0523e-009     3.4549e-006     -1.4292e-008   
  1.35            2.4819e-009     8.798e-006      -6.264e-009    
  1.4             -9.486e-010     1.8194e-005     1.6211e-008    
  1.45            2.433e-010      3.0227e-005     -1.0652e-008   
  1.5             1.4213e-009     4.3392e-005     -1.9088e-008   
  1.55            2.739e-009      5.5877e-005     -8.366e-009    
  1.6             -1.9814e-009    6.7273e-005     1.1898e-008    
  1.65            -1.4195e-009    7.6899e-005     2.962e-009     
  1.7             -2.6159e-009    8.5369e-005     6.064e-009     
  1.75            -9.823e-010     9.2729e-005     -8.823e-009    
  1.8             2.6946e-009     9.9165e-005     -1.0549e-008   
  1.85            -1.3506e-009    0.000105236     2.0068e-008    
  1.9             -2.6447e-009    0.000110535     7.534e-009     
  1.95            -2.71e-011      0.0001153       -1.1672e-008   
  2               2.6376e-009     0.00011977      -1.1232e-008   
  2.05            6.288e-010      0.00012395      8.159e-009     
  2.1             -1.5549e-009    0.00012775      1.5401e-008    
  2.15            -2.5698e-009    0.00013124      4.661e-009     
  2.2             2.6388e-009     0.00013448      -2.3083e-008   
  2.25            -2.5823e-009    0.0001376       1.0749e-008    
  2.3             1.4913e-009     0.00014041      -1.8363e-008   
  2.35            2.7063e-009     0.00014312      -8.512e-009    
  2.4             -2.0706e-009    0.00014574      1.135e-008     
  2.45            2.533e-009      0.00014808      -2.3568e-008   
  2.5             -2.521e-009     0.00015049      1.081e-008     
  2.55            -1.9372e-009    0.00015264      1.278e-009     
  2.6             -1.4144e-009    0.00015472      2.908e-009     
  2.65            -2.6218e-009    0.00015673      6.189e-009     
  2.7             2.4559e-009     0.0001586       -2.3597e-008   
  2.75            1.7341e-009     0.00016043      -3.508e-009    
  2.8             2.5887e-009     0.00016214      -8.196e-009    
  2.85            -2.3471e-009    0.00016388      1.0382e-008    
  2.9             -1.6878e-009    0.0001654       1.966e-009     
  2.95            -2.6201e-009    0.00016698      -5.072e-009    
  3               2.4764e-009     0.00016839      -2.3494e-008   
  3.05            -2.4803e-009    0.00016986      1.06e-008      
  3.1             -1.8755e-009    0.00017117      1.149e-009     
  3.15            -1.3896e-009    0.00017251      3.177e-009     
  3.2             -2.6339e-009    0.00017379      6.919e-009     
  3.25            2.3964e-009     0.00017502      -2.3266e-008   
  3.3             1.6744e-009     0.00017619      -3.806e-009    
  3.35            2.6174e-009     0.0001773       -8.43e-009     
  3.4             -2.2884e-009    0.00017848      1.0411e-008    
  3.45            -1.6303e-009    0.00017949      2.171e-009     
  3.5             -1.315e-009     0.00018054      4.237e-009     
  3.55            -2.6559e-009    0.00018155      8.525e-009     
  3.6             2.1323e-009     0.00018252      -2.0957e-008   
  3.65            1.468e-009      0.00018343      -5.476e-009    
  3.7             2.7221e-009     0.00018435      -8.521e-009    
  3.75            -2.0519e-009    0.0001853       1.1412e-008    
  3.8             2.5162e-009     0.0001861       -2.3494e-008   
  3.85            -2.5121e-009    0.00018695      1.0556e-008    
  3.9             -1.9323e-009    0.00018772      1.113e-009     
  3.95            -1.4136e-009    0.00018852      3.063e-009     
  4               -2.623e-009     0.00018929      6.217e-009     
  4.05            2.4495e-009     0.00019002      -2.337e-008    
  4.1             1.7319e-009     0.00019073      -3.529e-009    
  4.15            2.5925e-009     0.00019143      -8.174e-009    
