! VERSION = 6.00
BEGIN_HEADER
 ICCAP_INPUTS
  VG         V  B GROUND SMU4 0.001 LIN        1    0          5          101  0.05      
  VS         V  E GROUND SMU3 0.1 CON        0
  VB         V  C GROUND SMU1 0.1 LIN        3    0          -5         3    -2.5      
  VD         V  S GROUND SMU2 0.1 LIN        2    0.1        10         2    9.9       
 ICCAP_OUTPUTS
  IG         I  B GROUND SMU4 B
  ID         I  S GROUND SMU2 B
  IB         I  C GROUND SMU1 B
END_HEADER

BEGIN_DB
 ICCAP_VAR VS         0              
 ICCAP_VAR VB         0              
 ICCAP_VAR VD         0.1            

 #VG              IG              ID              IB             
  0               -4.409e-010     -2.253e-009     1.2107e-008    
  0.05            1.3609e-009     -1.4973e-009    -1.3145e-008   
  0.1             -1.3707e-009    1.4857e-009     1.2905e-008    
  0.15            1.3735e-009     -8.236e-010     -1.3465e-008   
  0.2             -1.3618e-009    7.804e-010      1.2819e-008    
  0.25            1.3459e-009     -1.2198e-009    -1.2629e-008   
  0.3             -1.3382e-009    1.3046e-009     1.212e-008     
  0.35            -1.307e-009     2.1243e-009     1.2069e-008    
  0.4             1.1458e-009     2.3705e-009     -7.766e-009    
  0.45            -1.3593e-009    3.3922e-009     1.1785e-008    
  0.5             1.3604e-009     7.1928e-009     -1.3143e-008   
  0.55            1.3687e-009     3.1641e-008     1.201e-008     
  0.6             1.3662e-009     1.0997e-007     4.679e-009     
  0.65            1.3254e-009     3.8993e-007     -5.888e-009    
  0.7             -1.3057e-009    1.2973e-006     -1.3255e-008   
  0.75            1.372e-009      3.7092e-006     -1.3011e-008   
  0.8             -1.3214e-009    9.0539e-006     1.2715e-008    
  0.85            -1.1894e-009    1.798e-005      1.2059e-008    
  0.9             1.353e-009      3.0221e-005     -1.1654e-008   
  0.95            -1.3729e-009    4.4649e-005     1.3139e-008    
  1               1.3091e-009     5.9563e-005     -1.2877e-008   
  1.05            -1.3764e-009    7.4909e-005     1.1821e-008    
  1.1             1.3366e-009     8.9419e-005     -1.3025e-008   
  1.15            -1.3646e-009    0.000103735     1.2418e-008    
  1.2             7.898e-010      0.00011697      1.28e-008      
  1.25            -1.3173e-009    0.00012976      1.2662e-008    
  1.3             1.3717e-009     0.00014155      -1.1919e-008   
  1.35            -1.326e-009     0.000153        1.2808e-008    
  1.4             1.3684e-009     0.00016358      -1.2341e-008   
  1.45            -1.3347e-009    0.00017383      1.2938e-008    
  1.5             1.3619e-009     0.00018326      -1.2596e-008   
  1.55            -1.3442e-009    0.00019249      1.2906e-008    
  1.6             1.3443e-009     0.000201        -1.2782e-008   
  1.65            -1.3767e-009    0.00020932      1.3009e-008    
  1.7             1.3222e-009     0.00021707      -1.2369e-008   
  1.75            -1.3735e-009    0.00022462      1.2208e-008    
  1.8             1.3371e-009     0.00023167      -1.3064e-008   
  1.85            -1.3563e-009    0.00023859      1.2431e-008    
  1.9             1.3535e-009     0.00024504      -1.3251e-008   
  1.95            -1.3041e-009    0.00025136      1.2554e-008    
  2               1.3704e-009     0.0002573       -1.2937e-008   
  2.05            -1.3179e-009    0.00026312      1.2804e-008    
  2.1             1.3713e-009     0.00026857      -1.2243e-008   
  2.15            -1.3278e-009    0.00027395      1.2816e-008    
  2.2             1.3621e-009     0.00027901      -1.2536e-008   
  2.25            -1.3444e-009    0.00028401      1.2883e-008    
  2.3             1.3481e-009     0.00028868      -1.2741e-008   
  2.35            -1.3709e-009    0.00029328      1.291e-008     
  2.4             1.3109e-009     0.00029762      -1.2884e-008   
  2.45            -1.3724e-009    0.00030198      1.1708e-008    
  2.5             1.3324e-009     0.00030602      -1.3133e-008   
  2.55            -1.361e-009     0.00031004      1.2402e-008    
  2.6             1.3458e-009     0.00031388      -1.3272e-008   
  2.65            -1.3034e-009    0.00031767      1.2589e-008    
  2.7             1.3723e-009     0.00032118      -1.3023e-008   
  2.75            -1.3162e-009    0.00032472      1.2764e-008    
  2.8             1.3721e-009     0.00032803      -1.2051e-008   
  2.85            -1.3282e-009    0.00033133      1.2827e-008    
  2.9             1.3655e-009     0.00033443      -1.2426e-008   
  2.95            -1.3404e-009    0.00033753      1.3008e-008    
  3               1.3522e-009     0.00034045      -1.2691e-008   
  3.05            -1.3548e-009    0.0003434       1.3043e-008    
  3.1             1.302e-009      0.00034608      -1.2871e-008   
  3.15            -1.3788e-009    0.00034882      1.2622e-008    
  3.2             1.3157e-009     0.00035138      -1.3054e-008   
  3.25            -1.3809e-009    0.00035399      1.1982e-008    
  3.3             1.3292e-009     0.00035638      -1.3014e-008   
  3.35            -1.3725e-009    0.00035879      1.2381e-008    
  3.4             1.3449e-009     0.0003611       -1.3174e-008   
  3.45            -1.3529e-009    0.00036337      1.2575e-008    
  3.5             1.3719e-009     0.00036554      -1.3217e-008   
  3.55            -1.3178e-009    0.00036768      1.2592e-008    
  3.6             1.375e-009      0.00036972      -1.193e-008    
  3.65            -1.3243e-009    0.00037175      1.2787e-008    
  3.7             1.3735e-009     0.00037373      -1.2369e-008   
  3.75            -1.3412e-009    0.00037562      1.269e-008     
  3.8             1.3597e-009     0.00037743      -1.2705e-008   
  3.85            -1.3572e-009    0.00037928      1.2741e-008    
  3.9             1.3397e-009     0.00038096      -1.2822e-008   
  3.95            -1.3796e-009    0.00038268      1.273e-008     
  4               1.3202e-009     0.00038427      -1.29e-008     
  4.05            -1.381e-009     0.0003859       1.1972e-008    
  4.1             1.3286e-009     0.00038742      -1.2893e-008   
  4.15            -1.3759e-009    0.00038896      1.2329e-008    
  4.2             1.3443e-009     0.00039038      -1.2892e-008   
  4.25            -1.3603e-009    0.00039187      1.254e-008     
  4.3             1.3555e-009     0.00039323      -1.3054e-008   
  4.35            -1.3402e-009    0.00039458      1.2637e-008    
  4.4             1.3726e-009     0.00039587      -1.2765e-008   
  4.45            -1.3262e-009    0.00039719      1.2715e-008    
  4.5             1.373e-009      0.00039838      -1.2239e-008   
  4.55            -1.3518e-009    0.00039963      1.2684e-008    
  4.6             1.3433e-009     0.00040073      -1.2773e-008   
  4.65            -1.3802e-009    0.0004019       1.2857e-008    
  4.7             1.3193e-009     0.00040299      -1.2896e-008   
  4.75            -1.3774e-009    0.00040412      1.1839e-008    
  4.8             1.3457e-009     0.00040509      -1.2845e-008   
  4.85            -1.3534e-009    0.00040614      1.256e-008     
  4.9             1.3694e-009     0.00040715      -1.3112e-008   
  4.95            -1.322e-009     0.00040813      1.2548e-008    
  5               1.3681e-009     0.00040905      -1.2235e-008   
END_DB

BEGIN_DB
 ICCAP_VAR VS         0              
 ICCAP_VAR VB         0              
 ICCAP_VAR VD         10             

 #VG              IG              ID              IB             
  0               2.942e-010      2.2341e-009     -1.3088e-008   
  0.05            -1.3211e-009    1.7966e-009     1.2632e-008    
  0.1             1.3278e-009     -1.7172e-009    -1.2957e-008   
  0.15            -1.336e-009     1.7109e-009     1.2639e-008    
  0.2             1.341e-009      -1.6334e-009    -1.2836e-008   
  0.25            -1.3538e-009    1.6452e-009     1.2698e-008    
  0.3             1.3555e-009     -1.485e-009     -1.2957e-008   
  0.35            -1.3675e-009    1.8029e-009     1.2744e-008    
  0.4             1.3686e-009     2.2241e-009     -4.71e-009     
  0.45            -1.3433e-009    3.8466e-009     1.1819e-008    
  0.5             6.595e-010      1.335e-008      1.589e-009     
  0.55            1.3352e-009     3.7623e-008     -1.6614e-008   
  0.6             -1.2807e-009    1.4157e-007     -1.9428e-008   
  0.65            -1.0255e-009    5.0241e-007     -8.7441e-008   
  0.7             -6.073e-010     1.667e-006      -2.6671e-007   
  0.75            1.3757e-009     4.9502e-006     -7.9592e-007   
  0.8             1.0157e-009     1.2649e-005     -1.9888e-006   
  0.85            -1.3795e-009    2.7927e-005     -4.2163e-006   
  0.9             -6.544e-010     5.402e-005      -8.0181e-006   
  0.95            -1.302e-009     9.3419e-005     -1.3512e-005   
  1               -5.719e-010     0.00014577      -2.0886e-005   
  1.05            1.3629e-009     0.00021637      -3.0687e-005   
  1.1             5.73e-010       0.00030531      -4.2235e-005   
  1.15            -1.374e-009     0.00041065      -5.5595e-005   
  1.2             -5.778e-010     0.00054829      -7.2349e-005   
  1.25            1.3662e-009     0.00068835      -8.8273e-005   
  1.3             6.818e-010      0.00086415      -0.00010422    
  1.35            -1.3712e-009    0.00083263      -0.00010077    
  1.4             -6.863e-010     0.00091661      -0.00010841    
  1.45            1.3623e-009     0.001053        -0.00012119    
  1.5             -1.2321e-009    0.0012113       -0.00013498    
  1.55            1.09e-009       0.0013606       -0.00014649    
  1.6             -1.3609e-009    0.0015076       -0.00015688    
  1.65            -6.986e-010     0.0016619       -0.0001676     
  1.7             1.3558e-009     0.0017796       -0.000174      
  1.75            7.014e-010      0.0019092       -0.00018037    
  1.8             -1.3576e-009    0.0020794       -0.00018939    
  1.85            -7.058e-010     0.002248        -0.00019751    
  1.9             1.3505e-009     0.0024443       -0.00020605    
  1.95            7.052e-010      0.0025905       -0.00021086    
  2               -1.3538e-009    0.00278         -0.00021652    
  2.05            -7.089e-010     0.0029321       -0.00021972    
  2.1             1.3475e-009     0.0031067       -0.00022349    
  2.15            7.084e-010      0.0032831       -0.0002262     
  2.2             -1.3516e-009    0.0034737       -0.00022888    
  2.25            -7.101e-010     0.0036491       -0.00023007    
  2.3             1.3446e-009     0.0038262       -0.00023061    
  2.35            7.131e-010      0.0040045       -0.0002304     
  2.4             -1.3503e-009    0.0041848       -0.00022946    
  2.45            -7.154e-010     0.004363        -0.00022798    
  2.5             1.3404e-009     0.0045411       -0.00022585    
  2.55            7.164e-010      0.0047223       -0.00022324    
  2.6             -1.348e-009     0.0049063       -0.00022002    
  2.65            -7.208e-010     0.0050829       -0.00021629    
  2.7             1.3404e-009     0.0052624       -0.00021221    
  2.75            7.197e-010      0.0054447       -0.00020778    
  2.8             -1.3472e-009    0.0056297       -0.00020297    
  2.85            -7.236e-010     0.0058108       -0.00019775    
  2.9             1.3422e-009     0.005991        -0.00019233    
  2.95            7.201e-010      0.0061857       -0.00018677    
  3               -1.3475e-009    0.006373        -0.00018082    
  3.05            -7.255e-010     0.0065559       -0.00017465    
  3.1             1.3383e-009     0.0067398       -0.00016838    
  3.15            7.236e-010      0.0069273       -0.00016208    
  3.2             -1.346e-009     0.0071179       -0.00015569    
  3.25            -7.286e-010     0.0073043       -0.00014911    
  3.3             1.3381e-009     0.0074935       -0.00014257    
  3.35            7.28e-010       0.0076858       -0.00013608    
  3.4             -1.3446e-009    0.0078809       -0.00012955    
  3.45            -7.309e-010     0.0080735       -0.00012308    
  3.5             1.3375e-009     0.0082662       -0.0001167     
  3.55            7.328e-010      0.0084645       -0.00011049    
  3.6             -1.3439e-009    0.0086645       -0.00010427    
  3.65            8.145e-010      0.0088609       -9.8395e-005   
  3.7             -1.3102e-009    0.0090607       -9.2397e-005   
  3.75            -8.216e-010     0.0092636       -8.6511e-005   
  3.8             1.3098e-009     0.0094619       -8.0921e-005   
  3.85            8.168e-010      0.0096673       -7.5575e-005   
  3.9             -1.3138e-009    0.0098758       -7.0322e-005   
  3.95            -8.222e-010     0.0100783       -6.5231e-005   
  4               1.3105e-009     0.0102832       -6.0389e-005   
  4.05            8.213e-010      0.0104911       -5.5775e-005   
  4.1             -1.316e-009     0.0107047       -5.1352e-005   
  4.15            -8.284e-010     0.0109123       -4.7185e-005   
  4.2             1.3093e-009     0.0111194       -4.3173e-005   
  4.25            8.259e-010      0.0113367       -3.9566e-005   
  4.3             1.3649e-009     0.011559        -3.6137e-005   
  4.35            6.791e-010      0.011772        -3.2871e-005   
  4.4             -1.3723e-009    0.011992        -2.9695e-005   
  4.45            -6.813e-010     0.012205        -2.6787e-005   
  4.5             1.3646e-009     0.012423        -2.4051e-005   
  4.55            6.832e-010      0.012643        -2.1649e-005   
  4.6             -1.3681e-009    0.012862        -1.9375e-005   
  4.65            -6.891e-010     0.013081        -1.7206e-005   
  4.7             1.3649e-009     0.013296        -1.5434e-005   
  4.75            6.873e-010      0.013521        -1.3624e-005   
  4.8             -1.3656e-009    0.013743        -1.1987e-005   
  4.85            -6.904e-010     0.013962        -1.0561e-005   
  4.9             6.739e-010      0.014177        -9.3145e-006   
  4.95            -1.3717e-009    0.014398        -8.0999e-006   
  5               -6.742e-010     0.014615        -7.0364e-006   
END_DB

BEGIN_DB
 ICCAP_VAR VS         0              
 ICCAP_VAR VB         -2.5           
 ICCAP_VAR VD         0.1            

 #VG              IG              ID              IB             
  0               2.569e-010      -1.1088e-009    -1.2896e-008   
  0.05            1.3029e-009     -1.9065e-009    -1.2176e-008   
  0.1             -1.3081e-009    1.8805e-009     1.2277e-008    
  0.15            1.3089e-009     -1.8163e-009    -1.265e-008    
  0.2             -1.3162e-009    1.7911e-009     1.2597e-008    
  0.25            1.3205e-009     -1.7181e-009    -1.2913e-008   
  0.3             -1.3318e-009    1.6935e-009     1.2653e-008    
  0.35            1.3354e-009     -1.6248e-009    -1.294e-008    
  0.4             -1.3518e-009    1.6005e-009     1.2818e-008    
  0.45            1.3552e-009     -1.5392e-009    -1.3209e-008   
  0.5             -1.3795e-009    8.942e-010      1.2734e-008    
  0.55            1.374e-009      -1.377e-009     -1.3291e-008   
  0.6             -1.3654e-009    7.923e-010      1.2978e-008    
  0.65            1.3001e-009     -6.793e-010     -1.2029e-008   
  0.7             -1.3006e-009    1.9385e-009     1.1945e-008    
  0.75            1.3033e-009     -1.8738e-009    -1.2487e-008   
  0.8             -1.3136e-009    1.8464e-009     1.2445e-008    
  0.85            1.3122e-009     -1.7805e-009    -1.2785e-008   
  0.9             -1.3254e-009    1.753e-009      1.2702e-008    
  0.95            1.3239e-009     -1.6744e-009    -1.2903e-008   
  1               -1.3432e-009    1.6629e-009     1.2713e-008    
  1.05            1.3467e-009     -1.5301e-009    -1.3028e-008   
  1.1             -1.3623e-009    1.8544e-009     1.2896e-008    
  1.15            1.3579e-009     2.8402e-009     -1.3188e-008   
  1.2             -1.3486e-009    8.18e-009       1.2192e-008    
  1.25            -1.1642e-009    2.9748e-008     -1.3123e-008   
  1.3             6.232e-010      1.2507e-007     -1.3405e-008   
  1.35            -1.324e-009     4.716e-007      6.018e-009     
  1.4             9.943e-010      1.6641e-006     1.2919e-008    
  1.45            -1.333e-009     5.1172e-006     1.2142e-008    
  1.5             -1.0734e-009    1.2213e-005     1.2738e-008    
  1.55            1.3125e-009     2.3041e-005     -1.1869e-008   
  1.6             -1.3824e-009    3.6813e-005     1.1721e-008    
  1.65            1.3425e-009     5.1508e-005     -1.2991e-008   
  1.7             -1.3535e-009    6.672e-005      1.2626e-008    
  1.75            1.3732e-009     8.1243e-005     -1.3273e-008   
  1.8             -1.3172e-009    9.5549e-005     1.2881e-008    
  1.85            1.3722e-009     0.00010882      -1.2122e-008   
  1.9             1.0705e-009     0.00012146      1.1811e-008    
  1.95            -1.3138e-009    0.00013361      1.155e-008     
  2               1.374e-009      0.0001448       -1.1813e-008   
  2.05            -1.326e-009     0.00015567      1.2916e-008    
  2.1             1.3681e-009     0.00016566      -1.2501e-008   
  2.15            -1.3442e-009    0.00017541      1.292e-008     
  2.2             1.3513e-009     0.00018439      -1.2807e-008   
  2.25            -1.3772e-009    0.00019312      1.2988e-008    
  2.3             1.3126e-009     0.00020121      -1.3077e-008   
  2.35            -1.3806e-009    0.00020916      1.1789e-008    
  2.4             1.3253e-009     0.00021649      -1.3126e-008   
  2.45            -1.3742e-009    0.00022371      1.2378e-008    
  2.5             1.3431e-009     0.00023037      -1.3157e-008   
  2.55            -1.3495e-009    0.00023692      1.2592e-008    
  2.6             1.3746e-009     0.00024316      -1.3206e-008   
  2.65            -1.3374e-009    0.00024913      1.2352e-008    
  2.7             1.3601e-009     0.00025476      -1.2746e-008   
  2.75            -1.3557e-009    0.00026029      1.2968e-008    
  2.8             1.3003e-009     0.00026544      -1.2893e-008   
  2.85            -1.3793e-009    0.00027051      1.2687e-008    
  2.9             1.3225e-009     0.00027526      -1.3148e-008   
  2.95            -1.3788e-009    0.00028         1.2277e-008    
  3               1.3373e-009     0.00028437      -1.3142e-008   
  3.05            -1.3577e-009    0.00028873      1.2561e-008    
  3.1             1.374e-009      0.00029284      -1.3175e-008   
  3.15            -1.3202e-009    0.00029684      1.284e-008     
  3.2             1.3754e-009     0.00030064      -1.2111e-008   
  3.25            -1.3332e-009    0.00030437      1.2931e-008    
  3.3             1.3648e-009     0.00030792      -1.2665e-008   
  3.35            -1.3539e-009    0.00031138      1.2902e-008    
  3.4             1.3417e-009     0.0003147       -1.2928e-008   
  3.45            -1.3816e-009    0.00031797      1.2883e-008    
  3.5             1.3201e-009     0.00032108      -1.3109e-008   
  3.55            -1.3792e-009    0.00032409      1.2025e-008    
  3.6             1.3365e-009     0.00032694      -1.3112e-008   
  3.65            -1.3659e-009    0.00032979      1.2499e-008    
  3.7             1.3676e-009     0.00033249      -1.3479e-008   
  3.75            -1.3086e-009    0.00033512      1.2725e-008    
  3.8             1.3706e-009     0.0003377       -1.2007e-008   
  3.85            -1.3433e-009    0.00034029      1.295e-008     
  3.9             1.3524e-009     0.00034261      -1.2742e-008   
  3.95            -1.3786e-009    0.00034493      1.307e-008     
  4               1.3112e-009     0.0003472       -1.303e-008    
  4.05            -1.3813e-009    0.00034934      1.1806e-008    
  4.1             1.323e-009      0.00035146      -1.3164e-008   
  4.15            -1.374e-009     0.00035346      1.2378e-008    
