! VERSION = 6.00
BEGIN_HEADER
 ICCAP_INPUTS
  VG         V  B GROUND SMU4 0.001 LIN        1    0          5          101  0.05      
  VS         V  E GROUND SMU2 0.1 CON        0
  VB         V  C GROUND SMU3 0.1 LIN        3    0          -5         3    -2.5      
  VD         V  S GROUND SMU1 0.1 LIN        2    0.1        5          2    4.9       
 ICCAP_OUTPUTS
  IG         I  B GROUND SMU4 B
  ID         I  S GROUND SMU1 B
  IB         I  C GROUND SMU3 B
END_HEADER

BEGIN_DB
 ICCAP_VAR VS         0              
 ICCAP_VAR VB         0              
 ICCAP_VAR VD         0.1            

 #VG              IG              ID              IB             
  0               -3.0011e-008    -2.1141e-007    1.2953e-007    
  0.05            -3.2092e-009    -2.3213e-007    4.1405e-007    
  0.1             2.5826e-009     -6.6e-010       1.1253e-007    
  0.15            2.2532e-009     -1.65e-008      4.0436e-007    
  0.2             1.5715e-009     -9.898e-008     4.0475e-007    
  0.25            2.6327e-009     -2.1263e-007    4.033e-007     
  0.3             2.7428e-009     5.1e-010        4.0113e-007    
  0.35            2.4711e-009     -5.05e-009      3.9883e-007    
  0.4             1.8261e-009     -5.611e-008     3.9954e-007    
  0.45            2.5367e-009     -1.6671e-007    4.0087e-007    
  0.5             2.6594e-009     -2.1699e-007    3.9223e-007    
  0.55            2.7293e-009     4.89e-009       3.9491e-007    
  0.6             2.4109e-009     9.89e-009       3.9426e-007    
  0.65            1.729e-009      -6.34e-009      3.9622e-007    
  0.7             2.5691e-009     -3.438e-008     3.9561e-007    
  0.75            2.7408e-009     3.5373e-007     3.9076e-007    
  0.8             2.5758e-009     8.6436e-007     3.927e-007     
  0.85            1.3596e-009     1.8391e-006     4.1443e-007    
  0.9             1.7309e-009     3.5018e-006     4.372e-008     
  0.95            2.0907e-009     5.7433e-006     1.436e-007     
  1               2.3587e-009     8.1879e-006     2.5663e-007    
  1.05            2.6263e-009     1.06308e-005    3.6054e-007    
  1.1             -1.7271e-009    1.2622e-005     4.0218e-007    
  1.15            -1.2888e-009    1.515e-005      4.1347e-007    
  1.2             2.6915e-009     1.6869e-005     9.745e-008     
  1.25            2.2528e-009     1.9136e-005     4.0239e-007    
  1.3             1.5653e-009     2.0853e-005     4.0585e-007    
  1.35            2.627e-009      2.2374e-005     4.0594e-007    
  1.4             2.7362e-009     2.4051e-005     4.0095e-007    
  1.45            2.4631e-009     2.5484e-005     4.0137e-007    
  1.5             1.8059e-009     2.6811e-005     4.029e-007     
  1.55            2.5341e-009     2.7986e-005     4.0627e-007    
  1.6             2.737e-009      2.9292e-005     3.9881e-007    
  1.65            2.6212e-009     3.0432e-005     4.0273e-007    
  1.7             2.0807e-009     3.1502e-005     4.0382e-007    
  1.75            1.4111e-009     3.2459e-005     4.0676e-007    
  1.8             4.895e-010      3.3149e-005     4.608e-008     
  1.85            -1.3619e-009    3.4345e-005     2.01e-009      
  1.9             -1.7087e-009    3.5285e-005     3.396e-008     
  1.95            -1.9448e-009    3.6173e-005     1.457e-007     
  2               -2.3008e-009    3.7008e-005     2.6005e-007    
  2.05            -2.5369e-009    3.779e-005      3.5855e-007    
  2.1             -2.5263e-009    3.853e-005      4.0153e-007    
  2.15            -2.1912e-009    3.9262e-005     4.0318e-007    
  2.2             -1.5776e-009    3.9937e-005     4.0758e-007    
  2.25            -1.2491e-009    4.0528e-005     4.1475e-007    
  2.3             2.6367e-009     4.0956e-005     9.638e-008     
  2.35            2.1033e-009     4.1925e-005     4.0519e-007    
  2.4             1.4381e-009     4.2469e-005     4.0696e-007    
  2.45            -4.97e-010      4.3087e-005     3.671e-008     
  2.5             1.4287e-009     4.3346e-005     9.432e-008     
  2.55            4.771e-010      4.3901e-005     4.688e-008     
  2.6             -1.362e-009     4.4682e-005     2.63e-009      
  2.65            -1.7111e-009    4.5242e-005     4.4e-008       
  2.7             -1.9494e-009    4.5781e-005     1.4775e-007    
  2.75            -2.3039e-009    4.6283e-005     2.5978e-007    
  2.8             -2.5389e-009    4.6761e-005     3.6056e-007    
  2.85            -2.5202e-009    4.7201e-005     4.0115e-007    
  2.9             -2.1752e-009    4.7643e-005     4.0508e-007    
  2.95            -1.5736e-009    4.8059e-005     4.0942e-007    
  3               -2.4783e-009    4.8395e-005     4.152e-007     
  3.05            -2.558e-009     4.8907e-005     3.9333e-007    
  3.1             -2.35e-009      4.9302e-005     4.0368e-007    
  3.15            -1.7969e-009    4.9685e-005     4.0634e-007    
  3.2             -1.3238e-009    4.9996e-005     4.1476e-007    
  3.25            -3.166e-010     5.0123e-005     9.976e-008     
  3.3             1.4481e-009     5.0781e-005     1.285e-008     
  3.35            1.812e-009      5.1138e-005     5.09e-008      
  3.4             2.1543e-009     5.1487e-005     1.6345e-007    
  3.45            2.4083e-009     5.1805e-005     2.7937e-007    
  3.5             2.6775e-009     5.2146e-005     3.7693e-007    
  3.55            2.7223e-009     5.2475e-005     4.023e-007     
  3.6             2.3798e-009     5.2784e-005     4.0376e-007    
  3.65            1.6952e-009     5.3054e-005     4.0711e-007    
  3.7             2.581e-009      5.3241e-005     4.0872e-007    
  3.75            2.7445e-009     5.3655e-005     4.0291e-007    
  3.8             2.5557e-009     5.3938e-005     4.0286e-007    
  3.85            1.9511e-009     5.4191e-005     4.0579e-007    
  3.9             1.3487e-009     5.4374e-005     4.0858e-007    
  3.95            4.446e-010      5.4391e-005     4.821e-008     
  4               -1.4203e-009    5.4881e-005     3.85e-009      
  4.05            -1.7406e-009    5.5177e-005     4.909e-008     
  4.1             -1.9859e-009    5.5453e-005     1.6582e-007    
  4.15            -2.3583e-009    5.5703e-005     2.7657e-007    
  4.2             -2.5511e-009    5.5917e-005     3.7064e-007    
  4.25            -2.4901e-009    5.6119e-005     4.0249e-007    
  4.3             -2.0867e-009    5.6343e-005     4.0511e-007    
  4.35            -1.4913e-009    5.6528e-005     4.1148e-007    
  4.4             -2.5054e-009    5.6654e-005     4.1583e-007    
  4.45            -2.5413e-009    5.6969e-005     4.0063e-007    
  4.5             -2.2779e-009    5.7161e-005     4.0397e-007    
  4.55            -1.6856e-009    5.736e-005      4.0778e-007    
  4.6             -1.2818e-009    5.7479e-005     4.1568e-007    
  4.65            2.6876e-009     5.7448e-005     9.817e-008     
  4.7             2.2413e-009     5.7943e-005     4.0418e-007    
  4.75            1.55e-009       5.8089e-005     4.0795e-007    
  4.8             -2.1951e-009    5.8265e-005     3.594e-008     
  4.85            -2.5056e-009    5.8472e-005     3.3922e-007    
  4.9             -2.5442e-009    5.8614e-005     3.9963e-007    
  4.95            -2.2885e-009    5.8774e-005     4.0558e-007    
  5               -1.7115e-009    5.8914e-005     4.0848e-007    
END_DB

BEGIN_DB
 ICCAP_VAR VS         0              
 ICCAP_VAR VB         0              
 ICCAP_VAR VD         5              

 #VG              IG              ID              IB             
  0               -3.8062e-007    5.1218e-008     1.8409e-007    
  0.05            -2.341e-008     3.2867e-008     1.1179e-007    
  0.1             7.9e-010        1.1691e-008     4.0891e-007    
  0.15            -9.36e-009      1.673e-009      3.8518e-007    
  0.2             1.32e-009       1.55e-009       3.6151e-007    
  0.25            -2.948e-008     3.7145e-008     3.3588e-007    
  0.3             -3.3919e-007    2.7354e-008     3.1489e-007    
  0.35            -9.77e-009      3.2576e-008     6.8337e-008    
  0.4             -8.56e-009      3.0456e-008     2.037e-008     
  0.45            -1.641e-008     2.7858e-008     2.337e-008     
  0.5             -2.0059e-007    2.6652e-008     1.10729e-007   
  0.55            9.4e-010        2.7569e-008     3.869e-008     
  0.6             -7.12e-009      1.8719e-008     1.896e-008     
  0.65            -1.8721e-007    5.645e-008      1.13112e-007   
  0.7             -1.508e-008     1.8295e-007     7.513e-008     
  0.75            -1.3792e-007    4.4145e-007     1.2398e-007    
  0.8             1.52e-009       1.10516e-006    -6.89e-009     
  0.85            -9.3359e-008    2.4504e-006     3.149e-009     
  0.9             -7.1037e-008    4.9114e-006     -2.6965e-008   
  0.95            -5.038e-008     8.7606e-006     -4.8277e-008   
  1               -3.2546e-008    1.4102e-005     -3.4392e-008   
  1.05            -1.7546e-008    2.0981e-005     -9.5629e-008   
  1.1             -1.1545e-008    2.9298e-005     -1.2074e-007   
  1.15            -1.8057e-008    3.9234e-005     -1.2259e-007   
  1.2             -2.6404e-008    5.0324e-005     -1.6462e-007   
  1.25            -1.4794e-008    6.2624e-005     -1.9012e-007   
  1.3             -1.9893e-008    7.6025e-005     -2.122e-007    
  1.35            -1.7914e-008    9.0549e-005     -2.2962e-007   
  1.4             -2.6109e-008    0.000106101     -2.4369e-007   
  1.45            -2.4487e-008    0.00012252      -2.6712e-007   
  1.5             -2.1347e-008    0.00013983      -2.6263e-007   
  1.55            -1.8711e-008    0.00015782      -2.6554e-007   
  1.6             -1.7789e-008    0.00017664      -2.6513e-007   
  1.65            -2.5878e-008    0.00019604      -2.6208e-007   
  1.7             -1.5653e-008    0.00021607      -2.5707e-007   
  1.75            -1.8718e-008    0.00023656      -2.4891e-007   
  1.8             -1.7488e-008    0.00025786      -2.3706e-007   
  1.85            -2.556e-008     0.00027944      -2.2512e-007   
  1.9             -1.5721e-008    0.0003016       -2.1271e-007   
  1.95            -1.8709e-008    0.0003241       -2.0017e-007   
  2               -1.758e-008     0.00034704      -1.8213e-007   
  2.05            -2.5411e-008    0.00037035      -1.6706e-007   
  2.1             -2.29e-008      0.00039398      -1.5271e-007   
  2.15            -2.1684e-008    0.00041795      -1.3695e-007   
  2.2             -1.7182e-008    0.00044218      -1.2523e-007   
  2.25            -2.527e-008     0.00046672      -1.0772e-007   
  2.3             -2.2613e-008    0.00049151      -9.532e-008    
  2.35            -1.7125e-008    0.00051648      -9.215e-008    
  2.4             -2.4865e-008    0.00054183      -7.0133e-008   
  2.45            -2.187e-008     0.0005672       -6.0628e-008   
  2.5             -1.8827e-008    0.00059292      -5.0185e-008   
  2.55            -1.7896e-008    0.00061875      -4.1029e-008   
  2.6             -2.6143e-008    0.00064472      -3.3312e-008   
  2.65            -2.3548e-008    0.00067085      -3.0172e-008   
  2.7             -1.9884e-008    0.00069713      -2.2523e-008   
  2.75            -1.8502e-008    0.00072366      -1.6026e-008   
  2.8             -2.6447e-008    0.00075047      -1.0912e-008   
  2.85            -2.4796e-008    0.00077706      -1.3383e-008   
  2.9             -2.1732e-008    0.00080375      -9.254e-009    
  2.95            -2.2243e-008    0.00083067      6.392e-009     
  3               -2.2714e-008    0.00085758      8.898e-009     
  3.05            -2.3152e-008    0.00088459      1.0825e-008    
  3.1             -2.3389e-008    0.00091153      1.2454e-008    
  3.15            -2.368e-008     0.0009386       1.3819e-008    
  3.2             -2.3993e-008    0.00096583      1.5262e-008    
  3.25            -2.4378e-008    0.00099326      1.6319e-008    
  3.3             -2.4797e-008    0.00102044      1.7121e-008    
  3.35            -2.4991e-008    0.00104771      1.8013e-008    
  3.4             -2.5303e-008    0.00107504      1.885e-008     
  3.45            -1.7042e-008    0.00110238      1.9517e-008    
  3.5             -1.6974e-008    0.00112969      1.0961e-008    
  3.55            -2.4077e-008    0.0011573       1.6127e-008    
  3.6             -1.6653e-008    0.0011848       1.8226e-008    
  3.65            -1.6985e-008    0.0012118       2.0872e-008    
  3.7             -1.6925e-008    0.0012393       1.1251e-008    
  3.75            -1.7174e-008    0.0012664       1.1306e-008    
  3.8             -1.693e-008     0.0012937       1.1415e-008    
  3.85            -1.7089e-008    0.0013204       1.1467e-008    
  3.9             -1.7298e-008    0.0013472       1.1724e-008    
  3.95            -1.7551e-008    0.001374        1.1884e-008    
  4               -1.7453e-008    0.0014003       1.207e-008     
  4.05            -1.7756e-008    0.0014265       1.2372e-008    
  4.1             -1.7916e-008    0.0014527       1.2597e-008    
  4.15            -1.7276e-008    0.0014783       1.2744e-008    
  4.2             -1.2778e-008    0.0015039       1.3034e-008    
  4.25            -1.448e-009     0.001529        1.3222e-008    
  4.3             -1.7402e-009    0.0015544       9.952e-009     
  4.35            -1.6767e-009    0.0015779       1.1709e-008    
  4.4             -2.1058e-009    0.0016019       1.5302e-008    
  4.45            -1.8166e-009    0.001625        4.765e-009     
  4.5             -1.7783e-009    0.0016481       8.893e-009     
  4.55            -1.7148e-009    0.0016696       1.1518e-008    
  4.6             -2.2847e-009    0.0016916       1.3736e-008    
  4.65            -1.8737e-009    0.0017124       3.707e-009     
  4.7             -1.8041e-009    0.0017328       7.306e-009     
  4.75            -1.7484e-009    0.0017526       1.1078e-008    
  4.8             -1.6546e-009    0.0017715       1.2792e-008    
  4.85            -1.9887e-009    0.0017899       1.7099e-008    
  4.9             -1.8165e-009    0.0018079       5.708e-009     
  4.95            -1.7867e-009    0.0018253       9.88e-009      
  5               -1.7013e-009    0.0018425       1.1539e-008    
END_DB

BEGIN_DB
 ICCAP_VAR VS         0              
 ICCAP_VAR VB         -2.5           
 ICCAP_VAR VD         0.1            

 #VG              IG              ID              IB             
  0               -4.0408e-009    -1.3135e-008    1.7705e-008    
  0.05            -5.053e-010     -1.4939e-008    1.4858e-008    
  0.1             -3.854e-010     -1.5088e-008    1.4295e-008    
  0.15            -3.143e-010     -1.5014e-008    1.3791e-008    
  0.2             -2.56e-010      -1.5104e-008    1.3676e-008    
  0.25            -1.872e-010     -1.4848e-008    1.3304e-008    
  0.3             -1.31e-010      -1.4018e-008    1.2971e-008    
  0.35            -6.81e-011      -1.3528e-008    2.5564e-008    
  0.4             -8.4e-012       -1.2896e-008    1.2201e-008    
  0.45            -1.0452e-009    -1.9159e-008    1.1854e-008    
  0.5             -1.0069e-009    -1.8685e-008    1.1504e-008    
  0.55            -9.727e-010     -1.7821e-008    1.1288e-008    
  0.6             -9.421e-010     -1.7178e-008    2.1611e-008    
  0.65            -9.096e-010     -1.6807e-008    2.082e-008     
  0.7             -8.721e-010     -1.6515e-008    2.0158e-008    
  0.75            -8.372e-010     -1.6467e-008    1.937e-008     
  0.8             -8.073e-010     -1.641e-008     1.8731e-008    
  0.85            -7.74e-010      -1.6244e-008    1.8354e-008    
  0.9             -7.314e-010     -1.6092e-008    1.7687e-008    
  0.95            -6.833e-010     -1.5783e-008    1.7389e-008    
  1               -6.224e-010     -1.5483e-008    1.6955e-008    
  1.05            -5.69e-010      -1.4421e-008    1.6387e-008    
  1.1             -5.158e-010     -1.0519e-008    1.5865e-008    
  1.15            -1.8406e-009    1.8741e-008     1.5149e-008    
  1.2             -1.4359e-009    5.394e-008      4.721e-009     
  1.25            1.614e-010      1.1221e-007     8.839e-009     
  1.3             -1.4166e-009    2.4802e-007     1.131e-008     
  1.35            -1.9416e-009    4.7292e-007     1.4387e-008    
  1.4             -1.4791e-009    9.6232e-007     4.24e-009      
  1.45            2.7039e-009     1.9825e-006     2.4318e-008    
  1.5             -1.9104e-009    3.8158e-006     1.4636e-008    
  1.55            -1.4658e-009    6.2395e-006     4.299e-009     
  1.6             -1.3888e-009    8.9408e-006     8.236e-009     
  1.65            1.3031e-009     1.1514e-005     9.065e-009     
  1.7             -1.4757e-009    1.4061e-005     1.9711e-008    
  1.75            -1.3872e-009    1.6333e-005     8.242e-009     
  1.8             -1.4081e-009    1.8402e-005     1.1211e-008    
  1.85            -2.1383e-009    2.0276e-005     1.3176e-008    
  1.9             -1.5818e-009    2.1993e-005     3.224e-009     
  1.95            -1.3947e-009    2.358e-005      6.554e-009     
  2               -1.392e-009     2.505e-005      1.0481e-008    
  2.05            -1.4342e-009    2.6421e-005     1.1972e-008    
  2.1             -1.7764e-009    2.768e-005      1.6012e-008    
  2.15            -1.4215e-009    2.8874e-005     5.023e-009     
  2.2             -1.3845e-009    2.9995e-005     9.168e-009     
  2.25            -1.415e-009     3.1063e-005     1.1367e-008    
  2.3             -1.9862e-009    3.2058e-005     1.3992e-008    
  2.35            -1.4987e-009    3.2997e-005     3.994e-009     
  2.4             -1.3862e-009    3.3904e-005     7.595e-009     
  2.45            -1.3993e-009    3.4763e-005     1.1094e-008    
  2.5             -2.1994e-009    3.5585e-005     1.2819e-008    
  2.55            -1.6373e-009    3.6354e-005     2.956e-009     
  2.6             -1.3997e-009    3.7107e-005     5.977e-009     
  2.65            -1.3844e-009    3.7828e-005     1.0038e-008    
  2.7             -1.4253e-009    3.8527e-005     1.1463e-008    
  2.75            -1.8435e-009    3.9179e-005     1.5269e-008    
  2.8             -1.4413e-009    3.9816e-005     4.686e-009     
  2.85            -1.3861e-009    4.0433e-005     8.683e-009     
  2.9             -1.4074e-009    4.1024e-005     1.1387e-008    
  2.95            -2.0612e-009    4.1598e-005     1.3475e-008    
  3               -1.5343e-009    4.2132e-005     3.609e-009     
  3.05            -1.3885e-009    4.2671e-005     7.132e-009     
  3.1             -1.396e-009     4.318e-005      1.0877e-008    
  3.15            -1.4331e-009    4.3681e-005     1.2457e-008    
  3.2             -1.7068e-009    4.4155e-005     1.6674e-008    
  3.25            -1.4075e-009    4.4614e-005     5.583e-009     
  3.3             -1.387e-009     4.5062e-005     9.649e-009     
  3.35            -1.4208e-009    4.5508e-005     1.1387e-008    
  3.4             -1.9164e-009    4.5927e-005     1.4605e-008    
  3.45            -1.4682e-009    4.6321e-005     4.278e-009     
  3.5             -1.384e-009     4.6722e-005     8.224e-009     
  3.55            -1.4038e-009    4.7118e-005     1.131e-008     
  3.6             -2.129e-009     4.7492e-005     1.3275e-008    
  3.65            -1.585e-009     4.7847e-005     3.286e-009     
  3.7             -1.3935e-009    4.8199e-005     6.368e-009     
  3.75            -1.3918e-009    4.8543e-005     1.0393e-008    
  3.8             -1.4308e-009    4.8887e-005     1.1842e-008    
  3.85            -1.7797e-009    4.9209e-005     1.5854e-008    
  3.9             -1.4254e-009    4.9512e-005     5.038e-009     
  3.95            -1.3831e-009    4.9831e-005     8.984e-009     
  4               -1.4143e-009    5.0132e-005     1.1373e-008    
  4.05            -1.9989e-009    5.0424e-005     1.3964e-008    
  4.1             -1.5056e-009    5.0692e-005     3.801e-009     
  4.15            -1.3837e-009    5.0979e-005     7.496e-009     
