! VERSION = 6.00
BEGIN_HEADER
 ICCAP_INPUTS
  VG         V  B GROUND SMU4 0.001 LIN        2    0          5          6    1         
  VS         V  E GROUND SMU2 0.1 CON        0
  VD         V  S GROUND SMU1 0.1 LIN        1    0          5          101  0.05      
  VB         V  C GROUND SMU3 0.1 LIN        3    0          -2.5       2    -2.5      
 ICCAP_OUTPUTS
  ID         I  S GROUND SMU1 B
  IB         I  C GROUND SMU3 B
  IG         I  B GROUND SMU4 B
END_HEADER

BEGIN_DB
 ICCAP_VAR VG         0              
 ICCAP_VAR VS         0              
 ICCAP_VAR VB         0              

 #VD              ID              IB              IG             
  0               -7.139e-010     -1.5961e-008    -9.309e-010    
  0.05            -1.6704e-009    7.893e-009      4.03e-011      
  0.1             -8.679e-010     -2.376e-008     2.7241e-009    
  0.15            2.325e-009      -1.587e-009     7.833e-010     
  0.2             1.6595e-009     1.4962e-008     -1.6304e-009   
  0.25            -1.9576e-009    5.066e-009      -7.623e-010    
  0.3             -1.3605e-009    -1.5503e-008    1.9906e-009    
  0.35            1.9508e-009     -6.997e-009     1.3654e-009    
  0.4             7.426e-010      1.5727e-008     -2.008e-009    
  0.45            -1.8953e-009    3.259e-009      -4.782e-010    
  0.5             -1.2014e-009    -2.1717e-008    2.392e-009     
  0.55            2.2215e-009     -3.951e-009     1.1485e-009    
  0.6             1.2124e-009     2.6568e-008     -2.4674e-009   
  0.65            -1.7263e-009    1.55e-009       -3.94e-011     
  0.7             -9.283e-010     -2.4537e-008    2.7123e-009    
  0.75            1.518e-009      2.0295e-008     -1.9328e-009   
  0.8             -1.9047e-009    3.676e-009      -5.323e-010    
  0.85            -1.236e-009     -2.0475e-008    2.3213e-009    
  0.9             2.18e-009       -4.322e-009     1.1876e-009    
  0.95            1.2497e-009     2.6435e-008     -2.4195e-009   
  1               -1.7536e-009    1.614e-009      -9.51e-011     
  1.05            -9.575e-010     -2.4842e-008    2.6934e-009    
  1.1             9.081e-010      1.9206e-008     -1.6826e-009   
  1.15            -1.9433e-009    4.759e-009      -7.279e-010    
  1.2             -1.3391e-009    -1.6236e-008    2.0394e-009    
  1.25            2.004e-009      -6.587e-009     1.3384e-009    
  1.3             7.253e-010      1.5131e-008     -2.0604e-009   
  1.35            -1.8787e-009    3.025e-009      -4.354e-010    
  1.4             -1.1705e-009    -2.2314e-008    2.4301e-009    
  1.45            2.2483e-009     -3.829e-009     1.1194e-009    
  1.5             1.1987e-009     2.6288e-008     -2.4796e-009   
  1.55            -1.698e-009     1.555e-009      -1.67e-011     
  1.6             -8.973e-010     -2.426e-008     2.715e-009     
  1.65            8.539e-010      1.7669e-008     -1.7982e-009   
  1.7             -1.9234e-009    4.205e-009      -6.357e-010    
  1.75            -1.2838e-009    -1.8364e-008    2.1873e-009    
  1.8             2.1024e-009     -5.49e-009      1.262e-009     
  1.85            6.631e-010      1.3841e-008     -2.1838e-009   
  1.9             -1.8493e-009    2.641e-009      -3.368e-010    
  1.95            -1.8998e-009    -9.979e-009     -5.371e-010    
  2               -1.2256e-009    -2.0419e-008    2.3114e-009    
  2.05            2.1829e-009     -4.627e-009     1.1946e-009    
  2.1             5.969e-010      1.2993e-008     -2.2878e-009   
  2.15            -1.8151e-009    2.625e-009      -2.438e-010    
  2.2             -1.8767e-009    -1.0231e-008    -4.451e-010    
  2.25            -3.832e-010     -1.4954e-008    2.424e-009     
  2.3             2.2502e-009     -3.728e-009     1.1254e-009    
  2.35            1.2075e-009     2.6285e-008     -2.4851e-009   
  2.4             -1.6936e-009    1.473e-009      -1.92e-011     
  2.45            -8.929e-010     -2.4145e-008    2.7107e-009    
  2.5             8.661e-010      1.7661e-008     -1.7969e-009   
  2.55            -1.9148e-009    4.296e-009      -6.358e-010    
  2.6             -1.2789e-009    -1.848e-008     2.1776e-009    
  2.65            2.1059e-009     -5.369e-009     1.2622e-009    
  2.7             6.715e-010      1.371e-008      -2.1782e-009   
  2.75            -1.8452e-009    2.953e-009      -3.41e-010     
  2.8             -1.896e-009     -1e-008         -5.427e-010    
  2.85            -1.2257e-009    -2.0432e-008    2.3038e-009    
  2.9             2.1892e-009     -4.429e-009     1.1917e-009    
  2.95            6.034e-010      1.2899e-008     -2.2911e-009   
  3               -1.8085e-009    2.572e-009      -2.372e-010    
  3.05            -1.0397e-009    -2.4703e-008    2.6104e-009    
  3.1             9.976e-010      2.1649e-008     -1.5206e-009   
  3.15            -1.5588e-009    5.928e-009      1.699e-010     
  3.2             -7.383e-010     -2.1436e-008    1.6389e-009    
  3.25            1.692e-009      -8.955e-009     1.5565e-009    
  3.3             9.157e-010      1.8798e-008     -1.6989e-009   
  3.35            -1.9257e-009    4.669e-009      -7.127e-010    
  3.4             -1.3161e-009    -1.6668e-008    2.0544e-009    
  3.45            2.0326e-009     -6.386e-009     1.3185e-009    
  3.5             7.291e-010      1.4817e-008     -2.085e-009    
  3.55            -1.8589e-009    3.096e-009      -4.159e-010    
  3.6             -1.9075e-009    -9.621e-009     -6.1e-010      
  3.65            -1.2673e-009    -1.8752e-008    2.2086e-009    
  3.7             2.1285e-009     -5.165e-009     1.2469e-009    
  3.75            6.615e-010      1.3492e-008     -2.2038e-009   
  3.8             -1.8319e-009    2.88e-009       -3.249e-010    
  3.85            -1.8847e-009    -1.0044e-008    -5.179e-010    
  3.9             -1.2046e-009    -2.0809e-008    2.3372e-009    
  3.95            2.2088e-009     -4.414e-009     1.1761e-009    
  4               5.886e-010      1.2726e-008     -2.3093e-009   
  4.05            -1.7925e-009    2.409e-009      -2.178e-010    
  4.1             -1.8624e-009    -1.0377e-008    -4.21e-010     
  4.15            -1.9055e-009    -9.636e-009     -6.198e-010    
  4.2             -1.2651e-009    -1.8875e-008    2.2065e-009    
  4.25            2.1328e-009     -5.507e-009     1.2497e-009    
  4.3             6.608e-010      1.3681e-008     -2.2059e-009   
  4.35            -1.8314e-009    2.887e-009      -3.123e-010    
  4.4             -1.8832e-009    -1.0198e-008    -5.16e-010     
  4.45            -1.2065e-009    -2.0832e-008    2.3437e-009    
  4.5             2.2148e-009     -4.255e-009     1.1765e-009    
  4.55            5.927e-010      1.2726e-008     -2.311e-009    
  4.6             -1.7938e-009    2.116e-009      -2.138e-010    
  4.65            -1.8627e-009    -1.0386e-008    -4.174e-010    
  4.7             -1.905e-009     -9.697e-009     -6.099e-010    
  4.75            -1.2591e-009    -1.8781e-008    2.2022e-009    
  4.8             2.1302e-009     -5.413e-009     1.2495e-009    
  4.85            6.651e-010      1.3643e-008     -2.2032e-009   
  4.9             -1.8293e-009    2.84e-009       -3.122e-010    
  4.95            -1.8831e-009    -1.0038e-008    -5.167e-010    
  5               -1.2013e-009    -2.0823e-008    2.3339e-009    
END_DB

BEGIN_DB
 ICCAP_VAR VG         1              
 ICCAP_VAR VS         0              
 ICCAP_VAR VB         0              

 #VD              ID              IB              IG             
  0               -1.3794e-007    -9.258e-009     2.7163e-009    
  0.05            8.1902e-006     8.769e-009      2.7073e-009    
  0.1             1.3856e-005     -2.0478e-008    1.6043e-009    
  0.15            1.7383e-005     -1.6416e-008    1.8196e-009    
  0.2             1.9115e-005     -2.3617e-008    2.641e-009     
  0.25            1.9846e-005     -2.3406e-008    2.1525e-009    
  0.3             2.0104e-005     -1.025e-008     -7.34e-010     
  0.35            2.0326e-005     7.639e-009      -2.5493e-009   
  0.4             2.0391e-005     1.3216e-008     -2.4841e-009   
  0.45            2.0454e-005     1.3635e-008     -1.8329e-009   
  0.5             2.0331e-005     9.179e-009      7.261e-010     
  0.55            2.0233e-005     -8.571e-009     2.6781e-009    
  0.6             2.0302e-005     -1.0972e-008    1.62e-010      
  0.65            2.0544e-005     1.1595e-008     -2.2555e-009   
  0.7             2.0247e-005     9.021e-009      1.8421e-009    
  0.75            2.0339e-005     -1.9279e-008    2.7226e-009    
  0.8             2.0334e-005     -1.0429e-008    -3.2e-012      
  0.85            2.0596e-005     1.2822e-008     -1.9682e-009   
  0.9             2.0587e-005     2.055e-008      -1.35e-009     
  0.95            2.0607e-005     2.6474e-008     -2.0888e-009   
  1               2.0601e-005     1.9109e-008     -1.403e-009    
  1.05            2.0352e-005     7.709e-009      1.0044e-009    
  1.1             2.0434e-005     -2.3536e-008    2.1765e-009    
  1.15            2.0444e-005     -1.4689e-008    2.7206e-009    
  1.2             2.0432e-005     -2.5013e-008    2.4601e-009    
  1.25            2.0479e-005     -1.9428e-008    1.8401e-009    
  1.3             2.044e-005      -2.3417e-008    2.649e-009     
  1.35            2.0464e-005     -1.5472e-008    1.9583e-009    
  1.4             2.0516e-005     -9.79e-009      -8.328e-010    
  1.45            2.0691e-005     2.5028e-008     -2.4112e-009   
  1.5             2.0706e-005     1.5031e-008     -1.7052e-009   
  1.55            2.0726e-005     1.1101e-008     -2.358e-009    
  1.6             2.0702e-005     1.5925e-008     -1.632e-009    
  1.65            2.0726e-005     2.4632e-008     -2.4295e-009   
  1.7             2.0719e-005     1.4485e-008     -1.7308e-009   
  1.75            2.0572e-005     8.776e-009      7.838e-010     
  1.8             2.0524e-005     -2.466e-008     2.5635e-009    
  1.85            2.0566e-005     -2.1682e-008    1.9883e-009    
  1.9             2.0593e-005     -9.884e-009     -8.194e-010    
  1.95            2.0714e-005     8.499e-009      -2.5703e-009   
  2               2.0726e-005     1.1731e-008     -2.4005e-009   
  2.05            2.0774e-005     1.5277e-008     -1.6981e-009   
  2.1             2.0808e-005     1.1107e-008     -2.3493e-009   
  2.15            2.0781e-005     1.5944e-008     -1.623e-009    
  2.2             2.0807e-005     2.482e-008      -2.4238e-009   
  2.25            2.0801e-005     1.4753e-008     -1.7213e-009   
  2.3             2.0839e-005     1.112e-008      -2.3756e-009   
  2.35            2.0814e-005     1.5361e-008     -1.6504e-009   
  2.4             2.0837e-005     2.4539e-008     -2.4417e-009   
  2.45            2.0837e-005     1.4152e-008     -1.7562e-009   
  2.5             2.0854e-005     1.1173e-008     -2.3982e-009   
  2.55            2.0836e-005     1.5051e-008     -1.6782e-009   
  2.6             2.0871e-005     1.105e-008      -2.3419e-009   
  2.65            2.0847e-005     1.5733e-008     -1.612e-009    
  2.7             2.0869e-005     2.4598e-008     -2.4176e-009   
  2.75            2.0861e-005     1.4417e-008     -1.7134e-009   
  2.8             2.0893e-005     1.0799e-008     -2.3698e-009   
  2.85            2.0868e-005     1.4993e-008     -1.6418e-009   
  2.9             2.0916e-005     1.0809e-008     -2.3104e-009   
  2.95            2.0883e-005     1.5376e-008     -1.5772e-009   
  3               2.092e-005      1.064e-008      -2.2496e-009   
  3.05            2.0616e-005     7.566e-009      1.8516e-009    
  3.1             2.069e-005      -2.0922e-008    2.7247e-009    
  3.15            2.0683e-005     -1.2243e-008    -1.4e-011      
  3.2             2.094e-005      1.0777e-008     -1.9622e-009   
  3.25            2.0937e-005     9.006e-009      -2.5053e-009   
  3.3             2.0943e-005     1.0259e-008     -1.8835e-009   
  3.35            2.095e-005      7.648e-009      -2.4694e-009   
  3.4             2.0949e-005     9.976e-009      -1.8126e-009   
  3.45            2.0965e-005     6.357e-009      -2.4261e-009   
  3.5             2.0959e-005     9.174e-009      -1.7356e-009   
  3.55            2.0986e-005     5.032e-009      -2.3854e-009   
  3.6             2.0971e-005     8.315e-009      -1.652e-009    
  3.65            2.1003e-005     3.242e-009      -2.3307e-009   
  3.7             2.098e-005      6.884e-009      -1.5948e-009   
  3.75            2.0779e-005     -2.82e-009      2.1994e-009    
  3.8             2.08e-005       -2.2208e-008    -6.24e-010     
  3.85            2.0947e-005     -7.035e-009     -2.5186e-009   
  3.9             2.0851e-005     -1.7247e-008    -2.5632e-009   
  3.95            2.104e-005      -4.458e-009     -2.1613e-009   
  4               2.0937e-005     -8.347e-009     5.201e-010     
  4.05            2.0811e-005     -4.1091e-008    2.7194e-009    
  4.1             2.1065e-005     -3.1571e-008    -1.5758e-009   
  4.15            2.1021e-005     -1.1771e-008    -2.4797e-009   
  4.2             2.0679e-005     -1.8173e-008    1.6351e-009    
  4.25            2.0835e-005     -4.0577e-008    9.67e-011      
  4.3             2.0958e-005     -3.1308e-008    -1.7701e-009   
  4.35            2.0853e-005     -2.7741e-008    2.1053e-009    
  4.4             2.0885e-005     -4.9995e-008    -4.734e-010    
  4.45            2.1082e-005     -2.4272e-008    -1.4199e-009   
  4.5             2.0881e-005     -3.9392e-008    2.288e-009     
  4.55            2.0937e-005     -6.1258e-008    -7.91e-010     
  4.6             2.1132e-005     -3.0824e-008    -2.4514e-009   
  4.65            2.0763e-005     -5.0803e-008    1.6616e-009    
  4.7             2.0909e-005     -7.5828e-008    7.06e-011      
  4.75            2.1175e-005     -5.8506e-008    -2.1199e-009   
  4.8             2.0899e-005     -6.7085e-008    1.9385e-009    
  4.85            2.0956e-005     -9.2839e-008    -2.142e-010    
  4.9             2.118e-005      -7.2925e-008    -1.6729e-009   
  4.95            2.0978e-005     -8.7128e-008    2.1595e-009    
  5               2.1005e-005     -1.13831e-007   2.3267e-009    
END_DB

BEGIN_DB
 ICCAP_VAR VG         2              
 ICCAP_VAR VS         0              
 ICCAP_VAR VB         0              

 #VD              ID              IB              IG             
  0               -4.5016e-007    -7.798e-009     2.3953e-009    
  0.05            3.9204e-005     1.5208e-008     -8.283e-010    
  0.1             7.7197e-005     8.943e-009      -2.5745e-009   
  0.15            0.000113924     1.113e-008      -2.3877e-009   
  0.2             0.00014947      1.5448e-008     4.987e-010     
  0.25            0.0001834       -8.664e-009     2.6209e-009    
  0.3             0.00021605      -1.0884e-008    1.475e-010     
  0.35            0.00024755      1.1944e-008     -2.058e-009    
  0.4             0.0002773       9.271e-009      6.956e-010     
  0.45            0.00030536      -2.5359e-008    2.5304e-009    
  0.5             0.00033212      -1.7385e-008    1.7294e-009    
  0.55            0.00035726      -2.5263e-008    2.4624e-009    
  0.6             0.00038083      -1.6106e-008    2.7314e-009    
  0.65            0.00040245      -2.5202e-008    2.3913e-009    
  0.7             0.00042284      -1.0384e-008    -6.861e-010    
  0.75            0.00044144      8.781e-009      -2.5739e-009   
  0.8             0.00045815      2.5565e-008     -2.4191e-009   
  0.85            0.00047282      2.2039e-008     -1.6901e-009   
  0.9             0.00048579      2.5945e-008     -2.3599e-009   
  0.95            0.00049596      8.619e-009      1.8715e-009    
  1               0.00050535      -2.2673e-008    2.708e-009     
  1.05            0.00051288      -2.28e-008      2.1e-009       
  1.1             0.00051926      -9.523e-009     -8.57e-010     
  1.15            0.00052449      2.673e-008      -2.2273e-009   
  1.2             0.00052805      1.8094e-008     -1.4942e-009   
  1.25            0.00052956      7.569e-009      1.0176e-009    
  1.3             0.00053169      -2.0132e-008    1.9179e-009    
  1.35            0.00053307      -2.4774e-008    2.6009e-009    
  1.4             0.00053439      -1.9091e-008    1.833e-009     
  1.45            0.00053566      -9.095e-009     -9.744e-010    
  1.5             0.00053698      1.1583e-008     -2.546e-009    
  1.55            0.00053757      1.3651e-008     -1.7693e-009   
  1.6             0.00053822      2.5452e-008     -2.4184e-009   
  1.65            0.0005386       2.1916e-008     -1.6852e-009   
  1.7             0.00053877      2.6105e-008     -2.3572e-009   
  1.75            0.00053814      8.772e-009      1.8711e-009    
  1.8             0.00053839      -2.2857e-008    2.7108e-009    
  1.85            0.00053886      -2.2772e-008    2.1068e-009    
  1.9             0.00053962      -9.768e-009     -8.536e-010    
  1.95            0.00054047      2.6512e-008     -2.2298e-009   
  2               0.00054066      1.953e-008      -1.39e-009     
  2.05            0.00054118      1.3439e-008     -1.7792e-009   
  2.1             0.00054152      2.537e-008      -2.4248e-009   
  2.15            0.00054173      2.2247e-008     -1.7023e-009   
  2.2             0.0005417       2.5899e-008     -2.3709e-009   
  2.25            0.0005409       8.888e-009      1.8628e-009    
  2.3             0.00054096      -2.2656e-008    2.7144e-009    
  2.35            0.00054145      -2.3021e-008    2.1261e-009    
  2.4             0.00054197      -9.73e-009      -8.487e-010    
  2.45            0.00054279      2.6446e-008     -2.2367e-009   
  2.5             0.00054295      1.9384e-008     -1.4013e-009   
  2.55            0.00054337      1.3127e-008     -1.7957e-009   
  2.6             0.00054356      2.5286e-008     -2.4395e-009   
  2.65            0.00054381      2.2388e-008     -1.7201e-009   
  2.7             0.00054389      2.575e-008      -2.3849e-009   
  2.75            0.00054282      8.787e-009      1.8532e-009    
  2.8             0.0005433       -2.2369e-008    2.7155e-009    
  2.85            0.00054329      -2.3145e-008    2.1376e-009    
  2.9             0.00054411      -9.84e-009      -8.44e-010     
  2.95            0.00054483      2.6509e-008     -2.2527e-009   
  3               0.00054492      1.9221e-008     -1.4058e-009   
  3.05            0.00054507      1.302e-008      -1.8038e-009   
  3.1             0.00054521      2.5083e-008     -2.4453e-009   
  3.15            0.00054556      2.2463e-008     -1.7272e-009   
  3.2             0.00054581      2.5611e-008     -2.3897e-009   
  3.25            0.00054451      8.664e-009      1.8423e-009    
  3.3             0.00054481      -2.2653e-008    2.7219e-009    
  3.35            0.00054513      -2.3734e-008    2.1497e-009    
  3.4             0.00054561      -1.0502e-008    -8.352e-010    
  3.45            0.00054637      8.941e-009      -2.5913e-009   
  3.5             0.00054659      1.04e-008       -2.0443e-009   
  3.55            0.00054687      9.264e-009      -2.4779e-009   
  3.6             0.00054693      1.2613e-008     -1.6081e-009   
  3.65            0.00054717      7.905e-009      -2.1192e-009   
  3.7             0.00054717      6.754e-009      -2.5085e-009   
  3.75            0.00054727      8.329e-009      -1.6711e-009   
  3.8             0.00054746      3.318e-009      -2.1811e-009   
  3.85            0.00054755      1.491e-009      -2.5355e-009   
  3.9             0.00054726      -1.9251e-008    -2.4995e-009   
  3.95            0.00054725      -1.7935e-008    -2.5631e-009   
  4               0.00054637      -1.0846e-008    1.6044e-009    
  4.05            0.00054688      -3.521e-008     9.9e-012       
  4.1             0.00054797      -2.6708e-008    -1.4716e-009   
  4.15            0.00054746      -2.8487e-008    2.3008e-009    
