! VERSION = 6.00
BEGIN_HEADER
 ICCAP_INPUTS
  VG         V  B GROUND SMU4 0.001 LIN        2    0          5          6    1         
  VS         V  E GROUND SMU2 0.1 CON        0
  VD         V  S GROUND SMU1 0.1 LIN        1    0          5          101  0.05      
  VB         V  C GROUND SMU3 0.1 LIN        3    0          -2.5       2    -2.5      
 ICCAP_OUTPUTS
  ID         I  S GROUND SMU1 B
  IB         I  C GROUND SMU3 B
  IG         I  B GROUND SMU4 B
END_HEADER

BEGIN_DB
 ICCAP_VAR VG         0              
 ICCAP_VAR VS         0              
 ICCAP_VAR VB         0              

 #VD              ID              IB              IG             
  0               -1.756e-010     -8.459e-009     -9.209e-010    
  0.05            1.135e-009      2.4882e-008     -1.3231e-009   
  0.1             -1.6851e-009    8.636e-009      -4.01e-011     
  0.15            -9.015e-010     -2.3832e-008    2.6963e-009    
  0.2             8.789e-010      1.8595e-008     -1.7678e-009   
  0.25            -1.9269e-009    4.769e-009      -6.59e-010     
  0.3             -1.1211e-009    -9.533e-009     2.4546e-009    
  0.35            2.3361e-009     6.169e-009      7.058e-010     
  0.4             8.9e-010        1.8818e-008     -1.7464e-009   
  0.45            -1.926e-009     4.849e-009      -6.739e-010    
  0.5             -1.1302e-009    -9.386e-009     2.447e-009     
  0.55            2.3447e-009     5.861e-009      7.144e-010     
  0.6             9.026e-010      1.904e-008      -1.724e-009    
  0.65            -1.9226e-009    4.965e-009      -6.888e-010    
  0.7             -1.1385e-009    -9.397e-009     2.4253e-009    
  0.75            2.3484e-009     5.946e-009      7.25e-010      
  0.8             9.132e-010      1.9272e-008     -1.7018e-009   
  0.85            -1.9264e-009    4.941e-009      -7.067e-010    
  0.9             -5.702e-010     -1.8152e-008    2.0471e-009    
  0.95            2.0117e-009     -7.122e-009     1.3466e-009    
  1               7.461e-010      1.611e-008      -2.0486e-009   
  1.05            -9.421e-010     -2.4544e-008    2.6679e-009    
  1.1             9.375e-010      1.9943e-008     -1.6624e-009   
  1.15            -1.9263e-009    5.293e-009      -7.437e-010    
  1.2             -5.893e-010     -1.8703e-008    1.9969e-009    
  1.25            1.973e-009      -7.381e-009     1.3763e-009    
  1.3             7.81e-010       1.6656e-008     -1.9929e-009   
  1.35            -1.9256e-009    -9.776e-009     -7.577e-010    
  1.4             -1.3221e-009    -1.5793e-008    1.9764e-009    
  1.45            1.9662e-009     -7.753e-009     1.3891e-009    
  1.5             7.931e-010      1.6793e-008     -1.9807e-009   
  1.55            -1.8779e-009    3.787e-009      -5.03e-010     
  1.6             -4.087e-010     -1.6381e-008    2.3388e-009    
  1.65            2.209e-009      -4.732e-009     1.1828e-009    
  1.7             6.08e-010       1.3411e-008     -2.2945e-009   
  1.75            -1.7898e-009    2.501e-009      -2.346e-010    
  1.8             -1.8613e-009    -9.874e-009     -4.454e-010    
  1.85            -3.507e-010     -1.5796e-008    2.4086e-009    
  1.9             2.3591e-009     5.946e-009      7.457e-010     
  1.95            9.361e-010      1.9403e-008     -1.6969e-009   
  2               -1.9131e-009    5.197e-009      -7.3e-010      
  2.05            -1.3049e-009    -1.6651e-008    2.0287e-009    
  2.1             2.0098e-009     -7.295e-009     1.3627e-009    
  2.15            7.755e-010      1.6454e-008     -2.0298e-009   
  2.2             -1.8658e-009    3.455e-009      -4.727e-010    
  2.25            -3.796e-010     -1.6016e-008    2.3755e-009    
  2.3             2.3651e-009     6.144e-009      7.717e-010     
  2.35            1.7001e-009     1.5714e-008     -1.6494e-009   
  2.4             -1.9155e-009    5.385e-009      -7.555e-010    
  2.45            -5.863e-010     -1.8438e-008    1.9813e-009    
  2.5             1.9802e-009     -7.708e-009     1.3895e-009    
  2.55            8.018e-010      1.6798e-008     -1.9896e-009   
  2.6             -9.644e-010     -2.4686e-008    2.647e-009     
  2.65            9.809e-010      2.0574e-008     -1.6077e-009   
  2.7             -1.487e-009     5.669e-009      1.907e-010     
  2.75            -6.844e-010     -2.0558e-008    1.7239e-009    
  2.8             1.7851e-009     -9.118e-009     1.5293e-009    
  2.85            1.5268e-009     8.369e-009      1.6907e-009    
  2.9             2.2747e-009     9.022e-009      4.53e-010      
  2.95            7.2e-010        1.5285e-008     -2.1296e-009   
  3               -8.902e-010     -2.4044e-008    2.6868e-009    
  3.05            9.213e-010      1.8897e-008     -1.7401e-009   
  3.1             -1.8999e-009    5.005e-009      -6.855e-010    
  3.15            -5.392e-010     -1.8203e-008    2.0969e-009    
  3.2             2.0644e-009     -6.827e-009     1.3281e-009    
  3.25            7.517e-010      1.5664e-008     -2.0929e-009   
  3.3             -1.8433e-009    3.211e-009      -4.23e-010     
  3.35            -3.276e-010     -1.5469e-008    2.4346e-009    
  3.4             2.3672e-009     5.863e-009      7.293e-010     
  3.45            9.356e-010      1.9226e-008     -1.7111e-009   
  3.5             -1.9003e-009    4.882e-009      -7.091e-010    
  3.55            -5.505e-010     -1.8233e-008    2.0631e-009    
  3.6             2.0439e-009     -7.17e-009      1.3487e-009    
  3.65            7.68e-010       1.6011e-008     -2.0614e-009   
  3.7             -1.8482e-009    3.398e-009      -4.436e-010    
  3.75            -3.425e-010     -1.5672e-008    2.4143e-009    
  3.8             2.3734e-009     5.792e-009      7.457e-010     
  3.85            9.518e-010      1.9325e-008     -1.6878e-009   
  3.9             -1.9015e-009    5.166e-009      -7.263e-010    
  3.95            -5.579e-010     -1.8396e-008    2.0285e-009    
  4               2.0282e-009     -7.197e-009     1.3611e-009    
  4.05            7.834e-010      1.6341e-008     -2.0336e-009   
  4.1             -1.85e-009      3.556e-009      -4.621e-010    
  4.15            -3.555e-010     -1.588e-008     2.3926e-009    
  4.2             2.2528e-009     -4.5e-009       1.1568e-009    
  4.25            5.976e-010      1.3133e-008     -2.3347e-009   
  4.3             -1.7536e-009    2.328e-009      -2.058e-010    
  4.35            -1.8376e-009    -9.87e-009      -4.089e-010    
  4.4             -1.8813e-009    -9.679e-009     -6.026e-010    
  4.45            -4.796e-010     -1.7412e-008    2.211e-009     
  4.5             2.1455e-009     -5.667e-009     1.2623e-009    
  4.55            7.011e-010      1.4636e-008     -2.1889e-009   
  4.6             -8.538e-010     -2.3783e-008    2.6999e-009    
  4.65            9.032e-010      1.8174e-008     -1.8057e-009   
  4.7             -1.8813e-009    4.605e-009      -6.378e-010    
  4.75            -1.0776e-009    -9.573e-009     2.4899e-009    
  4.8             2.365e-009      6.042e-009      6.874e-010     
  4.85            9.088e-010      1.8309e-008     -1.7874e-009   
  4.9             -1.8863e-009    4.632e-009      -6.489e-010    
  4.95            -5.092e-010     -1.7992e-008    2.1467e-009    
  5               2.1112e-009     -6.233e-009     1.3006e-009    
END_DB

BEGIN_DB
 ICCAP_VAR VG         1              
 ICCAP_VAR VS         0              
 ICCAP_VAR VB         0              

 #VD              ID              IB              IG             
  0               -3.438e-007     -9.794e-009     8.492e-010     
  0.05            2.4065e-005     -8.307e-009     -1.7847e-009   
  0.1             4.205e-005      2.282e-008      -1.2671e-009   
  0.15            5.4401e-005     1.6235e-008     -1.705e-009    
  0.2             6.1924e-005     1.0969e-008     -2.3272e-009   
  0.25            6.6152e-005     1.6958e-008     -1.625e-009    
  0.3             6.8967e-005     2.4237e-008     -2.3892e-009   
  0.35            7.0407e-005     1.5954e-008     -1.7148e-009   
  0.4             7.1079e-005     1.0868e-008     -2.3359e-009   
  0.45            7.0166e-005     1.6883e-008     -1.6364e-009   
  0.5             6.9442e-005     1.1168e-008     -2.2719e-009   
  0.55            7.0105e-005     1.7509e-008     -1.5585e-009   
  0.6             7.3201e-005     2.4801e-008     -2.3438e-009   
  0.65            7.2561e-005     1.693e-008      -1.6393e-009   
  0.7             7.3651e-005     2.4082e-008     -2.4036e-009   
  0.75            7.4083e-005     1.5597e-008     -1.7364e-009   
  0.8             7.4223e-005     1.0749e-008     -2.3547e-009   
  0.85            7.4399e-005     1.6703e-008     -1.6581e-009   
  0.9             7.2073e-005     2.3983e-008     -2.4175e-009   
  0.95            7.1633e-005     1.5472e-008     -1.7513e-009   
  1               7.2181e-005     2.3295e-008     -1.2569e-009   
  1.05            7.1949e-005     1.6666e-008     -1.67e-009     
  1.1             7.1848e-005     1.0965e-008     -2.3007e-009   
  1.15            7.1704e-005     1.7284e-008     -1.5934e-009   
  1.2             7.1867e-005     1.1666e-008     -2.2324e-009   
  1.25            7.1766e-005     8.731e-009      1.8514e-009    
  1.3             7.2779e-005     -1.9734e-008    1.4325e-009    
  1.35            7.2407e-005     -1.5116e-008    2.1628e-009    
  1.4             7.4101e-005     -1.5239e-008    2.6998e-009    
  1.45            7.5799e-005     -2.453e-008     2.4195e-009    
  1.5             7.5893e-005     -1.8545e-008    1.612e-009     
  1.55            7.6585e-005     -9.655e-009     -1.0038e-009   
  1.6             7.5204e-005     1.039e-008      -2.5447e-009   
  1.65            7.5598e-005     1.2512e-008     -2.1045e-009   
  1.7             7.5523e-005     9.01e-009       1.9455e-009    
  1.75            7.6751e-005     -2.1441e-008    2.6873e-009    
  1.8             7.6695e-005     -1.5023e-008    2.1863e-009    
  1.85            7.8557e-005     -1.5482e-008    2.7059e-009    
  1.9             7.7914e-005     -2.4433e-008    2.4427e-009    
  1.95            7.7664e-005     -1.8392e-008    1.6409e-009    
  2               7.7974e-005     -2.4196e-008    2.509e-009     
  2.05            7.7608e-005     -1.8171e-008    1.7422e-009    
  2.1             7.8348e-005     -2.3682e-008    2.5736e-009    
  2.15            7.7798e-005     -1.7251e-008    1.8549e-009    
  2.2             8.0163e-005     -1.2177e-008    1.878e-010     
  2.25            7.7768e-005     1.0909e-008     -2.3192e-009   
  2.3             7.6389e-005     1.7127e-008     -1.6091e-009   
  2.35            7.5276e-005     1.131e-008      -2.2544e-009   
  2.4             7.536e-005      1.7425e-008     -1.5433e-009   
  2.45            7.6782e-005     2.4805e-008     -2.3224e-009   
  2.5             7.8031e-005     1.6575e-008     -1.6303e-009   
  2.55            7.6255e-005     1.095e-008      -2.2678e-009   
  2.6             7.7584e-005     1.7031e-008     -1.5551e-009   
  2.65            7.8395e-005     1.1307e-008     -2.1935e-009   
  2.7             7.6844e-005     7.54e-009       1.8852e-009    
  2.75            7.8697e-005     -1.1186e-008    -1.577e-010    
  2.8             7.8009e-005     1.385e-008      -1.7619e-009   
  2.85            7.9718e-005     8.549e-009      -2.3754e-009   
  2.9             8.0186e-005     1.3648e-008     -1.6846e-009   
  2.95            8.0398e-005     7.619e-009      -2.3161e-009   
  3               8.0192e-005     1.3184e-008     -1.6117e-009   
  3.05            8.0293e-005     6.659e-009      -2.2473e-009   
  3.1             8.0656e-005     1.1736e-008     -1.5372e-009   
  3.15            8.0516e-005     5.013e-009      -2.1758e-009   
  3.2             7.896e-005      2.091e-009      -2.5453e-009   
  3.25            7.83e-005       2.607e-009      -2.0987e-009   
  3.3             7.7831e-005     -1.975e-008     -2.0359e-009   
  3.35            7.8374e-005     -2.743e-009     -2.3326e-009   
  3.4             8.0475e-005     -6.688e-009     1.7754e-009    
  3.45            8.3249e-005     -2.8821e-008    -4.66e-011     
  3.5             7.9201e-005     -1.8231e-008    -1.5782e-009   
  3.55            7.8506e-005     -1.652e-008     2.1982e-009    
  3.6             7.9795e-005     -3.7265e-008    -6.415e-010    
  3.65            7.947e-005      -9.575e-009     -1.31e-009     
  3.7             7.8482e-005     -2.9368e-008    2.3889e-009    
  3.75            8.0962e-005     -4.96e-008      -9.123e-010    
  3.8             8.1237e-005     -2.0396e-008    -2.2831e-009   
  3.85            8.1782e-005     -4.2743e-008    1.8237e-009    
  3.9             8.4048e-005     -6.8612e-008    -9.28e-011     
  3.95            8.0624e-005     -5.0028e-008    -1.8717e-009   
  4               7.9313e-005     -6.2502e-008    2.0687e-009    
  4.05            8.1264e-005     -8.8124e-008    -4.175e-010    
  4.1             8.2357e-005     -6.9894e-008    -1.4721e-009   
  4.15            7.5871e-005     -7.036e-008     7.473e-010     
  4.2             7.3533e-005     -9.217e-008     -1.7537e-009   
  4.25            8.17e-005       -1.0885e-007    2.1149e-009    
  4.3             8.4844e-005     -1.411e-007     -4.974e-010    
  4.35            8.2494e-005     -1.2412e-007    -1.4017e-009   
  4.4             8.1096e-005     -1.4702e-007    2.3023e-009    
  4.45            8.305e-005      -1.7929e-007    -8.145e-010    
  4.5             8.2573e-005     -1.6134e-007    -2.4043e-009   
  4.55            8.1045e-005     -1.892e-007     1.7074e-009    
  4.6             8.374e-005      -2.2808e-007    2.14e-011      
  4.65            8.2156e-005     -2.253e-007     -2.05e-009     
  4.7             8.0998e-005     -2.4344e-007    1.9688e-009    
  4.75            8.3399e-005     -2.8541e-007    -2.71e-010     
  4.8             8.2225e-005     -2.8278e-007    -1.6157e-009   
  4.85            8.1508e-005     -3.1101e-007    2.1839e-009    
  4.9             8.626e-005      -3.6402e-007    -6.13e-010     
  4.95            8.6138e-005     -3.656e-007     -1.3211e-009   
  5               8.5572e-005     -4.059e-007     2.3746e-009    
END_DB

BEGIN_DB
 ICCAP_VAR VG         2              
 ICCAP_VAR VS         0              
 ICCAP_VAR VB         0              

 #VD              ID              IB              IG             
  0               -1.1768e-006    2.3953e-008     9.019e-010     
  0.05            7.6797e-005     -1.2278e-008    1.9913e-009    
  0.1             0.00015282      -1.3194e-008    -9.82e-011     
  0.15            0.00022767      1.6594e-008     -1.6667e-009   
  0.2             0.00030181      8.861e-009      9.352e-010     
  0.25            0.00037422      -9.179e-009     2.6752e-009    
  0.3             0.00044579      -1.6923e-008    1.8857e-009    
  0.35            0.00051633      -9.713e-009     -9.712e-010    
  0.4             0.00058491      1.0537e-008     -2.5205e-009   
  0.45            0.00065233      1.5085e-008     -1.8025e-009   
  0.5             0.00071837      2.4215e-008     -2.4012e-009   
  0.55            0.00078388      1.7564e-008     -1.5519e-009   
  0.6             0.000848        8.614e-009      9.989e-010     
  0.65            0.00090852      -1.008e-008     2.6265e-009    
  0.7             0.00096871      -1.7935e-008    1.7483e-009    
  0.75            0.00102767      -9.551e-009     -1.035e-009    
  0.8             0.00108198      1.069e-008      -2.4734e-009   
  0.85            0.00113534      1.6209e-008     -1.6774e-009   
  0.9             0.0011877       -4.017e-009     -1.346e-009    
  0.95            0.0012369       1.5667e-008     -1.7317e-009   
  1               0.0012839       2.4762e-008     -2.348e-009    
  1.05            0.0013288       8.965e-009      1.8716e-009    
  1.1             0.0013693       -2.1974e-008    2.6798e-009    
  1.15            0.0014074       -1.6803e-008    1.9149e-009    
  1.2             0.0014437       -2.3867e-008    2.5597e-009    
  1.25            0.0014763       -1.8442e-008    1.6201e-009    
  1.3             0.0015079       -2.471e-008     2.3535e-009    
  1.35            0.0015378       -9.88e-009      -7.24e-010     
  1.4             0.0015585       8.996e-009      -2.5836e-009   
  1.45            0.0015808       1.162e-008      -2.2265e-009   
  1.5             0.0016025       1.9791e-008     -1.3885e-009   
  1.55            0.0016189       1.5041e-008     -1.7996e-009   
  1.6             0.0016335       2.4355e-008     -2.3935e-009   
  1.65            0.001644        1.7556e-008     -1.5466e-009   
  1.7             0.0016574       8.377e-009      1.002e-009     
  1.75            0.0016631       -1.0165e-008    2.6159e-009    
  1.8             0.0016728       -1.8081e-008    1.7306e-009    
  1.85            0.0016813       -2.4538e-008    2.444e-009     
  1.9             0.0016915       -9.775e-009     -6.478e-010    
  1.95            0.0016947       2.3642e-008     -2.4505e-009   
  2               0.0016982       1.6883e-008     -1.6305e-009   
  2.05            0.0017012       1.2444e-008     -2.1249e-009   
  2.1             0.0017012       2.1205e-008     -1.321e-009    
  2.15            0.0017029       1.6296e-008     -1.6807e-009   
  2.2             0.0017056       2.5367e-008     -2.309e-009    
  2.25            0.0017093       8.903e-009      1.9084e-009    
  2.3             0.001712        -2.2527e-008    2.6586e-009    
  2.35            0.0017124       -1.7208e-008    1.8521e-009    
  2.4             0.0017181       -9.747e-009     -9.892e-010    
  2.45            0.0017202       1.0684e-008     -2.5083e-009   
  2.5             0.0017293       1.5266e-008     -1.7704e-009   
  2.55            0.0017347       1.1495e-008     -2.2511e-009   
  2.6             0.0017364       1.9425e-008     -1.4035e-009   
  2.65            0.0017314       1.4878e-008     -1.8251e-009   
  2.7             0.0017394       2.4162e-008     -2.4133e-009   
  2.75            0.0017423       1.7491e-008     -1.5706e-009   
  2.8             0.0017439       8.631e-009      9.88e-010      
  2.85            0.0017389       -9.959e-009     2.632e-009     
  2.9             0.0017398       -1.7908e-008    1.7633e-009    
  2.95            0.0017433       -9.654e-009     -1.0292e-009   
  3               0.0017433       1.0717e-008     -2.4854e-009   
  3.05            0.0017498       1.6026e-008     -1.7041e-009   
  3.1             0.0017526       1.1964e-008     -2.1876e-009   
  3.15            0.0017553       2.0265e-008     -1.3585e-009   
  3.2             0.0017562       1.5571e-008     -1.7509e-009   
  3.25            0.0017542       1.1292e-008     -2.2265e-009   
  3.3             0.0017556       1.9403e-008     -1.392e-009    
  3.35            0.00176         1.4501e-008     -1.7961e-009   
  3.4             0.0017661       1.0579e-008     -2.2686e-009   
  3.45            0.0017657       1.7981e-008     -1.4182e-009   
  3.5             0.0017645       1.2921e-008     -1.8459e-009   
  3.55            0.001768        8.679e-009      -2.3037e-009   
  3.6             0.001772        5.785e-009      1.9123e-009    
  3.65            0.0017782       -1.3829e-008    -3.277e-010    
  3.7             0.0017732       1.3791e-008     -1.4199e-009   
  3.75            0.001775        7.149e-009      -1.8482e-009   
  3.8             0.0017741       1.386e-009      -2.3103e-009   
  3.85            0.0017787       -1.7025e-008    -2.5876e-009   
  3.9             0.0017748       -4.439e-009     -2.2434e-009   
  3.95            0.0017766       -1.1807e-008    1.9592e-009    
  4               0.001784        -3.5324e-008    -3.95e-010     
  4.05            0.0017815       -1.1453e-008    -1.3746e-009   
  4.1             0.0017818       -3.4366e-008    2.4108e-009    
  4.15            0.0017896       -5.817e-008     -1.0372e-009   
