! VERSION = 6.00
BEGIN_HEADER
 ICCAP_INPUTS
  VG         V  B GROUND SMU4 0.001 LIN        2    0          5          6    1         
  VS         V  E GROUND SMU2 0.1 CON        0
  VD         V  S GROUND SMU1 0.1 LIN        1    0          5          101  0.05      
  VB         V  C GROUND SMU3 0.1 LIN        3    0          -2.5       2    -2.5      
 ICCAP_OUTPUTS
  ID         I  S GROUND SMU1 B
  IB         I  C GROUND SMU3 B
  IG         I  B GROUND SMU4 B
END_HEADER

BEGIN_DB
 ICCAP_VAR VG         0              
 ICCAP_VAR VS         0              
 ICCAP_VAR VB         0              

 #VD              ID              IB              IG             
  0               -3.58e-010      -2.3931e-008    2.6834e-009    
  0.05            1.6394e-009     2.2692e-008     -2.0284e-009   
  0.1             -1.8618e-009    4.32e-009       -5.242e-010    
  0.15            -1.1702e-009    -2.2639e-008    2.3751e-009    
  0.2             2.3005e-009     -5.261e-009     1.2344e-009    
  0.25            7.201e-010      1.5583e-008     -2.2997e-009   
  0.3             -1.826e-009     2.558e-009      -2.7e-010      
  0.35            -1.8554e-009    -1.123e-008     -4.872e-010    
  0.4             -1.8461e-009    -1.0704e-008    -6.984e-010    
  0.45            -1.0931e-009    -9.079e-009     2.476e-009     
  0.5             3.804e-010      1.2176e-008     -2.5184e-009   
  0.55            -1.2029e-009    -2.0817e-008    2.2658e-009    
  0.6             2.2506e-009     -5.912e-009     1.2969e-009    
  0.65            7.841e-010      1.6145e-008     -2.2237e-009   
  0.7             -1.8352e-009    2.938e-009      -3.547e-010    
  0.75            -1.8458e-009    -1.1209e-008    -5.742e-010    
  0.8             -9.977e-010     -1.0103e-008    2.5791e-009    
  0.85            2.419e-009      7.032e-009      6.572e-010     
  0.9             1.705e-009      1.9734e-008     -1.9103e-009   
  0.95            -1.8397e-009    4.728e-009      -6.111e-010    
  1               -1.0256e-009    -9.775e-009     2.5539e-009    
  1.05            2.4266e-009     6.846e-009      6.882e-010     
  1.1             1.7267e-009     1.8465e-008     -1.846e-009    
  1.15            -1.8352e-009    4.791e-009      -6.533e-010    
  1.2             -1.0506e-009    -9.418e-009     2.5154e-009    
  1.25            3.623e-010      1.1833e-008     -2.5252e-009   
  1.3             -1.1626e-009    -2.1999e-008    2.3302e-009    
  1.35            2.2956e-009     -5.544e-009     1.2622e-009    
  1.4             7.624e-010      1.5732e-008     -2.2631e-009   
  1.45            -1.8142e-009    2.516e-009      -3.087e-010    
  1.5             -1.8344e-009    -1.1114e-008    -5.278e-010    
  1.55            -1.1436e-009    -2.2497e-008    2.3648e-009    
  1.6             2.3144e-009     -5.341e-009     1.2404e-009    
  1.65            7.452e-010      1.5542e-008     -2.2918e-009   
  1.7             -1.8017e-009    2.493e-009      -2.768e-010    
  1.75            -1.8317e-009    -1.1262e-008    -5.011e-010    
  1.8             -1.1278e-009    -2.3135e-008    2.3954e-009    
  1.85            2.3369e-009     -5.113e-009     1.2242e-009    
  1.9             7.276e-010      1.5494e-008     -2.3151e-009   
  1.95            -1.7895e-009    2.227e-009      -2.476e-010    
  2               -1.828e-009     -1.1306e-008    -4.706e-010    
  2.05            -9.143e-010     -1.0799e-008    2.6295e-009    
  2.1             1.7869e-009     1.634e-008      -1.7553e-009   
  2.15            -1.4113e-009    4.776e-009      2.6668e-009    
  2.2             1.7294e-009     1.9562e-008     -1.8953e-009   
  2.25            -1.8211e-009    4.807e-009      -6.239e-010    
  2.3             -1.0088e-009    -9.766e-009     2.5429e-009    
  2.35            2.4436e-009     6.659e-009      6.93e-010      
  2.4             1.7566e-009     1.8164e-008     -1.8343e-009   
  2.45            -1.8178e-009    4.736e-009      -6.578e-010    
  2.5             -1.0344e-009    -9.379e-009     2.5179e-009    
  2.55            3.879e-010      1.1847e-008     -2.5285e-009   
  2.6             -1.1501e-009    -2.1968e-008    2.3245e-009    
  2.65            1.2655e-009     -5.744e-009     2.261e-009     
  2.7             8.791e-010      1.6593e-008     -2.107e-009    
  2.75            -1.8181e-009    3.927e-009      -4.553e-010    
  2.8             -1.8135e-009    -1.0644e-008    -6.648e-010    
  2.85            -1.2072e-009    -1.9072e-008    2.1677e-009    
  2.9             2.221e-009      -6.582e-009     1.354e-009     
  2.95            8.622e-010      1.635e-008      -2.1456e-009   
  3               -1.8127e-009    3.713e-009      -4.208e-010    
  3.05            -1.0659e-009    -2.4038e-008    2.4694e-009    
  3.1             1.2763e-009     -3.851e-009     2.1652e-009    
  3.15            7.95e-010       1.575e-008      -2.26e-009     
  3.2             -1.3568e-009    -1.0252e-008    2.6877e-009    
  3.25            1.6688e-009     2.3187e-008     -2.0582e-009   
  3.3             -1.8139e-009    4.098e-009      -4.943e-010    
  3.35            -9.121e-010     -1.0403e-008    2.6152e-009    
  3.4             1.816e-009      1.5982e-008     -1.7268e-009   
  3.45            -1.4112e-009    4.731e-009      2.6563e-009    
  3.5             1.7541e-009     1.8806e-008     -1.8707e-009   
  3.55            -1.8099e-009    4.654e-009      -6.37e-010     
  3.6             -1.1853e-009    -1.9805e-008    2.2164e-009    
  3.65            1.2757e-009     -6.32e-009      2.3185e-009    
  3.7             9.466e-010      1.7008e-008     -2.0062e-009   
  3.75            -1.8101e-009    4.126e-009      -5.302e-010    
  3.8             -9.358e-010     -1.0386e-008    2.5966e-009    
  3.85            2.4521e-009     7.199e-009      6.207e-010     
  3.9             1.7162e-009     2.0829e-008     -1.9589e-009   
  3.95            -1.8059e-009    4.624e-009      -5.736e-010    
  4               -1.1497e-009    -2.1355e-008    2.3e-009       
  4.05            1.2799e-009     -5.751e-009     2.273e-009     
  4.1             9.082e-010      1.6636e-008     -2.0876e-009   
  4.15            -1.8055e-009    3.805e-009      -4.704e-010    
  4.2             -8.888e-010     -1.0502e-008    2.6289e-009    
  4.25            1.8118e-009     1.6454e-008     -1.7502e-009   
  4.3             -1.3952e-009    4.886e-009      2.6636e-009    
  4.35            1.7484e-009     1.9562e-008     -1.8969e-009   
  4.4             -1.8027e-009    4.703e-009      -6.214e-010    
  4.45            -1.1686e-009    -2.0261e-008    2.233e-009     
  4.5             1.2832e-009     -6.308e-009     2.3062e-009    
  4.55            9.398e-010      1.6985e-008     -2.0191e-009   
  4.6             -1.8042e-009    4.112e-009      -5.209e-010    
  4.65            -1.1103e-009    -2.2538e-008    2.364e-009     
  4.7             1.2884e-009     -4.963e-009     2.2352e-009    
  4.75            8.739e-010      1.628e-008      -2.1469e-009   
  4.8             -1.7955e-009    3.233e-009      -4.111e-010    
  4.85            -1.7985e-009    -1.079e-008     -6.289e-010    
  4.9             -1.1709e-009    -1.9978e-008    2.2151e-009    
  4.95            1.2878e-009     -6.2e-009       2.3131e-009    
  5               9.519e-010      1.6734e-008     -2.0042e-009   
END_DB

BEGIN_DB
 ICCAP_VAR VG         1              
 ICCAP_VAR VS         0              
 ICCAP_VAR VB         0              

 #VD              ID              IB              IG             
  0               -1.3082e-007    1.1535e-008     -2.524e-009    
  0.05            8.5036e-006     -1.0742e-008    -2.5511e-009   
  0.1             1.4559e-005     1.9397e-008     -1.0955e-009   
  0.15            1.85e-005       1.1206e-008     -2.4976e-009   
  0.2             2.0981e-005     1.533e-008      -2.0077e-009   
  0.25            2.2165e-005     1.7015e-008     -1.4317e-009   
  0.3             2.1436e-005     7.79e-009       1.0162e-009    
  0.35            2.2394e-005     -9.161e-009     2.6775e-009    
  0.4             2.2818e-005     -1.705e-008     2.22e-009      
  0.45            2.2271e-005     -1.1119e-008    -7.373e-010    
  0.5             2.2454e-005     6.945e-009      -2.576e-009    
  0.55            2.3389e-005     1.2564e-008     -2.4571e-009   
  0.6             2.3404e-005     1.5891e-008     -1.8741e-009   
  0.65            2.1961e-005     9.966e-009      7.599e-010     
  0.7             2.2519e-005     -7.79e-009      2.6908e-009    
  0.75            2.3122e-005     -9.908e-009     1.649e-010     
  0.8             2.3442e-005     1.3892e-008     -2.2569e-009   
  0.85            2.1648e-005     8.521e-009      1.917e-009     
  0.9             2.3016e-005     -1.8823e-008    2.6925e-009    
  0.95            2.2911e-005     -1.6498e-008    2.3514e-009    
  1               2.3248e-005     -1.8096e-008    1.6678e-009    
  1.05            2.3119e-005     -1.6067e-008    2.4309e-009    
  1.1             2.3413e-005     -1.9867e-008    1.7745e-009    
  1.15            2.3108e-005     -1.51e-008      2.4936e-009    
  1.2             2.3516e-005     -2.1522e-008    1.8879e-009    
  1.25            2.2463e-005     -1.0626e-008    -9.024e-010    
  1.3             2.3006e-005     8.064e-009      -2.5525e-009   
  1.35            2.3384e-005     1.293e-008      -2.3186e-009   
  1.4             2.348e-005      2.4878e-008     -1.7723e-009   
  1.45            2.2045e-005     9.643e-009      8.163e-010     
  1.5             2.2503e-005     -7.669e-009     2.6942e-009    
  1.55            2.3199e-005     -9.292e-009     1.143e-010     
  1.6             2.3458e-005     1.441e-008      -2.1739e-009   
  1.65            2.1815e-005     8.269e-009      1.9775e-009    
  1.7             2.3124e-005     -1.9241e-008    2.6801e-009    
  1.75            2.3244e-005     -1.7104e-008    2.2641e-009    
  1.8             2.2577e-005     -1.1311e-008    -7.058e-010    
  1.85            2.2891e-005     6.888e-009      -2.5729e-009   
  1.9             2.3468e-005     1.3171e-008     -2.4692e-009   
  1.95            2.3687e-005     1.5876e-008     -1.9146e-009   
  2               2.2388e-005     1.0041e-008     7.36e-010      
  2.05            2.2548e-005     -7.667e-009     2.6846e-009    
  2.1             2.3342e-005     -1.0302e-008    1.849e-010     
  2.15            2.3737e-005     1.3498e-008     -2.2856e-009   
  2.2             2.1939e-005     8.769e-009      1.8857e-009    
  2.25            2.3613e-005     -1.8223e-008    2.6883e-009    
  2.3             2.3517e-005     -1.625e-008     2.3825e-009    
  2.35            2.3821e-005     -1.8937e-008    1.7053e-009    
  2.4             2.2713e-005     -9.982e-009     -9.737e-010    
  2.45            2.3223e-005     9.186e-009      -2.5291e-009   
  2.5             2.3697e-005     1.3983e-008     -2.2126e-009   
  2.55            2.1962e-005     8.66e-009       1.9447e-009    
  2.6             2.3396e-005     -1.9027e-008    2.6837e-009    
  2.65            2.2724e-005     -9.497e-009     -5.89e-011     
  2.7             2.327e-005      1.5707e-008     -1.9106e-009   
  2.75            2.3203e-005     1.1552e-008     -2.4387e-009   
  2.8             2.3369e-005     1.5929e-008     -1.8163e-009   
  2.85            2.3441e-005     1.1761e-008     -2.3955e-009   
  2.9             2.3468e-005     1.5881e-008     -1.7182e-009   
  2.95            2.331e-005      1.1744e-008     -2.3433e-009   
  3               2.361e-005      1.5882e-008     -1.6223e-009   
  3.05            2.3573e-005     1.1867e-008     -2.2847e-009   
  3.1             2.1917e-005     7.384e-009      1.8887e-009    
  3.15            2.3305e-005     -2.0477e-008    2.6898e-009    
  3.2             2.2877e-005     -1.0945e-008    -1.5831e-009   
  3.25            2.3608e-005     1.2488e-008     -2.0016e-009   
  3.3             2.3385e-005     8.124e-009      -2.4706e-009   
  3.35            2.367e-005      1.1933e-008     -1.9059e-009   
  3.4             2.3618e-005     7.326e-009      -2.4352e-009   
  3.45            2.3738e-005     1.1098e-008     -1.8076e-009   
  3.5             2.3705e-005     5.986e-009      -2.3962e-009   
  3.55            2.3682e-005     9.791e-009      -1.7182e-009   
  3.6             2.3784e-005     4.745e-009      -2.344e-009    
  3.65            2.3886e-005     7.947e-009      -1.6205e-009   
  3.7             2.2018e-005     -3.256e-009     2.2914e-009    
  3.75            2.2908e-005     -2.2813e-008    -6.465e-010    
  3.8             2.2937e-005     -7.23e-009      -2.5718e-009   
  3.85            2.2261e-005     -1.754e-008     -2.5208e-009   
  3.9             2.3908e-005     -2.082e-009     -2.1783e-009   
  3.95            2.236e-005      -2.3465e-008    -2.5551e-009   
  4               2.2219e-005     -1.2815e-008    1.3344e-009    
  4.05            2.3849e-005     -3.9164e-008    1.5925e-009    
  4.1             2.2381e-005     -3.3512e-008    -2.2886e-009   
  4.15            2.2735e-005     -1.7051e-008    6.53e-010      
  4.2             2.407e-005      -5.2002e-008    2.6562e-009    
  4.25            2.3098e-005     -4.3689e-008    -1.7287e-009   
  4.3             2.4138e-005     -2.7301e-008    -1.429e-010    
  4.35            2.352e-005      -5.7355e-008    2.4248e-009    
  4.4             2.2701e-005     -5.4071e-008    -1.9076e-009   
  4.45            2.3535e-005     -3.8483e-008    1.433e-010     
  4.5             2.3663e-005     -7.0712e-008    1.9426e-009    
  4.55            2.2606e-005     -6.6686e-008    -2.122e-009    
  4.6             2.3141e-005     -5.1005e-008    4.68e-010      
  4.65            2.4046e-005     -8.6973e-008    2.69e-009      
  4.7             2.3434e-005     -8.1503e-008    -1.5828e-009   
  4.75            2.4331e-005     -6.4571e-008    -2.4802e-009   
  4.8             2.2679e-005     -7.5965e-008    1.6429e-009    
  4.85            2.367e-005      -1.024e-007     2.502e-010     
  4.9             2.3592e-005     -1.10203e-007   -1.7841e-009   
  4.95            2.3179e-005     -1.1792e-007    -2.4959e-009   
  5               2.3201e-005     -1.0486e-007    8.695e-010     
END_DB

BEGIN_DB
 ICCAP_VAR VG         2              
 ICCAP_VAR VS         0              
 ICCAP_VAR VB         0              

 #VD              ID              IB              IG             
  0               -5.1565e-007    -8.251e-009     2.6825e-009    
  0.05            3.8034e-005     1.2903e-008     -2.99e-010     
  0.1             7.4988e-005     1.7137e-008     -1.5969e-009   
  0.15            0.000110682     1.3718e-008     -2.2689e-009   
  0.2             0.00014496      1.8172e-008     1.6254e-009    
  0.25            0.00017845      -1.7679e-008    1.6837e-009    
  0.3             0.00021033      -9.106e-009     -1.0864e-009   
  0.35            0.00024102      1.2021e-008     -2.4483e-009   
  0.4             0.00027017      1.6931e-008     -1.6534e-009   
  0.45            0.00029716      8.341e-009      9.811e-010     
  0.5             0.00032356      -1.0346e-008    2.656e-009     
  0.55            0.00034829      -1.7659e-008    1.8693e-009    
  0.6             0.00037129      -2.3132e-008    2.5418e-009    
  0.65            0.000393        -1.9585e-008    1.7554e-009    
  0.7             0.00041227      -1.6724e-008    2.3412e-009    
  0.75            0.00043047      -1.1207e-008    -7.785e-010    
  0.8             0.00044705      8.101e-009      -2.5512e-009   
  0.85            0.0004616       1.4078e-008     -2.2096e-009   
  0.9             0.00047461      1.7723e-008     -1.4595e-009   
  0.95            0.00048371      7.228e-009      1.0955e-009    
  1               0.00049435      -2.1064e-008    1.8882e-009    
  1.05            0.00050189      -1.5994e-008    2.4268e-009    
  1.1             0.00050795      -1.1248e-008    -7.075e-010    
  1.15            0.00051304      7.697e-009      -2.5633e-009   
  1.2             0.0005174       1.3458e-008     -2.289e-009    
  1.25            0.00052058      1.9954e-008     -1.5472e-009   
  1.3             0.00051993      7.616e-009      1.0422e-009    
  1.35            0.00052337      -2.2809e-008    2.0108e-009    
  1.4             0.0005236       -1.494e-008     2.4975e-009    
  1.45            0.00052459      -1.8088e-008    1.6721e-009    
  1.5             0.0005249       -9.033e-009     -1.094e-009    
  1.55            0.00052673      1.1803e-008     -2.444e-009    
  1.6             0.00052684      1.6997e-008     -1.6461e-009   
  1.65            0.00052505      8.295e-009      9.88e-010      
  1.7             0.00052695      -2.3728e-008    2.139e-009     
  1.75            0.00052898      -1.1506e-008    2.431e-010     
  1.8             0.00052964      1.4117e-008     -2.2332e-009   
  1.85            0.00052971      1.8221e-008     -1.4819e-009   
  1.9             0.00052616      7.556e-009      1.0802e-009    
  1.95            0.00052917      -2.1572e-008    1.9253e-009    
  2               0.00052911      -9.715e-009     1.538e-010     
  2.05            0.00053002      1.5233e-008     -2.0828e-009   
  2.1             0.00053054      1.4668e-008     -1.3652e-009   
  2.15            0.00053033      1.6241e-008     -1.8047e-009   
  2.2             0.00053031      1.3473e-008     -2.2728e-009   
  2.25            0.00053087      1.9585e-008     -1.5337e-009   
  2.3             0.00052876      7.548e-009      1.0498e-009    
  2.35            0.00053004      -2.2485e-008    1.9924e-009    
  2.4             0.00053034      -1.0189e-008    -9.53e-010     
  2.45            0.00053112      1.0463e-008     -2.5101e-009   
  2.5             0.0005317       1.586e-008      -1.9072e-009   
  2.55            0.0005316       1.2623e-008     -2.3416e-009   
  2.6             0.00052924      8.422e-009      1.9556e-009    
  2.65            0.00053124      -2.1008e-008    2.6553e-009    
  2.7             0.00053099      -1.78e-008      1.8874e-009    
  2.75            0.00053133      -1.5945e-008    2.4318e-009    
  2.8             0.00053195      -1.1278e-008    -7.039e-010    
  2.85            0.00053233      7.795e-009      -2.5648e-009   
  2.9             0.00053345      1.3319e-008     -2.292e-009    
  2.95            0.00053382      2.0043e-008     -1.5537e-009   
  3               0.00053083      7.666e-009      1.0367e-009    
  3.05            0.00053342      -2.2815e-008    2.0124e-009    
  3.1             0.00053234      -1.52e-008      2.505e-009     
  3.15            0.00053301      -1.8415e-008    1.6832e-009    
  3.2             0.00053287      -2.4442e-008    2.4417e-009    
  3.25            0.00053339      -1.6799e-008    1.5801e-009    
  3.3             0.00053384      -9.155e-009     -1.1393e-009   
  3.35            0.00053455      1.1552e-008     -2.4087e-009   
  3.4             0.00053171      8.061e-009      1.8763e-009    
  3.45            0.00053419      -2.0651e-008    2.6749e-009    
  3.5             0.00053393      -2.5834e-008    2.2384e-009    
  3.55            0.00053492      -1.3346e-008    -8.373e-010    
  3.6             0.00053502      5.78e-009       -2.5396e-009   
  3.65            0.00053582      1.0893e-008     -2.1277e-009   
  3.7             0.00053555      6.826e-009      -2.4472e-009   
  3.75            0.00053587      1.0471e-008     -1.6702e-009   
  3.8             0.0005357       6.194e-009      -2.1708e-009   
  3.85            0.00053572      1.303e-009      -2.4692e-009   
  3.9             0.00053593      3.491e-009      -1.7135e-009   
  3.95            0.00053431      -9.44e-009      2.3412e-009    
  4               0.00053584      -3.138e-008     -8.316e-010    
  4.05            0.0005362       -4e-012         -2.3155e-009   
  4.1             0.00053423      -2.1447e-008    1.9817e-009    
  4.15            0.00053637      -4.6778e-008    -3.451e-010    
