! VERSION = 6.00
BEGIN_HEADER
 ICCAP_INPUTS
  VG         V  B GROUND SMU4 0.001 LIN        2    0          5          6    1         
  VS         V  E GROUND SMU2 0.1 CON        0
  VD         V  S GROUND SMU1 0.1 LIN        1    0          5          101  0.05      
  VB         V  C GROUND SMU3 0.1 LIN        3    0          -2.5       2    -2.5      
 ICCAP_OUTPUTS
  ID         I  S GROUND SMU1 B
  IB         I  C GROUND SMU3 B
  IG         I  B GROUND SMU4 B
END_HEADER

BEGIN_DB
 ICCAP_VAR VG         0              
 ICCAP_VAR VS         0              
 ICCAP_VAR VB         0              

 #VD              ID              IB              IG             
  0               -1.2563e-009    -5.796e-009     -1.2852e-009   
  0.05            -1.8906e-009    1.0131e-008     -1.687e-010    
  0.1             -1.9677e-009    -1.043e-008     -3.84e-010     
  0.15            -2.0173e-009    -9.565e-009     -5.982e-010    
  0.2             -1.3448e-009    -1.8581e-008    2.2135e-009    
  0.25            2.059e-009      -4.796e-009     1.2454e-009    
  0.3             5.738e-010      1.327e-008      -2.2021e-009   
  0.35            -1.9467e-009    2.532e-009      -3.332e-010    
  0.4             -1.9986e-009    -9.973e-009     -5.4e-010      
  0.45            -1.3095e-009    -1.9709e-008    2.2943e-009    
  0.5             2.1186e-009     -4.275e-009     1.2086e-009    
  0.55            5.38e-010       1.2713e-008     -2.2629e-009   
  0.6             -1.9288e-009    2.688e-009      -2.737e-010    
  0.65            -1.9877e-009    -1.0148e-008    -4.896e-010    
  0.7             -5.108e-010     -1.4954e-008    2.3717e-009    
  0.75            2.1592e-009     -4.054e-009     1.1669e-009    
  0.8             1.1842e-009     2.6466e-008     -2.4609e-009   
  0.85            -1.8345e-009    1.583e-009      -7.13e-011     
  0.9             -1.0247e-009    -2.4836e-008    2.7108e-009    
  0.95            1.5162e-009     1.8605e-008     -1.8479e-009   
  1               -2.0066e-009    3.825e-009      -6.009e-010    
  1.05            -2.0514e-009    -8.792e-009     -7.945e-010    
  1.1             -1.4487e-009    -1.4167e-008    1.9157e-009    
  1.15            2.2324e-009     -7.355e-009     5.93e-010      
  1.2             1.483e-009      1.9893e-008     -1.9234e-009   
  1.25            -1.9936e-009    3.449e-009      -5.476e-010    
  1.3             -1.3092e-009    -1.9688e-008    2.2899e-009    
  1.35            2.1114e-009     -4.399e-009     1.2094e-009    
  1.4             5.51e-010       1.2947e-008     -2.2573e-009   
  1.45            -1.9257e-009    2.497e-009      -2.834e-010    
  1.5             -1.9822e-009    -1.0115e-008    -4.976e-010    
  1.55            -1.2765e-009    -2.068e-008     2.3597e-009    
  1.6             2.1643e-009     -4.036e-009     1.176e-009     
  1.65            1.195e-009      2.6325e-008     -2.4517e-009   
  1.7             -1.8319e-009    1.837e-009      -8.12e-011     
  1.75            -1.0251e-009    -2.4864e-008    2.7097e-009    
  1.8             1.5244e-009     1.8421e-008     -1.8431e-009   
  1.85            -2.0029e-009    4.009e-009      -6.091e-010    
  1.9             -1.3418e-009    -1.823e-008     2.208e-009     
  1.95            2.0679e-009     -5.161e-009     1.2576e-009    
  2               5.984e-010      1.3381e-008     -2.1882e-009   
  2.05            -1.9396e-009    2.75e-009       -3.429e-010    
  2.1             -1.9926e-009    -9.831e-009     -5.566e-010    
  2.15            -1.3114e-009    -1.9462e-008    2.276e-009     
  2.2             2.1199e-009     -4.601e-009     1.2151e-009    
  2.25            1.2333e-009     2.5965e-008     -2.3992e-009   
  2.3             -1.8595e-009    2.006e-009      -1.507e-010    
  2.35            -1.059e-009     -2.5091e-008    2.6851e-009    
  2.4             8.968e-010      2.0579e-008     -1.6012e-009   
  2.45            -2.0412e-009    5.164e-009      -7.942e-010    
  2.5             -1.4433e-009    -1.4233e-008    1.9196e-009    
  2.55            2.2428e-009     -7.264e-009     5.907e-010     
  2.6             1.4884e-009     1.9778e-008     -1.9322e-009   
  2.65            -1.9862e-009    3.517e-009      -5.529e-010    
  2.7             -1.3068e-009    -1.9637e-008    2.2927e-009    
  2.75            2.1276e-009     -4.662e-009     1.2115e-009    
  2.8             1.2361e-009     2.6169e-008     -2.409e-009    
  2.85            -1.8568e-009    2.077e-009      -1.294e-010    
  2.9             -1.9428e-009    -1.054e-008     -3.505e-010    
  2.95            -1.9893e-009    -9.868e-009     -5.626e-010    
  3               -1.3145e-009    -1.9317e-008    2.2733e-009    
  3.05            2.1163e-009     -4.555e-009     1.2258e-009    
  3.1             5.688e-010      1.3089e-008     -2.2478e-009   
  3.15            -1.9213e-009    2.591e-009      -2.922e-010    
  3.2             -1.9786e-009    -1.0085e-008    -5.091e-010    
  3.25            -1.2819e-009    -2.0351e-008    2.34e-009      
  3.3             2.158e-009      -4.147e-009     1.1865e-009    
  3.35            5.32e-010       1.2799e-008     -2.3011e-009   
  3.4             -1.9012e-009    2.705e-009      -2.439e-010    
  3.45            -1.9651e-009    -1.0269e-008    -4.63e-010     
  3.5             -1.2479e-009    -2.1462e-008    2.4025e-009    
  3.55            2.1997e-009     -3.918e-009     1.1492e-009    
  3.6             1.1846e-009     2.6439e-008     -2.4822e-009   
  3.65            -1.8084e-009    1.811e-009      -4.81e-011     
  3.7             -9.993e-010     -2.492e-008     2.7231e-009    
  3.75            1.5121e-009     1.919e-008      -1.8891e-009   
  3.8             -1.9901e-009    3.779e-009      -5.779e-010    
  3.85            -2.0304e-009    -8.982e-009     -7.791e-010    
  3.9             -1.4292e-009    -1.4754e-008    1.9548e-009    
  3.95            1.8859e-009     -6.99e-009      1.3976e-009    
  4               1.387e-009      2.3005e-008     -2.1449e-009   
  4.05            -1.9416e-009    2.874e-009      -3.854e-010    
  4.1             -1.9903e-009    -9.745e-009     -5.935e-010    
  4.15            -1.3311e-009    -1.8641e-008    2.2314e-009    
  4.2             2.0879e-009     -4.826e-009     1.2488e-009    
  4.25            5.972e-010      1.3545e-008     -2.2075e-009   
  4.3             -1.9308e-009    2.766e-009      -3.305e-010    
  4.35            -1.9798e-009    -9.965e-009     -5.413e-010    
  4.4             -1.2983e-009    -1.9724e-008    2.298e-009     
  4.45            2.1419e-009     -4.306e-009     1.2105e-009    
  4.5             5.589e-010      1.2927e-008     -2.2627e-009   
  4.55            -1.9114e-009    2.504e-009      -2.746e-010    
  4.6             -1.969e-009     -1.0198e-008    -4.975e-010    
  4.65            -1.2669e-009    -2.0783e-008    2.3618e-009    
  4.7             2.1763e-009     -4.241e-009     1.1776e-009    
  4.75            1.211e-009      2.6406e-008     -2.4538e-009   
  4.8             -1.8235e-009    1.751e-009      -8.06e-011     
  4.85            -1.0173e-009    -2.4895e-008    2.7118e-009    
  4.9             1.5409e-009     1.8292e-008     -1.8472e-009   
  4.95            -1.99e-009      3.873e-009      -6.141e-010    
  5               -1.3379e-009    -1.8267e-008    2.2025e-009    
END_DB

BEGIN_DB
 ICCAP_VAR VG         1              
 ICCAP_VAR VS         0              
 ICCAP_VAR VB         0              

 #VD              ID              IB              IG             
  0               -2.0478e-008    1.7142e-008     8.984e-010     
  0.05            1.4729e-006     -4.65e-009      -1.0379e-009   
  0.1             2.3953e-006     2.151e-008      -1.353e-009    
  0.15            2.8605e-006     9.48e-009       7.048e-010     
  0.2             3.0007e-006     -1.6634e-008    1.8058e-009    
  0.25            3.135e-006      -2.0789e-008    1.9549e-009    
  0.3             3.1328e-006     -2.2621e-008    2.1149e-009    
  0.35            3.195e-006      -2.4021e-008    2.2609e-009    
  0.4             3.2343e-006     -2.4501e-008    2.3933e-009    
  0.45            3.2341e-006     -2.4384e-008    2.5134e-009    
  0.5             3.2567e-006     -2.3683e-008    2.606e-009     
  0.55            3.2488e-006     -2.2934e-008    2.6731e-009    
  0.6             3.3433e-006     -1.1608e-008    2.129e-010     
  0.65            3.2356e-006     9.565e-009      -2.5814e-009   
  0.7             3.3518e-006     2.0671e-008     -1.6117e-009   
  0.75            3.2391e-006     9.07e-009       1.8327e-009    
  0.8             3.3567e-006     -1.3824e-008    2.7193e-009    
  0.85            3.3699e-006     -1.347e-008     2.7139e-009    
  0.9             3.3673e-006     -1.2784e-008    2.7044e-009    
  0.95            3.3617e-006     -1.2358e-008    2.6924e-009    
  1               3.3423e-006     -1.2031e-008    2.6749e-009    
  1.05            3.3437e-006     -1.161e-008     2.117e-010     
  1.1             3.1916e-006     9.584e-009      -2.5781e-009   
  1.15            3.3224e-006     2.0897e-008     -1.6206e-009   
  1.2             3.2345e-006     9.186e-009      1.8383e-009    
  1.25            3.3806e-006     -1.3747e-008    2.7222e-009    
  1.3             3.3839e-006     -1.3325e-008    2.7134e-009    
  1.35            3.2866e-006     -1.2808e-008    2.7022e-009    
  1.4             3.2894e-006     -1.2398e-008    2.691e-009     
  1.45            3.2739e-006     -1.2028e-008    2.6749e-009    
  1.5             3.2886e-006     -1.174e-008     2.157e-010     
  1.55            3.1465e-006     9.64e-009       -2.5805e-009   
  1.6             3.2537e-006     1.6283e-008     -1.623e-009    
  1.65            3.2184e-006     8.893e-009      1.8276e-009    
  1.7             3.3469e-006     -1.3842e-008    2.724e-009     
  1.75            3.3607e-006     -1.337e-008     2.715e-009     
  1.8             3.3561e-006     -1.2889e-008    2.7059e-009    
  1.85            3.3253e-006     -1.2381e-008    2.6912e-009    
  1.9             3.3115e-006     -1.208e-008     2.6693e-009    
  1.95            3.2786e-006     -1.1748e-008    2.143e-010     
  2               3.1757e-006     9.464e-009      -2.5793e-009   
  2.05            3.2433e-006     1.6425e-008     -1.6242e-009   
  2.1             3.2068e-006     8.96e-009       1.8285e-009    
  2.15            3.3388e-006     -1.384e-008     2.7265e-009    
  2.2             3.3641e-006     -1.346e-008     2.7169e-009    
  2.25            3.2632e-006     -1.2941e-008    2.7034e-009    
  2.3             3.207e-006      -1.2497e-008    2.6867e-009    
  2.35            3.1993e-006     -1.2195e-008    2.6711e-009    
  2.4             3.126e-006      -2.1477e-008    2.7177e-009    
  2.45            3.1678e-006     -1.2956e-008    2.7073e-009    
  2.5             3.1529e-006     -1.2463e-008    2.6945e-009    
  2.55            3.1639e-006     -1.1985e-008    2.6767e-009    
  2.6             3.1714e-006     -1.1777e-008    2.163e-010     
  2.65            3.05e-006       9.615e-009      -2.5771e-009   
  2.7             3.0787e-006     1.6292e-008     -1.6267e-009   
  2.75            3.0891e-006     1.6471e-008     -1.5839e-009   
  2.8             3.0508e-006     8.985e-009      1.854e-009     
  2.85            3.1734e-006     -1.3308e-008    2.7208e-009    
  2.9             3.1758e-006     -1.2928e-008    2.7102e-009    
  2.95            3.1743e-006     -1.2525e-008    2.6997e-009    
  3               3.1885e-006     -1.2227e-008    2.6789e-009    
  3.05            3.1737e-006     -1.1909e-008    2.198e-010     
  3.1             3.0301e-006     9.225e-009      -2.5798e-009   
  3.15            3.0776e-006     1.579e-008      -1.6187e-009   
  3.2             3.0707e-006     1.6028e-008     -1.5799e-009   
  3.25            3.0151e-006     8.541e-009      1.8585e-009    
  3.3             3.1473e-006     -1.3736e-008    2.7208e-009    
  3.35            3.1449e-006     -1.3439e-008    2.7092e-009    
  3.4             3.1666e-006     -1.3067e-008    2.6932e-009    
  3.45            3.1849e-006     -1.2831e-008    2.6792e-009    
  3.5             3.2068e-006     -1.2604e-008    2.183e-010     
  3.55            3.1247e-006     8.329e-009      -2.5834e-009   
  3.6             3.2093e-006     1.4834e-008     -1.6162e-009   
  3.65            3.1858e-006     1.4945e-008     -1.5741e-009   
  3.7             3.1306e-006     7.434e-009      1.8549e-009    
  3.75            3.2498e-006     -1.499e-008     2.7233e-009    
  3.8             3.2142e-006     -1.0099e-008    -1.2041e-009   
  3.85            3.1918e-006     6.09e-009       -2.5718e-009   
  3.9             3.1854e-006     1.2314e-008     -1.7428e-009   
  3.95            3.1594e-006     1.2267e-008     -1.7e-009      
  4               3.1639e-006     1.2494e-008     -1.6543e-009   
  4.05            3.173e-006      1.2461e-008     -1.6164e-009   
  4.1             3.1452e-006     1.2397e-008     -1.5748e-009   
  4.15            3.2099e-006     1.2456e-008     -1.5411e-009   
  4.2             3.2754e-006     1.2386e-008     -1.5068e-009   
  4.25            3.3052e-006     1.2541e-008     -1.4732e-009   
  4.3             3.2608e-006     5.092e-009      -2.5629e-009   
  4.35            3.2879e-006     4.855e-009      -2.5562e-009   
  4.4             3.3367e-006     4.306e-009      -2.5451e-009   
  4.45            3.3212e-006     4.026e-009      -2.531e-009    
  4.5             3.2933e-006     3.37e-009       -2.5124e-009   
  4.55            3.3253e-006     2.631e-009      -2.4949e-009   
  4.6             3.2745e-006     1.656e-009      -2.4726e-009   
  4.65            3.3192e-006     9.71e-010       -2.4466e-009   
  4.7             3.3419e-006     -1.17e-010      -2.4225e-009   
  4.75            3.3027e-006     -7.35e-010      -2.3936e-009   
  4.8             3.2973e-006     -1.724e-009     -2.3579e-009   
  4.85            3.2467e-006     -2.374e-009     -2.3224e-009   
  4.9             3.2733e-006     -3.324e-009     -2.2834e-009   
  4.95            3.2612e-006     -4.209e-009     -2.2476e-009   
  5               3.3125e-006     -6.512e-009     -8.9e-012      
END_DB

BEGIN_DB
 ICCAP_VAR VG         2              
 ICCAP_VAR VS         0              
 ICCAP_VAR VB         0              

 #VD              ID              IB              IG             
  0               -1.3915e-007    -1.7566e-008    1.8828e-009    
  0.05            9.4602e-006     1.7801e-008     2.456e-009     
  0.1             1.8576e-005     -2.5018e-008    1.3541e-009    
  0.15            2.7367e-005     -1.389e-008     2.7385e-009    
  0.2             3.5755e-005     -2.4937e-008    2.4424e-009    
  0.25            4.3875e-005     -1.8473e-008    1.7916e-009    
  0.3             5.156e-005      -2.396e-008     2.6441e-009    
  0.35            5.8863e-005     -2.2814e-008    2.1038e-009    
  0.4             6.58e-005       -1.0248e-008    -7.766e-010    
  0.45            7.2143e-005     8.284e-009      -2.5643e-009   
  0.5             7.8174e-005     1.1651e-008     -2.4609e-009   
  0.55            8.3804e-005     1.4395e-008     -1.7597e-009   
  0.6             8.8907e-005     1.1448e-008     -2.4035e-009   
  0.65            9.3654e-005     1.542e-008      -1.6705e-009   
  0.7             9.8103e-005     2.464e-008      -2.4637e-009   
  0.75            0.000102045     1.4341e-008     -1.757e-009    
  0.8             0.000105965     1.1511e-008     -2.4111e-009   
  0.85            0.00010931      1.5209e-008     -1.6708e-009   
  0.9             0.000111567     1.1542e-008     -2.3462e-009   
  0.95            0.00011363      2.343e-008      -1.7654e-009   
  1               0.00011551      -8.671e-009     2.2122e-009    
  1.05            0.00011716      -1.0049e-008    -8.298e-010    
  1.1             0.00011798      2.6436e-008     -2.3088e-009   
  1.15            0.00011873      8.813e-009      1.9525e-009    
  1.2             0.00011938      -2.3131e-008    2.6842e-009    
  1.25            0.00011986      -2.144e-008     2.0049e-009    
  1.3             0.0001201       -2.3876e-008    2.643e-009     
  1.35            0.00012003      -2.0144e-008    1.8968e-009    
  1.4             0.00011991      -2.441e-008     2.5858e-009    
  1.45            0.00012043      -1.8547e-008    1.7931e-009    
  1.5             0.00012071      -8.737e-009     -1.0185e-009   
  1.55            0.00012045      1.1735e-008     -2.5282e-009   
  1.6             0.00012067      1.4706e-008     -1.7215e-009   
  1.65            0.0001209       2.5649e-008     -2.379e-009    
  1.7             0.0001208       8.59e-009       1.89e-009      
  1.75            0.0001209       -2.2311e-008    2.7191e-009    
  1.8             0.00012129      -2.2811e-008    2.118e-009     
  1.85            0.00012222      -9.56e-009      -8.727e-010    
  1.9             0.00012265      2.6752e-008     -2.2331e-009   
  1.95            0.00012297      1.786e-008      -1.4897e-009   
  2               0.00012279      7.394e-009      1.0472e-009    
  2.05            0.00012291      -1.9859e-008    1.8899e-009    
  2.1             0.00012273      -2.4477e-008    2.5891e-009    
  2.15            0.00012277      -1.8723e-008    1.7882e-009    
  2.2             0.00012267      -2.5008e-008    2.5265e-009    
  2.25            0.00012309      -1.7088e-008    1.6947e-009    
  2.3             0.00012281      -2.5213e-008    2.4485e-009    
  2.35            0.00012314      -1.5559e-008    2.7406e-009    
  2.4             0.00012302      -2.4925e-008    2.3574e-009    
  2.45            0.00012331      -1.0229e-008    -7.417e-010    
  2.5             0.00012306      9.015e-009      -2.583e-009    
  2.55            0.00012329      2.565e-008      -2.3773e-009   
  2.6             0.00012325      8.814e-009      1.8892e-009    
  2.65            0.00012333      -2.2282e-008    2.7195e-009    
  2.7             0.00012312      -1.5478e-008    1.905e-009     
  2.75            0.0001232       -2.4358e-008    2.5872e-009    
  2.8             0.00012346      -1.863e-008     1.8044e-009    
  2.85            0.0001235       -8.773e-009     -1.0132e-009   
  2.9             0.00012331      1.16e-008       -2.5291e-009   
  2.95            0.00012337      1.4507e-008     -1.7229e-009   
  3               0.0001233       2.5722e-008     -2.384e-009    
  3.05            0.00012331      8.875e-009      1.89e-009      
  3.1             0.00012324      -2.2081e-008    2.7162e-009    
  3.15            0.00012319      -2.3074e-008    2.1237e-009    
  3.2             0.00012339      -9.684e-009     -8.72e-010     
  3.25            0.0001234       2.6426e-008     -2.2371e-009   
  3.3             0.00012344      1.7873e-008     -1.4948e-009   
  3.35            0.00012342      7.227e-009      1.0457e-009    
  3.4             0.00012341      -2.029e-008     1.9085e-009    
  3.45            0.00012315      -2.4853e-008    2.592e-009     
  3.5             0.00012346      -1.9578e-008    1.8098e-009    
  3.55            0.00012322      -2.5574e-008    2.5236e-009    
  3.6             0.00012339      -1.1627e-008    -6.002e-010    
  3.65            0.0001228       6.141e-009      -2.557e-009    
  3.7             0.00012274      9.604e-009      -2.3818e-009   
  3.75            0.00012286      6.421e-009      1.8883e-009    
  3.8             0.00012338      -1.3487e-008    -2.712e-010    
  3.85            0.00012307      1.458e-008      -1.4612e-009   
  3.9             0.0001231       8.807e-009      -1.9247e-009   
  3.95            0.00012267      6.293e-009      -2.3858e-009   
  4               0.00012266      1.0709e-008     -1.4986e-009   
  4.05            0.0001226       5.055e-009      -1.9697e-009   
  4.1             0.00012289      1.97e-009       -2.4142e-009   
  4.15            0.00012324      -1.9501e-008    -1.994e-009    
