! VERSION = 6.00
BEGIN_HEADER
 ICCAP_INPUTS
  VG         V  B GROUND SMU4 0.001 LIN        1    0          5          101  0.05      
  VS         V  E GROUND SMU2 0.1 CON        0
  VB         V  C GROUND SMU3 0.1 LIN        3    0          -5         3    -2.5      
  VD         V  S GROUND SMU1 0.1 LIN        2    0.1        5          2    4.9       
 ICCAP_OUTPUTS
  IG         I  B GROUND SMU4 B
  ID         I  S GROUND SMU1 B
  IB         I  C GROUND SMU3 B
END_HEADER

BEGIN_DB
 ICCAP_VAR VS         0              
 ICCAP_VAR VB         0              
 ICCAP_VAR VD         0.1            

 #VG              IG              ID              IB             
  0               -5.187e-009     -2.561e-008     1.037e-008     
  0.05            -3.0646e-009    -1.869e-008     4.1058e-007    
  0.1             2.3559e-009     -4.0128e-007    1.035e-008     
  0.15            1.7143e-009     -8.278e-008     4.0866e-007    
  0.2             2.5562e-009     -1.9432e-007    4.1054e-007    
  0.25            2.7286e-009     -2.9e-010       4.0568e-007    
  0.3             2.5268e-009     -5.93e-009      4.0443e-007    
  0.35            1.8912e-009     -5.577e-008     4.0531e-007    
  0.4             2.4922e-009     -1.6533e-007    4.0856e-007    
  0.45            2.6263e-009     -2.2186e-007    4.0021e-007    
  0.5             2.7159e-009     3.3e-010        4.0289e-007    
  0.55            2.3867e-009     -5.94e-009      4.0168e-007    
  0.6             1.6986e-009     -6.181e-008     4.0291e-007    
  0.65            2.5721e-009     -1.374e-007     4.051e-007     
  0.7             2.6931e-009     1.8266e-007     4.0038e-007    
  0.75            2.6699e-009     5.6054e-007     4.0035e-007    
  0.8             -6.432e-010     1.3198e-006     4.1094e-007    
  0.85            -9.956e-010     3.1597e-006     8.7e-010       
  0.9             -1.3752e-009    5.8222e-006     1.07e-008      
  0.95            -1.7115e-009    9.1605e-006     7.315e-008     
  1               1.0214e-009     1.2829e-005     1.1914e-007    
  1.05            1.3645e-009     1.6598e-005     1.383e-008     
  1.1             1.7505e-009     2.0469e-005     5.881e-008     
  1.15            2.1141e-009     2.4445e-005     1.7017e-007    
  1.2             2.3754e-009     2.8183e-005     2.8174e-007    
  1.25            2.6476e-009     3.181e-005      3.8274e-007    
  1.3             2.7102e-009     3.5341e-005     4.1029e-007    
  1.35            2.3658e-009     3.8758e-005     4.111e-007     
  1.4             1.6695e-009     4.2021e-005     4.1212e-007    
  1.45            2.5858e-009     4.5083e-005     4.1538e-007    
  1.5             2.7303e-009     4.831e-005      4.0875e-007    
  1.55            2.4909e-009     5.1299e-005     4.0911e-007    
  1.6             1.8511e-009     5.4175e-005     4.1133e-007    
  1.65            2.5159e-009     5.687e-005      4.162e-007     
  1.7             2.7236e-009     5.9689e-005     4.0701e-007    
  1.75            2.5894e-009     6.2334e-005     4.1023e-007    
  1.8             2.0266e-009     6.4893e-005     4.1138e-007    
  1.85            1.3721e-009     6.728e-005      4.1567e-007    
  1.9             2.6963e-009     6.9567e-005     4.1127e-007    
  1.95            2.6672e-009     7.2129e-005     4.0975e-007    
  2               2.1937e-009     7.4399e-005     4.1101e-007    
  2.05            1.4969e-009     7.6548e-005     4.1448e-007    
  2.1             2.6469e-009     7.858e-005      4.1319e-007    
  2.15            2.7076e-009     8.0865e-005     4.0878e-007    
  2.2             2.3546e-009     8.2909e-005     4.1091e-007    
  2.25            1.6567e-009     8.4852e-005     4.1318e-007    
  2.3             2.589e-009      8.6676e-005     4.173e-007     
  2.35            2.7286e-009     8.8728e-005     4.0949e-007    
  2.4             2.4779e-009     9.0573e-005     4.1003e-007    
  2.45            1.8242e-009     9.2334e-005     4.1124e-007    
  2.5             2.5274e-009     9.3993e-005     4.1605e-007    
  2.55            2.727e-009      9.5825e-005     4.0863e-007    
  2.6             2.5837e-009     9.7507e-005     4.0982e-007    
  2.65            2.013e-009      9.9124e-005     4.117e-007     
  2.7             1.3673e-009     0.000100616     4.1657e-007    
  2.75            2.7009e-009     0.000102058     4.0866e-007    
  2.8             2.6598e-009     0.00010382      4.0927e-007    
  2.85            2.1765e-009     0.000105285     4.1199e-007    
  2.9             1.493e-009      0.000106656     4.1514e-007    
  2.95            2.6554e-009     0.000107948     4.1271e-007    
  3               2.7072e-009     0.000109519     4.1006e-007    
  3.05            2.3384e-009     0.000110869     4.1129e-007    
  3.1             1.6435e-009     0.000112121     4.1395e-007    
  3.15            2.5942e-009     0.000113286     4.1686e-007    
  3.2             -2.2208e-009    0.00011483      4.1037e-007    
  3.25            -2.5112e-009    0.00011607      3.5897e-007    
  3.3             -2.5175e-009    0.00011721      4.0895e-007    
  3.35            -2.2019e-009    0.0001184       4.1127e-007    
  3.4             -1.5948e-009    0.00011951      4.1601e-007    
  3.45            -2.4588e-009    0.00012055      4.2439e-007    
  3.5             -2.5439e-009    0.00012172      4.0302e-007    
  3.55            -2.3142e-009    0.0001228       4.1112e-007    
  3.6             -1.7447e-009    0.00012383      4.1446e-007    
  3.65            -1.2914e-009    0.00012478      4.225e-007     
  3.7             8.168e-010      0.00012553      4.1385e-007    
  3.75            -8.323e-010     0.00012671      -3.5e-010      
  3.8             -1.193e-009     0.00012766      3.38e-009      
  3.85            -1.5738e-009    0.0001286       2.944e-008     
  3.9             -1.8265e-009    0.00012956      1.2479e-007    
  3.95            -2.1552e-009    0.00013049      2.3888e-007    
  4               -2.4847e-009    0.00013138      3.4284e-007    
  4.05            -2.5379e-009    0.00013215      4.057e-007     
  4.1             -2.2764e-009    0.00013296      4.1121e-007    
  4.15            -1.6893e-009    0.00013375      4.1605e-007    
  4.2             -1.2725e-009    0.00013449      4.2381e-007    
  4.25            8.003e-010      0.00013498      4.1556e-007    
  4.3             -8.525e-010     0.00013595      2e-011         
  4.35            -1.2157e-009    0.00013668      4.64e-009      
  4.4             -1.5941e-009    0.00013743      4.094e-008     
  4.45            -1.8429e-009    0.0001382       1.4073e-007    
  4.5             -2.1836e-009    0.00013891      2.4796e-007    
  4.55            -2.4979e-009    0.00013958      3.4947e-007    
  4.6             -2.5234e-009    0.00014018      4.0787e-007    
  4.65            -2.2297e-009    0.00014079      4.121e-007     
  4.7             -1.63e-009      0.0001414       4.1606e-007    
  4.75            -2.4417e-009    0.00014195      4.2605e-007    
  4.8             -2.5471e-009    0.00014262      4.0156e-007    
  4.85            -2.3404e-009    0.00014316      4.1122e-007    
  4.9             -1.7812e-009    0.00014372      4.1479e-007    
  4.95            -1.3051e-009    0.00014418      4.2377e-007    
  5               8.377e-010      0.00014449      4.1419e-007    
END_DB

BEGIN_DB
 ICCAP_VAR VS         0              
 ICCAP_VAR VB         0              
 ICCAP_VAR VD         5              

 #VG              IG              ID              IB             
  0               -4.7285e-007    6.9713e-008     2.5504e-007    
  0.05            -6.447e-008     3.3782e-008     7.743e-008     
  0.1             -2.41e-009      2.4733e-008     4.0318e-007    
  0.15            -8.66e-009      8.832e-009      3.8487e-007    
  0.2             1.28e-009       2.465e-009      3.5856e-007    
  0.25            -3.8894e-007    2.41e-010       3.3822e-007    
  0.3             -6.82e-009      4.8443e-008     8.5163e-008    
  0.35            -4.2e-010       4.4821e-008     -2.09e-009     
  0.4             -8.97e-009      4.2498e-008     2.098e-008     
  0.45            -5.72e-009      4.0165e-008     -3.29e-009     
  0.5             -1.239e-008     3.7481e-008     2.09e-008      
  0.55            -1.9008e-007    3.7453e-008     1.122e-007     
  0.6             -1.078e-008     1.6313e-008     3.496e-008     
  0.65            -2.24e-008      8.1081e-008     1.7296e-007    
  0.7             -1.8882e-008    1.9332e-007     1.04789e-007   
  0.75            1.47e-009       5.9988e-007     3.284e-009     
  0.8             -9.75e-009      1.6413e-006     1.8862e-008    
  0.85            8.9e-010        3.7256e-006     8.1465e-008    
  0.9             9.27e-010       7.2491e-006     2.2389e-008    
  0.95            -7.7409e-008    1.2436e-005     1.923e-009     
  1               -5.7986e-008    1.9262e-005     -1.02935e-007  
  1.05            -2.4049e-008    2.7819e-005     -1.1112e-007   
  1.1             -2.1718e-008    3.806e-005      -1.6522e-007   
  1.15            -1.7019e-008    5.0348e-005     -2.1147e-007   
  1.2             -1.887e-008     6.4064e-005     -2.3735e-007   
  1.25            -2.6976e-008    7.9614e-005     -2.7222e-007   
  1.3             -2.5519e-008    9.6748e-005     -3.0714e-007   
  1.35            -2.5705e-008    0.00011564      -3.4039e-007   
  1.4             -1.6536e-008    0.00013604      -3.67e-007     
  1.45            -1.8927e-008    0.00015803      -3.915e-007    
  1.5             -1.8274e-008    0.00018167      -4.1016e-007   
  1.55            -2.5892e-008    0.00020677      -4.2623e-007   
  1.6             -1.62e-008      0.00023334      -4.3893e-007   
  1.65            -1.8837e-008    0.00026136      -4.4646e-007   
  1.7             -2.6849e-008    0.00029088      -4.4822e-007   
  1.75            -2.5862e-008    0.00032178      -4.4806e-007   
  1.8             -1.6002e-008    0.00035409      -4.4414e-007   
  1.85            -1.903e-008     0.00038751      -4.3694e-007   
  1.9             -1.8138e-008    0.00042263      -4.2391e-007   
  1.95            -2.5982e-008    0.00045866      -4.1015e-007   
  2               -1.5689e-008    0.00049613      -3.9495e-007   
  2.05            -1.8963e-008    0.00053446      -3.7909e-007   
  2.1             -1.8365e-008    0.00057445      -3.5552e-007   
  2.15            -2.6155e-008    0.00061524      -3.344e-007    
  2.2             -1.5599e-008    0.0006573       -3.1335e-007   
  2.25            -2.085e-008     0.00070019      -2.9474e-007   
  2.3             -1.8195e-008    0.00074427      -2.704e-007    
  2.35            -2.6214e-008    0.00078957      -2.4334e-007   
  2.4             -1.5126e-008    0.0008356       -2.2222e-007   
  2.45            -2.0529e-008    0.00088254      -2.045e-007    
  2.5             -1.8113e-008    0.00093057      -1.8282e-007   
  2.55            -2.6244e-008    0.00097958      -1.5674e-007   
  2.6             -1.5026e-008    0.00102947      -1.4045e-007   
  2.65            -1.9031e-008    0.00107986      -1.2544e-007   
  2.7             -1.8176e-008    0.00113151      -1.0257e-007   
  2.75            -1.8774e-008    0.0011842       -9.6362e-008   
  2.8             -2.6916e-008    0.0012379       -7.3261e-008   
  2.85            -2.4948e-008    0.001292        -6.6582e-008   
  2.9             -2.2158e-008    0.001346        -5.4528e-008   
  2.95            -1.9089e-008    0.0014014       -4.275e-008    
  3               -1.8414e-008    0.0014573       -3.2564e-008   
  3.05            -2.651e-008     0.0015135       -2.4345e-008   
  3.1             -2.3964e-008    0.0015708       -2.4215e-008   
  3.15            -2.0785e-008    0.0016282       -1.8501e-008   
  3.2             -1.847e-008     0.0016865       -1.246e-008    
  3.25            -1.7659e-008    0.0017455       -7.314e-009    
  3.3             -1.7829e-008    0.0018046       2.366e-009     
  3.35            -1.8029e-008    0.0018644       4.996e-009     
  3.4             -1.8218e-008    0.0019251       7.225e-009     
  3.45            -1.8583e-008    0.0019854       9.04e-009      
  3.5             -1.8434e-008    0.0020467       1.0304e-008    
  3.55            -1.8558e-008    0.0021084       1.1226e-008    
  3.6             -1.8686e-008    0.0021704       1.22e-008      
  3.65            -1.8696e-008    0.0022328       1.2773e-008    
  3.7             -1.8963e-008    0.0022955       1.3349e-008    
  3.75            -1.929e-008     0.0023586       1.3928e-008    
  3.8             -1.9828e-008    0.002422        1.4537e-008    
  3.85            -2.0084e-008    0.0024855       1.5072e-008    
  3.9             -2.0898e-008    0.0025498       1.5517e-008    
  3.95            -1.4002e-008    0.002614        1.6132e-008    
  4               -1.5975e-008    0.0026788       1.7722e-008    
  4.05            -1.7288e-008    0.0027433       1.9917e-008    
  4.1             -1.7086e-008    0.0028088       2.2596e-008    
  4.15            -1.7153e-008    0.0028737       1.2429e-008    
  4.2             -1.7423e-008    0.0029394       1.2577e-008    
  4.25            -1.7685e-008    0.0030048       1.2866e-008    
  4.3             -1.8045e-008    0.0030708       1.3037e-008    
  4.35            -1.7963e-008    0.0031365       1.327e-008     
  4.4             -1.7314e-008    0.0032035       1.3492e-008    
  4.45            -1.193e-008     0.0032698       1.3752e-008    
  4.5             -1.3671e-009    0.0033358       1.3816e-008    
  4.55            -1.6731e-009    0.0034032       1.1071e-008    
  4.6             -1.5758e-009    0.0034692       1.2934e-008    
  4.65            -2.0726e-009    0.0035348       1.6489e-008    
  4.7             -1.7911e-009    0.003601        5.58e-009      
  4.75            -1.6952e-009    0.0036671       1.0215e-008    
  4.8             -1.6114e-009    0.003733        1.2351e-008    
  4.85            -2.1739e-009    0.0037986       1.5198e-008    
  4.9             -1.8358e-009    0.003864        4.749e-009     
  4.95            -1.733e-009     0.0039298       9.05e-009      
  5               -1.6531e-009    0.0039944       1.2209e-008    
END_DB

BEGIN_DB
 ICCAP_VAR VS         0              
 ICCAP_VAR VB         -2.5           
 ICCAP_VAR VD         0.1            

 #VG              IG              ID              IB             
  0               -3.4442e-009    -9.273e-009     1.3699e-008    
  0.05            -1.108e-009     -1.8432e-008    1.255e-008     
  0.1             -1.0212e-009    -1.8236e-008    1.2376e-008    
  0.15            -9.958e-010     -1.7951e-008    2.2762e-008    
  0.2             -9.757e-010     -1.7533e-008    2.2241e-008    
  0.25            -9.535e-010     -1.7156e-008    2.1994e-008    
  0.3             -9.392e-010     -1.6876e-008    2.1572e-008    
  0.35            -9.19e-010      -1.671e-008     2.1053e-008    
  0.4             -8.968e-010     -1.6229e-008    2.0735e-008    
  0.45            -8.778e-010     -1.6087e-008    2.0474e-008    
  0.5             -8.556e-010     -1.6079e-008    1.9979e-008    
  0.55            -8.439e-010     -1.602e-008     1.953e-008     
  0.6             -8.187e-010     -1.5879e-008    1.9158e-008    
  0.65            -8.016e-010     -1.5795e-008    1.8785e-008    
  0.7             -7.782e-010     -1.5702e-008    1.8346e-008    
  0.75            -7.602e-010     -1.5583e-008    1.8106e-008    
  0.8             -7.368e-010     -1.5518e-008    1.7901e-008    
  0.85            -7.138e-010     -1.5331e-008    1.7787e-008    
  0.9             -6.842e-010     -1.5074e-008    1.7379e-008    
  0.95            -6.511e-010     -1.5178e-008    1.702e-008     
  1               -6.202e-010     -1.4813e-008    1.6881e-008    
  1.05            -5.909e-010     -1.4676e-008    1.6586e-008    
  1.1             -5.536e-010     -1.447e-008     1.6243e-008    
  1.15            -5.204e-010     -1.4335e-008    1.5836e-008    
  1.2             -4.87e-010      -1.2353e-008    1.5535e-008    
  1.25            -4.509e-010     -6.219e-009     1.5262e-008    
  1.3             -1.869e-009     2.789e-008      1.5048e-008    
  1.35            -1.4212e-009    8.5927e-008     4.76e-009      
  1.4             -1.5306e-009    2.6388e-007     2.3865e-008    
  1.45            -1.5773e-009    8.9329e-007     1.749e-008     
  1.5             2.5069e-009     2.2302e-006     2.106e-008     
  1.55            -1.3656e-009    4.5731e-006     1.3453e-008    
  1.6             -1.6286e-009    7.6119e-006     1.7323e-008    
  1.65            -1.3614e-009    1.11096e-005    6.058e-009     
  1.7             1.2551e-009     1.4697e-005     9.83e-009      
  1.75            -1.4041e-009    1.8552e-005     2.1102e-008    
  1.8             -1.3442e-009    2.2284e-005     9.304e-009     
  1.85            -1.357e-009     2.5942e-005     1.2148e-008    
  1.9             -1.9443e-009    2.9485e-005     1.4423e-008    
  1.95            -1.4509e-009    3.2923e-005     4.208e-009     
  2               -1.3492e-009    3.6267e-005     8.29e-009      
  2.05            -1.3511e-009    3.9505e-005     1.1957e-008    
  2.1             -2.0845e-009    4.2628e-005     1.3865e-008    
  2.15            -1.528e-009     4.5633e-005     3.461e-009     
  2.2             -1.353e-009     4.8563e-005     6.928e-009     
  2.25            -1.3466e-009    5.1392e-005     1.1512e-008    
  2.3             -1.3623e-009    5.4137e-005     1.3271e-008    
  2.35            -1.6405e-009    5.6776e-005     1.712e-008     
  2.4             -1.3675e-009    5.9344e-005     5.919e-009     
  2.45            -1.3466e-009    6.1838e-005     1.0559e-008    
  2.5             -1.3612e-009    6.4264e-005     1.243e-008     
  2.55            -1.7589e-009    6.6589e-005     1.5869e-008    
  2.6             -1.3954e-009    6.886e-005      5.034e-009     
  2.65            -1.346e-009     7.107e-005      9.581e-009     
  2.7             -1.3528e-009    7.3225e-005     1.2192e-008    
  2.75            -1.9032e-009    7.5302e-005     1.4449e-008    
  2.8             -1.4373e-009    7.7333e-005     4.299e-009     
  2.85            -1.3496e-009    7.9317e-005     8.556e-009     
  2.9             -1.3469e-009    8.1242e-005     1.2164e-008    
  2.95            -2.04e-009      8.3102e-005     1.3662e-008    
  3               -1.5048e-009    8.4878e-005     3.573e-009     
  3.05            -1.3536e-009    8.6654e-005     7.075e-009     
  3.1             -1.3457e-009    8.8368e-005     1.16e-008      
  3.15            -1.3641e-009    9.005e-005      1.3266e-008    
  3.2             -1.6196e-009    9.1646e-005     1.7251e-008    
  3.25            -1.3656e-009    9.3228e-005     6.234e-009     
  3.3             -1.344e-009     9.4766e-005     1.0662e-008    
  3.35            -1.3594e-009    9.6286e-005     1.2697e-008    
  3.4             -1.7405e-009    9.7726e-005     1.5979e-008    
  3.45            -1.3905e-009    9.9144e-005     5.206e-009     
  3.5             -1.3435e-009    0.000100536     9.759e-009     
  3.55            -1.355e-009     0.00010189      1.2196e-008    
  3.6             -1.8865e-009    0.000103205     1.4734e-008    
  3.65            -1.4313e-009    0.00010447      4.356e-009     
  3.7             -1.3464e-009    0.000105714     8.728e-009     
  3.75            -1.3492e-009    0.00010696      1.214e-008     
  3.8             -2.0237e-009    0.000108146     1.3847e-008    
  3.85            -1.4991e-009    0.00010927      3.55e-009      
  3.9             -1.3531e-009    0.000110411     7.418e-009     
  3.95            -1.3462e-009    0.000111514     1.1651e-008    
  4               -2.1792e-009    0.000112599     1.3329e-008    
  4.05            -1.6013e-009    0.000113609     3.108e-009     
  4.1             2.3911e-009     0.00011476      6.109e-009     
  4.15            -1.3539e-009    0.00011575      2.4377e-008    
