! VERSION = 6.00
BEGIN_HEADER
 ICCAP_INPUTS
  VG         V  B GROUND SMU4 0.001 LIN        2    0          5          6    1         
  VS         V  E GROUND SMU2 0.1 CON        0
  VD         V  S GROUND SMU1 0.1 LIN        1    0          5          101  0.05      
  VB         V  C GROUND SMU3 0.1 LIN        3    0          -2.5       2    -2.5      
 ICCAP_OUTPUTS
  ID         I  S GROUND SMU1 B
  IB         I  C GROUND SMU3 B
  IG         I  B GROUND SMU4 B
END_HEADER

BEGIN_DB
 ICCAP_VAR VG         0              
 ICCAP_VAR VS         0              
 ICCAP_VAR VB         0              

 #VD              ID              IB              IG             
  0               -2.0796e-007    2.5613e-007     -2.4672e-009   
  0.05            -4.0747e-007    6.189e-008      -1.4928e-009   
  0.1             -3.85e-009      4.492e-007      -4.026e-009    
  0.15            -1.096e-008     4.4443e-007     -6.7296e-008   
  0.2             -1.7529e-007    1.0359e-007     -1.1483e-007   
  0.25            1.6694e-008     5.0643e-007     -1.386e-008    
  0.3             1.1601e-007     1.7623e-007     -1.3296e-007   
  0.35            6.488e-008      5.0874e-007     -3.248e-008    
  0.4             4.077e-008      5.1509e-007     -2.124e-008    
  0.45            1.771e-008      5.0924e-007     -2.04e-009     
  0.5             1.1374e-007     5.0837e-007     -2.5744e-007   
  0.55            9.083e-008      4.9474e-007     -1.1612e-007   
  0.6             6.544e-008      5.211e-007      -5.125e-008    
  0.65            3.991e-008      5.1529e-007     -7.44e-009     
  0.7             1.904e-008      5.1329e-007     -1.749e-008    
  0.75            4.44e-009       5.1067e-007     -1.7013e-008   
  0.8             1.3467e-007     1.2059e-007     -3.8008e-007   
  0.85            1.1659e-007     4.0592e-007     -2.4153e-007   
  0.9             4.753e-009      1.209e-008      5.05e-010      
  0.95            4.786e-009      1.204e-008      -1.1449e-007   
  1               4.963e-008      4.7082e-007     -6.4553e-007   
  1.05            2.438e-008      1.459e-008      -3.98e-009     
  1.1             4.95e-009       5.1267e-007     4.01e-010      
  1.15            9.7226e-008     7.2e-010        -6.4744e-007   
  1.2             1.631e-008      8.85e-009       -1.0613e-007   
  1.25            1.3471e-007     1.298e-007      -1.0122e-007   
  1.3             5.954e-008      5.1555e-007     -1.753e-008    
  1.35            3.189e-008      5.1835e-007     -2.008e-008    
  1.4             4.8e-009        5.1532e-007     -6.1264e-007   
  1.45            1.3454e-007     1.3685e-007     -2.279e-008    
  1.5             1.492e-008      5.1232e-007     -1.0941e-007   
  1.55            1.3567e-007     1.2105e-007     -1.031e-007    
  1.6             5.96e-008       5.1704e-007     -1.913e-008    
  1.65            3.432e-008      5.2053e-007     -2.137e-008    
  1.7             4.87e-009       5.1434e-007     -6.0844e-007   
  1.75            1.3532e-007     1.3766e-007     -2.374e-008    
  1.8             1.684e-008      5.1316e-007     -1.0975e-007   
  1.85            6.02e-009       1.297e-007      -2.5976e-007   
  1.9             5.391e-009      2.26e-008       -2.7592e-007   
  1.95            4.88e-009       5.1211e-007     -2.7824e-007   
  2               4.839e-009      8.71e-009       -2.7037e-007   
  2.05            1.374e-007      5.0305e-007     -1.298e-008    
  2.1             2.741e-008      5.2094e-007     -1.91e-008     
  2.15            4.63e-009       5.1253e-007     -1.7861e-008   
  2.2             1.4041e-007     1.2581e-007     -3.7934e-007   
  2.25            1.2271e-007     4.2241e-007     -2.4977e-007   
  2.3             5.01e-009       1.013e-008      -2.4347e-007   
  2.35            1.3424e-007     3.7078e-007     -2.07e-009     
  2.4             5.11e-009       5.1697e-007     -2.4334e-007   
  2.45            5.143e-009      1.111e-008      -2.4189e-007   
  2.5             1.3784e-007     4.3053e-007     -4.1e-009      
  2.55            5.16e-009       5.156e-007      1.2e-010       
  2.6             1.4284e-007     1.8523e-007     -4.0787e-007   
  2.65            1.3007e-007     3.9102e-007     -1.3193e-007   
  2.7             4.665e-009      7.71e-009       -1.7845e-008   
  2.75            1.3546e-007     3.7427e-007     -3.208e-008    
  2.8             2.767e-008      5.1754e-007     -6.34e-009     
  2.85            5.42e-009       5.171e-007      5.6e-011       
  2.9             9.661e-008      1.77e-009       -6.5576e-007   
  2.95            1.955e-008      1.132e-008      -1.1124e-007   
  3               6.75e-009       1.4517e-007     -2.6129e-007   
  3.05            5.792e-009      2.566e-008      -2.9642e-007   
  3.1             5.14e-009       5.135e-007      -2.7552e-007   
  3.15            5.046e-009      9.97e-009       -2.6743e-007   
  3.2             1.3674e-007     3.7416e-007     -1.1771e-007   
  3.25            4.886e-009      1.081e-008      -1.8224e-008   
  3.3             1.3759e-007     3.7343e-007     -3.396e-008    
  3.35            3.032e-008      5.1547e-007     -5.68e-009     
  3.4             5.82e-009       5.1933e-007     -6.2831e-007   
  3.45            5.685e-008      8.555e-009      -1.9689e-007   
  3.5             4.556e-009      3.9e-009        -1.812e-007    
  3.55            1.3471e-007     3.8815e-007     -1.889e-008    
  3.6             4.64e-009       5.131e-007      -1.7549e-008   
  3.65            1.206e-007      4.6821e-007     -7.97e-009     
  3.7             1.596e-008      5.1653e-007     -1.949e-008    
  3.75            4.86e-009       5.1478e-007     -1.8573e-008   
  3.8             1.4587e-007     1.2741e-007     -4.053e-007    
  3.85            1.3022e-007     4.0002e-007     -2.5035e-007   
  3.9             5.582e-009      1.515e-008      -7.1e-011      
  3.95            1.3581e-007     3.881e-007      -1.694e-008    
  4               2.966e-008      5.2154e-007     -2.112e-008    
  4.05            5.3e-009        5.1633e-007     -1.2121e-007   
  4.1             4.875e-009      1.036e-008      -1.8605e-008   
  4.15            1.3737e-007     3.6536e-007     -3.096e-008    
  4.2             2.661e-008      5.1798e-007     -6.31e-009     
  4.25            5.84e-009       5.1844e-007     -6.2182e-007   
  4.3             1.43e-007       1.7985e-007     -1.019e-008    
  4.35            1.997e-008      5.1986e-007     -1.977e-008    
  4.4             5e-009          5.1593e-007     -1.8721e-008   
  4.45            1.4738e-007     1.2672e-007     -4.3869e-007   
  4.5             1.3506e-007     3.564e-007      -1.899e-008    
  4.55            4.8e-009        5.1523e-007     -1.8674e-008   
  4.6             1.4712e-007     1.2707e-007     -3.671e-007    
  4.65            1.2364e-007     4.4308e-007     -2.5109e-007   
  4.7             5.426e-009      1.187e-008      -2.4856e-007   
  4.75            1.4576e-007     4.3382e-007     -4.98e-009     
  4.8             5.52e-009       5.1879e-007     -1.9e-011      
  4.85            1.05957e-007    1.3e-009        -6.6802e-007   
  4.9             1.378e-008      8.13e-009       -1.189e-007    
  4.95            6.49e-009       1.0353e-007     -2.5791e-007   
  5               5.915e-009      1.801e-008      -2.5247e-007   
END_DB

BEGIN_DB
 ICCAP_VAR VG         1              
 ICCAP_VAR VS         0              
 ICCAP_VAR VB         0              

 #VD              ID              IB              IG             
  0               -6.0023e-007    4.7935e-007     -2.332e-010    
  0.05            2.6575e-005     7.18e-009       2.7254e-009    
  0.1             4.5449e-005     3.168e-008      -1.6068e-009   
  0.15            5.6478e-005     9.74e-009       1.3082e-009    
  0.2             6.2522e-005     -1.74e-009      -1.0294e-009   
  0.25            6.451e-005      7.61e-009       7.646e-010     
  0.3             6.5345e-005     6.897e-009      -1.4725e-009   
  0.35            6.5843e-005     1.1771e-007     -2.1086e-009   
  0.4             6.5825e-005     4.478e-008      1.9687e-009    
  0.45            6.6488e-005     2.2e-010        -1.6747e-009   
  0.5             6.5726e-005     4.59e-009       1.3673e-009    
  0.55            6.6665e-005     -2.24e-009      -1.1046e-009   
  0.6             6.6803e-005     -2.263e-009     2.7027e-009    
  0.65            6.6323e-005     -2.66e-009      1.9076e-009    
  0.7             6.7048e-005     -2.71e-009      -1.6383e-009   
  0.75            6.6152e-005     3.9e-009        1.313e-009     
  0.8             6.6179e-005     3.877e-009      -1.108e-010    
  0.85            6.6818e-005     1.4385e-008     1.5334e-009    
  0.9             6.6888e-005     1.08e-008       -2.2071e-009   
  0.95            6.6837e-005     4.59e-009       2.0452e-009    
  1               6.6966e-005     2.71e-009       2.6701e-009    
  1.05            6.6943e-005     9.952e-008      2.6769e-009    
  1.1             6.6992e-005     8.5143e-008     2.6296e-009    
  1.15            6.7661e-005     -3.203e-009     -5.5948e-009   
  1.2             6.6401e-005     1.3727e-008     -9.2551e-009   
  1.25            6.7228e-005     1.3581e-008     -8.1643e-008   
  1.3             6.7253e-005     8.7583e-008     -1.06116e-007  
  1.35            6.7331e-005     8.31e-008       -1.10547e-007  
  1.4             6.7346e-005     8.5551e-008     -1.13853e-007  
  1.45            6.7418e-005     8.5323e-008     -1.12253e-007  
  1.5             6.7442e-005     8.5417e-008     -1.08014e-007  
  1.55            6.7469e-005     4.973e-009      -8.5065e-008   
  1.6             6.7537e-005     8.8996e-008     -1.09396e-007  
  1.65            6.7513e-005     8.8064e-008     -1.11006e-007  
  1.7             6.7617e-005     8.7378e-008     -1.08921e-007  
  1.75            6.7677e-005     8.9834e-008     -1.14188e-007  
  1.8             6.7619e-005     4.495e-009      -1.16209e-007  
  1.85            6.7717e-005     8.9621e-008     -1.1656e-007   
  1.9             6.7662e-005     4.474e-009      -3.191e-008    
  1.95            6.7764e-005     9.151e-008      -1.1777e-007   
  2               6.7907e-005     1.3796e-008     -5.222e-008    
  2.05            6.7869e-005     9.1291e-008     -1.5362e-008   
  2.1             6.7904e-005     9.1606e-008     -1.15052e-007  
  2.15            6.761e-005      5.7972e-008     -1.2048e-007   
  2.2             6.8051e-005     1.3698e-008     -5.676e-008    
  2.25            6.798e-005      9.1524e-008     -1.5438e-008   
  2.3             6.8046e-005     9.1864e-008     -1.14808e-007  
  2.35            6.8055e-005     9.3179e-008     -1.0825e-007   
  2.4             6.8102e-005     9.012e-008      -1.998e-008    
  2.45            6.8324e-005     2.4741e-008     9.4e-010       
  2.5             6.7877e-005     3.7755e-008     -8.54e-009     
  2.55            6.8182e-005     9.1608e-008     -3.16e-008     
  2.6             6.8382e-005     2.2373e-008     -6.228e-008    
  2.65            6.8269e-005     9.426e-009      -1.4328e-008   
  2.7             6.8255e-005     -2.422e-009     -1.473e-008    
  2.75            6.8328e-005     -3.675e-009     -1.9408e-008   
  2.8             6.8484e-005     1.5301e-008     -5.81e-008     
  2.85            6.8501e-005     1.149e-008      -2.082e-008    
  2.9             6.8356e-005     8.9742e-008     -1.5022e-008   
  2.95            6.8619e-005     2.9479e-008     1.13e-009      
  3               6.8131e-005     4.2811e-008     -8.5e-009      
  3.05            6.8489e-005     9.0042e-008     -1.3256e-008   
  3.1             6.8533e-005     9.721e-009      -1.16193e-007  
  3.15            6.8601e-005     -7.525e-009     -9.856e-008    
  3.2             6.854e-005      8.0672e-008     -1.2298e-007   
  3.25            6.8779e-005     5.703e-009      -5.061e-008    
  3.3             6.873e-005      -1.3195e-008    1.39e-009      
  3.35            6.8628e-005     8.3513e-008     -1.1905e-007   
  3.4             6.8667e-005     -1.5178e-008    -2.2552e-008   
  3.45            6.8539e-005     -7.944e-009     -1.2079e-007   
  3.5             6.8775e-005     7.9196e-008     -6.464e-008    
  3.55            6.8738e-005     -7.806e-009     -1.4362e-008   
  3.6             6.877e-005      -1.6128e-008    -5.658e-008    
  3.65            6.8771e-005     -8.349e-009     -1.4713e-008   
  3.7             6.8834e-005     -2.1951e-008    -6.521e-008    
  3.75            6.8851e-005     -2.1093e-008    -1.4334e-008   
  3.8             6.8901e-005     -2.856e-008     -5.831e-008    
  3.85            6.8932e-005     -2.2257e-008    -1.4705e-008   
  3.9             6.8949e-005     -3.6493e-008    -5.562e-008    
  3.95            6.8944e-005     -2.1944e-008    -1.4947e-008   
  4               6.9048e-005     -4.6323e-008    -6.185e-008    
  4.05            6.9044e-005     -4.2167e-008    -1.4553e-008   
  4.1             6.9061e-005     -5.6295e-008    -5.53e-008     
  4.15            6.9065e-005     -4.6854e-008    -1.4906e-008   
  4.2             6.9069e-005     -6.8356e-008    -4.923e-008    
  4.25            6.9145e-005     -5.2473e-008    -1.5222e-008   
  4.3             6.9185e-005     -8.2207e-008    -5.628e-008    
  4.35            6.9214e-005     -9.664e-008     -2.5513e-008   
  4.4             6.9264e-005     -9.5527e-008    -4.955e-008    
  4.45            6.9253e-005     -1.059e-007     -5.992e-008    
  4.5             6.9324e-005     -2.997e-008     -1.107e-008    
  4.55            6.9337e-005     -4.45e-008      1.33e-009      
  4.6             6.9448e-005     -4.814e-008     -1.1846e-007   
  4.65            6.9816e-005     -1.5253e-007    -3.771e-008    
  4.7             6.9608e-005     -1.4806e-007    -2.626e-008    
  4.75            6.9574e-005     -1.7672e-007    -1.176e-008    
  4.8             6.9664e-005     -1.7148e-007    -1.294e-008    
  4.85            6.9499e-005     -1.9821e-007    -2.05e-009     
  4.9             6.9434e-005     -1.9086e-007    -9.35e-009     
  4.95            6.9295e-005     -2.1033e-007    7.1e-010       
  5               6.9367e-005     -2.0628e-007    -8.79e-009     
END_DB

BEGIN_DB
 ICCAP_VAR VG         2              
 ICCAP_VAR VS         0              
 ICCAP_VAR VB         0              

 #VD              ID              IB              IG             
  0               -1.3392e-006    2.8616e-007     1.005e-010     
  0.05            5.0832e-005     4.508e-007      -1.9838e-009   
  0.1             0.000102        1.5978e-007     2.0985e-009    
  0.15            0.00015255      -4.2e-010       -2.5327e-009   
  0.2             0.00020248      6.65e-009       1.2934e-009    
  0.25            0.00025191      -1.97e-009      -1.1198e-009   
  0.3             0.000301        5.48e-009       9.561e-010     
  0.35            0.00034798      -2.85e-009      -7.895e-010    
  0.4             0.00039492      -2.664e-009     1.3005e-009    
  0.45            0.00043985      9.864e-008      2.26e-009      
  0.5             0.00048456      3.758e-008      -1.9641e-009   
  0.55            0.00052748      1.477e-008      1.8942e-009    
  0.6             0.00056959      -2.16e-009      -1.7187e-009   
  0.65            0.00061021      5.24e-009       1.5114e-009    
  0.7             0.00064903      -2.22e-009      -1.374e-009    
  0.75            0.00067909      1.8456e-007     1.9659e-009    
  0.8             0.00070535      1.112e-008      -2.1106e-009   
  0.85            0.00073149      6.36e-009       2.0397e-009    
  0.9             0.00075298      -3.12e-009      -1.8207e-009   
  0.95            0.00076743      4.85e-009       1.6613e-009    
  1               0.00078049      1.0457e-007     -9.902e-010    
  1.05            0.00078896      9.0011e-008     -1.256e-009    
  1.1             0.00079528      6.8612e-008     2.6146e-009    
  1.15            0.00080483      6.8055e-008     2.6759e-009    
  1.2             0.00080661      -3.248e-009     -1.7252e-009   
  1.25            0.00081293      1.5539e-008     -1.3768e-009   
  1.3             0.00081328      5.902e-009      2.3712e-009    
  1.35            0.00081452      1.6906e-008     2.6574e-009    
  1.4             0.00081562      1.2645e-008     -2.3958e-009   
  1.45            0.00081356      4.266e-009      1.7585e-009    
  1.5             0.00081798      1.5561e-008     -1.3797e-009   
  1.55            0.00081701      1.345e-008      -1.8103e-009   
  1.6             0.00081656      1.3341e-008     -2.3002e-009   
  1.65            0.0008153       1.4858e-008     -1.4221e-009   
  1.7             0.00082088      1.3356e-008     -1.8872e-009   
  1.75            0.00082089      1.3027e-008     -2.3548e-009   
  1.8             0.00082337      1.4331e-008     -1.4749e-009   
  1.85            0.00082142      1.3454e-008     -1.9609e-009   
  1.9             0.00081913      1.2551e-008     -2.4003e-009   
  1.95            0.00082047      1.4006e-008     -1.5293e-009   
  2               0.00081819      1.3475e-008     -2.0377e-009   
  2.05            0.00081857      1.2395e-008     -2.4441e-009   
  2.1             0.00081716      1.3894e-008     -1.6453e-009   
  2.15            0.00082114      1.3692e-008     -2.5428e-009   
  2.2             0.00082085      1.2043e-008     -2.5619e-009   
  2.25            0.00082332      1.3295e-008     -4.7091e-009   
  2.3             0.00082015      1.1887e-008     -1.948e-008    
  2.35            0.00082126      1.3609e-008     -1.6872e-008   
  2.4             0.00082086      1.4509e-008     -1.367e-008    
  2.45            0.00081777      1.1788e-008     -1.4832e-008   
  2.5             0.00082184      1.3975e-008     -1.5334e-008   
  2.55            0.00082021      1.5235e-008     -1.3206e-008   
  2.6             0.0008226       1.2196e-008     -1.4268e-008   
  2.65            0.0008247       1.4427e-008     -1.3637e-008   
  2.7             0.00082599      1.1744e-008     -1.4883e-008   
  2.75            0.00082323      1.3875e-008     -1.5218e-008   
  2.8             0.00082211      1.546e-008      -1.3199e-008   
  2.85            0.0008231       1.2276e-008     -1.4361e-008   
  2.9             0.00082577      1.4521e-008     -1.3855e-008   
  2.95            0.00082555      1.1721e-008     -1.4896e-008   
  3               0.00082673      1.3874e-008     -1.5036e-008   
  3.05            0.00082931      1.5356e-008     -1.3445e-008   
  3.1             0.0008271       1.2179e-008     -1.4339e-008   
  3.15            0.00082667      1.4153e-008     -1.3694e-008   
  3.2             0.00082845      1.1471e-008     -1.4907e-008   
  3.25            0.00082902      1.3373e-008     -1.5124e-008   
  3.3             0.00082755      1.4827e-008     -1.3356e-008   
  3.35            0.00082685      1.1073e-008     -1.4574e-008   
  3.4             0.00082803      1.2975e-008     -1.3805e-008   
  3.45            0.00082819      9.651e-009      -1.5012e-008   
  3.5             0.00082776      1.082e-008      -1.4996e-008   
  3.55            0.00082808      7.044e-009      -1.5199e-008   
  3.6             0.00082581      8.434e-009      -1.6849e-008   
  3.65            0.00082805      7.655e-009      -1.3626e-008   
  3.7             0.00083027      -7.627e-009     -1.5135e-008   
  3.75            0.00082999      -1.223e-008     -1.5149e-008   
  3.8             0.00082817      -1.4842e-008    -1.3537e-008   
  3.85            0.00082562      -1.6728e-008    -1.4644e-008   
  3.9             0.00082806      -2.2806e-008    -1.5242e-008   
  3.95            0.00083063      -2.762e-008     -1.3918e-008   
  4               0.00083098      -3.1789e-008    -1.359e-008    
  4.05            0.00083011      -4.0261e-008    -1.5316e-008   
  4.1             0.00083205      -4.7735e-008    -1.4387e-008   
  4.15            0.00083109      -5.5291e-008    -1.5958e-008   
