! VERSION = 6.00
BEGIN_HEADER
 ICCAP_INPUTS
  VG         V  B GROUND SMU4 0.001 LIN        2    0          5          6    1         
  VS         V  E GROUND SMU2 0.1 CON        0
  VD         V  S GROUND SMU1 0.1 LIN        1    0          5          101  0.05      
  VB         V  C GROUND SMU3 0.1 LIN        3    0          -2.5       2    -2.5      
 ICCAP_OUTPUTS
  ID         I  S GROUND SMU1 B
  IB         I  C GROUND SMU3 B
  IG         I  B GROUND SMU4 B
END_HEADER

BEGIN_DB
 ICCAP_VAR VG         0              
 ICCAP_VAR VS         0              
 ICCAP_VAR VB         0              

 #VD              ID              IB              IG             
  0               -6.2677e-008    4.1682e-007     6.893e-010     
  0.05            -4.071e-007     4.1353e-007     -3.0607e-009   
  0.1             -3.6161e-007    -4.5e-010       -1.7164e-008   
  0.15            -2.1288e-007    1.1209e-007     -1.744e-008    
  0.2             -1.6421e-008    3.6105e-007     -2.96e-008     
  0.25            1.455e-009      4.228e-007      -9.9e-009      
  0.3             4.4416e-008     3.9816e-007     -2.621e-008    
  0.35            1.92e-009       4.219e-007      -5.512e-008    
  0.4             4.6476e-008     -1.9e-010       -2.9043e-007   
  0.45            2.5852e-008     4.3249e-007     -3.833e-008    
  0.5             2.575e-009      4.2239e-007     -5.511e-008    
  0.55            4.5903e-008     9.4e-010        -3.2471e-007   
  0.6             2.2397e-008     8.096e-008      -6.699e-008    
  0.65            4.669e-009      4.2399e-007     1.11e-009      
  0.7             4.7278e-008     3.9708e-007     -2.9837e-007   
  0.75            2.6727e-008     8.715e-008      -4.894e-008    
  0.8             3.388e-009      4.2263e-007     1.19e-009      
  0.85            4.8619e-008     3.8606e-007     -2.7442e-007   
  0.9             2.496e-008      4.3152e-007     -3.564e-008    
  0.95            2.458e-009      4.2232e-007     -5.493e-008    
  1               4.8521e-008     2.9e-010        -3.0192e-007   
  1.05            2.6208e-008     8.677e-008      -6.362e-008    
  1.1             4.275e-009      4.2362e-007     1.12e-009      
  1.15            4.9285e-008     3.9355e-007     -2.8063e-007   
  1.2             2.6068e-008     4.3385e-007     -3.919e-008    
  1.25            2.685e-009      4.2324e-007     -5.387e-008    
  1.3             4.9137e-008     6.7e-010        -3.1215e-007   
  1.35            2.542e-008      8.193e-008      -5.777e-008    
  1.4             4.003e-009      4.2212e-007     1.17e-009      
  1.45            5.0256e-008     3.9245e-007     -2.8663e-007   
  1.5             2.7187e-008     4.3328e-007     -3.636e-008    
  1.55            2.445e-009      4.234e-007      -5.666e-008    
  1.6             4.9903e-008     7.6e-010        -3.1818e-007   
  1.65            2.5331e-008     8.119e-008      -6.137e-008    
  1.7             4.419e-009      4.2417e-007     1.12e-009      
  1.75            5.0941e-008     3.9512e-007     -2.93e-007     
  1.8             2.8035e-008     4.2984e-007     -3.779e-008    
  1.85            2.616e-009      4.2293e-007     -5.705e-008    
  1.9             5.0065e-008     9.5e-010        -3.2429e-007   
  1.95            2.4898e-008     7.972e-008      -6.549e-008    
  2               4.696e-009      4.2508e-007     1.11e-009      
  2.05            5.1553e-008     3.9867e-007     -2.9946e-007   
  2.1             2.8876e-008     4.3219e-007     -4.026e-008    
  2.15            2.801e-009      4.2388e-007     -5.596e-008    
  2.2             5.0645e-008     1.19e-009       -3.3165e-007   
  2.25            2.4448e-008     7.901e-008      -6.886e-008    
  2.3             5.166e-009      4.2421e-007     1.07e-009      
  2.35            5.1849e-008     4.0001e-007     -3.0355e-007   
  2.4             2.8997e-008     9.008e-008      -5.037e-008    
  2.45            3.626e-009      4.2442e-007     1.2e-009       
  2.5             2.0822e-008     3.8771e-007     -4.7491e-007   
  2.55            4.8493e-008     2.2537e-007     -1.311e-008    
  2.6             1.442e-009      4.2467e-007     -5.836e-008    
  2.65            5.3398e-008     1.2243e-007     -2.93e-009     
  2.7             5.38e-010       4.2277e-007     -9.97e-009     
  2.75            3.8515e-008     3.1854e-007     -4.4465e-007   
  2.8             4.8377e-008     3.3055e-007     -9.23e-008     
  2.85            5.3519e-008     1.427e-007      1.7e-010       
  2.9             2.23e-010       4.2183e-007     -4.6468e-007   
  2.95            5.1365e-008     2.8174e-007     -8.933e-008    
  3               5.3781e-008     1.2798e-007     -1.23e-009     
  3.05            3.97e-010       4.2439e-007     -9.99e-009     
  3.1             4.2432e-008     2.9628e-007     -4.3166e-007   
  3.15            4.6952e-008     3.5179e-007     -1.1691e-007   
  3.2             5.4207e-008     1.6036e-007     7.1e-010       
  3.25            1.83e-010       4.2004e-007     1.175e-009     
  3.3             4.9806e-008     3.6648e-007     -4.7453e-007   
  3.35            5.3472e-008     2.3504e-007     1.1e-009       
  3.4             5.4139e-008     3.9587e-007     -2.9059e-007   
  3.45            2.9441e-008     4.2967e-007     -4.468e-008    
  3.5             3.089e-009      4.2392e-007     -5.727e-008    
  3.55            5.3173e-008     8.7e-010        -3.2239e-007   
  3.6             2.673e-008      7.99e-008       -7.498e-008    
  3.65            5.781e-009      4.2531e-007     1.07e-009      
  3.7             1.9638e-008     3.9947e-007     -4.7756e-007   
  3.75            4.8331e-008     1.9753e-007     -1.576e-008    
  3.8             1.524e-009      4.2375e-007     -5.741e-008    
  3.85            5.5392e-008     -1.03e-009      -2.3851e-007   
  3.9             2.3258e-008     4.3296e-007     -1.984e-008    
  3.95            1.707e-009      4.2517e-007     -5.901e-008    
  4               5.4854e-008     -6.2e-010       -2.706e-007    
  4.05            2.727e-008      4.3218e-007     -2.89e-008     
  4.1             2.193e-009      4.2378e-007     -5.797e-008    
  4.15            5.4805e-008     1.1e-010        -2.9905e-007   
  4.2             3.1084e-008     4.3183e-007     -4.171e-008    
  4.25            2.968e-009      4.2418e-007     -5.694e-008    
  4.3             5.401e-008      1.51e-009       -3.3491e-007   
  4.35            2.6125e-008     7.957e-008      -8.383e-008    
  4.4             6.59e-009       4.2358e-007     1.04e-009      
  4.45            1.59e-010       4.0087e-007     -3.157e-007    
  4.5             5.6887e-008     2.0781e-007     -1.664e-008    
  4.55            1.578e-009      4.2423e-007     -5.816e-008    
  4.6             5.6793e-008     -1.07e-009      -2.4423e-007   
  4.65            2.4551e-008     4.3419e-007     -2.408e-008    
  4.7             1.884e-009      4.2425e-007     -5.861e-008    
  4.75            5.6225e-008     -4.7e-010       -2.7632e-007   
  4.8             2.8471e-008     4.3541e-007     -3.541e-008    
  4.85            2.475e-009      4.2456e-007     -5.776e-008    
  4.9             5.5644e-008     1.1e-010        -3.0587e-007   
  4.95            3.079e-008      8.904e-008      -6.22e-008     
  5               4.667e-009      4.2514e-007     1.12e-009      
END_DB

BEGIN_DB
 ICCAP_VAR VG         1              
 ICCAP_VAR VS         0              
 ICCAP_VAR VB         0              

 #VD              ID              IB              IG             
  0               -2.8068e-007    8.532e-008      9.152e-010     
  0.05            1.7082e-006     4.0894e-007     -1.4516e-009   
  0.1             3.0153e-006     9.26e-009       8.294e-010     
  0.15            3.4361e-006     4.672e-008      2.4167e-009    
  0.2             4.1771e-006     3.433e-007      1.659e-009     
  0.25            4.3162e-006     3.987e-008      -1.7907e-009   
  0.3             4.361e-006      7.74e-009       1.183e-009     
  0.35            4.3896e-006     8.858e-009      -1.6531e-009   
  0.4             4.4117e-006     4e-008          -1.8902e-009   
  0.45            4.3881e-006     8.14e-009       1.3246e-009    
  0.5             4.4282e-006     8.265e-009      2.6872e-009    
  0.55            4.4103e-006     1.4695e-007     2.5908e-009    
  0.6             4.4325e-006     1.407e-008      -1.9224e-009   
  0.65            4.4023e-006     8.14e-009       1.369e-009     
  0.7             4.4355e-006     1.7626e-008     -1.9081e-009   
  0.75            4.3064e-006     1.4514e-007     -1.017e-009    
  0.8             4.4397e-006     1.2973e-007     2.2771e-009    
  0.85            4.4394e-006     2.392e-008      5.03e-011      
  0.9             4.4546e-006     1.00386e-007    2.6312e-009    
  0.95            4.4548e-006     8.3683e-008     2.6841e-009    
  1               4.4594e-006     6.9928e-008     2.7091e-009    
  1.05            4.4578e-006     5.7728e-008     2.7148e-009    
  1.1             4.4186e-006     4.6385e-008     1.8797e-009    
  1.15            4.4657e-006     7.641e-009      -7.715e-009    
  1.2             4.4735e-006     1.6333e-008     -1.8007e-008   
  1.25            4.4812e-006     2.3354e-008     -1.6572e-008   
  1.3             4.4878e-006     1.551e-008      -1.9607e-008   
  1.35            4.4847e-006     2.0299e-008     -2.5397e-008   
  1.4             4.4863e-006     1.406e-008      -1.8086e-008   
  1.45            4.4923e-006     1.7745e-008     -2.3198e-008   
  1.5             4.4958e-006     2.3594e-008     -1.7394e-008   
  1.55            4.5e-006        1.5641e-008     -2.0029e-008   
  1.6             4.4945e-006     2.0472e-008     -2.5454e-008   
  1.65            4.4988e-006     1.4058e-008     -1.8309e-008   
  1.7             4.5004e-006     1.798e-008      -2.3395e-008   
  1.75            4.5022e-006     2.3683e-008     -1.7563e-008   
  1.8             4.5071e-006     1.5741e-008     -1.6133e-008   
  1.85            4.4912e-006     6.278e-009      -4.9287e-008   
  1.9             4.4971e-006     4.4771e-008     -4.6945e-008   
  1.95            4.4974e-006     4.3239e-008     -5.0728e-008   
  2               4.499e-006      4.5148e-008     -4.9887e-008   
  2.05            4.5025e-006     4.3502e-008     -4.9991e-008   
  2.1             4.5006e-006     4.6462e-008     -4.8782e-008   
  2.15            4.5082e-006     4.5684e-008     -4.9054e-008   
  2.2             4.5076e-006     4.4187e-008     -5.0184e-008   
  2.25            4.5058e-006     4.4552e-008     -4.9303e-008   
  2.3             4.5094e-006     4.3893e-008     -4.9564e-008   
  2.35            4.5093e-006     4.6675e-008     -4.9604e-008   
  2.4             4.5117e-006     4.4041e-008     -4.1039e-008   
  2.45            4.5127e-006     4.0751e-008     -4.9666e-008   
  2.5             4.5132e-006     4.4646e-008     -4.7466e-008   
  2.55            4.5172e-006     4.4709e-008     -5.1681e-008   
  2.6             4.5153e-006     4.5463e-008     -4.8314e-008   
  2.65            4.5196e-006     4.5132e-008     -5.0727e-008   
  2.7             4.518e-006      4.5608e-008     -4.9295e-008   
  2.75            4.519e-006      4.4403e-008     -4.784e-008    
  2.8             4.5249e-006     4.4233e-008     -5.1635e-008   
  2.85            4.5251e-006     4.5817e-008     -4.8576e-008   
  2.9             4.5281e-006     4.4511e-008     -4.9325e-008   
  2.95            4.5261e-006     4.5754e-008     -5.127e-008    
  3               4.5274e-006     4.4425e-008     -4.8739e-008   
  3.05            4.5264e-006     4.2901e-008     -5.19e-008     
  3.1             4.5311e-006     4.434e-008      -4.8298e-008   
  3.15            4.5316e-006     4.4135e-008     -5.0578e-008   
  3.2             4.5322e-006     4.5673e-008     -5.0249e-008   
  3.25            4.5344e-006     4.4209e-008     -4.803e-008    
  3.3             4.5353e-006     4.2969e-008     -5.1923e-008   
  3.35            4.5357e-006     4.4283e-008     -4.9574e-008   
  3.4             4.5375e-006     4.4077e-008     -5.0967e-008   
  3.45            4.5364e-006     4.5362e-008     -5.0041e-008   
  3.5             4.5392e-006     4.3562e-008     -4.8502e-008   
  3.55            4.5393e-006     4.1252e-008     -5.1948e-008   
  3.6             4.5402e-006     4.3992e-008     -4.9412e-008   
  3.65            4.5406e-006     4.2438e-008     -5.2242e-008   
  3.7             4.5432e-006     4.4599e-008     -4.9553e-008   
  3.75            4.5464e-006     4.1538e-008     -4.832e-008    
  3.8             4.5465e-006     4.1e-008        -5.1279e-008   
  3.85            4.5479e-006     4.3697e-008     -4.8198e-008   
  3.9             4.5503e-006     4.1254e-008     -5.2206e-008   
  3.95            4.5509e-006     4.3609e-008     -4.9691e-008   
  4               4.5517e-006     4.0716e-008     -4.8867e-008   
  4.05            4.5538e-006     3.91e-008       -5.1801e-008   
  4.1             4.5564e-006     3.5957e-008     -4.9214e-008   
  4.15            4.5505e-006     1.5629e-008     -5.0797e-008   
  4.2             4.5578e-006     3.2414e-008     -5.0179e-008   
  4.25            4.5504e-006     1.2276e-008     -5.0544e-008   
  4.3             4.5605e-006     3.0224e-008     -4.706e-008    
  4.35            4.5739e-006     -1.1286e-008    -5.3123e-008   
  4.4             4.5751e-006     -1.2548e-008    -5.2059e-008   
  4.45            4.5742e-006     -1.3665e-008    -5.1049e-008   
  4.5             4.5744e-006     -1.4906e-008    -4.9655e-008   
  4.55            4.5759e-006     -1.6199e-008    -5.0674e-008   
  4.6             4.5776e-006     -1.742e-008     1.525e-009     
  4.65            4.5737e-006     1.44e-009       -1.7308e-008   
  4.7             4.5888e-006     1.735e-009      -2.0262e-008   
  4.75            4.5764e-006     2.9475e-008     -2.3072e-008   
  4.8             4.5824e-006     -8.337e-009     -1.1507e-008   
  4.85            4.5745e-006     -1.0497e-008    -5.0667e-008   
  4.9             4.5925e-006     -2.4247e-008    -5.0402e-008   
  4.95            4.5911e-006     -2.5816e-008    1.526e-009     
  5               4.5885e-006     -3.86e-009      -1.7765e-008   
END_DB

BEGIN_DB
 ICCAP_VAR VG         2              
 ICCAP_VAR VS         0              
 ICCAP_VAR VB         0              

 #VD              ID              IB              IG             
  0               -4.3888e-007    1.8691e-007     1.5854e-009    
  0.05            9.0164e-006     3.156e-007      1.8154e-009    
  0.1             1.8433e-005     9.676e-008      1.0054e-009    
  0.15            2.7042e-005     -2e-009         -6.388e-010    
  0.2             3.5407e-005     -2.235e-009     1.3468e-009    
  0.25            4.3474e-005     1.2419e-007     2.1894e-009    
  0.3             5.1064e-005     3.636e-008      -1.8058e-009   
  0.35            5.8231e-005     1.198e-008      1.6082e-009    
  0.4             6.5107e-005     -2.08e-009      -1.3184e-009   
  0.45            7.148e-005      8.22e-009       1.0383e-009    
  0.5             7.7479e-005     8.021e-009      -1.4326e-009   
  0.55            8.3108e-005     1.1226e-007     -2.4732e-009   
  0.6             8.8253e-005     8.172e-008      2.3089e-009    
  0.65            9.299e-005      1.447e-008      -1.9587e-009   
  0.7             9.721e-005      8.53e-009       1.8453e-009    
  0.75            0.0001012       -2.32e-009      -1.5813e-009   
  0.8             0.000104448     1.4276e-007     1.733e-009     
  0.85            0.000107476     4.72e-009       -2.0325e-009   
  0.9             0.000109997     2.797e-009      -2.0479e-009   
  0.95            0.000112139     1.9379e-008     -2.1725e-009   
  1               0.000113691     7.398e-009      1.8129e-009    
  1.05            0.00011503      6.6961e-008     2.4534e-009    
  1.1             0.00011623      -2.397e-009     -1.8081e-009   
  1.15            0.00011703      2.3446e-008     -1.2861e-009   
  1.2             0.00011751      1.5764e-008     2.495e-009     
  1.25            0.00011793      1.6258e-008     2.7149e-009    
  1.3             0.0001181       7.439e-009      1.7063e-009    
  1.35            0.00011861      1.9182e-008     -1.4083e-009   
  1.4             0.00011882      1.533e-008      -1.7999e-009   
  1.45            0.00011898      2.3899e-008     -1.2813e-009   
  1.5             0.00011913      1.8755e-008     -1.4438e-009   
  1.55            0.00011923      1.4954e-008     -1.8666e-009   
  1.6             0.00011931      2.346e-008      -1.2945e-009   
  1.65            0.00011937      1.8116e-008     -1.4918e-009   
  1.7             0.00011951      1.4692e-008     -1.9324e-009   
  1.75            0.00011954      2.2711e-008     -1.3081e-009   
  1.8             0.00011965      1.768e-008      -1.5298e-009   
  1.85            0.00011976      1.4467e-008     -1.9945e-009   
  1.9             0.00011975      1.668e-008      -1.388e-009    
  1.95            0.00011989      1.6053e-008     -1.7438e-009   
  2               0.00011994      2.4491e-008     -1.2888e-009   
  2.05            0.00011999      1.9406e-008     -1.435e-009    
  2.1             0.00012005      1.5575e-008     -1.9396e-009   
  2.15            0.00012007      2.3933e-008     -1.8255e-009   
  2.2             0.00012012      1.8723e-008     -4.614e-009    
  2.25            0.0001202       1.5115e-008     -1.07234e-008  
  2.3             0.00012013      1.4588e-008     -1.6355e-008   
  2.35            0.00012016      1.2837e-008     -1.7173e-008   
  2.4             0.0001202       2.3642e-008     -1.7159e-008   
  2.45            0.00012026      2.3979e-008     -1.7272e-008   
  2.5             0.00012032      2.4231e-008     -1.7762e-008   
  2.55            0.00012041      2.4578e-008     -1.7865e-008   
  2.6             0.00012038      2.5028e-008     -1.7986e-008   
  2.65            0.00012045      1.3959e-008     -1.8183e-008   
  2.7             0.0001205       1.4155e-008     -1.8288e-008   
  2.75            0.00012053      1.4235e-008     -1.8234e-008   
  2.8             0.0001206       1.4299e-008     -1.8188e-008   
  2.85            0.00012063      1.4562e-008     -1.8389e-008   
  2.9             0.00012068      1.4647e-008     -1.8559e-008   
  2.95            0.0001207       1.4831e-008     -1.8793e-008   
  3               0.00012077      1.4985e-008     -1.9055e-008   
  3.05            0.00012076      1.531e-008      -1.9377e-008   
  3.1             0.00012084      1.5547e-008     -1.9727e-008   
  3.15            0.00012084      1.5954e-008     -1.6035e-008   
  3.2             0.0001209       1.7602e-008     -2.2937e-008   
  3.25            0.00012091      1.7672e-008     -2.3138e-008   
  3.3             0.00012097      1.7837e-008     -2.357e-008    
  3.35            0.00012097      1.8213e-008     -2.3895e-008   
  3.4             0.00012105      1.8268e-008     -2.4126e-008   
  3.45            0.00012105      1.851e-008      -2.4407e-008   
  3.5             0.00012111      1.8813e-008     -2.4936e-008   
  3.55            0.00012113      1.9062e-008     -2.5391e-008   
  3.6             0.0001212       1.9464e-008     -2.5565e-008   
  3.65            0.00012119      1.9524e-008     -2.5822e-008   
  3.7             0.00012124      1.9727e-008     -2.6194e-008   
  3.75            0.00012127      1.0442e-008     -1.6864e-008   
  3.8             0.00012128      9.959e-009      -1.7184e-008   
  3.85            0.00012133      9.497e-009      -1.6997e-008   
  3.9             0.00012134      8.883e-009      -1.7101e-008   
  3.95            0.00012142      8.217e-009      -1.7685e-008   
  4               0.00012142      7.262e-009      -1.7814e-008   
  4.05            0.00012145      6.294e-009      -1.7773e-008   
  4.1             0.00012151      5.157e-009      -1.7899e-008   
  4.15            0.00012153      3.913e-009      -1.8027e-008   
