! VERSION = 6.00
BEGIN_HEADER
 ICCAP_INPUTS
  VG         V  B GROUND SMU4 0.001 LIN        2    0          5          6    1         
  VS         V  E GROUND SMU2 0.1 CON        0
  VD         V  S GROUND SMU1 0.1 LIN        1    0          5          101  0.05      
  VB         V  C GROUND SMU3 0.1 LIN        3    0          -2.5       2    -2.5      
 ICCAP_OUTPUTS
  ID         I  S GROUND SMU1 B
  IB         I  C GROUND SMU3 B
  IG         I  B GROUND SMU4 B
END_HEADER

BEGIN_DB
 ICCAP_VAR VG         0              
 ICCAP_VAR VS         0              
 ICCAP_VAR VB         0              

 #VD              ID              IB              IG             
  0               -3.155e-008     2.593e-008      -1.2033e-009   
  0.05            -7.338e-008     3.8553e-007     6.469e-010     
  0.1             -9.46e-009      4.078e-007      -4.66e-010     
  0.15            -7.475e-009     1.7441e-007     -3.488e-008    
  0.2             -2.6639e-008    4.3589e-007     -3.8341e-007   
  0.25            3.6903e-008     1.5397e-007     -3.51e-009     
  0.3             1.029e-009      4.3593e-007     -4.7805e-007   
  0.35            5.2255e-008     3.0039e-007     -2.1413e-007   
  0.4             2.099e-008      4.4498e-007     -2.419e-008    
  0.45            2.171e-009      4.3707e-007     -7.548e-008    
  0.5             5.6342e-008     2.89e-009       -2.4104e-007   
  0.55            2.4141e-008     4.4647e-007     -3.079e-008    
  0.6             2.515e-009      4.3587e-007     -7.62e-008     
  0.65            5.722e-008      4.24e-009       -2.6743e-007   
  0.7             2.7127e-008     4.4648e-007     -3.924e-008    
  0.75            2.96e-009       4.3696e-007     -7.572e-008    
  0.8             5.7229e-008     5.39e-009       -2.918e-007    
  0.85            3.0159e-008     4.4317e-007     -5.042e-008    
  0.9             3.54e-009       4.3914e-007     -7.786e-008    
  0.95            5.7224e-008     6.73e-009       -3.1632e-007   
  1               3.23e-008       9.302e-008      -7.048e-008    
  1.05            5.319e-009      4.3734e-007     -7.529e-008    
  1.1             5.6507e-008     1.064e-008      -3.5596e-007   
  1.15            2.6566e-008     8.647e-008      -9.895e-008    
  1.2             7.898e-009      4.3896e-007     -9.9e-010      
  1.25            9.09e-010       4.2024e-007     1.021e-009     
  1.3             4.3379e-008     1.8e-010        -1.76e-009     
  1.35            1.017e-009      4.2775e-007     1.023e-009     
  1.4             4.1945e-008     3.1e-010        -1.24e-009     
  1.45            9.59e-010       4.2199e-007     1.005e-009     
  1.5             4.4594e-008     4.5e-010        -1.81e-009     
  1.55            1.041e-009      4.268e-007      1.007e-009     
  1.6             5.6382e-008     3.8036e-007     -4.9664e-007   
  1.65            5.9982e-008     2.5838e-007     -5.3e-010      
  1.7             2.4392e-008     4.0594e-007     -4.9875e-007   
  1.75            6.043e-008      1.8863e-007     -1.561e-008    
  1.8             1.867e-009      4.3663e-007     -1.4559e-008   
  1.85            5.8448e-008     3.5191e-007     -4.9734e-007   
  1.9             4.973e-008      1.5111e-007     -3.155e-008    
  1.95            2.702e-009      4.3863e-007     -7.796e-008    
  2               6.19e-008       4.79e-009       -2.7608e-007   
  2.05            2.9975e-008     4.4522e-007     -3.916e-008    
  2.1             3.101e-009      4.3867e-007     -7.814e-008    
  2.15            6.1308e-008     6.22e-009       -2.9866e-007   
  2.2             3.2768e-008     4.4668e-007     -5.13e-008     
  2.25            3.979e-009      4.3936e-007     -7.749e-008    
  2.3             6.163e-008      7.87e-009       -3.1626e-007   
  2.35            3.3634e-008     9.26e-008       -7.628e-008    
  2.4             6.137e-009      4.3902e-007     -7.565e-008    
  2.45            6.0306e-008     1.228e-008      -3.7906e-007   
  2.5             2.856e-008      8.747e-008      -1.0986e-007   
  2.55            9.122e-009      4.4011e-007     -1.33e-009     
  2.6             1.15e-009       4.2438e-007     9.61e-010      
  2.65            6.0256e-008     3.6189e-007     -4.934e-007    
  2.7             6.1501e-008     2.7851e-007     -7.57e-008     
  2.75            6.3863e-008     1.4068e-007     -7.74e-009     
  2.8             1.888e-009      4.3906e-007     -1.461e-008    
  2.85            5.0583e-008     3.0518e-007     -4.5669e-007   
  2.9             5.5692e-008     3.7098e-007     -1.2684e-007   
  2.95            6.4717e-008     1.7321e-007     -2.87e-009     
  3               1.293e-009      4.3507e-007     -4.7896e-007   
  3.05            5.8774e-008     3.3678e-007     -8.042e-008    
  3.1             6.4083e-008     1.399e-007      -6.53e-009     
  3.15            1.837e-009      4.3822e-007     -1.419e-008    
  3.2             5.1683e-008     2.9942e-007     -4.514e-007    
  3.25            5.5243e-008     3.7619e-007     -1.3307e-007   
  3.3             2.7236e-008     1.1731e-007     -5.0171e-007   
  3.35            4.358e-008      1.1098e-007     -4.436e-008    
  3.4             3.724e-009      4.4e-007        -7.867e-008    
  3.45            6.4071e-008     8.2e-009        -3.2364e-007   
  3.5             3.6645e-008     9.212e-008      -6.515e-008    
  3.55            5.27e-009       4.3812e-007     -7.781e-008    
  3.6             6.2433e-008     1.042e-008      -3.6964e-007   
  3.65            3.0027e-008     8.827e-008      -9.935e-008    
  3.7             8.72e-009       4.3899e-007     -1.28e-009     
  3.75            1.122e-009      4.2139e-007     1.024e-009     
  3.8             6.374e-008      3.5549e-007     -4.9369e-007   
  3.85            6.298e-008      2.9504e-007     -8.321e-008    
  3.9             6.5853e-008     1.4104e-007     -7.44e-009     
  3.95            1.828e-009      4.376e-007      -1.455e-008    
  4               5.3504e-008     2.9729e-007     -4.4733e-007   
  4.05            5.6137e-008     3.7874e-007     -1.3502e-007   
  4.1             2.7874e-008     1.0646e-007     -5.032e-007    
  4.15            6.5206e-008     2.0498e-007     -1.584e-008    
  4.2             1.992e-009      4.3303e-007     -1.4697e-008   
  4.25            6.4488e-008     3.4473e-007     -4.9689e-007   
  4.3             5.5921e-008     1.7203e-007     -2.938e-008    
  4.35            2.578e-009      4.3929e-007     -7.769e-008    
  4.4             6.6622e-008     3.96e-009       -2.6731e-007   
  4.45            3.0706e-008     4.4848e-007     -3.698e-008    
  4.5             3.043e-009      4.3919e-007     -7.841e-008    
  4.55            6.66e-008       5.43e-009       -2.8986e-007   
  4.6             3.4295e-008     4.4504e-007     -4.741e-008    
  4.65            3.79e-009       4.4028e-007     -7.928e-008    
  4.7             6.6357e-008     6.69e-009       -3.1726e-007   
  4.75            3.9166e-008     9.703e-008      -6.714e-008    
  4.8             5.755e-009      4.3926e-007     -7.906e-008    
  4.85            6.5385e-008     1.055e-008      -3.5699e-007   
  4.9             3.195e-008      8.659e-008      -8.709e-008    
  4.95            7.442e-009      4.3984e-007     -1.15e-009     
  5               1.184e-009      4.1781e-007     9.02e-010      
END_DB

BEGIN_DB
 ICCAP_VAR VG         1              
 ICCAP_VAR VS         0              
 ICCAP_VAR VB         0              

 #VD              ID              IB              IG             
  0               -3.3002e-007    1.0872e-007     1.3883e-009    
  0.05            4.4801e-006     2.8122e-007     1.933e-010     
  0.1             7.9748e-006     9.1403e-008     -2.4343e-009   
  0.15            1.0378e-005     2.3508e-007     -1.8575e-009   
  0.2             1.1511e-005     1.576e-008      -2.4508e-009   
  0.25            1.1908e-005     1.391e-008      1.7476e-009    
  0.3             1.2361e-005     -1.95e-009      -1.403e-009    
  0.35            1.2494e-005     -1.992e-009     6.66e-011      
  0.4             1.2384e-005     1.2649e-007     -5.963e-010    
  0.45            1.2532e-005     2.4447e-008     -1.6659e-009   
  0.5             1.2603e-005     2.5223e-008     2.2787e-009    
  0.55            1.2607e-005     7.6663e-008     2.6517e-009    
  0.6             1.2708e-005     -2.563e-009     -1.688e-009    
  0.65            1.2696e-005     1.6093e-008     -1.5785e-009   
  0.7             1.2722e-005     1.5276e-008     2.2772e-009    
  0.75            1.2697e-005     5.0225e-008     2.6173e-009    
  0.8             1.2812e-005     -2.786e-009     -1.7066e-009   
  0.85            1.2799e-005     1.6306e-008     -1.5138e-009   
  0.9             1.2765e-005     8.761e-009      2.2815e-009    
  0.95            1.2773e-005     4.7421e-008     2.5511e-009    
  1               1.2862e-005     -2.915e-009     -1.7908e-009   
  1.05            1.288e-005      1.6869e-008     -1.5385e-009   
  1.1             1.2828e-005     6.907e-009      2.1732e-009    
  1.15            1.2629e-005     3.8613e-008     -2.74e-010     
  1.2             1.2871e-005     3.5971e-008     -3.4841e-008   
  1.25            1.289e-005      4.3868e-008     -5.0238e-008   
  1.3             1.2901e-005     4.653e-008      -5.4416e-008   
  1.35            1.2935e-005     4.6189e-008     -5.0652e-008   
  1.4             1.2929e-005     4.625e-008      -4.9316e-008   
  1.45            1.2943e-005     4.7029e-008     -5.0818e-008   
  1.5             1.2955e-005     4.9361e-008     -4.9852e-008   
  1.55            1.2974e-005     4.7509e-008     -5.3254e-008   
  1.6             1.2973e-005     5.0461e-008     -5.3196e-008   
  1.65            1.3002e-005     4.6125e-008     -5.4765e-008   
  1.7             1.3004e-005     4.6263e-008     -5.8542e-008   
  1.75            1.3049e-005     4.5084e-008     -5.5055e-008   
  1.8             1.3057e-005     4.5134e-008     -5.4775e-008   
  1.85            1.3078e-005     4.8534e-008     -4.9386e-008   
  1.9             1.3069e-005     4.6704e-008     -5.1466e-008   
  1.95            1.3077e-005     4.7585e-008     -5.3717e-008   
  2               1.309e-005      4.6304e-008     -5.1631e-008   
  2.05            1.31e-005       4.9479e-008     -5.2498e-008   
  2.1             1.3118e-005     4.7375e-008     -5.3481e-008   
  2.15            1.3138e-005     4.6521e-008     -5.4226e-008   
  2.2             1.3148e-005     4.602e-008      -5.5657e-008   
  2.25            1.3158e-005     4.7357e-008     -5.597e-008    
  2.3             1.3166e-005     4.6112e-008     -5.7276e-008   
  2.35            1.3183e-005     4.6969e-008     -4.7876e-008   
  2.4             1.3199e-005     4.6129e-008     -5.0472e-008   
  2.45            1.3238e-005     4.6404e-008     -5.3006e-008   
  2.5             1.3212e-005     4.867e-008      -5.1496e-008   
  2.55            1.3218e-005     4.8375e-008     -5.2798e-008   
  2.6             1.323e-005      4.7374e-008     -5.4473e-008   
  2.65            1.3251e-005     4.7224e-008     -5.6509e-008   
  2.7             1.327e-005      4.6512e-008     -5.9442e-008   
  2.75            1.3268e-005     4.5851e-008     -5.596e-008    
  2.8             1.3286e-005     4.5736e-008     -5.4099e-008   
  2.85            1.3305e-005     4.9053e-008     -5.1228e-008   
  2.9             1.3323e-005     4.7064e-008     -5.2347e-008   
  2.95            1.3317e-005     4.7084e-008     -5.313e-008    
  3               1.3349e-005     4.7913e-008     -5.2414e-008   
  3.05            1.3334e-005     4.9172e-008     -5.5823e-008   
  3.1             1.3351e-005     4.6999e-008     -5.4708e-008   
  3.15            1.3358e-005     4.6094e-008     -5.6538e-008   
  3.2             1.3381e-005     4.6057e-008     -5.6519e-008   
  3.25            1.3389e-005     4.4575e-008     -5.3841e-008   
  3.3             1.3406e-005     4.5057e-008     -4.9646e-008   
  3.35            1.3399e-005     4.5416e-008     -5.396e-008    
  3.4             1.341e-005      4.5155e-008     -5.2626e-008   
  3.45            1.3419e-005     4.5127e-008     -5.4869e-008   
  3.5             1.3428e-005     4.5114e-008     -5.3299e-008   
  3.55            1.3439e-005     4.451e-008      -5.3781e-008   
  3.6             1.3445e-005     4.2717e-008     -5.4547e-008   
  3.65            1.3474e-005     4.2465e-008     -5.8267e-008   
  3.7             1.3486e-005     2.2584e-008     -5.6004e-008   
  3.75            1.3464e-005     1.8978e-008     -5.5695e-008   
  3.8             1.3509e-005     -1.3813e-008    1.567e-009     
  3.85            1.3507e-005     3.7999e-008     -5.0441e-008   
  3.9             1.3487e-005     1.0834e-008     -2.8543e-008   
  3.95            1.3517e-005     -4.996e-009     -5.7348e-008   
  4               1.3564e-005     -1.8265e-008    1.531e-009     
  4.05            1.3557e-005     3.3975e-008     -4.9583e-008   
  4.1             1.3519e-005     3.789e-009      -2.8658e-008   
  4.15            1.3561e-005     -1.0742e-008    -5.8192e-008   
  4.2             1.3599e-005     -2.4334e-008    1.499e-009     
  4.25            1.3586e-005     2.6913e-008     -4.6366e-008   
  4.3             1.3612e-005     -1.2111e-008    -5.5886e-008   
  4.35            1.3672e-005     -2.95e-008      -5.5207e-008   
  4.4             1.3673e-005     -3.1277e-008    1.113e-009     
  4.45            1.3653e-005     2.0233e-008     -2.8586e-008   
  4.5             1.3652e-005     -2.5567e-008    -5.3895e-008   
  4.55            1.3688e-005     -4.0145e-008    1.499e-009     
  4.6             1.3697e-005     -6.667e-009     -2.3764e-008   
  4.65            1.3677e-005     -3.2606e-008    -5.6378e-008   
  4.7             1.375e-005      -4.8727e-008    -5.3154e-008   
  4.75            1.3774e-005     -5.1958e-008    1.172e-009     
  4.8             1.3702e-005     -3.2021e-008    -2.8708e-008   
  4.85            1.3741e-005     -4.4874e-008    -5.6604e-008   
  4.9             1.377e-005      -6.4886e-008    1.521e-009     
  4.95            1.3752e-005     -3.0903e-008    -2.3668e-008   
  5               1.3754e-005     -6.0169e-008    -5.5144e-008   
END_DB

BEGIN_DB
 ICCAP_VAR VG         2              
 ICCAP_VAR VS         0              
 ICCAP_VAR VB         0              

 #VD              ID              IB              IG             
  0               -4.4262e-007    4.198e-008      -9.212e-010    
  0.05            1.8974e-005     1.592e-008      -1.363e-009    
  0.1             3.7644e-005     1.0921e-007     2.5023e-009    
  0.15            5.5921e-005     4.262e-008      -2.0178e-009   
  0.2             7.3805e-005     2.5e-008        1.93e-009      
  0.25            9.1267e-005     -4.8e-010       -1.583e-009    
  0.3             0.000108317     -8.88e-010      2.0072e-009    
  0.35            0.00012478      1.0852e-007     2.6455e-009    
  0.4             0.00014104      9.0258e-008     2.5059e-009    
  0.45            0.00015662      5.853e-009      -1.8474e-009   
  0.5             0.00017175      5.6821e-008     -2.4644e-009   
  0.55            0.00018611      8.942e-009      1.8186e-009    
  0.6             0.00020015      4.8071e-008     1.7826e-009    
  0.65            0.0002136       1.2672e-008     -2.1796e-009   
  0.7             0.00022641      1.7664e-008     -1.971e-009    
  0.75            0.00023843      8.658e-009      2.1675e-009    
  0.8             0.0002499       4.8619e-008     2.6269e-009    
  0.85            0.00026074      -2.816e-009     -1.7811e-009   
  0.9             0.00027076      1.9764e-008     -1.3209e-009   
  0.95            0.00027994      2.1873e-008     2.4719e-009    
  1               0.00028845      4.0402e-008     1.7772e-009    
  1.05            0.00029642      -1.653e-009     -2.155e-009    
  1.1             0.0003036       1.4763e-008     -1.9552e-009   
  1.15            0.00030969      6.445e-009      2.07e-009      
  1.2             0.00031513      8.089e-009      2.4356e-009    
  1.25            0.00032028      1.5525e-008     -1.673e-009    
  1.3             0.0003245       1.4615e-008     -2.196e-009    
  1.35            0.00032794      1.9085e-008     -1.4672e-009   
  1.4             0.00033104      1.4771e-008     -1.9546e-009   
  1.45            0.00033363      1.3362e-008     -2.3955e-009   
  1.5             0.0003357       2.5085e-008     -1.2658e-009   
  1.55            0.00033752      1.4804e-008     -2.0608e-009   
  1.6             0.00033881      1.5497e-008     -1.3759e-009   
  1.65            0.00034022      1.4958e-008     -1.8035e-009   
  1.7             0.00034148      1.4152e-008     -2.3069e-009   
  1.75            0.00034238      2.1756e-008     -1.2495e-009   
  1.8             0.00034321      1.4829e-008     -1.8982e-009   
  1.85            0.00034405      1.3488e-008     -2.3732e-009   
  1.9             0.00034461      2.3928e-008     -1.2711e-009   
  1.95            0.00034536      1.4797e-008     -1.9987e-009   
  2               0.00034598      1.3306e-008     -1.2414e-009   
  2.05            0.00034654      1.53e-008       -1.7448e-009   
  2.1             0.000347        1.4506e-008     -2.268e-009    
  2.15            0.00034737      2.0293e-008     -1.2856e-009   
  2.2             0.00034782      1.4861e-008     -2.0506e-009   
  2.25            0.00034842      1.4162e-008     -1.7165e-009   
  2.3             0.00034861      1.594e-008      -6.1158e-009   
  2.35            0.00034919      1.4738e-008     -1.1442e-008   
  2.4             0.00034912      1.4624e-008     -2.5619e-008   
  2.45            0.0003497       1.7729e-008     -2.6502e-008   
  2.5             0.00034989      1.7078e-008     -2.6906e-008   
  2.55            0.00035023      1.6475e-008     -2.7539e-008   
  2.6             0.00035056      1.3173e-008     -2.8071e-008   
  2.65            0.00035093      1.395e-008      -2.7255e-008   
  2.7             0.00035124      1.4717e-008     -2.3568e-008   
  2.75            0.00035154      1.4671e-008     -1.8455e-008   
  2.8             0.00035187      1.5388e-008     -1.4106e-008   
  2.85            0.00035222      2.4581e-008     -1.8127e-008   
  2.9             0.00035246      1.9782e-008     -2.563e-008    
  2.95            0.00035273      1.9003e-008     -2.6009e-008   
  3               0.00035302      1.8256e-008     -2.6389e-008   
  3.05            0.00035344      1.7538e-008     -2.699e-008    
  3.1             0.00035368      1.6846e-008     -2.7286e-008   
  3.15            0.00035392      1.3032e-008     -2.8457e-008   
  3.2             0.0003542       1.3658e-008     -2.7845e-008   
  3.25            0.00035454      1.4521e-008     -2.4223e-008   
  3.3             0.0003548       1.4405e-008     -1.8986e-008   
  3.35            0.000355        1.4967e-008     -1.462e-008    
  3.4             0.00035525      1.5578e-008     -1.7731e-008   
  3.45            0.00035556      1.9729e-008     -2.539e-008    
  3.5             0.00035577      1.7236e-008     -2.5725e-008   
  3.55            0.00035599      1.1494e-008     -2.8182e-008   
  3.6             0.00035629      1.1892e-008     -2.8347e-008   
  3.65            0.00035651      1.2382e-008     -2.6646e-008   
  3.7             0.00035686      1.2221e-008     -2.1852e-008   
  3.75            0.00035708      1.1494e-008     -1.7131e-008   
  3.8             0.00035724      1.1426e-008     -1.2955e-008   
  3.85            0.0003575       1.1302e-008     -2.4178e-008   
  3.9             0.00035768      5.003e-009      -2.6902e-008   
  3.95            0.00035795      4.767e-009      -2.8375e-008   
  4               0.00035821      -7.83e-009      -1.7983e-008   
  4.05            0.00035843      -1.5314e-008    -1.1111e-008   
  4.1             0.00035866      -3.87e-010      -2.0203e-008   
  4.15            0.00035881      -1.6363e-008    -2.815e-008    
