! VERSION = 6.00
BEGIN_HEADER
 ICCAP_INPUTS
  VG         V  B GROUND SMU4 0.001 LIN        1    0          5          101  0.05      
  VS         V  E GROUND SMU2 0.1 CON        0
  VB         V  C GROUND SMU3 0.1 LIN        3    0          -5         3    -2.5      
  VD         V  S GROUND SMU1 0.1 LIN        2    0.1        5          2    4.9       
 ICCAP_OUTPUTS
  IG         I  B GROUND SMU4 B
  ID         I  S GROUND SMU1 B
  IB         I  C GROUND SMU3 B
END_HEADER

BEGIN_DB
 ICCAP_VAR VS         0              
 ICCAP_VAR VB         0              
 ICCAP_VAR VD         0.1            

 #VG              IG              ID              IB             
  0               1.1751e-009     1.3178e-009     -9.798e-009    
  0.05            1.1857e-009     2.1174e-009     -9.249e-009    
  0.1             -2.3829e-009    1.2254e-009     2.5354e-008    
  0.15            -9.66e-011      -1.7799e-009    1.612e-009     
  0.2             2.6666e-009     -9.904e-010     -2.4272e-008   
  0.25            -1.6608e-009    8.808e-010      2.0051e-008    
  0.3             -3.22e-011      -1.7325e-009    -5.451e-009    
  0.35            2.6992e-009     -9.144e-010     -2.4101e-008   
  0.4             -1.926e-009     1.5822e-009     1.9967e-008    
  0.45            2.7204e-009     -1.1254e-009    3.455e-009     
  0.5             2.667e-009      2.0398e-009     -1.592e-009    
  0.55            -1.6817e-009    5.5218e-009     1.9686e-008    
  0.6             2.6851e-009     1.7182e-008     9.346e-009     
  0.65            -1.5582e-009    5.8891e-008     1.9099e-008    
  0.7             1.1727e-009     1.7491e-007     -1.9051e-008   
  0.75            -2.1078e-009    5.3846e-007     2.5494e-008    
  0.8             -2.0991e-009    1.3028e-006     -1.3738e-008   
  0.85            2.0083e-009     2.8138e-006     -2.0903e-008   
  0.9             2.357e-009      5.0481e-006     -6.432e-009    
  0.95            5.596e-010      7.88e-006       9.613e-009     
  1               -1.6107e-009    1.08252e-005    2.0441e-008    
  1.05            2.6091e-009     1.3583e-005     -5.807e-009    
  1.1             -1.3463e-009    1.6291e-005     2.1893e-008    
  1.15            -2.5663e-009    1.8708e-005     8.763e-009     
  1.2             2.251e-009      2.0816e-005     -2.3607e-008   
  1.25            2.2786e-009     2.2787e-005     -4.595e-009    
  1.3             -1.4468e-009    2.4593e-005     1.885e-008     
  1.35            -2.5282e-009    2.6217e-005     6.818e-009     
  1.4             2.4426e-009     2.7671e-005     -2.455e-008    
  1.45            7.034e-010      2.9076e-005     9.204e-009     
  1.5             -1.4599e-009    3.0362e-005     1.8737e-008    
  1.55            -2.5202e-009    3.1549e-005     6.835e-009     
  1.6             2.4494e-009     3.2637e-005     -2.4355e-008   
  1.65            6.899e-010      3.3696e-005     9.174e-009     
  1.7             -1.4666e-009    3.4689e-005     1.8503e-008    
  1.75            -2.516e-009     3.5613e-005     6.479e-009     
  1.8             2.4697e-009     3.6467e-005     -2.4328e-008   
  1.85            6.8e-010        3.7309e-005     9.256e-009     
  1.9             -1.4823e-009    3.8106e-005     1.8126e-008    
  1.95            -2.5072e-009    3.8854e-005     6.353e-009     
  2               2.4833e-009     3.9556e-005     -2.4505e-008   
  2.05            6.703e-010      4.0244e-005     9.303e-009     
  2.1             -1.4906e-009    4.0907e-005     1.7712e-008    
  2.15            -2.5029e-009    4.1528e-005     6.146e-009     
  2.2             2.501e-009      4.2114e-005     -2.4593e-008   
  2.25            6.551e-010      4.2697e-005     9.329e-009     
  2.3             -1.5043e-009    4.3255e-005     1.758e-008     
  2.35            -2.4967e-009    4.3782e-005     5.771e-009     
  2.4             2.5164e-009     4.4282e-005     -2.4539e-008   
  2.45            -2.4962e-009    4.4789e-005     2.375e-008     
  2.5             -1.9809e-009    4.5247e-005     1.577e-009     
  2.55            -1.4526e-009    4.571e-005      2.893e-009     
  2.6             -2.514e-009     4.6163e-005     6.363e-009     
  2.65            2.4716e-009     4.6581e-005     -2.4575e-008   
  2.7             6.751e-010      4.7001e-005     9.272e-009     
  2.75            -1.4793e-009    4.7408e-005     1.8014e-008    
  2.8             -2.5085e-009    4.7798e-005     6.407e-009     
  2.85            2.486e-009      4.8169e-005     -2.4679e-008   
  2.9             6.637e-010      4.8534e-005     9.315e-009     
  2.95            -1.4923e-009    4.8891e-005     1.7705e-008    
  3               -2.4994e-009    4.9233e-005     6.158e-009     
  3.05            2.4986e-009     4.9561e-005     -2.4644e-008   
  3.1             -2.4892e-009    4.9893e-005     2.4011e-008    
  3.15            -1.9678e-009    5.0188e-005     1.697e-009     
  3.2             -1.4434e-009    5.0496e-005     3.06e-009      
  3.25            -2.5159e-009    5.0801e-005     6.435e-009     
  3.3             -9.203e-010     5.1081e-005     -9.225e-009    
  3.35            2.6454e-009     5.1338e-005     -1.1786e-008   
  3.4             -1.3756e-009    5.1633e-005     2.1027e-008    
  3.45            -2.5559e-009    5.1896e-005     8.152e-009     
  3.5             2.3168e-009     5.2155e-005     -2.4206e-008   
  3.55            2.26e-009       5.2413e-005     -3.971e-009    
  3.6             -1.4819e-009    5.2646e-005     1.7843e-008    
  3.65            -2.5009e-009    5.2885e-005     6.041e-009     
  3.7             2.4969e-009     5.3116e-005     -2.4672e-008   
  3.75            -2.4836e-009    5.3346e-005     2.4089e-008    
  3.8             -1.9502e-009    5.3552e-005     1.532e-009     
  3.85            -1.4401e-009    5.3768e-005     3.166e-009     
  3.9             -2.5195e-009    5.3985e-005     6.5e-009       
  3.95            -9.28e-010      5.4183e-005     -9.186e-009    
  4               2.6428e-009     5.436e-005      -1.164e-008    
  4.05            -1.3687e-009    5.4581e-005     2.1305e-008    
  4.1             -2.5555e-009    5.4764e-005     8.427e-009     
  4.15            2.2939e-009     5.4948e-005     -2.4246e-008   
  4.2             2.2652e-009     5.5133e-005     -4.053e-009    
  4.25            -1.5969e-009    5.5299e-005     2.0197e-008    
  4.3             -2.4581e-009    5.5465e-005     5.043e-009     
  4.35            2.6042e-009     5.564e-005      -2.4043e-008   
  4.4             -2.5444e-009    5.5803e-005     2.207e-008     
  4.45            2.7198e-009     5.5953e-005     -1.7167e-008   
  4.5             2.5335e-009     5.6126e-005     -1.262e-009    
  4.55            -2.5147e-009    5.627e-005      2.3372e-008    
  4.6             -2.0306e-009    5.6409e-005     1.524e-009     
  4.65            -1.4806e-009    5.655e-005      2.914e-009     
  4.7             -2.4997e-009    5.6699e-005     5.925e-009     
  4.75            2.5042e-009     5.6837e-005     -2.4686e-008   
  4.8             6.523e-010      5.6969e-005     9.359e-009     
  4.85            -1.4978e-009    5.7102e-005     1.7394e-008    
  4.9             -2.4967e-009    5.7225e-005     5.816e-009     
  4.95            2.509e-009      5.7354e-005     -2.4553e-008   
  5               6.397e-010      5.747e-005      9.374e-009     
END_DB

BEGIN_DB
 ICCAP_VAR VS         0              
 ICCAP_VAR VB         0              
 ICCAP_VAR VD         5              

 #VG              IG              ID              IB             
  0               8.532e-010      9.004e-010      1.8224e-008    
  0.05            2.6717e-009     -9.793e-010     -2.4835e-008   
  0.1             -1.6254e-009    9.357e-010      1.9731e-008    
  0.15            -7.648e-010     -1.9459e-009    5.12e-009      
  0.2             1.9777e-009     -1.3555e-009    -1.5246e-008   
  0.25            1.3725e-009     1.9677e-009     -7.057e-009    
  0.3             -1.9977e-009    7.742e-010      1.5615e-008    
  0.35            -4.831e-010     -1.854e-009     3.233e-009     
  0.4             2.37e-009       -1.0718e-009    -2.1285e-008   
  0.45            2.1193e-009     1.6089e-009     -4.081e-009    
  0.5             -2.1823e-009    2.4368e-009     1.3663e-008    
  0.55            -1.9019e-009    5.9819e-009     2.605e-009     
  0.6             2.2263e-009     2.3632e-008     1.101e-008     
  0.65            -1.5737e-009    8.2475e-008     1.5766e-008    
  0.7             3.238e-010      2.5557e-007     -1.041e-008    
  0.75            -1.9568e-009    7.4746e-007     8.052e-009     
  0.8             -1.2246e-009    1.8606e-006     -1.8357e-008   
  0.85            -1.5951e-009    4.1382e-006     -3.1628e-008   
  0.9             -1.8688e-009    7.9641e-006     -5.0924e-008   
  0.95            2.2482e-009     1.3757e-005     -7.8017e-008   
  1               8.448e-010      2.178e-005      -1.08207e-007  
  1.05            -1.8259e-009    3.1991e-005     -1.5802e-007   
  1.1             -2.3619e-009    4.3936e-005     -1.6478e-007   
  1.15            -2.5562e-009    5.7959e-005     -2.0835e-007   
  1.2             -2.5018e-009    7.3537e-005     -2.3432e-007   
  1.25            -2.0347e-009    9.0749e-005     -2.5828e-007   
  1.3             -1.4873e-009    0.000109384     -2.7823e-007   
  1.35            -2.5646e-009    0.00012917      -3.0531e-007   
  1.4             -2.4887e-009    0.00015003      -3.0741e-007   
  1.45            -2.004e-009     0.00017203      -3.1011e-007   
  1.5             -1.4645e-009    0.00019502      -3.0856e-007   
  1.55            -2.5067e-009    0.00021869      -3.0033e-007   
  1.6             -2.5628e-009    0.00024293      -3.0009e-007   
  1.65            -2.2217e-009    0.00026819      -2.8433e-007   
  1.7             -1.6312e-009    0.00029409      -2.6859e-007   
  1.75            -2.4417e-009    0.00032049      -2.4955e-007   
  1.8             -2.5833e-009    0.00034713      -2.4015e-007   
  1.85            -2.4023e-009    0.00037449      -2.1669e-007   
  1.9             -1.8447e-009    0.00040248      -1.9571e-007   
  1.95            -1.3799e-009    0.00043082      -1.7423e-007   
  2               -2.5462e-009    0.00045951      -1.5087e-007   
  2.05            -2.5179e-009    0.00048801      -1.4143e-007   
  2.1             -2.0688e-009    0.00051733      -1.2128e-007   
  2.15            -2.3416e-009    0.00054698      -1.0304e-007   
  2.2             -2.3727e-009    0.00057666      -8.169e-008    
  2.25            2.7038e-009     0.00060634      -8.6931e-008   
  2.3             2.5738e-009     0.00063683      -6.7048e-008   
  2.35            2.0021e-009     0.00066725      -5.7233e-008   
  2.4             2.3571e-009     0.00069781      -5.1663e-008   
  2.45            2.6467e-009     0.00072883      -3.178e-008    
  2.5             2.6831e-009     0.0007599       -3.0634e-008   
  2.55            2.2475e-009     0.00079088      -2.6156e-008   
  2.6             2.2747e-009     0.00082204      -2.3592e-008   
  2.65            2.5441e-009     0.0008536       -8.401e-009    
  2.7             2.7192e-009     0.00088507      -1.0683e-008   
  2.75            2.4563e-009     0.00091664      -1.0793e-008   
  2.8             1.8373e-009     0.00094864      -1.0144e-008   
  2.85            2.4295e-009     0.00098024      -1.3304e-008   
  2.9             -2.36e-009      0.00101283      6.846e-009     
  2.95            -1.5073e-009    0.00104479      -1.278e-008    
  3               -4.819e-010     0.00107583      -1.2859e-008   
  3.05            -8.959e-010     0.00110796      -1.0922e-008   
  3.1             2.6675e-009     0.00113905      -1.3407e-008   
  3.15            -2.1237e-009    0.0011723       -1.185e-008    
  3.2             -1.5325e-009    0.001204        2.025e-009     
  3.25            -2.4834e-009    0.0012357       4.963e-009     
  3.3             2.5531e-009     0.0012667       -2.4659e-008   
  3.35            6.058e-010      0.0012991       9.262e-009     
  3.4             -1.549e-009     0.0013302       1.9082e-008    
  3.45            -2.4796e-009    0.0013615       5.38e-009      
  3.5             2.5643e-009     0.0013915       -2.4359e-008   
  3.55            6.019e-010      0.0014229       9.467e-009     
  3.6             -1.5581e-009    0.0014535       1.9249e-008    
  3.65            -2.479e-009     0.0014836       5.487e-009     
  3.7             2.5773e-009     0.0015123       -2.4467e-008   
  3.75            -2.5274e-009    0.0015421       2.2752e-008    
  3.8             2.7178e-009     0.0015703       -1.6318e-008   
  3.85            2.4949e-009     0.001598        -1.558e-009    
  3.9             6.575e-010      0.0016257       9.396e-009     
  3.95            -1.4948e-009    0.0016522       1.7472e-008    
  4               -2.502e-009     0.0016776       5.937e-009     
  4.05            2.5139e-009     0.0017021       -2.4678e-008   
  4.1             6.511e-010      0.0017267       9.359e-009     
  4.15            -1.4985e-009    0.0017497       1.7181e-008    
  4.2             -2.5005e-009    0.0017722       5.779e-009     
  4.25            2.5219e-009     0.001793        -2.4633e-008   
  4.3             6.413e-010      0.0018139       9.441e-009     
  4.35            -1.5046e-009    0.0018338       1.7079e-008    
  4.4             -2.5004e-009    0.0018532       5.899e-009     
  4.45            2.5286e-009     0.0018706       -2.4492e-008   
  4.5             6.368e-010      0.0018885       9.442e-009     
  4.55            -1.5156e-009    0.001905        1.6935e-008    
  4.6             -2.4984e-009    0.0019212       5.85e-009      
  4.65            2.5348e-009     0.001936        -2.4593e-008   
  4.7             6.325e-010      0.0019513       9.459e-009     
  4.75            -1.5196e-009    0.0019656       1.7061e-008    
  4.8             -2.4938e-009    0.0019789       5.682e-009     
  4.85            2.5376e-009     0.0019916       -2.4683e-008   
  4.9             6.282e-010      0.0020046       9.473e-009     
  4.95            -1.5248e-009    0.0020169       1.6905e-008    
  5               -2.4893e-009    0.0020287       5.608e-009     
END_DB

BEGIN_DB
 ICCAP_VAR VS         0              
 ICCAP_VAR VB         -2.5           
 ICCAP_VAR VD         0.1            

 #VG              IG              ID              IB             
  0               -9.053e-010     -2.178e-010     -9.257e-009    
  0.05            -2.5402e-009    1.1212e-009     2.5613e-008    
  0.1             2.122e-009      -1.314e-009     -1.7313e-008   
  0.15            1.2812e-009     2.0557e-009     -5.616e-009    
  0.2             -2.1274e-009    6.698e-010      1.3779e-008    
  0.25            -3.757e-010     -1.8706e-009    2.755e-009     
  0.3             -5.737e-010     -1.9242e-009    -9.718e-009    
  0.35            2.2429e-009     -1.2664e-009    -1.9234e-008   
  0.4             1.2193e-009     2.1384e-009     -4.965e-009    
  0.45            -2.3731e-009    1.2737e-009     2.6053e-008    
  0.5             -1.446e-010     -1.7887e-009    1.92e-009      
  0.55            2.6691e-009     -1.0011e-009    -2.489e-008    
  0.6             -1.5977e-009    9.306e-010      2.0273e-008    
  0.65            -7.77e-010      -1.9611e-009    5.085e-009     
  0.7             1.9315e-009     -1.374e-009     -1.4625e-008   
  0.75            1.3753e-009     1.9184e-009     -6.97e-009     
  0.8             -2.1481e-009    1.4023e-009     2.3267e-008    
  0.85            -3.506e-010     -1.859e-009     2.699e-009     
  0.9             -5.591e-010     -1.8938e-009    -9.69e-009     
  0.95            2.2521e-009     -1.1437e-009    -1.9122e-008   
  1               2.1638e-009     1.692e-009      -4.597e-009    
  1.05            -2.0729e-009    3.2506e-009     1.4276e-008    
  1.1             2.6592e-009     1.1642e-008     -1.349e-008    
  1.15            1.9269e-009     3.8887e-008     8.785e-009     
  1.2             -2.3266e-009    1.07936e-007    2.5766e-008    
  1.25            6.246e-010      2.7931e-007     -1.2022e-008   
  1.3             -1.5304e-009    7.045e-007      1.8828e-008    
  1.35            -2.4102e-009    1.651e-006      -1.8877e-008   
  1.4             -7.225e-010     3.438e-006      -1.0136e-008   
  1.45            2.7274e-009     6.0706e-006     -1.5866e-008   
  1.5             2.4617e-009     9.2047e-006     -1.692e-009    
  1.55            -2.2837e-009    1.2411e-005     -3.224e-009    
  1.6             -1.6682e-009    1.5328e-005     2.198e-009     
  1.65            -2.4192e-009    1.7947e-005     4.386e-009     
  1.7             -7.533e-010     2.0247e-005     -1.0064e-008   
  1.75            2.7282e-009     2.2298e-005     -1.4938e-008   
  1.8             2.4317e-009     2.4167e-005     -1.602e-009    
  1.85            -2.4447e-009    2.586e-005      1.1387e-008    
  1.9             -1.8845e-009    2.7352e-005     1.797e-009     
  1.95            -1.3827e-009    2.8725e-005     3.467e-009     
  2               -2.5257e-009    2.9989e-005     7.329e-009     
  2.05            2.4083e-009     3.1129e-005     -2.4976e-008   
  2.1             1.7159e-009     3.2215e-005     -3.751e-009    
  2.15            2.4891e-009     3.322e-005      -8.492e-009    
  2.2             -2.3224e-009    3.4188e-005     1.1364e-008    
  2.25            -1.6978e-009    3.5051e-005     2.452e-009     
  2.3             -2.4225e-009    3.589e-005      4.609e-009     
  2.35            -7.471e-010     3.666e-005      -1.0291e-008   
  2.4             2.7196e-009     3.7391e-005     -1.5533e-008   
  2.45            -1.562e-009     3.8125e-005     1.6436e-008    
  2.5             -2.4771e-009    3.879e-005      5.586e-009     
  2.55            2.5907e-009     3.9413e-005     -2.4149e-008   
  2.6             -2.5219e-009    4.0019e-005     1.5017e-008    
  2.65            2.7169e-009     4.0594e-005     -1.684e-008    
  2.7             2.5141e-009     4.1168e-005     -1.286e-009    
  2.75            -2.4868e-009    4.1705e-005     1.1385e-008    
  2.8             -1.9887e-009    4.2212e-005     1.588e-009     
  2.85            -1.4266e-009    4.2698e-005     3.262e-009     
  2.9             -2.5173e-009    4.3174e-005     6.538e-009     
  2.95            -9.373e-010     4.3622e-005     -9.315e-009    
  3               2.142e-010      4.4032e-005     -1.1319e-008   
  3.05            2.7203e-009     4.4472e-005     -2.0268e-008   
  3.1             -1.6441e-009    4.4889e-005     2.1303e-008    
  3.15            -2.4391e-009    4.5273e-005     4.932e-009     
  3.2             2.6448e-009     4.5647e-005     -2.386e-008    
  3.25            -2.5522e-009    4.6018e-005     2.1213e-008    
  3.3             1.7564e-009     4.6356e-005     -1.7656e-008   
  3.35            2.4715e-009     4.6705e-005     -8.392e-009    
  3.4             -2.4343e-009    4.7041e-005     2.4864e-008    
  3.45            -1.8685e-009    4.7347e-005     1.63e-009      
  3.5             -2.3381e-009    4.7655e-005     3.606e-009     
  3.55            -6.07e-010      4.7954e-005     -1.0498e-008   
  3.6             1.7839e-009     4.8243e-005     -1.8288e-008   
  3.65            2.4608e-009     4.8529e-005     -8.185e-009    
  3.7             -2.3499e-009    4.8817e-005     1.1148e-008    
  3.75            -1.7318e-009    4.9062e-005     2.237e-009     
  3.8             -2.4068e-009    4.9326e-005     4.322e-009     
  3.85            2.6945e-009     4.9553e-005     -1.231e-008    
  3.9             -1.399e-009     4.9825e-005     1.9044e-008    
  3.95            -2.5298e-009    5.0058e-005     7.376e-009     
  4               -9.657e-010     5.0285e-005     -9.162e-009    
  4.05            2.62e-009       5.0515e-005     -1.1059e-008   
  4.1             -2.5335e-009    5.0714e-005     1.6002e-008    
  4.15            1.7384e-009     5.0927e-005     -1.7761e-008   
