! VERSION = 6.00
BEGIN_HEADER
 ICCAP_INPUTS
  VG         V  B GROUND SMU4 0.001 LIN        2    0          -5         6    -1        
  VS         V  E GROUND SMU2 0.1 CON        0
  VD         V  S GROUND SMU1 0.1 LIN        1    0          -5         101  -0.05     
  VB         V  C GROUND SMU3 0.1 LIN        3    0          2.5        2    2.5       
 ICCAP_OUTPUTS
  ID         I  S GROUND SMU1 B
  IB         I  C GROUND SMU3 B
  IG         I  B GROUND SMU4 B
END_HEADER

BEGIN_DB
 ICCAP_VAR VG         0              
 ICCAP_VAR VS         0              
 ICCAP_VAR VB         0              

 #VD              ID              IB              IG             
  0               9.793e-010      7.386e-009      1.1257e-009    
  -0.05           2.5122e-009     -1.344e-009     7.424e-010     
  -0.1            -1.373e-010     7.366e-009      -1.69e-009     
  -0.15           2.85e-011       7.331e-009      -1.7163e-009   
  -0.2            2.038e-010      7.524e-009      -1.717e-009    
  -0.25           3.801e-010      8.09e-009       -1.6986e-009   
  -0.3            5.52e-010       8.736e-009      -1.6589e-009   
  -0.35           -1.2674e-009    5.724e-009      -2.3878e-009   
  -0.4            -8.587e-010     -1.9621e-008    2.1769e-009    
  -0.45           2.4799e-009     -8.192e-009     5.567e-010     
  -0.5            -6.937e-010     -1.768e-008     2.6841e-009    
  -0.55           2.213e-009      -5.1e-009       1.4289e-009    
  -0.6            4.437e-010      8.306e-009      -1.6847e-009   
  -0.65           -1.2699e-009    5.695e-009      -2.2937e-009   
  -0.7            -7.888e-010     -1.8495e-008    2.412e-009     
  -0.75           2.4389e-009     -6.571e-009     4.229e-010     
  -0.8            -5.823e-010     -1.6961e-008    2.8864e-009    
  -0.85           2.3333e-009     -3.856e-009     1.3028e-009    
  -0.9            3.392e-010      7.939e-009      -1.7022e-009   
  -0.95           5.157e-010      8.597e-009      -1.6606e-009   
  -1              -1.7462e-009    5.757e-009      -1.5285e-009   
  -1.05           -7.489e-010     -1.8146e-008    2.5375e-009    
  -1.1            2.415e-009      -5.93e-009      3.475e-010     
  -1.15           5.128e-010      8.553e-009      -1.6666e-009   
  -1.2            -1.2689e-009    5.677e-009      -2.3559e-009   
  -1.25           -8.36e-010      -1.908e-008     2.2712e-009    
  -1.3            2.4642e-009     -7.757e-009     5.158e-010     
  -1.35           -6.554e-010     -1.7404e-008    2.7641e-009    
  -1.4            2.2651e-009     -4.442e-009     1.3836e-009    
  -1.45           4.091e-010      8.171e-009      -1.6891e-009   
  -1.5            -1.2732e-009    5.585e-009      -2.2522e-009   
  -1.55           -7.635e-010     -1.8076e-008    2.5089e-009    
  -1.6            2.4213e-009     -6.155e-009     3.724e-010     
  -1.65           5.266e-010      8.607e-009      -1.6527e-009   
  -1.7            -1.2689e-009    5.729e-009      -2.3696e-009   
  -1.75           -8.46e-010      -1.9103e-008    2.2223e-009    
  -1.8            2.4713e-009     -8.003e-009     5.391e-010     
  -1.85           -6.706e-010     -1.7468e-008    2.7211e-009    
  -1.9            2.2414e-009     -4.684e-009     1.4051e-009    
  -1.95           4.279e-010      8.19e-009       -1.6855e-009   
  -2              -1.2745e-009    5.634e-009      -2.269e-009    
  -2.05           -7.784e-010     -1.7928e-008    2.4614e-009    
  -2.1            2.4273e-009     -6.265e-009     4e-010         
  -2.15           -5.61e-010      -1.7324e-008    2.9298e-009    
  -2.2            2.354e-009      -3.628e-009     1.2784e-009    
  -2.25           3.19e-010       7.851e-009      -1.7039e-009   
  -2.3            4.931e-010      8.452e-009      -1.6628e-009   
  -2.35           -1.7751e-009    5.722e-009      -1.5082e-009   
  -2.4            -7.399e-010     -1.7861e-008    2.571e-009     
  -2.45           2.4042e-009     -5.499e-009     3.246e-010     
  -2.5            4.945e-010      8.406e-009      -1.6689e-009   
  -2.55           -1.2719e-009    5.708e-009      -2.3308e-009   
  -2.6            -8.207e-010     -1.8673e-008    2.3023e-009    
  -2.65           2.4555e-009     -7.209e-009     4.86e-010      
  -2.7            -6.323e-010     -1.7096e-008    2.8097e-009    
  -2.75           2.2882e-009     -4.204e-009     1.3558e-009    
  -2.8            3.855e-010      8.047e-009      -1.6898e-009   
  -2.85           5.51e-010       8.721e-009      -1.6431e-009   
  -2.9            -1.6896e-009    5.741e-009      -1.5676e-009   
  -2.95           -7.87e-010      -1.7968e-008    2.4335e-009    
  -3              2.4333e-009     -6.32e-009      4.13e-010      
  -3.05           -5.739e-010     -1.7122e-008    2.9135e-009    
  -3.1            2.3432e-009     -3.815e-009     1.2899e-009    
  -3.15           3.327e-010      7.893e-009      -1.7053e-009   
  -3.2            5.048e-010      8.439e-009      -1.6676e-009   
  -3.25           -1.2751e-009    5.635e-009      -2.3397e-009   
  -3.3            -8.294e-010     -1.8877e-008    2.2864e-009    
  -3.35           2.4583e-009     -7.196e-009     4.893e-010     
  -3.4            -6.381e-010     -1.7241e-008    2.7854e-009    
  -3.45           2.2776e-009     -4.303e-009     1.3637e-009    
  -3.5            3.929e-010      8.071e-009      -1.6876e-009   
  -3.55           5.629e-010      8.763e-009      -1.6403e-009   
  -3.6            -1.6869e-009    5.778e-009      -1.5783e-009   
  -3.65           -7.898e-010     -1.8361e-008    2.4168e-009    
  -3.7            2.438e-009      -6.712e-009     4.158e-010     
  -3.75           -5.798e-010     -1.7202e-008    2.9007e-009    
  -3.8            2.3402e-009     -3.694e-009     1.2959e-009    
  -3.85           3.3e-010        7.917e-009      -1.7014e-009   
  -3.9            5.056e-010      8.53e-009       -1.6584e-009   
  -3.95           -1.757e-009     5.74e-009       -1.5214e-009   
  -4              -7.511e-010     -1.7787e-008    2.5595e-009    
  -4.05           2.4077e-009     -5.783e-009     3.391e-010     
  -4.1            4.981e-010      8.443e-009      -1.6614e-009   
  -4.15           -1.7613e-009    5.7e-009        -1.5158e-009   
  -4.2            -7.446e-010     -1.7627e-008    2.5666e-009    
  -4.25           2.4042e-009     -5.384e-009     3.311e-010     
  -4.3            4.958e-010      8.44e-009       -1.664e-009    
  -4.35           -1.7659e-009    5.682e-009      -1.5143e-009   
  -4.4            -7.463e-010     -1.7741e-008    2.5619e-009    
  -4.45           2.4007e-009     -5.589e-009     3.218e-010     
  -4.5            4.91e-010       8.416e-009      -1.6683e-009   
  -4.55           -1.272e-009     5.63e-009       -2.3355e-009   
  -4.6            -8.253e-010     -1.9038e-008    2.3051e-009    
  -4.65           2.4558e-009     -6.931e-009     4.726e-010     
  -4.7            -6.226e-010     -1.7019e-008    2.7988e-009    
  -4.75           2.2836e-009     -4.236e-009     1.3539e-009    
  -4.8            3.748e-010      8.009e-009      -1.6922e-009   
  -4.85           5.488e-010      8.685e-009      -1.6424e-009   
  -4.9            -1.6955e-009    5.728e-009      -1.5587e-009   
  -4.95           -7.834e-010     -1.8097e-008    2.4495e-009    
  -5              2.4248e-009     -6.257e-009     3.97e-010      
END_DB

BEGIN_DB
 ICCAP_VAR VG         -1             
 ICCAP_VAR VS         0              
 ICCAP_VAR VB         0              

 #VD              ID              IB              IG             
  0               -2.554e-009     -1.7751e-008    -1.5391e-009   
  -0.05           -5.0331e-008    7.342e-009      2.7254e-009    
  -0.1            -6.4703e-008    -1.74e-008      2.5593e-009    
  -0.15           -6.8938e-008    -2.3187e-008    1.4603e-009    
  -0.2            -7.2488e-008    -1.799e-008     1.909e-009     
  -0.25           -7.4153e-008    -2.6848e-008    2.8933e-009    
  -0.3            -7.6145e-008    -2.0097e-008    1.6241e-009    
  -0.35           -7.7712e-008    -1.7632e-008    2.2557e-009    
  -0.4            -8.0208e-008    -2.4943e-008    1.3917e-009    
  -0.45           -8.1344e-008    -1.9669e-008    1.6865e-009    
  -0.5            -8.2559e-008    -1.7373e-008    2.3588e-009    
  -0.55           -8.6207e-008    -2.4487e-008    1.4098e-009    
  -0.6            -8.5776e-008    -1.8902e-008    1.7574e-009    
  -0.65           -8.6866e-008    -1.7211e-008    2.4563e-009    
  -0.7            -8.9598e-008    -2.3898e-008    1.4339e-009    
  -0.75           -9.131e-008     -1.8344e-008    1.8289e-009    
  -0.8            -9.0594e-008    -1.7286e-008    2.55e-009      
  -0.85           -9.2605e-008    -2.3431e-008    1.4612e-009    
  -0.9            -9.3716e-008    -1.7979e-008    1.9048e-009    
  -0.95           -9.5331e-008    -2.6852e-008    1.3331e-009    
  -1              -9.6798e-008    -2.2359e-008    1.4951e-009    
  -1.05           -9.7224e-008    -1.7856e-008    1.9927e-009    
  -1.1            -9.8913e-008    -2.658e-008     1.3451e-009    
  -1.15           -1.00058e-007   -2.1682e-008    1.5371e-009    
  -1.2            -1.01658e-007   -1.7881e-008    2.0891e-009    
  -1.25           -1.01934e-007   -2.6067e-008    1.3594e-009    
  -1.3            -1.03479e-007   -2.0736e-008    1.5853e-009    
  -1.35           -1.03728e-007   -1.7466e-008    2.1866e-009    
  -1.4            -1.05245e-007   -2.5655e-008    1.3753e-009    
  -1.45           -1.06414e-007   -1.9874e-008    1.6389e-009    
  -1.5            -1.06827e-007   -1.7331e-008    2.29e-009      
  -1.55           -1.08177e-007   -2.4881e-008    1.3939e-009    
  -1.6            -1.09347e-007   -1.9422e-008    1.7055e-009    
  -1.65           -1.09573e-007   -1.7361e-008    2.383e-009     
  -1.7            -1.11207e-007   -2.4488e-008    1.4153e-009    
  -1.75           -1.1242e-007    -1.8952e-008    1.7732e-009    
  -1.8            -1.12503e-007   -1.7204e-008    2.473e-009     
  -1.85           -1.0963e-007    -2.3853e-008    -1.7141e-009   
  -1.9            -1.1019e-007    7.726e-009      -1.6831e-009   
  -1.95           -1.1294e-007    8.127e-009      -2.0886e-009   
  -2              -1.1775e-007    -1.7754e-008    2.1987e-009    
  -2.05           -1.172e-007     -1.967e-008     1.6867e-009    
  -2.1            -1.1802e-007    -2.4115e-008    1.4199e-009    
  -2.15           -1.1938e-007    -1.7052e-008    2.5748e-009    
  -2.2            -1.2064e-007    -1.8125e-008    1.9762e-009    
  -2.25           -1.208e-007     -2.1113e-008    1.5542e-009    
  -2.3            -1.2193e-007    -2.5555e-008    1.3713e-009    
  -2.35           -1.2222e-007    -1.7347e-008    2.3372e-009    
  -2.4            -1.2324e-007    -1.881e-008     1.7862e-009    
  -2.45           -1.2431e-007    -2.299e-008     1.4616e-009    
  -2.5            -1.2481e-007    -2.6656e-008    1.3364e-009    
  -2.55           -1.2481e-007    -1.7772e-008    2.12e-009      
  -2.6            -1.266e-007     -2.0207e-008    1.6294e-009    
  -2.65           -1.2714e-007    -2.4307e-008    1.3981e-009    
  -2.7            -1.2725e-007    -1.7564e-008    2.4899e-009    
  -2.75           -1.2888e-007    -1.841e-008     1.8995e-009    
  -2.8            -1.2916e-007    -2.1738e-008    1.5132e-009    
  -2.85           -1.304e-007     -2.5876e-008    1.3544e-009    
  -2.9            -1.3241e-007    -1.7584e-008    2.2671e-009    
  -2.95           -1.3135e-007    -1.95e-008      1.7177e-009    
  -3              -1.3204e-007    -1.6131e-008    3.1121e-009    
  -3.05           -1.3265e-007    -1.7356e-008    2.6342e-009    
  -3.1            -1.3357e-007    -1.7999e-008    2.0324e-009    
  -3.15           -1.3603e-007    -2.0805e-008    1.5774e-009    
  -3.2            -1.3571e-007    -2.4885e-008    1.3784e-009    
  -3.25           -1.3496e-007    -1.7466e-008    2.4018e-009    
  -3.3            -1.3676e-007    -1.8759e-008    1.8287e-009    
  -3.35           -1.3789e-007    -2.2529e-008    1.4769e-009    
  -3.4            -1.3912e-007    -2.6282e-008    1.3425e-009    
  -3.45           -1.384e-007     -1.7927e-008    2.1667e-009    
  -3.5            -1.4009e-007    -1.9925e-008    1.6586e-009    
  -3.55           -1.4051e-007    -2.4189e-008    1.4076e-009    
  -3.6            -1.3993e-007    -1.7324e-008    2.5346e-009    
  -3.65           -1.4165e-007    -1.8362e-008    1.9523e-009    
  -3.7            -1.4251e-007    -2.1501e-008    1.5332e-009    
  -3.75           -1.4333e-007    -2.5503e-008    1.3615e-009    
  -3.8            -1.4295e-007    -1.7311e-008    2.3141e-009    
  -3.85           -1.4434e-007    -1.917e-008     1.7631e-009    
  -3.9            -1.4529e-007    -2.3297e-008    1.4472e-009    
  -3.95           -1.4587e-007    -2.6608e-008    1.3299e-009    
  -4              -1.474e-007     -1.8165e-008    2.0859e-009    
  -4.05           -1.4741e-007    -2.0529e-008    1.6103e-009    
  -4.1            -1.4813e-007    -2.4523e-008    1.3871e-009    
  -4.15           -1.4777e-007    -1.7543e-008    2.4637e-009    
  -4.2            -1.4945e-007    -1.8423e-008    1.8782e-009    
  -4.25           -1.5063e-007    -2.1986e-008    1.4969e-009    
  -4.3            -1.5088e-007    -2.5823e-008    1.3479e-009    
  -4.35           -1.5143e-007    -1.7905e-008    2.2393e-009    
  -4.4            -1.5257e-007    -1.9656e-008    1.7035e-009    
  -4.45           -1.5379e-007    -2.3495e-008    1.4198e-009    
  -4.5            -1.5388e-007    -2.6693e-008    1.3183e-009    
  -4.55           -1.5455e-007    -1.8297e-008    2.0246e-009    
  -4.6            -1.5532e-007    -2.0992e-008    1.5704e-009    
  -4.65           -1.5604e-007    -2.4905e-008    1.3716e-009    
  -4.7            -1.5638e-007    -1.7544e-008    2.3994e-009    
  -4.75           -1.5741e-007    -1.9078e-008    1.8174e-009    
  -4.8            -1.5895e-007    -2.2721e-008    1.4699e-009    
  -4.85           -1.593e-007     -2.6038e-008    1.3352e-009    
  -4.9            -1.5912e-007    -1.8032e-008    2.1692e-009    
  -4.95           -1.6034e-007    -2.0224e-008    1.6649e-009    
  -5              -1.6142e-007    -2.3979e-008    1.4019e-009    
END_DB

BEGIN_DB
 ICCAP_VAR VG         -2             
 ICCAP_VAR VS         0              
 ICCAP_VAR VB         0              

 #VD              ID              IB              IG             
  0               -1.7246e-007    5.696e-009      -2.3427e-009   
  -0.05           -9.8131e-006    -2.0131e-008    -2.6361e-009   
  -0.1            -1.9156e-005    7.628e-009      -4.184e-010    
  -0.15           -2.8166e-005    5.775e-009      -1.6401e-009   
  -0.2            -3.6852e-005    8.708e-009      -1.8952e-009   
  -0.25           -4.5181e-005    7.311e-009      -1.7418e-009   
  -0.3            -5.3139e-005    8.496e-009      -1.9868e-009   
  -0.35           -6.0704e-005    7.237e-009      -1.7512e-009   
  -0.4            -6.786e-005     8.219e-009      -2.0817e-009   
  -0.45           -7.4559e-005    7.333e-009      -1.7564e-009   
  -0.5            -8.0808e-005    8.009e-009      -1.6781e-009   
  -0.55           -8.6702e-005    -1.8158e-008    2.0599e-009    
  -0.6            -9.1991e-005    -2.4524e-008    1.3952e-009    
  -0.65           -9.6701e-005    -1.8158e-008    1.9502e-009    
  -0.7            -0.000100922    -2.4919e-008    1.3771e-009    
  -0.75           -0.000104566    -1.8508e-008    1.8473e-009    
  -0.8            -0.000107735    -2.5843e-008    1.3548e-009    
  -0.85           -0.000110385    -1.9185e-008    1.7578e-009    
  -0.9            -0.000112604    -2.6418e-008    1.3394e-009    
  -0.95           -0.00011407     -1.9848e-008    -1.7528e-009   
  -1              -0.00011587     -6.59e-010      3.203e-009     
  -1.05           -0.00011723     -1.8076e-008    2.0334e-009    
  -1.1            -0.00011838     -2.6314e-008    1.3457e-009    
  -1.15           -0.00011929     -2.1088e-008    1.5482e-009    
  -1.2            -0.0001201      -1.783e-008     2.1235e-009    
  -1.25           -0.00012081     -2.5614e-008    1.3617e-009    
  -1.3            -0.00012143     -2.0628e-008    1.5931e-009    
  -1.35           -0.00012196     -1.783e-008     2.2245e-009    
  -1.4            -0.00012249     -2.5089e-008    1.376e-009     
  -1.45           -0.00012295     -2.0005e-008    1.6592e-009    
  -1.5            -0.00012332     -1.761e-008     2.3223e-009    
  -1.55           -0.00012377     -2.4445e-008    1.3959e-009    
  -1.6            -0.00012413     -1.9308e-008    1.7312e-009    
  -1.65           -0.00012449     -1.7665e-008    2.4333e-009    
  -1.7            -0.00012483     -2.3787e-008    1.4222e-009    
  -1.75           -0.00012515     -1.8914e-008    1.806e-009     
  -1.8            -0.00012536     -1.7512e-008    2.5285e-009    
  -1.85           -0.00012578     -1.5783e-008    3.1365e-009    
  -1.9            -0.00012597     -1.8359e-008    1.8863e-009    
  -1.95           -0.00012624     -2.6865e-008    1.325e-009     
  -2              -0.00012655     -1.5115e-008    3.1857e-009    
  -2.05           -0.00012675     -1.827e-008     1.971e-009     
  -2.1            -0.000127       -2.6535e-008    1.3375e-009    
  -2.15           -0.00012723     -2.1651e-008    1.5214e-009    
  -2.2            -0.00012742     -1.7978e-008    2.0595e-009    
  -2.25           -0.00012765     -2.5948e-008    1.3504e-009    
  -2.3            -0.00012785     -2.1165e-008    1.5644e-009    
  -2.35           -0.00012805     -1.7958e-008    2.1551e-009    
  -2.4            -0.0001283      -2.5541e-008    1.3647e-009    
  -2.45           -0.00012846     -2.0265e-008    1.6144e-009    
  -2.5            -0.00012866     -1.7785e-008    2.2629e-009    
  -2.55           -0.00012884     -2.49e-008      1.382e-009     
  -2.6            -0.00012899     -1.9784e-008    1.6842e-009    
  -2.65           -0.0001292      -1.7327e-008    2.3591e-009    
  -2.7            -0.00012943     -2.4344e-008    1.4045e-009    
  -2.75           -0.00012957     -1.9288e-008    1.7534e-009    
  -2.8            -0.00012965     -1.7364e-008    2.4471e-009    
  -2.85           -0.00012989     -2.3559e-008    1.4285e-009    
  -2.9            -0.00013004     -1.8631e-008    1.8267e-009    
  -2.95           -0.0001302      -1.7425e-008    2.5498e-009    
  -3              -0.0001304      -2.3086e-008    1.4566e-009    
  -3.05           -0.00013048     -1.8301e-008    1.9098e-009    
  -3.1            -0.00013071     -2.6727e-008    2.8873e-009    
  -3.15           -0.00013079     -2.0314e-008    1.6232e-009    
  -3.2            -0.0001309      -1.7624e-008    2.2645e-009    
  -3.25           -0.00013109     -2.4874e-008    1.3812e-009    
  -3.3            -0.0001312      -1.9998e-008    1.6861e-009    
  -3.35           -0.00013131     -1.7512e-008    2.3526e-009    
  -3.4            -0.00013149     -2.4164e-008    1.4054e-009    
  -3.45           -0.00013162     -1.9139e-008    1.7475e-009    
  -3.5            -0.00013171     -1.7395e-008    2.4636e-009    
  -3.55           -0.00013189     -2.3488e-008    1.4285e-009    
  -3.6            -0.000132       -1.8996e-008    1.8265e-009    
  -3.65           -0.00013208     -1.7522e-008    2.5473e-009    
  -3.7            -0.00013227     -2.2964e-008    1.4609e-009    
  -3.75           -0.0001323      -1.8403e-008    1.9133e-009    
  -3.8            -0.00013245     -2.6787e-008    1.3293e-009    
  -3.85           -0.00013257     -2.2137e-008    1.495e-009     
  -3.9            -0.00013274     -1.8412e-008    2.0014e-009    
  -3.95           -0.00013281     -2.6313e-008    1.3425e-009    
  -4              -0.00013294     -2.1258e-008    1.5344e-009    
  -4.05           -0.00013306     -1.8363e-008    2.1007e-009    
  -4.1            -0.00013317     -2.576e-008     1.3537e-009    
  -4.15           -0.00013325     -2.0624e-008    1.5831e-009    
