! VERSION = 6.00
BEGIN_HEADER
 ICCAP_INPUTS
  VG         V  B GROUND SMU4 0.001 LIN        2    0          5          6    1         
  VS         V  E GROUND SMU2 0.1 CON        0
  VD         V  S GROUND SMU1 0.1 LIN        1    0          5          101  0.05      
  VB         V  C GROUND SMU3 0.1 LIN        3    0          -2.5       2    -2.5      
 ICCAP_OUTPUTS
  ID         I  S GROUND SMU1 B
  IB         I  C GROUND SMU3 B
  IG         I  B GROUND SMU4 B
END_HEADER

BEGIN_DB
 ICCAP_VAR VG         0              
 ICCAP_VAR VS         0              
 ICCAP_VAR VB         0              

 #VD              ID              IB              IG             
  0               -6.363e-010     -2.2312e-008    -8.536e-010    
  0.05            1.2739e-009     2.4822e-008     -2.3216e-009   
  0.1             -1.8273e-009    2.104e-009      -1.875e-010    
  0.15            -1.8983e-009    -1.0262e-008    -3.863e-010    
  0.2             -1.9493e-009    -9.612e-009     -5.842e-010    
  0.25            -1.2925e-009    -1.8811e-008    2.2287e-009    
  0.3             2.0984e-009     -4.721e-009     1.2075e-009    
  0.35            5.799e-010      1.271e-008      -2.2195e-009   
  0.4             -1.8555e-009    2.467e-009      -2.668e-010    
  0.45            -1.9159e-009    -1.0013e-008    -4.725e-010    
  0.5             -4.392e-010     -1.4716e-008    2.3691e-009    
  0.55            2.1945e-009     -3.593e-009     1.1333e-009    
  0.6             1.181e-009      2.5785e-008     -2.4597e-009   
  0.65            -1.7312e-009    1.524e-009      -2.38e-011     
  0.7             -9.33e-010      -2.4166e-008    2.7129e-009    
  0.75            8.376e-010      1.8113e-008     -1.7727e-009   
  0.8             -1.954e-009     4.092e-009      -6.39e-010     
  0.85            -1.3168e-009    -1.7815e-008    2.1571e-009    
  0.9             2.0624e-009     -5.485e-009     1.2531e-009    
  0.95            6.278e-010      1.3556e-008     -2.1586e-009   
  1               -1.8698e-009    2.681e-009      -3.259e-010    
  1.05            -1.9232e-009    -9.816e-009     -5.291e-010    
  1.1             -1.2498e-009    -1.9791e-008    2.295e-009     
  1.15            2.1531e-009     -4.095e-009     1.1726e-009    
  1.2             5.525e-010      1.2255e-008     -2.2797e-009   
  1.25            -1.8251e-009    2.344e-009      -2.085e-010    
  1.3             -1.0521e-009    -2.4264e-008    2.6085e-009    
  1.35            9.572e-010      2.1871e-008     -1.5504e-009   
  1.4             -1.9842e-009    5.565e-009      -8.172e-010    
  1.45            -1.4067e-009    -1.4011e-008    1.8736e-009    
  1.5             1.8515e-009     -7.714e-009     1.4116e-009    
  1.55            7.828e-010      1.6593e-008     -1.9033e-009   
  1.6             -1.918e-009     3.491e-009      -5.346e-010    
  1.65            -1.2548e-009    -1.9684e-008    2.2834e-009    
  1.7             2.1492e-009     -4.291e-009     1.1776e-009    
  1.75            1.2341e-009     2.5627e-008     -2.4025e-009   
  1.8             -1.7585e-009    1.64e-009       -8.5e-011      
  1.85            -9.68e-010      -2.4479e-008    2.6796e-009    
  1.9             1.5438e-009     1.893e-008      -1.845e-009    
  1.95            -1.9242e-009    3.752e-009      -5.789e-010    
  2               -1.2681e-009    -1.8953e-008    2.2326e-009    
  2.05            2.1202e-009     -4.629e-009     1.2051e-009    
  2.1             6.011e-010      1.2591e-008     -2.2301e-009   
  2.15            -1.8385e-009    2.286e-009      -2.678e-010    
  2.2             -1.8975e-009    -1.0051e-008    -4.705e-010    
  2.25            -1.2034e-009    -2.092e-008     2.3741e-009    
  2.3             2.2134e-009     -3.719e-009     1.1324e-009    
  2.35            1.1978e-009     2.5777e-008     -2.4594e-009   
  2.4             -1.7168e-009    1.643e-009      -2.57e-011     
  2.45            -9.192e-010     -2.4264e-008    2.7103e-009    
  2.5             8.539e-010      1.8208e-008     -1.764e-009    
  2.55            -1.938e-009     4.161e-009      -6.433e-010    
  2.6             -1.974e-009     -8.905e-009     -8.172e-010    
  2.65            -1.3957e-009    -1.3791e-008    1.8684e-009    
  2.7             1.859e-009      -7.753e-009     1.4108e-009    
  2.75            1.4308e-009     2.2347e-008     -2.0795e-009   
  2.8             -1.8745e-009    2.907e-009      -4.005e-010    
  2.85            -1.9297e-009    -9.299e-009     -5.923e-010    
  2.9             -5.323e-010     -1.6213e-008    2.2136e-009    
  2.95            2.1155e-009     -4.937e-009     1.2234e-009    
  3               6.158e-010      1.2946e-008     -2.2043e-009   
  3.05            -1.8426e-009    2.641e-009      -2.721e-010    
  3.1             -1.902e-009     -1.001e-008     -4.429e-010    
  3.15            -3.942e-010     -1.4898e-008    2.3549e-009    
  3.2             2.2107e-009     -3.861e-009     1.1346e-009    
  3.25            1.1839e-009     2.5864e-008     -2.4481e-009   
  3.3             -1.722e-009     1.916e-009      -4.07e-011     
  3.35            -9.272e-010     -2.4364e-008    2.708e-009     
  3.4             8.697e-010      1.8306e-008     -1.7485e-009   
  3.45            -1.6687e-009    -5.862e-009     1.94e-011      
  3.5             -8.746e-010     -2.3985e-008    2.7214e-009    
  3.55            8.216e-010      1.6904e-008     -1.8507e-009   
  3.6             -1.9165e-009    3.777e-009      -5.788e-010    
  3.65            -1.2613e-009    -1.879e-008     2.2265e-009    
  3.7             2.1347e-009     -4.656e-009     1.2082e-009    
  3.75            6.059e-010      1.287e-008      -2.2256e-009   
  3.8             -1.8295e-009    2.349e-009      -2.711e-010    
  3.85            -1.8881e-009    -1.0056e-008    -4.702e-010    
  3.9             -3.963e-010     -1.4757e-008    2.3718e-009    
  3.95            2.223e-009      -3.79e-009      1.1288e-009    
  4               1.2078e-009     2.6016e-008     -2.4577e-009   
  4.05            -1.7107e-009    1.497e-009      -2.55e-011     
  4.1             -9.11e-010      -2.4372e-008    2.7148e-009    
  4.15            8.651e-010      1.8061e-008     -1.7598e-009   
  4.2             -1.6681e-009    -6.072e-009     2.72e-011      
  4.25            -8.638e-010     -2.4082e-008    2.7244e-009    
  4.3             2.354e-009      -1.557e-009     7.858e-010     
  4.35            9.297e-010      2.0351e-008     -1.6308e-009   
  4.4             -1.9542e-009    4.914e-009      -7.547e-010    
  4.45            -1.3553e-009    -1.5272e-008    1.9791e-009    
  4.5             1.9639e-009     -6.692e-009     1.3478e-009    
  4.55            1.3877e-009     2.3692e-008     -2.1941e-009   
  4.6             -1.8412e-009    2.556e-009      -2.937e-010    
  4.65            -1.8923e-009    -1.0001e-008    -5.071e-010    
  4.7             -4.453e-010     -1.495e-008     2.3434e-009    
  4.75            2.214e-009      -4.026e-009     1.151e-009     
  4.8             1.2379e-009     2.6406e-008     -2.4499e-009   
  4.85            -1.7313e-009    1.748e-009      -5.55e-011     
  4.9             -9.319e-010     -2.4713e-008    2.7119e-009    
  4.95            1.5381e-009     1.9425e-008     -1.8962e-009   
  5               -1.8986e-009    3.576e-009      -5.402e-010    
END_DB

BEGIN_DB
 ICCAP_VAR VG         1              
 ICCAP_VAR VS         0              
 ICCAP_VAR VB         0              

 #VD              ID              IB              IG             
  0               -9.7086e-008    -1.016e-008     -5.863e-010    
  0.05            6.1478e-006     4.058e-009      1.0727e-009    
  0.1             1.07823e-005    -8.408e-009     2.646e-009     
  0.15            1.4035e-005     -1.6715e-008    7.617e-010     
  0.2             1.5891e-005     -2.4109e-008    2.5776e-009    
  0.25            1.6984e-005     -2.2036e-008    2.0488e-009    
  0.3             1.7581e-005     -1.0056e-008    -7.964e-010    
  0.35            1.7998e-005     8.509e-009      -2.5556e-009   
  0.4             1.8252e-005     1.113e-008      -2.426e-009    
  0.45            1.8393e-005     1.4454e-008     -1.7381e-009   
  0.5             1.8508e-005     2.3397e-008     -2.4833e-009   
  0.55            1.8614e-005     1.3436e-008     -1.855e-009    
  0.6             1.8702e-005     1.1307e-008     -2.4518e-009   
  0.65            1.8766e-005     1.3965e-008     -1.775e-009    
  0.7             1.885e-005      1.1284e-008     -2.4087e-009   
  0.75            1.8884e-005     1.4825e-008     -1.7122e-009   
  0.8             1.8979e-005     1.1228e-008     -2.3636e-009   
  0.85            1.9004e-005     1.5642e-008     -1.6475e-009   
  0.9             1.9056e-005     2.4364e-008     -2.4353e-009   
  0.95            1.9106e-005     1.4309e-008     -1.7546e-009   
  1               1.9153e-005     1.1295e-008     -2.3875e-009   
  1.05            1.9207e-005     1.5104e-008     -1.6833e-009   
  1.1             1.9282e-005     1.1233e-008     -2.339e-009    
  1.15            1.9299e-005     1.5783e-008     -1.6202e-009   
  1.2             1.9359e-005     2.4613e-008     -2.4169e-009   
  1.25            1.9387e-005     1.4459e-008     -1.7325e-009   
  1.3             1.9296e-005     8.752e-009      7.892e-010     
  1.35            1.9244e-005     -2.4401e-008    2.545e-009     
  1.4             1.9334e-005     -2.1326e-008    1.9963e-009    
  1.45            1.941e-005      -9.81e-009      -8.255e-010    
  1.5             1.956e-005      8.864e-009      -2.5639e-009   
  1.55            1.9601e-005     1.1714e-008     -2.4014e-009   
  1.6             1.969e-005      1.5114e-008     -1.699e-009    
  1.65            1.9745e-005     1.123e-008      -2.3551e-009   
  1.7             1.9762e-005     1.5527e-008     -1.6317e-009   
  1.75            1.9813e-005     2.4623e-008     -2.4266e-009   
  1.8             1.9847e-005     1.4442e-008     -1.7344e-009   
  1.85            1.9733e-005     8.796e-009      7.862e-010     
  1.9             1.9697e-005     -2.4324e-008    2.5599e-009    
  1.95            1.9778e-005     -2.1427e-008    1.9934e-009    
  2               1.9836e-005     -9.898e-009     -8.165e-010    
  2.05            1.9985e-005     8.726e-009      -2.5645e-009   
  2.1             2.0038e-005     1.1771e-008     -2.4073e-009   
  2.15            2.011e-005      1.4783e-008     -1.708e-009    
  2.2             1.9988e-005     8.636e-009      8.053e-010     
  2.25            1.9955e-005     -2.4633e-008    2.5385e-009    
  2.3             2.0036e-005     -2.0983e-008    1.9671e-009    
  2.35            2.0099e-005     -9.798e-009     -8.35e-010     
  2.4             2.0256e-005     8.897e-009      -2.5635e-009   
  2.45            2.0351e-005     1.1144e-008     -2.3954e-009   
  2.5             2.0363e-005     1.4858e-008     -1.6687e-009   
  2.55            2.0416e-005     1.1305e-008     -2.3383e-009   
  2.6             2.0418e-005     1.5408e-008     -1.6058e-009   
  2.65            2.0484e-005     2.4589e-008     -2.4162e-009   
  2.7             2.0492e-005     1.4424e-008     -1.71e-009     
  2.75            2.0554e-005     1.1025e-008     -2.3651e-009   
  2.8             2.0564e-005     1.4907e-008     -1.6402e-009   
  2.85            2.0636e-005     1.0815e-008     -2.3132e-009   
  2.9             2.0632e-005     1.5372e-008     -1.5766e-009   
  2.95            2.0688e-005     1.0838e-008     -2.2556e-009   
  3               2.0423e-005     7.839e-009      1.8424e-009    
  3.05            2.0524e-005     -2.0323e-008    2.7202e-009    
  3.1             2.0532e-005     -2.6211e-008    2.5286e-009    
  3.15            2.0605e-005     -1.2292e-008    -4.35e-010     
  3.2             2.0822e-005     1.6101e-008     -1.4518e-009   
  3.25            2.0881e-005     9.706e-009      -2.095e-009    
  3.3             2.0885e-005     1.5954e-008     -1.4079e-009   
  3.35            2.0952e-005     9.01e-009       -2.0172e-009   
  3.4             2.0972e-005     7.761e-009      -2.5273e-009   
  3.45            2.1006e-005     8.04e-009       -1.9432e-009   
  3.5             2.1043e-005     6.479e-009      -2.5011e-009   
  3.55            2.1054e-005     7.118e-009      -1.8671e-009   
  3.6             2.1105e-005     4.548e-009      -2.4714e-009   
  3.65            2.1129e-005     5.676e-009      -1.7918e-009   
  3.7             2.1172e-005     2.514e-009      -2.4326e-009   
  3.75            2.1182e-005     4.208e-009      -1.7216e-009   
  3.8             2.0997e-005     -3.262e-009     2.1316e-009    
  3.85            2.1044e-005     -2.3152e-008    -5.078e-010    
  3.9             2.1212e-005     -9.057e-009     -2.4667e-009   
  3.95            2.1146e-005     -1.9287e-008    -2.5737e-009   
  4               2.1287e-005     -6.547e-009     -8.47e-011     
  4.05            2.1105e-005     -3.3142e-008    2.3173e-009    
  4.1             2.1269e-005     -3.0293e-008    -1.8829e-009   
  4.15            2.1383e-005     -1.3544e-008    1.811e-010     
  4.2             2.1255e-005     -4.2239e-008    1.8302e-009    
  4.25            2.134e-005      -3.6741e-008    -2.0661e-009   
  4.3             2.1457e-005     -2.1739e-008    4.74e-010      
  4.35            2.1333e-005     -5.4764e-008    2.7277e-009    
  4.4             2.1639e-005     -4.7951e-008    -1.5315e-009   
  4.45            2.1597e-005     -2.7867e-008    -2.5121e-009   
  4.5             2.1276e-005     -3.5861e-008    1.5808e-009    
  4.55            2.1447e-005     -6.0102e-008    1.383e-010     
  4.6             2.1746e-005     -4.1881e-008    -2.2211e-009   
  4.65            2.1466e-005     -4.9162e-008    1.8641e-009    
  4.7             2.1563e-005     -7.3643e-008    -1.226e-010    
  4.75            2.1834e-005     -5.4598e-008    -1.7804e-009   
  4.8             2.1627e-005     -6.5522e-008    2.1042e-009    
  4.85            2.1683e-005     -9.0007e-008    -4.601e-010    
  4.9             2.1921e-005     -6.6671e-008    -1.4241e-009   
  4.95            2.172e-005      -8.4116e-008    2.2768e-009    
  5               2.1881e-005     -1.08785e-007   -5.159e-010    
END_DB

BEGIN_DB
 ICCAP_VAR VG         2              
 ICCAP_VAR VS         0              
 ICCAP_VAR VB         0              

 #VD              ID              IB              IG             
  0               -2.8285e-007    2.6071e-008     -1.292e-009    
  0.05            1.9913e-005     -1.9e-008       1.6394e-009    
  0.1             3.9577e-005     -1.6421e-008    1.7441e-009    
  0.15            5.8955e-005     -2.4176e-008    2.6096e-009    
  0.2             7.8074e-005     -2.2653e-008    2.0828e-009    
  0.25            9.6864e-005     -1.0084e-008    -7.648e-010    
  0.3             0.00011542      2.6031e-008     1.0259e-009    
  0.35            0.00013353      -2.0128e-008    1.9263e-009    
  0.4             0.0001513       -2.4237e-008    2.598e-009     
  0.45            0.00016869      -1.9457e-008    1.8486e-009    
  0.5             0.00018571      -2.4499e-008    2.5524e-009    
  0.55            0.00020234      -1.8145e-008    1.7689e-009    
  0.6             0.00021854      -2.4959e-008    2.4981e-009    
  0.65            0.00023426      -1.7049e-008    2.717e-009     
  0.7             0.00024942      -2.5017e-008    2.4459e-009    
  0.75            0.00026418      -1.5762e-008    2.7242e-009    
  0.8             0.00027833      -2.5134e-008    2.3845e-009    
  0.85            0.00029201      -1.0352e-008    -7.045e-010    
  0.9             0.00030516      2.4909e-008     -2.4339e-009   
  0.95            0.00031763      1.6201e-008     -1.5668e-009   
  1               0.00032916      7.558e-009      9.778e-010     
  1.05            0.00034009      -1.0327e-008    2.6693e-009    
  1.1             0.00035057      -2.1535e-008    1.998e-009     
  1.15            0.00036011      -2.3895e-008    2.637e-009     
  1.2             0.0003691       -2.0543e-008    1.9232e-009    
  1.25            0.00037721      -2.4146e-008    2.5923e-009    
  1.3             0.00038461      -1.9459e-008    1.8416e-009    
  1.35            0.00039122      -2.4402e-008    2.5466e-009    
  1.4             0.00039719      -1.8297e-008    1.7642e-009    
  1.45            0.00040229      -2.4818e-008    2.4968e-009    
  1.5             0.00040698      -1.7049e-008    2.717e-009     
  1.55            0.00041085      -1.0368e-008    -6.46e-011     
  1.6             0.00041479      1.5239e-008     -1.6893e-009   
  1.65            0.00041782      2.5578e-008     -2.3469e-009   
  1.7             0.00041986      8.903e-009      1.8854e-009    
  1.75            0.00042206      -2.2279e-008    2.6916e-009    
  1.8             0.00042415      -2.2851e-008    2.1223e-009    
  1.85            0.00042574      -2.2942e-008    2.6766e-009    
  1.9             0.00042741      -2.2003e-008    2.0424e-009    
  1.95            0.00042866      -2.3445e-008    2.6452e-009    
  2               0.00043002      -2.0939e-008    1.9604e-009    
  2.05            0.00043086      -2.4019e-008    2.6025e-009    
  2.1             0.00043214      -1.9686e-008    1.8804e-009    
  2.15            0.00043294      -2.4328e-008    2.5594e-009    
  2.2             0.00043384      -1.8874e-008    1.7976e-009    
  2.25            0.00043468      -2.4513e-008    2.5163e-009    
  2.3             0.00043546      -1.7683e-008    1.7225e-009    
  2.35            0.00043598      -2.4761e-008    2.4601e-009    
  2.4             0.00043687      -1.6466e-008    2.7172e-009    
  2.45            0.00043733      -2.4861e-008    2.3993e-009    
  2.5             0.00043831      -1.0359e-008    -6.911e-010    
  2.55            0.00043936      8.672e-009      -2.5611e-009   
  2.6             0.00043994      2.4448e-008     -2.4129e-009   
  2.65            0.00043976      8.847e-009      1.8208e-009    
  2.7             0.00044025      -2.1013e-008    2.7098e-009    
  2.75            0.00044106      -2.3885e-008    2.228e-009     
  2.8             0.00044181      -9.971e-009     -8.06e-010     
  2.85            0.00044266      2.5789e-008     -2.3104e-009   
  2.9             0.00044248      8.485e-009      1.9084e-009    
  2.95            0.00044286      -2.2608e-008    2.674e-009     
  3               0.00044352      -1.6012e-008    1.8746e-009    
  3.05            0.00044381      -2.4141e-008    2.5479e-009    
  3.1             0.00044458      -1.8576e-008    1.7959e-009    
  3.15            0.00044477      -2.4502e-008    2.5009e-009    
  3.2             0.00044553      -1.7485e-008    1.7178e-009    
  3.25            0.00044565      -2.4693e-008    2.4486e-009    
  3.3             0.00044634      -1.6511e-008    2.714e-009     
  3.35            0.00044657      -2.4718e-008    2.3855e-009    
  3.4             0.00044729      -1.0503e-008    -7.019e-010    
  3.45            0.00044816      8.437e-009      -2.5644e-009   
  3.5             0.00044858      2.4193e-008     -2.4048e-009   
  3.55            0.00044825      8.35e-009       1.8297e-009    
  3.6             0.00044871      -2.1899e-008    2.7098e-009    
  3.65            0.00044906      -2.4647e-008    2.2174e-009    
  3.7             0.00044991      -1.1309e-008    -8.157e-010    
  3.75            0.00045059      7.755e-009      -2.5688e-009   
  3.8             0.00045109      9.774e-009      -2.1188e-009   
  3.85            0.00045158      8.165e-009      -2.4824e-009   
  3.9             0.00045172      1.1333e-008     -1.6935e-009   
  3.95            0.00045215      6.838e-009      -2.1879e-009   
  4               0.00045262      5.041e-009      -2.5111e-009   
  4.05            0.00045284      6.539e-009      -1.7626e-009   
  4.1             0.00045282      -2.401e-009     2.1968e-009    
  4.15            0.0004531       -2.1956e-008    -7.694e-010    
