! VERSION = 6.00
BEGIN_HEADER
 ICCAP_INPUTS
  VG         V  B GROUND SMU4 0.001 LIN        2    0          5          6    1         
  VS         V  E GROUND SMU2 0.1 CON        0
  VD         V  S GROUND SMU1 0.1 LIN        1    0          5          101  0.05      
  VB         V  C GROUND SMU3 0.1 LIN        3    0          -2.5       2    -2.5      
 ICCAP_OUTPUTS
  ID         I  S GROUND SMU1 B
  IB         I  C GROUND SMU3 B
  IG         I  B GROUND SMU4 B
END_HEADER

BEGIN_DB
 ICCAP_VAR VG         0              
 ICCAP_VAR VS         0              
 ICCAP_VAR VB         0              

 #VD              ID              IB              IG             
  0               -4.3528e-007    4.0184e-007     -1.148e-009    
  0.05            -1.3365e-007    4.3454e-007     7.43e-010      
  0.1             -1.9639e-007    4.2739e-007     -1.6693e-008   
  0.15            1.05e-009       4.1552e-007     -4.424e-009    
  0.2             -1.641e-009     1.628e-008      1.11e-009      
  0.25            3.5347e-008     4.0104e-007     -2.8134e-007   
  0.3             2.8163e-008     4.5344e-007     -4.17e-008     
  0.35            2.975e-009      4.4129e-007     -6.791e-008    
  0.4             5.642e-008      1.5e-009        -3.2904e-007   
  0.45            3.4022e-008     4.4985e-007     -6.659e-008    
  0.5             4.697e-009      4.4141e-007     -6.464e-008    
  0.55            5.5732e-008     3.13e-009       -3.6579e-007   
  0.6             2.5893e-008     8.819e-008      -1.0088e-007   
  0.65            8.144e-009      4.4304e-007     8.5e-010       
  0.7             2.61e-010       4.246e-007      -2.2962e-007   
  0.75            3.2678e-008     -4.1e-010       -4.8855e-007   
  0.8             5.6993e-008     2.8522e-007     -7.729e-008    
  0.85            5.9138e-008     1.4921e-007     -7.7e-010      
  0.9             5.39e-010       4.397e-007      -1.021e-008    
  0.95            4.9625e-008     2.9752e-007     -4.3835e-007   
  1               4.9523e-008     3.9073e-007     -1.5142e-007   
  1.05            2.5675e-008     1.1354e-007     -5.0083e-007   
  1.1             4.0037e-008     1.1623e-007     -4.403e-008    
  1.15            3.2e-009        4.429e-007      -6.917e-008    
  1.2             5.9098e-008     2.09e-009       -3.4896e-007   
  1.25            2.9872e-008     8.947e-008      -8.152e-008    
  1.3             6.383e-009      4.4361e-007     9.5e-010       
  1.35            2.93e-010       4.1748e-007     -7.46e-008     
  1.4             5.8231e-008     1.18e-007       -1.354e-008    
  1.45            1.52e-009       4.4067e-007     -7.365e-008    
  1.5             6.1099e-008     1.4051e-007     -3.11e-009     
  1.55            8.13e-010       4.4119e-007     -1.016e-008    
  1.6             4.6289e-008     3.3024e-007     -4.6461e-007   
  1.65            5.5276e-008     3.5828e-007     -1.167e-007    
  1.7             6.1523e-008     1.4653e-007     -1.77e-009     
  1.75            6.89e-010       4.4245e-007     -1.023e-008    
  1.8             4.9886e-008     3.1215e-007     -4.5057e-007   
  1.85            5.3599e-008     3.7899e-007     -1.3553e-007   
  1.9             6.2002e-008     1.5429e-007     -9.8e-010      
  1.95            5.62e-010       4.401e-007      -1.044e-008    
  2               5.3091e-008     2.9421e-007     -4.365e-007    
  2.05            5.1701e-008     3.9867e-007     -1.5944e-007   
  2.1             2.7649e-008     1.0715e-007     -5.0224e-007   
  2.15            4.3024e-008     1.2502e-007     -4.187e-008    
  2.2             3.083e-009      4.428e-007      -6.969e-008    
  2.25            6.1923e-008     1.84e-009       -3.4406e-007   
  2.3             3.2878e-008     9.477e-008      -7.75e-008     
  2.35            6.297e-009      4.447e-007      1.02e-009      
  2.4             3.34e-010       4.156e-007      -3.341e-007    
  2.45            6.4014e-008     2.3032e-007     -1.75e-008     
  2.5             1.714e-009      4.4264e-007     -7.086e-008    
  2.55            6.3863e-008     -5.6e-010       -2.6957e-007   
  2.6             2.9125e-008     4.5587e-007     -2.691e-008    
  2.65            2.144e-009      4.4305e-007     -6.902e-008    
  2.7             6.4204e-008     2.9e-010        -3.053e-007    
  2.75            3.4127e-008     4.5363e-007     -3.995e-008    
  2.8             3.078e-009      4.4254e-007     -7.02e-008     
  2.85            6.3461e-008     1.81e-009       -3.4098e-007   
  2.9             3.3537e-008     9.343e-008      -7.692e-008    
  2.95            6.271e-009      4.4217e-007     9.7e-010       
  3               3.89e-010       4.1761e-007     -3.331e-007    
  3.05            6.5336e-008     2.294e-007      -1.924e-008    
  3.1             1.755e-009      4.4246e-007     -7.236e-008    
  3.15            6.5264e-008     -2.9e-010       -2.6875e-007   
  3.2             2.9775e-008     4.571e-007      -3.025e-008    
  3.25            2.296e-009      4.4319e-007     -7.095e-008    
  3.3             6.4962e-008     3.5e-010        -3.0512e-007   
  3.35            3.4386e-008     4.5609e-007     -4.716e-008    
  3.4             3.421e-009      4.4303e-007     -7.104e-008    
  3.45            6.4105e-008     1.69e-009       -3.407e-007    
  3.5             3.4524e-008     9.492e-008      -8.342e-008    
  3.55            7.006e-009      4.4442e-007     9.9e-010       
  3.6             4.02e-010       4.1465e-007     -3.317e-007    
  3.65            6.6185e-008     2.3447e-007     -1.796e-008    
  3.7             1.711e-009      4.4273e-007     -7.07e-008     
  3.75            6.6842e-008     -5.6e-010       -2.6535e-007   
  3.8             2.9736e-008     4.5598e-007     -2.637e-008    
  3.85            2.093e-009      4.4219e-007     -7.132e-008    
  3.9             6.6567e-008     2.5e-010        -3.0311e-007   
  3.95            3.4889e-008     4.5902e-007     -3.92e-008     
  4               3.023e-009      4.4192e-007     -7.148e-008    
  4.05            6.5666e-008     1.44e-009       -3.3988e-007   
  4.1             3.9699e-008     4.5165e-007     -5.884e-008    
  4.15            4.83e-009       4.4328e-007     -6.767e-008    
  4.2             6.3371e-008     3.46e-009       -3.7956e-007   
  4.25            2.9653e-008     8.843e-008      -1.0766e-007   
  4.3             9.582e-009      4.4436e-007     7.8e-010       
  4.35            4.59e-010       4.2682e-007     -5.276e-007    
  4.4             2.415e-008      5.466e-008      -1.6572e-007   
  4.45            1.6687e-008     4.4578e-007     -3e-011        
  4.5             6.35e-010       4.399e-007      -4.9216e-007   
  4.55            6.3663e-008     3.1232e-007     -7.352e-008    
  4.6             6.6833e-008     1.445e-007      -2.26e-009     
  4.65            8.67e-010       4.4356e-007     -1.045e-008    
  4.7             5.2334e-008     3.1966e-007     -4.6263e-007   
  4.75            5.8597e-008     3.7389e-007     -1.3092e-007   
  4.8             6.7075e-008     1.5047e-007     -1.29e-009     
  4.85            7.62e-010       4.414e-007      -1.059e-008    
  4.9             5.5766e-008     3.034e-007      -4.4902e-007   
  4.95            5.623e-008      3.93e-007       -1.5248e-007   
  5               6.7268e-008     1.8633e-007     3.8e-010       
END_DB

BEGIN_DB
 ICCAP_VAR VG         1              
 ICCAP_VAR VS         0              
 ICCAP_VAR VB         0              

 #VD              ID              IB              IG             
  0               -4.1788e-007    4.5793e-007     -2.332e-010    
  0.05            7.391e-006      3.79e-009       -2.4971e-009   
  0.1             1.2953e-005     9.47e-009       -2.5424e-009   
  0.15            1.5944e-005     1.375e-008      1.4358e-009    
  0.2             1.7674e-005     -1.64e-009      -1.1175e-009   
  0.25            1.8228e-005     8.35e-009       9.05e-010      
  0.3             1.8503e-005     3.2533e-007     -2.4825e-009   
  0.35            1.8373e-005     1.1e-008        1.556e-009     
  0.4             1.8711e-005     -2.12e-009      -1.2731e-009   
  0.45            1.8572e-005     8.14e-009       1.0083e-009    
  0.5             1.858e-005      8.01e-009       -1.4539e-009   
  0.55            1.8676e-005     1.1017e-007     -2.4367e-009   
  0.6             1.8662e-005     7.983e-008      2.2713e-009    
  0.65            1.8709e-005     1.344e-008      -1.9264e-009   
  0.7             1.8595e-005     8.22e-009       1.8188e-009    
  0.75            1.8845e-005     -2.56e-009      -1.564e-009    
  0.8             1.8652e-005     1.4383e-007     1.7248e-009    
  0.85            1.8748e-005     4e-009          -2.0164e-009   
  0.9             1.8753e-005     2.374e-009      -2.0383e-009   
  0.95            1.8798e-005     2.5753e-008     -1.2223e-009   
  1               1.8746e-005     6.062e-008      2.5824e-009    
  1.05            1.8752e-005     6.3842e-008     2.6835e-009    
  1.1             1.8677e-005     5.2514e-008     1.1438e-009    
  1.15            1.9364e-005     2.1416e-008     -4.5564e-009   
  1.2             1.8792e-005     5.177e-008      -4.074e-009    
  1.25            1.8809e-005     4.7788e-008     -4.2038e-008   
  1.3             1.8822e-005     4.7655e-008     -5.352e-008    
  1.35            1.8827e-005     4.8555e-008     -5.2925e-008   
  1.4             1.8834e-005     4.8425e-008     -5.3058e-008   
  1.45            1.8838e-005     4.8666e-008     -5.3812e-008   
  1.5             1.8848e-005     4.9003e-008     -5.4729e-008   
  1.55            1.8857e-005     4.6748e-008     -5.5025e-008   
  1.6             1.8863e-005     4.7539e-008     -5.5715e-008   
  1.65            1.8864e-005     4.8442e-008     -5.6413e-008   
  1.7             1.8878e-005     4.845e-008      -5.4099e-008   
  1.75            1.8884e-005     4.772e-008      -4.9015e-008   
  1.8             1.8889e-005     4.8095e-008     -5.4024e-008   
  1.85            1.8901e-005     4.8278e-008     -5.4001e-008   
  1.9             1.89e-005       4.8511e-008     -5.4845e-008   
  1.95            1.8906e-005     5.0158e-008     -5.3757e-008   
  2               1.8909e-005     5.0541e-008     -5.4355e-008   
  2.05            1.8915e-005     4.9102e-008     -5.473e-008    
  2.1             1.8932e-005     4.8885e-008     -5.6732e-008   
  2.15            1.8938e-005     4.8339e-008     -5.6481e-008   
  2.2             1.8943e-005     4.8646e-008     -5.7579e-008   
  2.25            1.8946e-005     4.9203e-008     -5.3411e-008   
  2.3             1.895e-005      4.927e-008      -5.2843e-008   
  2.35            1.8958e-005     5.047e-008      -5.3479e-008   
  2.4             1.8969e-005     4.9993e-008     -5.3624e-008   
  2.45            1.8972e-005     4.921e-008      -5.6166e-008   
  2.5             1.8966e-005     5.052e-008      -5.615e-008    
  2.55            1.8978e-005     5.087e-008      -5.6373e-008   
  2.6             1.8984e-005     4.7905e-008     -5.6032e-008   
  2.65            1.8991e-005     4.8846e-008     -5.8049e-008   
  2.7             1.8995e-005     4.8949e-008     -5.8647e-008   
  2.75            1.9004e-005     4.8775e-008     -5.7389e-008   
  2.8             1.901e-005      4.9328e-008     -5.3378e-008   
  2.85            1.9008e-005     4.8651e-008     -5.528e-008    
  2.9             1.902e-005      5.0039e-008     -5.6684e-008   
  2.95            1.9031e-005     4.9883e-008     -5.4746e-008   
  3               1.9028e-005     4.9635e-008     -5.6759e-008   
  3.05            1.903e-005      5.0132e-008     -5.5436e-008   
  3.1             1.903e-005      4.8479e-008     -5.7372e-008   
  3.15            1.9043e-005     4.8428e-008     -5.6227e-008   
  3.2             1.9048e-005     4.6113e-008     -5.9145e-008   
  3.25            1.9052e-005     4.703e-008      -5.7687e-008   
  3.3             1.906e-005      4.7017e-008     -5.5881e-008   
  3.35            1.9063e-005     4.7146e-008     -5.3514e-008   
  3.4             1.9065e-005     4.5219e-008     -5.6637e-008   
  3.45            1.9066e-005     -6.331e-009     -5.5566e-008   
  3.5             1.9077e-005     -7.887e-009     -5.49e-008     
  3.55            1.9076e-005     -8.812e-009     -5.6806e-008   
  3.6             1.9082e-005     -9.928e-009     -5.3879e-008   
  3.65            1.9144e-005     -1.0841e-008    -5.73e-010     
  3.7             1.91e-005       4.726e-009      -1.8683e-008   
  3.75            1.9099e-005     4.259e-009      -1.8177e-008   
  3.8             1.9082e-005     5.457e-009      -1.7716e-008   
  3.85            1.9082e-005     7.057e-009      -2.6774e-008   
  3.9             1.9112e-005     -7.489e-009     -5.6709e-008   
  3.95            1.914e-005      -2.1405e-008    1.468e-009     
  4               1.9132e-005     3.2984e-008     -2.4655e-008   
  4.05            1.9152e-005     -1.0912e-008    -5.804e-008    
  4.1             1.9166e-005     -2.6932e-008    -5.7307e-008   
  4.15            1.9191e-005     -2.8154e-008    1.1e-009       
  4.2             1.9163e-005     2.397e-008      -2.9578e-008   
  4.25            1.9172e-005     -2.0414e-008    -5.7376e-008   
  4.3             1.9183e-005     -3.7341e-008    1.392e-009     
  4.35            1.914e-005      3.37e-010       -2.4687e-008   
  4.4             1.9203e-005     -2.9564e-008    -5.8984e-008   
  4.45            1.9223e-005     -4.7001e-008    -5.7186e-008   
  4.5             1.9246e-005     -4.9488e-008    9.85e-010      
  4.55            1.9183e-005     -3.2324e-008    -2.6537e-008   
  4.6             1.923e-005      -4.5145e-008    -5.871e-008    
  4.65            1.9238e-005     -6.3691e-008    1.385e-009     
  4.7             1.9189e-005     -3.2669e-008    -2.5265e-008   
  4.75            1.9231e-005     -6.111e-008     -5.9218e-008   
  4.8             1.9278e-005     -7.8995e-008    1.488e-009     
  4.85            1.9275e-005     -3.1856e-008    -2.0851e-008   
  4.9             1.9263e-005     -7.7449e-008    -4.2984e-008   
  4.95            1.9316e-005     -9.6418e-008    -5.8285e-008   
  5               1.9309e-005     -1.04111e-007   1.35e-009      
END_DB

BEGIN_DB
 ICCAP_VAR VG         2              
 ICCAP_VAR VS         0              
 ICCAP_VAR VB         0              

 #VD              ID              IB              IG             
  0               -5.877e-007     4.2872e-007     -2.51e-011     
  0.05            3.7901e-005     1.406e-009      -2.4545e-009   
  0.1             7.4357e-005     9.86e-009       -1.2765e-009   
  0.15            0.000109516     8.4e-009        1.0618e-009    
  0.2             0.00014346      3.9917e-008     -1.3485e-009   
  0.25            0.0001757       1.6802e-007     -2.0899e-009   
  0.3             0.00020646      1.1064e-007     2.1102e-009    
  0.35            0.00023576      4.447e-008      -1.828e-009    
  0.4             0.00026321      1.994e-008      1.7796e-009    
  0.45            0.00028964      -8.8e-010       -1.6071e-009   
  0.5             0.00031365      7.66e-009       1.4088e-009    
  0.55            0.00033699      -2.15e-009      -1.2632e-009   
  0.6             0.00035763      7.88e-009       1.0728e-009    
  0.65            0.00037687      7.502e-009      2.6682e-009    
  0.7             0.00039474      -2.33e-009      2.5665e-009    
  0.75            0.00041078      -2.13e-009      -1.7526e-009   
  0.8             0.00042399      7.81e-009       1.5929e-009    
  0.85            0.0004373       -2.32e-009      -1.4825e-009   
  0.9             0.00044769      -2.496e-009     -1.5995e-009   
  0.95            0.00045613      2.534e-008      -1.23e-009     
  1               0.00046293      8.044e-008      2.6362e-009    
  1.05            0.00046852      7.3083e-008     2.5856e-009    
  1.1             0.00047318      -2.648e-009     -1.7186e-009   
  1.15            0.00047647      2.0722e-008     -1.3491e-009   
  1.2             0.00047832      9.822e-009      2.3147e-009    
  1.25            0.00048         1.9036e-008     2.6845e-009    
  1.3             0.00048175      2.375e-008      -1.2691e-009   
  1.35            0.00048275      1.8906e-008     -1.4345e-009   
  1.4             0.00048254      7.73e-009       1.0003e-009    
  1.45            0.00048406      2.1838e-008     -1.3197e-009   
  1.5             0.00048475      1.7104e-008     -1.5855e-009   
  1.55            0.00048532      1.3626e-008     -2.0331e-009   
  1.6             0.00048549      2.14e-008       -1.3331e-009   
  1.65            0.00048596      1.6998e-008     -1.6171e-009   
  1.7             0.00048644      1.3475e-008     -2.0714e-009   
  1.75            0.00048657      2.0971e-008     -1.351e-009    
  1.8             0.0004868       1.6522e-008     -1.6546e-009   
  1.85            0.00048712      2.4646e-008     -1.261e-009    
  1.9             0.00048741      2.0621e-008     -1.3705e-009   
  1.95            0.00048769      1.6148e-008     -1.7038e-009   
  2               0.00048777      2.4245e-008     -1.2729e-009   
  2.05            0.00048798      2.0082e-008     -1.4079e-009   
  2.1             0.00048838      1.5659e-008     -1.8378e-009   
  2.15            0.00048846      2.4117e-008     -1.6795e-009   
  2.2             0.00048849      1.962e-008      -3.9547e-009   
  2.25            0.0004889       1.551e-008      -1.01793e-008  
  2.3             0.00048855      1.4808e-008     -1.6723e-008   
  2.35            0.0004887       1.2761e-008     -1.8013e-008   
  2.4             0.00048888      1.302e-008      -1.8187e-008   
  2.45            0.00048906      2.449e-008      -1.8353e-008   
  2.5             0.00048924      1.3379e-008     -1.8451e-008   
  2.55            0.0004894       1.3654e-008     -1.8454e-008   
  2.6             0.00048965      1.3727e-008     -1.8774e-008   
  2.65            0.00048972      1.4012e-008     -1.9157e-008   
  2.7             0.0004899       1.4207e-008     -1.9375e-008   
  2.75            0.00049005      1.4469e-008     -1.9464e-008   
  2.8             0.00049025      1.4557e-008     -1.9746e-008   
  2.85            0.00049035      1.5142e-008     -2.0314e-008   
  2.9             0.00049049      1.5498e-008     -2.0766e-008   
  2.95            0.00049064      1.6032e-008     -1.5993e-008   
  3               0.00049076      1.7802e-008     -2.3573e-008   
  3.05            0.00049091      1.8008e-008     -2.3817e-008   
  3.1             0.00049105      1.854e-008      -2.4061e-008   
  3.15            0.00049118      1.8759e-008     -2.4365e-008   
  3.2             0.00049133      1.9174e-008     -2.4724e-008   
  3.25            0.00049145      1.9658e-008     -2.5135e-008   
  3.3             0.00049159      1.9944e-008     -2.5551e-008   
  3.35            0.00049171      2.0317e-008     -2.5804e-008   
  3.4             0.00049185      2.0402e-008     -2.607e-008    
  3.45            0.00049203      1.0739e-008     -1.7016e-008   
  3.5             0.00049215      1.0367e-008     -1.7437e-008   
  3.55            0.00049227      9.711e-009      -1.7186e-008   
  3.6             0.00049244      9.068e-009      -1.7518e-008   
  3.65            0.00049259      8.082e-009      -1.7991e-008   
  3.7             0.00049269      7.108e-009      -1.8124e-008   
  3.75            0.00049292      5.539e-009      -1.8437e-008   
  3.8             0.00049304      3.83e-009       -1.8567e-008   
  3.85            0.00049309      1.488e-009      -1.8883e-008   
  3.9             0.00049314      -6.606e-009     -2.6144e-008   
  3.95            0.00049321      -1.543e-008     -2.3435e-008   
  4               0.00049328      -1.6955e-008    -1.9079e-008   
  4.05            0.00049351      -1.93e-008      -1.743e-008    
  4.1             0.00049368      -2.5059e-008    -2.4544e-008   
  4.15            0.00049361      -3.499e-008     -1.9855e-008   
