! VERSION = 6.00
BEGIN_HEADER
 ICCAP_INPUTS
  VG         V  B GROUND SMU4 0.001 LIN        1    0          5          101  0.05      
  VS         V  E GROUND SMU2 0.1 CON        0
  VB         V  C GROUND SMU3 0.1 LIN        3    0          -5         3    -2.5      
  VD         V  S GROUND SMU1 0.1 LIN        2    0.1        5          2    4.9       
 ICCAP_OUTPUTS
  IG         I  B GROUND SMU4 B
  ID         I  S GROUND SMU1 B
  IB         I  C GROUND SMU3 B
END_HEADER

BEGIN_DB
 ICCAP_VAR VS         0              
 ICCAP_VAR VB         0              
 ICCAP_VAR VD         0.1            

 #VG              IG              ID              IB             
  0               -9.551e-009     -3.1229e-007    2.1543e-007    
  0.05            7.322e-010      -3.8646e-007    4.156e-009     
  0.1             2.6494e-009     -1.292e-008     1.3307e-007    
  0.15            2.1962e-009     -3.493e-008     3.6604e-007    
  0.2             2.4803e-009     -1.2108e-007    3.641e-007     
  0.25            2.5433e-009     -1.617e-007     3.4208e-007    
  0.3             2.6087e-009     -1.9889e-007    3.5956e-007    
  0.35            2.739e-009      -6.8e-009       3.5626e-007    
  0.4             2.5385e-009     -1.565e-008     3.5319e-007    
  0.45            1.7875e-009     -6.656e-008     3.5189e-007    
  0.5             2.56e-009       -1.496e-007     3.5006e-007    
  0.55            2.6156e-009     -1.6647e-007    3.446e-007     
  0.6             2.6811e-009     -1.4178e-007    3.456e-007     
  0.65            2.7214e-009     2.9374e-007     3.4329e-007    
  0.7             2.2214e-009     1.02001e-006    3.4135e-007    
  0.75            1.0249e-009     3.1083e-006     1.275e-008     
  0.8             2.979e-010      8.8123e-006     1.2405e-008    
  0.85            -1.5555e-009    2.0906e-005     7.665e-008     
  0.9             -2.4794e-009    3.922e-005      3.6386e-007    
  0.95            -2.5293e-009    6.2291e-005     3.5266e-007    
  1               -2.4527e-009    8.6821e-005     3.5706e-007    
  1.05            -1.8706e-009    0.000111074     3.5955e-007    
  1.1             -2.4522e-009    0.00013304      3.5922e-007    
  1.15            -1.8496e-009    0.00015395      3.5739e-007    
  1.2             -1.3066e-009    0.00017267      3.6113e-007    
  1.25            8.273e-010      0.0001892       3.5795e-007    
  1.3             -7.524e-010     0.00020503      1.67e-009      
  1.35            -1.0856e-009    0.00021974      6.36e-009      
  1.4             -1.4469e-009    0.00023317      1.619e-008     
  1.45            -1.7679e-009    0.00024544      6.804e-008     
  1.5             -2.0374e-009    0.00025703      1.5158e-007    
  1.55            -2.3849e-009    0.00026799      2.4124e-007    
  1.6             -2.5018e-009    0.00027814      3.2968e-007    
  1.65            -2.5415e-009    0.00028759      3.5444e-007    
  1.7             -2.2622e-009    0.00029658      3.5781e-007    
  1.75            -1.5805e-009    0.00030522      3.5956e-007    
  1.8             -2.478e-009     0.00031327      3.613e-007     
  1.85            -2.5315e-009    0.00032085      3.5178e-007    
  1.9             -2.4609e-009    0.0003281       3.5642e-007    
  1.95            -1.8948e-009    0.00033518      3.5684e-007    
  2               -1.3259e-009    0.00034177      3.6259e-007    
  2.05            8.366e-010      0.00034788      3.589e-007     
  2.1             -7.257e-010     0.00035401      2.01e-009      
  2.15            -1.0614e-009    0.00035988      6.44e-009      
  2.2             -1.4226e-009    0.00036546      1.608e-008     
  2.25            -1.7496e-009    0.00037078      5.944e-008     
  2.3             -2.0202e-009    0.00037597      1.469e-007     
  2.35            -2.3684e-009    0.00038102      2.3672e-007    
  2.4             -2.5019e-009    0.00038577      3.2363e-007    
  2.45            -2.5386e-009    0.00039024      3.5716e-007    
  2.5             -2.2861e-009    0.0003947       3.5767e-007    
  2.55            -1.6101e-009    0.000399        3.6106e-007    
  2.6             -2.4734e-009    0.00040311      3.6243e-007    
  2.65            -2.5306e-009    0.00040714      3.4881e-007    
  2.7             -2.4785e-009    0.00041095      3.5698e-007    
  2.75            -1.9281e-009    0.00041478      3.5869e-007    
  2.8             -1.3372e-009    0.00041835      3.6176e-007    
  2.85            8.252e-010      0.00042169      3.5899e-007    
  2.9             -7.083e-010     0.00042511      2.32e-009      
  2.95            -1.0468e-009    0.00042848      7e-009         
  3               -1.4057e-009    0.00043168      1.524e-008     
  3.05            -1.738e-009     0.00043473      5.658e-008     
  3.1             -2.0046e-009    0.00043776      1.4643e-007    
  3.15            -2.3569e-009    0.00044086      2.337e-007     
  3.2             -2.4979e-009    0.00044363      3.2211e-007    
  3.25            -2.5404e-009    0.00044628      3.5547e-007    
  3.3             -2.3113e-009    0.00044892      3.5866e-007    
  3.35            -1.6354e-009    0.00045156      3.5996e-007    
  3.4             -2.4701e-009    0.00045404      3.6397e-007    
  3.45            -2.5256e-009    0.00045655      3.5074e-007    
  3.5             -2.4859e-009    0.00045883      3.5814e-007    
  3.55            -1.9643e-009    0.00046121      3.5902e-007    
  3.6             -1.3526e-009    0.00046346      3.6126e-007    
  3.65            8.284e-010      0.00046554      3.5859e-007    
  3.7             -6.852e-010     0.00046772      2.43e-009      
  3.75            -1.029e-009     0.0004698       6.69e-009      
  3.8             -1.3839e-009    0.00047188      1.544e-008     
  3.85            -1.7197e-009    0.00047382      5.263e-008     
  3.9             -1.985e-009     0.00047577      1.4058e-007    
  3.95            -2.3389e-009    0.00047779      2.2908e-007    
  4               -2.4949e-009    0.00047959      3.1766e-007    
  4.05            -2.5352e-009    0.00048122      3.594e-007     
  4.1             -2.3345e-009    0.00048296      3.5866e-007    
  4.15            -1.6701e-009    0.00048467      3.6017e-007    
  4.2             -2.4597e-009    0.00048632      3.6369e-007    
  4.25            -2.5183e-009    0.00048798      3.4754e-007    
  4.3             -2.4976e-009    0.00048949      3.5757e-007    
  4.35            -1.9961e-009    0.00049117      3.5921e-007    
  4.4             -1.3727e-009    0.00049259      3.6129e-007    
  4.45            8.532e-010      0.00049393      3.5887e-007    
  4.5             -6.528e-010     0.0004953       2.73e-009      
  4.55            -1.0039e-009    0.00049673      6.98e-009      
  4.6             -1.3602e-009    0.00049813      1.525e-008     
  4.65            -1.7012e-009    0.00049947      5.522e-008     
  4.7             -1.9633e-009    0.00050081      1.3855e-007    
  4.75            -2.3166e-009    0.00050222      2.2175e-007    
  4.8             -2.4913e-009    0.00050346      3.1281e-007    
  4.85            -2.533e-009     0.00050445      3.552e-007     
  4.9             -2.3662e-009    0.00050561      3.5931e-007    
  4.95            -1.7238e-009    0.00050676      3.594e-007     
  5               -2.4475e-009    0.00050785      3.6222e-007    
END_DB

BEGIN_DB
 ICCAP_VAR VS         0              
 ICCAP_VAR VB         0              
 ICCAP_VAR VD         5              

 #VG              IG              ID              IB             
  0               -4.192e-008     6.559e-008      9.508e-008     
  0.05            -1.19e-009      2.258e-008      4.947e-007     
  0.1             1.443e-009      3.86e-009       4.6858e-007    
  0.15            -4.2265e-007    1.14435e-007    -2.28e-009     
  0.2             -5.3123e-007    9.4417e-008     1.9759e-007    
  0.25            -3.4261e-007    9.252e-008      5.91e-009      
  0.3             -2.1396e-007    1.07765e-007    4.1183e-008    
  0.35            -1.276e-007     1.01741e-007    2.469e-008     
  0.4             1.12e-009       6.282e-009      1.05168e-007   
  0.45            -1.2678e-008    7.2181e-008     6.327e-009     
  0.5             -3.8273e-007    1.9151e-008     3.0607e-007    
  0.55            1.5e-009        9.1513e-008     2.8051e-007    
  0.6             -1.099e-008     1.0259e-007     2.6159e-007    
  0.65            -1.0866e-008    3.5069e-007     2.3932e-007    
  0.7             -4.65e-009      1.2207e-006     -3.58e-009     
  0.75            1.04e-009       3.8171e-006     -3.0503e-008   
  0.8             -1.4455e-008    1.0474e-005     -1.183e-008    
  0.85            -1.4972e-008    2.5231e-005     -1.4805e-007   
  0.9             -1.824e-007     5.1549e-005     -2.9784e-007   
  0.95            -3.418e-008     9.4395e-005     -4.762e-007    
  1               1.44e-009       0.00015212      -6.5792e-007   
  1.05            1.358e-009      0.00022451      -9.6229e-007   
  1.1             -7.6879e-008    0.00031239      -1.2989e-006   
  1.15            -4.5607e-008    0.00041399      -1.5893e-006   
  1.2             -1.691e-008     0.00052857      -1.848e-006    
  1.25            -8.332e-009     0.00065552      -2.0822e-006   
  1.3             -1.5214e-008    0.00079311      -2.2834e-006   
  1.35            -1.501e-008     0.0009406       -2.4414e-006   
  1.4             -1.379e-008     0.00109694      -2.5581e-006   
  1.45            -3.1808e-008    0.0012625       -2.6358e-006   
  1.5             -1.5229e-008    0.001435        -2.6691e-006   
  1.55            -1.5116e-008    0.0016143       -2.6699e-006   
  1.6             -1.436e-008     0.0018          -2.6357e-006   
  1.65            -3.0562e-008    0.0019918       -2.5699e-006   
  1.7             -1.5195e-008    0.0021893       -2.478e-006    
  1.75            -1.5095e-008    0.0023913       -2.3685e-006   
  1.8             -1.4287e-008    0.0025986       -2.2392e-006   
  1.85            -1.3421e-008    0.0028092       -2.0966e-006   
  1.9             -1.4737e-008    0.0030244       -1.9453e-006   
  1.95            -1.5172e-008    0.0032423       -1.7893e-006   
  2               -1.4608e-008    0.0034646       -1.6316e-006   
  2.05            -3.1835e-008    0.0036891       -1.4749e-006   
  2.1             -1.5035e-008    0.0039167       -1.3175e-006   
  2.15            -1.5123e-008    0.0041469       -1.1726e-006   
  2.2             -1.4492e-008    0.0043797       -1.0323e-006   
  2.25            -1.5075e-008    0.0046142       -9.0505e-007   
  2.3             -1.4749e-008    0.0048509       -7.7923e-007   
  2.35            -3.2541e-008    0.0050893       -6.6746e-007   
  2.4             -1.4742e-008    0.0053305       -5.6628e-007   
  2.45            -1.4999e-008    0.0055718       -4.7642e-007   
  2.5             -1.4583e-008    0.0058148       -3.9712e-007   
  2.55            -1.3346e-008    0.0060593       -3.2745e-007   
  2.6             -1.5513e-008    0.0063047       -2.6746e-007   
  2.65            -1.5228e-008    0.0065553       -2.1541e-007   
  2.7             -1.4934e-008    0.0068035       -1.7278e-007   
  2.75            -3.3508e-008    0.0070518       -1.3713e-007   
  2.8             -1.6428e-008    0.0073018       -1.0794e-007   
  2.85            -3.3773e-008    0.0075528       -8.5268e-008   
  2.9             -1.3243e-008    0.0078026       -6.4607e-008   
  2.95            -1.7936e-008    0.0080535       -4.8918e-008   
  3               -2.5394e-008    0.0083051       -3.6518e-008   
  3.05            -3.3325e-008    0.0085577       -2.7115e-008   
  3.1             -1.3213e-008    0.00881         -2.0144e-008   
  3.15            -1.5364e-008    0.0090625       -1.4405e-008   
  3.2             -1.3017e-008    0.0093156       -9.463e-009    
  3.25            -3.4077e-008    0.0095674       3.74e-009      
  3.3             -3.3395e-008    0.009821        6.991e-009     
  3.35            -2.9546e-008    0.0100735       9.442e-009     
  3.4             -2.3336e-008    0.0103271       1.0512e-008    
  3.45            -1.8338e-008    0.0105795       1.1538e-008    
  3.5             -1.44e-008      0.0108305       1.2644e-008    
  3.55            -3.3212e-008    0.0110824       1.0429e-008    
  3.6             -3.4055e-008    0.0113329       1.1836e-008    
  3.65            -3.3787e-008    0.011589        1.1682e-008    
  3.7             -3.3738e-008    0.01184         1.2636e-008    
  3.75            -3.0743e-008    0.012086        1.3587e-008    
  3.8             -2.5082e-008    0.012332        1.3561e-008    
  3.85            -1.9441e-008    0.012578        1.3499e-008    
  3.9             -2.572e-008     0.012821        1.3981e-008    
  3.95            -1.6987e-008    0.013061        1.4025e-008    
  4               -2.0428e-009    0.0133          9.245e-009     
  4.05            -2.0631e-009    0.013534        1.3745e-008    
  4.1             -1.4517e-009    0.013765        3.35e-009      
  4.15            -1.4797e-009    0.013994        7.07e-009      
  4.2             -1.5026e-009    0.014216        1.2484e-008    
  4.25            -2.0773e-009    0.014437        1.3704e-008    
  4.3             -1.5285e-009    0.014653        2.654e-009     
  4.35            -1.4414e-009    0.014862        5.02e-009      
  4.4             -1.4989e-009    0.015067        1.0383e-008    
  4.45            -1.4799e-009    0.015263        1.3924e-008    
  4.5             -1.7475e-009    0.015457        1.4061e-008    
  4.55            -1.4283e-009    0.015642        3.522e-009     
  4.6             -1.4776e-009    0.015823        7.479e-009     
  4.65            -1.498e-009     0.016           1.2704e-008    
  4.7             -2.0188e-009    0.016168        1.3588e-008    
  4.75            -1.4942e-009    0.016333        2.99e-009      
  4.8             -1.4445e-009    0.016497        5.481e-009     
  4.85            -1.4963e-009    0.016649        1.0879e-008    
  4.9             -1.4752e-009    0.016803        1.4003e-008    
  4.95            -1.6944e-009    0.016951        1.4073e-008    
  5               -1.4242e-009    0.017094        3.632e-009     
END_DB

BEGIN_DB
 ICCAP_VAR VS         0              
 ICCAP_VAR VB         -2.5           
 ICCAP_VAR VD         0.1            

 #VG              IG              ID              IB             
  0               -2.8149e-009    -1.2213e-008    1.3675e-008    
  0.05            -1.2e-011       -1.305e-008     1.3427e-008    
  0.1             7.85e-011       -1.1895e-008    1.2995e-008    
  0.15            -1.7266e-009    -1.6656e-008    1.2652e-008    
  0.2             -1.6965e-009    -1.8391e-008    1.2194e-008    
  0.25            -8.662e-010     -1.3315e-008    1.1756e-008    
  0.3             -8.166e-010     -1.3398e-008    1.5579e-008    
  0.35            -7.689e-010     -1.3722e-008    1.4731e-008    
  0.4             -7.145e-010     -1.3725e-008    1.4457e-008    
  0.45            -6.488e-010     -1.389e-008     1.4212e-008    
  0.5             -5.631e-010     -1.4203e-008    1.3976e-008    
  0.55            -5.004e-010     -1.4864e-008    1.3549e-008    
  0.6             -4.197e-010     -1.5486e-008    1.3639e-008    
  0.65            -3.405e-010     -1.5576e-008    1.3708e-008    
  0.7             -2.574e-010     -1.5809e-008    1.4019e-008    
  0.75            -1.749e-010     -1.5353e-008    1.398e-008     
  0.8             -9.09e-011      -1.4468e-008    1.3926e-008    
  0.85            -5.1e-012       -1.345e-008     1.3497e-008    
  0.9             7.05e-011       -1.2321e-008    1.3125e-008    
  0.95            1.333e-010      -1.0924e-008    1.2587e-008    
  1               -9.224e-010     -1.3595e-008    1.2347e-008    
  1.05            -8.79e-010      -1.214e-008     1.1839e-008    
  1.1             -8.32e-010      -8.411e-009     1.5809e-008    
  1.15            -1.4643e-009    2.2902e-008     1.4855e-008    
  1.2             -1.3049e-009    7.1604e-008     4.605e-009     
  1.25            -4.135e-010     2.0772e-007     1.204e-008     
  1.3             -1.9892e-009    7.931e-007      1.3711e-008    
  1.35            2.3096e-009     2.6761e-006     1.4095e-008    
  1.4             -1.4341e-009    8.6288e-006     1.5245e-008    
  1.45            1.3167e-009     2.1311e-005     2.944e-009     
  1.5             -2.0789e-009    4.3109e-005     1.3886e-008    
  1.55            -1.4778e-009    6.9526e-005     2.256e-009     
  1.6             -1.3089e-009    9.7058e-005     4.277e-009     
  1.65            -1.2387e-009    0.00012276      9.743e-009     
  1.7             -1.7554e-009    0.00014621      1.3779e-008    
  1.75            -1.3357e-009    0.00016695      3.243e-009     
  1.8             -1.3156e-009    0.00018569      6.601e-009     
  1.85            -1.282e-009     0.00020249      1.2229e-008    
  1.9             -2.0733e-009    0.00021764      1.3932e-008    
  1.95            -1.4698e-009    0.00023138      2.249e-009     
  2               -1.3049e-009    0.00024411      4.614e-009     
  2.05            -1.3103e-009    0.00025581      9.455e-009     
  2.1             -1.2298e-009    0.00026674      1.3432e-008    
  2.15            -1.7465e-009    0.00027676      1.3787e-008    
  2.2             -1.3323e-009    0.00028617      3.131e-009     
  2.25            -1.3153e-009    0.00029504      6.694e-009     
  2.3             -1.2803e-009    0.0003034       1.2328e-008    
  2.35            -2.058e-009     0.00031125      1.3834e-008    
  2.4             -1.4587e-009    0.00031856      2.349e-009     
  2.45            -1.3003e-009    0.00032553      4.362e-009     
  2.5             -1.313e-009     0.00033228      9.523e-009     
  2.55            -1.2305e-009    0.00033873      1.3658e-008    
  2.6             -1.729e-009     0.00034467      1.3924e-008    
  2.65            -1.3264e-009    0.00035052      3.222e-009     
  2.7             -1.3138e-009    0.00035603      6.698e-009     
  2.75            -1.2767e-009    0.00036135      1.2375e-008    
  2.8             -2.0385e-009    0.00036645      1.3849e-008    
  2.85            -1.4482e-009    0.00037121      2.539e-009     
  2.9             -1.2995e-009    0.00037592      4.67e-009      
  2.95            -1.3117e-009    0.00038032      9.695e-009     
  3               -1.2269e-009    0.00038471      1.3818e-008    
  3.05            -1.716e-009     0.00038883      1.3949e-008    
  3.1             -1.3217e-009    0.0003928       3.437e-009     
  3.15            -1.3152e-009    0.00039664      6.743e-009     
  3.2             -1.2773e-009    0.00040039      1.2253e-008    
  3.25            -2.0428e-009    0.00040399      1.3754e-008    
  3.3             -1.4461e-009    0.00040739      2.533e-009     
  3.35            -1.3012e-009    0.00041078      4.615e-009     
  3.4             -1.311e-009     0.00041397      9.736e-009     
  3.45            -1.2239e-009    0.00041718      1.3731e-008    
  3.5             -1.7251e-009    0.00042018      1.3722e-008    
  3.55            -1.3191e-009    0.00042309      3.255e-009     
  3.6             -1.3167e-009    0.00042597      6.823e-009     
  3.65            -1.2771e-009    0.00042872      1.245e-008     
  3.7             -2.0361e-009    0.00043146      1.3959e-008    
  3.75            -1.4364e-009    0.00043394      2.6e-009       
  3.8             -1.3034e-009    0.00043648      4.481e-009     
  3.85            -1.3109e-009    0.0004389       9.84e-009      
  3.9             -1.2182e-009    0.00044136      1.4065e-008    
  3.95            -1.6869e-009    0.00044361      1.3416e-008    
  4               -1.3154e-009    0.00044584      3.079e-009     
  4.05            -1.3203e-009    0.00044797      6.831e-009     
  4.1             -1.2731e-009    0.00045013      1.2797e-008    
  4.15            -2.0133e-009    0.00045226      1.3574e-008    
