! VERSION = 6.00
BEGIN_HEADER
 ICCAP_INPUTS
  VG         V  B GROUND SMU4 0.001 LIN        2    0          5          6    1         
  VS         V  E GROUND SMU2 0.1 CON        0
  VD         V  S GROUND SMU1 0.1 LIN        1    0          5          101  0.05      
  VB         V  C GROUND SMU3 0.1 LIN        3    0          -2.5       2    -2.5      
 ICCAP_OUTPUTS
  ID         I  S GROUND SMU1 B
  IB         I  C GROUND SMU3 B
  IG         I  B GROUND SMU4 B
END_HEADER

BEGIN_DB
 ICCAP_VAR VG         0              
 ICCAP_VAR VS         0              
 ICCAP_VAR VB         0              

 #VD              ID              IB              IG             
  0               -3.566e-008     1.696e-008      1.784e-010     
  0.05            -2.1849e-007    4.1258e-007     -1.8123e-009   
  0.1             -3.8e-008       4.0451e-007     -6.701e-009    
  0.15            -2.5742e-007    -1.47e-009      -4.38e-008     
  0.2             -5.2895e-008    4.2856e-007     -1.2187e-007   
  0.25            1.0019e-008     4.3719e-007     3e-010         
  0.3             3.36e-010       4.3371e-007     -4.6867e-007   
  0.35            5.1921e-008     3.1821e-007     -2.2333e-007   
  0.4             2.1811e-008     4.4925e-007     -1.833e-008    
  0.45            1.759e-009      4.3557e-007     -6.879e-008    
  0.5             5.7397e-008     -7e-010         -2.5792e-007   
  0.55            2.5868e-008     4.5081e-007     -2.74e-008     
  0.6             2.124e-009      4.3743e-007     -6.794e-008    
  0.65            5.7924e-008     1.1e-010        -2.8943e-007   
  0.7             3.003e-008      4.5167e-007     -4.103e-008    
  0.75            2.945e-009      4.3755e-007     -6.726e-008    
  0.8             5.7741e-008     1.06e-009       -3.2138e-007   
  0.85            3.3982e-008     4.4808e-007     -6.191e-008    
  0.9             4.394e-009      4.3652e-007     -6.758e-008    
  0.95            5.6673e-008     3.07e-009       -3.5425e-007   
  1               2.7791e-008     8.62e-008       -9.993e-008    
  1.05            8.354e-009      4.3926e-007     9.6e-010       
  1.1             3.75e-010       4.1681e-007     1.8e-009       
  1.15            2.387e-008      4.4793e-007     -1.0631e-008   
  1.2             4.367e-008      4.2868e-007     -4.9617e-007   
  1.25            5.9611e-008     1.9962e-007     7.3e-010       
  1.3             4.16e-010       4.2537e-007     1.119e-009     
  1.35            4.4868e-008     -1.39e-009      7.2e-010       
  1.4             4.18e-010       4.2575e-007     1.11e-009      
  1.45            5.4518e-008     3.858e-007      -4.9707e-007   
  1.5             5.982e-008      2.3802e-007     9.9e-010       
  1.55            3.92e-010       4.13e-007       -3.305e-007    
  1.6             6.1581e-008     2.259e-007      -1.977e-008    
  1.65            1.799e-009      4.3787e-007     -7.12e-008     
  1.7             6.1117e-008     -5.7e-010       -2.6216e-007   
  1.75            2.7853e-008     4.495e-007      -2.81e-008     
  1.8             2.191e-009      4.376e-007      -7.107e-008    
  1.85            6.1534e-008     1.8e-010        -2.9613e-007   
  1.9             3.2224e-008     4.481e-007      -4.157e-008    
  1.95            3.162e-009      4.3784e-007     -6.926e-008    
  2               6.0906e-008     1.37e-009       -3.2578e-007   
  2.05            3.608e-008      4.4581e-007     -6.37e-008     
  2.1             4.847e-009      4.3764e-007     -6.831e-008    
  2.15            5.9893e-008     3.36e-009       -3.5856e-007   
  2.2             2.8946e-008     8.757e-008      -9.455e-008    
  2.25            7.848e-009      4.3913e-007     8.7e-010       
  2.3             4.41e-010       4.1914e-007     -5.195e-007    
  2.35            2.3706e-008     4.241e-008      -1.5086e-007   
  2.4             1.4269e-008     4.4052e-007     3.3e-010       
  2.45            5.56e-010       4.3511e-007     -4.7502e-007   
  2.5             5.7785e-008     3.3541e-007     -7.92e-008     
  2.55            6.264e-008      1.5076e-007     -8.1e-010      
  2.6             6.95e-010       4.3597e-007     -1.055e-008    
  2.65            5.3327e-008     2.9371e-007     -4.34e-007     
  2.7             5.1599e-008     3.9362e-007     -1.532e-007    
  2.75            1.5277e-008     4.461e-007      -1.239e-008    
  2.8             1.565e-009      4.3819e-007     -4.8373e-007   
  2.85            2.9325e-008     8.676e-008      -1.0747e-007   
  2.9             9.582e-009      4.3884e-007     8.3e-010       
  2.95            4.85e-010       4.2036e-007     -5.221e-007    
  3               2.4333e-008     5.253e-008      -1.5378e-007   
  3.05            1.4854e-008     4.4117e-007     2.3e-010       
  3.1             5.85e-010       4.3458e-007     -4.8164e-007   
  3.15            5.9246e-008     3.2982e-007     -7.682e-008    
  3.2             6.3912e-008     1.4897e-007     -1.17e-009     
  3.25            7.42e-010       4.362e-007      -1.054e-008    
  3.3             5.3485e-008     2.9587e-007     -4.3769e-007   
  3.35            5.3446e-008     3.9016e-007     -1.5766e-007   
  3.4             1.6159e-008     4.4411e-007     -1.259e-008    
  3.45            1.574e-009      4.3837e-007     -7.771e-008    
  3.5             6.4267e-008     1.3856e-007     -3.87e-009     
  3.55            1.111e-009      4.3841e-007     -1.051e-008    
  3.6             4.7978e-008     3.2684e-007     -4.6936e-007   
  3.65            5.7745e-008     3.5257e-007     -1.1477e-007   
  3.7             6.4941e-008     1.4534e-007     -1.75e-009     
  3.75            8.5e-010        4.3754e-007     -1.048e-008    
  3.8             5.2447e-008     3.0773e-007     -4.5183e-007   
  3.85            5.5654e-008     3.8104e-007     -1.3941e-007   
  3.9             6.4909e-008     1.7895e-007     2.5e-010       
  3.95            6.22e-010       4.3547e-007     -4.7723e-007   
  4               5.9834e-008     3.3495e-007     -9.937e-008    
  4.05            6.5134e-008     1.5319e-007     -6.7e-010      
  4.1             7.98e-010       4.3729e-007     -1.061e-008    
  4.15            5.5677e-008     2.912e-007      -4.3537e-007   
  4.2             5.3557e-008     3.9501e-007     -1.521e-007    
  4.25            1.5765e-008     4.447e-007      -1.225e-008    
  4.3             1.572e-009      4.3848e-007     -4.8971e-007   
  4.35            3.0616e-008     8.81e-008       -1.0734e-007   
  4.4             9.795e-009      4.4054e-007     8.1e-010       
  4.45            5.44e-010       4.2127e-007     -5.165e-007    
  4.5             2.5245e-008     5.143e-008      -1.452e-007    
  4.55            1.4284e-008     4.3998e-007     3e-010         
  4.6             6.61e-010       4.3465e-007     -4.8138e-007   
  4.65            6.0765e-008     3.3035e-007     -7.912e-008    
  4.7             6.6212e-008     1.393e-007      -3.5e-009      
  4.75            1.115e-009      4.3735e-007     -1.038e-008    
  4.8             5.006e-008      3.2365e-007     -4.6612e-007   
  4.85            5.9365e-008     3.5916e-007     -1.1742e-007   
  4.9             6.6257e-008     1.6406e-007     -1.8e-010      
  4.95            7.08e-010       4.3475e-007     -4.8993e-007   
  5               6.2903e-008     3.0809e-007     -7.222e-008    
END_DB

BEGIN_DB
 ICCAP_VAR VG         1              
 ICCAP_VAR VS         0              
 ICCAP_VAR VB         0              

 #VD              ID              IB              IG             
  0               -4.2754e-007    1.968e-008      -5.994e-010    
  0.05            2.0605e-005     1.14004e-007    -1.1639e-009   
  0.1             3.561e-005      5.982e-008      -1.8202e-009   
  0.15            4.4995e-005     2.667e-008      1.7547e-009    
  0.2             5.119e-005      6.3e-010        -1.4172e-009   
  0.25            5.3308e-005     7.73e-009       1.1638e-009    
  0.3             5.4512e-005     7.6e-009        -1.315e-009    
  0.35            5.5595e-005     9.116e-008      -2.5041e-009   
  0.4             5.582e-005      7.381e-008      2.429e-009     
  0.45            5.6198e-005     4.465e-008      -2.0194e-009   
  0.5             5.6157e-005     1.1153e-007     1.5806e-009    
  0.55            5.6557e-005     3.764e-008      -2.0635e-009   
  0.6             5.6704e-005     3.3968e-008     -2.0855e-009   
  0.65            5.7173e-005     3.4303e-008     -2.0493e-009   
  0.7             5.6651e-005     8.63e-009       1.9349e-009    
  0.75            5.6758e-005     9.634e-008      1.6047e-009    
  0.8             5.7146e-005     8.775e-009      -2.0425e-009   
  0.85            5.7692e-005     2.181e-008      -2.1087e-009   
  0.9             5.7015e-005     6.858e-009      1.8663e-009    
  0.95            5.7123e-005     6.2216e-008     1.6759e-009    
  1               5.7521e-005     -1.059e-009     -2.0184e-009   
  1.05            5.8094e-005     1.4878e-008     -2.2559e-009   
  1.1             5.7275e-005     6.958e-009      1.3059e-009    
  1.15            5.7147e-005     4.4434e-008     -2.8397e-009   
  1.2             5.7782e-005     2.3363e-008     -3.1947e-008   
  1.25            5.7867e-005     4.7144e-008     -4.7886e-008   
  1.3             5.798e-005      4.8604e-008     -5.1783e-008   
  1.35            5.8e-005        4.8461e-008     -5.281e-008    
  1.4             5.8114e-005     4.5194e-008     -5.3806e-008   
  1.45            5.8201e-005     4.6456e-008     -5.4775e-008   
  1.5             5.8257e-005     4.7485e-008     -5.6165e-008   
  1.55            5.8302e-005     4.801e-008      -5.3838e-008   
  1.6             5.8376e-005     4.7942e-008     -5.047e-008    
  1.65            5.8461e-005     4.8331e-008     -5.2537e-008   
  1.7             5.8544e-005     4.8098e-008     -5.2235e-008   
  1.75            5.8586e-005     4.8918e-008     -5.2515e-008   
  1.8             5.8637e-005     5.0043e-008     -5.3718e-008   
  1.85            5.8731e-005     4.9797e-008     -5.4276e-008   
  1.9             5.8756e-005     4.8638e-008     -5.4914e-008   
  1.95            5.8831e-005     4.7411e-008     -5.6543e-008   
  2               5.8923e-005     4.8393e-008     -5.6376e-008   
  2.05            5.8957e-005     4.7612e-008     -5.5658e-008   
  2.1             5.9009e-005     4.8679e-008     -5.2635e-008   
  2.15            5.9112e-005     4.891e-008      -5.2932e-008   
  2.2             5.9127e-005     4.8306e-008     -5.3591e-008   
  2.25            5.9223e-005     4.907e-008      -5.3811e-008   
  2.3             5.9241e-005     4.9324e-008     -5.6159e-008   
  2.35            5.9368e-005     5.1324e-008     -5.4706e-008   
  2.4             5.9348e-005     4.9849e-008     -5.5839e-008   
  2.45            5.9449e-005     4.7611e-008     -5.5719e-008   
  2.5             5.9492e-005     4.7619e-008     -5.7212e-008   
  2.55            5.9555e-005     4.8536e-008     -5.7621e-008   
  2.6             5.9663e-005     4.8993e-008     -5.4054e-008   
  2.65            5.9647e-005     4.8277e-008     -5.024e-008    
  2.7             5.9721e-005     4.783e-008      -5.4487e-008   
  2.75            5.9784e-005     4.8141e-008     -5.6902e-008   
  2.8             5.9833e-005     4.8576e-008     -5.5007e-008   
  2.85            5.9932e-005     4.8204e-008     -5.4405e-008   
  2.9             5.9914e-005     4.7215e-008     -5.6171e-008   
  2.95            6.0008e-005     4.4362e-008     -5.695e-008    
  3               6.0106e-005     4.5588e-008     -5.825e-008    
  3.05            6.011e-005      4.4725e-008     -5.8036e-008   
  3.1             6.0178e-005     4.4404e-008     -5.6797e-008   
  3.15            6.0185e-005     3.1616e-008     -5.9892e-008   
  3.2             6.0239e-005     2.8884e-008     -5.985e-008    
  3.25            6.0251e-005     2.8924e-008     -5.8586e-008   
  3.3             6.0388e-005     -1.4252e-008    1.477e-009     
  3.35            6.0393e-005     3.7011e-008     -2.1049e-008   
  3.4             6.0577e-005     2.649e-009      -1.949e-008    
  3.45            6.0667e-005     8.3e-011        -1.8959e-008   
  3.5             6.0516e-005     -2.454e-009     -1.8659e-008   
  3.55            6.0566e-005     -1.0986e-008    -1.8742e-008   
  3.6             6.0668e-005     -2.4815e-008    -5.8284e-008   
  3.65            6.0724e-005     -2.9403e-008    1.482e-009     
  3.7             6.0733e-005     1.6653e-008     -2.1833e-008   
  3.75            6.0719e-005     -2.2914e-008    -4.7815e-008   
  3.8             6.0959e-005     -3.9147e-008    -5.5776e-008   
  3.85            6.0963e-005     -4.3845e-008    1.394e-009     
  3.9             6.075e-005      -1.7907e-008    -2.6402e-008   
  3.95            6.1052e-005     -3.9555e-008    -5.8455e-008   
  4               6.1119e-005     -5.908e-008     1.505e-009     
  4.05            6.1062e-005     -1.9282e-008    -2.1978e-008   
  4.1             6.1132e-005     -5.8053e-008    -4.8653e-008   
  4.15            6.129e-005      -7.7366e-008    -5.5031e-008   
  4.2             6.1323e-005     -8.5234e-008    1.399e-009     
  4.25            6.1126e-005     -6.2921e-008    -2.6578e-008   
  4.3             6.1318e-005     -8.957e-008     -5.8128e-008   
  4.35            6.1468e-005     -1.11233e-007   1.51e-009      
  4.4             6.1483e-005     -7.328e-008     -6.0247e-008   
  4.45            6.1521e-005     -1.1871e-007    -2.8034e-008   
  4.5             6.1658e-005     -1.4159e-007    -5.7186e-008   
  4.55            6.1705e-005     -1.5515e-007    1.531e-009     
  4.6             6.1647e-005     -1.2429e-007    -2.3859e-008   
  4.65            6.1697e-005     -1.6831e-007    -5.5301e-008   
  4.7             6.1892e-005     -1.955e-007     -5.6551e-008   
  4.75            6.1971e-005     -2.1097e-007    1.236e-009     
  4.8             6.1763e-005     -2.009e-007     -2.7236e-008   
  4.85            6.196e-005      -2.3299e-007    -5.8337e-008   
  4.9             6.2098e-005     -2.6377e-007    1.499e-009     
  4.95            6.2085e-005     -2.3994e-007    -2.3833e-008   
  5               6.2094e-005     -2.9035e-007    -5.4706e-008   
END_DB

BEGIN_DB
 ICCAP_VAR VG         2              
 ICCAP_VAR VS         0              
 ICCAP_VAR VB         0              

 #VD              ID              IB              IG             
  0               -1.3267e-006    1.424e-008      -3.401e-010    
  0.05            7.6338e-005     2.7419e-007     -2.0114e-009   
  0.1             0.00015165      5.839e-008      1.115e-009     
  0.15            0.00022545      2.1633e-007     -2.1333e-009   
  0.2             0.00029769      4.463e-008      2.0487e-009    
  0.25            0.00036837      2.015e-008      -1.7136e-009   
  0.3             0.00043713      1.253e-008      1.6631e-009    
  0.35            0.00050478      -1.58e-009      -1.4361e-009   
  0.4             0.00057028      -5.12e-010      -2.0486e-009   
  0.45            0.00063377      3.077e-008      -1.8188e-009   
  0.5             0.00069518      3.639e-008      2.1715e-009    
  0.55            0.00075513      1.0224e-007     -1.4487e-009   
  0.6             0.00081213      5.011e-008      2.3087e-009    
  0.65            0.00086694      3.496e-008      -1.3437e-009   
  0.7             0.00091995      5.568e-008      2.3547e-009    
  0.75            0.00097018      7.0845e-008     2.4409e-009    
  0.8             0.00101754      9.7664e-008     1.6136e-009    
  0.85            0.00106294      1.7374e-008     -2.1407e-009   
  0.9             0.00110551      1.5751e-008     -1.7507e-009   
  0.95            0.0011453       9.582e-009      -1.548e-009    
  1               0.001181        1.1466e-008     2.1615e-009    
  1.05            0.0012141       5.6461e-008     2.2383e-009    
  1.1             0.0012448       -2.325e-009     -1.841e-009    
  1.15            0.0012725       2.4893e-008     -1.249e-009    
  1.2             0.0012958       3.1027e-008     2.5552e-009    
  1.25            0.0013171       3.2064e-008     2.6484e-009    
  1.3             0.0013353       2.186e-008      2.0658e-009    
  1.35            0.0013519       -2.382e-009     -1.8863e-009   
  1.4             0.0013667       1.3383e-008     -2.1474e-009   
  1.45            0.0013759       6.889e-009      1.8158e-009    
  1.5             0.0013872       2.2294e-008     -1.2998e-009   
  1.55            0.0013953       1.7145e-008     -1.5429e-009   
  1.6             0.0014025       1.394e-008      -1.9969e-009   
  1.65            0.0014083       2.1518e-008     -1.3183e-009   
  1.7             0.0014132       1.6714e-008     -1.5969e-009   
  1.75            0.0014179       1.3639e-008     -2.0667e-009   
  1.8             0.001421        2.0702e-008     -1.3399e-009   
  1.85            0.0014247       1.6216e-008     -1.6491e-009   
  1.9             0.0014282       1.3547e-008     -2.1292e-009   
  1.95            0.0014305       1.9899e-008     -1.3691e-009   
  2               0.0014335       1.5745e-008     -1.7133e-009   
  2.05            0.0014359       2.4514e-008     -1.2715e-009   
  2.1             0.0014378       1.937e-008      -1.4039e-009   
  2.15            0.0014402       1.5382e-008     -1.7935e-009   
  2.2             0.0014422       1.2864e-008     -2.3628e-009   
  2.25            0.0014433       1.8678e-008     -1.9659e-009   
  2.3             0.0014455       1.4726e-008     -5.2091e-009   
  2.35            0.0014469       2.3524e-008     -6.6835e-009   
  2.4             0.0014473       1.2353e-008     -2.2638e-008   
  2.45            0.001449        1.7945e-008     -2.3921e-008   
  2.5             0.0014505       1.8366e-008     -2.442e-008    
  2.55            0.0014521       1.8647e-008     -2.483e-008    
  2.6             0.0014532       1.9013e-008     -2.5166e-008   
  2.65            0.0014548       1.9449e-008     -2.5452e-008   
  2.7             0.0014562       1.9933e-008     -2.5881e-008   
  2.75            0.0014574       2.0305e-008     -2.6172e-008   
  2.8             0.0014591       2.0924e-008     -2.6419e-008   
  2.85            0.0014599       2.1275e-008     -2.6661e-008   
  2.9             0.0014615       2.1671e-008     -2.6753e-008   
  2.95            0.0014625       2.2211e-008     -2.6903e-008   
  3               0.0014637       2.2613e-008     -2.674e-008    
  3.05            0.0014649       2.3028e-008     -1.7268e-008   
  3.1             0.0014661       1.243e-008      -1.7643e-008   
  3.15            0.0014675       1.2603e-008     -1.763e-008    
  3.2             0.0014686       1.2627e-008     -1.7861e-008   
  3.25            0.0014699       1.2755e-008     -1.8002e-008   
  3.3             0.0014705       1.2575e-008     -1.8206e-008   
  3.35            0.0014718       1.2273e-008     -1.8306e-008   
  3.4             0.001473        1.1966e-008     -1.8647e-008   
  3.45            0.0014741       1.1585e-008     -1.8638e-008   
  3.5             0.0014754       1.1006e-008     -1.8714e-008   
  3.55            0.001476        1.0175e-008     -1.8734e-008   
  3.6             0.0014774       8.943e-009      -2.0205e-008   
  3.65            0.001478        8.598e-009      -2.0839e-008   
  3.7             0.0014793       6.944e-009      -1.5729e-008   
  3.75            0.00148         -9.608e-009     -1.88e-008     
  3.8             0.0014809       -7.026e-009     -1.7561e-008   
  3.85            0.001482        -1.1237e-008    -2.4639e-008   
  3.9             0.0014825       -1.9446e-008    -1.8935e-008   
  3.95            0.0014837       -2.7981e-008    -1.8083e-008   
  4               0.0014845       -2.8503e-008    -2.6799e-008   
  4.05            0.0014854       -4.2137e-008    -1.4604e-008   
  4.1             0.0014865       -5.293e-008     -1.9239e-008   
  4.15            0.0014877       -5.8711e-008    -1.732e-008    
