! VERSION = 6.00
BEGIN_HEADER
 ICCAP_INPUTS
  VG         V  B GROUND SMU4 0.001 LIN        2    0          5          6    1         
  VS         V  E GROUND SMU2 0.1 CON        0
  VD         V  S GROUND SMU1 0.1 LIN        1    0          5          101  0.05      
  VB         V  C GROUND SMU3 0.1 LIN        3    0          -2.5       2    -2.5      
 ICCAP_OUTPUTS
  ID         I  S GROUND SMU1 B
  IB         I  C GROUND SMU3 B
  IG         I  B GROUND SMU4 B
END_HEADER

BEGIN_DB
 ICCAP_VAR VG         0              
 ICCAP_VAR VS         0              
 ICCAP_VAR VB         0              

 #VD              ID              IB              IG             
  0               -3.825e-010     -1.6648e-008    -9.491e-010    
  0.05            4.121e-010      8.499e-009      -2.621e-009    
  0.1             -6.165e-010     -2.3353e-008    2.7122e-009    
  0.15            1.3856e-009     1.8227e-008     -1.6471e-009   
  0.2             1.966e-010      4.415e-009      -1.4385e-009   
  0.25            2.951e-010      6.051e-009      -1.3205e-009   
  0.3             4.099e-010      7.938e-009      -2.5971e-009   
  0.35            -5.118e-010     -2.2724e-008    2.7511e-009    
  0.4             1.3461e-009     1.7093e-008     -1.7801e-009   
  0.45            1.391e-010      3.961e-009      -1.5337e-009   
  0.5             2.414e-010      5.149e-009      -1.378e-009    
  0.55            3.621e-010      7.156e-009      -2.5661e-009   
  0.6             1.5895e-009     -1.2316e-008    2.3419e-009    
  0.65            1.307e-009      1.5875e-008     -1.9204e-009   
  0.7             -1.0664e-009    3.202e-009      1.582e-009     
  0.75            1.5392e-009     -9.031e-009     2.527e-009     
  0.8             7.573e-010      9.783e-009      -2.6072e-009   
  0.85            -1.311e-010     -1.7237e-008    2.1019e-009    
  0.9             1.6046e-009     -6.396e-009     2.3373e-009    
  0.95            1.3082e-009     1.5744e-008     -1.9372e-009   
  1               -1.0418e-009    3.112e-009      1.6047e-009    
  1.05            1.5571e-009     -8.986e-009     2.5205e-009    
  1.1             7.672e-010      9.843e-009      -2.6048e-009   
  1.15            -1.071e-010     -1.7115e-008    2.1261e-009    
  1.2             1.6201e-009     -6.243e-009     2.3261e-009    
  1.25            1.3308e-009     1.558e-008      -1.9567e-009   
  1.3             -5.665e-010     -2.3419e-008    2.6822e-009    
  1.35            1.4991e-009     1.8899e-008     -1.5975e-009   
  1.4             2.875e-010      4.749e-009      -1.3979e-009   
  1.45            3.902e-010      6.753e-009      -1.3029e-009   
  1.5             5.014e-010      8.15e-009       -2.6125e-009   
  1.55            -4.934e-010     -2.3093e-008    2.7313e-009    
  1.6             1.4515e-009     1.7623e-008     -1.7097e-009   
  1.65            2.424e-010      4.333e-009      -1.4811e-009   
  1.7             3.493e-010      5.513e-009      -1.3446e-009   
  1.75            4.489e-010      7.6e-009        -2.5862e-009   
  1.8             -4.291e-010     -2.2505e-008    2.7638e-009    
  1.85            1.3901e-009     1.6567e-008     -1.8384e-009   
  1.9             1.6072e-009     -1.4217e-008    2.4425e-009    
  1.95            1.4647e-009     1.8064e-008     -1.6507e-009   
  2               2.758e-010      4.534e-009      -1.439e-009    
  2.05            3.761e-010      6.086e-009      -1.3227e-009   
  2.1             4.829e-010      7.826e-009      -2.5974e-009   
  2.15            -4.514e-010     -2.2824e-008    2.7495e-009    
  2.2             1.4075e-009     1.695e-008      -1.781e-009    
  2.25            2.269e-010      3.766e-009      -1.53e-009     
  2.3             3.34e-010       5.143e-009      -1.3758e-009   
  2.35            4.351e-010      6.871e-009      -1.291e-009    
  2.4             5.412e-010      8.491e-009      -2.6142e-009   
  2.45            -5.073e-010     -2.3292e-008    2.716e-009     
  2.5             1.4845e-009     1.8171e-008     -1.6551e-009   
  2.55            2.862e-010      4.301e-009      -1.4452e-009   
  2.6             3.925e-010      5.923e-009      -1.3242e-009   
  2.65            5.019e-010      7.947e-009      -2.5931e-009   
  2.7             -4.346e-010     -2.2744e-008    2.7516e-009    
  2.75            1.4396e-009     1.68e-008       -1.7887e-009   
  2.8             2.446e-010      3.626e-009      -1.5408e-009   
  2.85            3.436e-010      5.085e-009      -1.3793e-009   
  2.9             4.542e-010      7.125e-009      -1.293e-009    
  2.95            5.534e-010      8.166e-009      -2.6154e-009   
  3               -4.958e-010     -2.3393e-008    2.7143e-009    
  3.05            1.4858e-009     1.7992e-008     -1.6671e-009   
  3.1             2.973e-010      4.478e-009      -1.4523e-009   
  3.15            3.926e-010      5.831e-009      -1.3303e-009   
  3.2             5e-010          7.859e-009      -2.5927e-009   
  3.25            -4.093e-010     -2.2719e-008    2.753e-009     
  3.3             1.4426e-009     1.6863e-008     -1.7994e-009   
  3.35            2.45e-010       3.894e-009      -1.5421e-009   
  3.4             3.472e-010      4.968e-009      -1.3801e-009   
  3.45            4.548e-010      6.772e-009      -1.2937e-009   
  3.5             5.593e-010      8.31e-009       -2.6202e-009   
  3.55            -4.686e-010     -2.3316e-008    2.7193e-009    
  3.6             1.5001e-009     1.7974e-008     -1.67e-009     
  3.65            3.038e-010      4.363e-009      -1.4599e-009   
  3.7             3.965e-010      5.913e-009      -1.3318e-009   
  3.75            5.107e-010      7.603e-009      -2.5906e-009   
  3.8             -3.955e-010     -2.2726e-008    2.7613e-009    
  3.85            1.4473e-009     1.6754e-008     -1.803e-009    
  3.9             2.461e-010      3.836e-009      -1.5507e-009   
  3.95            3.44e-010       4.987e-009      -1.3837e-009   
  4               4.612e-010      6.856e-009      -1.2934e-009   
  4.05            5.727e-010      8.323e-009      -2.6137e-009   
  4.1             -4.6e-010       -2.3223e-008    2.7195e-009    
  4.15            1.5119e-009     1.7947e-008     -1.6799e-009   
  4.2             3.201e-010      4.32e-009       -1.4566e-009   
  4.25            4.131e-010      5.811e-009      -1.3354e-009   
  4.3             5.299e-010      7.773e-009      -2.5929e-009   
  4.35            -3.796e-010     -2.26e-008      2.7507e-009    
  4.4             1.469e-009      1.6604e-008     -1.8141e-009   
  4.45            2.51e-010       3.851e-009      -1.5571e-009   
  4.5             3.565e-010      4.934e-009      -1.3892e-009   
  4.55            4.677e-010      6.684e-009      -2.5592e-009   
  4.6             -3.1e-010       -2.1902e-008    1.4526e-009    
  4.65            1.6216e-009     -8.582e-009     2.5913e-009    
  4.7             9.39e-010       9.905e-009      -2.5675e-009   
  4.75            -8.279e-010     -1.662e-008     2.1422e-009    
  4.8             1.7069e-009     -6.394e-009     2.3225e-009    
  4.85            1.3802e-009     1.5265e-008     -1.9757e-009   
  4.9             -4.932e-010     -2.3429e-008    2.6878e-009    
  4.95            1.5517e-009     1.8611e-008     -1.6038e-009   
  5               3.558e-010      4.601e-009      -1.4117e-009   
END_DB

BEGIN_DB
 ICCAP_VAR VG         1              
 ICCAP_VAR VS         0              
 ICCAP_VAR VB         0              

 #VD              ID              IB              IG             
  0               -3.8181e-007    -9.356e-009     2.7816e-009    
  0.05            2.5876e-005     1.2425e-008     -6.464e-010    
  0.1             4.67e-005       5.74e-009       -2.6096e-009   
  0.15            5.8864e-005     1.8009e-008     -1.4011e-009   
  0.2             7.3532e-005     6.702e-009      1.0615e-009    
  0.25            7.9912e-005     -9.149e-009     2.7291e-009    
  0.3             8.7775e-005     -1.5006e-008    2.1256e-009    
  0.35            9.2e-005        -9.644e-009     -7.825e-010    
  0.4             9.8372e-005     7.206e-009      -2.6324e-009   
  0.45            0.000103055     9.905e-009      -2.4806e-009   
  0.5             0.000105253     1.3654e-008     -1.807e-009    
  0.55            0.00010619      -1.1907e-008    9.352e-010     
  0.6             0.00010561      -1.1212e-008    2.6309e-009    
  0.65            0.00010558      -1.7278e-008    1.6796e-009    
  0.7             9.6625e-005     -8.577e-009     1.2514e-009    
  0.75            0.000104847     -1.2289e-008    2.5619e-009    
  0.8             0.00010326      8.93e-009       -1.0596e-009   
  0.85            0.00010852      1.6881e-008     -1.4843e-009   
  0.9             0.000107129     6.686e-009      -1.4086e-009   
  0.95            9.75e-005       -1.143e-009     1.9116e-009    
  1               0.00011155      -2.2431e-008    2.616e-009     
  1.05            0.00011749      -1.8161e-008    1.8399e-009    
  1.1             0.00011175      -2.2923e-008    2.5576e-009    
  1.15            0.00011617      -1.6872e-008    1.7472e-009    
  1.2             0.00011497      -2.3226e-008    2.4931e-009    
  1.25            0.00011915      -1.5625e-008    1.6646e-009    
  1.3             0.00011555      -2.3356e-008    2.4298e-009    
  1.35            0.00010815      -9.77e-009      -7.111e-010    
  1.4             0.00011058      7.681e-009      -2.6376e-009   
  1.45            0.00011537      1.0208e-008     -2.3042e-009   
  1.5             0.00012221      1.7437e-008     -1.4336e-009   
  1.55            0.0001173       1.3e-008        -1.8699e-009   
  1.6             0.00011775      9.892e-009      -2.356e-009    
  1.65            0.000104172     7.277e-009      2.23e-011      
  1.7             0.0001157       1.1745e-008     -1.8663e-009   
  1.75            0.00011631      1.002e-008      -2.3469e-009   
  1.8             0.0001022       7.585e-009      1.9943e-009    
  1.85            0.00011615      -9.656e-009     2.7229e-009    
  1.9             0.0001166       -1.643e-008     1.8728e-009    
  1.95            0.00010942      -9.049e-009     -1.0097e-009   
  2               0.00011628      1.0006e-008     -2.5643e-009   
  2.05            0.00012137      1.364e-008      -1.8094e-009   
  2.1             0.00012321      1.0118e-008     -2.3107e-009   
  2.15            0.00012305      1.7315e-008     -1.4343e-009   
  2.2             0.00011753      1.3153e-008     -1.8742e-009   
  2.25            0.00011715      9.677e-009      -2.3545e-009   
  2.3             0.00010354      7.7e-009        1.9855e-009    
  2.35            0.00011263      -9.939e-009     2.7247e-009    
  2.4             0.00011437      -1.6444e-008    1.8841e-009    
  2.45            0.00010866      -9.441e-009     -9.995e-010    
  2.5             0.00011542      9.405e-009      -2.5689e-009   
  2.55            0.00011818      1.2936e-008     -1.8191e-009   
  2.6             0.00011707      9.401e-009      -2.3196e-009   
  2.65            0.00012224      1.6343e-008     -1.4417e-009   
  2.7             0.0001183       1.1812e-008     -1.8957e-009   
  2.75            0.00011912      8.221e-009      -2.3726e-009   
  2.8             0.00011946      1.4675e-008     -1.489e-009    
  2.85            0.00012094      9.972e-009      -1.9494e-009   
  2.9             0.00011742      6.522e-009      -2.4135e-009   
  2.95            0.00011981      1.2155e-008     -1.5354e-009   
  3               0.0001208       7.19e-009       -2.0271e-009   
  3.05            0.00011951      3.673e-009      -2.4551e-009   
  3.1             0.00011662      1.284e-009      -2.6261e-009   
  3.15            0.00012159      2.903e-009      -2.094e-009    
  3.2             0.00010686      -3.161e-009     2.1596e-009    
  3.25            0.00011272      -2.2342e-008    -5.582e-010    
  3.3             0.00010864      -2.1902e-008    -2.543e-009    
  3.35            0.00010981      -1.0324e-008    1.085e-009     
  3.4             0.00012117      -3.9375e-008    1.9125e-009    
  3.45            0.00010961      -3.189e-008     -2.2165e-009   
  3.5             0.0001126       -1.8616e-008    7.186e-010     
  3.55            0.00011993      -5.4773e-008    2.5782e-009    
  3.6             0.0001125       -4.513e-008     -1.9282e-009   
  3.65            0.00011943      -3.1798e-008    2.786e-010     
  3.7             0.00012167      -6.5006e-008    1.5537e-009    
  3.75            0.00011229      -6.131e-008     -2.4107e-009   
  3.8             0.0001139       -5.1418e-008    9.123e-010     
  3.85            0.00012397      -9.0488e-008    2.2887e-009    
  3.9             0.00011463      -8.5826e-008    -2.0612e-009   
  3.95            0.00012006      -7.5049e-008    5.096e-010     
  4               0.00011969      -7.061e-008     -1.291e-010    
  4.05            0.00012169      -1.15639e-007   8.93e-011      
  4.1             0.0001224       -1.1852e-007    -1.3011e-009   
  4.15            0.00011639      -1.2648e-007    2.6052e-009    
  4.2             0.0001234       -1.5321e-007    -1.2015e-009   
  4.25            0.00013311      -1.3826e-007    -1.7012e-009   
  4.3             0.00012067      -1.7144e-007    2.331e-009     
  4.35            0.00012741      -2.0452e-007    -8.321e-010    
  4.4             0.00013521      -1.8897e-007    -2.3261e-009   
  4.45            0.00012376      -2.282e-007     2.0088e-009    
  4.5             0.00013322      -2.7181e-007    -3.506e-010    
  4.55            0.00014076      -2.6742e-007    -1.4271e-009   
  4.6             0.0001298       -3.116e-007     2.4675e-009    
  4.65            0.0001338       -3.5523e-007    -1.0168e-009   
  4.7             0.00014587      -3.5249e-007    -2.0109e-009   
  4.75            0.00013441      -4.0903e-007    2.1937e-009    
  4.8             0.00014317      -4.7552e-007    -6.067e-010    
  4.85            0.0001575       -4.7637e-007    -1.299e-009    
  4.9             0.00014244      -5.4606e-007    2.6154e-009    
  4.95            0.00015369      -6.1994e-007    -1.2086e-009   
  5               0.00016284      -6.34e-007      -1.6741e-009   
END_DB

BEGIN_DB
 ICCAP_VAR VG         2              
 ICCAP_VAR VS         0              
 ICCAP_VAR VB         0              

 #VD              ID              IB              IG             
  0               -1.3637e-006    -8.605e-009     -5.946e-010    
  0.05            7.6905e-005     1.0075e-008     -8.88e-011     
  0.1             0.00015357      8.583e-009      -1.4925e-009   
  0.15            0.00022926      1.2656e-008     -1.9662e-009   
  0.2             0.00030402      9.866e-009      -2.4186e-009   
  0.25            0.00037766      1.6091e-008     -1.5389e-009   
  0.3             0.00045042      1.2397e-008     -2.0337e-009   
  0.35            0.00052198      9.906e-009      -2.4626e-009   
  0.4             0.00059252      1.5528e-008     -1.5949e-009   
  0.45            0.00066249      1.1905e-008     -2.0948e-009   
  0.5             0.00072994      9.988e-009      -2.4963e-009   
  0.55            0.00079636      1.5086e-008     -1.649e-009    
  0.6             0.00086057      1.1478e-008     -2.1624e-009   
  0.65            0.00092527      1.0071e-008     -2.5219e-009   
  0.7             0.0009878       1.4725e-008     -1.7099e-009   
  0.75            0.00104781      1.1075e-008     -2.2223e-009   
  0.8             0.00110682      1.8467e-008     -1.3837e-009   
  0.85            0.0011611       -1.414e-009     1.764e-009     
  0.9             0.0012183       -8.845e-009     -1.0525e-009   
  0.95            0.0012734       9.967e-009      -2.5335e-009   
  1               0.0013245       1.4471e-008     -1.7315e-009   
  1.05            0.0013742       1.0886e-008     -2.2404e-009   
  1.1             0.0014212       1.8135e-008     -1.394e-009    
  1.15            0.001464        1.3756e-008     -1.7978e-009   
  1.2             0.0015046       1.0489e-008     -2.3013e-009   
  1.25            0.0015442       1.7568e-008     -1.43e-009     
  1.3             0.0015801       1.3219e-008     -1.8674e-009   
  1.35            0.0016144       1.0065e-008     -2.3534e-009   
  1.4             0.0016388       7.24e-009       1.9872e-009    
  1.45            0.0016703       -9.421e-009     2.7205e-009    
  1.5             0.0016946       -1.6366e-008    1.8715e-009    
  1.55            0.0017185       -1.338e-008     2.4359e-009    
  1.6             0.0017364       -9.773e-009     -7.06e-010     
  1.65            0.0017575       7.472e-009      -2.6404e-009   
  1.7             0.0017755       1.0317e-008     -2.317e-009    
  1.75            0.0017906       1.7311e-008     -1.4421e-009   
  1.8             0.0018032       1.3116e-008     -1.891e-009    
  1.85            0.0018136       1.0009e-008     -2.3691e-009   
  1.9             0.0018115       7.247e-009      1.9789e-009    
  1.95            0.0018259       -9.401e-009     2.7212e-009    
  2               0.0018342       -1.622e-008     1.8856e-009    
  2.05            0.0018435       -2.2547e-008    2.5918e-009    
  2.1             0.0018483       -1.7721e-008    1.808e-009     
  2.15            0.0018481       -2.2994e-008    2.5385e-009    
  2.2             0.0018541       -1.662e-008     1.7207e-009    
  2.25            0.0018632       -2.3459e-008    2.4786e-009    
  2.3             0.0018684       -1.5358e-008    1.6417e-009    
  2.35            0.0018691       -1.471e-008     2.2172e-009    
  2.4             0.0018689       -9.67e-009      -8.413e-010    
  2.45            0.0018788       8.644e-009      -2.6315e-009   
  2.5             0.00188         1.1497e-008     -2.1332e-009   
  2.55            0.0018831       1.0093e-008     -2.508e-009    
  2.6             0.0018893       1.4792e-008     -1.6768e-009   
  2.65            0.0018923       1.1304e-008     -2.1944e-009   
  2.7             0.0018926       1.0127e-008     -2.5404e-009   
  2.75            0.0018959       1.4161e-008     -1.7418e-009   
  2.8             0.0018994       1.086e-008      -2.2559e-009   
  2.85            0.0019005       1.7886e-008     -1.3976e-009   
  2.9             0.0019062       1.362e-008      -1.8136e-009   
  2.95            0.0019062       1.0336e-008     -2.3162e-009   
  3               0.001909        1.7312e-008     -1.4362e-009   
  3.05            0.0019098       1.3066e-008     -1.8799e-009   
  3.1             0.001915        9.965e-009      -2.3636e-009   
  3.15            0.0019          7.282e-009      1.9825e-009    
  3.2             0.0019117       -9.643e-009     2.7242e-009    
  3.25            0.0019154       -1.6375e-008    1.8888e-009    
  3.3             0.0019198       -2.2996e-008    2.6005e-009    
  3.35            0.0019205       -1.8122e-008    1.8095e-009    
  3.4             0.0019183       -2.3736e-008    2.5358e-009    
  3.45            0.0019208       -1.0666e-008    -6.156e-010    
  3.5             0.0019241       5.632e-009      -2.6333e-009   
  3.55            0.0019303       8.506e-009      -2.4069e-009   
  3.6             0.0019243       1.42e-008       -1.5175e-009   
  3.65            0.001925        9.348e-009      -2.0129e-009   
  3.7             0.0019281       6.14e-009       -2.4484e-009   
  3.75            0.0019385       1.0666e-008     -1.5764e-009   
  3.8             0.0019389       5.258e-009      -2.0833e-009   
  3.85            0.0019385       1.32e-009       -2.4894e-009   
  3.9             0.0019272       -1.6494e-008    -2.628e-009    
  3.95            0.0019299       -2.2176e-008    -2.3127e-009   
  4               0.0019434       4.497e-009      -1.9188e-009   
  4.05            0.001928        -1.6138e-008    2.2325e-009    
  4.1             0.0019382       -3.826e-008     -6.85e-010     
  4.15            0.0019459       -1.3708e-008    -1.2736e-009   
