! VERSION = 6.00
BEGIN_HEADER
 ICCAP_INPUTS
  VG         V  B GROUND SMU4 0.001 LIN        1    0          5          101  0.05      
  VS         V  E GROUND SMU3 0.1 CON        0
  VB         V  C GROUND SMU1 0.1 LIN        3    0          -5         3    -2.5      
  VD         V  S GROUND SMU2 0.1 LIN        2    0.1        10         2    9.9       
 ICCAP_OUTPUTS
  IG         I  B GROUND SMU4 B
  ID         I  S GROUND SMU2 B
  IB         I  C GROUND SMU1 B
END_HEADER

BEGIN_DB
 ICCAP_VAR VS         0              
 ICCAP_VAR VB         0              
 ICCAP_VAR VD         0.1            

 #VG              IG              ID              IB             
  0               -2.139e-010     -2.3056e-009    1.3615e-008    
  0.05            1.3818e-009     -2.0518e-009    -1.3105e-008   
  0.1             -1.389e-009     1.9841e-009     1.3207e-008    
  0.15            1.3921e-009     -1.9237e-009    -1.3616e-008   
  0.2             -1.4069e-009    1.8656e-009     1.3423e-008    
  0.25            1.4089e-009     -1.7977e-009    -1.3721e-008   
  0.3             -1.4252e-009    1.7952e-009     1.3488e-008    
  0.35            1.4319e-009     -1.5395e-009    -1.3953e-008   
  0.4             -1.4493e-009    2.2273e-009     1.3742e-008    
  0.45            1.4543e-009     1.6687e-009     -1.4106e-008   
  0.5             -1.4676e-009    9.2989e-009     1.3781e-008    
  0.55            -1.3854e-009    2.7191e-008     -1.3781e-008   
  0.6             1.4607e-009     9.7782e-008     -1.3712e-008   
  0.65            7.846e-010      3.3529e-007     -1.3101e-008   
  0.7             -1.4271e-009    1.05047e-006    1.3796e-008    
  0.75            1.3042e-009     2.8906e-006     1.3614e-008    
  0.8             -1.4637e-009    7.0025e-006     1.2511e-008    
  0.85            -1.0327e-009    1.3988e-005     1.3663e-008    
  0.9             1.4613e-009     2.3421e-005     -1.2866e-008   
  0.95            -1.4145e-009    3.3932e-005     1.3811e-008    
  1               1.3761e-009     4.375e-005      -1.3497e-008   
  1.05            -1.4577e-009    5.2928e-005     1.3907e-008    
  1.1             1.3923e-009     6.081e-005      -1.3776e-008   
  1.15            -1.4662e-009    6.7951e-005     1.242e-008     
  1.2             1.4018e-009     7.4082e-005     -1.4089e-008   
  1.25            -1.464e-009     7.968e-005      1.3087e-008    
  1.3             1.4216e-009     8.4532e-005     -1.4204e-008   
  1.35            -1.3853e-009    8.9031e-005     1.3437e-008    
  1.4             1.4576e-009     9.2998e-005     -1.424e-008    
  1.45            -1.4024e-009    9.6706e-005     1.3653e-008    
  1.5             1.461e-009      0.0001          -1.3099e-008   
  1.55            -1.4206e-009    0.000103129     1.3866e-008    
  1.6             1.3785e-009     0.000105939     -1.3539e-008   
  1.65            -1.4603e-009    0.000108653     1.3843e-008    
  1.7             1.3925e-009     0.000111067     -1.3909e-008   
  1.75            -1.4669e-009    0.000113421     1.2583e-008    
  1.8             9.336e-010      0.00011551      1.3539e-008    
  1.85            -1.3834e-009    0.0001176       1.3313e-008    
  1.9             1.4568e-009     0.00011944      -1.3883e-008   
  1.95            -1.4014e-009    0.00012128      1.3617e-008    
  2               1.4622e-009     0.000123        -1.2952e-008   
  2.05            -1.4151e-009    0.00012463      1.3907e-008    
  2.1             1.3783e-009     0.00012613      -1.352e-008    
  2.15            -1.458e-009     0.00012765      1.3861e-008    
  2.2             1.3904e-009     0.00012903      -1.3809e-008   
  2.25            -1.4676e-009    0.00013037      1.2452e-008    
  2.3             1.401e-009      0.00013164      -1.4033e-008   
  2.35            -1.4611e-009    0.00013292      1.3123e-008    
  2.4             1.4252e-009     0.00013406      -1.4111e-008   
  2.45            -1.3835e-009    0.0001352       1.3403e-008    
  2.5             1.4595e-009     0.00013625      -1.3844e-008   
  2.55            -1.4032e-009    0.00013729      1.3729e-008    
  2.6             1.4595e-009     0.00013833      -1.3137e-008   
  2.65            -1.42e-009      0.00013928      1.387e-008     
  2.7             1.3783e-009     0.00014018      -1.3643e-008   
  2.75            -1.4626e-009    0.00014108      1.41e-008      
  2.8             1.3934e-009     0.00014195      -1.3883e-008   
  2.85            -1.4684e-009    0.00014279      1.2637e-008    
  2.9             1.4081e-009     0.00014362      -1.4088e-008   
  2.95            -1.4587e-009    0.00014442      1.3227e-008    
  3               1.4363e-009     0.00014516      -1.4184e-008   
  3.05            -1.3859e-009    0.00014592      1.3456e-008    
  3.1             1.463e-009      0.00014659      -1.3884e-008   
  3.15            -1.4115e-009    0.00014729      1.3756e-008    
  3.2             1.4549e-009     0.00014793      -1.3363e-008   
  3.25            -1.4329e-009    0.00014859      1.3742e-008    
  3.3             1.3819e-009     0.00014922      -1.3667e-008   
  3.35            -1.4701e-009    0.00014984      1.3987e-008    
  3.4             1.4019e-009     0.00015041      -1.3977e-008   
  3.45            -1.4694e-009    0.00015099      1.2891e-008    
  3.5             1.4177e-009     0.00015153      -1.4047e-008   
  3.55            -1.3817e-009    0.00015205      1.3381e-008    
  3.6             1.4583e-009     0.00015257      -1.4094e-008   
  3.65            -1.401e-009     0.00015313      1.3494e-008    
  3.7             1.4634e-009     0.00015359      -1.2873e-008   
  3.75            -1.4173e-009    0.00015408      1.3693e-008    
  3.8             1.453e-009      0.00015456      -1.3518e-008   
  3.85            -1.4374e-009    0.00015501      1.3809e-008    
  3.9             1.3811e-009     0.00015542      -1.3721e-008   
  3.95            -1.4707e-009    0.00015584      1.3701e-008    
  4               1.4036e-009     0.00015624      -1.3897e-008   
  4.05            -1.467e-009     0.00015669      1.3027e-008    
  4.1             1.4221e-009     0.00015705      -1.3977e-008   
  4.15            -1.3821e-009    0.00015749      1.3458e-008    
  4.2             1.4597e-009     0.00015784      -1.4203e-008   
  4.25            -1.403e-009     0.00015817      1.3683e-008    
  4.3             1.4622e-009     0.00015856      -1.298e-008    
  4.35            -1.4203e-009    0.00015885      1.383e-008     
  4.4             1.3755e-009     0.00015922      -1.3531e-008   
  4.45            -1.4591e-009    0.00015957      1.3756e-008    
  4.5             1.3913e-009     0.00015988      -1.3749e-008   
  4.55            -1.4691e-009    0.00016018      1.2354e-008    
  4.6             1.407e-009      0.00016049      -1.4021e-008   
  4.65            -1.4637e-009    0.00016076      1.3138e-008    
  4.7             1.4274e-009     0.00016106      -1.4077e-008   
  4.75            -1.3842e-009    0.00016137      1.346e-008     
  4.8             1.4606e-009     0.00016161      -1.4052e-008   
  4.85            -1.4086e-009    0.00016191      1.3723e-008    
  4.9             1.4581e-009     0.00016214      -1.3189e-008   
  4.95            -1.4259e-009    0.00016241      1.3756e-008    
  5               1.3805e-009     0.00016265      -1.3664e-008   
END_DB

BEGIN_DB
 ICCAP_VAR VS         0              
 ICCAP_VAR VB         0              
 ICCAP_VAR VD         10             

 #VG              IG              ID              IB             
  0               4.78e-011       -1.941e-009     -4.434e-009    
  0.05            -9.419e-010     -2.0758e-009    4.177e-009     
  0.1             -1.3888e-009    2.0316e-009     1.3068e-008    
  0.15            1.393e-009      -1.9664e-009    -1.3567e-008   
  0.2             -1.4024e-009    1.9161e-009     1.3539e-008    
  0.25            1.4049e-009     -1.8217e-009    -1.3744e-008   
  0.3             -1.422e-009     1.8633e-009     1.3468e-008    
  0.35            1.4287e-009     -1.4387e-009    -1.3907e-008   
  0.4             -1.4464e-009    2.6878e-009     1.354e-008     
  0.45            1.4492e-009     2.1934e-009     -1.4635e-008   
  0.5             -1.3162e-009    1.2909e-008     -1.5917e-008   
  0.55            1.3999e-009     4.9319e-008     -1.7839e-008   
  0.6             1.4635e-009     1.9978e-007     -2.0314e-008   
  0.65            6.616e-010      6.6985e-007     -7.2643e-008   
  0.7             -1.3927e-009    1.8666e-006     -2.4947e-007   
  0.75            -8.7e-010       5.2271e-006     -7.1882e-007   
  0.8             -1.4072e-009    1.2731e-005     -1.7655e-006   
  0.85            1.3839e-009     2.6925e-005     -3.6381e-006   
  0.9             8.968e-010      5.0513e-005     -6.6871e-006   
  0.95            -1.3922e-009    8.4173e-005     -1.08541e-005  
  1               -1.3942e-009    0.00012713      -1.6081e-005   
  1.05            -1.4254e-009    0.00017952      -2.2012e-005   
  1.1             -7.653e-010     0.00023948      -2.844e-005    
  1.15            1.4232e-009     0.00030615      -3.5094e-005   
  1.2             7.555e-010      0.00037975      -4.1631e-005   
  1.25            -1.4318e-009    0.00045854      -4.8112e-005   
  1.3             -7.491e-010     0.00053993      -5.4332e-005   
  1.35            1.4291e-009     0.00062443      -5.9987e-005   
  1.4             7.429e-010      0.00071272      -6.5017e-005   
  1.45            -1.4396e-009    0.00080348      -6.9577e-005   
  1.5             -7.337e-010     0.00089429      -7.3564e-005   
  1.55            1.4366e-009     0.00098635      -7.6839e-005   
  1.6             7.281e-010      0.00108086      -7.9427e-005   
  1.65            1.3911e-009     0.0011752       -8.149e-005    
  1.7             -1.0884e-009    0.0012721       -8.2947e-005   
  1.75            1.4479e-009     0.0013671       -8.3824e-005   
  1.8             6.878e-010      0.0014638       -8.4102e-005   
  1.85            -1.4565e-009    0.0015615       -8.3967e-005   
  1.9             -6.796e-010     0.0016583       -8.3321e-005   
  1.95            1.4518e-009     0.0017552       -8.2277e-005   
  2               6.704e-010      0.0018534       -8.0814e-005   
  2.05            -1.4586e-009    0.001952        -7.9008e-005   
  2.1             -6.643e-010     0.00205         -7.6886e-005   
  2.15            1.4552e-009     0.0021476       -7.4506e-005   
  2.2             6.56e-010       0.002247        -7.1896e-005   
  2.25            -1.4609e-009    0.0023469       -6.9047e-005   
  2.3             -6.489e-010     0.002446        -6.6066e-005   
  2.35            1.4551e-009     0.0025447       -6.2966e-005   
  2.4             6.381e-010      0.002645        -5.9777e-005   
  2.45            -1.4627e-009    0.0027463       -5.6487e-005   
  2.5             -6.315e-010     0.0028465       -5.3147e-005   
  2.55            1.4543e-009     0.0029465       -4.9901e-005   
  2.6             6.218e-010      0.00305         -4.6586e-005   
  2.65            -1.4592e-009    0.0031521       -4.3272e-005   
  2.7             -6.151e-010     0.0032533       -4.0065e-005   
  2.75            1.4492e-009     0.003355        -3.6995e-005   
  2.8             6.043e-010      0.0034583       -3.4033e-005   
  2.85            -1.4513e-009    0.0035625       -3.1116e-005   
  2.9             -5.98e-010      0.0036653       -2.8322e-005   
  2.95            1.3811e-009     0.0037677       -2.5736e-005   
  3               9.365e-010      0.0038721       -2.3266e-005   
  3.05            -1.3881e-009    0.003978        -2.0912e-005   
  3.1             -9.32e-010      0.0040823       -1.8689e-005   
  3.15            1.3846e-009     0.0041853       -1.6655e-005   
  3.2             9.158e-010      0.0042909       -1.4782e-005   
  3.25            -1.3902e-009    0.0043978       -1.2995e-005   
  3.3             -9.114e-010     0.0045028       -1.1409e-005   
  3.35            8.816e-010      0.0046075       -9.9927e-006   
  3.4             -1.3939e-009    0.0047146       -8.6542e-006   
  3.45            -8.77e-010      0.0048202       -7.4573e-006   
  3.5             1.3908e-009     0.0049246       -6.3864e-006   
  3.55            8.66e-010       0.0050314       -5.4363e-006   
  3.6             -1.3963e-009    0.0051391       -4.5684e-006   
  3.65            -8.605e-010     0.005245        -3.8284e-006   
  3.7             1.3925e-009     0.005349        -3.2233e-006   
  3.75            8.485e-010      0.0054556       -2.6686e-006   
  3.8             -1.3994e-009    0.0055636       -2.1867e-006   
  3.85            -8.421e-010     0.0056688       -1.7995e-006   
  3.9             1.3979e-009     0.0057729       -1.4564e-006   
  3.95            8.346e-010      0.0058792       -1.16e-006     
  4               1.4083e-009     0.0059842       -9.4024e-007   
  4.05            7.895e-010      0.0060901       -7.3551e-007   
  4.1             -1.4189e-009    0.0061973       -5.6872e-007   
  4.15            -7.774e-010     0.0063004       -4.5932e-007   
  4.2             1.4144e-009     0.0064023       -3.659e-007    
  4.25            7.764e-010      0.0065059       -2.6598e-007   
  4.3             -1.4258e-009    0.0066107       -1.9711e-007   
  4.35            -7.671e-010     0.006711        -1.7121e-007   
  4.4             1.4234e-009     0.0068111       -1.4266e-007   
  4.45            7.569e-010      0.006911        -9.505e-008    
  4.5             -7.332e-010     0.0070079       -9.2412e-008   
  4.55            1.4403e-009     0.0071021       -8.4143e-008   
  4.6             7.25e-010       0.0071964       -5.1429e-008   
  4.65            -1.4496e-009    0.0072881       -3.9724e-008   
  4.7             -7.154e-010     0.0073733       -5.7881e-008   
  4.75            1.4466e-009     0.0074568       -6.0285e-008   
  4.8             7.07e-010       0.0075384       -3.5694e-008   
  4.85            -1.4554e-009    0.0076167       -3.268e-008    
  4.9             -7.015e-010     0.0076903       -5.9409e-008   
  4.95            1.4502e-009     0.0077601       -6.8708e-008   
  5               6.92e-010       0.007827        -5.1433e-008   
END_DB

BEGIN_DB
 ICCAP_VAR VS         0              
 ICCAP_VAR VB         -2.5           
 ICCAP_VAR VD         0.1            

 #VG              IG              ID              IB             
  0               -5.344e-010     -2.4133e-009    1.259e-008     
  0.05            1.4606e-009     -1.4965e-009    -1.4164e-008   
  0.1             -1.4691e-009    1.4476e-009     1.3775e-008    
  0.15            1.372e-009      -7.965e-010     -1.3634e-008   
  0.2             -1.3824e-009    7.783e-010      1.2942e-008    
  0.25            1.3783e-009     -2.0952e-009    -1.2782e-008   
  0.3             -1.3877e-009    2.0302e-009     1.3027e-008    
  0.35            1.3896e-009     -1.9682e-009    -1.3512e-008   
  0.4             -1.4038e-009    1.906e-009      1.3561e-008    
  0.45            1.404e-009      -1.8402e-009    -1.3835e-008   
  0.5             -1.4219e-009    1.7794e-009     1.3452e-008    
  0.55            1.426e-009      -1.7138e-009    -1.3912e-008   
  0.6             -1.4452e-009    1.6615e-009     1.3781e-008    
  0.65            1.4462e-009     -1.606e-009     -1.4152e-008   
  0.7             -1.4629e-009    1.5558e-009     1.376e-008     
  0.75            1.4595e-009     -1.5074e-009    -1.4116e-008   
  0.8             -1.466e-009     1.4629e-009     1.379e-008     
  0.85            1.3729e-009     -7.864e-010     -1.3808e-008   
  0.9             -1.3814e-009    8.704e-010      1.3094e-008    
  0.95            1.379e-009      -1.6651e-009    -1.2723e-008   
  1               -1.3872e-009    4.1765e-009     1.2913e-008    
  1.05            1.4222e-009     1.1946e-008     -1.4291e-008   
  1.1             -1.3837e-009    4.2812e-008     1.3549e-008    
  1.15            1.3688e-009     1.4644e-007     -1.3689e-008   
  1.2             -1.4693e-009    4.2582e-007     1.3209e-008    
  1.25            1.4081e-009     1.10497e-006    -1.4058e-008   
  1.3             -1.339e-009     2.8344e-006     -1.4176e-008   
  1.35            1.4582e-009     6.741e-006      -1.2959e-008   
  1.4             1.1124e-009     1.3986e-005     -1.3796e-008   
  1.45            -1.4068e-009    2.4262e-005     1.2731e-008    
  1.5             1.4606e-009     3.5394e-005     -1.3076e-008   
  1.55            -1.4239e-009    4.6261e-005     1.3741e-008    
  1.6             1.3749e-009     5.5557e-005     -1.3727e-008   
  1.65            -1.4657e-009    6.3795e-005     1.4023e-008    
  1.7             1.3942e-009     7.067e-005      -1.3951e-008   
  1.75            -1.469e-009     7.6813e-005     1.2692e-008    
  1.8             1.4135e-009     8.2037e-005     -1.4081e-008   
  1.85            -1.4542e-009    8.68e-005       1.338e-008     
  1.9             1.4374e-009     9.089e-005      -1.4193e-008   
  1.95            -1.3888e-009    9.4688e-005     1.3634e-008    
  2               1.4613e-009     9.8058e-005     -1.3686e-008   
  2.05            -1.416e-009     0.000101195     1.3842e-008    
  2.1             1.4509e-009     0.00010398      -1.3562e-008   
  2.15            -1.4423e-009    0.00010664      1.3793e-008    
  2.2             1.3812e-009     0.000109036     -1.3881e-008   
  2.25            -1.4699e-009    0.000111327     1.3539e-008    
  2.3             1.4056e-009     0.000113398     -1.4102e-008   
  2.35            1.3834e-009     0.00011534      -1.3449e-008   
  2.4             -1.4711e-009    0.0001172       1.3386e-008    
  2.45            1.4096e-009     0.00011892      -1.4102e-008   
  2.5             -1.4583e-009    0.00012058      1.3383e-008    
  2.55            1.4333e-009     0.00012207      -1.4186e-008   
  2.6             -1.3894e-009    0.00012361      1.3612e-008    
  2.65            1.4621e-009     0.00012499      -1.373e-008    
  2.7             -1.4151e-009    0.00012633      1.379e-008     
  2.75            1.4546e-009     0.00012759      -1.3493e-008   
  2.8             -1.4391e-009    0.0001288       1.3766e-008    
  2.85            1.3782e-009     0.00012994      -1.3897e-008   
  2.9             -1.4689e-009    0.00013106      1.3684e-008    
  2.95            1.4048e-009     0.00013208      -1.41e-008     
  3               -1.4646e-009    0.00013312      1.3118e-008    
  3.05            1.4264e-009     0.00013405      -1.4128e-008   
  3.1             -1.3869e-009    0.00013501      1.3638e-008    
  3.15            1.46e-009       0.00013589      -1.3981e-008   
  3.2             -1.4072e-009    0.0001368       1.3815e-008    
  3.25            1.4588e-009     0.0001376       -1.3155e-008   
  3.3             -1.4276e-009    0.0001384       1.3769e-008    
  3.35            1.3781e-009     0.00013917      -1.3788e-008   
  3.4             -1.4665e-009    0.00013994      1.4006e-008    
  3.45            1.3966e-009     0.00014064      -1.4108e-008   
  3.5             -1.4669e-009    0.00014137      1.2795e-008    
  3.55            1.4178e-009     0.000142        -1.4095e-008   
  3.6             -1.3824e-009    0.00014268      1.3446e-008    
  3.65            1.4587e-009     0.00014331      -1.4032e-008   
  3.7             -1.4018e-009    0.00014392      1.3779e-008    
  3.75            1.4604e-009     0.0001445       -1.2927e-008   
  3.8             -1.416e-009     0.00014506      1.3838e-008    
  3.85            1.3748e-009     0.00014562      -1.3599e-008   
  3.9             -1.4624e-009    0.00014616      1.3707e-008    
  3.95            1.3922e-009     0.00014665      -1.3974e-008   
  4               -1.4685e-009    0.00014718      1.2469e-008    
  4.05            1.4054e-009     0.00014764      -1.4159e-008   
  4.1             -1.4576e-009    0.00014816      1.329e-008     
  4.15            1.4303e-009     0.00014858      -1.4151e-008   
