! VERSION = 6.00
BEGIN_HEADER
 ICCAP_INPUTS
  VG         V  B GROUND SMU4 0.001 LIN        2    0          -5         6    -1        
  VS         V  E GROUND SMU2 0.1 CON        0
  VD         V  S GROUND SMU1 0.1 LIN        1    0          -5         101  -0.05     
  VB         V  C GROUND SMU3 0.1 LIN        3    0          2.5        2    2.5       
 ICCAP_OUTPUTS
  ID         I  S GROUND SMU1 B
  IB         I  C GROUND SMU3 B
  IG         I  B GROUND SMU4 B
END_HEADER

BEGIN_DB
 ICCAP_VAR VG         0              
 ICCAP_VAR VS         0              
 ICCAP_VAR VB         0              

 #VD              ID              IB              IG             
  0               -1.2375e-009    -1.8136e-008    -1.4954e-009   
  -0.05           -1.5558e-009    -2.6153e-008    1.4568e-009    
  -0.1            -1.712e-010     -1.0439e-008    1.3573e-009    
  -0.15           -3.381e-010     -1.1877e-008    3.3004e-009    
  -0.2            -1.754e-010     8.049e-009      -1.658e-009    
  -0.25           -1.2981e-009    5.479e-009      -2.2265e-009   
  -0.3            -1.1667e-009    -1.7727e-008    2.4421e-009    
  -0.35           2.3797e-009     -6.241e-009     3.509e-010     
  -0.4            -1.0104e-009    -1.6172e-008    2.9225e-009    
  -0.45           2.2131e-009     -3.156e-009     1.43e-011      
  -0.5            -5.44e-011      7.409e-009      -1.6915e-009   
  -0.55           6.14e-011       7.975e-009      -1.6649e-009   
  -0.6            -1.2927e-009    5.457e-009      -2.2069e-009   
  -0.65           -1.1314e-009    -1.7965e-008    2.4613e-009    
  -0.7            2.3717e-009     -5.866e-009     3.316e-010     
  -0.75           -8.745e-010     -1.6302e-008    2.9474e-009    
  -0.8            2.3571e-009     -3.312e-009     1.1875e-009    
  -0.85           -1.156e-010     7.41e-009       -1.6909e-009   
  -0.9            4.3e-011        7.909e-009      -1.6657e-009   
  -0.95           1.789e-010      8.696e-009      -1.6191e-009   
  -1              -1.2746e-009    5.57e-009       -2.3521e-009   
  -1.05           -1.1432e-009    -2.0279e-008    2.1635e-009    
  -1.1            2.4487e-009     -7.951e-009     5.232e-010     
  -1.15           -9.74e-010      -1.7367e-008    2.6876e-009    
  -1.2            2.3131e-009     -4.455e-009     1.891e-010     
  -1.25           3.03e-011       7.845e-009      -1.6701e-009   
  -1.3            1.867e-010      8.606e-009      -1.6277e-009   
  -1.35           -1.2792e-009    5.555e-009      -2.3326e-009   
  -1.4            -1.1203e-009    -1.9638e-008    2.2013e-009    
  -1.45           2.4383e-009     -7.732e-009     5.018e-010     
  -1.5            -9.085e-010     -1.7223e-008    2.7294e-009    
  -1.55           2.2547e-009     -4.164e-009     1.326e-009     
  -1.6            2.773e-010      7.825e-009      -1.6761e-009   
  -1.65           4.332e-010      8.525e-009      -1.6305e-009   
  -1.7            -1.2496e-009    5.582e-009      -2.316e-009    
  -1.75           -9.057e-010     -1.9199e-008    2.2451e-009    
  -1.8            2.4339e-009     -7.402e-009     4.723e-010     
  -1.85           -6.725e-010     -1.6715e-008    2.7688e-009    
  -1.9            2.268e-009      -4.075e-009     1.3041e-009    
  -1.95           3.33e-011       7.756e-009      -1.6786e-009   
  -2              1.989e-010      8.398e-009      -1.6386e-009   
  -2.05           -1.2631e-009    5.6e-009        -2.297e-009    
  -2.1            -1.0417e-009    -1.8818e-008    2.2704e-009    
  -2.15           2.4199e-009     -7.199e-009     4.509e-010     
  -2.2            -8.485e-010     -1.6768e-008    2.8002e-009    
  -2.25           2.2859e-009     -3.964e-009     1.2835e-009    
  -2.3            7.83e-011       7.67e-009       -1.6792e-009   
  -2.35           2.128e-010      8.384e-009      -1.644e-009    
  -2.4            -1.2645e-009    5.496e-009      -2.2792e-009   
  -2.45           -9.35e-010      -1.8657e-008    2.3148e-009    
  -2.5            2.4165e-009     -6.809e-009     4.273e-010     
  -2.55           -6.515e-010     -1.6751e-008    2.8398e-009    
  -2.6            2.3043e-009     -3.839e-009     1.2653e-009    
  -2.65           2.294e-010      7.616e-009      -1.6838e-009   
  -2.7            3.868e-010      8.225e-009      -1.6485e-009   
  -2.75           -1.2543e-009    5.516e-009      -2.2632e-009   
  -2.8            -8.552e-010     -1.8342e-008    2.3532e-009    
  -2.85           2.4075e-009     -6.534e-009     4.087e-010     
  -2.9            -6.254e-010     -1.6465e-008    2.8684e-009    
  -2.95           2.3277e-009     -3.61e-009      1.2446e-009    
  -3              2.131e-010      7.541e-009      -1.6852e-009   
  -3.05           3.828e-010      8.143e-009      -1.6542e-009   
  -3.1            -1.2537e-009    5.457e-009      -2.2486e-009   
  -3.15           -8.253e-010     -1.7896e-008    2.4033e-009    
  -3.2            2.394e-009      -6.302e-009     3.794e-010     
  -3.25           -6.743e-010     -1.6842e-008    2.9379e-009    
  -3.3            2.3602e-009     -3.593e-009     1.2172e-009    
  -3.35           1.147e-010      7.621e-009      -1.6953e-009   
  -3.4            2.962e-010      8.208e-009      -1.665e-009    
  -3.45           5.028e-010      8.801e-009      -1.6092e-009   
  -3.5            -1.6414e-009    5.695e-009      -1.5744e-009   
  -3.55           -8.609e-010     -1.8403e-008    2.4073e-009    
  -3.6            2.4079e-009     -6.753e-009     4.049e-010     
  -3.65           4.213e-010      8.582e-009      -1.6384e-009   
  -3.7            -1.2527e-009    5.612e-009      -2.3353e-009   
  -3.75           -9.104e-010     -1.9207e-008    2.2623e-009    
  -3.8            2.4338e-009     -7.568e-009     4.937e-010     
  -3.85           -7.182e-010     -1.7442e-008    2.7883e-009    
  -3.9            2.2745e-009     -4.024e-009     1.3177e-009    
  -3.95           2.327e-010      7.924e-009      -1.6827e-009   
  -4              4.172e-010      8.574e-009      -1.6395e-009   
  -4.05           -1.7322e-009    5.668e-009      -1.5129e-009   
  -4.1            -8.308e-010     -1.833e-008     2.564e-009     
  -4.15           2.3723e-009     -5.666e-009     3.032e-010     
  -4.2            2.852e-010      8.322e-009      -1.6542e-009   
  -4.25           -1.2629e-009    5.526e-009      -2.2616e-009   
  -4.3            -9.257e-010     -1.8221e-008    2.4139e-009    
  -4.35           2.4065e-009     -6.713e-009     3.927e-010     
  -4.4            3.385e-010      8.589e-009      -1.6336e-009   
  -4.45           -1.2621e-009    5.649e-009      -2.3301e-009   
  -4.5            -9.938e-010     -1.897e-008     2.2701e-009    
  -4.55           2.4358e-009     -7.676e-009     4.834e-010     
  -4.6            -7.301e-010     -1.7528e-008    2.7915e-009    
  -4.65           2.2753e-009     -4.271e-009     1.307e-009     
  -4.7            2.382e-010      7.916e-009      -1.6841e-009   
  -4.75           4.296e-010      8.535e-009      -1.6384e-009   
  -4.8            -1.7345e-009    5.601e-009      -1.5076e-009   
  -4.85           -7.634e-010     -1.8103e-008    2.5779e-009    
  -4.9            2.3728e-009     -5.635e-009     2.904e-010     
  -4.95           4.165e-010      8.314e-009      -1.6567e-009   
  -5              -1.2474e-009    5.537e-009      -2.2526e-009   
END_DB

BEGIN_DB
 ICCAP_VAR VG         -1             
 ICCAP_VAR VS         0              
 ICCAP_VAR VB         0              

 #VD              ID              IB              IG             
  0               -1.5136e-009    -2.6076e-008    -1.7123e-009   
  -0.05           -9.317e-009     -2.6271e-008    1.3915e-009    
  -0.1            -8.064e-009     -2.4145e-008    -2.6403e-009   
  -0.15           -1.5154e-008    8.155e-009      -2.001e-009    
  -0.2            -1.5439e-008    7.215e-009      -1.6969e-009   
  -0.25           -1.4767e-008    -1.702e-008     2.3006e-009    
  -0.3            -1.5292e-008    -2.4279e-008    1.3883e-009    
  -0.35           -1.4932e-008    -1.9199e-008    1.7306e-009    
  -0.4            -1.4841e-008    -1.6828e-008    2.4146e-009    
  -0.45           -1.5363e-008    -2.3549e-008    1.42e-009      
  -0.5            -1.5075e-008    -1.8247e-008    1.8183e-009    
  -0.55           -1.4762e-008    -1.6937e-008    2.5486e-009    
  -0.6            -1.5461e-008    -2.2754e-008    1.4624e-009    
  -0.65           -1.4927e-008    -1.7822e-008    1.9308e-009    
  -0.7            -1.5957e-008    -2.6439e-008    1.3242e-009    
  -0.75           -1.5412e-008    -2.1981e-008    1.5064e-009    
  -0.8            -1.4927e-008    -1.7488e-008    2.0369e-009    
  -0.85           -1.5724e-008    -2.6004e-008    1.3412e-009    
  -0.9            -1.509e-008     -2.1053e-008    1.5673e-009    
  -0.95           -1.5219e-008    -1.7427e-008    2.145e-009     
  -1              -1.574e-008     -2.5148e-008    1.3623e-009    
  -1.05           -1.5359e-008    -2.0019e-008    1.6257e-009    
  -1.1            -1.4977e-008    -1.7027e-008    2.2675e-009    
  -1.15           -1.5527e-008    -2.4499e-008    1.386e-009     
  -1.2            -1.5031e-008    -1.9156e-008    1.7129e-009    
  -1.25           -1.4838e-008    -1.694e-008     2.3878e-009    
  -1.3            -1.5282e-008    -2.3989e-008    1.4135e-009    
  -1.35           -1.5141e-008    -1.8539e-008    1.7961e-009    
  -1.4            -1.4948e-008    -1.6691e-008    2.5133e-009    
  -1.45           -1.5337e-008    -2.326e-008     1.454e-009     
  -1.5            -1.5219e-008    -1.8273e-008    1.907e-009     
  -1.55           -1.5861e-008    -2.6438e-008    1.322e-009     
  -1.6            -1.5381e-008    -2.2214e-008    1.5004e-009    
  -1.65           -1.516e-008     -1.7741e-008    2.0119e-009    
  -1.7            -1.5704e-008    -2.6007e-008    1.3398e-009    
  -1.75           -1.5458e-008    -2.1251e-008    1.5529e-009    
  -1.8            -1.5439e-008    -1.7352e-008    2.1266e-009    
  -1.85           -1.5836e-008    -2.5388e-008    1.3581e-009    
  -1.9            -1.5177e-008    -2.0231e-008    1.6221e-009    
  -1.95           -1.509e-008     -1.7271e-008    2.2398e-009    
  -2              -1.5548e-008    -2.4708e-008    1.3826e-009    
  -2.05           -1.5299e-008    -1.9631e-008    1.6939e-009    
  -2.1            -1.4996e-008    -1.6935e-008    2.369e-009     
  -2.15           -1.5658e-008    -2.4035e-008    1.4102e-009    
  -2.2            -1.558e-008     -1.8584e-008    1.7946e-009    
  -2.25           -1.5016e-008    -1.6807e-008    2.4856e-009    
  -2.3            -1.5448e-008    -2.3212e-008    1.4436e-009    
  -2.35           -1.5194e-008    -1.8093e-008    1.895e-009     
  -2.4            -1.5096e-008    -1.6805e-008    2.6168e-009    
  -2.45           -1.5421e-008    -2.2253e-008    1.4897e-009    
  -2.5            -1.5282e-008    -1.7776e-008    2.0004e-009    
  -2.55           -1.5912e-008    -2.6001e-008    1.3355e-009    
  -2.6            -1.5487e-008    -2.1352e-008    1.5461e-009    
  -2.65           -1.532e-008     -1.7518e-008    2.1173e-009    
  -2.7            -1.5875e-008    -2.5481e-008    1.3532e-009    
  -2.75           -1.5722e-008    -2.0169e-008    1.6123e-009    
  -2.8            -1.5781e-008    -1.7655e-008    2.2403e-009    
  -2.85           -1.6825e-008    -2.479e-008     1.3763e-009    
  -2.9            -1.6714e-008    -1.9578e-008    1.6949e-009    
  -2.95           -1.6464e-008    -1.7306e-008    2.3682e-009    
  -3              -1.6891e-008    -2.3779e-008    1.4024e-009    
  -3.05           -1.6572e-008    -1.8714e-008    1.7944e-009    
  -3.1            -1.6361e-008    -1.7346e-008    2.4915e-009    
  -3.15           -1.6655e-008    -2.3317e-008    1.4423e-009    
  -3.2            -1.6439e-008    -1.8439e-008    1.9034e-009    
  -3.25           -1.6126e-008    -1.7168e-008    2.6217e-009    
  -3.3            -1.678e-008     -2.2269e-008    1.4901e-009    
  -3.35           -1.6477e-008    -1.7908e-008    2.0104e-009    
  -3.4            -1.7218e-008    -2.5451e-008    1.329e-009     
  -3.45           -1.6736e-008    -2.1477e-008    1.5562e-009    
  -3.5            -1.6382e-008    -1.8017e-008    2.1308e-009    
  -3.55           -1.7316e-008    -2.4916e-008    1.3502e-009    
  -3.6            -1.6842e-008    -2.0374e-008    1.6179e-009    
  -3.65           -1.6811e-008    -1.7587e-008    2.2309e-009    
  -3.7            -1.7227e-008    -2.4117e-008    1.3734e-009    
  -3.75           -1.7007e-008    -1.9826e-008    1.6976e-009    
  -3.8            -1.6894e-008    -1.746e-008     2.3652e-009    
  -3.85           -1.7237e-008    -2.3401e-008    1.4034e-009    
  -3.9            -1.7094e-008    -1.8946e-008    1.7853e-009    
  -3.95           -1.6973e-008    -1.7297e-008    2.4903e-009    
  -4              -1.7253e-008    -2.2871e-008    1.4414e-009    
  -4.05           -1.7128e-008    -1.8363e-008    1.8843e-009    
  -4.1            -1.6763e-008    -1.6786e-008    2.5997e-009    
  -4.15           -1.7198e-008    -2.2074e-008    1.4849e-009    
  -4.2            -1.7036e-008    -1.8117e-008    1.9925e-009    
  -4.25           -1.7693e-008    -2.5815e-008    2.9248e-009    
  -4.3            -1.7196e-008    -1.9527e-008    1.6904e-009    
  -4.35           -1.6914e-008    -1.7402e-008    2.3666e-009    
  -4.4            -1.7409e-008    -2.3659e-008    1.4006e-009    
  -4.45           -1.6642e-008    -1.9162e-008    1.7781e-009    
  -4.5            -1.6921e-008    -1.7347e-008    2.4799e-009    
  -4.55           -1.7334e-008    -2.3197e-008    1.434e-009     
  -4.6            -1.7096e-008    -1.8593e-008    1.8763e-009    
  -4.65           -1.6747e-008    -1.7203e-008    2.5949e-009    
  -4.7            -1.7322e-008    -2.2183e-008    1.4806e-009    
  -4.75           -1.7106e-008    -1.7977e-008    1.9935e-009    
  -4.8            -1.6634e-008    -1.7081e-008    2.7051e-009    
  -4.85           -1.7251e-008    -2.1303e-008    1.5318e-009    
  -4.9            -1.7069e-008    -1.7857e-008    2.0923e-009    
  -4.95           -1.7663e-008    -2.5323e-008    3.0131e-009    
  -5              -1.7104e-008    -1.8944e-008    1.7818e-009    
END_DB

BEGIN_DB
 ICCAP_VAR VG         -2             
 ICCAP_VAR VS         0              
 ICCAP_VAR VB         0              

 #VD              ID              IB              IG             
  0               -1.3459e-009    -1.9365e-008    -1.4794e-009   
  -0.05           -1.6592e-008    -9.128e-009     -1.6718e-009   
  -0.1            -2.792e-008     -1.7765e-008    2.2288e-009    
  -0.15           -4.222e-008     -2.4406e-008    1.3739e-009    
  -0.2            -5.5071e-008    -1.9801e-008    1.6922e-009    
  -0.25           -7.1375e-008    -1.7797e-008    2.338e-009     
  -0.3            -8.4545e-008    -2.3662e-008    1.4001e-009    
  -0.35           -1.04943e-007   -1.9025e-008    1.775e-009     
  -0.4            -1.2766e-007    7.182e-009      -5.67e-010     
  -0.45           -1.4871e-007    5.541e-009      -1.6317e-009   
  -0.5            -1.6943e-007    7.414e-009      -1.706e-009    
  -0.55           -1.7736e-007    7.877e-009      -1.6617e-009   
  -0.6            -2.032e-007     8.359e-009      -1.9617e-009   
  -0.65           -2.2627e-007    -1.8033e-008    2.0233e-009    
  -0.7            -2.4909e-007    -2.0646e-008    1.5784e-009    
  -0.75           -2.8466e-007    -2.4426e-008    1.3731e-009    
  -0.8            -2.6384e-007    -1.7069e-008    2.4047e-009    
  -0.85           -2.6727e-007    -1.8436e-008    1.8429e-009    
  -0.9            -2.6407e-007    -2.2261e-008    1.49e-009      
  -0.95           -4.4682e-007    -2.5968e-008    2.9682e-009    
  -1              -2.8326e-007    -1.6879e-008    2.4648e-009    
  -1.05           -2.7563e-007    -1.8166e-008    1.9017e-009    
  -1.1            -4.0319e-007    -2.1706e-008    1.5187e-009    
  -1.15           -2.6944e-007    -2.5501e-008    1.3548e-009    
  -1.2            -2.8773e-007    -1.7391e-008    2.2572e-009    
  -1.25           -3.0308e-007    -1.8966e-008    1.7346e-009    
  -1.3            -3.3582e-007    -2.3503e-008    1.4395e-009    
  -1.35           -3.439e-007     -2.6342e-008    2.8661e-009    
  -1.4            -3.3998e-007    -1.7092e-008    2.3164e-009    
  -1.45           -3.477e-007     -1.8707e-008    1.7841e-009    
  -1.5            -3.624e-007     -2.3081e-008    1.4624e-009    
  -1.55           -3.5121e-007    -2.6268e-008    1.338e-009     
  -1.6            -3.5491e-007    -1.7299e-008    2.1204e-009    
  -1.65           -3.5465e-007    -1.9995e-008    1.6502e-009    
  -1.7            -3.6873e-007    -2.4135e-008    1.4086e-009    
  -1.75           -3.833e-007     -2.6199e-008    1.3118e-009    
  -1.8            -3.8016e-007    -1.7914e-008    1.9382e-009    
  -1.85           -3.8695e-007    -2.174e-008     1.5412e-009    
  -1.9            -3.875e-007     -2.5309e-008    1.366e-009     
  -1.95           -3.8959e-007    -1.7062e-008    2.3037e-009    
  -2              -3.8969e-007    -1.8775e-008    1.7796e-009    
  -2.05           -3.9379e-007    -2.3093e-008    1.464e-009     
  -2.1            -3.7822e-007    -2.6198e-008    1.3365e-009    
  -2.15           -4.0327e-007    -1.7374e-008    2.1098e-009    
  -2.2            -3.9649e-007    -1.9997e-008    1.6411e-009    
  -2.25           -3.85e-007      -2.4307e-008    1.407e-009     
  -2.3            -3.756e-007     -1.6833e-008    2.494e-009     
  -2.35           -3.7878e-007    -1.8144e-008    1.9462e-009    
  -2.4            -4.2302e-007    -2.1481e-008    1.0996e-009    
  -2.45           -4.1277e-007    7.626e-009      2.234e-009     
  -2.5            -4.0929e-007    -1.888e-008     1.7466e-009    
  -2.55           -4.1343e-007    -2.3406e-008    1.4503e-009    
  -2.6            -4.1902e-007    -2.6185e-008    2.8812e-009    
  -2.65           -4.2883e-007    -1.7159e-008    2.3381e-009    
  -2.7            -4.2607e-007    -1.8778e-008    1.7984e-009    
  -2.75           -4.5238e-007    -2.2736e-008    1.4689e-009    
  -2.8            -4.5544e-007    -2.6164e-008    2.9372e-009    
  -2.85           -4.4822e-007    -1.6701e-008    2.4109e-009    
  -2.9            -4.4857e-007    -1.8379e-008    1.8612e-009    
  -2.95           -4.4771e-007    -1.4995e-008    3.1713e-009    
  -3              -4.6217e-007    -2.5772e-008    2.9872e-009    
  -3.05           -4.4567e-007    -1.7289e-008    2.4813e-009    
  -3.1            -4.5414e-007    -1.7881e-008    1.9142e-009    
  -3.15           -4.564e-007     -2.1569e-008    1.5264e-009    
  -3.2            -4.5545e-007    -2.5192e-008    1.3573e-009    
  -3.25           -4.4424e-007    -1.7167e-008    2.2954e-009    
  -3.3            -4.2448e-007    -1.895e-008     1.757e-009     
  -3.35           -4.8835e-007    -2.3091e-008    1.4516e-009    
  -3.4            -4.8517e-007    -2.6239e-008    2.8993e-009    
  -3.45           -4.8851e-007    -1.7075e-008    2.3602e-009    
  -3.5            -4.5151e-007    -1.8421e-008    1.8176e-009    
  -3.55           -4.5668e-007    -1.5269e-008    3.1445e-009    
  -3.6            -4.5549e-007    -2.6019e-008    2.9363e-009    
  -3.65           -6.0628e-007    -1.7092e-008    2.4208e-009    
  -3.7            -6.3176e-007    -1.8141e-008    1.8684e-009    
  -3.75           -7.0141e-007    -1.4777e-008    3.1755e-009    
  -3.8            -7.5658e-007    -2.5745e-008    2.9929e-009    
  -3.85           -7.7829e-007    -1.685e-008     2.4907e-009    
  -3.9            -8.0613e-007    -1.7995e-008    1.9222e-009    
  -3.95           -7.7823e-007    -2.1362e-008    1.5282e-009    
  -4              -7.4152e-007    -2.5358e-008    1.3621e-009    
  -4.05           -7.1316e-007    -1.701e-008     2.2889e-009    
  -4.1            -7.3626e-007    -1.8841e-008    1.7678e-009    
  -4.15           -7.2959e-007    -2.3173e-008    1.4522e-009    
