! VERSION = 6.00
BEGIN_HEADER
 ICCAP_INPUTS
  VG         V  B GROUND SMU4 0.001 LIN        2    0          5          6    1         
  VS         V  E GROUND SMU2 0.1 CON        0
  VD         V  S GROUND SMU1 0.1 LIN        1    0          5          101  0.05      
  VB         V  C GROUND SMU3 0.1 LIN        3    0          -2.5       2    -2.5      
 ICCAP_OUTPUTS
  ID         I  S GROUND SMU1 B
  IB         I  C GROUND SMU3 B
  IG         I  B GROUND SMU4 B
END_HEADER

BEGIN_DB
 ICCAP_VAR VG         0              
 ICCAP_VAR VS         0              
 ICCAP_VAR VB         0              

 #VD              ID              IB              IG             
  0               1.4677e-009     1.0115e-008     1.0562e-009    
  0.05            -7.62e-011      -1.5479e-008    2.4567e-009    
  0.1             1.4816e-009     5.616e-009      2.3641e-009    
  0.15            1.2015e-009     1.5982e-008     -1.9037e-009   
  0.2             1.4701e-009     -1.3621e-008    2.4366e-009    
  0.25            1.2929e-009     1.7635e-008     -1.7197e-009   
  0.3             -1.2398e-009    4.291e-009      2.7417e-009    
  0.35            1.2949e-009     1.761e-008      -1.7208e-009   
  0.4             -1.2329e-009    4.211e-009      2.7436e-009    
  0.45            1.3009e-009     1.7676e-008     -1.7184e-009   
  0.5             -1.2319e-009    4.231e-009      2.7427e-009    
  0.55            1.3034e-009     1.7715e-008     -1.7177e-009   
  0.6             8.55e-011       4.327e-009      -1.4888e-009   
  0.65            1.864e-010      5.615e-009      -1.3525e-009   
  0.7             3.06e-010       7.454e-009      -2.5973e-009   
  0.75            1.5115e-009     -1.2769e-008    2.3791e-009    
  0.8             1.243e-009      1.6226e-008     -1.8642e-009   
  0.85            -7.5e-010       -2.3092e-008    2.6462e-009    
  0.9             5.646e-010      1.0174e-008     -2.6432e-009   
  0.95            -1.101e-010     -1.6021e-008    2.3448e-009    
  1               1.5527e-009     -4.812e-009     2.2608e-009    
  1.05            1.1082e-009     1.3908e-008     -2.1688e-009   
  1.1             1.5374e-009     -1.196e-008     2.341e-009     
  1.15            1.2098e-009     1.5318e-008     -1.9762e-009   
  1.2             -7.735e-010     -9.065e-009     2.6038e-009    
  1.25            6.193e-010      1.0023e-008     -2.643e-009    
  1.3             -1.506e-010     -1.6389e-008    2.2558e-009    
  1.35            1.5561e-009     -5.426e-009     2.2978e-009    
  1.4             1.1624e-009     1.4506e-008     -2.0812e-009   
  1.45            -6.201e-010     -2.3496e-008    2.7544e-009    
  1.5             1.3406e-009     1.7829e-008     -1.6885e-009   
  1.55            1.463e-010      4.146e-009      -1.4592e-009   
  1.6             2.427e-010      5.573e-009      -1.3365e-009   
  1.65            3.473e-010      7.425e-009      -2.5954e-009   
  1.7             1.5427e-009     -1.3007e-008    2.3884e-009    
  1.75            1.2859e-009     1.6475e-008     -1.819e-009    
  1.8             -1.1543e-009    3.628e-009      1.4949e-009    
  1.85            1.4839e-009     -8.707e-009     2.5705e-009    
  1.9             7.555e-010      9.95e-009       -2.613e-009    
  1.95            -2.359e-010     -1.7482e-008    1.9934e-009    
  2               1.5512e-009     -7.047e-009     2.3786e-009    
  2.05            1.2861e-009     1.6349e-008     -1.8375e-009   
  2.1             -7.135e-010     -2.2869e-008    2.635e-009     
  2.15            6.141e-010      1.0164e-008     -2.6595e-009   
  2.2             -7.95e-011      -1.5784e-008    2.316e-009     
  2.25            1.5921e-009     -4.63e-009      2.2616e-009    
  2.3             1.1475e-009     1.3859e-008     -2.1264e-009   
  2.35            -5.605e-010     -2.3012e-008    2.7662e-009    
  2.4             1.3343e-009     1.7594e-008     -1.7426e-009   
  2.45            1.36e-010       3.678e-009      -1.5164e-009   
  2.5             2.351e-010      5.093e-009      -1.3723e-009   
  2.55            3.407e-010      7.319e-009      -1.2957e-009   
  2.6             4.568e-010      8.792e-009      -2.6393e-009   
  2.65            -6.167e-010     -2.3083e-008    2.7167e-009    
  2.7             1.3955e-009     1.8891e-008     -1.6355e-009   
  2.75            1.933e-010      4.367e-009      -1.4411e-009   
  2.8             2.893e-010      6.078e-009      -1.3324e-009   
  2.85            3.967e-010      7.999e-009      -2.6084e-009   
  2.9             -5.407e-010     -2.2938e-008    2.7709e-009    
  2.95            1.3426e-009     1.753e-008      -1.764e-009    
  3               1.427e-010      3.687e-009      -1.53e-009     
  3.05            2.441e-010      5.058e-009      -1.3752e-009   
  3.1             3.494e-010      7.222e-009      -1.3011e-009   
  3.15            4.639e-010      8.636e-009      -2.6316e-009   
  3.2             -5.973e-010     -2.3145e-008    2.7192e-009    
  3.25            1.4005e-009     1.875e-008      -1.6465e-009   
  3.3             1.984e-010      4.289e-009      -1.4446e-009   
  3.35            2.943e-010      5.947e-009      -1.3326e-009   
  3.4             4.034e-010      8.097e-009      -2.6052e-009   
  3.45            -5.245e-010     -2.2906e-008    2.773e-009     
  3.5             1.3415e-009     1.7141e-008     -1.7783e-009   
  3.55            1.513e-010      3.667e-009      -1.5364e-009   
  3.6             2.497e-010      4.827e-009      -1.3808e-009   
  3.65            3.536e-010      6.779e-009      -1.304e-009    
  3.7             4.619e-010      8.673e-009      -2.6294e-009   
  3.75            -5.822e-010     -2.3191e-008    2.7303e-009    
  3.8             1.3997e-009     1.8386e-008     -1.6631e-009   
  3.85            2.041e-010      4.162e-009      -1.4506e-009   
  3.9             2.995e-010      5.656e-009      -1.339e-009    
  3.95            4.051e-010      7.885e-009      -2.5981e-009   
  4               -5.026e-010     -2.2774e-008    2.7793e-009    
  4.05            1.3424e-009     1.6796e-008     -1.7874e-009   
  4.1             1.526e-010      3.514e-009      -1.5446e-009   
  4.15            2.519e-010      4.747e-009      -1.3892e-009   
  4.2             3.531e-010      6.763e-009      -1.3058e-009   
  4.25            4.626e-010      8.28e-009       -2.6208e-009   
  4.3             -5.622e-010     -2.3403e-008    2.7486e-009    
  4.35            1.4033e-009     1.8098e-008     -1.6756e-009   
  4.4             -1.3511e-009    -5.179e-009     -5.88e-011     
  4.45            -5.057e-010     -2.3063e-008    2.7748e-009    
  4.5             1.3592e-009     1.6886e-008     -1.7814e-009   
  4.55            1.725e-010      3.801e-009      -1.5298e-009   
  4.6             2.679e-010      4.731e-009      -1.381e-009    
  4.65            3.688e-010      6.697e-009      -1.2994e-009   
  4.7             4.736e-010      8.289e-009      -2.622e-009    
  4.75            -5.656e-010     -2.349e-008     2.7412e-009    
  4.8             1.4171e-009     1.8263e-008     -1.66e-009     
  4.85            2.218e-010      4.165e-009      -1.451e-009    
  4.9             3.173e-010      5.539e-009      -1.3358e-009   
  4.95            4.216e-010      7.776e-009      -2.5954e-009   
  5               -4.881e-010     -2.2939e-008    2.7845e-009    
END_DB

BEGIN_DB
 ICCAP_VAR VG         1              
 ICCAP_VAR VS         0              
 ICCAP_VAR VB         0              

 #VD              ID              IB              IG             
  0               -4.352e-007     -8.642e-009     2.5469e-009    
  0.05            2.8769e-005     1.0125e-008     -3.845e-010    
  0.1             5.2332e-005     1.6332e-008     -1.5254e-009   
  0.15            7.0219e-005     1.0607e-008     -2.1968e-009   
  0.2             8.2062e-005     7.336e-009      1.9909e-009    
  0.25            8.9357e-005     -1.9826e-008    1.4092e-009    
  0.3             9.3857e-005     -2.2554e-008    2.2943e-009    
  0.35            9.6688e-005     -9.551e-009     -6.645e-010    
  0.4             9.8775e-005     5.794e-009      -2.6258e-009   
  0.45            9.9953e-005     1.0437e-008     -2.5786e-009   
  0.5             0.000100737     1.185e-008      -1.9517e-009   
  0.55            0.000101378     1.0296e-008     -2.5435e-009   
  0.6             0.000101875     1.2436e-008     -1.8702e-009   
  0.65            0.000102316     1.031e-008      -2.499e-009    
  0.7             0.00010273      1.3199e-008     -1.7894e-009   
  0.75            0.00010316      1.0099e-008     -2.45e-009     
  0.8             0.000103434     1.3897e-008     -1.7149e-009   
  0.85            0.000103845     9.915e-009      -2.3884e-009   
  0.9             0.000104075     1.4679e-008     -1.6427e-009   
  0.95            0.000104498     9.912e-009      -2.3274e-009   
  1               0.000104673     1.5337e-008     -1.5805e-009   
  1.05            0.000105075     1.0242e-008     -2.2629e-009   
  1.1             0.000105212     1.6243e-008     -1.5256e-009   
  1.15            0.000105604     1.0569e-008     -2.1895e-009   
  1.2             0.000104451     7.194e-009      1.9915e-009    
  1.25            0.000104932     -2.009e-008     1.4062e-009    
  1.3             0.000105258     -1.4519e-008    2.0784e-009    
  1.35            0.000105177     -1.0197e-008    2.7099e-009    
  1.4             0.000105743     -1.4931e-008    1.9891e-009    
  1.45            0.000105697     -1.0863e-008    2.6611e-009    
  1.5             0.000106232     -1.5689e-008    1.8976e-009    
  1.55            0.000106227     -1.1448e-008    2.6103e-009    
  1.6             0.000106644     -1.6072e-008    1.8112e-009    
  1.65            0.000106721     -1.2016e-008    2.5462e-009    
  1.7             0.000107147     -1.6636e-008    1.7345e-009    
  1.75            0.000107321     -2.2923e-008    2.6321e-009    
  1.8             0.000107611     -1.5897e-008    1.8392e-009    
  1.85            0.000107622     -1.1784e-008    2.5747e-009    
  1.9             0.000108036     -1.6528e-008    1.7494e-009    
  1.95            0.000108152     -2.2856e-008    2.6503e-009    
  2               0.000108444     -1.57e-008      1.8661e-009    
  2.05            0.000108458     -1.166e-008     2.5915e-009    
  2.1             0.000108848     -1.6277e-008    1.7871e-009    
  2.15            0.000108983     -2.277e-008     2.6633e-009    
  2.2             0.000109266     -1.5434e-008    1.9043e-009    
  2.25            0.000109351     -2.2068e-008    2.7247e-009    
  2.3             0.000109661     -1.4682e-008    2.022e-009     
  2.35            0.000110242     -9.577e-009     -8.303e-010    
  2.4             0.000110988     7.627e-009      -2.6562e-009   
  2.45            0.000111421     9.8e-009        -2.4421e-009   
  2.5             0.000111562     1.3648e-008     -1.7112e-009   
  2.55            0.000111821     9.438e-009      -2.3896e-009   
  2.6             0.000111949     1.3934e-008     -1.6399e-009   
  2.65            0.000112241     8.987e-009      -2.3195e-009   
  2.7             0.000112294     1.4188e-008     -1.576e-009    
  2.75            0.000112636     8.618e-009      -2.2583e-009   
  2.8             0.000112626     1.413e-008      -1.5257e-009   
  2.85            0.000112984     7.895e-009      -2.1806e-009   
  2.9             0.000113032     6.452e-009      -2.6289e-009   
  2.95            0.000113383     6.874e-009      -2.0935e-009   
  3               0.000113472     5.061e-009      -2.5987e-009   
  3.05            0.00011375      5.086e-009      -2.0185e-009   
  3.1             0.00011384      2.744e-009      -2.5738e-009   
  3.15            0.00011258      2.715e-009      2.7906e-009    
  3.2             0.00011443      -2.035e-008     -1.5399e-009   
  3.25            0.00011368      -1.9353e-008    -2.5784e-009   
  3.3             0.00011389      -1.8134e-008    -2.6379e-009   
  3.35            0.0001127       -9.912e-009     1.6216e-009    
  3.4             0.00011378      -3.1084e-008    6.71e-011      
  3.45            0.0001148       -2.2393e-008    -1.568e-009    
  3.5             0.00011423      -2.1362e-008    2.3747e-009    
  3.55            0.00011487      -4.1489e-008    -8.966e-010    
  3.6             0.00011599      -1.2891e-008    -2.2199e-009   
  3.65            0.00011467      -3.473e-008     2.0812e-009    
  3.7             0.00011527      -5.7734e-008    -4.462e-010    
  3.75            0.00011628      -3.4426e-008    -1.3819e-009   
  3.8             0.00011536      -5.5004e-008    2.5067e-009    
  3.85            0.00011652      -7.6894e-008    -1.0819e-009   
  3.9             0.00011702      -5.432e-008     -1.8789e-009   
  3.95            0.00011599      -7.7979e-008    2.2527e-009    
  4               0.00011671      -1.04904e-007   9.135e-010     
  4.05            0.00011606      -1.1434e-007    2.7157e-009    
  4.1             0.00011809      -1.2583e-007    -1.37e-009     
  4.15            0.00011817      -1.1487e-007    -1.4608e-009   
  4.2             0.00011707      -1.3619e-007    2.4433e-009    
  4.25            0.0001181       -1.6639e-007    -9.94e-010     
  4.3             0.00011862      -1.4867e-007    -2.0482e-009   
  4.35            0.00011771      -1.8232e-007    2.1781e-009    
  4.4             0.00011825      -2.1764e-007    -5.772e-010    
  4.45            0.00011957      -2.0445e-007    -1.3247e-009   
  4.5             0.00011858      -2.4007e-007    2.5904e-009    
  4.55            0.00011985      -2.7805e-007    -1.1803e-009   
  4.6             0.00012039      -2.7208e-007    -1.7012e-009   
  4.65            0.00011935      -3.1021e-007    2.3259e-009    
  4.7             0.00012016      -3.5462e-007    -8.178e-010    
  4.75            0.00012136      -3.4679e-007    -2.347e-009    
  4.8             0.00011993      -3.9501e-007    1.9963e-009    
  4.85            0.0001205       -4.4606e-007    -3.309e-010    
  4.9             0.00012194      -4.5033e-007    -1.4487e-009   
  4.95            0.00012118      -4.9739e-007    2.4462e-009    
  5               0.00012219      -5.5279e-007    -1.0021e-009   
END_DB

BEGIN_DB
 ICCAP_VAR VG         2              
 ICCAP_VAR VS         0              
 ICCAP_VAR VB         0              

 #VD              ID              IB              IG             
  0               -1.3469e-006    -9.404e-009     1.6326e-009    
  0.05            7.7518e-005     -2.3309e-008    1.3052e-009    
  0.1             0.00015458      -8.528e-009     2.0027e-009    
  0.15            0.00023064      -2.2766e-008    2.6795e-009    
  0.2             0.000306        -1.8494e-008    1.9151e-009    
  0.25            0.00038014      -2.3029e-008    2.6318e-009    
  0.3             0.00045351      -1.7336e-008    1.8265e-009    
  0.35            0.00052582      -8.781e-009     -1.0243e-009   
  0.4             0.00059709      1.0519e-008     -2.5799e-009   
  0.45            0.00066707      1.3291e-008     -1.76e-009     
  0.5             0.00073594      1.03e-008       -2.2843e-009   
  0.55            0.00080339      1.7718e-008     -1.4143e-009   
  0.6             0.00086974      1.2774e-008     -1.8206e-009   
  0.65            0.00093457      1.0107e-008     -2.3416e-009   
  0.7             0.00099768      1.7057e-008     -1.4502e-009   
  0.75            0.0010595       1.2335e-008     -1.8962e-009   
  0.8             0.00111948      1.0233e-008     -2.3981e-009   
  0.85            0.0011774       1.6703e-008     2.7555e-009    
  0.9             0.0012337       -1.5488e-008    1.8797e-009    
  0.95            0.0012881       -2.312e-008     2.6098e-009    
  1               0.0013405       -1.6797e-008    1.7909e-009    
  1.05            0.0013907       -2.3367e-008    2.5495e-009    
  1.1             0.0014383       -1.5788e-008    1.7017e-009    
  1.15            0.0014837       -2.3599e-008    2.4808e-009    
  1.2             0.0015271       -9.659e-009     -6.72e-010     
  1.25            0.0015686       7.4e-009        -2.6485e-009   
  1.3             0.0016062       1.0267e-008     -2.3545e-009   
  1.35            0.0016408       1.6917e-008     -1.4563e-009   
  1.4             0.0016732       1.2308e-008     -1.9064e-009   
  1.45            0.0017031       9.948e-009      -2.405e-009    
  1.5             0.001729        1.6032e-008     -1.5018e-009   
  1.55            0.0017532       1.1891e-008     -1.9783e-009   
  1.6             0.0017744       1.0189e-008     -2.4557e-009   
  1.65            0.0017934       1.5567e-008     -1.5456e-009   
  1.7             0.00181         1.166e-008      -2.0496e-009   
  1.75            0.0018246       1.0294e-008     -2.5012e-009   
  1.8             0.0018367       1.4802e-008     -1.604e-009    
  1.85            0.0018481       1.1163e-008     -2.1249e-009   
  1.9             0.0018577       1.0347e-008     -2.5386e-009   
  1.95            0.0018662       1.4107e-008     -1.6671e-009   
  2               0.0018737       1.1033e-008     -2.1921e-009   
  2.05            0.0018807       1.0408e-008     -2.5674e-009   
  2.1             0.0018861       1.3491e-008     -1.7254e-009   
  2.15            0.0018918       1.0465e-008     -2.2545e-009   
  2.2             0.0018965       1.7964e-008     -1.3982e-009   
  2.25            0.001901        1.2992e-008     -1.7902e-009   
  2.3             0.0019054       1.0225e-008     -2.3141e-009   
  2.35            0.0019084       1.7341e-008     -1.4313e-009   
  2.4             0.0019123       1.2618e-008     -1.8601e-009   
  2.45            0.0019156       1.0195e-008     -2.3735e-009   
  2.5             0.0019158       7.636e-009      1.9887e-009    
  2.55            0.001918        -9.659e-009     2.7584e-009    
  2.6             0.0019218       -1.5542e-008    1.8778e-009    
  2.65            0.0019241       -2.3241e-008    2.6166e-009    
  2.7             0.0019271       -1.7029e-008    1.7978e-009    
  2.75            0.0019317       -8.822e-009     -1.041e-009    
  2.8             0.001935        1.0533e-008     -2.5687e-009   
  2.85            0.0019372       1.3595e-008     -1.7254e-009   
  2.9             0.0019397       1.0535e-008     -2.2642e-009   
  2.95            0.0019419       1.8009e-008     -1.4019e-009   
  3               0.0019441       1.3018e-008     -1.8e-009      
  3.05            0.0019463       1.0348e-008     -2.324e-009    
  3.1             0.0019479       1.7145e-008     -1.4358e-009   
  3.15            0.0019501       1.2465e-008     -1.8693e-009   
  3.2             0.0019525       1.0051e-008     -2.3801e-009   
  3.25            0.0019508       7.415e-009      1.9843e-009    
  3.3             0.0019524       -9.905e-009     2.7623e-009    
  3.35            0.0019555       -2.1452e-008    2.1147e-009    
  3.4             0.0019567       -2.2588e-008    2.7199e-009    
  3.45            0.0019595       -2.0619e-008    2.0089e-009    
  3.5             0.0019608       -1.1395e-008    2.003e-010     
  3.55            0.0019658       9.673e-009      -2.1636e-009   
  3.6             0.0019676       8.476e-009      -2.5538e-009   
  3.65            0.001969        1.1173e-008     -1.694e-009    
  3.7             0.001971        7.074e-009      -2.2329e-009   
  3.75            0.0019724       5.61e-009       -2.5821e-009   
  3.8             0.0019742       6.864e-009      -1.7642e-009   
  3.85            0.0019762       2.243e-009      -2.2906e-009   
  3.9             0.0019758       -1.9071e-008    -2.1553e-009   
  3.95            0.001979        -2.935e-009     -2.2166e-009   
  4               0.0019779       -1.0059e-008    2.0928e-009    
  4.05            0.0019799       -3.208e-008     -4.565e-010    
  4.1             0.0019836       -8.528e-009     -1.3642e-009   
  4.15            0.001983        -2.839e-008     2.5156e-009    
