! VERSION = 6.00
BEGIN_HEADER
 ICCAP_INPUTS
  VG         V  B GROUND SMU4 0.001 LIN        2    0          5          6    1         
  VS         V  E GROUND SMU3 0.1 CON        0
  VD         V  S GROUND SMU2 0.1 LIN        1    0          10         201  0.05      
  VB         V  C GROUND SMU1 0.1 LIN        3    0          -2.5       2    -2.5      
 ICCAP_OUTPUTS
  ID         I  S GROUND SMU2 B
  IB         I  C GROUND SMU1 B
  IG         I  B GROUND SMU4 B
END_HEADER

BEGIN_DB
 ICCAP_VAR VG         0              
 ICCAP_VAR VS         0              
 ICCAP_VAR VB         0              

 #VD              ID              IB              IG             
  0               2.85e-009       5.642e-009      4.137e-010     
  0.05            1.846e-009      1.2154e-008     -2.403e-009    
  0.1             -2.339e-009     -1.561e-008     -1.5404e-009   
  0.15            -1.7153e-009    -2.7614e-008    1.3214e-009    
  0.2             2.0741e-009     1.3189e-008     -2.1781e-009   
  0.25            -1.9407e-009    -1.5977e-008    -1.6945e-009   
  0.3             -1.9046e-009    -2.4237e-008    1.3214e-009    
  0.35            2.296e-009      1.4231e-008     -1.9352e-009   
  0.4             -3.2487e-009    -1.6373e-008    -1.934e-010    
  0.45            4.284e-010      -1.9929e-008    2.8013e-009    
  0.5             1.8279e-009     1.1408e-008     -2.4529e-009   
  0.55            -2.4063e-009    -1.5637e-008    -1.5001e-009   
  0.6             -1.6145e-009    -2.8175e-008    1.3202e-009    
  0.65            2.0606e-009     1.2776e-008     -2.2366e-009   
  0.7             -2.0017e-009    -1.5939e-008    -1.6583e-009   
  0.75            -1.8025e-009    -2.5435e-008    1.3221e-009    
  0.8             2.2954e-009     1.3658e-008     -2.005e-009    
  0.85            -2.8315e-009    -1.5831e-008    1.259e-010     
  0.9             1.0565e-009     -1.4752e-008    2.9022e-009    
  0.95            1.4221e-009     9.061e-009      -2.694e-009    
  1               -2.9592e-009    -1.3864e-008    -1.2035e-009   
  1.05            -1.0948e-009    -2.8368e-008    1.3949e-009    
  1.1             1.6798e-009     1.0426e-008     -2.5946e-009   
  1.15            -2.6805e-009    -1.4051e-008    -1.3586e-009   
  1.2             -1.35e-009      -2.9166e-008    1.3315e-009    
  1.25            1.9172e-009     1.1667e-008     -2.4383e-009   
  1.3             -2.3042e-009    -1.5746e-008    -1.5135e-009   
  1.35            -1.5788e-009    -2.8061e-008    1.3213e-009    
  1.4             2.1416e-009     1.2649e-008     -2.2188e-009   
  1.45            -2.5924e-009    -1.6032e-008    2.618e-010     
  1.5             2.8695e-009     -1.3046e-008    2.8969e-009    
  1.55            1.2488e-009     8.121e-009      -1.3747e-009   
  1.6             -2.7288e-009    -1.4012e-008    -1.312e-009    
  1.65            -1.247e-009     -2.9284e-008    1.3404e-009    
  1.7             1.8872e-009     1.1142e-008     -2.4829e-009   
  1.75            -2.3799e-009    -1.4785e-008    -1.4721e-009   
  1.8             -1.4945e-009    -2.8659e-008    1.3197e-009    
  1.85            2.1177e-009     1.2476e-008     -2.2821e-009   
  1.9             -2.5225e-009    -1.5977e-008    2.897e-010     
  1.95            2.9078e-009     -1.2432e-008    2.8907e-009    
  2               1.2182e-009     7.565e-009      -1.3794e-009   
  2.05            -2.7706e-009    -1.4713e-008    -1.2799e-009   
  2.1             -1.163e-009     -2.932e-008     1.3504e-009    
  2.15            1.8665e-009     1.0845e-008     -2.5245e-009   
  2.2             -2.4297e-009    -1.4568e-008    -1.4375e-009   
  2.25            -1.4237e-009    -2.9041e-008    1.3208e-009    
  2.3             2.0913e-009     1.215e-008      -2.3276e-009   
  2.35            -2.4509e-009    -1.5222e-008    3.231e-010     
  2.4             2.9316e-009     -1.2259e-008    2.8888e-009    
  2.45            1.1884e-009     7.568e-009      -1.3852e-009   
  2.5             -2.8059e-009    -1.3879e-008    -1.251e-009    
  2.55            -1.0907e-009    -2.8885e-008    1.3662e-009    
  2.6             1.8415e-009     1.0693e-008     -2.5585e-009   
  2.65            -2.1864e-009    -1.4396e-008    1.617e-009     
  2.7             1.4238e-009     8.664e-009      -2.7222e-009   
  2.75            -2.9492e-009    -1.3975e-008    -1.1446e-009   
  2.8             -9.052e-010     -2.7852e-008    1.4372e-009    
  2.85            1.6882e-009     9.799e-009      -2.6479e-009   
  2.9             -2.0662e-009    -1.3956e-008    1.7953e-009    
  2.95            1.2802e-009     7.93e-009       -1.3804e-009   
  3               -2.0501e-009    -1.3811e-008    1.8192e-009    
  3.05            1.2527e-009     7.625e-009      -1.3811e-009   
  3.1             -2.0324e-009    -1.3937e-008    1.8368e-009    
  3.15            1.2416e-009     7.848e-009      -1.3844e-009   
  3.2             -2.0171e-009    -1.4617e-008    1.8585e-009    
  3.25            1.2275e-009     7.679e-009      -1.3861e-009   
  3.3             -2.0031e-009    -1.4479e-008    1.88e-009      
  3.35            1.205e-009      7.477e-009      -1.3883e-009   
  3.4             -1.9841e-009    -1.4367e-008    1.9111e-009    
  3.45            1.193e-009      7.46e-009       -1.3912e-009   
  3.5             -1.9708e-009    -1.3966e-008    1.9298e-009    
  3.55            1.1766e-009     7.431e-009      -1.3934e-009   
  3.6             -1.9541e-009    -1.3762e-008    1.9502e-009    
  3.65            1.1626e-009     7.219e-009      -1.3925e-009   
  3.7             -1.938e-009     -1.4271e-008    1.9801e-009    
  3.75            1.142e-009      7.037e-009      -1.3944e-009   
  3.8             -1.9186e-009    -1.4249e-008    1.2998e-009    
  3.85            1.1322e-009     6.997e-009      -1.3951e-009   
  3.9             -1.907e-009     -1.4151e-008    1.3007e-009    
  3.95            1.122e-009      7.068e-009      -1.3948e-009   
  4               -1.8892e-009    -1.4309e-008    1.3043e-009    
  4.05            1.1107e-009     6.926e-009      -1.397e-009    
  4.1             -1.8731e-009    -1.4e-008       2.0645e-009    
  4.15            1.0955e-009     6.573e-009      -1.3979e-009   
  4.2             -1.8604e-009    -1.3958e-008    2.0805e-009    
  4.25            1.0798e-009     6.517e-009      -1.3975e-009   
  4.3             -1.8509e-009    -1.4143e-008    1.3084e-009    
  4.35            1.0704e-009     6.548e-009      -1.3988e-009   
  4.4             -1.8299e-009    -1.4188e-008    1.3114e-009    
  4.45            1.0623e-009     6.177e-009      -1.3989e-009   
  4.5             -1.8134e-009    -1.4056e-008    1.3139e-009    
  4.55            1.0417e-009     6.007e-009      -1.3994e-009   
  4.6             -1.7953e-009    -1.4239e-008    1.3155e-009    
  4.65            1.0279e-009     5.948e-009      -1.4007e-009   
  4.7             -1.7862e-009    -1.3982e-008    2.2014e-009    
  4.75            1.0056e-009     5.773e-009      -1.4011e-009   
  4.8             -1.7645e-009    -1.4082e-008    2.2211e-009    
  4.85            9.944e-010      5.664e-009      -1.4004e-009   
  4.9             -1.7457e-009    -1.4091e-008    1.3202e-009    
  4.95            9.836e-010      5.387e-009      -1.3996e-009   
  5               -1.7213e-009    -1.3981e-008    1.3212e-009    
  5.05            9.704e-010      5.095e-009      -1.4003e-009   
  5.1             -1.7086e-009    -1.4109e-008    1.3225e-009    
  5.15            2.6255e-009     1.4391e-008     -1.8397e-009   
  5.2             -3.0241e-009    -1.6867e-008    -2.612e-010    
  5.25            5.815e-010      -2.0206e-008    2.7695e-009    
  5.3             2.1662e-009     1.1528e-008     -2.3822e-009   
  5.35            -2.2736e-009    -1.5918e-008    1.4382e-009    
  5.4             1.7824e-009     9.506e-009      -2.66e-009     
  5.45            -1.9616e-009    -1.4865e-008    1.7989e-009    
  5.5             1.3799e-009     7.994e-009      -1.3839e-009   
  5.55            -1.951e-009     -1.4697e-008    1.8191e-009    
  5.6             1.3568e-009     7.77e-009       -1.3849e-009   
  5.65            -1.935e-009     -1.4621e-008    1.8367e-009    
  5.7             1.3416e-009     7.641e-009      -1.3861e-009   
  5.75            -1.9243e-009    -1.4559e-008    1.8685e-009    
  5.8             1.3266e-009     7.568e-009      -1.3885e-009   
  5.85            -1.9038e-009    -1.4423e-008    1.8886e-009    
  5.9             1.3033e-009     7.481e-009      -1.3903e-009   
  5.95            -1.8884e-009    -1.4621e-008    1.9105e-009    
  6               1.2851e-009     7.498e-009      -1.3927e-009   
  6.05            -1.8772e-009    -1.4519e-008    1.9435e-009    
  6.1             1.2736e-009     7.408e-009      -1.394e-009    
  6.15            -1.8553e-009    -1.4419e-008    1.9628e-009    
  6.2             1.2493e-009     7.113e-009      -1.3953e-009   
  6.25            -1.8431e-009    -1.4475e-008    1.2984e-009    
  6.3             1.2345e-009     7.224e-009      -1.3968e-009   
  6.35            -1.8254e-009    -1.429e-008     1.3016e-009    
  6.4             1.2133e-009     7.084e-009      -1.3982e-009   
  6.45            -1.8092e-009    -1.4044e-008    2.0277e-009    
  6.5             1.2035e-009     6.647e-009      -1.4007e-009   
  6.55            -1.7944e-009    -1.4144e-008    2.0605e-009    
  6.6             1.185e-009      6.748e-009      -1.4013e-009   
  6.65            -1.7838e-009    -1.4136e-008    2.0819e-009    
  6.7             1.17e-009       6.416e-009      -1.4006e-009   
  6.75            -1.7592e-009    -1.4356e-008    1.3112e-009    
  6.8             1.162e-009      6.391e-009      -1.401e-009    
  6.85            -1.7446e-009    -1.4163e-008    1.3131e-009    
  6.9             1.1384e-009     6.034e-009      -1.4e-009      
  6.95            -1.731e-009     -1.4223e-008    1.3141e-009    
  7               1.1252e-009     6.13e-009       -1.4015e-009   
  7.05            -1.7168e-009    -1.4207e-008    1.3173e-009    
  7.1             1.1142e-009     5.86e-009       -1.4014e-009   
  7.15            -1.6964e-009    -1.4126e-008    1.3178e-009    
  7.2             1.0954e-009     5.618e-009      -1.4025e-009   
  7.25            -1.6828e-009    -1.4265e-008    1.319e-009     
  7.3             1.0837e-009     5.46e-009       -1.4022e-009   
  7.35            -1.6666e-009    -1.4216e-008    1.321e-009     
  7.4             1.0651e-009     5.532e-009      -1.4021e-009   
  7.45            -1.6513e-009    -1.4067e-008    1.3232e-009    
  7.5             1.0524e-009     5.349e-009      -1.401e-009    
  7.55            -1.6202e-009    -1.4095e-008    1.3243e-009    
  7.6             2.7007e-009     1.4306e-008     -1.8383e-009   
  7.65            -2.9455e-009    -1.6986e-008    -2.592e-010    
  7.7             6.675e-010      -2.0173e-008    2.7805e-009    
  7.75            2.2391e-009     1.1453e-008     -2.3946e-009   
  7.8             -2.1987e-009    -1.508e-008     1.4424e-009    
  7.85            1.8589e-009     9.657e-009      -2.6644e-009   
  7.9             -1.8822e-009    -1.5098e-008    1.8059e-009    
  7.95            1.4382e-009     7.719e-009      -1.3856e-009   
  8               -1.8685e-009    -1.4722e-008    1.8319e-009    
  8.05            1.4276e-009     7.965e-009      -1.3874e-009   
  8.1             -1.8539e-009    -1.4781e-008    1.8618e-009    
  8.15            1.4088e-009     7.848e-009      -1.3886e-009   
  8.2             -1.8362e-009    -1.468e-008     1.8852e-009    
  8.25            1.3811e-009     7.751e-009      -1.3916e-009   
  8.3             -1.8195e-009    -1.4091e-008    1.9066e-009    
  8.35            1.3642e-009     7.408e-009      -1.3943e-009   
  8.4             -1.8084e-009    -1.4615e-008    1.9268e-009    
  8.45            1.3451e-009     7.37e-009       -1.3941e-009   
  8.5             -1.7919e-009    -1.4456e-008    1.9485e-009    
  8.55            1.3372e-009     7.269e-009      -1.3947e-009   
  8.6             -1.7746e-009    -1.4383e-008    1.9764e-009    
  8.65            1.3146e-009     7.046e-009      -1.3968e-009   
  8.7             -1.7606e-009    -1.4607e-008    1.3005e-009    
  8.75            1.3008e-009     6.961e-009      -1.3986e-009   
  8.8             -1.7462e-009    -1.4391e-008    1.3014e-009    
  8.85            1.2888e-009     6.777e-009      -1.3996e-009   
  8.9             -1.7351e-009    -1.419e-008     2.0377e-009    
  8.95            1.2655e-009     6.725e-009      -1.4001e-009   
  9               -1.715e-009     -1.4184e-008    2.0658e-009    
  9.05            1.2516e-009     6.499e-009      -1.4008e-009   
  9.1             -1.7022e-009    -1.4298e-008    1.3079e-009    
  9.15            1.241e-009      6.524e-009      -1.4017e-009   
  9.2             -1.6825e-009    -1.4354e-008    1.3115e-009    
  9.25            1.2313e-009     6.487e-009      -1.402e-009    
  9.3             -1.674e-009     -1.4308e-008    1.3135e-009    
  9.35            1.217e-009      6.048e-009      -1.4029e-009   
  9.4             -1.6611e-009    -1.4333e-008    1.3141e-009    
  9.45            1.1987e-009     6.03e-009       -1.4039e-009   
  9.5             -1.6475e-009    -1.4268e-008    2.1587e-009    
  9.55            1.1902e-009     5.83e-009       -1.4039e-009   
  9.6             -1.6293e-009    -1.4212e-008    1.3175e-009    
  9.65            1.1728e-009     5.87e-009       -1.4038e-009   
  9.7             -1.6124e-009    -1.4226e-008    1.3183e-009    
  9.75            1.1655e-009     5.721e-009      -1.4032e-009   
  9.8             -1.6033e-009    -1.4324e-008    1.3194e-009    
  9.85            1.1527e-009     5.409e-009      -1.4024e-009   
  9.9             -1.5882e-009    -1.4277e-008    1.3218e-009    
  9.95            1.1454e-009     5.18e-009       -1.402e-009    
  10              -1.5686e-009    -1.4121e-008    1.3244e-009    
END_DB

BEGIN_DB
 ICCAP_VAR VG         1              
 ICCAP_VAR VS         0              
 ICCAP_VAR VB         0              

 #VD              ID              IB              IG             
  0               1.8272e-006     -1.7465e-008    -7.947e-010    
  0.05            9.4861e-005     -1.4162e-008    2.555e-009     
  0.1             0.00017234      -1.6796e-008    -2.5414e-009   
  0.15            0.00022738      1.3122e-008     -1.6083e-009   
  0.2             0.00026342      7.279e-009      -2.7066e-009   
  0.25            0.00028376      9.238e-009      -2.4891e-009   
  0.3             0.00029456      1.1212e-008     -2.0745e-009   
  0.35            0.00030032      1.2828e-008     -1.6478e-009   
  0.4             0.0003041       6.922e-009      -2.7175e-009   
  0.45            0.00030638      8.844e-009      -2.5183e-009   
  0.5             0.00030816      1.0905e-008     -2.1209e-009   
  0.55            0.00030966      1.2739e-008     -1.6844e-009   
  0.6             0.00031101      6.716e-009      -2.7256e-009   
  0.65            0.0003122       8.815e-009      -2.5428e-009   
  0.7             0.00031326      1.0816e-008     -2.163e-009    
  0.75            0.00031412      1.2481e-008     -1.7216e-009   
  0.8             0.00031513      6.181e-009      -2.7337e-009   
  0.85            0.00031607      8.577e-009      -2.5713e-009   
  0.9             0.00031678      1.0511e-008     -2.2098e-009   
  0.95            0.00031747      1.2482e-008     -1.7562e-009   
  1               0.00031834      6.055e-009      -2.7388e-009   
  1.05            0.00031914      8.438e-009      -2.5997e-009   
  1.1             0.00031973      1.0295e-008     -2.2568e-009   
  1.15            0.0003205       1.2238e-008     -1.8042e-009   
  1.2             0.00032127      5.662e-009      -1.3766e-009   
  1.25            0.00032198      6.036e-009      -1.3722e-009   
  1.3             0.00032262      6.45e-009       -2.7346e-009   
  1.35            0.00032329      8.531e-009      -2.5786e-009   
  1.4             0.00032389      1.0634e-008     -2.2222e-009   
  1.45            0.00032439      1.2389e-008     -1.7692e-009   
  1.5             0.00032512      6.029e-009      -1.372e-009    
  1.55            0.0003258       6.268e-009      -2.7343e-009   
  1.6             0.0003264       8.61e-009       -2.5816e-009   
  1.65            0.0003269       1.0502e-008     -2.2237e-009   
  1.7             0.0003275       1.2449e-008     -1.7744e-009   
  1.75            0.00032821      5.992e-009      -1.3733e-009   
  1.8             0.0003288       6.228e-009      -1.3687e-009   
  1.85            0.00032955      6.41e-009       -2.7303e-009   
  1.9             0.00033003      8.619e-009      -2.5598e-009   
  1.95            0.0003305       1.0599e-008     -2.2017e-009   
  2               0.00033102      1.2307e-008     -1.7513e-009   
  2.05            0.00033171      5.931e-009      -2.7384e-009   
  2.1             0.00033217      8.385e-009      -2.5896e-009   
  2.15            0.00033267      1.0157e-008     -2.2422e-009   
  2.2             0.00033326      1.2096e-008     -1.7941e-009   
  2.25            0.00033395      5.383e-009      -1.3747e-009   
  2.3             0.00033432      5.549e-009      -1.3711e-009   
  2.35            0.00033483      5.944e-009      -2.7308e-009   
  2.4             0.00033548      8.033e-009      -2.5693e-009   
  2.45            0.00033597      9.522e-009      -2.2078e-009   
  2.5             0.0003364       1.0993e-008     -1.7589e-009   
  2.55            0.00033708      4.215e-009      -1.3735e-009   
  2.6             0.00033761      4.061e-009      -2.7335e-009   
  2.65            0.00033801      5.756e-009      -2.5736e-009   
  2.7             0.00033839      6.6e-009        -2.2148e-009   
  2.75            0.00033888      7.183e-009      -1.7662e-009   
  2.8             0.00033712      -2.0234e-008    -2.3581e-009   
  2.85            0.00033984      3.395e-009      -1.896e-009    
  2.9             0.00033874      -1.9548e-008    -2.7635e-009   
  2.95            0.00033914      -2.1831e-008    -2.7586e-009   
  3               0.0003419       6.468e-009      -1.396e-009    
  3.05            0.00033872      -1.4929e-008    9.673e-010     
  3.1             0.00033863      -3.4678e-008    1.4381e-009    
  3.15            0.00034082      -4.5375e-008    -4.73e-010     
  3.2             0.00034251      -3.8616e-008    -2.253e-009    
  3.25            0.00034373      -3.5743e-008    -1.859e-010    
  3.3             0.00034196      -4.9898e-008    2.8999e-009    
  3.35            0.00034208      -8.2674e-008    1.3088e-009    
  3.4             0.00034484      -7.8904e-008    -1.1623e-009   
  3.45            0.00034537      -7.477e-008     -1.4073e-009   
  3.5             0.00034466      -7.9197e-008    5.528e-010     
  3.55            0.00034492      -1.1518e-007    1.9512e-009    
  3.6             0.00034406      -1.2815e-007    -6.51e-011     
  3.65            0.00034667      -1.3508e-007    -2.6459e-009   
  3.7             0.00034913      -1.3289e-007    -1.5919e-009   
  3.75            0.00034816      -1.589e-007     2.698e-010     
  3.8             0.00034719      -1.9032e-007    2.6389e-009    
  3.85            0.0003472       -2.2437e-007    3.387e-010     
  3.9             0.00034949      -2.4307e-007    -2.7632e-009   
  3.95            0.00035209      -2.3585e-007    -1.3982e-009   
  4               0.00034932      -2.847e-007     9.539e-010     
  4.05            0.00034895      -3.32e-007      1.4547e-009    
  4.1             0.00035149      -3.7404e-007    -4.448e-010    
  4.15            0.0003531       -4.0049e-007    -2.2748e-009   
  4.2             0.00035483      -4.2994e-007    -2.045e-010    
  4.25            0.00035334      -4.7907e-007    2.9035e-009    
  4.3             0.0003535       -5.5575e-007    1.3122e-009    
  4.35            0.00035648      -5.9054e-007    -1.1509e-009   
