! VERSION = 6.00
BEGIN_HEADER
 ICCAP_INPUTS
  VG         V  B GROUND SMU4 0.001 LIN        2    0          5          6    1         
  VS         V  E GROUND SMU2 0.1 CON        0
  VD         V  S GROUND SMU1 0.1 LIN        1    0          5          101  0.05      
  VB         V  C GROUND SMU3 0.1 LIN        3    0          -2.5       2    -2.5      
 ICCAP_OUTPUTS
  ID         I  S GROUND SMU1 B
  IB         I  C GROUND SMU3 B
  IG         I  B GROUND SMU4 B
END_HEADER

BEGIN_DB
 ICCAP_VAR VG         0              
 ICCAP_VAR VS         0              
 ICCAP_VAR VB         0              

 #VD              ID              IB              IG             
  0               -4.714e-010     -1.6141e-008    -9.739e-010    
  0.05            1.2253e-009     1.913e-008      -1.6327e-009   
  0.1             -1.2731e-009    4.712e-009      2.6601e-009    
  0.15            1.9029e-009     1.6828e-008     -1.7618e-009   
  0.2             -1.2213e-009    4.347e-009      2.6898e-009    
  0.25            1.8524e-009     1.9753e-008     -1.8951e-009   
  0.3             -1.1747e-009    4.157e-009      2.7129e-009    
  0.35            1.1397e-009     1.7263e-008     -1.8402e-009   
  0.4             -1.1859e-009    4.281e-009      2.7071e-009    
  0.45            1.1692e-009     1.7893e-008     -1.7887e-009   
  0.5             -1.2011e-009    4.457e-009      2.7008e-009    
  0.55            1.1973e-009     1.8084e-008     -1.7357e-009   
  0.6             -1.2218e-009    4.327e-009      2.6885e-009    
  0.65            1.8737e-009     1.9285e-008     -1.871e-009    
  0.7             -1.1747e-009    4.189e-009      2.7127e-009    
  0.75            1.1637e-009     1.7507e-008     -1.8102e-009   
  0.8             -1.186e-009     4.382e-009      2.702e-009     
  0.85            1.1884e-009     1.8025e-008     -1.7595e-009   
  0.9             -1.2026e-009    4.418e-009      2.6965e-009    
  0.95            1.8697e-009     1.9889e-008     -1.8993e-009   
  1               -1.16e-009      4.34e-009       2.7106e-009    
  1.05            1.1578e-009     1.7441e-008     -1.8452e-009   
  1.1             -1.1754e-009    4.157e-009      2.7078e-009    
  1.15            1.1843e-009     1.7814e-008     -1.7911e-009   
  1.2             -1.1885e-009    4.311e-009      2.6965e-009    
  1.25            1.2086e-009     1.8291e-008     -1.7332e-009   
  1.3             -1.206e-009     4.22e-009       2.6863e-009    
  1.35            1.885e-009      1.9056e-008     -1.8712e-009   
  1.4             -1.1635e-009    4.207e-009      2.7083e-009    
  1.45            1.1801e-009     1.759e-008      -1.8148e-009   
  1.5             -1.1779e-009    4.252e-009      2.7034e-009    
  1.55            1.2059e-009     1.8165e-008     -1.7567e-009   
  1.6             -1.1921e-009    4.464e-009      2.6913e-009    
  1.65            1.2295e-009     1.8743e-008     -1.6991e-009   
  1.7             -1.2073e-009    4.414e-009      2.6768e-009    
  1.75            1.9078e-009     1.845e-008      -1.8297e-009   
  1.8             -1.1645e-009    4.386e-009      2.7068e-009    
  1.85            1.2008e-009     1.8058e-008     -1.7782e-009   
  1.9             -1.1797e-009    4.48e-009       2.6934e-009    
  1.95            1.2247e-009     1.8374e-008     -1.7233e-009   
  2               -1.199e-009     4.42e-009       2.6822e-009    
  2.05            1.9042e-009     1.8933e-008     -1.8523e-009   
  2.1             -1.1561e-009    4.163e-009      2.7101e-009    
  2.15            1.1951e-009     1.7846e-008     -1.8011e-009   
  2.2             -1.1701e-009    4.245e-009      2.6959e-009    
  2.25            1.2238e-009     1.8322e-008     -1.7434e-009   
  2.3             -1.1885e-009    4.196e-009      2.6898e-009    
  2.35            1.8973e-009     1.9371e-008     -1.8746e-009   
  2.4             -1.1473e-009    4.128e-009      2.707e-009     
  2.45            1.1899e-009     1.7746e-008     -1.8133e-009   
  2.5             -1.1599e-009    4.349e-009      2.7036e-009    
  2.55            1.2165e-009     1.8195e-008     -1.7682e-009   
  2.6             -1.1759e-009    4.324e-009      2.6908e-009    
  2.65            1.8938e-009     1.988e-008      -1.8961e-009   
  2.7             -1.1364e-009    4.332e-009      2.7116e-009    
  2.75            1.1837e-009     1.7496e-008     -1.8364e-009   
  2.8             -1.1523e-009    4.075e-009      2.7028e-009    
  2.85            1.2057e-009     1.8054e-008     -1.7893e-009   
  2.9             -1.1651e-009    4.463e-009      2.6974e-009    
  2.95            1.2355e-009     1.8471e-008     -1.7311e-009   
  3               -1.1852e-009    4.51e-009       2.678e-009     
  3.05            1.9079e-009     1.9117e-008     -1.8613e-009   
  3.1             -1.1424e-009    4.117e-009      2.7098e-009    
  3.15            1.2019e-009     1.7859e-008     -1.8063e-009   
  3.2             -1.1553e-009    4.369e-009      2.6995e-009    
  3.25            1.2258e-009     1.8427e-008     -1.7569e-009   
  3.3             -1.1717e-009    4.465e-009      2.6864e-009    
  3.35            1.9027e-009     1.9699e-008     -1.8955e-009   
  3.4             -1.1327e-009    4.006e-009      2.7115e-009    
  3.45            1.196e-009      1.7519e-008     -1.8388e-009   
  3.5             -1.1472e-009    4.326e-009      2.7066e-009    
  3.55            1.2226e-009     1.8011e-008     -1.7865e-009   
  3.6             -1.1604e-009    4.389e-009      2.6932e-009    
  3.65            1.2441e-009     1.869e-008      -1.7256e-009   
  3.7             -1.1772e-009    4.402e-009      2.6775e-009    
  3.75            1.2689e-009     1.8946e-008     -1.6766e-009   
  3.8             -1.1956e-009    4.488e-009      2.6611e-009    
  3.85            1.9461e-009     1.7904e-008     -1.8048e-009   
  3.9             -1.1492e-009    4.147e-009      2.6983e-009    
  3.95            1.2392e-009     1.851e-008      -1.7581e-009   
  4               -1.1674e-009    4.324e-009      2.6892e-009    
  4.05            1.2601e-009     1.8855e-008     -1.7056e-009   
  4.1             -1.1827e-009    4.309e-009      2.6727e-009    
  4.15            1.9355e-009     1.8705e-008     -1.8369e-009   
  4.2             -1.1415e-009    4.407e-009      2.6995e-009    
  4.25            1.228e-009      1.8172e-008     -1.7858e-009   
  4.3             -1.1522e-009    4.259e-009      2.6909e-009    
  4.35            1.2486e-009     1.8658e-008     -1.733e-009    
  4.4             -1.1695e-009    4.455e-009      2.678e-009     
  4.45            1.9224e-009     1.9178e-008     -1.8631e-009   
  4.5             -1.1278e-009    4.202e-009      2.7073e-009    
  4.55            1.2129e-009     1.7829e-008     -1.8148e-009   
  4.6             -1.1417e-009    4.308e-009      2.6992e-009    
  4.65            1.2409e-009     1.8357e-008     -1.7645e-009   
  4.7             -1.1591e-009    4.262e-009      2.6844e-009    
  4.75            1.9136e-009     1.9727e-008     -1.8949e-009   
  4.8             -1.119e-009     4.187e-009      2.7101e-009    
  4.85            1.2056e-009     1.7669e-008     -1.8434e-009   
  4.9             -1.1299e-009    4.372e-009      2.7016e-009    
  4.95            1.2309e-009     1.8149e-008     -1.7849e-009   
  5               -1.1501e-009    4.447e-009      2.6912e-009    
END_DB

BEGIN_DB
 ICCAP_VAR VG         1              
 ICCAP_VAR VS         0              
 ICCAP_VAR VB         0              

 #VD              ID              IB              IG             
  0               -1.6241e-006    4.23e-009       2.0376e-009    
  0.05            7.4993e-005     -1.0522e-008    2.0772e-009    
  0.1             0.00013456      -2.5069e-008    -1.3381e-009   
  0.15            0.00017613      1.6452e-008     -1.4176e-009   
  0.2             0.00020299      1.4865e-008     -1.9183e-009   
  0.25            0.0002182       1.245e-008      -2.3835e-009   
  0.3             0.00022619      2.2102e-008     -1.6223e-009   
  0.35            0.00023053      1.4064e-008     -2.1572e-009   
  0.4             0.00023135      9.81e-009       6.762e-010     
  0.45            0.00023182      -7.701e-009     2.6944e-009    
  0.5             0.00023344      -2.5162e-008    2.5463e-009    
  0.55            0.00023528      -1.9256e-008    1.7059e-009    
  0.6             0.00023553      -2.5542e-008    2.4854e-009    
  0.65            0.00023703      -1.7271e-008    1.5942e-009    
  0.7             0.00023795      -2.5757e-008    2.4025e-009    
  0.75            0.00023902      -1.1359e-008    -7.07e-010     
  0.8             0.00024121      7.579e-009      -2.5622e-009   
  0.85            0.00024243      1.3248e-008     -2.2795e-009   
  0.9             0.00024278      1.8822e-008     -1.4864e-009   
  0.95            0.00024371      1.4935e-008     -2.0146e-009   
  1               0.00024233      9.591e-009      7.618e-010     
  1.05            0.00024195      -2.5636e-008    2.4879e-009    
  1.1             0.00024283      -1.7317e-008    1.5959e-009    
  1.15            0.00024354      -2.5844e-008    2.4092e-009    
  1.2             0.00024437      -1.1437e-008    -7.149e-010    
  1.25            0.00024649      7.519e-009      -2.5638e-009   
  1.3             0.00024752      1.3326e-008     -2.2832e-009   
  1.35            0.00024817      1.8975e-008     -1.4843e-009   
  1.4             0.00024572      7.277e-009      1.0497e-009    
  1.45            0.00024678      -2.2698e-008    1.9398e-009    
  1.5             0.00024762      -1.039e-008     -9.534e-010    
  1.55            0.00024983      1.0605e-008     -2.5247e-009   
  1.6             0.00025046      1.5382e-008     -1.8579e-009   
  1.65            0.00025102      1.2725e-008     -2.3433e-009   
  1.7             0.00025145      2.1053e-008     -1.5617e-009   
  1.75            0.00025195      1.4732e-008     -2.1007e-009   
  1.8             0.00025244      1.2058e-008     -2.4629e-009   
  1.85            0.00025274      1.6348e-008     -1.6002e-009   
  1.9             0.00025328      1.4483e-008     -2.1435e-009   
  1.95            0.00025182      9.89e-009       6.955e-010     
  2               0.00025081      -7.853e-009     2.6901e-009    
  2.05            0.00025134      -2.4955e-008    2.5355e-009    
  2.1             0.00025274      -1.9254e-008    1.6779e-009    
  2.15            0.0002526       -2.5632e-008    2.458e-009     
  2.2             0.00025373      -1.1605e-008    -6.622e-010    
  2.25            0.0002557       7.004e-009      -2.5651e-009   
  2.3             0.00025703      1.2505e-008     -2.328e-009    
  2.35            0.0002573       2.0006e-008     -1.5431e-009   
  2.4             0.00025776      1.4239e-008     -2.08e-009     
  2.45            0.0002582       1.1313e-008     -2.4553e-009   
  2.5             0.00025852      1.5438e-008     -1.5851e-009   
  2.55            0.00025902      1.3322e-008     -2.123e-009    
  2.6             0.00025936      1.0233e-008     -2.4729e-009   
  2.65            0.00025962      1.3967e-008     -1.6244e-009   
  2.7             0.00026022      1.1419e-008     -2.1593e-009   
  2.75            0.00026054      7.659e-009      -2.4883e-009   
  2.8             0.0002609       1.1109e-008     -1.6662e-009   
  2.85            0.00026135      7.61e-009       -2.1993e-009   
  2.9             0.00026183      3.397e-009      -2.4985e-009   
  2.95            0.00026208      6.187e-009      -1.7184e-009   
  3               0.00026022      -5.054e-009     2.3197e-009    
  3.05            0.00026078      -2.6176e-008    -8.045e-010    
  3.1             0.00026183      -2.3938e-008    -2.5664e-009   
  3.15            0.00025925      -1.5012e-008    1.2842e-009    
  3.2             0.00026137      -4.0068e-008    2.6957e-009    
  3.25            0.0002647       -4.0779e-008    -1.7172e-009   
  3.3             0.0002639       -2.8358e-008    -1.37e-011     
  3.35            0.00026251      -6.0006e-008    1.9929e-009    
  3.4             0.00026333      -5.7988e-008    -2.1739e-009   
  3.45            0.00026434      -4.748e-008     6.598e-010     
  3.5             0.00026301      -9.0921e-008    2.5962e-009    
  3.55            0.00026561      -8.6794e-008    -1.8629e-009   
  3.6             0.00026629      -7.8108e-008    2.34e-010      
  3.65            0.00026417      -1.0778e-007    2.6565e-009    
  3.7             0.00026852      -1.2166e-007    -1.3858e-009   
  3.75            0.00026835      -1.1242e-007    -1.3672e-009   
  3.8             0.00026605      -1.367e-007     2.4808e-009    
  3.85            0.00026732      -1.7175e-007    -1.0109e-009   
  3.9             0.00026933      -1.5333e-007    -1.9951e-009   
  3.95            0.00026765      -1.9531e-007    2.1728e-009    
  4               0.00026868      -2.3825e-007    -6.303e-010    
  4.05            0.00027055      -2.28e-007      -2.4763e-009   
  4.1             0.00026666      -2.6919e-007    1.7875e-009    
  4.15            0.00026877      -3.1901e-007    -1.387e-010    
  4.2             0.00027187      -3.2428e-007    -1.5971e-009   
  4.25            0.00026989      -3.6649e-007    2.3762e-009    
  4.3             0.00027067      -4.2395e-007    -8.692e-010    
  4.35            0.00027297      -4.2244e-007    -2.2597e-009   
  4.4             0.00027051      -4.8656e-007    2.0231e-009    
  4.45            0.00027163      -5.5376e-007    -4.333e-010    
  4.5             0.00027463      -5.7075e-007    -1.3078e-009   
  4.55            0.00027218      -6.3373e-007    2.5166e-009    
  4.6             0.00027397      -7.0961e-007    -1.0673e-009   
  4.65            0.0002758       -7.2694e-007    -1.883e-009    
  4.7             0.00027427      -8.1418e-007    2.2366e-009    
  4.75            0.00027525      -9.055e-007     -7.034e-010    
  4.8             0.0002776       -9.3466e-007    -2.4352e-009   
  4.85            0.00027383      -1.02963e-006   1.8565e-009    
  4.9             0.00027608      -1.13464e-006   -2.263e-010    
  4.95            0.00027711      -1.2149e-006    -2.4009e-009   
  5               0.0002758       -1.2866e-006    1.889e-009     
END_DB

BEGIN_DB
 ICCAP_VAR VG         2              
 ICCAP_VAR VS         0              
 ICCAP_VAR VB         0              

 #VD              ID              IB              IG             
  0               -4.2203e-006    -1.8097e-008    -1.0328e-009   
  0.05            0.00021476      2.028e-008      1.5614e-009    
  0.1             0.00042812      -1.7946e-008    1.7691e-009    
  0.15            0.00063868      -9.714e-009     -1.0258e-009   
  0.2             0.00084689      1.1317e-008     -2.4885e-009   
  0.25            0.00105142      1.6282e-008     -1.7238e-009   
  0.3             0.0012537       -5.687e-009     -2.5369e-009   
  0.35            0.0014519       1.6903e-008     -1.4138e-009   
  0.4             0.0016468       1.5632e-008     -1.9183e-009   
  0.45            0.001838        1.2275e-008     -2.3629e-009   
  0.5             0.0020245       8.714e-009      1.9285e-009    
  0.55            0.0022077       -2.1192e-008    2.6606e-009    
  0.6             0.0023871       -2.4689e-008    2.1119e-009    
  0.65            0.0025624       -1.1133e-008    -8.808e-010    
  0.7             0.0027329       9.22e-009       -2.5361e-009   
  0.75            0.0028978       1.5318e-008     -2.0061e-009   
  0.8             0.0030573       1.2017e-008     -2.4123e-009   
  0.85            0.0032112       2.4355e-008     -1.7065e-009   
  0.9             0.0033576       8.587e-009      9.24e-010      
  0.95            0.0034988       -2.5111e-008    2.2097e-009    
  1               0.0036352       -1.131e-008     -8.372e-010    
  1.05            0.0037648       8.634e-009      -2.5474e-009   
  1.1             0.0038856       1.4815e-008     -2.0887e-009   
  1.15            0.003998        1.4581e-008     -1.3422e-009   
  1.2             0.0041046       1.5957e-008     -1.7911e-009   
  1.25            0.0042022       1.3296e-008     -2.2877e-009   
  1.3             0.0042913       1.9547e-008     -1.5093e-009   
  1.35            0.0043689       7.418e-009      1.0332e-009    
  1.4             0.0044404       -2.3061e-008    1.9704e-009    
  1.45            0.004508        -1.0567e-008    -9.421e-010    
  1.5             0.0045674       1.0457e-008     -2.519e-009    
  1.55            0.0046163       1.5603e-008     -1.8887e-009   
  1.6             0.0046598       1.2556e-008     -2.3468e-009   
  1.65            0.0046906       8.332e-009      1.9486e-009    
  1.7             0.0047217       -2.148e-008     2.653e-009     
  1.75            0.0047511       -2.4401e-008    2.0677e-009    
  1.8             0.0047782       -1.0669e-008    -8.978e-010    
  1.85            0.0048016       9.625e-009      -2.533e-009    
  1.9             0.0048196       1.5208e-008     -1.9717e-009   
  1.95            0.0048364       1.2195e-008     -2.3931e-009   
  2               0.0048496       2.3557e-008     -1.677e-009    
  2.05            0.0048628       1.4216e-008     -2.1993e-009   
  2.1             0.0048738       1.6898e-008     -1.4084e-009   
  2.15            0.0048843       1.5429e-008     -1.9176e-009   
  2.2             0.0048945       1.2399e-008     -2.3647e-009   
  2.25            0.0048951       8.329e-009      1.9289e-009    
  2.3             0.0049028       -2.1056e-008    2.6569e-009    
  2.35            0.0049125       -2.4668e-008    2.1052e-009    
  2.4             0.0049231       -1.088e-008     -8.836e-010    
  2.45            0.0049347       9.235e-009      -2.5349e-009   
  2.5             0.0049407       1.5213e-008     -2.0023e-009   
  2.55            0.0049477       1.1941e-008     -2.4113e-009   
  2.6             0.004953        1.7067e-008     -1.515e-009    
  2.65            0.0049522       7.521e-009      1.0296e-009    
  2.7             0.0049582       -2.3205e-008    1.981e-009     
  2.75            0.0049679       -1.0751e-008    -9.337e-010    
  2.8             0.0049769       1.0014e-008     -2.5168e-009   
  2.85            0.0049816       1.5594e-008     -1.8969e-009   
  2.9             0.004988        1.2266e-008     -2.3544e-009   
  2.95            0.0049839       8.613e-009      1.9383e-009    
  3               0.0049892       -2.1527e-008    2.6602e-009    
  3.05            0.0049944       -2.471e-008     2.0927e-009    
  3.1             0.0050034       -1.1272e-008    -8.911e-010    
  3.15            0.0050126       9.07e-009       -2.5346e-009   
  3.2             0.0050165       1.4875e-008     -1.9799e-009   
  3.25            0.0050216       1.1366e-008     -2.4051e-009   
  3.3             0.0050251       1.6363e-008     -1.504e-009    
  3.35            0.0050305       1.4089e-008     -2.0342e-009   
  3.4             0.0050351       1.0258e-008     -2.4259e-009   
  3.45            0.0050384       1.4411e-008     -1.5423e-009   
  3.5             0.0050432       1.1505e-008     -2.0725e-009   
  3.55            0.0050479       7.017e-009      -2.446e-009    
  3.6             0.0050509       1.008e-008      -1.5824e-009   
  3.65            0.0050559       5.858e-009      -2.1154e-009   
  3.7             0.0050544       -4.427e-009     2.1077e-009    
  3.75            0.005059        -2.7633e-008    -5.486e-010    
  3.8             0.0050677       -1.023e-009     -2.4988e-009   
  3.85            0.0050594       -1.9179e-008    1.7302e-009    
  3.9             0.0050659       -4.5523e-008    -5.67e-011     
  3.95            0.005079        -3.0107e-008    -1.7177e-009   
  4               0.0050782       -5.1941e-008    2.3139e-009    
  4.05            0.0050837       -8.5046e-008    -8.041e-010    
  4.1             0.0050909       -6.7518e-008    -1.4663e-009   
  4.15            0.0050928       -1.01164e-007   2.1476e-009    
