! VERSION = 6.00
BEGIN_HEADER
 ICCAP_INPUTS
  VG         V  B GROUND SMU4 0.001 LIN        1    0          5          101  0.05      
  VS         V  E GROUND SMU2 0.1 CON        0
  VB         V  C GROUND SMU3 0.1 LIN        3    0          -5         3    -2.5      
  VD         V  S GROUND SMU1 0.1 LIN        2    0.1        5          2    4.9       
 ICCAP_OUTPUTS
  IG         I  B GROUND SMU4 B
  ID         I  S GROUND SMU1 B
  IB         I  C GROUND SMU3 B
END_HEADER

BEGIN_DB
 ICCAP_VAR VS         0              
 ICCAP_VAR VB         0              
 ICCAP_VAR VD         0.1            

 #VG              IG              ID              IB             
  0               -4.0683e-008    -3.4768e-007    3.9786e-007    
  0.05            -2.1114e-009    -3.7774e-007    -1.973e-009    
  0.1             -1.3097e-009    -3.8035e-007    9.506e-008     
  0.15            -2.4859e-009    -8.44e-009      8.31e-008      
  0.2             -2.0169e-009    -2.05e-008      3.7088e-007    
  0.25            -1.4615e-009    -8.117e-008     3.7235e-007    
  0.3             3.431e-010      -9.4835e-008    6.235e-008     
  0.35            -2.5644e-009    -2.2711e-007    1.2986e-007    
  0.4             -2.4482e-009    -8.11e-009      3.5878e-007    
  0.45            -2e-009         -1.899e-008     3.5837e-007    
  0.5             -1.452e-009     -7.508e-008     3.5999e-007    
  0.55            2.247e-010      -8.2615e-008    5.731e-008     
  0.6             -2.5447e-009    -1.7789e-007    9.419e-008     
  0.65            -2.5625e-009    -1.8885e-007    3.4614e-007    
  0.7             -2.5241e-009    -1.4626e-007    3.4501e-007    
  0.75            -2.2101e-009    3.0043e-007     3.426e-007     
  0.8             -1.6369e-009    7.5272e-007     3.4329e-007    
  0.85            -2.3011e-009    1.7409e-006     3.0048e-008    
  0.9             -7.972e-010     3.2891e-006     -2.14e-009     
  0.95            -1.1271e-009    5.4716e-006     -1.69e-009     
  1               -1.4935e-009    7.9068e-006     3.12e-009      
  1.05            -1.7755e-009    1.03907e-005    4.468e-008     
  1.1             2.4904e-009     1.2777e-005     -5.8e-010      
  1.15            1.8686e-009     1.5042e-005     3.5076e-007    
  1.2             2.494e-009      1.706e-005      3.5323e-007    
  1.25            2.7146e-009     1.903e-005      3.3857e-007    
  1.3             2.6702e-009     2.0816e-005     3.469e-007     
  1.35            2.2264e-009     2.248e-005      3.4821e-007    
  1.4             1.5697e-009     2.4014e-005     3.5029e-007    
  1.45            -4.792e-010     2.5453e-005     1.857e-008     
  1.5             -2.0886e-009    2.6851e-005     1.5386e-007    
  1.55            -2.4247e-009    2.8139e-005     2.5377e-007    
  1.6             -2.5614e-009    2.9341e-005     3.3035e-007    
  1.65            -2.4372e-009    3.0487e-005     3.4695e-007    
  1.7             -1.9786e-009    3.1586e-005     3.4959e-007    
  1.75            -1.4395e-009    3.2606e-005     3.5312e-007    
  1.8             5.578e-010      3.3613e-005     1.088e-008     
  1.85            2.2543e-009     3.4551e-005     1.5958e-007    
  1.9             2.4991e-009     3.5446e-005     2.6574e-007    
  1.95            2.7145e-009     3.6324e-005     3.4128e-007    
  2               2.6675e-009     3.7162e-005     3.4867e-007    
  2.05            2.2297e-009     3.795e-005      3.4888e-007    
  2.1             1.5642e-009     3.8687e-005     3.5051e-007    
  2.15            -4.709e-010     3.9418e-005     2.166e-008     
  2.2             -2.0846e-009    4.0151e-005     1.5411e-007    
  2.25            -2.4247e-009    4.0843e-005     2.4957e-007    
  2.3             -2.5588e-009    4.1486e-005     3.2953e-007    
  2.35            -2.4477e-009    4.2113e-005     3.474e-007     
  2.4             -1.9936e-009    4.2735e-005     3.4951e-007    
  2.45            -1.4512e-009    4.3303e-005     3.5408e-007    
  2.5             5.493e-010      4.3909e-005     1.292e-008     
  2.55            2.2483e-009     4.4452e-005     1.5781e-007    
  2.6             2.4996e-009     4.4979e-005     2.6455e-007    
  2.65            2.7095e-009     4.5517e-005     3.3972e-007    
  2.7             2.6775e-009     4.6038e-005     3.4856e-007    
  2.75            2.2449e-009     4.6525e-005     3.4983e-007    
  2.8             1.5778e-009     4.6984e-005     3.5083e-007    
  2.85            -4.622e-010     4.7441e-005     1.86e-008      
  2.9             -2.0787e-009    4.7915e-005     1.5139e-007    
  2.95            -2.4117e-009    4.8362e-005     2.503e-007     
  3               -2.5537e-009    4.8769e-005     3.2903e-007    
  3.05            -2.4481e-009    4.9174e-005     3.4795e-007    
  3.1             -2.0108e-009    4.9584e-005     3.4931e-007    
  3.15            -1.4599e-009    4.995e-005      3.5359e-007    
  3.2             5.445e-010      5.0359e-005     1.01e-008      
  3.25            2.2468e-009     5.0723e-005     1.5667e-007    
  3.3             2.4964e-009     5.107e-005      2.6145e-007    
  3.35            2.7112e-009     5.1441e-005     3.4095e-007    
  3.4             2.6765e-009     5.1798e-005     3.4951e-007    
  3.45            2.2606e-009     5.2129e-005     3.4926e-007    
  3.5             1.5842e-009     5.2428e-005     3.5038e-007    
  3.55            -4.48e-010      5.2738e-005     1.798e-008     
  3.6             -2.068e-009     5.3068e-005     1.5192e-007    
  3.65            -2.4058e-009    5.3387e-005     2.494e-007     
  3.7             -2.5528e-009    5.3663e-005     3.2869e-007    
  3.75            -2.4576e-009    5.3935e-005     3.4924e-007    
  3.8             -2.033e-009     5.4218e-005     3.5003e-007    
  3.85            -1.479e-009     5.4473e-005     3.544e-007     
  3.9             5.351e-010      5.4766e-005     8.47e-009      
  3.95            2.2395e-009     5.5015e-005     1.5287e-007    
  4               2.4855e-009     5.5262e-005     2.5647e-007    
  4.05            2.7026e-009     5.5525e-005     3.3493e-007    
  4.1             2.6842e-009     5.5786e-005     3.4885e-007    
  4.15            2.2913e-009     5.6014e-005     3.4852e-007    
  4.2             1.6318e-009     5.6228e-005     3.5151e-007    
  4.25            -4.106e-010     5.6437e-005     1.656e-008     
  4.3             -2.0505e-009    5.6686e-005     1.4644e-007    
  4.35            -2.3932e-009    5.6917e-005     2.4258e-007    
  4.4             -2.5532e-009    5.7113e-005     3.2669e-007    
  4.45            -2.4581e-009    5.7304e-005     3.4832e-007    
  4.5             -2.0491e-009    5.7508e-005     3.4926e-007    
  4.55            -1.4979e-009    5.7677e-005     3.5293e-007    
  4.6             5.322e-010      5.7903e-005     8.85e-009      
  4.65            2.231e-009      5.8084e-005     1.5049e-007    
  4.7             2.4757e-009     5.8254e-005     2.5327e-007    
  4.75            2.7022e-009     5.8454e-005     3.3622e-007    
  4.8             2.6909e-009     5.8645e-005     3.4895e-007    
  4.85            2.3077e-009     5.8808e-005     3.4904e-007    
  4.9             1.643e-009      5.8961e-005     3.5151e-007    
  4.95            -3.909e-010     5.9103e-005     1.927e-008     
  5               -2.0383e-009    5.9296e-005     1.4054e-007    
END_DB

BEGIN_DB
 ICCAP_VAR VS         0              
 ICCAP_VAR VB         0              
 ICCAP_VAR VD         5              

 #VG              IG              ID              IB             
  0               -8.782e-008     4.9686e-008     2.75e-009      
  0.05            -1.039e-007     4.6944e-008     3.922e-008     
  0.1             1.29e-009       3.4827e-008     3.645e-007     
  0.15            -2.472e-008     3.9925e-008     3.3228e-007    
  0.2             -3.4616e-007    2.6701e-008     2.9974e-007    
  0.25            -3.861e-008     1.9801e-008     2.4654e-008    
  0.3             -8.24e-009      3.1241e-008     -2.09e-009     
  0.35            1.18e-009       2.573e-009      2.3617e-007    
  0.4             -2.4211e-007    -1.19e-010      2.1795e-007    
  0.45            -5.82e-009      1.8797e-008     1.7097e-008    
  0.5             -5.156e-008     2.1931e-008     -2.49e-009     
  0.55            -7.72e-009      2.2511e-008     1.599e-008     
  0.6             -1.973e-008     2.6217e-008     2.1796e-008    
  0.65            -5.265e-008     4.5584e-008     1.1703e-007    
  0.7             -9.8369e-008    1.4616e-007     1.6676e-008    
  0.75            -1.7122e-008    3.7143e-007     1.9976e-008    
  0.8             -1.7247e-008    9.3554e-007     1.1185e-008    
  0.85            -1.8655e-008    2.1669e-006     -1.4778e-008   
  0.9             -2.649e-008     4.4757e-006     -1.6209e-008   
  0.95            -4.6e-009       8.1636e-006     -4.6736e-008   
  1               -1.9728e-008    1.3378e-005     -6.2716e-008   
  1.05            -1.8421e-008    2.0143e-005     -8.4935e-008   
  1.1             -1.811e-008     2.8437e-005     -1.138e-007    
  1.15            -2.5621e-008    3.8352e-005     -1.4362e-007   
  1.2             -1.4786e-008    4.9439e-005     -1.7293e-007   
  1.25            -1.9002e-008    6.18e-005       -1.9945e-007   
  1.3             -2.543e-008     7.5388e-005     -2.2184e-007   
  1.35            -2.5274e-008    8.9967e-005     -2.4273e-007   
  1.4             -2.2945e-008    0.000105628     -2.5887e-007   
  1.45            -2.0597e-008    0.00012218      -2.8164e-007   
  1.5             -1.8612e-008    0.00013966      -2.7771e-007   
  1.55            -2.5588e-008    0.00015788      -2.8164e-007   
  1.6             -2.4108e-008    0.00017677      -2.8303e-007   
  1.65            -2.1759e-008    0.00019642      -2.7997e-007   
  1.7             -1.9032e-008    0.00021666      -2.7339e-007   
  1.75            -1.7565e-008    0.00023746      -2.6444e-007   
  1.8             -2.4893e-008    0.00025885      -2.5357e-007   
  1.85            -1.6171e-008    0.00028069      -2.4183e-007   
  1.9             -1.8749e-008    0.00030298      -2.3036e-007   
  1.95            -1.7157e-008    0.00032567      -2.117e-007    
  2               -2.4237e-008    0.0003489       -1.9602e-007   
  2.05            -1.7353e-008    0.00037233      -1.808e-007    
  2.1             -1.8705e-008    0.00039623      -1.6837e-007   
  2.15            -1.0613e-008    0.00042034      -1.475e-007    
  2.2             -2.2689e-008    0.00044486      -1.3823e-007   
  2.25            -1.9533e-008    0.00046961      -1.1742e-007   
  2.3             -1.8217e-008    0.00049459      -1.0282e-007   
  2.35            -1.3674e-008    0.0005197       -1.00444e-007  
  2.4             -1.8998e-008    0.0005451       -7.5331e-008   
  2.45            -1.7794e-008    0.00057072      -6.5411e-008   
  2.5             -2.499e-008     0.00059664      -5.4914e-008   
  2.55            -2.284e-008     0.00062252      -4.9386e-008   
  2.6             -1.9622e-008    0.00064872      -3.9193e-008   
  2.65            -1.8191e-008    0.00067505      -3.0365e-008   
  2.7             -2.543e-008     0.00070148      -2.3383e-008   
  2.75            -2.3392e-008    0.00072802      -2.3695e-008   
  2.8             -2.0488e-008    0.00075512      -1.7731e-008   
  2.85            -1.8505e-008    0.00078191      -1.1666e-008   
  2.9             -1.7276e-008    0.00080876      -6.727e-009    
  2.95            -1.7028e-008    0.00083574      -1.83e-010     
  3               -1.7297e-008    0.00086281      2.323e-009     
  3.05            -1.7629e-008    0.00088994      4.391e-009     
  3.1             -1.7431e-008    0.00091711      6.1e-009       
  3.15            -1.7602e-008    0.00094432      7.405e-009     
  3.2             -1.7965e-008    0.0009715       8.643e-009     
  3.25            -1.7928e-008    0.00099885      9.52e-009      
  3.3             -1.812e-008     0.00102622      1.0229e-008    
  3.35            -1.8214e-008    0.00105361      1.0859e-008    
  3.4             -1.8183e-008    0.00108096      1.1364e-008    
  3.45            -1.8414e-008    0.00110838      1.1803e-008    
  3.5             -1.8448e-008    0.00113574      1.211e-008     
  3.55            -1.8206e-008    0.0011637       1.0805e-008    
  3.6             -1.8189e-008    0.001191        1.2166e-008    
  3.65            -1.8206e-008    0.0012184       1.2429e-008    
  3.7             -1.8389e-008    0.0012454       1.2499e-008    
  3.75            -1.8518e-008    0.0012728       1.269e-008     
  3.8             -1.8672e-008    0.0013          1.2998e-008    
  3.85            -1.8595e-008    0.0013268       1.3159e-008    
  3.9             -1.8561e-008    0.0013536       1.3341e-008    
  3.95            -1.86e-008      0.0013804       1.3374e-008    
  4               -1.8922e-008    0.001407        1.3743e-008    
  4.05            -1.8972e-008    0.0014332       1.3951e-008    
  4.1             -1.1062e-008    0.0014596       1.419e-008     
  4.15            -1.2283e-008    0.0014852       1.6227e-008    
  4.2             -1.0077e-008    0.0015109       1.8023e-008    
  4.25            -4.3086e-009    0.001536        1.9841e-008    
  4.3             -1.6926e-009    0.0015613       1.1276e-008    
  4.35            -2.2451e-009    0.0015857       1.5103e-008    
  4.4             -1.927e-009     0.0016096       4.46e-009      
  4.45            -1.8158e-009    0.0016334       8.345e-009     
  4.5             -1.7448e-009    0.0016562       1.1134e-008    
  4.55            -2.4808e-009    0.0016789       1.266e-008     
  4.6             -2.0705e-009    0.0017005       2.908e-009     
  4.65            -1.8853e-009    0.0017217       5.932e-009     
  4.7             -1.8025e-009    0.0017424       9.923e-009     
  4.75            -1.7208e-009    0.0017628       1.133e-008     
  4.8             -2.2898e-009    0.0017821       1.4295e-008    
  4.85            -1.9715e-009    0.0018011       4.059e-009     
  4.9             -1.865e-009     0.0018193       7.941e-009     
  4.95            -1.7801e-009    0.0018371       1.1028e-008    
  5               -1.6704e-009    0.0018545       1.2535e-008    
END_DB

BEGIN_DB
 ICCAP_VAR VS         0              
 ICCAP_VAR VB         -2.5           
 ICCAP_VAR VD         0.1            

 #VG              IG              ID              IB             
  0               -2.348e-010     -1.4747e-008    5.12e-009      
  0.05            -1.1766e-009    -1.9465e-008    2.3784e-008    
  0.1             -1.0282e-009    -1.8874e-008    2.3037e-008    
  0.15            -9.632e-010     -1.767e-008     2.2275e-008    
  0.2             -9.095e-010     -1.7012e-008    2.1374e-008    
  0.25            -8.546e-010     -1.6282e-008    2.0175e-008    
  0.3             -8.026e-010     -1.6138e-008    1.9045e-008    
  0.35            -7.481e-010     -1.5916e-008    1.8009e-008    
  0.4             -6.751e-010     -1.5619e-008    1.7252e-008    
  0.45            -5.907e-010     -1.4847e-008    1.6498e-008    
  0.5             -4.996e-010     -1.4776e-008    1.5409e-008    
  0.55            -4.154e-010     -1.4761e-008    1.4388e-008    
  0.6             -3.198e-010     -1.4726e-008    1.3764e-008    
  0.65            -2.22e-010      -1.4745e-008    1.3247e-008    
  0.7             -1.338e-010     -1.4011e-008    1.2783e-008    
  0.75            -3.02e-011      -1.3161e-008    1.2308e-008    
  0.8             -1.0381e-009    -1.9165e-008    1.1935e-008    
  0.85            -9.914e-010     -1.8291e-008    1.1455e-008    
  0.9             -9.403e-010     -1.7222e-008    2.1838e-008    
  0.95            -8.902e-010     -1.6509e-008    2.0628e-008    
  1               -8.294e-010     -1.6005e-008    1.9537e-008    
  1.05            -7.817e-010     -1.515e-008     1.8459e-008    
  1.1             -7.218e-010     -1.2876e-008    1.7659e-008    
  1.15            -1.6745e-009    1.1729e-008     1.6999e-008    
  1.2             -1.4425e-009    3.5138e-008     5.728e-009     
  1.25            -1.4502e-009    9.0059e-008     9.638e-009     
  1.3             -1.2137e-009    1.6822e-007     1.8735e-008    
  1.35            -1.5346e-009    3.9561e-007     1.2958e-008    
  1.4             -1.6425e-009    8.6618e-007     1.7464e-008    
  1.45            2.554e-009      1.8791e-006     2.2084e-008    
  1.5             -1.4454e-009    3.7254e-006     2.4525e-008    
  1.55            -1.4758e-009    6.1901e-006     1.0879e-008    
  1.6             -1.5348e-009    8.9159e-006     1.2299e-008    
  1.65            -2.617e-010     1.1521e-005     1.2705e-008    
  1.7             -2.1168e-009    1.4095e-005     1.3183e-008    
  1.75            -1.605e-009     1.6389e-005     3.32e-009      
  1.8             -1.449e-009     1.8474e-005     6.337e-009     
  1.85            -1.4679e-009    2.0372e-005     1.0335e-008    
  1.9             -1.5265e-009    2.2124e-005     1.1732e-008    
  1.95            -1.8536e-009    2.3713e-005     1.508e-008     
  2               -1.4857e-009    2.5189e-005     4.521e-009     
  2.05            -1.4534e-009    2.6569e-005     8.437e-009     
  2.1             -1.492e-009     2.7859e-005     1.1298e-008    
  2.15            -2.1452e-009    2.9061e-005     1.3099e-008    
  2.2             -1.6201e-009    3.0179e-005     3.199e-009     
  2.25            -1.4487e-009    3.1247e-005     6.074e-009     
  2.3             -1.4667e-009    3.2262e-005     1.015e-008     
  2.35            -1.5222e-009    3.3222e-005     1.1534e-008    
  2.4             -1.8807e-009    3.4131e-005     1.4805e-008    
  2.45            -1.4935e-009    3.4982e-005     4.339e-009     
  2.5             -1.4507e-009    3.5809e-005     8.236e-009     
  2.55            -1.4866e-009    3.6599e-005     1.136e-008     
  2.6             -1.5422e-009    3.7361e-005     1.2934e-008    
  2.65            -1.6493e-009    3.8075e-005     1.7305e-008    
  2.7             -1.4512e-009    3.8766e-005     5.916e-009     
  2.75            -1.4643e-009    3.9432e-005     9.927e-009     
  2.8             -1.5178e-009    4.0087e-005     1.1431e-008    
  2.85            -1.9112e-009    4.0705e-005     1.462e-008     
  2.9             -1.5027e-009    4.1287e-005     4.232e-009     
  2.95            -1.4487e-009    4.1859e-005     7.901e-009     
  3               -1.4866e-009    4.2415e-005     1.1219e-008    
  3.05            -1.5418e-009    4.2948e-005     1.2795e-008    
  3.1             -1.6828e-009    4.3461e-005     1.7099e-008    
  3.15            -1.4487e-009    4.3949e-005     5.658e-009     
  3.2             -1.4592e-009    4.4437e-005     9.72e-009      
  3.25            -1.5165e-009    4.4911e-005     1.146e-008     
  3.3             -1.9487e-009    4.5361e-005     1.4249e-008    
  3.35            -1.5151e-009    4.5786e-005     4.073e-009     
  3.4             -1.4491e-009    4.6217e-005     7.772e-009     
  3.45            -1.4811e-009    4.6629e-005     1.101e-008     
  3.5             -1.5366e-009    4.7037e-005     1.2481e-008    
  3.55            -1.709e-009     4.7412e-005     1.6854e-008    
  3.6             -1.4537e-009    4.7784e-005     5.526e-009     
  3.65            -1.4554e-009    4.8156e-005     9.524e-009     
  3.7             -1.5068e-009    4.8512e-005     1.1253e-008    
  3.75            -1.9982e-009    4.8866e-005     1.3966e-008    
  3.8             -1.533e-009     4.918e-005      3.894e-009     
  3.85            -1.4447e-009    4.9514e-005     7.459e-009     
  3.9             -1.4771e-009    4.983e-005      1.0819e-008    
  3.95            -1.537e-009     5.0147e-005     1.2373e-008    
  4               -1.7494e-009    5.045e-005      1.6555e-008    
  4.05            -1.4589e-009    5.0739e-005     5.275e-009     
  4.1             -1.4506e-009    5.1026e-005     9.211e-009     
  4.15            -1.5067e-009    5.1309e-005     1.122e-008     
