! VERSION = 6.00
BEGIN_HEADER
 ICCAP_INPUTS
  VG         V  B GROUND SMU4 0.001 LIN        2    0          5          6    1         
  VS         V  E GROUND SMU2 0.1 CON        0
  VD         V  S GROUND SMU1 0.1 LIN        1    0          5          101  0.05      
  VB         V  C GROUND SMU3 0.1 LIN        3    0          -2.5       2    -2.5      
 ICCAP_OUTPUTS
  ID         I  S GROUND SMU1 B
  IB         I  C GROUND SMU3 B
  IG         I  B GROUND SMU4 B
END_HEADER

BEGIN_DB
 ICCAP_VAR VG         0              
 ICCAP_VAR VS         0              
 ICCAP_VAR VB         0              

 #VD              ID              IB              IG             
  0               1.3167e-009     1.5613e-008     8.925e-010     
  0.05            1.4103e-009     -8.54e-009      2.592e-009     
  0.1             6.42e-010       1.2735e-008     -2.5488e-009   
  0.15            -1.0253e-009    -2.0611e-008    2.2873e-009    
  0.2             1.4849e-009     -6.071e-009     2.305e-009     
  0.25            1.0765e-009     1.5688e-008     -2.1733e-009   
  0.3             -1.6585e-009    3.276e-009      -4.118e-010    
  0.35            -6.695e-010     -1.141e-008     2.7075e-009    
  0.4             1.9346e-009     2.0497e-008     -1.9831e-009   
  0.45            -1.1781e-009    4.135e-009      1.6112e-009    
  0.5             1.4572e-009     -9.337e-009     2.5442e-009    
  0.55            2.0308e-009     1.6025e-008     -1.7661e-009   
  0.6             -1.231e-009     4.676e-009      2.7057e-009    
  0.65            1.9272e-009     2.132e-008      -2.0079e-009   
  0.7             -1.1631e-009    4.102e-009      1.646e-009     
  0.75            1.4717e-009     -9.431e-009     2.532e-009     
  0.8             2.0271e-009     1.6722e-008     -1.8037e-009   
  0.85            -1.213e-009     4.622e-009      2.7106e-009    
  0.9             1.9225e-009     2.1916e-008     -2.047e-009    
  0.95            -1.6416e-009    3.844e-009      -5.062e-010    
  1               -7.179e-010     -1.0624e-008    2.6673e-009    
  1.05            2.0207e-009     1.7313e-008     -1.8283e-009   
  1.1             -1.1964e-009    4.49e-009       2.7124e-009    
  1.15            1.9195e-009     2.2649e-008     -2.0734e-009   
  1.2             -1.6332e-009    3.74e-009       -4.852e-010    
  1.25            -6.949e-010     -1.0806e-008    2.679e-009     
  1.3             2.0091e-009     1.7788e-008     -1.8676e-009   
  1.35            -1.18e-009      4.625e-009      2.7164e-009    
  1.4             1.9141e-009     2.3152e-008     -2.0927e-009   
  1.45            -1.6265e-009    3.45e-009       -4.648e-010    
  1.5             -6.698e-010     -1.1287e-008    2.6863e-009    
  1.55            2.0035e-009     1.8652e-008     -1.8965e-009   
  1.6             -1.1683e-009    4.492e-009      2.7198e-009    
  1.65            1.9022e-009     2.373e-008      -2.1266e-009   
  1.7             -1.6209e-009    3.291e-009      -4.394e-010    
  1.75            -6.49e-010      -1.1066e-008    2.6944e-009    
  1.8             1.9909e-009     1.918e-008      -1.9336e-009   
  1.85            -1.1543e-009    4.278e-009      1.5576e-009    
  1.9             1.4916e-009     -9.292e-009     2.5587e-009    
  1.95            2.6566e-009     1.0053e-008     3.598e-010     
  2               2.6975e-009     9.634e-009      5.379e-010     
  2.05            1.1239e-009     1.5993e-008     -2.1655e-009   
  2.1             -1.6092e-009    2.836e-009      -4.046e-010    
  2.15            -6.162e-010     -1.1252e-008    2.7006e-009    
  2.2             1.9827e-009     2.0346e-008     -1.9745e-009   
  2.25            -1.1348e-009    4.245e-009      1.6047e-009    
  2.3             1.5076e-009     -9.452e-009     2.5432e-009    
  2.35            2.0794e-009     1.5744e-008     -1.7594e-009   
  2.4             1.118e-010      4.632e-009      -1.5085e-009   
  2.45            2.058e-010      5.725e-009      -1.3485e-009   
  2.5             2.982e-010      7.167e-009      -2.5865e-009   
  2.55            -5.872e-010     -1.1357e-008    2.7077e-009    
  2.6             1.9753e-009     2.1207e-008     -2.0202e-009   
  2.65            -1.1181e-009    4.048e-009      1.6579e-009    
  2.7             1.5225e-009     -9.415e-009     2.5291e-009    
  2.75            2.0631e-009     1.6805e-008     -1.814e-009    
  2.8             -1.1681e-009    4.66e-009       2.7093e-009    
  2.85            1.9655e-009     2.1871e-008     -2.0434e-009   
  2.9             -1.105e-009     3.733e-009      1.6848e-009    
  2.95            1.5308e-009     -9.409e-009     2.5185e-009    
  3               2.0554e-009     1.7419e-008     -1.8424e-009   
  3.05            -1.1529e-009    4.573e-009      2.712e-009     
  3.1             1.9539e-009     2.2829e-008     -2.084e-009    
  3.15            -1.0948e-009    3.567e-009      1.7278e-009    
  3.2             1.5363e-009     -9.343e-009     2.5065e-009    
  3.25            2.0464e-009     1.8145e-008     -1.8786e-009   
  3.3             -1.1422e-009    4.57e-009       2.7171e-009    
  3.35            1.9416e-009     2.3407e-008     -2.1091e-009   
  3.4             -1.5911e-009    3.411e-009      -4.519e-010    
  3.45            -6.279e-010     -1.1019e-008    2.6837e-009    
  3.5             2.0325e-009     1.8772e-008     -1.9054e-009   
  3.55            -1.1273e-009    4.266e-009      2.7184e-009    
  3.6             1.2615e-009     1.671e-008      -1.9578e-009   
  3.65            -1.1151e-009    4.066e-009      1.5839e-009    
  3.7             1.53e-009       -9.39e-009      2.5526e-009    
  3.75            2.1093e-009     1.553e-008      -1.7414e-009   
  3.8             1.456e-010      4.666e-009      -1.496e-009    
  3.85            2.381e-010      5.75e-009       -1.3403e-009   
  3.9             3.282e-010      7.166e-009      -2.586e-009    
  3.95            -5.683e-010     -1.136e-008     2.7038e-009    
  4               2.001e-009      2.0768e-008     -2.0032e-009   
  4.05            -1.1001e-009    3.816e-009      1.6365e-009    
  4.1             1.5419e-009     -9.497e-009     2.537e-009     
  4.15            2.0928e-009     1.6389e-008     -1.787e-009    
  4.2             1.116e-010      4.697e-009      -1.5332e-009   
  4.25            2.272e-010      5.422e-009      -1.364e-009    
  4.3             3.184e-010      6.996e-009      -2.5803e-009   
  4.35            -5.423e-010     -1.15e-008      2.7093e-009    
  4.4             1.9892e-009     2.2132e-008     -2.0537e-009   
  4.45            -1.0798e-009    3.736e-009      1.682e-009     
  4.5             1.5553e-009     -9.394e-009     2.52e-009      
  4.55            2.0747e-009     1.7138e-008     -1.829e-009    
  4.6             1.271e-010      4.438e-009      -1.5535e-009   
  4.65            2.244e-010      5.353e-009      -1.3684e-009   
  4.7             3.117e-010      6.457e-009      -2.5703e-009   
  4.75            -5.234e-010     -1.1669e-008    2.7161e-009    
  4.8             1.9768e-009     2.275e-008      -2.0836e-009   
  4.85            -1.0668e-009    3.74e-009       1.6994e-009    
  4.9             1.5659e-009     -9.121e-009     2.512e-009     
  4.95            2.0616e-009     1.7349e-008     -1.8538e-009   
  5               -1.1188e-009    4.532e-009      2.7239e-009    
END_DB

BEGIN_DB
 ICCAP_VAR VG         1              
 ICCAP_VAR VS         0              
 ICCAP_VAR VB         0              

 #VD              ID              IB              IG             
  0               -1.6106e-007    -8.634e-009     2.7133e-009    
  0.05            8.5006e-006     1.54e-008       2.4778e-009    
  0.1             1.4456e-005     -1.13e-008      2.6734e-009    
  0.15            1.8055e-005     -1.1491e-008    2.729e-010     
  0.2             2.0148e-005     1.2838e-008     -2.4457e-009   
  0.25            2.0913e-005     1.5475e-008     -1.7283e-009   
  0.3             2.1222e-005     1.297e-008      -2.4113e-009   
  0.35            2.1326e-005     2.5982e-008     -1.8605e-009   
  0.4             2.1385e-005     1.2427e-008     -2.4707e-009   
  0.45            2.1409e-005     1.5554e-008     -1.8019e-009   
  0.5             2.1468e-005     1.2854e-008     -2.446e-009    
  0.55            2.1477e-005     1.5557e-008     -1.733e-009    
  0.6             2.1507e-005     1.3084e-008     -2.411e-009    
  0.65            2.151e-005      1.5637e-008     -1.6659e-009   
  0.7             2.1538e-005     1.3428e-008     -2.3759e-009   
  0.75            2.155e-005      2.5115e-008     -1.7976e-009   
  0.8             2.1566e-005     1.2598e-008     -2.4468e-009   
  0.85            2.1561e-005     1.5471e-008     -1.7328e-009   
  0.9             2.16e-005       1.3044e-008     -2.4162e-009   
  0.95            2.1585e-005     1.5687e-008     -1.662e-009    
  1               2.1617e-005     1.3353e-008     -2.372e-009    
  1.05            2.162e-005      2.5164e-008     -1.7952e-009   
  1.1             2.1643e-005     1.2595e-008     -2.4438e-009   
  1.15            2.163e-005      1.5505e-008     -1.7287e-009   
  1.2             2.1659e-005     1.2961e-008     -2.4108e-009   
  1.25            2.1651e-005     1.5481e-008     -1.6692e-009   
  1.3             2.1673e-005     1.3429e-008     -2.3738e-009   
  1.35            2.1695e-005     2.5214e-008     -1.7953e-009   
  1.4             2.1697e-005     1.2866e-008     -2.4507e-009   
  1.45            2.1692e-005     1.5448e-008     -1.7319e-009   
  1.5             2.1724e-005     1.2931e-008     -2.414e-009    
  1.55            2.1709e-005     1.5533e-008     -1.663e-009    
  1.6             2.1738e-005     1.334e-008      -2.372e-009    
  1.65            2.1742e-005     2.5117e-008     -1.7931e-009   
  1.7             2.1757e-005     1.281e-008      -2.4438e-009   
  1.75            2.1744e-005     1.5526e-008     -1.727e-009    
  1.8             2.178e-005      1.3032e-008     -2.411e-009    
  1.85            2.1761e-005     1.5518e-008     -1.6539e-009   
  1.9             2.1593e-005     8.996e-009      8.691e-010     
  1.95            2.1552e-005     -2.5294e-008    2.5596e-009    
  2               2.163e-005      -2.2353e-008    1.9224e-009    
  2.05            2.1631e-005     -1.0886e-008    -8.906e-010    
  2.1             2.1776e-005     7.597e-009      -2.5608e-009   
  2.15            2.1833e-005     1.3033e-008     -2.4081e-009   
  2.2             2.1814e-005     1.568e-008      -1.6631e-009   
  2.25            2.1843e-005     1.3205e-008     -2.3747e-009   
  2.3             2.1853e-005     2.5051e-008     -1.7874e-009   
  2.35            2.1664e-005     9.41e-009       8.033e-010     
  2.4             2.1568e-005     -7.812e-009     2.7045e-009    
  2.45            2.1602e-005     -9.448e-009     1.366e-010     
  2.5             2.1877e-005     1.4124e-008     -2.2774e-009   
  2.55            2.1585e-005     7.863e-009      1.9469e-009    
  2.6             2.1643e-005     -1.83e-008      2.7216e-009    
  2.65            2.1657e-005     -2.5309e-008    2.5617e-009    
  2.7             2.1703e-005     -2.2342e-008    1.9188e-009    
  2.75            2.1725e-005     -1.1272e-008    -8.96e-010     
  2.8             2.1873e-005     7.075e-009      -2.5654e-009   
  2.85            2.1932e-005     1.2479e-008     -2.4051e-009   
  2.9             2.1918e-005     1.4943e-008     -1.6492e-009   
  2.95            2.1937e-005     1.2506e-008     -2.3619e-009   
  3               2.1934e-005     1.4737e-008     -1.5876e-009   
  3.05            2.1944e-005     1.2236e-008     -2.3189e-009   
  3.1             2.1943e-005     1.421e-008      -1.5282e-009   
  3.15            2.1965e-005     1.2085e-008     -2.2665e-009   
  3.2             2.1955e-005     1.4003e-008     -1.4767e-009   
  3.25            2.1981e-005     1.1764e-008     -2.2169e-009   
  3.3             2.1973e-005     1.327e-008      -1.4288e-009   
  3.35            2.199e-005      1.0875e-008     -2.1525e-009   
  3.4             2.1988e-005     6.304e-009      -2.5403e-009   
  3.45            2.1998e-005     9.738e-009      -2.0918e-009   
  3.5             2.2002e-005     5.391e-009      -2.5322e-009   
  3.55            2.2009e-005     8.325e-009      -2.0243e-009   
  3.6             2.2015e-005     4.031e-009      -2.5225e-009   
  3.65            2.2011e-005     6.346e-009      -1.9523e-009   
  3.7             2.2031e-005     2.224e-009      -2.5016e-009   
  3.75            2.2026e-005     4.3e-009        -1.882e-009    
  3.8             2.1822e-005     -5.08e-009      2.1756e-009    
  3.85            2.1873e-005     -2.5486e-008    -4.603e-010    
  3.9             2.1961e-005     -1.0876e-008    -2.5652e-009   
  3.95            2.2071e-005     3.517e-009      -1.5787e-009   
  4               2.1857e-005     -1.2315e-008    2.3372e-009    
  4.05            2.1899e-005     -3.3078e-008    -6.712e-010    
  4.1             2.2083e-005     -4.074e-009     -1.2992e-009   
  4.15            2.184e-005      -1.8984e-008    2.5185e-009    
  4.2             2.192e-005      -3.9278e-008    -9.309e-010    
  4.25            2.2119e-005     -5.725e-009     -2.3824e-009   
  4.3             2.1774e-005     -2.5678e-008    1.8591e-009    
  4.35            2.1878e-005     -4.7303e-008    -4.08e-011     
  4.4             2.2134e-005     -2.6451e-008    -1.9832e-009   
  4.45            2.1911e-005     -3.776e-008     2.1242e-009    
  4.5             2.1978e-005     -6.0536e-008    -3.899e-010    
  4.55            2.2158e-005     -3.731e-008     -1.5174e-009   
  4.6             2.1958e-005     -5.1082e-008    2.3691e-009    
  4.65            2.2003e-005     -7.4656e-008    -7.167e-010    
  4.7             2.2186e-005     -4.7262e-008    -2.5328e-009   
  4.75            2.1736e-005     -6.49e-008      1.6427e-009    
  4.8             2.1947e-005     -8.8913e-008    1.822e-010     
  4.85            2.2234e-005     -7.1689e-008    -2.3333e-009   
  4.9             2.1904e-005     -8.3031e-008    1.8949e-009    
  4.95            2.1912e-005     -1.08514e-007   2.7207e-009    
  5               2.197e-005      -1.1049e-007    1.6697e-009    
END_DB

BEGIN_DB
 ICCAP_VAR VG         2              
 ICCAP_VAR VS         0              
 ICCAP_VAR VB         0              

 #VD              ID              IB              IG             
  0               -5.2003e-007    1.5247e-008     -2.091e-009    
  0.05            3.939e-005      -1.166e-008     2.6407e-009    
  0.1             7.7631e-005     -1.3634e-008    2.733e-009     
  0.15            0.00011484      -2.5825e-008    -1.89e-009     
  0.2             0.00015067      1.3067e-008     -2.3971e-009   
  0.25            0.00018488      7.675e-009      1.9704e-009    
  0.3             0.00021787      -2.117e-008     2.7195e-009    
  0.35            0.0002495       -2.4654e-008    2.1403e-009    
  0.4             0.00027972      -1.0993e-008    -9.023e-010    
  0.45            0.00030851      8.933e-009      -2.5573e-009   
  0.5             0.00033564      1.486e-008      -2.0716e-009   
  0.55            0.00036114      1.2677e-008     -2.4783e-009   
  0.6             0.00038504      2.5012e-008     -1.7895e-009   
  0.65            0.00040727      1.3995e-008     -2.3253e-009   
  0.7             0.00042772      1.9038e-008     -1.5231e-009   
  0.75            0.00044594      7.109e-009      1.0449e-009    
  0.8             0.00046262      -2.3346e-008    2.03e-009      
  0.85            0.00047791      -1.052e-008     -9.488e-010    
  0.9             0.00049159      9.932e-009      -2.5471e-009   
  0.95            0.00050283      1.5105e-008     -1.9791e-009   
  1               0.00051251      1.2876e-008     -2.4311e-009   
  1.05            0.00051935      8.452e-009      1.9299e-009    
  1.1             0.00052565      -1.9658e-008    2.7155e-009    
  1.15            0.00053049      -2.5487e-008    2.2435e-009    
  1.2             0.00053474      -1.1442e-008    -8.616e-010    
  1.25            0.000538        8.116e-009      -2.5532e-009   
  1.3             0.00054016      1.4927e-008     -2.1582e-009   
  1.35            0.00054186      1.1941e-008     -2.501e-009    
  1.4             0.00054296      2.6212e-008     -1.8785e-009   
  1.45            0.00054397      1.339e-008      -2.3767e-009   
  1.5             0.00054455      2.103e-008      -1.594e-009    
  1.55            0.00054461      7.435e-009      1.0115e-009    
  1.6             0.0005448       -2.4385e-008    2.1196e-009    
  1.65            0.00054584      -1.104e-008     -9.123e-010    
  1.7             0.00054693      9.132e-009      -2.5497e-009   
  1.75            0.00054727      1.5032e-008     -2.0521e-009   
  1.8             0.00054781      1.2435e-008     -2.4635e-009   
  1.85            0.00054803      2.4684e-008     -1.7617e-009   
  1.9             0.00054837      1.399e-008      -2.3077e-009   
  1.95            0.00054846      1.8404e-008     -1.5111e-009   
  2               0.00054803      7.014e-009      1.0659e-009    
  2.05            0.00054816      -2.3103e-008    2.002e-009     
  2.1             0.0005487       -1.0404e-008    -9.681e-010    
  2.15            0.00054983      1.0089e-008     -2.5463e-009   
  2.2             0.00054993      1.5158e-008     -1.948e-009    
  2.25            0.00055034      1.3009e-008     -2.4161e-009   
  2.3             0.00054916      8.306e-009      1.9458e-009    
  2.35            0.00054952      -2.0413e-008    2.7174e-009    
  2.4             0.00054974      -2.5144e-008    2.1993e-009    
  2.45            0.00055061      -1.136e-008     -8.784e-010    
  2.5             0.00055138      8.493e-009      -2.5505e-009   
  2.55            0.00055155      1.491e-008      -2.1182e-009   
  2.6             0.00055185      1.2272e-008     -2.4883e-009   
  2.65            0.00055194      2.5759e-008     -1.8361e-009   
  2.7             0.0005522       1.3677e-008     -2.3536e-009   
  2.75            0.00055231      2.0076e-008     -1.5599e-009   
  2.8             0.00055155      7.071e-009      1.0337e-009    
  2.85            0.00055175      -2.3936e-008    2.0818e-009    
  2.9             0.00055231      -1.0545e-008    -9.307e-010    
  2.95            0.00055315      9.306e-009      -2.5481e-009   
  3               0.00055326      1.5107e-008     -2.0205e-009   
  3.05            0.00055279      9.373e-009      8.036e-010     
  3.1             0.00055242      -2.559e-008     2.5221e-009    
  3.15            0.00055303      -1.1965e-008    -6.847e-010    
  3.2             0.00055389      6.62e-009       -2.5706e-009   
  3.25            0.00055423      1.3009e-008     -2.3862e-009   
  3.3             0.00055435      2.0899e-008     -1.6164e-009   
  3.35            0.00055357      6.707e-009      1.0012e-009    
  3.4             0.00055351      -2.5344e-008    2.1445e-009    
  3.45            0.00055407      -1.2093e-008    -9.054e-010    
  3.5             0.0005549       7.296e-009      -2.5532e-009   
  3.55            0.00055506      1.2844e-008     -2.0718e-009   
  3.6             0.00055532      9.379e-009      -2.472e-009    
  3.65            0.00055531      1.2022e-008     -1.5869e-009   
  3.7             0.00055547      9.751e-009      -2.157e-009    
  3.75            0.00055575      5.328e-009      -2.5012e-009   
  3.8             0.00055579      7.355e-009      -1.6653e-009   
  3.85            0.00055516      -3.838e-009     2.392e-009     
  3.9             0.00055545      -2.4765e-008    -8.557e-010    
  3.95            0.00055581      -2.2249e-008    -2.5734e-009   
  4               0.0005547       -1.3795e-008    1.3283e-009    
  4.05            0.00055545      -3.8468e-008    2.7226e-009    
  4.1             0.00055691      -4.0539e-008    -1.7568e-009   
  4.15            0.0005564       -2.8942e-008    -6.3e-012      
