! VERSION = 6.00
BEGIN_HEADER
 ICCAP_INPUTS
  VG         V  B GROUND SMU4 0.001 LIN        1    0          5          101  0.05      
  VS         V  E GROUND SMU2 0.1 CON        0
  VB         V  C GROUND SMU3 0.1 LIN        3    0          -5         3    -2.5      
  VD         V  S GROUND SMU1 0.1 LIN        2    0.1        5          2    4.9       
 ICCAP_OUTPUTS
  IG         I  B GROUND SMU4 B
  ID         I  S GROUND SMU1 B
  IB         I  C GROUND SMU3 B
END_HEADER

BEGIN_DB
 ICCAP_VAR VS         0              
 ICCAP_VAR VB         0              
 ICCAP_VAR VD         0.1            

 #VG              IG              ID              IB             
  0               -3.26e-009      -5.067e-008     2.508e-008     
  0.05            -1.8875e-009    -6.528e-008     5.1605e-007    
  0.1             -1.3288e-009    -3.249e-007     5.168e-007     
  0.15            -2.57e-009      -4.4423e-007    4.3641e-007    
  0.2             -2.1764e-009    -5.313e-008     5.0754e-007    
  0.25            -1.5243e-009    -1.3989e-007    5.1183e-007    
  0.3             -2.5001e-009    -2.5307e-007    5.1423e-007    
  0.35            -2.5499e-009    -1.843e-008     4.9601e-007    
  0.4             -2.4467e-009    -2.754e-008     5.0236e-007    
  0.45            -1.873e-009     -7.915e-008     5.0514e-007    
  0.5             -2.4081e-009    -1.8286e-007    5.0555e-007    
  0.55            -2.4899e-009    -2.296e-007     4.692e-007     
  0.6             -2.5443e-009    3.59e-009       4.8667e-007    
  0.65            -2.4812e-009    3.931e-008      4.9637e-007    
  0.7             -1.9627e-009    1.6651e-007     4.9573e-007    
  0.75            -1.3796e-009    4.7239e-007     5.0059e-007    
  0.8             -2.4669e-009    1.1811e-006     9.7e-009       
  0.85            -1.9006e-009    3.3519e-006     5.0456e-007    
  0.9             -3.3e-011       5.4312e-006     4.8945e-007    
  0.95            1.6179e-009     8.6704e-006     9.374e-008     
  1               -1.5571e-009    1.2312e-005     5.059e-007     
  1.05            -2.4956e-009    1.6431e-005     5.1291e-007    
  1.1             -2.5479e-009    2.0205e-005     4.9241e-007    
  1.15            -2.4523e-009    2.3901e-005     4.9918e-007    
  1.2             -1.8878e-009    2.7544e-005     5.0248e-007    
  1.25            -1.3468e-009    3.0979e-005     5.0667e-007    
  1.3             -2.521e-009     3.428e-005      5.0668e-007    
  1.35            -2.5493e-009    3.7728e-005     4.9944e-007    
  1.4             -2.2562e-009    4.0955e-005     5.0045e-007    
  1.45            -1.6039e-009    4.404e-005      5.0553e-007    
  1.5             -2.4859e-009    4.6932e-005     5.1159e-007    
  1.55            -2.5446e-009    4.9943e-005     4.885e-007     
  1.6             -2.4848e-009    5.2752e-005     4.9819e-007    
  1.65            -1.9747e-009    5.5502e-005     5.0155e-007    
  1.7             -1.3837e-009    5.8084e-005     5.0826e-007    
  1.75            -2.5148e-009    6.0559e-005     5.0824e-007    
  1.8             -2.5539e-009    6.3205e-005     4.9805e-007    
  1.85            -2.3122e-009    6.5658e-005     5.001e-007     
  1.9             -1.6685e-009    6.8001e-005     5.0262e-007    
  1.95            -2.4689e-009    7.021e-005      5.0947e-007    
  2               -2.5362e-009    7.255e-005      4.823e-007     
  2.05            -2.5101e-009    7.4708e-005     4.9945e-007    
  2.1             -2.0453e-009    7.6854e-005     5.0131e-007    
  2.15            -1.4251e-009    7.885e-005      5.0631e-007    
  2.2             -2.5102e-009    8.0761e-005     5.0823e-007    
  2.25            -2.5527e-009    8.2873e-005     4.9829e-007    
  2.3             -2.3647e-009    8.4796e-005     5.0069e-007    
  2.35            -1.7376e-009    8.6654e-005     5.0449e-007    
  2.4             -2.4489e-009    8.8375e-005     5.1004e-007    
  2.45            -2.5306e-009    9.0257e-005     4.8424e-007    
  2.5             -2.5319e-009    9.1986e-005     4.9804e-007    
  2.55            -2.1153e-009    9.3704e-005     5.0173e-007    
  2.6             -1.4828e-009    9.5294e-005     5.0583e-007    
  2.65            -2.4961e-009    9.6829e-005     5.0865e-007    
  2.7             -2.5479e-009    9.8565e-005     4.9884e-007    
  2.75            -2.4101e-009    0.00010011      5.0053e-007    
  2.8             -1.8249e-009    0.000101615     5.0597e-007    
  2.85            -2.4201e-009    0.000102984     5.0804e-007    
  2.9             -2.5199e-009    0.000104531     4.7153e-007    
  2.95            -2.5373e-009    0.000105919     5.0206e-007    
  3               -2.19e-009      0.000107312     5.0304e-007    
  3.05            -1.5517e-009    0.000108599     5.056e-007     
  3.1             -2.4886e-009    0.000109807     5.1283e-007    
  3.15            -2.5454e-009    0.000111232     4.9242e-007    
  3.2             -2.4506e-009    0.000112482     5.0149e-007    
  3.25            -1.9041e-009    0.000113703     5.0431e-007    
  3.3             2.7121e-009     0.00011508      5.074e-007     
  3.35            2.1808e-009     0.00011624      5.0326e-007    
  3.4             1.461e-009      0.00011729      5.0517e-007    
  3.45            2.6522e-009     0.0001183       5.0403e-007    
  3.5             2.7649e-009     0.0001196       5.0483e-007    
  3.55            2.5463e-009     0.00012068      5.0151e-007    
  3.6             1.8466e-009     0.00012171      5.0221e-007    
  3.65            2.5676e-009     0.0001226       5.044e-007     
  3.7             2.7169e-009     0.00012371      4.9409e-007    
  3.75            2.7461e-009     0.00012473      5.023e-007     
  3.8             2.2733e-009     0.00012568      5.0154e-007    
  3.85            1.5322e-009     0.00012655      5.0416e-007    
  3.9             2.6362e-009     0.00012733      5.0289e-007    
  3.95            2.7618e-009     0.00012839      5.0238e-007    
  4               2.6102e-009     0.0001293       5.0164e-007    
  4.05            1.9386e-009     0.00013014      5.0245e-007    
  4.1             2.5492e-009     0.00013084      5.0603e-007    
  4.15            2.7035e-009     0.00013176      4.8832e-007    
  4.2             2.7605e-009     0.0001326       4.9971e-007    
  4.25            2.3651e-009     0.00013335      5.0539e-007    
  4.3             1.6125e-009     0.00013408      5.0381e-007    
  4.35            2.6198e-009     0.00013468      5.0701e-007    
  4.4             2.7546e-009     0.00013559      5.0076e-007    
  4.45            2.6562e-009     0.00013631      5.0197e-007    
  4.5             2.0307e-009     0.00013813      5.0399e-007    
  4.55            2.5303e-009     0.00013754      5.0437e-007    
  4.6             2.6875e-009     0.00013827      4.8312e-007    
  4.65            2.7682e-009     0.00013896      4.9975e-007    
  4.7             2.4435e-009     0.00013958      5.0171e-007    
  4.75            1.6968e-009     0.00014014      5.0522e-007    
  4.8             2.6015e-009     0.00014063      5.0595e-007    
  4.85            2.7459e-009     0.00014137      5.0018e-007    
  4.9             2.7026e-009     0.00014198      5.0358e-007    
  4.95            2.1372e-009     0.00014251      5.0089e-007    
  5               1.4275e-009     0.00014298      5.0645e-007    
END_DB

BEGIN_DB
 ICCAP_VAR VS         0              
 ICCAP_VAR VB         0              
 ICCAP_VAR VD         5              

 #VG              IG              ID              IB             
  0               -6.2219e-007    3.1554e-008     5.0034e-007    
  0.05            -7.106e-008     9.9018e-008     1.0586e-007    
  0.1             -2.31e-009      3.5878e-008     4.7467e-007    
  0.15            -9.06e-009      1.1814e-008     4.5367e-007    
  0.2             1.46e-009       3.149e-009      4.2611e-007    
  0.25            -4.8661e-007    1.602e-009      4.06e-007      
  0.3             1.09e-009       6.7e-009        1.08687e-007   
  0.35            -4.3395e-007    5.7209e-008     7.234e-009     
  0.4             -8.79e-009      3.803e-009      8.7973e-008    
  0.45            -9.79e-008      4.8165e-008     3.1517e-007    
  0.5             -2.4837e-007    6.0785e-008     1.5921e-008    
  0.55            9.2e-010        5.966e-008      3.377e-008     
  0.6             -8.39e-009      3.4126e-008     1.487e-008     
  0.65            7.6e-010        7.189e-008      1.52e-008      
  0.7             -2.7233e-008    2.1887e-007     2.0024e-007    
  0.75            -7.74e-009      6.6097e-007     1.1337e-008    
  0.8             -1.86e-008      1.7475e-006     -2.97e-009     
  0.85            1.7e-009        3.8958e-006     -1.0844e-008   
  0.9             1.42e-009       7.4038e-006     9.9298e-008    
  0.95            -5.6e-009       1.2573e-005     5.5905e-008    
  1               -1.0442e-007    1.918e-005      -3.9574e-008   
  1.05            -4.4287e-008    2.7746e-005     -1.06313e-007  
  1.1             1.385e-009      3.7818e-005     -1.3735e-007   
  1.15            -1.8536e-008    4.9698e-005     -1.2053e-007   
  1.2             -3.2549e-008    6.3232e-005     -1.831e-007    
  1.25            -1.2358e-008    7.8865e-005     -2.2068e-007   
  1.3             -2.8828e-008    9.5531e-005     -2.4638e-007   
  1.35            -1.5981e-008    0.00011439      -2.6419e-007   
  1.4             -2.4176e-008    0.00013453      -2.854e-007    
  1.45            -3.0563e-008    0.00015648      -3.0383e-007   
  1.5             -3.0514e-008    0.0001801       -3.1994e-007   
  1.55            -1.3715e-008    0.00020532      -3.3364e-007   
  1.6             -2.0953e-008    0.00023193      -3.4234e-007   
  1.65            -2.9554e-008    0.00025998      -3.4703e-007   
  1.7             -3.114e-008     0.00028976      -3.4996e-007   
  1.75            -2.7241e-008    0.00032102      -3.4959e-007   
  1.8             -1.8269e-008    0.0003537       -3.4559e-007   
  1.85            -2.7144e-008    0.00038756      -3.3816e-007   
  1.9             -3.1052e-008    0.00042309      -3.2872e-007   
  1.95            -2.8974e-008    0.00045992      -3.1771e-007   
  2               -1.6072e-008    0.00049806      -3.044e-007    
  2.05            -2.3908e-008    0.00053721      -2.9054e-007   
  2.1             -3.0564e-008    0.00057796      -2.734e-007    
  2.15            -3.0167e-008    0.00062005      -2.5559e-007   
  2.2             -1.378e-008     0.00066303      -2.372e-007    
  2.25            -2.1051e-008    0.00070716      -2.2073e-007   
  2.3             -2.9202e-008    0.00075248      -2.0182e-007   
  2.35            -3.0922e-008    0.00079904      -1.8321e-007   
  2.4             -2.7152e-008    0.00084677      -1.6492e-007   
  2.45            -1.8225e-008    0.00089538      -1.463e-007    
  2.5             -2.6804e-008    0.00094484      -1.3051e-007   
  2.55            -3.0917e-008    0.00099559      -1.1495e-007   
  2.6             -2.875e-008     0.00104725      -1.0048e-007   
  2.65            -1.7983e-008    0.00110069      -9.1186e-008   
  2.7             -1.4213e-008    0.0011547       -7.8432e-008   
  2.75            -2.1647e-008    0.001209        -6.1751e-008   
  2.8             -2.9629e-008    0.0012639       -5.1482e-008   
  2.85            -3.0819e-008    0.0013202       -4.2921e-008   
  2.9             -2.6682e-008    0.0013771       -3.5451e-008   
  2.95            -1.8616e-008    0.0014345       -2.8567e-008   
  3               -2.7594e-008    0.0014926       -2.1767e-008   
  3.05            -3.0956e-008    0.0015515       -1.7229e-008   
  3.1             -2.8479e-008    0.0016112       -1.3595e-008   
  3.15            -1.5245e-008    0.0016719       -1.0397e-008   
  3.2             -1.8843e-008    0.0017326       5.679e-009     
  3.25            -2.6613e-008    0.001794        8.513e-009     
  3.3             -2.9834e-008    0.0018562       6.557e-009     
  3.35            -3.0709e-008    0.0019189       9.756e-009     
  3.4             -2.9881e-008    0.0019819       1.1716e-008    
  3.45            -1.7836e-008    0.0020458       1.3219e-008    
  3.5             -1.7628e-008    0.0021099       1.3784e-008    
  3.55            -1.7649e-008    0.0021746       1.4268e-008    
  3.6             -1.7567e-008    0.0022397       1.463e-008     
  3.65            -1.7331e-008    0.0023052       1.467e-008     
  3.7             -1.7303e-008    0.0023709       1.4811e-008    
  3.75            -1.7482e-008    0.0024373       1.4796e-008    
  3.8             -1.7431e-008    0.0025039       1.4777e-008    
  3.85            -1.7576e-008    0.0025707       1.4818e-008    
  3.9             -1.7947e-008    0.0026378       1.4807e-008    
  3.95            -1.809e-008     0.0027054       1.459e-008     
  4               -1.3893e-008    0.0027731       1.4612e-008    
  4.05            -1.7344e-008    0.0028409       1.4813e-008    
  4.1             -2.0411e-008    0.0029091       1.5274e-008    
  4.15            -2.0747e-008    0.0029773       1.1296e-008    
  4.2             -2.0788e-008    0.003046        1.1543e-008    
  4.25            -2.0861e-008    0.0031142       1.2053e-008    
  4.3             -2.0933e-008    0.003184        1.2346e-008    
  4.35            -2.0729e-008    0.0032526       1.2643e-008    
  4.4             -1.943e-008     0.0033211       1.2751e-008    
  4.45            -1.3181e-008    0.0033895       1.3172e-008    
  4.5             -1.653e-009     0.0034578       1.3361e-008    
  4.55            -1.6524e-009    0.003527        1.0879e-008    
  4.6             -1.4892e-009    0.003595        1.5184e-008    
  4.65            -1.9697e-009    0.0036617       1.4705e-008    
  4.7             -1.6655e-009    0.0037285       4.064e-009     
  4.75            -1.6874e-009    0.0037951       7.741e-009     
  4.8             -1.6013e-009    0.003861        1.3582e-008    
  4.85            -2.2764e-009    0.0039256       1.5087e-008    
  4.9             -1.7562e-009    0.0039897       3.222e-009     
  4.95            -1.6778e-009    0.0040526       5.116e-009     
  5               -1.682e-009     0.0041146       1.0456e-008    
END_DB

BEGIN_DB
 ICCAP_VAR VS         0              
 ICCAP_VAR VB         -2.5           
 ICCAP_VAR VD         0.1            

 #VG              IG              ID              IB             
  0               -3.2836e-009    -1.0118e-008    3.7948e-009    
  0.05            -9.53e-011      -1.476e-008     1.5206e-008    
  0.1             2.05e-011       -1.3793e-008    1.4547e-008    
  0.15            9.98e-011       -1.226e-008     1.4086e-008    
  0.2             -9.518e-010     -1.4796e-008    1.3662e-008    
  0.25            -8.967e-010     -1.4071e-008    1.3245e-008    
  0.3             -1.6528e-009    -2.2064e-008    1.2762e-008    
  0.35            -6.871e-010     -1.4474e-008    2.209e-008     
  0.4             -6.032e-010     -1.4803e-008    1.4856e-008    
  0.45            -5.208e-010     -1.5447e-008    1.4678e-008    
  0.5             -4.402e-010     -1.6212e-008    1.4869e-008    
  0.55            -3.55e-010      -1.6539e-008    1.5047e-008    
  0.6             -2.648e-010     -1.665e-008     1.5341e-008    
  0.65            -1.747e-010     -1.6346e-008    1.5411e-008    
  0.7             -8.41e-011      -1.5391e-008    1.5336e-008    
  0.75            8.6e-012        -1.3994e-008    1.4563e-008    
  0.8             -1.7738e-009    -1.5264e-008    1.4283e-008    
  0.85            -9.594e-010     -1.5198e-008    1.3858e-008    
  0.9             -9.075e-010     -1.4314e-008    1.3491e-008    
  0.95            -8.578e-010     -1.4063e-008    1.2767e-008    
  1               -8.056e-010     -1.42e-008      1.6154e-008    
  1.05            -7.541e-010     -1.4405e-008    1.9215e-008    
  1.1             -6.927e-010     -1.4494e-008    2.1777e-008    
  1.15            -6.073e-010     -1.4146e-008    1.5038e-008    
  1.2             -5.248e-010     -1.275e-008     1.4983e-008    
  1.25            -1.8798e-009    1.1127e-008     1.4842e-008    
  1.3             -1.3913e-009    3.2074e-008     3.994e-009     
  1.35            -1.3369e-009    9.9805e-008     6.733e-009     
  1.4             -9.861e-010     2.9747e-007     1.4664e-008    
  1.45            -1.3105e-009    9.5681e-007     1.3669e-008    
  1.5             1.9927e-009     2.3052e-006     1.5045e-008    
  1.55            -2.0065e-009    4.6171e-006     1.4938e-008    
  1.6             -1.445e-009     7.5773e-006     3.237e-009     
  1.65            -1.333e-009     1.09731e-005    5.756e-009     
  1.7             3.837e-010      1.4426e-005     9.227e-009     
  1.75            -1.3133e-009    1.8161e-005     1.9546e-008    
  1.8             -1.9969e-009    2.1759e-005     1.4901e-008    
  1.85            -1.4378e-009    2.5265e-005     3.457e-009     
  1.9             -1.3316e-009    2.8702e-005     5.815e-009     
  1.95            -1.3431e-009    3.2033e-005     1.1271e-008    
  2               -2.2881e-009    3.526e-005      1.5043e-008    
  2.05            -1.6819e-009    3.8361e-005     1.814e-009     
  2.1             -1.347e-009     4.1386e-005     4.314e-009     
  2.15            -1.3461e-009    4.4319e-005     7.89e-009      
  2.2             -1.3137e-009    4.7164e-005     1.363e-008     
  2.25            -2.0216e-009    4.9898e-005     1.4926e-008    
  2.3             -1.4518e-009    5.2528e-005     3.147e-009     
  2.35            -1.3309e-009    5.5114e-005     5.634e-009     
  2.4             -1.3453e-009    5.7605e-005     1.0887e-008    
  2.45            -1.269e-009     6.0036e-005     1.487e-008     
  2.5             -1.7193e-009    6.237e-005      1.4953e-008    
  2.55            -1.3498e-009    6.4652e-005     4.338e-009     
  2.6             -1.3464e-009    6.6863e-005     7.769e-009     
  2.65            -1.316e-009     6.9052e-005     1.3579e-008    
  2.7             -2.0495e-009    7.1143e-005     1.4946e-008    
  2.75            -1.4781e-009    7.3156e-005     3.088e-009     
  2.8             -1.3308e-009    7.5139e-005     5.426e-009     
  2.85            -1.3444e-009    7.7053e-005     1.0501e-008    
  2.9             -1.2761e-009    7.8932e-005     1.4794e-008    
  2.95            -1.7504e-009    8.0737e-005     1.4966e-008    
  3               -1.3548e-009    8.2504e-005     4.183e-009     
  3.05            -1.3433e-009    8.4227e-005     7.649e-009     
  3.1             -1.318e-009     8.5914e-005     1.3362e-008    
  3.15            -2.0812e-009    8.7555e-005     1.5009e-008    
  3.2             -1.4945e-009    8.9127e-005     2.928e-009     
  3.25            -1.3302e-009    9.0678e-005     5.291e-009     
  3.3             -1.3458e-009    9.2192e-005     1.0273e-008    
  3.35            -1.2799e-009    9.3678e-005     1.472e-008     
  3.4             -1.779e-009     9.51e-005       1.4903e-008    
  3.45            -1.3587e-009    9.6491e-005     4.134e-009     
  3.5             -1.3424e-009    9.7855e-005     7.344e-009     
  3.55            -1.3256e-009    9.9201e-005     1.3082e-008    
  3.6             -2.1107e-009    0.000100507     1.5104e-008    
  3.65            -1.5127e-009    0.000101738     2.706e-009     
  3.7             -1.3302e-009    0.000102989     5.125e-009     
  3.75            -1.3462e-009    0.000104188     9.93e-009      
  3.8             -1.2846e-009    0.000105374     1.4518e-008    
  3.85            -1.8043e-009    0.000106502     1.482e-008     
  3.9             -1.3606e-009    0.000107619     4e-009         
  3.95            -1.3378e-009    0.000108704     7.179e-009     
  4               -1.3261e-009    0.000109773     1.3032e-008    
  4.05            -2.1356e-009    0.000110817     1.5332e-008    
  4.1             -1.5254e-009    0.000111805     2.679e-009     
  4.15            -1.3237e-009    0.000112792     4.924e-009     
