! VERSION = 6.00
BEGIN_HEADER
 ICCAP_INPUTS
  VG         V  B GROUND SMU4 0.001 LIN        2    0          5          6    1         
  VS         V  E GROUND SMU2 0.1 CON        0
  VD         V  S GROUND SMU1 0.1 LIN        1    0          5          101  0.05      
  VB         V  C GROUND SMU3 0.1 LIN        3    0          -2.5       2    -2.5      
 ICCAP_OUTPUTS
  ID         I  S GROUND SMU1 B
  IB         I  C GROUND SMU3 B
  IG         I  B GROUND SMU4 B
END_HEADER

BEGIN_DB
 ICCAP_VAR VG         0              
 ICCAP_VAR VS         0              
 ICCAP_VAR VB         0              

 #VD              ID              IB              IG             
  0               -1.741e-009     -1.749e-009     -2.1455e-009   
  0.05            -1.2965e-009    -1.1561e-008    2.7048e-009    
  0.1             1.0245e-009     1.8627e-008     -1.8044e-009   
  0.15            -1.29e-009      4.158e-009      2.7117e-009    
  0.2             1.0262e-009     1.841e-008      -1.8117e-009   
  0.25            -1.2876e-009    4.284e-009      2.7096e-009    
  0.3             1.0266e-009     1.8387e-008     -1.81e-009     
  0.35            -1.2842e-009    4.113e-009      2.7122e-009    
  0.4             1.0227e-009     1.8403e-008     -1.8175e-009   
  0.45            -1.2804e-009    4.34e-009       2.7091e-009    
  0.5             1.0231e-009     1.841e-008      -1.8165e-009   
  0.55            -1.2784e-009    4.099e-009      1.5202e-009    
  0.6             1.7633e-009     -9.248e-009     1.6411e-009    
  0.65            1.1326e-009     2.1068e-008     -1.6007e-009   
  0.7             -1.3484e-009    5.436e-009      1.981e-010     
  0.75            -5.259e-010     -2.1001e-008    1.7438e-009    
  0.8             1.2448e-009     -9.16e-009      2.3564e-009    
  0.85            1.1183e-009     2.0518e-008     -1.6382e-009   
  0.9             -1.33e-009      5.118e-009      2.6601e-009    
  0.95            1.1159e-009     2.0386e-008     -1.6497e-009   
  1               -1.3251e-009    5.076e-009      2.6674e-009    
  1.05            1.1111e-009     1.9856e-008     -1.6597e-009   
  1.1             -1.3211e-009    5.029e-009      2.6796e-009    
  1.15            1.1041e-009     1.9818e-008     -1.6739e-009   
  1.2             -1.3138e-009    5.1e-009        2.6802e-009    
  1.25            1.1051e-009     1.9478e-008     -1.6868e-009   
  1.3             -1.3113e-009    4.964e-009      2.6828e-009    
  1.35            1.1025e-009     1.9578e-008     -1.6999e-009   
  1.4             -1.31e-009      4.904e-009      2.6882e-009    
  1.45            1.0986e-009     1.9427e-008     -1.7058e-009   
  1.5             -1.3039e-009    4.901e-009      2.6881e-009    
  1.55            1.0996e-009     1.9398e-008     -1.7086e-009   
  1.6             -1.3013e-009    4.719e-009      2.6896e-009    
  1.65            1.0976e-009     1.9092e-008     -1.7221e-009   
  1.7             -1.2978e-009    4.897e-009      2.6907e-009    
  1.75            1.0939e-009     1.9238e-008     -1.7265e-009   
  1.8             -1.2976e-009    4.815e-009      2.6921e-009    
  1.85            1.0916e-009     1.934e-008      -1.734e-009    
  1.9             -1.2972e-009    4.807e-009      2.6878e-009    
  1.95            1.0947e-009     1.9195e-008     -1.7368e-009   
  2               -1.2903e-009    4.83e-009       2.6883e-009    
  2.05            1.0909e-009     1.9201e-008     -1.7343e-009   
  2.1             -1.2886e-009    4.657e-009      2.6945e-009    
  2.15            1.0908e-009     1.9169e-008     -1.7358e-009   
  2.2             -1.2897e-009    4.806e-009      2.694e-009     
  2.25            1.0924e-009     1.8995e-008     -1.7428e-009   
  2.3             -1.2879e-009    4.614e-009      2.7031e-009    
  2.35            1.0877e-009     1.8894e-008     -1.7415e-009   
  2.4             -1.2861e-009    4.647e-009      2.7001e-009    
  2.45            1.0865e-009     1.8906e-008     -1.7453e-009   
  2.5             -1.2814e-009    4.646e-009      2.6988e-009    
  2.55            1.0841e-009     1.8909e-008     -1.7541e-009   
  2.6             -1.2803e-009    4.532e-009      2.7035e-009    
  2.65            1.0834e-009     1.8941e-008     -1.7614e-009   
  2.7             -1.2773e-009    4.552e-009      2.7047e-009    
  2.75            1.0834e-009     1.8679e-008     -1.7591e-009   
  2.8             -1.2772e-009    4.5e-009        2.7057e-009    
  2.85            1.0828e-009     1.8762e-008     -1.7686e-009   
  2.9             -1.2753e-009    4.649e-009      2.708e-009     
  2.95            1.079e-009      1.8653e-008     -1.7738e-009   
  3               -1.2735e-009    4.429e-009      2.7065e-009    
  3.05            1.0795e-009     1.859e-008      -1.7722e-009   
  3.1             -1.2686e-009    4.477e-009      2.7062e-009    
  3.15            1.0775e-009     1.86e-008       -1.7828e-009   
  3.2             -1.2689e-009    4.449e-009      2.7078e-009    
  3.25            1.0756e-009     1.8498e-008     -1.784e-009    
  3.3             -1.2663e-009    4.514e-009      2.7127e-009    
  3.35            1.0739e-009     1.8685e-008     -1.7792e-009   
  3.4             -1.2686e-009    4.484e-009      2.7116e-009    
  3.45            1.0789e-009     1.8549e-008     -1.7713e-009   
  3.5             -1.2675e-009    4.275e-009      2.7091e-009    
  3.55            1.0791e-009     1.8695e-008     -1.7745e-009   
  3.6             -1.2692e-009    4.372e-009      2.6981e-009    
  3.65            1.0819e-009     1.9007e-008     -1.7618e-009   
  3.7             -1.4609e-009    -5.958e-009     -1.8e-012      
  3.75            -6.558e-010     -2.4015e-008    2.7244e-009    
  3.8             1.6803e-009     -1.732e-009     1.7264e-009    
  3.85            1.8751e-009     1.5201e-008     -1.6361e-009   
  3.9             -1.3082e-009    5.193e-009      2.6526e-009    
  3.95            1.144e-009      2.0446e-008     -1.6346e-009   
  4               -1.3072e-009    5.093e-009      2.6544e-009    
  4.05            1.1433e-009     2.0636e-008     -1.6329e-009   
  4.1             -1.3029e-009    5.177e-009      2.6537e-009    
  4.15            1.1444e-009     2.0602e-008     -1.6454e-009   
  4.2             -1.3049e-009    5.048e-009      2.6472e-009    
  4.25            1.1441e-009     2.06e-008       -1.6435e-009   
  4.3             -1.3026e-009    5.085e-009      2.6524e-009    
  4.35            1.1384e-009     2.0556e-008     -1.6448e-009   
  4.4             -1.301e-009     5.097e-009      2.654e-009     
  4.45            1.1415e-009     2.0428e-008     -1.6533e-009   
  4.5             -1.2991e-009    5.005e-009      2.6616e-009    
  4.55            1.1407e-009     2.0372e-008     -1.6532e-009   
  4.6             -1.2947e-009    4.992e-009      2.6643e-009    
  4.65            1.136e-009      2.0206e-008     -1.6581e-009   
  4.7             -1.2932e-009    4.804e-009      2.6693e-009    
  4.75            1.1331e-009     1.9991e-008     -1.668e-009    
  4.8             -1.2879e-009    4.995e-009      2.6698e-009    
  4.85            1.1317e-009     2.0002e-008     -1.6819e-009   
  4.9             -1.289e-009     4.83e-009       2.6687e-009    
  4.95            1.1311e-009     1.998e-008      -1.6868e-009   
  5               -1.2847e-009    4.904e-009      2.6708e-009    
END_DB

BEGIN_DB
 ICCAP_VAR VG         1              
 ICCAP_VAR VS         0              
 ICCAP_VAR VB         0              

 #VD              ID              IB              IG             
  0               -2.8588e-007    -1.7868e-008    2.1591e-009    
  0.05            1.9691e-005     1.0506e-008     -2.604e-010    
  0.1             3.4027e-005     1.7061e-008     -1.6411e-009   
  0.15            4.3227e-005     1.0837e-008     -2.2888e-009   
  0.2             4.8298e-005     1.7401e-008     -1.5773e-009   
  0.25            5.0856e-005     2.4827e-008     -2.3643e-009   
  0.3             5.2012e-005     1.6287e-008     -1.669e-009    
  0.35            5.2692e-005     1.0855e-008     -2.3141e-009   
  0.4             5.2972e-005     1.7225e-008     -1.6035e-009   
  0.45            5.3271e-005     1.1244e-008     -2.2526e-009   
  0.5             5.3414e-005     1.7894e-008     -1.5401e-009   
  0.55            5.3631e-005     1.1672e-008     -2.1917e-009   
  0.6             5.2921e-005     8.402e-009      1.8937e-009    
  0.65            5.3228e-005     -2.0708e-008    2.7185e-009    
  0.7             5.3326e-005     -2.4831e-008    2.4514e-009    
  0.75            5.3449e-005     -1.8732e-008    1.6516e-009    
  0.8             5.352e-005      -2.4211e-008    2.5304e-009    
  0.85            5.3656e-005     -1.8076e-008    1.7665e-009    
  0.9             5.3709e-005     -2.391e-008     2.5957e-009    
  0.95            5.3835e-005     -1.7102e-008    1.8957e-009    
  1               5.4131e-005     -9.79e-009      -8.762e-010    
  1.05            5.4632e-005     2.5127e-008     -2.3511e-009   
  1.1             5.4672e-005     1.6535e-008     -1.6543e-009   
  1.15            5.4765e-005     2.4121e-008     -2.424e-009    
  1.2             5.4846e-005     1.5367e-008     -1.7428e-009   
  1.25            5.4964e-005     1.0445e-008     -2.3727e-009   
  1.3             5.4987e-005     1.6318e-008     -1.6789e-009   
  1.35            5.5108e-005     1.0726e-008     -2.3163e-009   
  1.4             5.5113e-005     1.706e-008      -1.6091e-009   
  1.45            5.522e-005      2.4431e-008     -2.3888e-009   
  1.5             5.5266e-005     1.585e-008      -1.7033e-009   
  1.55            5.5397e-005     1.0605e-008     -2.3389e-009   
  1.6             5.5389e-005     1.6802e-008     -1.6336e-009   
  1.65            5.548e-005      2.4202e-008     -2.4081e-009   
  1.7             5.5532e-005     1.5489e-008     -1.7313e-009   
  1.75            5.5623e-005     2.3319e-008     -1.2563e-009   
  1.8             5.563e-005      1.6557e-008     -1.6567e-009   
  1.85            5.5781e-005     1.0844e-008     -2.306e-009    
  1.9             5.5762e-005     1.7343e-008     -1.5963e-009   
  1.95            5.5864e-005     1.1235e-008     -2.2477e-009   
  2               5.4998e-005     8.542e-009      1.8526e-009    
  2.05            5.531e-005      -2.0038e-008    1.4434e-009    
  2.1             5.5383e-005     -2.4765e-008    2.3496e-009    
  2.15            5.5559e-005     -1.8246e-008    1.7179e-009    
  2.2             5.5496e-005     -2.4111e-008    2.5704e-009    
  2.25            5.5569e-005     -1.7636e-008    1.8324e-009    
  2.3             5.5851e-005     -9.857e-009     -8.968e-010    
  2.35            5.6219e-005     9.107e-009      -2.592e-009    
  2.4             5.6386e-005     1.0688e-008     -2.287e-009    
  2.45            5.6366e-005     1.7255e-008     -1.5716e-009   
  2.5             5.6485e-005     1.1273e-008     -2.2269e-009   
  2.55            5.5651e-005     8.107e-009      1.8676e-009    
  2.6             5.5925e-005     -2.0854e-008    1.4215e-009    
  2.65            5.5992e-005     -2.5383e-008    2.3285e-009    
  2.7             5.6119e-005     -1.0546e-008    -6.025e-010    
  2.75            5.6703e-005     2.0378e-008     -1.3322e-009   
  2.8             5.6773e-005     1.2785e-008     -1.8707e-009   
  2.85            5.6855e-005     8.944e-009      -2.4477e-009   
  2.9             5.6908e-005     1.2862e-008     -1.7956e-009   
  2.95            5.6967e-005     7.916e-009      -2.4024e-009   
  3               5.6991e-005     1.2656e-008     -1.7158e-009   
  3.05            5.711e-005      6.925e-009      -2.3505e-009   
  3.1             5.7091e-005     1.2073e-008     -1.6459e-009   
  3.15            5.7224e-005     5.639e-009      -2.2921e-009   
  3.2             5.7203e-005     1.115e-008      -1.5808e-009   
  3.25            5.7326e-005     4.175e-009      -2.2339e-009   
  3.3             5.7211e-005     1.383e-009      -2.5745e-009   
  3.35            5.7408e-005     1.877e-009      -2.1683e-009   
  3.4             5.6897e-005     -2.0114e-008    -2.0148e-009   
  3.45            5.7486e-005     -3.221e-009     -2.3952e-009   
  3.5             5.6462e-005     -6.308e-009     1.7243e-009    
  3.55            5.6799e-005     -2.8394e-008    -1.6e-012      
  3.6             5.7138e-005     -2.5443e-008    -2.5948e-009   
  3.65            5.6591e-005     -1.5035e-008    1.2224e-009    
  3.7             5.7189e-005     -4.4628e-008    1.7455e-009    
  3.75            5.7259e-005     -3.7727e-008    -2.1094e-009   
  3.8             5.7519e-005     -2.4499e-008    5.429e-010     
  3.85            5.717e-005      -5.9117e-008    2.7087e-009    
  3.9             5.7941e-005     -5.2236e-008    -1.6091e-009   
  3.95            5.7864e-005     -3.3788e-008    -1.3026e-009   
  4               5.7378e-005     -4.6001e-008    2.4044e-009    
  4.05            5.7669e-005     -6.7301e-008    -9.225e-010    
  4.1             5.8152e-005     -3.7604e-008    -2.2786e-009   
  4.15            5.7227e-005     -6.1566e-008    1.8264e-009    
  4.2             5.7515e-005     -8.7965e-008    -8.67e-011     
  4.25            5.83e-005       -7.1168e-008    -1.8662e-009   
  4.3             5.7628e-005     -8.5918e-008    2.0733e-009    
  4.35            5.7842e-005     -1.14829e-007   2.3397e-009    
  4.4             5.7888e-005     -1.1248e-007    2.6884e-009    
  4.45            5.8569e-005     -1.3316e-007    -1.6437e-009   
  4.5             5.8485e-005     -1.2129e-007    -2.41e-009     
  4.55            5.7585e-005     -1.3583e-007    1.7075e-009    
  4.6             5.7937e-005     -1.6863e-007    1.82e-011      
  4.65            5.8834e-005     -1.5887e-007    -2.0578e-009   
  4.7             5.8058e-005     -1.7656e-007    1.9703e-009    
  4.75            5.8217e-005     -2.105e-007     -2.673e-010    
  4.8             5.8953e-005     -1.9909e-007    -1.6241e-009   
  4.85            5.8409e-005     -2.2474e-007    2.1844e-009    
  4.9             5.8517e-005     -2.6142e-007    -6.03e-010     
  4.95            5.9173e-005     -2.4743e-007    -1.328e-009    
  5               5.8596e-005     -2.8283e-007    2.3728e-009    
END_DB

BEGIN_DB
 ICCAP_VAR VG         2              
 ICCAP_VAR VS         0              
 ICCAP_VAR VB         0              

 #VD              ID              IB              IG             
  0               -1.0719e-006    -2.4116e-008    -9.498e-010    
  0.05            7.3432e-005     1.0689e-008     -3.271e-010    
  0.1             0.00014559      1.6445e-008     4.804e-010     
  0.15            0.00021602      -2.2655e-008    2.6888e-009    
  0.2             0.00028521      -1.6872e-008    1.916e-009     
  0.25            0.0003527       -9.858e-009     -9.57e-010     
  0.3             0.00041861      1.0527e-008     -2.5355e-009   
  0.35            0.00048271      1.4269e-008     -1.8351e-009   
  0.4             0.00054505      1.08e-008       -2.2965e-009   
  0.45            0.0006049       8.687e-009      1.91e-009      
  0.5             0.00066313      -2.3082e-008    2.666e-009     
  0.55            0.00071935      -1.738e-008     1.8488e-009    
  0.6             0.0007734       -2.4427e-008    2.5193e-009    
  0.65            0.00082517      -1.93e-008      1.5766e-009    
  0.7             0.00087458      -1.5247e-008    2.1138e-009    
  0.75            0.00092179      -9.823e-009     -8.531e-010    
  0.8             0.00096628      2.552e-008      -2.2196e-009   
  0.85            0.00100788      1.9989e-008     -1.3996e-009   
  0.9             0.00104673      1.4636e-008     -1.8039e-009   
  0.95            0.00108242      2.4104e-008     -2.397e-009    
  1               0.00111537      1.7609e-008     -1.5787e-009   
  1.05            0.0011445       1.242e-008      -4.7e-012      
  1.1             0.001173        1.4509e-008     -1.8295e-009   
  1.15            0.0011971       1.0613e-008     -2.2928e-009   
  1.2             0.0012163       8.212e-009      1.9122e-009    
  1.25            0.0012343       -2.2984e-008    2.6549e-009    
  1.3             0.00125         -1.7473e-008    1.8508e-009    
  1.35            0.0012627       -2.4174e-008    2.5075e-009    
  1.4             0.0012742       -1.9536e-008    1.581e-009     
  1.45            0.0012832       -2.4008e-008    2.2952e-009    
  1.5             0.0012919       -9.918e-009     -7.514e-010    
  1.55            0.0012996       2.4448e-008     -2.348e-009    
  1.6             0.0013027       8.382e-009      1.8606e-009    
  1.65            0.0013075       -2.2362e-008    2.6765e-009    
  1.7             0.001312        -1.6732e-008    1.9461e-009    
  1.75            0.0013148       -2.3688e-008    2.5636e-009    
  1.8             0.0013188       -1.8991e-008    1.6723e-009    
  1.85            0.0013232       -9.69e-009      -1.0726e-009   
  1.9             0.0013263       1.0221e-008     -2.4155e-009   
  1.95            0.0013286       1.7017e-008     -1.627e-009    
  2               0.0013307       1.2079e-008     -2.0977e-009   
  2.05            0.0013323       2.1426e-008     -1.3365e-009   
  2.1             0.0013348       1.6385e-008     -1.6885e-009   
  2.15            0.0013366       2.4603e-008     -2.2977e-009   
  2.2             0.0013357       8.684e-009      1.8973e-009    
  2.25            0.0013371       -2.2768e-008    2.6497e-009    
  2.3             0.001339        -1.7389e-008    1.8793e-009    
  2.35            0.0013403       -2.386e-008     2.5169e-009    
  2.4             0.0013418       -1.9252e-008    1.613e-009     
  2.45            0.0013429       -2.3979e-008    2.317e-009     
  2.5             0.0013456       -9.866e-009     -7.287e-010    
  2.55            0.0013482       2.4108e-008     -2.3615e-009   
  2.6             0.0013468       8.632e-009      1.8368e-009    
  2.65            0.0013481       -2.1969e-008    2.6827e-009    
  2.7             0.0013498       -1.6407e-008    1.9829e-009    
  2.75            0.0013505       -2.3606e-008    2.5724e-009    
  2.8             0.001352        -1.8825e-008    1.7045e-009    
  2.85            0.0013536       -2.4207e-008    2.4038e-009    
  2.9             0.0013551       -9.795e-009     -6.603e-010    
  2.95            0.0013576       8.28e-009       -2.5868e-009   
  3               0.0013593       1.0516e-008     -2.2721e-009   
  3.05            0.0013574       8.084e-009      1.9142e-009    
  3.1             0.0013584       -2.3057e-008    2.6409e-009    
  3.15            0.0013597       -1.7854e-008    1.8561e-009    
  3.2             0.001361        -2.4258e-008    2.5017e-009    
  3.25            0.0013622       -1.019e-008     -5.593e-010    
  3.3             0.0013654       6.288e-009      -2.568e-009    
  3.35            0.0013667       8.95e-009       -2.3721e-009   
  3.4             0.0013669       1.6272e-008     -1.5604e-009   
  3.45            0.0013688       1.0326e-008     -2.0195e-009   
  3.5             0.0013693       7.198e-009      -2.4136e-009   
  3.55            0.0013701       1.3343e-008     -1.6112e-009   
  3.6             0.0013711       6.703e-009      -2.0841e-009   
  3.65            0.0013722       3.206e-009      -2.456e-009    
  3.7             0.0013729       7.256e-009      -1.6703e-009   
  3.75            0.0013722       -4.976e-009     2.2333e-009    
  3.8             0.0013735       -2.524e-008     -8.248e-010    
  3.85            0.0013748       -2.464e-008     -2.5776e-009   
  3.9             0.0013735       -1.5987e-008    1.2644e-009    
  3.95            0.001375        -4.4797e-008    2.6982e-009    
  4               0.0013785       -4.7368e-008    -1.7001e-009   
  4.05            0.0013788       -3.5672e-008    1.45e-011      
  4.1             0.0013777       -7.1892e-008    1.9802e-009    
  4.15            0.0013799       -7.4962e-008    -2.0875e-009   
