! VERSION = 6.00
BEGIN_HEADER
 ICCAP_INPUTS
  VG         V  B GROUND SMU4 0.001 LIN        2    0          5          6    1         
  VS         V  E GROUND SMU2 0.1 CON        0
  VD         V  S GROUND SMU1 0.1 LIN        1    0          5          101  0.05      
  VB         V  C GROUND SMU3 0.1 LIN        3    0          -2.5       2    -2.5      
 ICCAP_OUTPUTS
  ID         I  S GROUND SMU1 B
  IB         I  C GROUND SMU3 B
  IG         I  B GROUND SMU4 B
END_HEADER

BEGIN_DB
 ICCAP_VAR VG         0              
 ICCAP_VAR VS         0              
 ICCAP_VAR VB         0              

 #VD              ID              IB              IG             
  0               1.1696e-009     1.4499e-008     9.206e-010     
  0.05            1.5903e-009     -7.982e-009     1.8393e-009    
  0.1             5.379e-010      1.0147e-008     -2.572e-009    
  0.15            -1.1495e-009    -1.6646e-008    2.1573e-009    
  0.2             1.3353e-009     -5.921e-009     2.3042e-009    
  0.25            1.0055e-009     1.5265e-008     -1.9596e-009   
  0.3             -1.757e-009     3.436e-009      -5.488e-010    
  0.35            -2.673e-010     -1.5619e-008    2.3325e-009    
  0.4             1.3599e-009     -4.755e-009     2.2359e-009    
  0.45            9.372e-010      1.3911e-008     -2.1154e-009   
  0.5             1.3407e-009     -1.2276e-008    2.3327e-009    
  0.55            1.0456e-009     1.5771e-008     -1.8833e-009   
  0.6             -1.2914e-009    3.539e-009      2.7613e-009    
  0.65            1.0661e-009     1.6249e-008     -1.839e-009    
  0.7             -1.2999e-009    3.527e-009      2.7605e-009    
  0.75            1.0839e-009     1.641e-008      -1.8004e-009   
  0.8             -1.3087e-009    3.844e-009      2.7496e-009    
  0.85            1.1038e-009     1.6802e-008     -1.7626e-009   
  0.9             -1.3166e-009    4.033e-009      2.7476e-009    
  0.95            1.1234e-009     1.7015e-008     -1.7303e-009   
  1               -1.3224e-009    4.227e-009      2.7404e-009    
  1.05            1.1434e-009     1.7426e-008     -1.6885e-009   
  1.1             -1.3333e-009    4.248e-009      2.7259e-009    
  1.15            1.1592e-009     1.779e-008      -1.6521e-009   
  1.2             -1.3417e-009    4.394e-009      2.7121e-009    
  1.25            1.1749e-009     1.8235e-008     -1.6285e-009   
  1.3             -1.3504e-009    4.552e-009      2.504e-010     
  1.35            -4.842e-010     -1.8738e-008    1.7499e-009    
  1.4             1.331e-009      -8.269e-009     2.4366e-009    
  1.45            1.1898e-009     1.8589e-008     -1.608e-009    
  1.5             -1.355e-009     4.551e-009      2.354e-010     
  1.55            -4.881e-010     -1.891e-008     1.7277e-009    
  1.6             1.3316e-009     -8.382e-009     2.4418e-009    
  1.65            1.2067e-009     1.8591e-008     -1.5914e-009   
  1.7             -1.3587e-009    4.691e-009      2.199e-010     
  1.75            1.4469e-009     -8.486e-009     2.1014e-009    
  1.8             8.203e-010      1.1961e-008     -2.3653e-009   
  1.85            -1.6165e-009    1.718e-009      -2.075e-010    
  1.9             -1.6885e-009    -9.579e-009     -4.192e-010    
  1.95            -1.175e-010     -1.465e-008     2.4905e-009    
  2               5.368e-010      1.0471e-008     -2.5983e-009   
  2.05            -3.469e-010     -1.6703e-008    2.069e-009     
  2.1             1.3785e-009     -6.329e-009     2.3373e-009    
  2.15            1.0835e-009     1.562e-008      -1.8749e-009   
  2.2             -1.2627e-009    3.566e-009      2.7658e-009    
  2.25            1.0979e-009     1.6061e-008     -1.8379e-009   
  2.3             -1.2662e-009    3.633e-009      2.7634e-009    
  2.35            1.1157e-009     1.6332e-008     -1.8111e-009   
  2.4             -1.275e-009     3.826e-009      2.7555e-009    
  2.45            1.133e-009      1.6582e-008     -1.7726e-009   
  2.5             -1.2804e-009    3.835e-009      2.7489e-009    
  2.55            1.1483e-009     1.6974e-008     -1.7375e-009   
  2.6             -1.2882e-009    4.032e-009      2.7395e-009    
  2.65            1.164e-009      1.7296e-008     -1.7105e-009   
  2.7             -1.3001e-009    4.127e-009      2.7315e-009    
  2.75            1.1808e-009     1.7553e-008     -1.6763e-009   
  2.8             -1.3103e-009    4.239e-009      2.7191e-009    
  2.85            1.1955e-009     1.8203e-008     -1.6456e-009   
  2.9             -1.3189e-009    4.467e-009      2.7123e-009    
  2.95            1.2117e-009     1.8423e-008     -1.6147e-009   
  3               -1.3274e-009    4.529e-009      2.378e-010     
  3.05            -4.579e-010     -1.8761e-008    1.7297e-009    
  3.1             1.3606e-009     -8.319e-009     2.438e-009     
  3.15            1.2265e-009     1.8563e-008     -1.5953e-009   
  3.2             -1.3329e-009    4.523e-009      2.289e-010     
  3.25            -4.618e-010     -1.9154e-008    1.7063e-009    
  3.3             1.3605e-009     -8.402e-009     2.444e-009     
  3.35            1.2365e-009     1.8795e-008     -1.5807e-009   
  3.4             -1.3361e-009    4.679e-009      2.192e-010     
  3.45            -4.699e-010     -1.9089e-008    1.6819e-009    
  3.5             1.3606e-009     -8.452e-009     2.4542e-009    
  3.55            4.988e-010      1.0308e-008     -2.6165e-009   
  3.6             -2.725e-010     -1.6071e-008    2.196e-009     
  3.65            1.4166e-009     -5.533e-009     2.2893e-009    
  3.7             1.0523e-009     1.4668e-008     -1.9923e-009   
  3.75            -1.2112e-009    3.225e-009      1.6396e-009    
  3.8             1.358e-009      -8.632e-009     2.4734e-009    
  3.85            5.336e-010      1.0405e-008     -2.6083e-009   
  3.9             -2.927e-010     -1.6422e-008    2.1364e-009    
  3.95            1.4142e-009     -5.617e-009     2.3162e-009    
  4               1.085e-009      1.5189e-008     -1.9375e-009   
  4.05            -1.217e-009     3.249e-009      1.5747e-009    
  4.1             1.3544e-009     -8.492e-009     2.4957e-009    
  4.15            5.643e-010      1.0366e-008     -2.6017e-009   
  4.2             -3.164e-010     -1.6569e-008    2.0788e-009    
  4.25            1.4126e-009     -6.295e-009     2.3323e-009    
  4.3             1.1106e-009     1.5545e-008     -1.8829e-009   
  4.35            -1.2263e-009    3.462e-009      2.7633e-009    
  4.4             1.7141e-009     -1.551e-009     1.7989e-009    
  4.45            5.938e-010      1.0366e-008     -2.5958e-009   
  4.5             -3.344e-010     -1.6987e-008    2.02e-009      
  4.55            1.4093e-009     -6.778e-009     2.3524e-009    
  4.6             1.1338e-009     1.6067e-008     -1.8312e-009   
  4.65            -1.2374e-009    3.642e-009      2.763e-009     
  4.7             1.1507e-009     1.6489e-008     -1.799e-009    
  4.75            -1.2451e-009    3.596e-009      2.7532e-009    
  4.8             1.1646e-009     1.6707e-008     -1.7703e-009   
  4.85            -1.2544e-009    3.799e-009      2.7496e-009    
  4.9             1.1836e-009     1.6932e-008     -1.7358e-009   
  4.95            -1.2627e-009    4.068e-009      2.7386e-009    
  5               1.198e-009      1.7463e-008     -1.7054e-009   
END_DB

BEGIN_DB
 ICCAP_VAR VG         1              
 ICCAP_VAR VS         0              
 ICCAP_VAR VB         0              

 #VD              ID              IB              IG             
  0               -3.8861e-007    -1.7425e-008    1.8524e-009    
  0.05            2.5734e-005     1.125e-008      -4.866e-010    
  0.1             4.4108e-005     1.7828e-008     -1.4284e-009   
  0.15            5.8526e-005     6.957e-009      1.0265e-009    
  0.2             6.9645e-005     -8.637e-009     2.7392e-009    
  0.25            7.3931e-005     -1.4398e-008    2.1749e-009    
  0.3             7.9921e-005     -9.534e-009     -7.452e-010    
  0.35            8.2112e-005     6.78e-009       -2.6116e-009   
  0.4             8.7291e-005     1.056e-008      -2.4978e-009   
  0.45            8.757e-005      1.3318e-008     -1.8311e-009   
  0.5             8.9863e-005     1.0182e-008     -2.45e-009     
  0.55            9.1166e-005     1.4113e-008     -1.7415e-009   
  0.6             8.5757e-005     1.0129e-008     -2.3968e-009   
  0.65            9.3401e-005     1.4773e-008     -1.6605e-009   
  0.7             9.005e-005      1.0306e-008     -2.3361e-009   
  0.75            8.6731e-005     1.546e-008      -1.5846e-009   
  0.8             9.3049e-005     1.0756e-008     -2.2667e-009   
  0.85            9.2017e-005     1.6048e-008     -1.515e-009    
  0.9             9.221e-005      1.1292e-008     -2.1984e-009   
  0.95            8.7303e-005     7.957e-009      1.9702e-009    
  1               9.2942e-005     -1.9029e-008    2.7609e-009    
  1.05            9.3355e-005     -1.396e-008     2.2805e-009    
  1.1             9.3835e-005     -1.4748e-008    1.6149e-009    
  1.15            9.3402e-005     -1.3364e-008    2.3829e-009    
  1.2             9.4117e-005     -1.6316e-008    1.7213e-009    
  1.25            9.357e-005      -1.2842e-008    2.4799e-009    
  1.3             9.3987e-005     -1.7949e-008    1.838e-009     
  1.35            9.388e-005      -1.1863e-008    2.5584e-009    
  1.4             9.4419e-005     -1.6579e-008    1.7404e-009    
  1.45            9.4487e-005     -1.2712e-008    2.494e-009     
  1.5             9.468e-005      -1.6924e-008    1.6507e-009    
  1.55            9.2279e-005     -8.751e-009     -9.999e-010    
  1.6             9.3525e-005     9.325e-009      -2.601e-009    
  1.65            9.5737e-005     1.1402e-008     -2.1611e-009   
  1.7             9.0363e-005     7.825e-009      1.9923e-009    
  1.75            9.3586e-005     -8.657e-009     2.7606e-009    
  1.8             9.5603e-005     -2.3435e-008    2.4413e-009    
  1.85            9.705e-005      -1.7206e-008    1.7833e-009    
  1.9             9.6162e-005     -1.2439e-008    2.5249e-009    
  1.95            9.7444e-005     -1.8783e-008    1.8967e-009    
  2               9.6341e-005     -1.1565e-008    2.5981e-009    
  2.05            9.6774e-005     -1.6248e-008    1.7971e-009    
  2.1             9.6897e-005     -1.2408e-008    2.5363e-009    
  2.15            9.7864e-005     -1.6645e-008    1.7068e-009    
  2.2             9.6139e-005     -2.2663e-008    2.6055e-009    
  2.25            9.6812e-005     -1.6187e-008    1.8154e-009    
  2.3             9.7535e-005     -1.237e-008     2.5505e-009    
  2.35            9.7321e-005     -1.6595e-008    1.7197e-009    
  2.4             9.7562e-005     -1.2934e-008    2.477e-009     
  2.45            9.8003e-005     -1.8269e-008    1.8306e-009    
  2.5             9.6916e-005     -1.24e-008      2.5596e-009    
  2.55            9.852e-005      -2.0102e-008    1.9463e-009    
  2.6             9.5724e-005     -1.0116e-008    -8.574e-010    
  2.65            9.6964e-005     7.289e-009      -2.6214e-009   
  2.7             0.000100188     9.254e-009      -2.3845e-009   
  2.75            0.000100173     1.3596e-008     -1.6402e-009   
  2.8             9.8919e-005     8.521e-009      -2.3304e-009   
  2.85            9.974e-005      1.3169e-008     -1.5755e-009   
  2.9             9.8997e-005     8.036e-009      -2.2613e-009   
  2.95            9.9197e-005     1.2587e-008     -1.5106e-009   
  3               9.9781e-005     7.011e-009      -2.1861e-009   
  3.05            9.8641e-005     4.742e-009      -2.5893e-009   
  3.1             0.000100259     5.307e-009      -2.1089e-009   
  3.15            9.9647e-005     2.714e-009      -2.5648e-009   
  3.2             0.000101785     3.226e-009      -2.0228e-009   
  3.25            9.6277e-005     -1.8629e-008    -2.1724e-009   
  3.3             0.000101951     -2.116e-009     -2.2912e-009   
  3.35            9.6631e-005     -1.9646e-008    -2.6196e-009   
  3.4             0.000102401     -6.604e-009     -1.317e-009    
  3.45            9.6121e-005     -1.4223e-008    2.4701e-009    
  3.5             9.9225e-005     -3.2805e-008    -9.382e-010    
  3.55            0.000103963     -3.245e-009     -2.3083e-009   
  3.6             9.7597e-005     -2.3295e-008    1.8915e-009    
  3.65            0.00010257      -4.5793e-008    -8.72e-011     
  3.7             0.000103778     -2.7208e-008    -1.8647e-009   
  3.75            9.8671e-005     -3.9128e-008    2.1527e-009    
  3.8             0.000102563     -6.255e-008     -4.344e-010    
  3.85            0.000104881     -4.1522e-008    -1.4677e-009   
  3.9             9.9379e-005     -5.8395e-008    2.3498e-009    
  3.95            0.000102492     -8.4284e-008    -7.682e-010    
  4               0.000106054     -6.0452e-008    -1.281e-009    
  4.05            0.000100691     -8.4454e-008    2.5301e-009    
  4.1             0.00010739      -1.0505e-007    1.2792e-009    
  4.15            0.00010256      -1.2382e-007    -2.549e-009    
  4.2             0.00010255      -1.2076e-007    1.114e-009     
  4.25            0.00010734      -1.5996e-007    1.8279e-009    
  4.3             0.00010488      -1.6527e-007    -2.241e-009    
  4.35            0.0001054       -1.6402e-007    7.535e-010     
  4.4             0.00010897      -2.1475e-007    2.5089e-009    
  4.45            0.00010703      -2.171e-007     -1.94e-009     
  4.5             0.00011087      -2.1876e-007    3.268e-010     
  4.55            0.0001119       -2.7211e-007    1.477e-009     
  4.6             0.00010951      -2.8424e-007    -2.437e-009    
  4.65            0.00010989      -2.9154e-007    9.525e-010     
  4.7             0.00011499      -3.534e-007     2.1688e-009    
  4.75            0.000113        -3.63e-007      -2.0844e-009   
  4.8             0.00011606      -3.8685e-007    5.641e-010     
  4.85            0.0001196       -4.555e-007     2.6869e-009    
  4.9             0.00012024      -4.7789e-007    -1.834e-009    
  4.95            0.00012265      -5.0228e-007    1.243e-010     
  5               0.0001238       -5.6996e-007    1.7775e-009    
END_DB

BEGIN_DB
 ICCAP_VAR VG         2              
 ICCAP_VAR VS         0              
 ICCAP_VAR VB         0              

 #VD              ID              IB              IG             
  0               -1.3444e-006    -1.6285e-008    -7.011e-010    
  0.05            7.526e-005      1.8271e-008     -1.0458e-009   
  0.1             0.00014993      1.4765e-008     4.789e-010     
  0.15            0.00022355      -8.543e-009     2.6831e-009    
  0.2             0.00029631      -1.0579e-008    2.6466e-009    
  0.25            0.000368        -1.9105e-008    1.9143e-009    
  0.3             0.00043868      -1.2876e-008    2.462e-009     
  0.35            0.00050872      -9.54e-009      -6.718e-010    
  0.4             0.00057718      7.661e-009      -2.6206e-009   
  0.45            0.00064413      1.0291e-008     -2.3304e-009   
  0.5             0.00071025      1.7135e-008     -1.4491e-009   
  0.55            0.00077472      1.3133e-008     -1.9058e-009   
  0.6             0.00083798      1.0213e-008     -2.3767e-009   
  0.65            0.00089969      7.712e-009      1.9421e-009    
  0.7             0.00095917      -9.022e-009     2.7252e-009    
  0.75            0.00101764      -1.5673e-008    1.9201e-009    
  0.8             0.00107371      -2.2293e-008    2.6059e-009    
  0.85            0.0011297       1.029e-008      -9.643e-010    
  0.9             0.0011835       -4.368e-009     1.6282e-009    
  0.95            0.0012338       -2.3227e-008    2.4221e-009    
  1               0.0012819       -8.802e-009     2.7213e-009    
  1.05            0.0013273       -1.5682e-008    1.9326e-009    
  1.1             0.0013711       -1.2804e-008    2.4781e-009    
  1.15            0.0014133       -1.5147e-008    1.6344e-009    
  1.2             0.0014512       -1.4453e-008    2.222e-009     
  1.25            0.0014874       -1.0578e-008    2.6416e-009    
  1.3             0.0015212       -1.6725e-008    1.7058e-009    
  1.35            0.0015564       -8.463e-009     -1.0743e-009   
  1.4             0.0015823       1.0311e-008     -2.4949e-009   
  1.45            0.0016072       1.4972e-008     -1.6592e-009   
  1.5             0.001629        1.1253e-008     -2.178e-009    
  1.55            0.0016518       1.0202e-008     -2.5283e-009   
  1.6             0.0016686       1.4456e-008     -1.7209e-009   
  1.65            0.0016848       1.0878e-008     -2.242e-009    
  1.7             0.001698        1.806e-008      -1.3835e-009   
  1.75            0.0017105       1.3951e-008     -1.7914e-009   
  1.8             0.0017211       1.0451e-008     -2.2907e-009   
  1.85            0.0017294       1.7633e-008     -1.4194e-009   
  1.9             0.0017364       1.354e-008      -1.8567e-009   
  1.95            0.0017459       1.0185e-008     -2.3426e-009   
  2               0.0017503       7.552e-009      1.9802e-009    
  2.05            0.0017537       -9.278e-009     2.7059e-009    
  2.1             0.0017586       -1.6026e-008    1.8608e-009    
  2.15            0.0017644       -2.2647e-008    2.5675e-009    
  2.2             0.0017704       -1.7501e-008    1.5806e-009    
  2.25            0.001772        -1.4641e-008    2.162e-009     
  2.3             0.0017794       -9.332e-009     -8.667e-010    
  2.35            0.0017836       9.091e-009      -2.6048e-009   
  2.4             0.0017843       1.2202e-008     -2.0563e-009   
  2.45            0.0017891       1.0108e-008     -2.4678e-009   
  2.5             0.0017914       1.5395e-008     -1.6114e-009   
  2.55            0.0017951       1.1673e-008     -2.1207e-009   
  2.6             0.0017975       1.02e-008       -2.4968e-009   
  2.65            0.0017988       1.4892e-008     -1.6666e-009   
  2.7             0.0018016       1.1216e-008     -2.1793e-009   
  2.75            0.001803        1.0175e-008     -2.525e-009    
  2.8             0.0018059       1.4306e-008     -1.7246e-009   
  2.85            0.001809        1.0914e-008     -2.2351e-009   
  2.9             0.0018101       1.8315e-008     -1.3836e-009   
  2.95            0.0018135       1.3957e-008     -1.7882e-009   
  3               0.0018164       1.0463e-008     -2.2863e-009   
  3.05            0.0018177       1.7452e-008     -1.4171e-009   
  3.1             0.0018165       1.3185e-008     -1.8536e-009   
  3.15            0.0018214       1.0097e-008     -2.3341e-009   
  3.2             0.0018195       7.359e-009      1.9774e-009    
  3.25            0.0018209       -9.515e-009     2.7088e-009    
  3.3             0.001823        -1.6488e-008    1.8677e-009    
  3.35            0.0018246       -2.3012e-008    2.5697e-009    
  3.4             0.0018269       -1.7834e-008    1.7768e-009    
  3.45            0.0018302       -2.3691e-008    2.5103e-009    
  3.5             0.0018311       -1.075e-008     -6.269e-010    
  3.55            0.0018357       5.273e-009      -2.6178e-009   
  3.6             0.0018366       7.955e-009      -2.3797e-009   
  3.65            0.001838        1.3519e-008     -1.4948e-009   
  3.7             0.0018398       8.46e-009       -1.9739e-009   
  3.75            0.0018416       4.526e-009      -2.418e-009    
  3.8             0.0018434       2.028e-009      -2.6026e-009   
  3.85            0.0018424       3.036e-009      -2.0386e-009   
  3.9             0.0018456       -5.035e-009     2.1662e-009    
  3.95            0.0018491       -2.4795e-008    -5.9e-010      
  4               0.0018515       1.39e-009       -1.2926e-009   
  4.05            0.0018512       -1.7815e-008    2.5844e-009    
  4.1             0.0018567       -3.8311e-008    -1.1866e-009   
  4.15            0.0018553       -1.7744e-008    -1.6842e-009   
