! VERSION = 6.00
BEGIN_HEADER
 ICCAP_INPUTS
  VG         V  B GROUND SMU4 0.001 LIN        2    0          5          6    1         
  VS         V  E GROUND SMU2 0.1 CON        0
  VD         V  S GROUND SMU1 0.1 LIN        1    0          5          101  0.05      
  VB         V  C GROUND SMU3 0.1 LIN        3    0          -2.5       2    -2.5      
 ICCAP_OUTPUTS
  ID         I  S GROUND SMU1 B
  IB         I  C GROUND SMU3 B
  IG         I  B GROUND SMU4 B
END_HEADER

BEGIN_DB
 ICCAP_VAR VG         0              
 ICCAP_VAR VS         0              
 ICCAP_VAR VB         0              

 #VD              ID              IB              IG             
  0               -1.1464e-009    -8.753e-009     -1.2235e-009   
  0.05            -1.9999e-009    9.653e-009      -2.394e-010    
  0.1             -2.0427e-009    -1.1216e-008    -4.445e-010    
  0.15            -2.0367e-009    -1.0701e-008    -6.383e-010    
  0.2             -1.3852e-009    -1.99e-008      2.2139e-009    
  0.25            2.0748e-009     -5.878e-009     1.3293e-009    
  0.3             6.155e-010      1.6233e-008     -2.2357e-009   
  0.35            -2.0213e-009    3.17e-009       -3.207e-010    
  0.4             -2.0403e-009    -1.1174e-008    -5.245e-010    
  0.45            -5.154e-010     -1.766e-008     2.3767e-009    
  0.5             2.1653e-009     -4.702e-009     1.2359e-009    
  0.55            5.316e-010      1.5933e-008     -2.348e-009    
  0.6             -1.9815e-009    2.139e-009      -2.09e-010     
  0.65            -2.0332e-009    -1.123e-008     -4.146e-010    
  0.7             -2.0293e-009    -1.0742e-008    -6.109e-010    
  0.75            -1.3642e-009    -2.0622e-008    2.2635e-009    
  0.8             2.1056e-009     -5.677e-009     1.3064e-009    
  0.85            5.99e-010       1.6319e-008     -2.2685e-009   
  0.9             -2.0094e-009    2.885e-009      -2.954e-010    
  0.95            -2.0357e-009    -1.1229e-008    -5.017e-010    
  1               -1.304e-009     -2.3225e-008    2.4104e-009    
  1.05            2.1776e-009     -4.479e-009     1.219e-009     
  1.1             5.205e-010      1.5861e-008     -2.3769e-009   
  1.15            -1.9643e-009    1.961e-009      -1.772e-010    
  1.2             -1.0986e-009    -2.507e-008     2.649e-009     
  1.25            1.6217e-009     1.7022e-008     -1.7838e-009   
  1.3             -2.022e-009     5.298e-009      -6.681e-010    
  1.35            -1.2262e-009    -9.095e-009     2.5153e-009    
  1.4             1.816e-010      1.2118e-008     -2.5526e-009   
  1.45            -1.322e-009     -2.2498e-008    2.3683e-009    
  1.5             2.1667e-009     -4.903e-009     1.249e-009     
  1.55            5.468e-010      1.5953e-008     -2.3503e-009   
  1.6             -1.98e-009      2.301e-009      -2.225e-010    
  1.65            -2.631e-010     -1.6761e-008    2.6351e-009    
  1.7             1.6451e-009     1.5836e-008     -1.7247e-009   
  1.75            -2.0126e-009    5.183e-009      -7.065e-010    
  1.8             -1.2467e-009    -8.902e-009     2.4835e-009    
  1.85            2.096e-010      1.243e-008      -2.5461e-009   
  1.9             -1.3408e-009    -2.163e-008     2.3075e-009    
  1.95            2.1386e-009     -5.24e-009      1.2758e-009    
  2               5.821e-010      1.6197e-008     -2.3053e-009   
  2.05            -1.9949e-009    2.584e-009      -2.688e-010    
  2.1             -2.0242e-009    -1.1162e-008    -4.739e-010    
  2.15            -1.2794e-009    -2.3732e-008    2.4415e-009    
  2.2             2.2081e-009     -4.233e-009     1.1956e-009    
  2.25            1.2144e-009     2.6514e-008     -2.4852e-009   
  2.3             -1.8639e-009    1.577e-009      -1.8e-011      
  2.35            -7.3e-011       -1.3536e-008    2.6892e-009    
  2.4             1.5306e-009     2.233e-008      -2.0194e-009   
  2.45            -2.0209e-009    4.766e-009      -5.089e-010    
  2.5             -1.2999e-009    -2.3144e-008    2.3933e-009    
  2.55            2.1917e-009     -4.565e-009     1.2253e-009    
  2.6             5.325e-010      1.591e-008      -2.3755e-009   
  2.65            -1.9652e-009    2.11e-009       -1.962e-010    
  2.7             -2.311e-010     -1.6599e-008    2.6487e-009    
  2.75            1.6352e-009     1.6259e-008     -1.7626e-009   
  2.8             -2.0035e-009    5.124e-009      -6.845e-010    
  2.85            -1.2269e-009    -8.959e-009     2.5061e-009    
  2.9             2.044e-010      1.2588e-008     -2.5492e-009   
  2.95            -1.3232e-009    -2.2047e-008    2.3438e-009    
  3               2.1686e-009     -5.139e-009     1.26e-009      
  3.05            5.787e-010      1.5853e-008     -2.3353e-009   
  3.1             -1.9803e-009    2.63e-009       -2.499e-010    
  3.15            -1.1348e-009    -2.5828e-008    2.6385e-009    
  3.2             1.6613e-009     1.4385e-008     -1.6731e-009   
  3.25            -1.9928e-009    5.124e-009      -7.353e-010    
  3.3             -1.4115e-009    -1.6603e-008    2.0452e-009    
  3.35            1.9967e-009     -6.684e-009     1.4111e-009    
  3.4             7.005e-010      1.6203e-008     -2.1078e-009   
  3.45            -2.0069e-009    4.128e-009      -4.471e-010    
  3.5             -1.9969e-009    -1.0521e-008    -6.333e-010    
  3.55            -1.3632e-009    -1.9753e-008    2.2139e-009    
  3.6             2.1026e-009     -6.024e-009     1.3314e-009    
  3.65            6.405e-010      1.5861e-008     -2.2365e-009   
  3.7             -1.9994e-009    3.398e-009      -3.444e-010    
  3.75            -2.0056e-009    -1.0996e-008    -5.491e-010    
  3.8             -1.3077e-009    -2.2222e-008    2.3604e-009    
  3.85            2.1803e-009     -4.956e-009     1.2518e-009    
  3.9             5.693e-010      1.5737e-008     -2.3513e-009   
  3.95            -1.971e-009     2.569e-009      -2.418e-010    
  4               -2.0024e-009    -1.1179e-008    -4.484e-010    
  4.05            -1.9934e-009    -1.0335e-008    -6.322e-010    
  4.1             -1.3598e-009    -1.9485e-008    2.2066e-009    
  4.15            2.1029e-009     -5.801e-009     1.3287e-009    
  4.2             1.3363e-009     2.7753e-008     -2.3866e-009   
  4.25            -1.9548e-009    2.296e-009      -1.96e-010     
  4.3             -1.0848e-009    -2.5988e-008    2.6663e-009    
  4.35            1.631e-009      1.6002e-008     -1.751e-009    
  4.4             -1.9891e-009    5.27e-009       -6.719e-010    
  4.45            -1.2116e-009    -8.739e-009     2.5257e-009    
  4.5             2.2464e-009     1.0236e-008     4.879e-010     
  4.55            6.66e-010       1.5844e-008     -2.187e-009    
  4.6             -1.9973e-009    3.555e-009      -3.852e-010    
  4.65            -1.9977e-009    -1.0692e-008    -5.808e-010    
  4.7             -1.3203e-009    -2.1385e-008    2.3057e-009    
  4.75            2.1592e-009     -5.23e-009      1.2815e-009    
  4.8             1.2984e-009     2.7922e-008     -2.4375e-009   
  4.85            -1.9184e-009    1.871e-009      -1.288e-010    
  4.9             -1.764e-010     -1.5784e-008    2.6894e-009    
  4.95            1.5896e-009     1.7957e-008     -1.8377e-009   
  5               -1.9939e-009    5.005e-009      -6.107e-010    
END_DB

BEGIN_DB
 ICCAP_VAR VG         1              
 ICCAP_VAR VS         0              
 ICCAP_VAR VB         0              

 #VD              ID              IB              IG             
  0               -2.7759e-007    -1.6396e-008    2.6312e-009    
  0.05            1.5069e-005     2.0077e-008     -1.833e-009    
  0.1             2.6646e-005     1.7393e-008     -1.4676e-009   
  0.15            3.477e-005      1.5197e-008     -2.1861e-009   
  0.2             3.9528e-005     8.246e-009      1.9941e-009    
  0.25            4.2204e-005     -1.9128e-008    2.6925e-009    
  0.3             4.3729e-005     -2.5111e-008    2.4475e-009    
  0.35            4.4624e-005     -2.0059e-008    1.7656e-009    
  0.4             4.5247e-005     -1.0107e-008    -9.319e-010    
  0.45            4.5872e-005     8.737e-009      -2.5594e-009   
  0.5             4.6221e-005     1.4041e-008     -2.299e-009    
  0.55            4.5766e-005     8.813e-009      1.9144e-009    
  0.6             4.6106e-005     -1.815e-008     2.6992e-009    
  0.65            4.6227e-005     -1.6389e-008    2.3964e-009    
  0.7             4.6556e-005     -1.8884e-008    1.7113e-009    
  0.75            4.6566e-005     -1.5463e-008    2.4943e-009    
  0.8             4.6903e-005     -2.1222e-008    1.8533e-009    
  0.85            4.6849e-005     -1.4201e-008    2.5609e-009    
  0.9             4.7144e-005     -2.3061e-008    1.9884e-009    
  0.95            4.7144e-005     -1.2062e-008    2.6686e-009    
  1               4.7327e-005     -1.7485e-008    2.1226e-009    
  1.05            4.7401e-005     -1.3587e-008    2.6872e-009    
  1.1             4.756e-005      -2.4858e-008    2.4173e-009    
  1.15            4.7754e-005     -1.9381e-008    1.7428e-009    
  1.2             4.7664e-005     -1.5197e-008    2.5019e-009    
  1.25            4.7942e-005     -2.1645e-008    1.8787e-009    
  1.3             4.7848e-005     -1.3722e-008    2.5634e-009    
  1.35            4.8136e-005     -2.3171e-008    2.0114e-009    
  1.4             4.8366e-005     -1.0893e-008    -8.32e-010     
  1.45            4.8714e-005     7.994e-009      -2.5815e-009   
  1.5             4.8858e-005     9.865e-009      -1.684e-010    
  1.55            4.8371e-005     -1.5694e-008    2.4602e-009    
  1.6             4.8654e-005     -2.0493e-008    1.8213e-009    
  1.65            4.8865e-005     -1.0365e-008    -9.148e-010    
  1.7             4.9259e-005     8.568e-009      -2.5715e-009   
  1.75            4.9453e-005     1.3541e-008     -2.3132e-009   
  1.8             4.9517e-005     2.4487e-008     -1.7475e-009   
  1.85            4.9146e-005     9.706e-009      8.269e-010     
  1.9             4.9027e-005     -7.75e-009      2.7023e-009    
  1.95            4.9154e-005     -1.437e-008     2.5191e-009    
  2               4.9406e-005     -2.2195e-008    1.94e-009      
  2.05            4.9608e-005     -1.0628e-008    -8.645e-010    
  2.1             5e-005          8.19e-009       -2.5788e-009   
  2.15            5.0201e-005     1.2738e-008     -2.3744e-009   
  2.2             5.0267e-005     2.5887e-008     -1.8477e-009   
  2.25            4.9888e-005     1.0034e-008     7.71e-010      
  2.3             4.9747e-005     -7.682e-009     2.7019e-009    
  2.35            4.9875e-005     -9.708e-009     1.639e-010     
  2.4             5.0623e-005     1.394e-008      -2.2622e-009   
  2.45            4.9949e-005     8.574e-009      1.9398e-009    
  2.5             5.0179e-005     -1.8933e-008    2.7003e-009    
  2.55            5.0254e-005     -2.4431e-008    2.5071e-009    
  2.6             5.045e-005      -2.2044e-008    1.9087e-009    
  2.65            5.0665e-005     -1.1027e-008    -8.775e-010    
  2.7             5.1035e-005     7.858e-009      -2.5784e-009   
  2.75            5.1224e-005     1.2182e-008     -2.3588e-009   
  2.8             5.1257e-005     1.6328e-008     -1.6301e-009   
  2.85            5.1412e-005     1.2248e-008     -2.304e-009    
  2.9             5.1419e-005     1.6045e-008     -1.5538e-009   
  2.95            5.1548e-005     1.2474e-008     -2.2393e-009   
  3               5.1575e-005     1.5696e-008     -1.4836e-009   
  3.05            5.1712e-005     1.1953e-008     -2.1705e-009   
  3.1             5.1737e-005     7.109e-009      -2.5336e-009   
  3.15            5.1866e-005     1.0997e-008     -2.0977e-009   
  3.2             5.1932e-005     6.332e-009      -2.515e-009    
  3.25            5.2018e-005     9.763e-009      -2.0187e-009   
  3.3             5.2114e-005     4.638e-009      -2.4941e-009   
  3.35            5.2162e-005     7.772e-009      -1.9389e-009   
  3.4             5.2254e-005     2.198e-009      -2.4699e-009   
  3.45            5.2309e-005     5.087e-009      -1.8522e-009   
  3.5             5.1894e-005     -5.442e-009     2.1875e-009    
  3.55            5.2048e-005     -2.5761e-008    -4.529e-010    
  3.6             5.2127e-005     -2.5012e-008    -2.4547e-009   
  3.65            5.264e-005      7.133e-009      -1.9311e-009   
  3.7             5.217e-005      -1.4476e-008    2.1477e-009    
  3.75            5.2335e-005     -3.5691e-008    -4.032e-010    
  3.8             5.2622e-005     -2.329e-008     -2.5682e-009   
  3.85            5.2356e-005     -2.3388e-008    9.824e-010     
  3.9             5.2415e-005     -6.0329e-008    2.3353e-009    
  3.95            5.2707e-005     -4.8496e-008    -1.952e-009    
  4               5.2978e-005     -3.4762e-008    2.081e-010     
  4.05            5.2659e-005     -6.7047e-008    1.822e-009     
  4.1             5.2836e-005     -6.2424e-008    -2.1812e-009   
  4.15            5.304e-005      -4.9801e-008    5.22e-010      
  4.2             5.2847e-005     -8.5863e-008    2.6966e-009    
  4.25            5.3666e-005     -8.1839e-008    -1.6176e-009   
  4.3             5.3563e-005     -6.751e-008     -2.4816e-009   
  4.35            5.2621e-005     -7.9246e-008    1.7005e-009    
  4.4             5.3354e-005     -1.05639e-007   2.463e-010     
  4.45            5.2753e-005     -9.692e-008     1.6236e-009    
  4.5             5.328e-005      -1.2522e-007    2.073e-010     
  4.55            5.3935e-005     -1.1731e-007    -2.5871e-009   
  4.6             5.31e-005       -1.2869e-007    1.343e-009     
  4.65            5.3632e-005     -1.6439e-007    1.5995e-009    
  4.7             5.381e-005      -1.6848e-007    -2.2949e-009   
  4.75            5.3949e-005     -1.622e-007     6.44e-010      
  4.8             5.381e-005      -2.0884e-007    2.665e-009     
  4.85            5.458e-005      -2.1196e-007    -1.7159e-009   
  4.9             5.4556e-005     -2.0732e-007    -1.596e-010    
  4.95            5.4009e-005     -2.4979e-007    2.442e-009     
  5               5.4508e-005     -2.6183e-007    -1.9062e-009   
END_DB

BEGIN_DB
 ICCAP_VAR VG         2              
 ICCAP_VAR VS         0              
 ICCAP_VAR VB         0              

 #VD              ID              IB              IG             
  0               -5.8427e-007    1.1061e-008     -2.5655e-009   
  0.05            4.6983e-005     -1.5536e-008    3.772e-010     
  0.1             9.3453e-005     -1.809e-008     1.534e-009     
  0.15            0.00013954      -2.4667e-008    -1.3037e-009   
  0.2             0.00018491      1.8913e-008     -1.5096e-009   
  0.25            0.0002295       7.802e-009      1.0577e-009    
  0.3             0.00027347      -2.2494e-008    1.9669e-009    
  0.35            0.00031674      -1.0333e-008    -9.493e-010    
  0.4             0.00035927      1.0767e-008     -2.5329e-009   
  0.45            0.00040096      1.6259e-008     -1.9151e-009   
  0.5             0.00044177      1.2881e-008     -2.3686e-009   
  0.55            0.00048135      8.814e-009      1.9683e-009    
  0.6             0.00052031      -2.0756e-008    2.6637e-009    
  0.65            0.00055834      -1.7798e-008    1.8983e-009    
  0.7             0.00059509      -1.5672e-008    2.4413e-009    
  0.75            0.00063089      -1.6426e-008    1.5689e-009    
  0.8             0.00066548      -2.4662e-008    2.3764e-009    
  0.85            0.00069871      -1.4948e-008    2.6893e-009    
  0.9             0.00073074      -2.47e-008      2.3064e-009    
  0.95            0.00076167      -1.0946e-008    -7.85e-010     
  1               0.00079126      8.343e-009      -2.5728e-009   
  1.05            0.00081889      1.4716e-008     -2.2006e-009   
  1.1             0.000845        1.7268e-008     -1.4356e-009   
  1.15            0.0008695       1.6193e-008     -1.9457e-009   
  1.2             0.00089186      9.844e-009      8.255e-010     
  1.25            0.00091245      -2.4622e-008    2.4212e-009    
  1.3             0.00093174      -1.5692e-008    2.6922e-009    
  1.35            0.00094942      -1.7539e-008    2.1585e-009    
  1.4             0.0009658       -1.0724e-008    -8.669e-010    
  1.45            0.00098047      9.41e-009       -2.5576e-009   
  1.5             0.00099288      1.5684e-008     -2.0717e-009   
  1.55            0.00100316      1.0144e-008     7.487e-010     
  1.6             0.00101207      -7.766e-009     2.7037e-009    
  1.65            0.00102032      -9.093e-009     -3.06e-011     
  1.7             0.00102923      1.6918e-008     -1.7555e-009   
  1.75            0.00103558      1.4053e-008     -2.2587e-009   
  1.8             0.00104077      1.8856e-008     -1.4955e-009   
  1.85            0.00104426      7.895e-009      1.0761e-009    
  1.9             0.00104798      -1.2172e-008    2.6035e-009    
  1.95            0.00105236      -2.1815e-008    1.8996e-009    
  2               0.00105473      -1.5955e-008    2.447e-009     
  2.05            0.00105831      -1.6317e-008    2.6988e-009    
  2.1             0.00106077      -2.4651e-008    2.3775e-009    
  2.15            0.00106333      -1.482e-008     2.6923e-009    
  2.2             0.00106571      -2.459e-008     2.3021e-009    
  2.25            0.00106757      -1.3602e-008    2.6859e-009    
  2.3             0.00106994      -2.4441e-008    2.219e-009     
  2.35            0.00107149      -1.2432e-008    2.6649e-009    
  2.4             0.00107322      -1.7761e-008    1.9058e-009    
  2.45            0.00107467      -1.5697e-008    2.4455e-009    
  2.5             0.00107668      -1.6503e-008    1.5757e-009    
  2.55            0.00107795      -2.4666e-008    2.3815e-009    
  2.6             0.00108049      -1.1052e-008    -7.344e-010    
  2.65            0.00108272      8.188e-009      -2.5815e-009   
  2.7             0.00108459      1.4047e-008     -2.2674e-009   
  2.75            0.00108539      1.9223e-008     -1.5107e-009   
  2.8             0.00108518      7.641e-009      1.0632e-009    
  2.85            0.0010865       -2.2423e-008    1.9693e-009    
  2.9             0.00108696      -1.5381e-008    2.4804e-009    
  2.95            0.00108887      -1.7493e-008    1.6368e-009    
  3               0.00108958      -1.7283e-008    2.2524e-009    
  3.05            0.00109205      -1.0985e-008    -8.187e-010    
  3.1             0.00109417      8.509e-009      -2.5618e-009   
  3.15            0.00109506      1.5054e-008     -2.1538e-009   
  3.2             0.00109596      1.619e-008      -1.4033e-009   
  3.25            0.00109716      1.609e-008      -1.8932e-009   
  3.3             0.00109854      1.2791e-008     -2.3553e-009   
  3.35            0.00109745      8.472e-009      1.981e-009     
  3.4             0.00109835      -2.138e-008     2.6609e-009    
  3.45            0.00109983      -2.4403e-008    2.0995e-009    
  3.5             0.00110168      -1.1697e-008    -8.905e-010    
  3.55            0.00110368      8.7e-009        -2.5472e-009   
  3.6             0.00110432      1.4345e-008     -2.0248e-009   
  3.65            0.00110555      1.0251e-008     -2.4267e-009   
  3.7             0.00110633      1.4536e-008     -1.5602e-009   
  3.75            0.0011071       1.1573e-008     -2.0863e-009   
  3.8             0.00110848      6.867e-009      -2.4547e-009   
  3.85            0.00110886      1.0639e-008     -1.633e-009    
  3.9             0.00111021      6.564e-009      -2.1519e-009   
  3.95            0.00111098      1.037e-009      -2.4826e-009   
  4               0.00111197      3.323e-009      -1.6957e-009   
  4.05            0.00111142      -9.981e-009     2.3673e-009    
  4.1             0.0011127       -3.2187e-008    -8.29e-010     
  4.15            0.00111454      -1.137e-009     -2.3103e-009   
