! VERSION = 6.00
BEGIN_HEADER
 ICCAP_INPUTS
  VG         V  B GROUND SMU4 0.001 LIN        1    0          -5         101  -0.05     
  VS         V  E GROUND SMU2 0.1 CON        0
  VB         V  C GROUND SMU3 0.1 LIN        3    0          5          3    2.5       
  VD         V  S GROUND SMU1 0.1 LIN        2    -0.1       -5         2    -4.9      
 ICCAP_OUTPUTS
  IG         I  B GROUND SMU4 B
  ID         I  S GROUND SMU1 B
  IB         I  C GROUND SMU3 B
END_HEADER

BEGIN_DB
 ICCAP_VAR VS         0              
 ICCAP_VAR VB         0              
 ICCAP_VAR VD         -0.1           

 #VG              IG              ID              IB             
  0               -1.4902e-009    -1.0812e-009    -1.5364e-008   
  -0.05           3.2891e-009     -6.93e-011      -1.2156e-008   
  -0.1            6.301e-010      2.4531e-009     -1.057e-009    
  -0.15           -1.987e-009     -1.1889e-009    7.33e-009      
  -0.2            2.9731e-009     -5.122e-010     -1.4932e-008   
  -0.25           1.1626e-009     2.3616e-009     -3.085e-009    
  -0.3            -1.4566e-009    2.806e-010      7.819e-009     
  -0.35           -1.4663e-009    4.563e-010      8.348e-009     
  -0.4            -2.2669e-009    -1.1539e-009    5.826e-009     
  -0.45           2.2546e-009     -8.206e-010     -1.6884e-008   
  -0.5            4.527e-010      2.4014e-009     -7.029e-009    
  -0.55           2.6904e-009     -6.583e-010     -1.5441e-008   
  -0.6            1.849e-010      2.3036e-009     -4.491e-009    
  -0.65           -1.4703e-009    4.179e-010      8.208e-009     
  -0.7            -2.2324e-009    -1.1757e-009    5.844e-009     
  -0.75           2.3326e-009     -8.706e-010     -1.6571e-008   
  -0.8            4.057e-010      2.1007e-009     -6.443e-009    
  -0.85           2.7543e-009     -1.7483e-009    -1.5448e-008   
  -0.9            2.3294e-009     -3.7293e-009    -4.205e-009    
  -0.95           -2.4757e-009    -1.6905e-008    -1.5285e-008   
  -1              3.1494e-009     -5.5257e-008    -1.3514e-008   
  -1.05           -6.306e-010     -1.6767e-007    7.417e-009     
  -1.1            1.9683e-009     -4.4652e-007    -1.5953e-008   
  -1.15           1.3817e-009     -9.7588e-007    -8.057e-009    
  -1.2            1.784e-009      -1.8549e-006    6.864e-009     
  -1.25           -1.462e-009     -2.9628e-006    7.409e-009     
  -1.3            -1.4837e-009    -4.3169e-006    7.763e-009     
  -1.35           -1.4689e-009    -5.7482e-006    5.815e-009     
  -1.4            1.7007e-009     -7.1856e-006    -1.7266e-008   
  -1.45           3.1753e-009     -8.5087e-006    -8.535e-009    
  -1.5            -1.4869e-009    -9.6914e-006    7.815e-009     
  -1.55           -1.4647e-009    -1.08328e-005   5.9e-009       
  -1.6            3.927e-010      -1.1878e-005    -1.5175e-008   
  -1.65           2.2706e-009     -1.2859e-005    -1.5196e-008   
  -1.7            1.4966e-009     -1.375e-005     -6.912e-009    
  -1.75           3.2647e-009     -1.4578e-005    -8.512e-009    
  -1.8            -1.8844e-009    -1.5321e-005    8.29e-009      
  -1.85           2.6957e-009     -1.6062e-005    -1.5117e-008   
  -1.9            1.7682e-009     -1.6742e-005    -4.539e-009    
  -1.95           1.3353e-009     -1.738e-005     -8.539e-009    
  -2              3.3045e-009     -1.7978e-005    -1.0282e-008   
  -2.05           2.8801e-009     -1.8532e-005    -1.274e-009    
  -2.1            1.9654e-009     -1.907e-005     -3.387e-009    
  -2.15           1.3936e-009     -1.958e-005     -8.062e-009    
  -2.2            3.3037e-009     -2.0062e-005    -9.565e-009    
  -2.25           3.0473e-009     -2.0516e-005    -9.32e-010     
  -2.3            -1.4734e-009    -2.0947e-005    7.435e-009     
  -2.35           -1.5063e-009    -2.1363e-005    7.984e-009     
  -2.4            -1.4671e-009    -2.1776e-005    5.955e-009     
  -2.45           3.2663e-009     -2.2167e-005    -1.1507e-008   
  -2.5            -1.4765e-009    -2.253e-005     7.12e-009      
  -2.55           -1.4875e-009    -2.288e-005     7.486e-009     
  -2.6            -1.7229e-009    -2.3225e-005    8.805e-009     
  -2.65           2.4472e-009     -2.356e-005     -1.5278e-008   
  -2.7            1.5895e-009     -2.3882e-005    -5.768e-009    
  -2.75           3.236e-009      -2.419e-005     -8.237e-009    
  -2.8            -1.5048e-009    -2.4475e-005    8.078e-009     
  -2.85           -1.4621e-009    -2.477e-005     5.982e-009     
  -2.9            3.2557e-009     -2.5049e-005    -1.1985e-008   
  -2.95           -1.4721e-009    -2.5317e-005    7.194e-009     
  -3              -1.485e-009     -2.5574e-005    7.582e-009     
  -3.05           -1.4977e-009    -2.5833e-005    5.793e-009     
  -3.1            1.8633e-009     -2.608e-005     -1.6334e-008   
  -3.15           1.3666e-009     -2.6319e-005    -8.66e-009     
  -3.2            3.3346e-009     -2.655e-005     -1.0335e-008   
  -3.25           2.9618e-009     -2.6774e-005    -1.478e-009    
  -3.3            2.0494e-009     -2.6998e-005    -3.614e-009    
  -3.35           1.4185e-009     -2.7211e-005    -7.862e-009    
  -3.4            3.3256e-009     -2.7419e-005    -9.002e-009    
  -3.45           -1.7546e-009    -2.7614e-005    8.641e-009     
  -3.5            2.5162e-009     -2.7817e-005    -1.4964e-008   
  -3.55           1.617e-009      -2.8008e-005    -5.581e-009    
  -3.6            3.2436e-009     -2.8199e-005    -8.3e-009      
  -3.65           -1.5226e-009    -2.8375e-005    8.007e-009     
  -3.7            -1.4684e-009    -2.8565e-005    5.961e-009     
  -3.75           3.2832e-009     -2.8736e-005    -1.1734e-008   
  -3.8            -1.4833e-009    -2.891e-005     7.175e-009     
  -3.85           -1.5019e-009    -2.9071e-005    7.503e-009     
  -3.9            -1.7066e-009    -2.9238e-005    8.836e-009     
  -3.95           2.4319e-009     -2.9397e-005    -1.5188e-008   
  -4              1.5649e-009     -2.9557e-005    -6.268e-009    
  -4.05           3.2718e-009     -2.9715e-005    -8.137e-009    
  -4.1            -1.5305e-009    -2.9856e-005    8.118e-009     
  -4.15           -1.4665e-009    -3.0012e-005    5.995e-009     
  -4.2            3.2734e-009     -3.0151e-005    -1.2399e-008   
  -4.25           -1.4853e-009    -3.0294e-005    7.207e-009     
  -4.3            -1.5069e-009    -3.0425e-005    7.677e-009     
  -4.35           -1.4922e-009    -3.0568e-005    5.806e-009     
  -4.4            1.8445e-009     -3.0704e-005    -1.6485e-008   
  -4.45           1.3406e-009     -3.0828e-005    -8.508e-009    
  -4.5            3.3504e-009     -3.0964e-005    -9.919e-009    
  -4.55           2.1441e-009     -3.1083e-005    -1.5895e-008   
  -4.6            1.4263e-009     -3.1212e-005    -7.885e-009    
  -4.65           3.3325e-009     -3.1328e-005    -8.895e-009    
  -4.7            -1.7982e-009    -3.1444e-005    8.667e-009     
  -4.75           2.6068e-009     -3.156e-005     -1.5709e-008   
  -4.8            1.6522e-009     -3.1678e-005    -5.374e-009    
  -4.85           3.2497e-009     -3.1791e-005    -8.392e-009    
  -4.9            -1.5218e-009    -3.1896e-005    8.066e-009     
  -4.95           -1.4662e-009    -3.2014e-005    5.972e-009     
  -5              3.3079e-009     -3.2119e-005    -1.0868e-008   
END_DB

BEGIN_DB
 ICCAP_VAR VS         0              
 ICCAP_VAR VB         0              
 ICCAP_VAR VD         -5             

 #VG              IG              ID              IB             
  0               1.26e-009       1.163e-009      6.317e-009     
  -0.05           -1.4585e-009    -1.09e-011      7.479e-009     
  -0.1            -1.457e-009     1.749e-010      7.605e-009     
  -0.15           -1.4635e-009    3.523e-010      8.097e-009     
  -0.2            -1.4672e-009    5.269e-010      8.717e-009     
  -0.25           -1.5669e-009    -1.6456e-009    5.908e-009     
  -0.3            2.3756e-009     -7.904e-010     -1.6389e-008   
  -0.35           3.933e-010      2.3768e-009     -6.375e-009    
  -0.4            2.8126e-009     -6.11e-010      -1.5353e-008   
  -0.45           1.2684e-009     2.2806e-009     -3.985e-009    
  -0.5            -1.4651e-009    3.704e-010      8.159e-009     
  -0.55           -1.4764e-009    5.457e-010      8.802e-009     
  -0.6            -1.5858e-009    -1.6288e-009    5.934e-009     
  -0.65           2.3257e-009     -8.155e-010     -1.6173e-008   
  -0.7            4.16e-010       2.3496e-009     -6.713e-009    
  -0.75           2.7727e-009     -7.887e-010     -1.5691e-008   
  -0.8            1.362e-010      1.6628e-009     -4.245e-009    
  -0.85           -2.3188e-009    -3.369e-009     8.16e-009      
  -0.9            -1.8791e-009    -1.0978e-008    -8.536e-009    
  -0.95           2.9217e-009     -3.6024e-008    -1.528e-008    
  -1              1.0783e-009     -1.1822e-007    -1.5708e-008   
  -1.05           -1.4744e-009    -3.4545e-007    7.606e-009     
  -1.1            -1.4819e-009    -8.5705e-007    5.823e-009     
  -1.15           -1.8591e-009    -1.8519e-006    -1.1719e-008   
  -1.2            2.9845e-009     -3.5197e-006    -1.5003e-008   
  -1.25           2.0816e-009     -5.8551e-006    -3.096e-009    
  -1.3            1.4129e-009     -9.0152e-006    -7.717e-009    
  -1.35           -2.116e-010     -1.2871e-005    -1.1801e-008   
  -1.4            -1.4775e-009    -1.754e-005     7.485e-009     
  -1.45           -1.7491e-009    -2.3048e-005    8.786e-009     
  -1.5            2.4907e-009     -2.9439e-005    -1.5509e-008   
  -1.55           1.5927e-009     -3.6335e-005    -5.994e-009    
  -1.6            3.2183e-009     -4.3918e-005    -8.209e-009    
  -1.65           -1.4907e-009    -5.1843e-005    8.092e-009     
  -1.7            -1.4542e-009    -6.0624e-005    5.985e-009     
  -1.75           3.2352e-009     -7.0279e-005    -1.1669e-008   
  -1.8            1.7942e-009     -8.0085e-005    -1.6501e-008   
  -1.85           3.1487e-009     -9.0431e-005    -8.41e-009     
  -1.9            -1.4889e-009    -0.00010105     7.786e-009     
  -1.95           -1.471e-009     -0.000112359    5.859e-009     
  -2              -5.21e-010      -0.00012423     -1.5596e-008   
  -2.05           2.2124e-009     -0.00013637     -1.5878e-008   
  -2.1            1.456e-009      -0.00014881     -7.535e-009    
  -2.15           3.2717e-009     -0.00016164     -8.878e-009    
  -2.2            -1.8485e-009    -0.00017437     8.534e-009     
  -2.25           2.6684e-009     -0.00018827     -1.5505e-008   
  -2.3            1.7131e-009     -0.00020197     -4.9e-009      
  -2.35           3.1723e-009     -0.00021609     -8.27e-009     
  -2.4            -1.5026e-009    -0.00022992     7.915e-009     
  -2.45           -1.4694e-009    -0.00024457     5.92e-009      
  -2.5            1.6756e-009     -0.00025984     -1.7202e-008   
  -2.55           3.2018e-009     -0.00027493     -8.324e-009    
  -2.6            -1.502e-009     -0.00028973     8.019e-009     
  -2.65           -1.4669e-009    -0.00030527     5.927e-009     
  -2.7            1.6141e-009     -0.00032146     -1.7652e-008   
  -2.75           3.2296e-009     -0.00033738     -8.013e-009    
  -2.8            -1.5159e-009    -0.00035291     8.102e-009     
  -2.85           -1.4657e-009    -0.00036928     5.968e-009     
  -2.9            3.2695e-009     -0.00038624     -1.1713e-008   
  -2.95           -1.4822e-009    -0.00040216     7.128e-009     
  -3              -1.4962e-009    -0.00041889     7.499e-009     
  -3.05           -1.7061e-009    -0.00043581     8.886e-009     
  -3.1            2.4362e-009     -0.00045322     -1.5271e-008   
  -3.15           1.5694e-009     -0.00047028     -6.11e-009     
  -3.2            3.2538e-009     -0.0004875      -8.309e-009    
  -3.25           -1.5113e-009    -0.00050422     8.092e-009     
  -3.3            -1.4644e-009    -0.00052161     5.986e-009     
  -3.35           3.2648e-009     -0.00053962     -1.2197e-008   
  -3.4            -1.4826e-009    -0.0005565      7.174e-009     
  -3.45           -1.5019e-009    -0.000574       7.637e-009     
  -3.5            -1.6835e-009    -0.00059166     8.981e-009     
  -3.55           2.3931e-009     -0.0006097      -1.5404e-008   
  -3.6            1.5463e-009     -0.00062726     -6.46e-009     
  -3.65           3.2729e-009     -0.00064481     -8.357e-009    
  -3.7            -1.5315e-009    -0.00066162     8.14e-009      
  -3.75           -1.4674e-009    -0.00067891     6.003e-009     
  -3.8            3.2577e-009     -0.00069664     -1.2346e-008   
  -3.85           -1.4862e-009    -0.00071286     7.312e-009     
  -3.9            -1.5042e-009    -0.00072975     7.67e-009      
  -3.95           -1.4906e-009    -0.00074627     5.793e-009     
  -4              1.8127e-009     -0.00076263     -1.6406e-008   
  -4.05           1.3419e-009     -0.00077826     -8.45e-009     
  -4.1            3.3519e-009     -0.00079346     -1.0136e-008   
  -4.15           2.9533e-009     -0.00080801     -1.135e-009    
  -4.2            2.0154e-009     -0.00082235     -3.269e-009    
  -4.25           1.4052e-009     -0.00083619     -7.827e-009    
  -4.3            3.3435e-009     -0.0008495      -9.282e-009    
  -4.35           3.1346e-009     -0.00086219     -8.39e-010     
  -4.4            -1.4916e-009    -0.00087421     7.417e-009     
  -4.45           -1.5206e-009    -0.00088613     7.962e-009     
  -4.5            -1.4713e-009    -0.00089762     5.932e-009     
  -4.55           1.6254e-009     -0.00090891     -1.7663e-008   
  -4.6            3.2612e-009     -0.0009194      -8.387e-009    
  -4.65           -1.5335e-009    -0.00092923     8.067e-009     
  -4.7            -1.4691e-009    -0.00093902     5.948e-009     
  -4.75           3.3027e-009     -0.00094878     -1.1572e-008   
  -4.8            1.8063e-009     -0.00095778     -1.6645e-008   
  -4.85           1.343e-009      -0.00096652     -8.382e-009    
  -4.9            3.3598e-009     -0.00097504     -1.0271e-008   
  -4.95           2.1073e-009     -0.0009831      -1.5575e-008   
  -5              1.4278e-009     -0.00099097     -7.804e-009    
END_DB

BEGIN_DB
 ICCAP_VAR VS         0              
 ICCAP_VAR VB         2.5            
 ICCAP_VAR VD         -0.1           

 #VG              IG              ID              IB             
  0               -1.5539e-009    -1.0403e-009    -1.6812e-008   
  -0.05           3.1899e-009     -3.285e-010     -1.5062e-008   
  -0.1            -1.965e-009     -1.1899e-009    7.295e-009     
  -0.15           3.0266e-009     -4.9e-010       -1.5498e-008   
  -0.2            1.1306e-009     2.3688e-009     -2.891e-009    
  -0.25           -1.4869e-009    2.408e-010      7.777e-009     
  -0.3            -1.4974e-009    4.257e-010      8.398e-009     
  -0.35           -1.516e-009     6.064e-010      9.093e-009     
  -0.4            -1.6318e-009    -1.5657e-009    6.042e-009     
  -0.45           2.246e-009      -8.35e-010      -1.7143e-008   
  -0.5            4.764e-010      2.4162e-009     -7.544e-009    
  -0.55           2.7082e-009     -6.839e-010     -1.6377e-008   
  -0.6            1.972e-010      2.3207e-009     -4.9e-009      
  -0.65           -1.4989e-009    4.378e-010      8.4e-009       
  -0.7            -2.2365e-009    -1.1541e-009    5.863e-009     
  -0.75           2.3646e-009     -8.019e-010     -1.6825e-008   
  -0.8            4.088e-010      2.3942e-009     -7.016e-009    
  -0.85           2.8158e-009     -6.294e-010     -1.5864e-008   
  -0.9            1.299e-010      2.2947e-009     -4.303e-009    
  -0.95           -1.499e-009     3.899e-010      8.224e-009     
  -1              -1.5171e-009    5.706e-010      8.981e-009     
  -1.05           -1.594e-009     -1.6136e-009    6.004e-009     
  -1.1            2.3445e-009     -8.109e-010     -1.6847e-008   
  -1.15           4.301e-010      2.4022e-009     -6.995e-009    
  -1.2            2.7866e-009     -6.433e-010     -1.5988e-008   
  -1.25           1.461e-010      2.2962e-009     -4.556e-009    
  -1.3            -1.5005e-009    3.976e-010      8.345e-009     
  -1.35           -1.5218e-009    5.41e-010       8.986e-009     
  -1.4            -2.3791e-009    -1.329e-009     6.033e-009     
  -1.45           2.0419e-009     -1.8316e-009    -1.8115e-008   
  -1.5            1.6733e-009     -3.9498e-009    -8.366e-009    
  -1.55           -2.648e-009     -1.949e-008     -1.6582e-008   
  -1.6            2.6247e-009     -7.2007e-008    -1.5616e-008   
  -1.65           -9.54e-010      -2.2534e-007    8.121e-009     
  -1.7            3.192e-009      -5.9962e-007    -1.3223e-008   
  -1.75           2.5745e-009     -1.2581e-006    7.721e-009     
  -1.8            -1.8882e-009    -2.2467e-006    8.49e-009      
  -1.85           2.7299e-009     -3.5325e-006    -1.5591e-008   
  -1.9            1.7654e-009     -4.9037e-006    -4.938e-009    
  -1.95           3.2072e-009     -6.2445e-006    -8.526e-009    
  -2              -1.515e-009     -7.4545e-006    7.823e-009     
  -2.05           -1.4764e-009    -8.6157e-006    5.948e-009     
  -2.1            1.7103e-009     -9.6823e-006    -1.7171e-008   
  -2.15           3.2334e-009     -1.06304e-005   -8.36e-009     
  -2.2            -2.946e-010     -1.148e-005     -1.0805e-008   
  -2.25           -1.5003e-009    -1.226e-005     7.386e-009     
  -2.3            -1.8012e-009    -1.2996e-005    8.759e-009     
  -2.35           2.6125e-009     -1.3695e-005    -1.5605e-008   
  -2.4            1.6706e-009     -1.4333e-005    -5.458e-009    
  -2.45           3.2516e-009     -1.4931e-005    -8.311e-009    
  -2.5            -1.5216e-009    -1.5468e-005    8.004e-009     
  -2.55           -1.4681e-009    -1.6003e-005    5.977e-009     
  -2.6            1.6273e-009     -1.6508e-005    -1.7531e-008   
  -2.65           3.2758e-009     -1.698e-005     -8.351e-009    
  -2.7            -1.5297e-009    -1.7412e-005    8.137e-009     
  -2.75           -1.4667e-009    -1.7846e-005    6.012e-009     
  -2.8            3.2992e-009     -1.826e-005     -1.1564e-008   
  -2.85           1.8149e-009     -1.8645e-005    -1.6625e-008   
  -2.9            1.334e-009      -1.9016e-005    -8.514e-009    
  -2.95           3.3519e-009     -1.9372e-005    -1.0108e-008   
  -3              2.1218e-009     -1.9712e-005    -1.5657e-008   
  -3.05           1.4204e-009     -2.0041e-005    -7.764e-009    
  -3.1            3.346e-009      -2.0358e-005    -9.146e-009    
  -3.15           -1.7809e-009    -2.0653e-005    8.624e-009     
  -3.2            2.5872e-009     -2.0951e-005    -1.5296e-008   
  -3.25           1.65e-009       -2.1237e-005    -5.467e-009    
  -3.3            3.2556e-009     -2.1516e-005    -8.423e-009    
  -3.35           -1.5289e-009    -2.1768e-005    7.953e-009     
  -3.4            -1.4734e-009    -2.2032e-005    5.956e-009     
  -3.45           1.613e-009      -2.2288e-005    -1.8215e-008   
  -3.5            3.2799e-009     -2.253e-005     -8.269e-009    
  -3.55           -1.5211e-009    -2.2755e-005    8.055e-009     
  -3.6            -1.4699e-009    -2.2987e-005    5.964e-009     
  -3.65           3.3001e-009     -2.321e-005     -1.1865e-008   
  -3.7            -1.486e-009     -2.3423e-005    7.216e-009     
  -3.75           -1.5063e-009    -2.3625e-005    7.545e-009     
  -3.8            -1.708e-009     -2.3833e-005    8.888e-009     
  -3.85           2.4486e-009     -2.403e-005     -1.5217e-008   
  -3.9            1.5741e-009     -2.4232e-005    -6.327e-009    
  -3.95           3.2923e-009     -2.4422e-005    -8.33e-009     
  -4              -1.536e-009     -2.4598e-005    8.083e-009     
  -4.05           -1.4745e-009    -2.4782e-005    5.995e-009     
  -4.1            3.2866e-009     -2.4961e-005    -1.2371e-008   
  -4.15           -1.4847e-009    -2.513e-005     7.25e-009      
