! VERSION = 6.00
BEGIN_HEADER
 ICCAP_INPUTS
  VG         V  B GROUND SMU4 0.001 LIN        1    0          5          101  0.05      
  VS         V  E GROUND SMU2 0.1 CON        0
  VB         V  C GROUND SMU3 0.1 LIN        3    0          -5         3    -2.5      
  VD         V  S GROUND SMU1 0.1 LIN        2    0.1        5          2    4.9       
 ICCAP_OUTPUTS
  IG         I  B GROUND SMU4 B
  ID         I  S GROUND SMU1 B
  IB         I  C GROUND SMU3 B
END_HEADER

BEGIN_DB
 ICCAP_VAR VS         0              
 ICCAP_VAR VB         0              
 ICCAP_VAR VD         0.1            

 #VG              IG              ID              IB             
  0               -1.865e-010     -3.751e-010     -1.1863e-008   
  0.05            -4.067e-010     -2.2185e-009    -1.3271e-008   
  0.1             -6.085e-010     -2.2163e-009    -1.2997e-008   
  0.15            -7.936e-010     -2.2115e-009    -1.1409e-008   
  0.2             -9.419e-010     -2.209e-009     -1.0028e-008   
  0.25            1.8131e-009     -1.6815e-009    -1.2498e-008   
  0.3             1.6569e-009     1.7633e-009     -8.917e-009    
  0.35            1.8222e-009     1.4748e-009     1.015e-008     
  0.4             4.433e-010      2.2713e-009     1.27e-008      
  0.45            6.178e-010      2.3177e-009     1.1566e-008    
  0.5             -1.384e-009     1.6053e-009     2.3633e-008    
  0.55            -2.6936e-009    5.27e-010       1.4529e-008    
  0.6             2.3702e-009     2.028e-009      -2.1603e-008   
  0.65            2.0387e-009     5.0053e-009     -5.96e-009     
  0.7             -1.3319e-009    1.0704e-008     -3.67e-009     
  0.75            -1.7322e-009    3.4319e-008     -1.084e-008    
  0.8             1.8573e-009     8.6617e-008     -2.0609e-008   
  0.85            -1.4154e-009    1.7899e-007     1.9365e-008    
  0.9             2.4829e-009     3.2058e-007     -2.7362e-008   
  0.95            1.6756e-009     5.0922e-007     -5.185e-009    
  1               1.3387e-009     7.3515e-007     -8.858e-009    
  1.05            2.8668e-009     9.8643e-007     -8.614e-009    
  1.1             2.1126e-009     1.2579e-006     1.3975e-008    
  1.15            9.598e-010      1.5302e-006     1.0778e-008    
  1.2             -2.493e-010     1.8064e-006     1.1493e-008    
  1.25            -1.4424e-009    2.0787e-006     2.122e-008     
  1.3             -1.39e-009      2.3465e-006     8.444e-009     
  1.35            -2.6767e-009    2.613e-006      1.3013e-008    
  1.4             -2.2586e-009    2.8707e-006     1.071e-009     
  1.45            -1.6076e-009    3.1284e-006     3.612e-009     
  1.5             -1.3833e-009    3.3815e-006     6.584e-009     
  1.55            -1.3747e-009    3.629e-006      1.0109e-008    
  1.6             -2.5441e-009    3.8723e-006     1.4812e-008    
  1.65            -1.9094e-009    4.1074e-006     1.59e-009      
  1.7             -1.4303e-009    4.3413e-006     5.333e-009     
  1.75            -1.3885e-009    4.5717e-006     8.333e-009     
  1.8             -2.6695e-009    4.7984e-006     1.3235e-008    
  1.85            -2.2426e-009    5.0163e-006     1.045e-009     
  1.9             -1.5883e-009    5.236e-006      3.858e-009     
  1.95            -1.3816e-009    5.4504e-006     6.673e-009     
  2               -2.7009e-009    5.6616e-006     1.038e-008     
  2.05            2.1118e-009     5.8641e-006     -2.4742e-008   
  2.1             1.4408e-009     6.0682e-006     -7.53e-009     
  2.15            1.3332e-009     6.2699e-006     -7.749e-009    
  2.2             2.8677e-009     6.4687e-006     -1.1219e-008   
  2.25            -1.6795e-009    6.6668e-006     2.1271e-008    
  2.3             -1.387e-009     6.8564e-006     6.276e-009     
  2.35            -1.3815e-009    7.0488e-006     9.506e-009     
  2.4             -2.5791e-009    7.2388e-006     1.4584e-008    
  2.45            -1.9787e-009    7.4201e-006     1.422e-009     
  2.5             -1.453e-009     7.6032e-006     4.909e-009     
  2.55            -1.3861e-009    7.7824e-006     8.04e-009      
  2.6             -2.6826e-009    7.9644e-006     1.2655e-008    
  2.65            -4.716e-010     8.135e-006      -1.3098e-008   
  2.7             -9.101e-010     8.3081e-006     -1.2197e-008   
  2.75            1.4921e-009     8.4757e-006     -1.3063e-008   
  2.8             1.3324e-009     8.6499e-006     -8.211e-009    
  2.85            2.8748e-009     8.8197e-006     -1.0186e-008   
  2.9             -1.7453e-009    8.9883e-006     2.3189e-008    
  2.95            -1.3929e-009    9.1482e-006     5.687e-009     
  3               -1.3865e-009    9.3116e-006     9.254e-009     
  3.05            -2.6158e-009    9.4672e-006     1.4219e-008    
  3.1             -2.0476e-009    9.6239e-006     1.335e-009     
  3.15            -1.4781e-009    9.7796e-006     5.006e-009     
  3.2             -1.3853e-009    9.9318e-006     7.935e-009     
  3.25            -2.6928e-009    1.00851e-005    1.2211e-008    
  3.3             -4.187e-010     1.02295e-005    -1.2943e-008   
  3.35            -8.733e-010     1.03787e-005    -1.2617e-008   
  3.4             1.5377e-009     1.05179e-005    -1.3968e-008   
  3.45            1.3338e-009     1.06678e-005    -8.373e-009    
  3.5             2.8736e-009     1.08088e-005    -9.664e-009    
  3.55            -1.8089e-009    1.09543e-005    2.5011e-008    
  3.6             -1.4055e-009    1.10916e-005    5.564e-009     
  3.65            -1.3881e-009    1.12291e-005    8.863e-009     
  3.7             -2.641e-009     1.13658e-005    1.3854e-008    
  3.75            2.0624e-009     1.15e-005       1.37e-009      
  3.8             1.4191e-009     1.1632e-005     -7.948e-009    
  3.85            1.3362e-009     1.176e-005      -7.948e-009    
  3.9             2.8616e-009     1.1888e-005     -1.1792e-008   
  3.95            4.903e-010      1.2018e-005     1.2818e-008    
  4               8.831e-010      1.2141e-005     1.1176e-008    
  4.05            -1.4443e-009    1.2259e-005     1.3253e-008    
  4.1             -1.3861e-009    1.2385e-005     8.41e-009      
  4.15            -2.6741e-009    1.2508e-005     1.3032e-008    
  4.2             -2.2642e-009    1.2624e-005     9.17e-010      
  4.25            -1.6039e-009    1.2741e-005     3.721e-009     
  4.3             -1.3811e-009    1.2856e-005     6.48e-009      
  4.35            -1.375e-009     1.2968e-005     1.0335e-008    
  4.4             -2.5407e-009    1.3084e-005     1.4773e-008    
  4.45            -1.9075e-009    1.319e-005      1.708e-009     
  4.5             -1.4262e-009    1.33e-005       5.147e-009     
  4.55            -1.3879e-009    1.3405e-005     8.585e-009     
  4.6             -2.6715e-009    1.3514e-005     1.3217e-008    
  4.65            -2.2355e-009    1.3612e-005     1.008e-009     
  4.7             -1.5846e-009    1.3713e-005     3.858e-009     
  4.75            -1.3811e-009    1.3818e-005     6.829e-009     
  4.8             -1.3707e-009    1.3914e-005     1.0495e-008    
  4.85            -2.5258e-009    1.4015e-005     1.5034e-008    
  4.9             -1.8826e-009    1.4109e-005     1.977e-009     
  4.95            -1.4207e-009    1.4203e-005     5.359e-009     
  5               -1.3871e-009    1.4294e-005     8.541e-009     
END_DB

BEGIN_DB
 ICCAP_VAR VS         0              
 ICCAP_VAR VB         0              
 ICCAP_VAR VD         5              

 #VG              IG              ID              IB             
  0               5.97e-010       6.633e-010      2.6901e-008    
  0.05            1.6917e-009     -1.7057e-009    -1.1413e-008   
  0.1             1.7036e-009     1.6562e-009     -8.828e-009    
  0.15            4.76e-011       2.133e-009      1.0166e-008    
  0.2             -1.4307e-009    1.0832e-009     2.8425e-008    
  0.25            -1.0743e-009    -2.2246e-009    8.679e-009     
  0.3             1.5662e-009     -1.754e-009     -1.0569e-008   
  0.35            8.604e-010      2.3496e-009     -8.367e-009    
  0.4             -1.7131e-009    1.7209e-009     1.4056e-008    
  0.45            -1.7059e-009    -1.5929e-009    5.535e-009     
  0.5             -2.582e-010     -1.9674e-009    -1.325e-008    
  0.55            1.4774e-009     -2.164e-010     -1.3115e-008   
  0.6             1.3675e-009     3.4927e-009     -8.246e-009    
  0.65            1.8674e-009     1.2888e-008     6.683e-009     
  0.7             7.414e-010      3.3437e-008     9.96e-009      
  0.75            -2.7145e-009    7.9703e-008     5.853e-009     
  0.8             -1.3918e-009    1.8082e-007     -1.2936e-008   
  0.85            -2.5874e-009    3.507e-007      -2.3237e-008   
  0.9             -1.9962e-009    6.3866e-007     -3.8527e-008   
  0.95            -1.4718e-009    1.05951e-006    -5.8693e-008   
  1               1.0837e-009     1.6174e-006     -9.1664e-008   
  1.05            1.5552e-009     2.3035e-006     -1.4595e-007   
  1.1             1.3407e-009     3.1461e-006     -1.7378e-007   
  1.15            2.8875e-009     4.0981e-006     -2.1608e-007   
  1.2             2.6249e-009     5.1825e-006     -2.5017e-007   
  1.25            1.8751e-009     6.365e-006      -2.9705e-007   
  1.3             1.3904e-009     7.6479e-006     -3.4559e-007   
  1.35            2.855e-009      9.0269e-006     -3.8819e-007   
  1.4             2.8469e-009     1.05268e-005    -4.2244e-007   
  1.45            -1.5296e-009    1.2111e-005     -4.5252e-007   
  1.5             -1.3896e-009    1.376e-005      -4.9498e-007   
  1.55            -2.7184e-009    1.548e-005      -5.2601e-007   
  1.6             -2.4647e-009    1.7233e-005     -5.7072e-007   
  1.65            -1.8097e-009    1.9093e-005     -5.9957e-007   
  1.7             -1.4234e-009    2.0998e-005     -6.244e-007    
  1.75            -1.3945e-009    2.2974e-005     -6.4561e-007   
  1.8             -2.6744e-009    2.4989e-005     -6.6227e-007   
  1.85            -2.1784e-009    2.7038e-005     -6.94e-007     
  1.9             -1.5606e-009    2.9156e-005     -7.0772e-007   
  1.95            -1.3926e-009    3.1313e-005     -7.1822e-007   
  2               -2.7182e-009    3.3523e-005     -7.2485e-007   
  2.05            -2.5111e-009    3.5717e-005     -7.4347e-007   
  2.1             -1.869e-009     3.8009e-005     -7.4738e-007   
  2.15            -1.4375e-009    4.0323e-005     -7.477e-007    
  2.2             -1.3956e-009    4.2674e-005     -7.455e-007    
  2.25            -2.6915e-009    4.5043e-005     -7.3906e-007   
  2.3             -2.2436e-009    4.7425e-005     -7.4863e-007   
  2.35            -1.6004e-009    4.9853e-005     -7.4171e-007   
  2.4             -1.394e-009     5.2293e-005     -7.3237e-007   
  2.45            -1.3787e-009    5.4804e-005     -7.2099e-007   
  2.5             -2.564e-009     5.73e-005       -7.0846e-007   
  2.55            -1.9339e-009    5.9814e-005     -7.0978e-007   
  2.6             -1.454e-009     6.2359e-005     -6.9475e-007   
  2.65            -1.3941e-009    6.4925e-005     -6.7866e-007   
  2.7             -2.7032e-009    6.7534e-005     -6.6036e-007   
  2.75            -2.2982e-009    7.0128e-005     -6.5798e-007   
  2.8             -1.6525e-009    7.2761e-005     -6.411e-007    
  2.85            -1.4003e-009    7.5409e-005     -6.2312e-007   
  2.9             -1.3861e-009    7.8062e-005     -6.0402e-007   
  2.95            -2.6e-009       8.0743e-005     -5.8387e-007   
  3               -1.9943e-009    8.3397e-005     -5.7894e-007   
  3.05            -1.4743e-009    8.6078e-005     -5.5885e-007   
  3.1             -1.3918e-009    8.8802e-005     -5.3934e-007   
  3.15            -2.7103e-009    9.1504e-005     -5.1746e-007   
  3.2             -2.3635e-009    9.4219e-005     -5.1261e-007   
  3.25            -1.6966e-009    9.696e-005      -4.9544e-007   
  3.3             -1.4072e-009    9.9696e-005     -4.7621e-007   
  3.35            -1.3914e-009    0.000102483     -4.5628e-007   
  3.4             -2.6309e-009    0.000105244     -4.347e-007    
  3.45            -2.0586e-009    0.000107958     -4.3069e-007   
  3.5             -1.5015e-009    0.000110755     -4.117e-007    
  3.55            -1.3909e-009    0.000113538     -3.9207e-007   
  3.6             1.7287e-009     0.0001163       -3.8745e-007   
  3.65            1.3568e-009     0.0001191       -3.7972e-007   
  3.7             2.8813e-009     0.00012191      -3.6432e-007   
  3.75            2.7731e-009     0.00012476      -3.4263e-007   
  3.8             2.1246e-009     0.00012754      -3.3013e-007   
  3.85            1.4849e-009     0.00013037      -3.2115e-007   
  3.9             1.3439e-009     0.00013319      -3.0955e-007   
  3.95            2.8927e-009     0.00013604      -2.996e-007    
  4               2.5281e-009     0.00013887      -2.7769e-007   
  4.05            1.7742e-009     0.0001417       -2.6862e-007   
  4.1             1.3709e-009     0.00014451      -2.6161e-007   
  4.15            2.8731e-009     0.00014732      -2.4985e-007   
  4.2             2.8082e-009     0.0001502       -2.3126e-007   
  4.25            2.1991e-009     0.00015304      -2.2257e-007   
  4.3             1.5292e-009     0.00015585      -2.1705e-007   
  4.35            1.3425e-009     0.0001587       -2.094e-007    
  4.4             2.8966e-009     0.00016156      -2.0149e-007   
  4.45            2.6023e-009     0.00016441      -1.8359e-007   
  4.5             1.8617e-009     0.00016722      -1.7773e-007   
  4.55            1.3874e-009     0.00017008      -1.7449e-007   
  4.6             2.8568e-009     0.00017291      -1.6584e-007   
  4.65            2.8409e-009     0.00017579      -1.5056e-007   
  4.7             2.3083e-009     0.00017859      -1.449e-007    
  4.75            1.5824e-009     0.00018143      -1.4257e-007   
  4.8             1.3396e-009     0.00018426      -1.3828e-007   
  4.85            2.8906e-009     0.00018703      -1.3286e-007   
  4.9             2.6681e-009     0.00018991      -1.1819e-007   
  4.95            1.9654e-009     0.00019276      -1.1444e-007   
  5               1.4117e-009     0.00019553      -1.1415e-007   
END_DB

BEGIN_DB
 ICCAP_VAR VS         0              
 ICCAP_VAR VB         -2.5           
 ICCAP_VAR VD         0.1            

 #VG              IG              ID              IB             
  0               1.354e-009      1.4086e-009     -1.3062e-008   
  0.05            1.143e-009      2.3299e-009     -8.663e-009    
  0.1             1.2849e-009     2.2058e-009     1.0738e-008    
  0.15            -1.3933e-009    1.1996e-009     2.9608e-008    
  0.2             -1.2045e-009    -2.1929e-009    1.0292e-008    
  0.25            3.012e-010      -1.8528e-009    -1.0175e-008   
  0.3             1.8548e-009     -8.963e-010     -2.0202e-008   
  0.35            1.6238e-009     1.7844e-009     -8.472e-009    
  0.4             -1.3878e-009    1.4688e-009     2.4086e-008    
  0.45            -2.7184e-009    1.132e-010      1.4121e-008    
  0.5             1.3405e-009     -1.4966e-009    -2.2051e-008   
  0.55            2.8868e-009     -6.91e-011      -1.3282e-008   
  0.6             -1.3915e-009    1.4144e-009     2.6349e-008    
  0.65            -1.3722e-009    4.87e-011       1.3827e-008    
  0.7             -2.7008e-009    1.939e-010      1.442e-008     
  0.75            -1.432e-010     -2.1506e-009    -1.3024e-008   
  0.8             -3.52e-010      -2.205e-009     -1.3122e-008   
  0.85            -5.467e-010     -2.2169e-009    -1.251e-008    
  0.9             -7.308e-010     -2.222e-009     -1.1352e-008   
  0.95            2.2179e-009     -1.5681e-009    -1.7929e-008   
  1               1.4228e-009     2.079e-009      -6.57e-009     
  1.05            -1.3897e-009    1.38e-009       2.886e-008     
  1.1             -1.3902e-009    2.718e-010      1.2784e-008    
  1.15            -2.7168e-009    1.6557e-009     1.3812e-008    
  1.2             1.339e-009      4.8956e-009     -2.3177e-008   
  1.25            -1.3787e-009    2.1731e-008     -1.3231e-008   
  1.3             -2.5693e-009    6.4778e-008     1.4489e-008    
  1.35            7.024e-010      1.4683e-007     -1.6534e-008   
  1.4             -1.6126e-009    2.7763e-007     1.9102e-008    
  1.45            -1.3911e-009    4.5041e-007     6.495e-009     
  1.5             -1.3744e-009    6.6508e-007     1.0455e-008    
  1.55            -2.5449e-009    9.0696e-007     1.4655e-008    
  1.6             -2.3801e-009    1.1582e-006     -1.7537e-008   
  1.65            2.1059e-009     1.4214e-006     -2.4022e-008   
  1.7             1.4636e-009     1.6887e-006     -7.3e-009      
  1.75            1.3402e-009     1.9544e-006     -7.836e-009    
  1.8             2.8803e-009     2.2175e-006     -1.1261e-008   
  1.85            -1.6974e-009    2.4842e-006     2.1636e-008    
  1.9             -1.3979e-009    2.737e-006      5.755e-009     
  1.95            -1.3842e-009    2.9881e-006     9.418e-009     
  2               -2.6061e-009    3.2334e-006     1.426e-008     
  2.05            -2.0116e-009    3.4704e-006     1.437e-009     
  2.1             -1.4789e-009    3.7061e-006     4.839e-009     
  2.15            -1.3911e-009    3.9364e-006     7.662e-009     
  2.2             -2.7058e-009    4.1646e-006     1.2624e-008    
  2.25            -4.145e-010     4.3805e-006     -1.2922e-008   
  2.3             -8.673e-010     4.5978e-006     -1.2286e-008   
  2.35            1.5656e-009     4.811e-006      -1.4246e-008   
  2.4             1.3416e-009     5.024e-006      -8.451e-009    
  2.45            2.8886e-009     5.2295e-006     -9.795e-009    
  2.5             -1.832e-009     5.4402e-006     2.5144e-008    
  2.55            -1.4167e-009    5.6368e-006     5.185e-009     
  2.6             -1.3913e-009    5.8377e-006     8.849e-009     
  2.65            -2.6594e-009    6.0301e-006     1.3643e-008    
  2.7             -2.1843e-009    6.2206e-006     1.304e-009     
  2.75            -1.5637e-009    6.411e-006      4.102e-009     
  2.8             -1.3818e-009    6.5983e-006     6.877e-009     
  2.85            -1.3676e-009    6.7778e-006     1.072e-008     
  2.9             -2.5106e-009    6.961e-006      1.4929e-008    
  2.95            -1.8672e-009    7.1359e-006     1.872e-009     
  3               -1.4245e-009    7.3135e-006     5.196e-009     
  3.05            -1.388e-009     7.4836e-006     8.533e-009     
  3.1             -2.6648e-009    7.6551e-006     1.3553e-008    
  3.15            -2.2219e-009    7.8232e-006     1.18e-009      
  3.2             -1.5793e-009    7.9866e-006     3.889e-009     
  3.25            -1.3795e-009    8.1519e-006     6.845e-009     
  3.3             -1.3711e-009    8.3118e-006     1.054e-008     
  3.35            -2.5303e-009    8.4717e-006     1.4847e-008    
  3.4             -1.9023e-009    8.6261e-006     1.746e-009     
  3.45            -1.4272e-009    8.7821e-006     5.242e-009     
  3.5             -1.384e-009     8.9337e-006     8.383e-009     
  3.55            -2.6674e-009    9.0853e-006     1.298e-008     
  3.6             1.7457e-009     9.2271e-006     -1.8319e-008   
  3.65            1.3464e-009     9.3765e-006     -9.092e-009    
  3.7             2.8644e-009     9.5192e-006     -7.989e-009    
  3.75            -1.3719e-009    9.6665e-006     2.9071e-008    
  3.8             -2.53e-009      9.8075e-006     1.4956e-008    
  3.85            -1.9066e-009    9.9382e-006     1.755e-009     
  3.9             -1.4217e-009    1.00762e-005    5.255e-009     
  3.95            -1.3809e-009    1.02098e-005    8.662e-009     
  4               -2.6636e-009    1.03437e-005    1.2997e-008    
  4.05            -2.2659e-009    1.04723e-005    9.85e-010      
  4.1             -1.6086e-009    1.06006e-005    3.511e-009     
  4.15            -1.3747e-009    1.07282e-005    6.86e-009      
