! VERSION = 6.00
BEGIN_HEADER
 ICCAP_INPUTS
  VG         V  B GROUND SMU4 0.001 LIN        1    0          5          101  0.05      
  VS         V  E GROUND SMU2 0.1 CON        0
  VB         V  C GROUND SMU3 0.1 LIN        3    0          -5         3    -2.5      
  VD         V  S GROUND SMU1 0.1 LIN        2    0.1        5          2    4.9       
 ICCAP_OUTPUTS
  IG         I  B GROUND SMU4 B
  ID         I  S GROUND SMU1 B
  IB         I  C GROUND SMU3 B
END_HEADER

BEGIN_DB
 ICCAP_VAR VS         0              
 ICCAP_VAR VB         0              
 ICCAP_VAR VD         0.1            

 #VG              IG              ID              IB             
  0               -1.3728e-009    -1.3096e-009    -9.247e-009    
  0.05            -1.3712e-009    -4.97e-011      1.2045e-008    
  0.1             -2.6798e-009    1.098e-010      1.3481e-008    
  0.15            1.3159e-009     -1.5462e-009    -2.22e-008     
  0.2             2.8464e-009     -1.255e-010     -1.4106e-008   
  0.25            -1.3733e-009    1.5158e-009     2.458e-008     
  0.3             -2.6688e-009    1.612e-010      1.3625e-008    
  0.35            2.3261e-009     -1.5238e-009    -2.0779e-008   
  0.4             1.4182e-009     2.2528e-009     -6.692e-009    
  0.45            -1.3719e-009    2.0178e-009     2.8628e-008    
  0.5             -1.3683e-009    2.4952e-009     1.219e-008     
  0.55            -2.673e-009     8.7831e-009     1.3432e-008    
  0.6             2.5426e-009     2.6498e-008     1.0069e-008    
  0.65            1.763e-009      6.6135e-008     -4.644e-009    
  0.7             -4.266e-010     1.4635e-007     1.1747e-008    
  0.75            -8.858e-010     2.8544e-007     -1.2871e-008   
  0.8             1.5044e-009     4.9042e-007     -1.4021e-008   
  0.85            2.8416e-009     7.5657e-007     -8.184e-009    
  0.9             2.8276e-009     1.09467e-006    9.5e-011       
  0.95            2.133e-009      1.5302e-006     1.3017e-008    
  1               -1.3749e-009    2.0446e-006     2.6825e-008    
  1.05            -2.665e-009     2.5987e-006     1.2109e-008    
  1.1             1.8589e-009     3.1657e-006     -2.0472e-008   
  1.15            1.3494e-009     3.7468e-006     -9.353e-009    
  1.2             2.8598e-009     4.3003e-006     -8.343e-009    
  1.25            -1.3561e-009    4.8743e-006     2.7888e-008    
  1.3             -2.4349e-009    5.4198e-006     1.5086e-008    
  1.35            -1.7865e-009    5.9262e-006     2.236e-009     
  1.4             -1.3985e-009    6.4276e-006     6.033e-009     
  1.45            -2.7045e-009    6.9153e-006     9.665e-009     
  1.5             2.2323e-009     7.3722e-006     -2.5378e-008   
  1.55            1.4895e-009     7.8269e-006     -7.518e-009    
  1.6             2.8404e-009     8.2662e-006     -8.338e-009    
  1.65            2.8209e-009     8.7e-006        2.28e-010      
  1.7             1.4164e-009     9.1083e-006     9.41e-009      
  1.75            -1.3664e-009    9.5274e-006     2.8557e-008    
  1.8             -2.5173e-009    9.9224e-006     1.4097e-008    
  1.85            -1.8994e-009    1.03035e-005    1.635e-009     
  1.9             -1.4226e-009    1.06822e-005    5.306e-009     
  1.95            -1.3753e-009    1.10514e-005    9.094e-009     
  2               1.5212e-009     1.1404e-005     1.3194e-008    
  2.05            1.3224e-009     1.1761e-005     -8.205e-009    
  2.1             2.8369e-009     1.2107e-005     -1.0498e-008   
  2.15            -1.6785e-009    1.2452e-005     2.1303e-008    
  2.2             -1.3779e-009    1.2784e-005     7.252e-009     
  2.25            -2.6881e-009    1.3113e-005     1.0733e-008    
  2.3             2.0607e-009     1.3424e-005     -2.3634e-008   
  2.35            1.4108e-009     1.374e-005      -8.52e-009     
  2.4             2.8551e-009     1.4048e-005     -8.147e-009    
  2.45            2.7836e-009     1.4358e-005     -1.19e-010     
  2.5             5.875e-010      1.4659e-005     1.2393e-008    
  2.55            9.954e-010      1.4951e-005     1.0843e-008    
  2.6             -1.897e-010     1.5239e-005     1.1146e-008    
  2.65            -1.4186e-009    1.5529e-005     2.2737e-008    
  2.7             -1.3719e-009    1.581e-005      9.304e-009     
  2.75            -2.5849e-009    1.6093e-005     1.3145e-008    
  2.8             -2.0515e-009    1.6361e-005     1.008e-009     
  2.85            -1.4778e-009    1.663e-005      5.008e-009     
  2.9             -1.3736e-009    1.6893e-005     8.727e-009     
  2.95            -2.6488e-009    1.7158e-005     1.2336e-008    
  3               -2.2288e-009    1.7411e-005     9.43e-010      
  3.05            -1.5921e-009    1.7664e-005     3.826e-009     
  3.1             -1.3702e-009    1.7914e-005     7.756e-009     
  3.15            -2.6791e-009    1.816e-005      1.1476e-008    
  3.2             1.9515e-009     1.8394e-005     -2.2181e-008   
  3.25            1.3722e-009     1.8636e-005     -9.061e-009    
  3.3             2.8556e-009     1.8873e-005     -7.865e-009    
  3.35            -1.3646e-009    1.9112e-005     2.884e-008     
  3.4             -2.4989e-009    1.9345e-005     1.4432e-008    
  3.45            -1.8712e-009    1.9562e-005     1.695e-009     
  3.5             -1.4087e-009    1.9783e-005     5.672e-009     
  3.55            -1.374e-009     2.0006e-005     9.035e-009     
  3.6             -2.5934e-009    2.0226e-005     1.3212e-008    
  3.65            -2.0676e-009    2.0434e-005     1.08e-009      
  3.7             -1.4761e-009    2.0644e-005     4.995e-009     
  3.75            -1.3746e-009    2.0851e-005     8.372e-009     
  3.8             -2.6534e-009    2.106e-005      1.2402e-008    
  3.85            -2.2455e-009    2.1258e-005     1.035e-009     
  3.9             -1.5899e-009    2.1457e-005     3.895e-009     
  3.95            -1.3722e-009    2.1655e-005     7.523e-009     
  4               -2.6795e-009    2.1848e-005     1.13e-008      
  4.05            1.9641e-009     2.2032e-005     -2.2491e-008   
  4.1             1.3737e-009     2.2222e-005     -8.995e-009    
  4.15            1.3219e-009     2.2408e-005     -8.109e-009    
  4.2             2.7792e-009     2.2594e-005     -1.3911e-008   
  4.25            2.5684e-009     2.2773e-005     8.959e-009     
  4.3             -1.7227e-009    2.2948e-005     2.294e-008     
  4.35            -1.3768e-009    2.3126e-005     6.455e-009     
  4.4             -2.6939e-009    2.33e-005       1.0135e-008    
  4.45            2.1398e-009     2.347e-005      -2.4845e-008   
  4.5             1.438e-009      2.3635e-005     -7.962e-009    
  4.55            1.3246e-009     2.3802e-005     -7.792e-009    
  4.6             2.8246e-009     2.3968e-005     -1.1788e-008   
  4.65            5.393e-010      2.4127e-005     1.2515e-008    
  4.7             -1.8498e-009    2.4283e-005     2.5924e-008    
  4.75            -1.4004e-009    2.4437e-005     5.706e-009     
  4.8             -1.3736e-009    2.4592e-005     8.976e-009     
  4.85            -2.5879e-009    2.4746e-005     1.3564e-008    
  4.9             -2.0342e-009    2.489e-005      1.059e-009     
  4.95            -1.4616e-009    2.5034e-005     5.101e-009     
  5               -1.3733e-009    2.5184e-005     8.515e-009     
END_DB

BEGIN_DB
 ICCAP_VAR VS         0              
 ICCAP_VAR VB         0              
 ICCAP_VAR VD         5              

 #VG              IG              ID              IB             
  0               1.0487e-009     1.0192e-009     1.7186e-008    
  0.05            1.8043e-009     1.5734e-009     -8.969e-009    
  0.1             4.208e-010      2.2831e-009     1.256e-008     
  0.15            6.165e-010      2.3178e-009     1.1836e-008    
  0.2             7.947e-010      2.3382e-009     1.0234e-008    
  0.25            -1.8643e-009    1.6977e-009     1.7249e-008    
  0.3             -1.6803e-009    -1.6444e-009    5.612e-009     
  0.35            1.3173e-009     -1.0473e-009    -2.2702e-008   
  0.4             2.8512e-009     2.6467e-009     -1.3864e-008   
  0.45            -1.375e-009     8.9476e-009     2.5141e-008    
  0.5             2.8541e-009     2.7028e-008     1.0498e-008    
  0.55            2.5847e-009     7.7337e-008     -7.366e-009    
  0.6             1.3874e-009     2.0554e-007     -2.7848e-008   
  0.65            1.3184e-009     4.6349e-007     -4.2431e-008   
  0.7             2.7956e-009     9.0411e-007     -7.7338e-008   
  0.75            -1.596e-010     1.5517e-006     -1.0705e-007   
  0.8             2.996e-010      2.4766e-006     -1.5312e-007   
  0.85            7.456e-010      3.6554e-006     -2.2432e-007   
  0.9             1.1225e-009     5.1331e-006     -3.1482e-007   
  0.95            1.5411e-009     6.854e-006      -4.1222e-007   
  1               1.9652e-009     8.8927e-006     -5.1787e-007   
  1.05            2.3533e-009     1.11728e-005    -6.3246e-007   
  1.1             -2.2592e-009    1.3644e-005     -7.4926e-007   
  1.15            -2.6411e-009    1.6264e-005     -8.8514e-007   
  1.2             -2.714e-009     1.9004e-005     -9.944e-007    
  1.25            -2.6627e-009    2.1865e-005     -1.0991e-006   
  1.3             -1.0733e-009    2.4815e-005     -1.2087e-006   
  1.35            -1.4336e-009    2.7908e-005     -1.2823e-006   
  1.4             -1.3805e-009    3.1028e-005     -1.3899e-006   
  1.45            -2.6312e-009    3.4233e-005     -1.4757e-006   
  1.5             -2.1409e-009    3.7452e-005     -1.5705e-006   
  1.55            -1.5217e-009    4.0753e-005     -1.6428e-006   
  1.6             -1.3776e-009    4.4096e-005     -1.7116e-006   
  1.65            -2.681e-009     4.7494e-005     -1.7731e-006   
  1.7             -2.3555e-009    5.0883e-005     -1.8398e-006   
  1.75            -1.691e-009     5.4341e-005     -1.8938e-006   
  1.8             -1.3856e-009    5.783e-005      -1.9353e-006   
  1.85            -1.3719e-009    6.1327e-005     -1.9731e-006   
  1.9             -2.5352e-009    6.4877e-005     -2.0023e-006   
  1.95            -1.9164e-009    6.8396e-005     -2.0432e-006   
  2               -1.4272e-009    7.1964e-005     -2.0643e-006   
  2.05            -1.3818e-009    7.5554e-005     -2.0829e-006   
  2.1             -2.6371e-009    7.9154e-005     -2.0938e-006   
  2.15            -2.1462e-009    8.2733e-005     -2.1155e-006   
  2.2             -1.5271e-009    8.6352e-005     -2.1196e-006   
  2.25            -1.3768e-009    8.9994e-005     -2.1192e-006   
  2.3             -2.6815e-009    9.3636e-005     -2.115e-006    
  2.35            -2.3606e-009    9.7242e-005     -2.1221e-006   
  2.4             -1.7004e-009    0.000100916     -2.1159e-006   
  2.45            -1.386e-009     0.000104576     -2.1017e-006   
  2.5             -1.3712e-009    0.000108249     -2.0851e-006   
  2.55            -2.5367e-009    0.000111909     -2.0667e-006   
  2.6             -2.2136e-009    0.00011564      -2.0733e-006   
  2.65            -1.5783e-009    0.0001193       -2.0412e-006   
  2.7             -1.3793e-009    0.00012299      -2.0144e-006   
  2.75            -2.6882e-009    0.00012675      -1.9889e-006   
  2.8             -2.4134e-009    0.0001304       -1.972e-006    
  2.85            -1.7575e-009    0.00013409      -1.9452e-006   
  2.9             -1.3948e-009    0.00013781      -1.9141e-006   
  2.95            -1.3773e-009    0.00014149      -1.8802e-006   
  3               -2.5696e-009    0.00014522      -1.8476e-006   
  3.05            -1.9807e-009    0.00014889      -1.8298e-006   
  3.1             -1.4537e-009    0.00015255      -1.7935e-006   
  3.15            -1.3796e-009    0.00015628      -1.7576e-006   
  3.2             -2.6527e-009    0.00015997      -1.7216e-006   
  3.25            -2.1924e-009    0.00016364      -1.7022e-006   
  3.3             -1.5606e-009    0.00016734      -1.6694e-006   
  3.35            -1.3782e-009    0.00017103      -1.6303e-006   
  3.4             -2.6903e-009    0.00017474      -1.5938e-006   
  3.45            -2.3865e-009    0.0001784       -1.5684e-006   
  3.5             -1.7366e-009    0.00018208      -1.5354e-006   
  3.55            -1.3922e-009    0.00018579      -1.4978e-006   
  3.6             -2.7051e-009    0.00018947      -1.462e-006    
  3.65            -2.5433e-009    0.00019308      -1.437e-006    
  3.7             -1.9474e-009    0.00019677      -1.4038e-006   
  3.75            -1.4436e-009    0.00020047      -1.3672e-006   
  3.8             -1.3811e-009    0.00020417      -1.3323e-006   
  3.85            -2.6432e-009    0.00020781      -1.2961e-006   
  3.9             -2.1662e-009    0.00021145      -1.274e-006    
  3.95            -1.5477e-009    0.00021507      -1.2395e-006   
  4               -1.3781e-009    0.00021875      -1.2034e-006   
  4.05            -2.6884e-009    0.00022242      -1.1729e-006   
  4.1             -2.3731e-009    0.00022602      -1.1537e-006   
  4.15            -1.7164e-009    0.00022969      -1.1209e-006   
  4.2             -1.3866e-009    0.00023331      -1.0899e-006   
  4.25            -2.6995e-009    0.00023695      -1.0578e-006   
  4.3             -2.5393e-009    0.00024053      -1.0397e-006   
  4.35            1.8599e-009     0.00024404      -1.00168e-006  
  4.4             2.2645e-009     0.0002478       -9.7732e-007   
  4.45            2.5984e-009     0.00025139      -9.5152e-007   
  4.5             2.8075e-009     0.00025498      -9.278e-007    
  4.55            2.8641e-009     0.00025859      -9.097e-007    
  4.6             2.6158e-009     0.00026213      -8.8756e-007   
  4.65            1.8772e-009     0.00026571      -8.661e-007    
  4.7             1.3647e-009     0.00026927      -8.4922e-007   
  4.75            2.8585e-009     0.00027284      -8.2558e-007   
  4.8             2.7622e-009     0.00027645      -7.9567e-007   
  4.85            2.1448e-009     0.00027996      -7.7418e-007   
  4.9             1.4546e-009     0.0002835       -7.5825e-007   
  4.95            2.8398e-009     0.00028704      -7.3867e-007   
  5               2.8384e-009     0.00029061      -7.1029e-007   
END_DB

BEGIN_DB
 ICCAP_VAR VS         0              
 ICCAP_VAR VB         -2.5           
 ICCAP_VAR VD         0.1            

 #VG              IG              ID              IB             
  0               -6.563e-010     -7.455e-010     1.0721e-008    
  0.05            -1.745e-009     1.7131e-009     1.4797e-008    
  0.1             -1.7377e-009    -1.6241e-009    6.147e-009     
  0.15            -3.093e-010     -2.2067e-009    -1.2715e-008   
  0.2             -5.443e-010     -2.2333e-009    -1.2402e-008   
  0.25            -7.563e-010     -2.2419e-009    -1.1988e-008   
  0.3             -9.291e-010     -2.233e-009     -1.0568e-008   
  0.35            1.8065e-009     -1.6958e-009    -1.3121e-008   
  0.4             1.7014e-009     1.7009e-009     -9.151e-009    
  0.45            5.73e-011       2.1195e-009     1.0492e-008    
  0.5             -1.4303e-009    1.1038e-009     2.732e-008     
  0.55            -1.1214e-009    -2.1992e-009    9.647e-009     
  0.6             1.5031e-009     -1.8132e-009    -1.0516e-008   
  0.65            9.79e-010       2.3541e-009     -8.369e-009    
  0.7             -1.5732e-009    1.8434e-009     1.1908e-008    
  0.75            -9.439e-010     -2.1557e-009    7.981e-009     
  0.8             1.7851e-009     -1.3404e-009    -1.3102e-008   
  0.85            2.6477e-009     2.4686e-009     -9.222e-009    
  0.9             3.336e-010      7.5991e-009     1.1914e-008    
  0.95            -1.9089e-009    1.7752e-008     -1.809e-008    
  1               -1.4512e-009    5.5448e-008     5.209e-009     
  1.05            8.026e-010      1.3454e-007     -1.6098e-008   
  1.1             -1.5244e-009    2.7438e-007     1.6651e-008    
  1.15            -1.3775e-009    4.6262e-007     8.481e-009     
  1.2             -2.6648e-009    7.3251e-007     1.2392e-008    
  1.25            -2.2287e-009    1.05989e-006    1.185e-009     
  1.3             -2.4863e-009    1.4819e-006     -1.8538e-008   
  1.35            -1.5565e-009    1.9896e-006     -1.0457e-008   
  1.4             2.1669e-009     2.5311e-006     -2.3812e-008   
  1.45            1.483e-009      3.1127e-006     -7.55e-009     
  1.5             2.8581e-009     3.6886e-006     -8.287e-009    
  1.55            2.8102e-009     4.2769e-006     7.3e-011       
  1.6             -1.6284e-009    4.8357e-006     1.9741e-008    
  1.65            -1.3833e-009    5.3681e-006     7.343e-009     
  1.7             -2.7e-009       5.8834e-006     1.1531e-008    
  1.75            1.9749e-009     6.3637e-006     -2.1744e-008   
  1.8             1.403e-009      6.8427e-006     -8.823e-009    
  1.85            2.879e-009      7.2987e-006     -8.603e-009    
  1.9             2.7421e-009     7.7483e-006     -3.62e-010     
  1.95            2.544e-009      8.1764e-006     8.92e-009      
  2               -1.73e-009      8.5948e-006     2.25e-008      
  2.05            -1.3939e-009    8.9934e-006     6.422e-009     
  2.1             -2.7195e-009    9.3838e-006     1.0557e-008    
  2.15            2.1219e-009     9.7558e-006     -2.3549e-008   
  2.2             1.4638e-009     1.01209e-005    -7.793e-009    
  2.25            2.8692e-009     1.04804e-005    -8.249e-009    
  2.3             2.1446e-009     1.08405e-005    1.0544e-008    
  2.35            1.0074e-009     1.11779e-005    1.0766e-008    
  2.4             -2.4316e-009    1.1525e-005     1.0919e-008    
  2.45            1.9433e-009     1.1843e-005     -2.1323e-008   
  2.5             1.3937e-009     1.2169e-005     -8.891e-009    
  2.55            2.8808e-009     1.2484e-005     -8.653e-009    
  2.6             -1.3571e-009    1.2798e-005     2.7221e-008    
  2.65            -2.4655e-009    1.3107e-005     1.3774e-008    
  2.7             -1.8527e-009    1.3398e-005     1.773e-009     
  2.75            -1.4302e-009    1.3692e-005     5.292e-009     
  2.8             -1.3665e-009    1.3981e-005     9.601e-009     
  2.85            -2.5764e-009    1.4266e-005     1.3056e-008    
  2.9             -2.0335e-009    1.4537e-005     1.088e-009     
  2.95            -1.4972e-009    1.4809e-005     4.823e-009     
  3               -1.3732e-009    1.5074e-005     8.867e-009     
  3.05            -2.6489e-009    1.5341e-005     1.2702e-008    
  3.1             -2.1973e-009    1.5595e-005     1.216e-009     
  3.15            -1.6028e-009    1.5848e-005     3.608e-009     
  3.2             -1.3814e-009    1.6101e-005     7.142e-009     
  3.25            -2.6977e-009    1.6348e-005     1.1648e-008    
  3.3             1.9644e-009     1.6585e-005     -2.157e-008    
  3.35            1.3991e-009     1.6823e-005     -8.473e-009    
  3.4             1.3221e-009     1.7058e-005     -8.722e-009    
  3.45            2.772e-009      1.7293e-005     -1.3614e-008   
  3.5             2.5545e-009     1.7518e-005     9.212e-009     
  3.55            -1.7149e-009    1.7745e-005     2.2162e-008    
  3.6             -1.3918e-009    1.7969e-005     6.363e-009     
  3.65            -1.3597e-009    1.8184e-005     1.0405e-008    
  3.7             -2.4915e-009    1.8403e-005     1.4071e-008    
  3.75            -1.8651e-009    1.8611e-005     1.857e-009     
  3.8             -1.4272e-009    1.8818e-005     5.177e-009     
  3.85            -1.3751e-009    1.9026e-005     9.068e-009     
  3.9             -2.6033e-009    1.9231e-005     1.3358e-008    
  3.95            -2.0429e-009    1.9427e-005     1.221e-009     
  4               -1.4936e-009    1.9621e-005     4.751e-009     
  4.05            -1.3782e-009    1.9814e-005     8.279e-009     
  4.1             -2.6666e-009    2.0009e-005     1.2733e-008    
  4.15            -2.2266e-009    2.0193e-005     1.234e-009     
