! VERSION = 6.00
BEGIN_HEADER
 ICCAP_INPUTS
  VG         V  B GROUND SMU4 0.001 LIN        2    0          5          6    1         
  VS         V  E GROUND SMU2 0.1 CON        0
  VD         V  S GROUND SMU1 0.1 LIN        1    0          5          101  0.05      
  VB         V  C GROUND SMU3 0.1 LIN        3    0          -2.5       2    -2.5      
 ICCAP_OUTPUTS
  ID         I  S GROUND SMU1 B
  IB         I  C GROUND SMU3 B
  IG         I  B GROUND SMU4 B
END_HEADER

BEGIN_DB
 ICCAP_VAR VG         0              
 ICCAP_VAR VS         0              
 ICCAP_VAR VB         0              

 #VD              ID              IB              IG             
  0               2.2314e-009     1.087e-009      2.1675e-009    
  0.05            2.0086e-009     -7.313e-009     1.4462e-009    
  0.1             2.0761e-009     1.0377e-008     4.17e-011      
  0.15            2.1706e-009     1.0316e-008     2.033e-010     
  0.2             2.2661e-009     1.033e-008      3.729e-010     
  0.25            2.3405e-009     1.0712e-008     5.438e-010     
  0.3             1.4746e-009     2.3876e-008     -1.326e-009    
  0.35            1.153e-010      1.1389e-008     -2.7205e-009   
  0.4             -2.0462e-009    -1.109e-008     -3.85e-011     
  0.45            -2.1509e-009    -1.0977e-008    -2.247e-010    
  0.5             -2.223e-009     -1.1109e-008    -4.245e-010    
  0.55            -2.2578e-009    -1.151e-008     -6.158e-010    
  0.6             -2.2679e-009    -1.1376e-008    -7.949e-010    
  0.65            -1.6104e-009    -1.669e-008     2.0745e-009    
  0.7             1.935e-009      -8.512e-009     1.5117e-009    
  0.75            2.1063e-009     1.032e-008      9.63e-011      
  0.8             2.2076e-009     1.0285e-008     2.617e-010     
  0.85            2.2959e-009     1.0458e-008     4.321e-010     
  0.9             2.3576e-009     1.0737e-008     6.128e-010     
  0.95            1.53e-009       2.2474e-008     -1.3164e-009   
  1               1.579e-010      1.1865e-008     -2.6982e-009   
  1.05            -1.3494e-009    6.1e-010        -1.9142e-009   
  1.1             -2.2572e-009    -1.1347e-008    -5.757e-010    
  1.15            -2.267e-009     -1.1481e-008    -7.731e-010    
  1.2             -1.5977e-009    -1.7471e-008    1.246e-009     
  1.25            -2.313e-010     -1.4313e-008    2.8342e-009    
  1.3             2.1656e-009     1.0311e-008     1.928e-010     
  1.35            2.2656e-009     1.0394e-008     3.705e-010     
  1.4             2.3359e-009     1.0705e-008     5.377e-010     
  1.45            1.4713e-009     2.4222e-008     -1.3291e-009   
  1.5             1.072e-010      1.1418e-008     -1.3011e-009   
  1.55            2.455e-010      1.2754e-008     -2.6465e-009   
  1.6             -1.2809e-009    6.93e-010       -1.9679e-009   
  1.65            -2.2685e-009    -1.1514e-008    -6.942e-010    
  1.7             -1.5662e-009    -1.9037e-008    1.256e-009     
  1.75            -1.653e-010     -1.3337e-008    2.8603e-009    
  1.8             2.1259e-009     1.0268e-008     1.32e-010      
  1.85            2.2274e-009     1.0256e-008     2.936e-010     
  1.9             2.3133e-009     1.0563e-008     4.73e-010      
  1.95            1.4197e-009     2.5611e-008     -1.3383e-009   
  2               5.99e-011       1.1055e-008     -1.3088e-009   
  2.05            1.849e-010      1.1854e-008     -2.6859e-009   
  2.1             -1.3179e-009    5.65e-010       -1.9345e-009   
  2.15            -2.262e-009     -1.145e-008     -6.2e-010      
  2.2             -2.2657e-009    -1.1439e-008    -8.072e-010    
  2.25            -1.6133e-009    -1.6618e-008    2.0689e-009    
  2.3             1.9296e-009     -8.599e-009     1.5212e-009    
  2.35            2.1082e-009     1.0192e-008     1.057e-010     
  2.4             2.2122e-009     1.025e-008      2.724e-010     
  2.45            2.3013e-009     1.0424e-008     4.415e-010     
  2.5             2.3595e-009     1.0747e-008     6.121e-010     
  2.55            1.5328e-009     2.2281e-008     -1.3151e-009   
  2.6             1.638e-010      1.1595e-008     -2.691e-009    
  2.65            -1.3424e-009    4.41e-010       -1.9201e-009   
  2.7             -2.2576e-009    -1.1439e-008    -5.936e-010    
  2.75            -2.2676e-009    -1.1541e-008    -7.836e-010    
  2.8             -1.6008e-009    -1.7356e-008    1.2442e-009    
  2.85            -2.403e-010     -1.4613e-008    2.8264e-009    
  2.9             2.172e-009      1.029e-008      2.011e-010     
  2.95            2.2685e-009     1.0373e-008     3.785e-010     
  3               2.338e-009      1.0735e-008     5.481e-010     
  3.05            1.477e-009      2.4136e-008     -1.3243e-009   
  3.1             1.153e-010      1.1295e-008     -2.7188e-009   
  3.15            -2.0457e-009    -1.1007e-008    -3.73e-011     
  3.2             -2.1492e-009    -1.102e-008     -2.176e-010    
  3.25            -2.2225e-009    -1.115e-008     -4.176e-010    
  3.3             -2.2598e-009    -1.1467e-008    -6.084e-010    
  3.35            -2.2661e-009    -1.1367e-008    -7.965e-010    
  3.4             -1.6086e-009    -1.6917e-008    2.0853e-009    
  3.45            1.9408e-009     -8.396e-009     1.5115e-009    
  3.5             2.1052e-009     1.0142e-008     9.58e-011      
  3.55            2.206e-009      1.0315e-008     2.583e-010     
  3.6             2.3014e-009     1.0414e-008     4.369e-010     
  3.65            2.3583e-009     1.0794e-008     6.048e-010     
  3.7             1.5249e-009     2.2688e-008     -1.3143e-009   
  3.75            1.564e-010      1.1566e-008     -2.6962e-009   
  3.8             -2.0859e-009    -1.0965e-008    -9.33e-011     
  3.85            -2.1808e-009    -1.102e-008     -2.9e-010      
  3.9             -2.2395e-009    -1.1152e-008    -4.86e-010     
  3.95            -2.2677e-009    -1.156e-008     -6.679e-010    
  4               -2.2603e-009    -1.1441e-008    -8.513e-010    
  4.05            -2.225e-009     -1.1246e-008    -9.966e-010    
  4.1             -1.6922e-009    -1.3345e-008    1.72e-009      
  4.15            1.6496e-009     -9.337e-009     1.7396e-009    
  4.2             1.426e-009      9.836e-009      1.9058e-009    
  4.25            2.3229e-009     1.0471e-008     4.939e-010     
  4.3             1.4406e-009     2.5318e-008     -1.3336e-009   
  4.35            7.92e-011       1.1168e-008     -1.3046e-009   
  4.4             2.107e-010      1.2292e-008     -2.6679e-009   
  4.45            -1.3058e-009    4.92e-010       -1.9472e-009   
  4.5             -2.2633e-009    -1.1479e-008    -6.428e-010    
  4.55            -1.5422e-009    -2.0114e-008    1.2609e-009    
  4.6             -1.274e-010     -1.2708e-008    2.8782e-009    
  4.65            2.105e-009      1.0169e-008     9.32e-011      
  4.7             2.2078e-009     1.0283e-008     2.563e-010     
  4.75            2.2988e-009     1.0537e-008     4.283e-010     
  4.8             2.3568e-009     1.0884e-008     6.036e-010     
  4.85            1.5177e-009     2.2736e-008     -1.3169e-009   
  4.9             1.527e-010      1.1763e-008     -2.6995e-009   
  4.95            -2.0838e-009    -1.0938e-008    -8.77e-011     
  5               -2.1778e-009    -1.1103e-008    -2.842e-010    
END_DB

BEGIN_DB
 ICCAP_VAR VG         1              
 ICCAP_VAR VS         0              
 ICCAP_VAR VB         0              

 #VD              ID              IB              IG             
  0               -5.0875e-007    -1.112e-008     1.0381e-009    
  0.05            5.8967e-005     -5.838e-009     -1.3307e-009   
  0.1             9.773e-005      1.0189e-008     5.688e-010     
  0.15            0.00012332      -2.178e-008     -8.234e-010    
  0.2             0.00013903      2.7477e-008     -1.3618e-009   
  0.25            0.00014925      1.0217e-008     5.305e-010     
  0.3             0.00015806      -2.4234e-008    1.4055e-009    
  0.35            0.00016546      -1.1099e-008    -3.266e-010    
  0.4             0.0001718       2.1839e-008     -1.56e-009     
  0.45            0.0001772       1.097e-008      8.67e-011      
  0.5             0.00018116      -1.988e-008     1.9259e-009    
  0.55            0.00018701      -1.1388e-008    -1.0458e-009   
  0.6             0.00019151      1.1232e-008     -2.6564e-009   
  0.65            0.00019553      1.0276e-008     2.767e-010     
  0.7             0.00019888      -2.134e-008     1.6418e-009    
  0.75            0.00020451      -1.1244e-008    -1.2178e-009   
  0.8             0.00020805      1.1748e-008     -2.5103e-009   
  0.85            0.00021037      1.0121e-008     2.0404e-009    
  0.9             0.00021581      -1.1214e-008    -2.354e-010    
  0.95            0.00021902      2.0995e-008     -1.6307e-009   
  1               0.0002209       1.0354e-008     1.0986e-009    
  1.05            0.00022544      -2.2094e-008    2.0527e-009    
  1.1             0.00022898      -1.1466e-008    -9.742e-010    
  1.15            0.00023204      2.7938e-008     -1.329e-009    
  1.2             0.00023411      1.0405e-008     7.092e-010     
  1.25            0.00023694      -2.5962e-008    1.3233e-009    
  1.3             0.00024131      -1.1118e-008    -5.331e-010    
  1.35            0.00024386      2.4149e-008     -1.4436e-009   
  1.4             0.00024517      1.0715e-008     1.333e-009     
  1.45            0.00025006      -1.6265e-008    1.6663e-009    
  1.5             0.00025236      -1.1807e-008    -3.26e-011     
  1.55            0.00025536      1.8723e-008     -1.8575e-009   
  1.6             0.00025749      1.2566e-008     -1.538e-010    
  1.65            0.00025872      -1.7175e-008    2.3603e-009    
  1.7             0.00026386      -1.1605e-008    -8.161e-010    
  1.75            0.00026639      2.7037e-008     -1.3625e-009   
  1.8             0.00026702      9.591e-009      5.16e-010      
  1.85            0.00026983      -2.5369e-008    1.4097e-009    
  1.9             0.00027397      -1.2953e-008    -1.459e-009    
  1.95            0.00027654      1.2669e-008     -2.2175e-009   
  2               0.00027736      7.235e-009      7.07e-010      
  2.05            0.00028072      -3.0434e-008    1.3214e-009    
  2.1             0.0002849       -1.8376e-008    -1.6389e-009   
  2.15            0.00028703      9.527e-009      -1.9392e-009   
  2.2             0.00028932      1.593e-009      -2.4339e-009   
  2.25            0.00029132      -2.3881e-008    -2.191e-009    
  2.3             0.00029423      -5.193e-009     -2.3831e-009   
  2.35            0.00029453      -1.3365e-008    2.1398e-009    
  2.4             0.00029837      -4.0623e-008    -3.672e-010    
  2.45            0.00030145      -1.4566e-008    -1.5339e-009   
  2.5             0.00030205      -3.8251e-008    2.6137e-009    
  2.55            0.00030666      -6.8068e-008    -1.0498e-009   
  2.6             0.00030905      -4.2097e-008    -1.3165e-009   
  2.65            0.00030864      -7.9831e-008    2.9037e-009    
  2.7             0.00031125      -1.1278e-007    2.7524e-009    
  2.75            0.0003149       -1.3338e-007    -1.9358e-009   
  2.8             0.00031609      -1.3447e-007    1.584e-010     
  2.85            0.0003174       -1.9343e-007    1.805e-009     
  2.9             0.00032126      -2.1363e-007    -2.4454e-009   
  2.95            0.00032285      -2.2919e-007    8.358e-010     
  3               0.00032529      -3.091e-007     1.2887e-009    
  3.05            0.00032861      -3.3555e-007    -2.7716e-009   
  3.1             0.00032899      -3.7066e-007    1.4471e-009    
  3.15            0.00033316      -4.5945e-007    1.5291e-009    
  3.2             0.00033482      -5.2324e-007    -2.6175e-009   
  3.25            0.00033619      -5.8087e-007    1.0191e-009    
  3.3             0.00033952      -7.0814e-007    1.2551e-009    
  3.35            0.00034258      -7.8918e-007    -2.735e-009    
  3.4             0.00034314      -8.8314e-007    1.6631e-009    
  3.45            0.00034699      -1.03966e-006   1.538e-010     
  3.5             0.00034806      -1.15276e-006   -1.863e-009    
  3.55            0.00035044      -1.3138e-006    2.3961e-009    
  3.6             0.00035539      -1.5226e-006    -7.775e-010    
  3.65            0.0003569       -1.6826e-006    -1.3715e-009   
  3.7             0.00035734      -1.9203e-006    2.8594e-009    
  3.75            0.00036267      -2.2021e-006    -1.3957e-009   
  3.8             0.00036445      -2.4384e-006    -1.6216e-009   
  3.85            0.00036572      -2.747e-006     2.5359e-009    
  3.9             0.00037062      -3.1253e-006    -9.656e-010    
  3.95            0.00037244      -3.4457e-006    -1.3312e-009   
  4               0.00037352      -3.8749e-006    2.9064e-009    
  4.05            0.00037888      -4.3631e-006    -1.605e-009    
  4.1             0.00038104      -4.8216e-006    -1.4576e-009   
  4.15            0.00038278      -5.3577e-006    2.7002e-009    
  4.2             0.00038765      -5.9952e-006    -1.1551e-009   
  4.25            0.00038978      -6.5799e-006    -1.3008e-009   
  4.3             0.00039111      -7.2958e-006    2.8836e-009    
  4.35            0.00039646      -8.1095e-006    -1.7852e-009   
  4.4             0.00039966      -8.8897e-006    -7.31e-011     
  4.45            0.00040135      -9.8608e-006    2.2118e-009    
  4.5             0.00040711      -1.08033e-005   -2.2186e-009   
  4.55            0.00041046      -1.1795e-005    -2.6592e-009   
  4.6             0.00041289      -1.2858e-005    1.8567e-009    
  4.65            0.0004186       -1.4147e-005    -2.22e-011     
  4.7             0.00042215      -1.5349e-005    -1.8739e-009   
  4.75            0.00042498      -1.6687e-005    2.4003e-009    
  4.8             0.00043136      -1.8269e-005    -7.795e-010    
  4.85            0.00043513      -1.9744e-005    -1.3703e-009   
  4.9             0.00043747      -2.1358e-005    2.8585e-009    
  4.95            0.00044477      -2.3285e-005    -1.4013e-009   
  5               0.00044891      -2.5041e-005    -1.6164e-009   
END_DB

BEGIN_DB
 ICCAP_VAR VG         2              
 ICCAP_VAR VS         0              
 ICCAP_VAR VB         0              

 #VD              ID              IB              IG             
  0               -4.4634e-006    1.0569e-008     -1.5834e-009   
  0.05            0.00033893      1.7184e-008     1.83e-009      
  0.1             0.00066369      -1.204e-008     9.1e-012       
  0.15            0.00097299      1.8128e-008     -1.9422e-009   
  0.2             0.0012649       -4.483e-009     -1.4791e-009   
  0.25            0.0015352       1.0596e-008     1.967e-010     
  0.3             0.0017845       -2.0798e-008    1.7579e-009    
  0.35            0.0020124       -1.2082e-008    2.83e-011      
  0.4             0.0022173       1.786e-008      -1.9638e-009   
  0.45            0.0023971       1.348e-008      -2.146e-010    
  0.5             0.0025539       -1.6263e-008    2.4666e-009    
  0.55            0.0026926       -1.1113e-008    -7.426e-010    
  0.6             0.0028088       2.7059e-008     -1.3807e-009   
  0.65            0.0029052       1.0154e-008     4.577e-010     
  0.7             0.0029877       -2.3603e-008    1.4582e-009    
  0.75            0.0030591       -1.1294e-008    -2.458e-010    
  0.8             0.0031177       2.1284e-008     -1.6394e-009   
  0.85            0.0031633       1.0533e-008     1.1193e-009    
  0.9             0.0032062       -2.21e-008      2.0523e-009    
  0.95            0.003244        -1.1494e-008    -9.825e-010    
  1               0.003274        2.8056e-008     -1.3299e-009   
  1.05            0.0032995       1.0356e-008     7.221e-010     
  1.1             0.0033244       -2.6283e-008    1.3195e-009    
  1.15            0.0033498       -1.0953e-008    -5.448e-010    
  1.2             0.0033689       2.477e-008      -1.443e-009    
  1.25            0.0033864       1.0268e-008     2.79e-010      
  1.3             0.0034011       -2.156e-008     1.6431e-009    
  1.35            0.0034203       -1.1836e-008    -4.67e-011     
  1.4             0.0034366       1.9165e-008     -1.8512e-009   
  1.45            0.0034499       1.2566e-008     -1.402e-010    
  1.5             0.00346         -1.721e-008     2.3426e-009    
  1.55            0.0034788       -1.1128e-008    -8.338e-010    
  1.6             0.0034907       2.7804e-008     -1.3614e-009   
  1.65            0.0034995       1.0077e-008     5.393e-010     
  1.7             0.0035096       -2.462e-008     1.4007e-009    
  1.75            0.0035232       -1.1057e-008    -3.353e-010    
  1.8             0.0035326       2.2171e-008     -1.5543e-009   
  1.85            0.0035427       1.0723e-008     1.068e-010     
  1.9             0.0035494       -2.0712e-008    1.9113e-009    
  1.95            0.0035644       -1.2235e-008    -1.0585e-009   
  2               0.0035717       9.941e-009      -2.6724e-009   
  2.05            0.0035815       1.6826e-008     -1.8935e-009   
  2.1             0.0035896       1.0252e-008     -2.4009e-009   
  2.15            0.0035978       1.7796e-008     -1.5508e-009   
  2.2             0.0036064       1.1039e-008     -1.9816e-009   
  2.25            0.0036132       2.881e-009      -2.4708e-009   
  2.3             0.0036206       -1.8774e-008    -2.793e-009    
  2.35            0.0036259       -7.519e-009     1.5127e-009    
  2.4             0.0036341       -4.0098e-008    2.999e-010     
  2.45            0.0036418       -3.4544e-008    -2.0169e-009   
  2.5             0.0036469       -3.8335e-008    2.3492e-009    
  2.55            0.0036568       -7.4114e-008    -6.612e-010    
  2.6             0.0036628       -5.6235e-008    -1.3988e-009   
  2.65            0.0036661       -1.0813e-007    1.7439e-009    
  2.7             0.0036741       -1.4557e-007    -2.4917e-009   
  2.75            0.0036778       -1.6303e-007    8.689e-010     
  2.8             0.0036837       -2.4511e-007    1.283e-009     
  2.85            0.003693        -2.7836e-007    -2.7934e-009   
  2.9             0.003696        -3.2742e-007    1.4976e-009    
  2.95            0.0037045       -4.3115e-007    3.087e-010     
  3               0.0037121       -4.9742e-007    -2.4083e-009   
  3.05            0.0037154       -6.1188e-007    2.1519e-009    
  3.1             0.003724        -7.6257e-007    -3.575e-010    
  3.15            0.0037286       -8.8257e-007    -1.5338e-009   
  3.2             0.0037325       -1.07721e-006   2.6361e-009    
  3.25            0.0037399       -1.3144e-006    1.3832e-009    
  3.3             0.0037484       -1.5409e-006    -2.741e-009    
  3.35            0.0037498       -1.8039e-006    1.1933e-009    
  3.4             0.0037577       -2.1593e-006    1.8976e-009    
  3.45            0.0037649       -2.5178e-006    -2.4012e-009   
  3.5             0.0037686       -2.9228e-006    7.839e-010     
  3.55            0.0037748       -3.4439e-006    1.3015e-009    
  3.6             0.0037834       -3.9773e-006    -2.7944e-009   
  3.65            0.0037861       -4.5936e-006    1.4061e-009    
  3.7             0.0037947       -5.3351e-006    1.6002e-009    
  3.75            0.0038013       -6.1365e-006    -2.5952e-009   
  3.8             0.003805        -7.0332e-006    9.767e-010     
  3.85            0.0038131       -8.1021e-006    1.2633e-009    
  3.9             0.00382         -9.2421e-006    -2.7732e-009   
  3.95            0.0038244       -1.05307e-005   1.6185e-009    
  4               0.003834        -1.2004e-005    -2.1573e-009   
  4.05            0.0038395       -1.3623e-005    4.958e-010     
  4.1             0.0038458       -1.5481e-005    1.427e-009     
  4.15            0.0038574       -1.75e-005      -2.7106e-009   
