! VERSION = 6.00
BEGIN_HEADER
 ICCAP_INPUTS
  VG         V  B GROUND SMU4 0.001 LIN        2    0          5          6    1         
  VS         V  E GROUND SMU2 0.1 CON        0
  VD         V  S GROUND SMU1 0.1 LIN        1    0          5          101  0.05      
  VB         V  C GROUND SMU3 0.1 LIN        3    0          -2.5       2    -2.5      
 ICCAP_OUTPUTS
  ID         I  S GROUND SMU1 B
  IB         I  C GROUND SMU3 B
  IG         I  B GROUND SMU4 B
END_HEADER

BEGIN_DB
 ICCAP_VAR VG         0              
 ICCAP_VAR VS         0              
 ICCAP_VAR VB         0              

 #VD              ID              IB              IG             
  0               -6.573e-010     -2.3381e-008    2.8391e-009    
  0.05            1.5433e-009     2.2591e-008     -2.1041e-009   
  0.1             -1.9218e-009    4.847e-009      -1.4999e-009   
  0.15            -1.3763e-009    -2.6238e-008    1.3068e-009    
  0.2             7.43e-011       -9.749e-009     2.8685e-009    
  0.25            1.6915e-009     -1.95e-010      1.7153e-009    
  0.3             1.4083e-009     1.0566e-008     1.8834e-009    
  0.35            2.3207e-009     1.2332e-008     4.995e-010     
  0.4             2.3406e-009     1.1469e-008     6.794e-010     
  0.45            2.3415e-009     9.804e-009      8.435e-010     
  0.5             1.7103e-009     1.5253e-008     -1.7634e-009   
  0.55            -1.6658e-009    5.461e-009      -1.6963e-009   
  0.6             -1.5199e-009    -2.154e-008     2.3463e-009    
  0.65            2.1175e-009     -5.97e-009      1.3829e-009    
  0.7             1.2994e-009     2.9158e-008     -1.3701e-009   
  0.75            -2.0925e-009    1.1469e-008     -1.309e-009    
  0.8             -1.9341e-009    -1.0443e-008    -1.4831e-009   
  0.85            -1.3596e-009    -2.6554e-008    1.3082e-009    
  0.9             9.19e-011       -9.331e-009     2.8692e-009    
  0.95            1.3102e-009     2.9228e-008     -1.3711e-009   
  1               -2.0792e-009    1.1804e-008     -1.3286e-009   
  1.05            -1.914e-009     -1.0543e-008    -1.4976e-009   
  1.1             -1.3689e-009    -2.6454e-008    1.3076e-009    
  1.15            7.97e-011       -9.662e-009     2.8681e-009    
  1.2             1.3276e-009     2.9257e-008     -1.371e-009    
  1.25            -7.05e-011      1.2036e-008     -1.3765e-009   
  1.3             7.5e-011        1.3286e-008     -2.714e-009    
  1.35            -1.4722e-009    -2.3859e-008    2.4701e-009    
  1.4             2.1939e-009     -5.116e-009     1.3108e-009    
  1.45            1.2341e-009     2.9071e-008     -1.3726e-009   
  1.5             -2.1354e-009    1.0633e-008     -1.2445e-009   
  1.55            -1.8791e-009    -1.0205e-008    2.75e-010      
  1.6             -9.175e-010     -2.1375e-008    1.7692e-009    
  1.65            1.7128e-009     -8.802e-009     1.7019e-009    
  1.7             1.4327e-009     1.0622e-008     1.863e-009     
  1.75            2.3134e-009     1.2591e-008     4.788e-010     
  1.8             2.3382e-009     1.172e-008      6.645e-010     
  1.85            2.3401e-009     9.979e-009      8.301e-010     
  1.9             1.6968e-009     1.5783e-008     -1.7896e-009   
  1.95            -1.6868e-009    5.321e-009      -1.6844e-009   
  2               -2.2103e-009    -1.307e-008     -2.162e-010    
  2.05            -2.248e-009     -1.3212e-008    -4.43e-010     
  2.1             -2.2457e-009    -1.2685e-008    -6.44e-010     
  2.15            -2.231e-009     -1.1588e-008    -8.355e-010    
  2.2             -1.6162e-009    -1.5882e-008    2.0308e-009    
  2.25            1.9167e-009     -8.026e-009     1.5625e-009    
  2.3             1.4396e-009     2.7453e-008     -1.3779e-009   
  2.35            5.52e-011       1.3017e-008     -2.7194e-009   
  2.4             -1.4537e-009    -2.4706e-008    1.3137e-009    
  2.45            -9.7e-012       -1.1733e-008    2.8668e-009    
  2.5             1.4141e-009     2.8225e-008     -1.3768e-009   
  2.55            2.5e-011        1.2846e-008     -1.3679e-009   
  2.6             1.77e-010       1.4519e-008     -2.6832e-009   
  2.65            -1.5451e-009    -2.0227e-008    2.2827e-009    
  2.7             2.0884e-009     -6.345e-009     1.4218e-009    
  2.75            1.3316e-009     2.9301e-008     -1.372e-009    
  2.8             -6.64e-011      1.1987e-008     -1.3768e-009   
  2.85            8.45e-011       1.3318e-008     -2.7124e-009   
  2.9             -1.4746e-009    -2.3716e-008    1.3132e-009    
  2.95            -3.42e-011      -1.2442e-008    2.8659e-009    
  3               1.4462e-009     2.7307e-008     -1.3767e-009   
  3.05            5.93e-011       1.3097e-008     -2.7146e-009   
  3.1             -1.454e-009     -2.4455e-008    1.3115e-009    
  3.15            -9e-012         -1.1768e-008    2.8693e-009    
  3.2             1.4229e-009     2.8008e-008     -1.3774e-009   
  3.25            2.92e-011       1.2907e-008     -1.3682e-009   
  3.3             1.795e-010      1.442e-008      -2.6787e-009   
  3.35            -2.1552e-009    -9.769e-009     -1.1947e-009   
  3.4             -1.8396e-009    -9.927e-009     3.193e-010     
  3.45            -8.812e-010     -2.0599e-008    1.8714e-009    
  3.5             1.7982e-009     -8.643e-009     1.6523e-009    
  3.55            1.5058e-009     1.0452e-008     1.8148e-009    
  3.6             2.3053e-009     1.2522e-008     4.239e-010     
  3.65            2.3332e-009     1.2033e-008     6.064e-010     
  3.7             2.3402e-009     1.0514e-008     7.827e-010     
  3.75            1.6526e-009     1.7501e-008     -1.8782e-009   
  3.8             -1.7581e-009    5.314e-009      -1.6364e-009   
  3.85            -1.4731e-009    -2.3753e-008    1.3139e-009    
  3.9             -3.44e-011      -1.2569e-008    2.8659e-009    
  3.95            1.4438e-009     2.7403e-008     -1.3768e-009   
  4               5.41e-011       1.2933e-008     -1.3647e-009   
  4.05            2.083e-010      1.482e-008      -2.6746e-009   
  4.1             -1.2587e-009    1.106e-009      -1.9639e-009   
  4.15            -2.2462e-009    -1.2555e-008    -6.874e-010    
  4.2             -2.2265e-009    -1.0868e-008    -8.675e-010    
  4.25            -1.6369e-009    -1.4966e-008    1.968e-009     
  4.3             1.8747e-009     -8.254e-009     1.6023e-009    
  4.35            1.4673e-009     2.6286e-008     -1.378e-009    
  4.4             8.5e-011        1.324e-008      -2.7111e-009   
  4.45            -1.4726e-009    -2.3653e-008    1.3126e-009    
  4.5             -3.2e-011       -1.272e-008     2.8672e-009    
  4.55            1.4435e-009     2.7202e-008     -1.3772e-009   
  4.6             5.54e-011       1.2902e-008     -1.3646e-009   
  4.65            2.099e-010      1.475e-008      -2.6668e-009   
  4.7             -1.2674e-009    1.131e-009      -1.9654e-009   
  4.75            -2.2484e-009    -1.2631e-008    -6.914e-010    
  4.8             -2.2262e-009    -1.0989e-008    -8.661e-010    
  4.85            -1.6375e-009    -1.5137e-008    1.9617e-009    
  4.9             1.8649e-009     -8.251e-009     1.6011e-009    
  4.95            1.5787e-009     1.0838e-008     1.7675e-009    
  5               2.2901e-009     1.2548e-008     3.629e-010     
END_DB

BEGIN_DB
 ICCAP_VAR VG         1              
 ICCAP_VAR VS         0              
 ICCAP_VAR VB         0              

 #VD              ID              IB              IG             
  0               -1.5475e-008    -8.412e-009     -1.379e-009    
  0.05            8.3223e-007     -1.2749e-008    2.8631e-009    
  0.1             1.3732e-006     2.2954e-008     2.7418e-009    
  0.15            1.6486e-006     -1.0181e-008    2.141e-010     
  0.2             1.7797e-006     1.0705e-008     -2.7196e-009   
  0.25            1.8169e-006     1.8936e-008     -1.5983e-009   
  0.3             1.8082e-006     9.997e-009      2.0821e-009    
  0.35            1.8123e-006     -1.2637e-008    1.4585e-009    
  0.4             1.8214e-006     -1.3042e-008    -7.564e-010    
  0.45            1.8413e-006     1.7866e-008     -1.8492e-009   
  0.5             1.845e-006      2.848e-008      -2.0161e-009   
  0.55            1.8473e-006     2.9379e-008     -1.3818e-009   
  0.6             1.849e-006      2.9344e-008     -1.3811e-009   
  0.65            1.8515e-006     2.9e-008        -2.1003e-009   
  0.7             1.8534e-006     2.9539e-008     -1.3854e-009   
  0.75            1.8307e-006     9.467e-009      1.1794e-009    
  0.8             1.8312e-006     -7.834e-009     2.8532e-009    
  0.85            1.8412e-006     -1.2332e-008    -9.379e-010    
  0.9             1.8578e-006     1.948e-008      -1.5885e-009   
  0.95            1.8393e-006     1.0352e-008     2.0908e-009    
  1               1.8384e-006     -1.2317e-008    3.586e-010     
  1.05            1.8586e-006     8.77e-009       -1.3854e-009   
  1.1             1.8395e-006     9.356e-009      1.1678e-009    
  1.15            1.8393e-006     -7.824e-009     1.3231e-009    
  1.2             1.8449e-006     -2.7419e-008    1.3226e-009    
  1.25            1.8455e-006     -2.7434e-008    1.3238e-009    
  1.3             1.8466e-006     -2.7198e-008    1.3241e-009    
  1.35            1.8476e-006     -2.7157e-008    1.3229e-009    
  1.4             1.8489e-006     -2.7016e-008    1.3231e-009    
  1.45            1.8503e-006     -2.6642e-008    1.3201e-009    
  1.5             1.8506e-006     -2.6561e-008    2.314e-009     
  1.55            1.8688e-006     -1.151e-008     -1.7576e-009   
  1.6             1.8736e-006     2.6016e-008     -1.8868e-009   
  1.65            1.8738e-006     2.8623e-008     -1.374e-009    
  1.7             1.8743e-006     2.8283e-008     -1.3704e-009   
  1.75            1.8756e-006     2.7949e-008     -1.366e-009    
  1.8             1.8756e-006     2.7486e-008     -1.9468e-009   
  1.85            1.8762e-006     2.9012e-008     -1.3779e-009   
  1.9             1.8763e-006     2.8663e-008     -1.3756e-009   
  1.95            1.8769e-006     2.8408e-008     -1.3717e-009   
  2               1.8784e-006     2.7892e-008     -1.3672e-009   
  2.05            1.8792e-006     2.7563e-008     -1.3624e-009   
  2.1             1.8801e-006     2.7015e-008     -1.9165e-009   
  2.15            1.8803e-006     2.8654e-008     -1.3769e-009   
  2.2             1.8803e-006     2.8588e-008     -1.3734e-009   
  2.25            1.8809e-006     2.8105e-008     -1.367e-009    
  2.3             1.8818e-006     2.7625e-008     -1.3645e-009   
  2.35            1.8826e-006     2.7049e-008     -1.9265e-009   
  2.4             1.8829e-006     2.8768e-008     -1.3769e-009   
  2.45            1.8837e-006     2.8398e-008     -1.374e-009    
  2.5             1.8842e-006     2.811e-008      -1.3685e-009   
  2.55            1.8843e-006     2.751e-008      -1.3649e-009   
  2.6             1.8852e-006     2.6947e-008     -1.9361e-009   
  2.65            1.8845e-006     2.8569e-008     -1.3768e-009   
  2.7             1.8857e-006     2.8192e-008     -1.3743e-009   
  2.75            1.8866e-006     2.7813e-008     -1.3712e-009   
  2.8             1.8878e-006     2.7241e-008     -1.3659e-009   
  2.85            1.8878e-006     2.6553e-008     -1.3631e-009   
  2.9             1.8887e-006     2.5927e-008     -1.9179e-009   
  2.95            1.888e-006      2.7537e-008     -1.3752e-009   
  3               1.8892e-006     2.707e-008      -1.3735e-009   
  3.05            1.89e-006       2.6471e-008     -1.3686e-009   
  3.1             1.8889e-006     1.6109e-008     -1.7665e-009   
  3.15            1.8894e-006     1.5892e-008     -1.7319e-009   
  3.2             1.8902e-006     1.5764e-008     -1.6978e-009   
  3.25            1.8912e-006     1.5615e-008     -1.6656e-009   
  3.3             1.8919e-006     1.5301e-008     -1.6346e-009   
  3.35            1.8927e-006     1.493e-008      -1.6074e-009   
  3.4             1.8934e-006     1.4675e-008     -1.5764e-009   
  3.45            1.8943e-006     1.4197e-008     -1.556e-009    
  3.5             1.8941e-006     6.175e-009      -2.7143e-009   
  3.55            1.8951e-006     5.455e-009      -2.7096e-009   
  3.6             1.897e-006      5.179e-009      -2.702e-009    
  3.65            1.8982e-006     4.237e-009      -2.6988e-009   
  3.7             1.9002e-006     3.584e-009      -2.6883e-009   
  3.75            1.9021e-006     2.297e-009      -2.6774e-009   
  3.8             1.9044e-006     1.151e-009      -2.6626e-009   
  3.85            1.9055e-006     -1.84e-010      -2.6502e-009   
  3.9             1.9078e-006     -1.544e-009     -2.6332e-009   
  3.95            1.9097e-006     -3.151e-009     -2.6169e-009   
  4               1.913e-006      5.787e-009      -1.4042e-009   
  4.05            1.8993e-006     -1.1073e-008    2.363e-009     
  4.1             1.8934e-006     -3.3225e-008    9.3e-011       
  4.15            1.9052e-006     -2.5918e-008    -2.5416e-009   
  4.2             1.8904e-006     -1.9078e-008    1.4333e-009    
  4.25            1.9054e-006     -5.8595e-008    2.5311e-009    
  4.3             1.9293e-006     -4.4546e-008    -1.6426e-009   
  4.35            1.9344e-006     -8.232e-009     -1.379e-009    
  4.4             1.918e-006      -3.186e-008     2.7012e-009    
  4.45            1.9241e-006     -5.7879e-008    -4.89e-010     
  4.5             1.9465e-006     -3.2105e-008    -2.2236e-009   
  4.55            1.9158e-006     -4.2156e-008    1.6656e-009    
  4.6             1.9357e-006     -8.2838e-008    2.1233e-009    
  4.65            1.9548e-006     -7.4721e-008    -1.8441e-009   
  4.7             1.9679e-006     -4.5697e-008    -1.7187e-009   
  4.75            1.9473e-006     -6.2719e-008    1.9804e-009    
  4.8             1.9561e-006     -9.434e-008     1.5743e-009    
  4.85            1.9696e-006     -9.5817e-008    1.1296e-009    
  4.9             1.9693e-006     -8.777e-008     1.3231e-009    
  4.95            1.9814e-006     -1.092e-007     -2.4157e-009   
  5               1.9879e-006     -9.688e-008     2.6766e-009    
END_DB

BEGIN_DB
 ICCAP_VAR VG         2              
 ICCAP_VAR VS         0              
 ICCAP_VAR VB         0              

 #VD              ID              IB              IG             
  0               -6.8971e-008    -2.7218e-008    -8.478e-010    
  0.05            4.4817e-006     6.238e-009      1.3781e-009    
  0.1             8.7657e-006     -2.7186e-008    1.3183e-009    
  0.15            1.2809e-005     -1.2964e-008    2.8379e-009    
  0.2             1.6541e-005     -1.2724e-008    1.4565e-009    
  0.25            2.0047e-005     -2.7378e-008    1.3196e-009    
  0.3             2.3302e-005     -1.3302e-008    -6.41e-010     
  0.35            2.6277e-005     7.103e-009      -1.3756e-009   
  0.4             2.9006e-005     2.4873e-008     -1.785e-009    
  0.45            3.1377e-005     1.169e-008      8.831e-010     
  0.5             3.3519e-005     -2.7106e-008    1.317e-009     
  0.55            3.5503e-005     -1.0529e-008    -1.5549e-009   
  0.6             3.7105e-005     1.6759e-008     -1.5386e-009   
  0.65            3.8507e-005     2.9023e-008     -1.3811e-009   
  0.7             3.9512e-005     1.0429e-008     1.5469e-009    
  0.75            4.0387e-005     -1.3426e-008    1.5048e-009    
  0.8             4.1012e-005     -2.744e-008     1.3207e-009    
  0.85            4.1472e-005     -1.3353e-008    -5.889e-010    
  0.9             4.1795e-005     6.554e-009      -1.3767e-009   
  0.95            4.1959e-005     2.6348e-008     -1.8613e-009   
  1               4.1962e-005     1.2283e-008     8.458e-010     
  1.05            4.1983e-005     -2.6674e-008    1.3175e-009    
  1.1             4.2028e-005     -2.1362e-008    1.8733e-009    
  1.15            4.2107e-005     -1.2549e-008    -9.558e-010    
  1.2             4.2182e-005     2.8718e-008     -1.3789e-009   
  1.25            4.2158e-005     2.2146e-008     -1.6866e-009   
  1.3             4.2139e-005     1.1423e-008     9.419e-010     
  1.35            4.2128e-005     -2.741e-008     2.5983e-009    
  1.4             4.2182e-005     -1.3273e-008    -5.399e-010    
  1.45            4.2239e-005     2.0793e-008     -1.4811e-009   
  1.5             4.2172e-005     9.512e-009      1.1101e-009    
  1.55            4.2175e-005     -2.6333e-008    2.2934e-009    
  1.6             4.2212e-005     -1.3133e-008    -7.571e-010    
  1.65            4.2288e-005     7.899e-009      -1.3817e-009   
  1.7             4.2152e-005     1.0308e-008     1.5299e-009    
  1.75            4.2207e-005     -1.3702e-008    1.5188e-009    
  1.8             4.2229e-005     -2.7543e-008    1.3212e-009    
  1.85            4.2305e-005     -1.3275e-008    -5.745e-010    
  1.9             4.2355e-005     6.339e-009      -1.3775e-009   
  1.95            4.2372e-005     2.6778e-008     -1.884e-009    
  2               4.2307e-005     1.1963e-008     8.276e-010     
  2.05            4.2302e-005     -2.6509e-008    1.3166e-009    
  2.1             4.2357e-005     -1.2683e-008    -3.845e-010    
  2.15            4.24e-005       1.9123e-008     -1.6003e-009   
  2.2             4.241e-005      2.8355e-008     -1.3779e-009   
  2.25            4.2412e-005     2.2422e-008     -1.7063e-009   
  2.3             4.2351e-005     1.1221e-008     9.315e-010     
  2.35            4.2309e-005     -2.7519e-008    1.3183e-009    
  2.4             4.2399e-005     -1.3285e-008    -5.221e-010    
  2.45            4.2461e-005     2.0595e-008     -1.4863e-009   
  2.5             4.2373e-005     9.453e-009      1.1034e-009    
  2.55            4.2327e-005     -2.6653e-008    2.3114e-009    
  2.6             4.2345e-005     -1.3281e-008    -7.432e-010    
  2.65            4.2466e-005     7.756e-009      -1.3805e-009   
  2.7             4.2321e-005     1.0228e-008     1.5237e-009    
  2.75            4.2376e-005     -1.4166e-008    1.5348e-009    
  2.8             4.2432e-005     -1.0731e-008    -1.1401e-009   
  2.85            4.2498e-005     2.9151e-008     -1.382e-009    
  2.9             4.2463e-005     1.2095e-008     6.513e-010     
  2.95            4.2413e-005     -8.823e-009     2.8401e-009    
  3               4.2333e-005     -1.3408e-008    3.539e-010     
  3.05            4.2473e-005     1.3294e-008     -2.5794e-009   
  3.1             4.2448e-005     1.6349e-008     -1.8277e-009   
  3.15            4.2403e-005     9.785e-009      8.639e-010     
  3.2             4.2398e-005     -2.9863e-008    1.3155e-009    
  3.25            4.2518e-005     -1.3441e-008    -1.5253e-009   
  3.3             4.2509e-005     1.294e-008      -1.5654e-009   
  3.35            4.2485e-005     1.0922e-008     -2.2955e-009   
  3.4             4.2476e-005     4.709e-009      -2.7021e-009   
  3.45            4.2509e-005     8.193e-009      -2.216e-009    
  3.5             4.2519e-005     1.659e-009      -2.6908e-009   
  3.55            4.2549e-005     4.386e-009      -2.1404e-009   
  3.6             4.2493e-005     -6.512e-009     2.223e-009     
  3.65            4.2483e-005     -3.0974e-008    -3.186e-010    
  3.7             4.2531e-005     -2.4221e-008    -2.7019e-009   
  3.75            4.2396e-005     -1.5073e-008    1.6559e-009    
  3.8             4.2481e-005     -4.2073e-008    3.155e-010     
  3.85            4.2509e-005     -3.4522e-008    -2.1775e-009   
  3.9             4.2516e-005     -3.2354e-008    2.1925e-009    
  3.95            4.2532e-005     -6.0492e-008    -2.703e-010    
  4               4.2594e-005     -3.7417e-008    -1.7221e-009   
  4.05            4.2561e-005     -5.517e-008     2.46e-009      
  4.1             4.2581e-005     -8.7465e-008    -6.236e-010    
  4.15            4.2624e-005     -6.2939e-008    -1.4291e-009   
