! VERSION = 6.00
BEGIN_HEADER
 ICCAP_INPUTS
  VG         V  B GROUND SMU4 0.001 LIN        2    0          5          6    1         
  VS         V  E GROUND SMU2 0.1 CON        0
  VD         V  S GROUND SMU1 0.1 LIN        1    0          5          101  0.05      
  VB         V  C GROUND SMU3 0.1 LIN        3    0          -2.5       2    -2.5      
 ICCAP_OUTPUTS
  ID         I  S GROUND SMU1 B
  IB         I  C GROUND SMU3 B
  IG         I  B GROUND SMU4 B
END_HEADER

BEGIN_DB
 ICCAP_VAR VG         0              
 ICCAP_VAR VS         0              
 ICCAP_VAR VB         0              

 #VD              ID              IB              IG             
  0               -1.1617e-009    -8.559e-009     -1.309e-009    
  0.05            3.078e-010      1.3763e-008     -2.596e-009    
  0.1             -2.0856e-009    6.12e-010       -1.0672e-009   
  0.15            -9.98e-010      -1.1943e-008    1.9284e-009    
  0.2             4.4103e-009     -1.313e-008     1.6252e-009    
  0.25            2.261e-008      -3.1639e-008    -1.3508e-009   
  0.3             8.9088e-008     -8.5175e-008    2.2578e-009    
  0.35            2.4793e-007     -2.6637e-007    2.0611e-009    
  0.4             3.4042e-007     -3.8189e-007    1.256e-010     
  0.45            4.3529e-007     -3.5982e-007    -2.5364e-009   
  0.5             4.0274e-007     -4.1928e-007    1.6357e-009    
  0.55            3.8204e-007     -4.21e-007      1.7539e-009    
  0.6             4.0974e-007     -4.4936e-007    -2.1234e-009   
  0.65            3.8192e-007     -4.0405e-007    9.4e-011       
  0.7             4.4677e-007     -3.9876e-007    2.452e-009     
  0.75            4.0555e-007     -4.4944e-007    -1.8611e-009   
  0.8             3.81e-007       -3.9609e-007    -1.4818e-009   
  0.85            4.198e-007      -4.3664e-007    2.3923e-009    
  0.9             3.8428e-007     -4.3224e-007    -3.686e-010    
  0.95            4.4656e-007     -3.7259e-007    -1.9454e-009   
  1               4.1675e-007     -4.3338e-007    2.0793e-009    
  1.05            3.8146e-007     -4.2954e-007    1.029e-010     
  1.1             4.5245e-007     -3.7347e-007    -2.5177e-009   
  1.15            4.1388e-007     -4.3096e-007    1.6567e-009    
  1.2             3.8964e-007     -4.3045e-007    1.7239e-009    
  1.25            4.1933e-007     -4.593e-007     -2.1445e-009   
  1.3             3.9009e-007     -4.1334e-007    1.205e-010     
  1.35            4.5557e-007     -4.0706e-007    2.4256e-009    
  1.4             4.1421e-007     -4.5826e-007    -1.8727e-009   
  1.45            3.8799e-007     -4.0508e-007    -1.4685e-009   
  1.5             4.2878e-007     -4.4541e-007    2.4052e-009    
  1.55            3.9238e-007     -4.4085e-007    -3.948e-010    
  1.6             4.5461e-007     -3.801e-007     -1.9122e-009   
  1.65            4.2454e-007     -4.4177e-007    2.1005e-009    
  1.7             3.8826e-007     -4.3702e-007    8.37e-011      
  1.75            4.5994e-007     -3.8002e-007    -2.4934e-009   
  1.8             4.213e-007      -4.3854e-007    1.6822e-009    
  1.85            3.9527e-007     -4.3694e-007    1.6854e-009    
  1.9             4.2682e-007     -4.6631e-007    -2.163e-009    
  1.95            3.9694e-007     -4.2033e-007    1.473e-010     
  2               4.6254e-007     -4.14e-007      2.3846e-009    
  2.05            4.2166e-007     -4.6514e-007    -1.8868e-009   
  2.1             3.9409e-007     -4.1243e-007    -1.4542e-009   
  2.15            4.3582e-007     -4.5201e-007    2.4223e-009    
  2.2             3.9903e-007     -4.4719e-007    -4.277e-010    
  2.25            4.6133e-007     -3.8564e-007    -1.8795e-009   
  2.3             4.319e-007      -4.4801e-007    2.1181e-009    
  2.35            3.9516e-007     -4.4315e-007    6.31e-011      
  2.4             4.6759e-007     -3.8504e-007    -2.4663e-009   
  2.45            4.2883e-007     -4.4476e-007    1.7015e-009    
  2.5             4.0109e-007     -4.4215e-007    1.6593e-009    
  2.55            4.3508e-007     -4.7234e-007    -2.1763e-009   
  2.6             4.0527e-007     -4.265e-007     1.712e-010     
  2.65            4.708e-007      -4.198e-007     2.3548e-009    
  2.7             4.3059e-007     -4.7079e-007    -1.8974e-009   
  2.75            4.026e-007      -4.1802e-007    -2.272e-010    
  2.8             4.7663e-007     -4.0756e-007    2.808e-009     
  2.85            4.2646e-007     -4.6773e-007    -1.5666e-009   
  2.9             4.2288e-007     -4.0223e-007    -1.8505e-009   
  2.95            4.4404e-007     -4.5391e-007    2.1367e-009    
  3               4.0737e-007     -4.4849e-007    5.06e-011      
  3.05            4.8154e-007     -3.9048e-007    -2.4489e-009   
  3.1             4.4332e-007     -4.5057e-007    1.7196e-009    
  3.15            4.1559e-007     -4.4736e-007    1.6334e-009    
  3.2             4.52e-007       -4.7764e-007    -2.1937e-009   
  3.25            4.236e-007      -4.3185e-007    1.872e-010     
  3.3             4.9061e-007     -4.2476e-007    2.3226e-009    
  3.35            4.5246e-007     -4.7618e-007    -1.9092e-009   
  3.4             4.2603e-007     -4.2355e-007    -2.129e-010    
  3.45            5.0258e-007     -4.1289e-007    2.8033e-009    
  3.5             4.5492e-007     -4.7298e-007    -1.5808e-009   
  3.55            4.5291e-007     -4.0807e-007    -1.8254e-009   
  3.6             4.7768e-007     -4.5962e-007    2.1509e-009    
  3.65            4.4404e-007     -4.5386e-007    2.46e-011      
  3.7             5.2264e-007     -3.9533e-007    -2.4304e-009   
  3.75            4.8691e-007     -4.5599e-007    1.7416e-009    
  3.8             4.6287e-007     -4.5246e-007    1.6093e-009    
  3.85            5.0499e-007     -4.8372e-007    -2.21e-009     
  3.9             4.8235e-007     -4.3803e-007    2.1e-010       
  3.95            5.5446e-007     -4.3085e-007    2.3016e-009    
  4               5.2241e-007     -4.8308e-007    -1.9166e-009   
  4.05            5.0335e-007     -4.3116e-007    -1.975e-010    
  4.1             5.8577e-007     -4.2043e-007    2.7921e-009    
  4.15            5.4696e-007     -4.8135e-007    -1.6035e-009   
  4.2             5.5281e-007     -4.1684e-007    -1.8015e-009   
  4.25            5.8522e-007     -4.6927e-007    2.1674e-009    
  4.3             5.6174e-007     -4.6396e-007    1.4e-011       
  4.35            6.5515e-007     -4.0598e-007    -2.4034e-009   
  4.4             6.2703e-007     -4.6882e-007    1.7624e-009    
  4.45            6.15e-007       -4.6583e-007    1.5959e-009    
  4.5             6.7309e-007     -4.9937e-007    -2.2276e-009   
  4.55            6.6584e-007     -4.549e-007     2.268e-010     
  4.6             7.5266e-007     -4.4974e-007    2.2722e-009    
  4.65            7.3816e-007     -5.0399e-007    -1.9287e-009   
  4.7             7.3766e-007     -4.5431e-007    -1.829e-010    
  4.75            8.3783e-007     -4.4666e-007    2.7746e-009    
  4.8             8.2386e-007     -5.1085e-007    -1.6167e-009   
  4.85            8.5213e-007     -4.4964e-007    -1.7813e-009   
  4.9             9.0555e-007     -5.0608e-007    2.1794e-009    
  4.95            9.1008e-007     -5.0503e-007    -2.1e-012      
  5               1.03733e-006    -4.5217e-007    -2.3904e-009   
END_DB

BEGIN_DB
 ICCAP_VAR VG         1              
 ICCAP_VAR VS         0              
 ICCAP_VAR VB         0              

 #VD              ID              IB              IG             
  0               -8.4329e-008    1.8578e-008     1.0849e-009    
  0.05            5.1922e-006     1.1056e-008     1.3385e-009    
  0.1             9.5922e-006     -1.2671e-008    1.867e-010     
  0.15            1.3265e-005     2.521e-009      1.2837e-009    
  0.2             1.6334e-005     -1.513e-008     -1.6975e-009   
  0.25            1.8774e-005     -2.4662e-008    -2.3298e-009   
  0.3             2.086e-005      -1.0703e-007    2.808e-009     
  0.35            2.2808e-005     -2.657e-007     -1.2634e-009   
  0.4             2.4447e-005     -3.384e-007     -1.9343e-009   
  0.45            2.5752e-005     -4.2162e-007    2.2765e-009    
  0.5             2.6944e-005     -4.2702e-007    -4.535e-010    
  0.55            2.8213e-005     -3.6857e-007    -1.5646e-009   
  0.6             2.9169e-005     -4.3455e-007    2.4809e-009    
  0.65            3.0148e-005     -4.3488e-007    -8.092e-010    
  0.7             3.1205e-005     -3.7131e-007    -1.4044e-009   
  0.75            3.2002e-005     -4.3872e-007    2.6994e-009    
  0.8             3.2889e-005     -4.4046e-007    -1.0719e-009   
  0.85            3.38e-005       -3.7584e-007    -1.3392e-009   
  0.9             3.4497e-005     -4.445e-007     2.8426e-009    
  0.95            3.5366e-005     -4.4644e-007    -1.3724e-009   
  1               3.6098e-005     -3.875e-007     -1.7778e-009   
  1.05            3.6758e-005     -4.3905e-007    2.3497e-009    
  1.1             3.7449e-005     -4.3888e-007    -5.81e-010     
  1.15            3.8305e-005     -3.7681e-007    -1.486e-009    
  1.2             3.8884e-005     -4.4581e-007    2.5571e-009    
  1.25            3.9543e-005     -4.4491e-007    -9.047e-010    
  1.3             4.0323e-005     -3.7953e-007    -1.375e-009    
  1.35            4.0864e-005     -4.483e-007     2.7622e-009    
  1.4             4.1559e-005     -4.4938e-007    -1.1749e-009   
  1.45            4.2225e-005     -3.8607e-007    -1.3271e-009   
  1.5             4.2745e-005     -4.5192e-007    2.8644e-009    
  1.55            4.3466e-005     -4.5521e-007    -1.4852e-009   
  1.6             4.3992e-005     -3.9901e-007    -1.6556e-009   
  1.65            4.453e-005      -4.4828e-007    2.4191e-009    
  1.7             4.5091e-005     -4.473e-007     -7.171e-010    
  1.75            4.5812e-005     -3.8385e-007    -1.4332e-009   
  1.8             4.6249e-005     -4.5249e-007    2.6405e-009    
  1.85            4.6835e-005     -4.5296e-007    -9.921e-010    
  1.9             4.7484e-005     -3.869e-007     -1.3547e-009   
  1.95            4.7901e-005     -4.5661e-007    2.8167e-009    
  2               4.8542e-005     -4.5812e-007    -1.278e-009    
  2.05            4.9067e-005     -3.968e-007     -1.3116e-009   
  2.1             4.9502e-005     -4.6162e-007    2.8693e-009    
  2.15            5.015e-005      -4.6663e-007    -1.5932e-009   
  2.2             5.0579e-005     -4.1317e-007    -1.5526e-009   
  2.25            5.1053e-005     -4.6086e-007    2.4954e-009    
  2.3             5.1547e-005     -4.6156e-007    -8.225e-010    
  2.35            5.2196e-005     -3.9794e-007    -1.3979e-009   
  2.4             5.2568e-005     -4.6917e-007    2.7089e-009    
  2.45            5.311e-005      -4.7273e-007    -1.0924e-009   
  2.5             5.3682e-005     -4.1049e-007    -1.3369e-009   
  2.55            5.406e-005      -4.8356e-007    2.8485e-009    
  2.6             5.4655e-005     -4.9004e-007    -1.3914e-009   
  2.65            5.509e-005      -4.3551e-007    -1.7539e-009   
  2.7             5.5496e-005     -4.9412e-007    2.3609e-009    
  2.75            5.5942e-005     -4.9971e-007    -5.978e-010    
  2.8             5.6596e-005     -4.4394e-007    -1.4778e-009   
  2.85            5.6943e-005     -5.2321e-007    2.5704e-009    
  2.9             5.7423e-005     -5.3222e-007    -9.127e-010    
  2.95            5.8038e-005     -4.7698e-007    -1.3733e-009   
  3               5.8388e-005     -5.6057e-007    2.7757e-009    
  3.05            5.8936e-005     -5.7635e-007    -1.1971e-009   
  3.1             5.9456e-005     -5.2941e-007    -1.323e-009    
  3.15            5.983e-005      -6.1527e-007    2.8694e-009    
  3.2             6.0447e-005     -6.4126e-007    -1.4989e-009   
  3.25            6.0857e-005     -6.0789e-007    -1.6336e-009   
  3.3             6.1304e-005     -6.8477e-007    2.4333e-009    
  3.35            6.1777e-005     -7.137e-007     -7.393e-010    
  3.4             6.2441e-005     -6.824e-007     -1.4285e-009   
  3.45            6.2827e-005     -7.8976e-007    2.6554e-009    
  3.5             6.3366e-005     -8.3281e-007    -1.0146e-009   
  3.55            6.4001e-005     -8.117e-007     -1.3529e-009   
  3.6             6.4388e-005     -9.3372e-007    2.8227e-009    
  3.65            6.5044e-005     -9.9326e-007    -1.2991e-009   
  3.7             6.56e-005       -9.9292e-007    -1.8741e-009   
  3.75            6.6052e-005     -1.11713e-006   2.3006e-009    
  3.8             6.6215e-005     -7.3937e-007    -1.1887e-009   
  3.85            6.6753e-005     -8.1349e-007    2.4802e-009    
  3.9             6.7458e-005     -9.1535e-007    -1.9829e-009   
  3.95            6.8122e-005     -9.9331e-007    1.352e-010     
  4               6.8611e-005     -1.13147e-006   2.0105e-009    
  4.05            6.943e-005      -1.2129e-006    -1.9089e-009   
  4.1             7.0005e-005     -1.3461e-006    2.2892e-009    
  4.15            7.0706e-005     -1.5043e-006    -4.766e-010    
  4.2             7.157e-005      -1.6226e-006    -1.5528e-009   
  4.25            7.2205e-005     -1.7918e-006    2.4932e-009    
  4.3             7.2995e-005     -1.9863e-006    -8.188e-010    
  4.35            7.3913e-005     -2.1328e-006    -1.3988e-009   
  4.4             7.4616e-005     -2.3465e-006    2.711e-009     
  4.45            7.5563e-005     -2.5807e-006    -1.0864e-009   
  4.5             7.6497e-005     -2.7648e-006    -1.3363e-009   
  4.55            7.7294e-005     -3.0315e-006    2.8494e-009    
  4.6             7.842e-005      -3.3126e-006    -1.3806e-009   
  4.65            7.9376e-005     -3.5441e-006    -1.757e-009    
  4.7             8.03e-005       -3.8511e-006    2.3604e-009    
  4.75            8.1398e-005     -4.1918e-006    -5.993e-010    
  4.8             8.265e-005      -4.4872e-006    -1.477e-009    
  4.85            8.37e-005       -4.849e-006     2.5693e-009    
  4.9             8.4969e-005     -5.2475e-006    -9.129e-010    
  4.95            8.6347e-005     -5.5985e-006    -1.3736e-009   
  5               8.7553e-005     -6.037e-006     2.7719e-009    
END_DB

BEGIN_DB
 ICCAP_VAR VG         2              
 ICCAP_VAR VS         0              
 ICCAP_VAR VB         0              

 #VD              ID              IB              IG             
  0               -2.2475e-007    -1.1457e-008    1.0547e-009    
  0.05            1.4839e-005     -7.496e-009     -1.3219e-009   
  0.1             2.916e-005      1.1097e-008     7.117e-010     
  0.15            4.2848e-005     -2.4748e-008    1.3854e-009    
  0.2             5.584e-005      -1.1354e-008    -2.366e-010    
  0.25            6.8025e-005     1.8886e-008     -1.75e-009     
  0.3             7.9286e-005     2.63e-008       -1.3959e-009   
  0.35            8.957e-005      1.0696e-008     3.11e-010      
  0.4             9.8839e-005     -1.9419e-008    1.7494e-009    
  0.45            0.000107283     -1.1183e-008    -1.0215e-009   
  0.5             0.00011472      2.7631e-008     2.0389e-009    
  0.55            0.00012126      -1.2942e-008    2.077e-010     
  0.6             0.00012718      1.4539e-008     -2.1942e-009   
  0.65            0.00013215      1.096e-008      7.266e-010     
  0.7             0.0001365       -2.5576e-008    1.3263e-009    
  0.75            0.00014047      -1.1723e-008    -5.577e-010    
  0.8             0.00014396      2.4936e-008     -1.441e-009    
  0.85            0.00014696      1.0699e-008     3.035e-010     
  0.9             0.00014952      -2.1153e-008    1.6058e-009    
  0.95            0.00015216      -1.0753e-008    -1.2447e-009   
  1               0.00015437      2.2445e-008     -1.775e-009    
  1.05            0.0001563       1.0571e-008     9.924e-010     
  1.1             0.00015818      -2.3591e-008    1.2656e-009    
  1.15            0.00015992      -2.5269e-008    1.3429e-009    
  1.2             0.0001616       -1.1648e-008    -5.094e-010    
  1.25            0.00016332      2.4359e-008     -1.4611e-009   
  1.3             0.00016472      1.0731e-008     2.55e-010      
  1.35            0.00016593      -2.0413e-008    1.6537e-009    
  1.4             0.00016747      -1.0685e-008    -1.2015e-009   
  1.45            0.00016876      2.3567e-008     -1.8237e-009   
  1.5             0.00016994      2.678e-008      -1.3813e-009   
  1.55            0.00017085      1.0761e-008     1.579e-009     
  1.6             0.00017208      -1.8311e-008    2.0296e-009    
  1.65            0.00017314      -2.5233e-008    1.3437e-009    
  1.7             0.00017425      -1.1562e-008    -4.958e-010    
  1.75            0.00017542      2.4082e-008     -1.4665e-009   
  1.8             0.00017614      1.0544e-008     1.3168e-009    
  1.85            0.00017715      -1.6389e-008    1.6639e-009    
  1.9             0.00017827      -1.0858e-008    -1.1915e-009   
  1.95            0.00017918      1.1795e-008     -2.4927e-009   
  2               0.00017988      9.746e-009      2.0308e-009    
  2.05            0.00018074      -1.2202e-008    -2.164e-010    
  2.1             0.00018176      1.9004e-008     -1.6254e-009   
  2.15            0.0001824       8.19e-009       1.1038e-009    
  2.2             0.00018322      -2.3581e-008    2.0085e-009    
  2.25            0.00018413      -1.4916e-008    -9.83e-010     
  2.3             0.00018498      6.864e-009      -2.6586e-009   
  2.35            0.00018573      1.0854e-008     -1.9363e-009   
  2.4             0.00018648      5.008e-009      -2.4052e-009   
  2.45            0.00018721      1.23e-009       -2.6743e-009   
  2.5             0.00018791      3.128e-009      -1.9851e-009   
  2.55            0.00018849      -6.928e-009     2.3247e-009    
  2.6             0.0001892       -3.2919e-008    -6.875e-010    
  2.65            0.00019001      -4.81e-010      -1.4042e-009   
  2.7             0.00019057      -2.4529e-008    2.7714e-009    
  2.75            0.00019139      -5.0782e-008    -1.3244e-009   
  2.8             0.00019202      -2.801e-008     -1.6799e-009   
  2.85            0.00019256      -4.9696e-008    2.4804e-009    
  2.9             0.00019324      -8.1487e-008    -9.199e-010    
  2.95            0.00019398      -5.5903e-008    -1.3487e-009   
  3               0.00019454      -1.09674e-007   2.847e-009     
  3.05            0.00019516      -9.458e-008     3.155e-010     
  3.1             0.00019592      -1.2353e-007    -2.3568e-009   
  3.15            0.0001964       -1.5e-007       2.1345e-009    
  3.2             0.00019703      -1.9786e-007    -3.663e-010    
  3.25            0.00019785      -1.9414e-007    -1.5262e-009   
  3.3             0.00019836      -2.4288e-007    2.6004e-009    
  3.35            0.0001991       -3.0008e-007    -1.0636e-009   
  3.4             0.00019976      -3.0647e-007    -1.3198e-009   
  3.45            0.00020031      -3.7873e-007    2.8607e-009    
  3.5             0.00020113      -4.4705e-007    -1.7203e-009   
  3.55            0.00020175      -4.8484e-007    -1.348e-010    
  3.6             0.00020227      -5.8323e-007    2.271e-009     
  3.65            0.00020308      -6.5392e-007    -2.1614e-009   
  3.7             0.00020382      -7.1833e-007    5.544e-010     
  3.75            0.00020436      -8.4952e-007    1.3984e-009    
  3.8             0.00020524      -9.3908e-007    -2.6626e-009   
  3.85            0.0002059       -1.03931e-006   1.1763e-009    
  3.9             0.00020689      -1.1579e-006    -1.5393e-009   
  3.95            0.00020755      -1.3175e-006    2.5884e-009    
  4               0.00020845      -1.4947e-006    -1.0497e-009   
  4.05            0.00020938      -1.6307e-006    -1.3207e-009   
  4.1             0.00021013      -1.844e-006     2.8638e-009    
  4.15            0.00021122      -2.0735e-006    -1.7084e-009   
