! VERSION = 6.00
BEGIN_HEADER
 ICCAP_INPUTS
  VG         V  B GROUND SMU4 0.001 LIN        2    0          5          6    1         
  VS         V  E GROUND SMU2 0.1 CON        0
  VD         V  S GROUND SMU1 0.1 LIN        1    0          5          101  0.05      
  VB         V  C GROUND SMU3 0.1 LIN        3    0          -2.5       2    -2.5      
 ICCAP_OUTPUTS
  ID         I  S GROUND SMU1 B
  IB         I  C GROUND SMU3 B
  IG         I  B GROUND SMU4 B
END_HEADER

BEGIN_DB
 ICCAP_VAR VG         0              
 ICCAP_VAR VS         0              
 ICCAP_VAR VB         0              

 #VD              ID              IB              IG             
  0               -8.366e-010     1.1925e-008     -8.205e-010    
  0.05            2.016e-010      1.219e-008      -2.6983e-009   
  0.1             -1.3242e-009    9.17e-010       -1.9648e-009   
  0.15            -2.2995e-009    -1.154e-008     -6.35e-010     
  0.2             -1.5624e-009    -1.9716e-008    1.2735e-009    
  0.25            -1.147e-010     -1.2806e-008    2.9e-009       
  0.3             2.3486e-009     1.0778e-008     1.0874e-009    
  0.35            1.9061e-009     1.2108e-008     -1.5144e-009   
  0.4             -1.3906e-009    9.225e-009      -1.9097e-009   
  0.45            -2.2849e-009    -1.1265e-008    -5.3e-010      
  0.5             -1.4986e-009    -2.1854e-008    1.2883e-009    
  0.55            -3.9e-011       -1.1412e-008    2.926e-009     
  0.6             1.5292e-009     -3.96e-010      1.8464e-009    
  0.65            2.3292e-009     1.0554e-008     4.178e-010     
  0.7             1.3957e-009     2.6216e-008     -1.3601e-009   
  0.75            1.52e-011       1.1304e-008     -1.3281e-009   
  0.8             1.515e-010      1.1862e-008     -2.7229e-009   
  0.85            -1.3634e-009    6.82e-010       -1.9336e-009   
  0.9             -2.2909e-009    -1.1359e-008    -5.723e-010    
  0.95            -1.5234e-009    -2.0917e-008    1.2813e-009    
  1               -6.72e-011      -1.2033e-008    2.9218e-009    
  1.05            1.4844e-009     -4.76e-010      1.8845e-009    
  1.1             2.3437e-009     1.0599e-008     4.539e-010     
  1.15            1.4212e-009     2.5599e-008     -1.3518e-009   
  1.2             4.63e-011       1.1508e-008     -1.3239e-009   
  1.25            1.818e-010      1.2054e-008     -2.7106e-009   
  1.3             -1.3387e-009    8.68e-010       -1.9504e-009   
  1.35            -2.2916e-009    -1.1501e-008    -6.101e-010    
  1.4             -2.3001e-009    -1.1487e-008    -8.056e-010    
  1.45            -1.6371e-009    -1.6344e-008    2.0614e-009    
  1.5             1.9388e-009     -8.078e-009     1.5352e-009    
  1.55            2.1508e-009     1.0371e-008     1.064e-010     
  1.6             2.2565e-009     1.0446e-008     2.742e-010     
  1.65            2.3433e-009     1.055e-008      4.503e-010     
  1.7             1.4236e-009     2.566e-008      -1.3556e-009   
  1.75            4.26e-011       1.1519e-008     -1.3245e-009   
  1.8             1.751e-010      1.213e-008      -2.7116e-009   
  1.85            -1.3425e-009    8.65e-010       -1.9487e-009   
  1.9             -2.295e-009     -1.1429e-008    -6.087e-010    
  1.95            -1.5416e-009    -2.0359e-008    1.2771e-009    
  2               -8.95e-011      -1.2379e-008    2.9123e-009    
  2.05            2.355e-009      1.068e-008      1.0615e-009    
  2.1             2.2656e-009     1.113e-008      1.2106e-009    
  2.15            1.9826e-009     1.1258e-008     -2.235e-010    
  2.2             2.0667e-009     1.06e-008       -6.84e-011     
  2.25            2.1533e-009     1.0383e-008     1.035e-010     
  2.3             2.2626e-009     1.039e-008      2.796e-010     
  2.35            2.3457e-009     1.0586e-008     4.539e-010     
  2.4             5.422e-010      1.7808e-008     -2.3142e-009   
  2.45            -2.0752e-009    2.87e-009       -1.3367e-009   
  2.5             -1.9303e-009    -1.1603e-008    1.82e-010      
  2.55            -2.058e-009     -1.1176e-008    1.52e-011      
  2.6             -2.1726e-009    -1.099e-008     -1.601e-010    
  2.65            -2.2479e-009    -1.106e-008     -3.587e-010    
  2.7             -2.2894e-009    -1.1391e-008    -5.616e-010    
  2.75            -1.5174e-009    -2.1223e-008    1.2816e-009    
  2.8             -6.51e-011      -1.1826e-008    2.9216e-009    
  2.85            1.4951e-009     -4.93e-010      1.8802e-009    
  2.9             2.3467e-009     1.0698e-008     4.548e-010     
  2.95            1.423e-009      2.5596e-008     -1.3546e-009   
  3               4.01e-011       1.1323e-008     -1.3228e-009   
  3.05            1.803e-010      1.2082e-008     -2.7134e-009   
  3.1             -1.3368e-009    8.51e-010       -1.9484e-009   
  3.15            -2.2959e-009    -1.1501e-008    -6.085e-010    
  3.2             -1.5424e-009    -2.0253e-008    1.2754e-009    
  3.25            -9.48e-011      -1.258e-008     2.9114e-009    
  3.3             2.3587e-009     1.0774e-008     1.0639e-009    
  3.35            2.2621e-009     1.1247e-008     1.2141e-009    
  3.4             1.9863e-009     1.1249e-008     -2.179e-010    
  3.45            2.0681e-009     1.0613e-008     -4.8e-011      
  3.5             2.1604e-009     1.0269e-008     1.208e-010     
  3.55            2.2656e-009     1.0495e-008     2.83e-010      
  3.6             2.3496e-009     1.0658e-008     4.656e-010     
  3.65            1.4283e-009     2.5453e-008     -1.3524e-009   
  3.7             4.92e-011       1.1371e-008     -1.3226e-009   
  3.75            1.814e-010      1.22e-008       -2.7053e-009   
  3.8             -1.3344e-009    8.48e-010       -1.9509e-009   
  3.85            -2.2972e-009    -1.1482e-008    -6.185e-010    
  3.9             -1.5465e-009    -2.0114e-008    1.2748e-009    
  3.95            -9.99e-011      -1.2614e-008    2.9089e-009    
  4               2.3536e-009     1.0692e-008     1.0683e-009    
  4.05            1.8965e-009     1.2131e-008     -1.5286e-009   
  4.1             -1.4064e-009    9.203e-009      -1.8997e-009   
  4.15            -2.2838e-009    -1.1231e-008    -5.126e-010    
  4.2             -1.4808e-009    -2.2386e-008    1.2902e-009    
  4.25            -2.96e-011      -1.1084e-008    2.9344e-009    
  4.3             1.5496e-009     -3.32e-010      1.8331e-009    
  4.35            2.3275e-009     1.052e-008      4.031e-010     
  4.4             2.3866e-009     1.0894e-008     5.799e-010     
  4.45            1.5222e-009     2.2837e-008     -1.3324e-009   
  4.5             1.426e-010      1.1563e-008     -2.735e-009    
  4.55            -2.208e-009     -1.1349e-008    -1.1311e-009   
  4.6             -2.1038e-009    -1.1751e-008    -1.2887e-009   
  4.65            -1.8996e-009    -1.1798e-008    2.223e-010     
  4.7             -2.0206e-009    -1.1286e-008    5e-011         
  4.75            -2.1409e-009    -1.1e-008       -1.047e-010    
  4.8             -2.231e-009     -1.1139e-008    -3.076e-010    
  4.85            -2.2801e-009    -1.1159e-008    -5.1e-010      
  4.9             -1.4835e-009    -2.2235e-008    1.2901e-009    
  4.95            -3.24e-011      -1.0876e-008    2.9328e-009    
  5               1.5565e-009     -2.4e-010       1.8227e-009    
END_DB

BEGIN_DB
 ICCAP_VAR VG         1              
 ICCAP_VAR VS         0              
 ICCAP_VAR VB         0              

 #VD              ID              IB              IG             
  0               -2.3382e-007    -1.1106e-008    1.0009e-009    
  0.05            1.8524e-005     -8.543e-009     -1.313e-009    
  0.1             3.085e-005      1.08e-008       7.83e-010      
  0.15            3.8842e-005     -2.554e-008     1.3499e-009    
  0.2             4.4941e-005     -1.1547e-008    -1.4619e-009   
  0.25            4.8907e-005     1.3383e-008     -2.3946e-009   
  0.3             5.1847e-005     1.0361e-008     4.651e-010     
  0.35            5.4108e-005     -2.2007e-008    1.576e-009     
  0.4             5.6406e-005     -1.1734e-008    3.31e-011      
  0.45            5.9234e-005     1.6704e-008     -2.1278e-009   
  0.5             6.0768e-005     1.0473e-008     6.642e-010     
  0.55            6.2298e-005     -2.4277e-008    1.4063e-009    
  0.6             6.4137e-005     -1.1342e-008    -1.589e-010    
  0.65            6.6418e-005     1.9627e-008     -1.8454e-009   
  0.7             6.7498e-005     1.106e-008      8.59e-010      
  0.75            6.889e-005      -2.6132e-008    1.3217e-009    
  0.8             7.1275e-005     -1.1731e-008    -1.5352e-009   
  0.85            7.2546e-005     1.8461e-008     -1.6142e-009   
  0.9             7.3921e-005     1.1781e-008     -8.75e-011     
  0.95            7.463e-005      -1.6805e-008    2.4256e-009    
  1               7.6421e-005     -1.1083e-008    -6.228e-010    
  1.05            7.8252e-005     2.4172e-008     -1.4699e-009   
  1.1             7.8662e-005     1.0763e-008     1.2036e-009    
  1.15            8.0288e-005     -2.2498e-008    2.1026e-009    
  1.2             8.1827e-005     -1.1304e-008    -8.461e-010    
  1.25            8.3506e-005     2.6622e-008     -1.3986e-009   
  1.3             8.3597e-005     1.0975e-008     1.3857e-009    
  1.35            8.527e-005      -1.8053e-008    1.7847e-009    
  1.4             8.6347e-005     -1.2492e-008    1.867e-010     
  1.45            8.8515e-005     1.4247e-008     -2.3495e-009   
  1.5             8.8863e-005     9.021e-009      2.0754e-009    
  1.55            9.0092e-005     -1.1425e-008    -9.89e-011     
  1.6             9.2044e-005     1.8748e-008     -1.9218e-009   
  1.65            9.2626e-005     1.0737e-008     8.059e-010     
  1.7             9.3492e-005     -2.5764e-008    1.3421e-009    
  1.75            9.5718e-005     -1.1696e-008    -1.4826e-009   
  1.8             9.6728e-005     1.3511e-008     -2.3619e-009   
  1.85            9.6957e-005     8.737e-009      2.0694e-009    
  1.9             9.8093e-005     -1.2314e-008    -8.92e-011     
  1.95            0.000100031     1.7308e-008     -1.9336e-009   
  2               0.000100515     9.171e-009      7.972e-010     
  2.05            0.000101339     -2.7938e-008    1.347e-009     
  2.1             0.000103527     -1.4841e-008    -1.4717e-009   
  2.15            0.000104483     9.218e-009      -2.3794e-009   
  2.2             0.00010546      1.5336e-008     -1.6633e-009   
  2.25            0.000106605     6.63e-009       -2.3184e-009   
  2.3             0.000107561     1.16e-009       -2.737e-009    
  2.35            0.000108707     2.214e-009      -2.2532e-009   
  2.4             0.000109285     -2.133e-008     -2.7935e-009   
  2.45            0.00010937      -9.174e-009     1.4251e-009    
  2.5             0.000110886     -4.2552e-008    1.7261e-009    
  2.55            0.000112294     -4.1257e-008    -2.4055e-009   
  2.6             0.000113307     -2.753e-008     6.466e-010     
  2.65            0.000113983     -4.9738e-008    1.822e-009     
  2.7             0.00011575      -6.5423e-008    -1.4695e-009   
  2.75            0.00011628      -5.8195e-008    2.7462e-009    
  2.8             0.00011776      -9.025e-008     -1.1518e-009   
  2.85            0.00011891      -6.7599e-008    -1.3122e-009   
  2.9             0.00011889      -1.2211e-007    1.574e-010     
  2.95            0.00011997      -1.5359e-007    1.2693e-009    
  3               0.00012144      -1.5479e-007    -2.7687e-009   
  3.05            0.00012141      -1.6316e-007    1.6433e-009    
  3.1             0.00012273      -2.1536e-007    1.917e-010     
  3.15            0.00012489      -2.1844e-007    -2.1964e-009   
  3.2             0.00012516      -2.5979e-007    2.2809e-009    
  3.25            0.00012608      -3.2099e-007    -5.264e-010    
  3.3             0.00012793      -3.2875e-007    -1.4497e-009   
  3.35            0.0001283       -3.9531e-007    2.788e-009     
  3.4             0.0001299       -4.7392e-007    -1.1979e-009   
  3.45            0.00013106      -4.9889e-007    -1.8739e-009   
  3.5             0.00013135      -5.8464e-007    2.4422e-009    
  3.55            0.00013266      -6.8614e-007    -7.832e-010    
  3.6             0.00013418      -7.3077e-007    -1.3803e-009   
  3.65            0.00013457      -8.4817e-007    2.9096e-009    
  3.7             0.00013659      -9.7928e-007    -1.4137e-009   
  3.75            0.00013736      -1.0637e-006    -1.6133e-009   
  3.8             0.00013866      -1.2059e-006    -2.4833e-009   
  3.85            0.00013874      -1.3458e-006    2.0912e-009    
  3.9             0.00014         -1.527e-006     -2.586e-010    
  3.95            0.00014203      -1.665e-006     -1.6057e-009   
  4               0.00014265      -1.8617e-006    2.6088e-009    
  4.05            0.00014417      -2.0962e-006    -9.936e-010    
  4.1             0.00014574      -2.2656e-006    -1.3369e-009   
  4.15            0.00014624      -2.5353e-006    2.9418e-009    
  4.2             0.00014849      -2.8297e-006    -1.6467e-009   
  4.25            0.00014934      -3.0784e-006    -2.366e-010    
  4.3             0.00014961      -3.4162e-006    2.4764e-009    
  4.35            0.00015183      -3.7532e-006    -2.114e-009    
  4.4             0.00015333      -4.0798e-006    4.287e-010     
  4.45            0.00015391      -4.5042e-006    1.4893e-009    
  4.5             0.000156        -4.9017e-006    -2.6839e-009   
  4.55            0.00015699      -5.2996e-006    1.0791e-009    
  4.6             0.00015871      -5.8269e-006    2.1219e-009    
  4.65            0.00016059      -6.2964e-006    -2.2914e-009   
  4.7             0.00016219      -6.7827e-006    6.507e-010     
  4.75            0.00016322      -7.4052e-006    1.355e-009     
  4.8             0.00016556      -7.9786e-006    -2.7801e-009   
  4.85            0.00016645      -8.5485e-006    1.2729e-009    
  4.9             0.00016859      -9.2758e-006    1.7765e-009    
  4.95            0.00017091      -9.9644e-006    -2.4999e-009   
  5               0.00017254      -1.06408e-005   8.703e-010     
END_DB

BEGIN_DB
 ICCAP_VAR VG         2              
 ICCAP_VAR VS         0              
 ICCAP_VAR VB         0              

 #VD              ID              IB              IG             
  0               -1.4011e-006    -7.295e-009     -2.1067e-009   
  0.05            0.00010353      2.4133e-008     1.5374e-009    
  0.1             0.00020227      -1.3492e-008    2.916e-010     
  0.15            0.00029641      1.3817e-008     -2.3267e-009   
  0.2             0.00038425      1.0378e-008     6.34e-010      
  0.25            0.00046516      -2.5224e-008    1.3655e-009    
  0.3             0.0005403       -1.1789e-008    -1.5717e-009   
  0.35            0.00060716      1.5141e-008     -1.5019e-009   
  0.4             0.00066605      1.0771e-008     1.2863e-009    
  0.45            0.00071854      -1.7325e-008    1.7626e-009    
  0.5             0.00076369      -1.2095e-008    3.29e-011      
  0.55            0.00080374      1.8242e-008     -1.9437e-009   
  0.6             0.0008364       1.385e-008      -2.256e-010    
  0.65            0.00086309      -1.6171e-008    2.4258e-009    
  0.7             0.00088701      -1.1014e-008    -7.568e-010    
  0.75            0.00090721      2.6728e-008     -1.3889e-009   
  0.8             0.00092324      1.0239e-008     4.726e-010     
  0.85            0.00093633      -2.3849e-008    1.4576e-009    
  0.9             0.0009503       -1.1392e-008    -1.4157e-009   
  0.95            0.00096067      1.8633e-008     -1.6229e-009   
  1               0.00096846      1.0778e-008     1.1469e-009    
  1.05            0.0009768       -1.2541e-008    2.7035e-009    
  1.1             0.00098489      -1.0888e-008    -4.96e-010     
  1.15            0.00099332      2.4321e-008     -1.4756e-009   
  1.2             0.00099776      1.0713e-008     1.3312e-009    
  1.25            0.00100392      -1.6488e-008    1.698e-009     
  1.3             0.00100944      -1.1903e-008    -1.34e-011     
  1.35            0.00101669      1.928e-008      -1.8816e-009   
  1.4             0.00102133      1.3265e-008     -1.796e-010    
  1.45            0.00102473      -1.6849e-008    2.3448e-009    
  1.5             0.00103057      -1.1091e-008    -8.138e-010    
  1.55            0.00103551      2.6971e-008     -1.3777e-009   
  1.6             0.00103887      1.028e-008      5.234e-010     
  1.65            0.00104201      -2.4509e-008    1.4275e-009    
  1.7             0.00104801      -1.1484e-008    -1.4562e-009   
  1.75            0.0010511       1.7521e-008     -1.579e-009    
  1.8             0.00105331      1.0665e-008     1.1898e-009    
  1.85            0.00105652      -1.3399e-008    2.6568e-009    
  1.9             0.00106102      -1.1211e-008    -5.477e-010    
  1.95            0.00106553      2.4514e-008     -1.4532e-009   
  2               0.00106658      1.0059e-008     1.3798e-009    
  2.05            0.00107035      -1.6827e-008    1.646e-009     
  2.1             0.0010749       -1.3146e-008    -1.2306e-009   
  2.15            0.00107818      9.165e-009      -2.4901e-009   
  2.2             0.00108071      1.7756e-008     -1.6522e-009   
  2.25            0.00108384      1.0792e-008     -2.1063e-009   
  2.3             0.00108671      3.558e-009      -2.5411e-009   
  2.35            0.00108901      5.04e-010       -1.3157e-009   
  2.4             0.00109074      -1.1204e-008    2.9135e-009    
  2.45            0.00109471      -3.1764e-008    -1.7499e-009   
  2.5             0.00109676      -1.4351e-008    -1.399e-010    
  2.55            0.00109785      -5.2587e-008    2.2981e-009    
  2.6             0.00110132      -5.5767e-008    -2.1975e-009   
  2.65            0.00110392      -4.8551e-008    5.385e-010     
  2.7             0.00110496      -9.9239e-008    1.4143e-009    
  2.75            0.00110826      -1.01397e-007   -6.241e-010    
  2.8             0.0011105       -9.1891e-008    1.6439e-009    
  2.85            0.00111307      -1.5421e-007    -2.5818e-009   
  2.9             0.00111467      -1.6736e-007    9.619e-010     
  2.95            0.00111676      -2.4199e-007    1.2728e-009    
  3               0.00111976      -2.6797e-007    -2.7899e-009   
  3.05            0.00112029      -3.0592e-007    1.5966e-009    
  3.1             0.00112321      -3.9248e-007    2.448e-010     
  3.15            0.00112718      -4.3648e-007    -2.2546e-009   
  3.2             0.00112787      -5.2506e-007    2.2441e-009    
  3.25            0.00113017      -6.4055e-007    -4.732e-010    
  3.3             0.0011334       -7.1514e-007    -1.4824e-009   
  3.35            0.0011354       -8.5559e-007    -2.2067e-009   
  3.4             0.0011363       -1.01729e-006   1.798e-010     
  3.45            0.0011406       -1.14936e-006   1.884e-010     
  3.5             0.0011426       -1.3665e-006    -1.4736e-009   
  3.55            0.001144        -1.5452e-006    2.7501e-009    
  3.6             0.0011469       -1.7952e-006    -1.1744e-009   
  3.65            0.0011494       -2.0183e-006    -1.9069e-009   
  3.7             0.0011504       -2.3259e-006    2.4129e-009    
  3.75            0.001153        -2.6738e-006    -7.604e-010    
  3.8             0.0011565       -3.0048e-006    -1.3868e-009   
  3.85            0.001158        -3.4322e-006    2.8851e-009    
  3.9             0.0011613       -3.9049e-006    -1.3908e-009   
  3.95            0.0011634       -4.3795e-006    -1.6395e-009   
  4               0.001165        -4.9538e-006    2.5667e-009    
  4.05            0.0011685       -5.6008e-006    -9.682e-010    
  4.1             0.001172        -6.2542e-006    -1.3381e-009   
  4.15            0.0011731       -7.0381e-006    2.9368e-009    
