! VERSION = 6.00
BEGIN_HEADER
 ICCAP_INPUTS
  VG         V  B GROUND SMU4 0.001 LIN        1    0          5          101  0.05      
  VS         V  E GROUND SMU2 0.1 CON        0
  VB         V  C GROUND SMU3 0.1 LIN        3    0          -5         3    -2.5      
  VD         V  S GROUND SMU1 0.1 LIN        2    0.1        5          2    4.9       
 ICCAP_OUTPUTS
  IG         I  B GROUND SMU4 B
  ID         I  S GROUND SMU1 B
  IB         I  C GROUND SMU3 B
END_HEADER

BEGIN_DB
 ICCAP_VAR VS         0              
 ICCAP_VAR VB         0              
 ICCAP_VAR VD         0.1            

 #VG              IG              ID              IB             
  0               -2.693e-010     -5.303e-010     -1.987e-008    
  0.05            -1.1e-010       2.0142e-009     1.0796e-008    
  0.1             5.43e-011       2.0969e-009     1.0379e-008    
  0.15            2.265e-010      2.2092e-009     1.0294e-008    
  0.2             4.134e-010      2.3101e-009     1.04e-008      
  0.25            5.963e-010      2.3816e-009     1.0845e-008    
  0.3             -1.3275e-009    1.5451e-009     2.2294e-008    
  0.35            -2.7253e-009    1.732e-010      1.1981e-008    
  0.4             -1.9523e-009    -1.3338e-009    5.33e-010      
  0.45            -6.323e-010     -2.2575e-009    -1.1398e-008   
  0.5             -8.307e-010     -2.1115e-009    -1.127e-008    
  0.55            2.0054e-009     -9.106e-010     -1.5866e-008   
  0.6             1.7039e-009     3.0381e-009     -9.001e-009    
  0.65            1.4943e-009     8.1453e-009     -9.379e-009    
  0.7             -1.3332e-009    2.0129e-008     -1.0854e-008   
  0.75            -2.5898e-009    4.7802e-008     1.1406e-008    
  0.8             -2.0171e-009    9.5078e-008     1.213e-009     
  0.85            6.114e-010      1.7867e-007     -1.2321e-008   
  0.9             -1.7394e-009    3.0078e-007     2.2159e-008    
  0.95            -1.4106e-009    4.6004e-007     6.88e-009      
  1               -1.326e-009     6.6101e-007     1.1176e-008    
  1.05            -2.5428e-009    8.9073e-007     1.1753e-008    
  1.1             -1.9363e-009    1.12896e-006    1.739e-009     
  1.15            -1.3948e-009    1.4235e-006     -1.0904e-008   
  1.2             -1.3203e-009    1.6493e-006     1.1078e-008    
  1.25            -2.4985e-009    1.9118e-006     1.2381e-008    
  1.3             -1.8797e-009    2.1703e-006     2.033e-009     
  1.35            -1.4579e-009    2.4324e-006     5.611e-009     
  1.4             -1.3411e-009    2.6922e-006     1.0378e-008    
  1.45            -2.6491e-009    2.9516e-006     1.1244e-008    
  1.5             -2.124e-009     3.2041e-006     8.38e-010      
  1.55            -1.5737e-009    3.4579e-006     3.975e-009     
  1.6             -1.3686e-009    3.7101e-006     8.694e-009     
  1.65            -2.744e-009     3.9601e-006     1.1642e-008    
  1.7             -2.3504e-009    4.2034e-006     4.86e-010      
  1.75            -1.7331e-009    4.451e-006      2.669e-009     
  1.8             -1.4097e-009    4.6914e-006     6.8e-009       
  1.85            -1.3236e-009    4.9319e-006     1.0845e-008    
  1.9             -2.5507e-009    5.1707e-006     1.1805e-008    
  1.95            -1.9598e-009    5.4019e-006     1.611e-009     
  2               -1.4873e-009    5.6352e-006     4.799e-009     
  2.05            -1.35e-009      5.8694e-006     1.0008e-008    
  2.1             -2.6901e-009    6.0972e-006     1.1136e-008    
  2.15            -2.1941e-009    6.3204e-006     6.5e-010       
  2.2             -1.619e-009     6.5474e-006     3.599e-009     
  2.25            -1.3795e-009    6.7707e-006     7.99e-009      
  2.3             -1.3133e-009    6.9909e-006     1.1567e-008    
  2.35            -2.434e-009     7.2125e-006     1.2944e-008    
  2.4             -1.8116e-009    7.4253e-006     2.477e-009     
  2.45            -1.4297e-009    7.6401e-006     6.247e-009     
  2.5             -1.3306e-009    7.853e-006      1.0528e-008    
  2.55            -2.6024e-009    8.0658e-006     1.1357e-008    
  2.6             -2.0332e-009    8.2706e-006     1.192e-009     
  2.65            -1.5244e-009    8.4804e-006     4.409e-009     
  2.7             -1.3566e-009    8.6861e-006     9.499e-009     
  2.75            -2.7152e-009    8.8896e-006     1.129e-008     
  2.8             -2.2762e-009    9.0918e-006     5.94e-010      
  2.85            -9.12e-010      9.289e-006      -1.1449e-008   
  2.9             -1.3082e-009    9.4877e-006     -1.1151e-008   
  2.95            -6.31e-011      9.6791e-006     -1.1397e-008   
  3               -5.518e-010     9.8742e-006     -1.0895e-008   
  3.05            -9.937e-010     1.00673e-005    -1.1498e-008   
  3.1             2.371e-010      1.02504e-005    -1.3134e-008   
  3.15            -1.608e-010     1.04432e-005    -1.1033e-008   
  3.2             -6.584e-010     1.06296e-005    -1.0947e-008   
  3.25            -1.0734e-009    1.0816e-005     -1.1387e-008   
  3.3             1.566e-010      1.09891e-005    -1.2345e-008   
  3.35            -2.729e-010     1.11738e-005    -1.0776e-008   
  3.4             -7.587e-010     1.13527e-005    -1.1082e-008   
  3.45            2.2372e-009     1.1537e-005     -1.2926e-008   
  3.5             1.0855e-009     1.171e-005      1.058e-008     
  3.55            -7.34e-011      1.1882e-005     1.1757e-008    
  3.6             3.397e-010      1.2053e-005     1.0186e-008    
  3.65            7.748e-010      1.222e-005      1.0768e-008    
  3.7             -1.5621e-009    1.2382e-005     1.756e-008     
  3.75            -1.3622e-009    1.2548e-005     9.172e-009     
  3.8             -2.7345e-009    1.2708e-005     1.1546e-008    
  3.85            -2.3225e-009    1.2865e-005     4.99e-010      
  3.9             -1.7187e-009    1.3023e-005     2.971e-009     
  3.95            -1.4036e-009    1.318e-005      6.996e-009     
  4               -1.3216e-009    1.3334e-005     1.1208e-008    
  4.05            -2.5296e-009    1.3486e-005     1.1808e-008    
  4.1             -1.9294e-009    1.3631e-005     1.764e-009     
  4.15            -1.4727e-009    1.3777e-005     5.133e-009     
  4.2             -1.3439e-009    1.3921e-005     1.0022e-008    
  4.25            -2.6718e-009    1.4067e-005     1.1122e-008    
  4.3             -2.1752e-009    1.4203e-005     8.07e-010      
  4.35            -1.5991e-009    1.4344e-005     3.751e-009     
  4.4             -1.3751e-009    1.4479e-005     8.373e-009     
  4.45            -1.3098e-009    1.4614e-005     1.1523e-008    
  4.5             -2.4157e-009    1.4749e-005     1.3245e-008    
  4.55            -8.293e-010     1.4875e-005     -1.1152e-008   
  4.6             -1.2185e-009    1.5001e-005     -1.1224e-008   
  4.65            1.74e-011       1.5122e-005     -1.1596e-008   
  4.7             -4.466e-010     1.5248e-005     -1.0794e-008   
  4.75            -9.081e-010     1.5369e-005     -1.1449e-008   
  4.8             1.5237e-009     1.5484e-005     -1.4397e-008   
  4.85            1.2886e-009     1.5609e-005     -8.899e-009    
  4.9             2.8696e-009     1.5727e-005     -9.888e-009    
  4.95            4.394e-010      1.5844e-005     1.0316e-008    
  5               8.712e-010      1.5954e-005     1.0903e-008    
END_DB

BEGIN_DB
 ICCAP_VAR VS         0              
 ICCAP_VAR VB         0              
 ICCAP_VAR VD         5              

 #VG              IG              ID              IB             
  0               -2.1302e-009    -2.2457e-009    1.5198e-008    
  0.05            -1.4825e-009    -1.9627e-009    3.74e-009      
  0.1             5e-012          -2.0389e-009    -1.0906e-008   
  0.15            -1.692e-010     -2.1615e-009    -1.0765e-008   
  0.2             -3.784e-010     -2.2531e-009    -1.1029e-008   
  0.25            -5.744e-010     -2.304e-009     -1.1331e-008   
  0.3             -7.746e-010     -2.3177e-009    -1.1391e-008   
  0.35            2.0989e-009     -1.6318e-009    -1.7031e-008   
  0.4             1.5348e-009     1.967e-009      -8.461e-009    
  0.45            1.115e-010      2.2023e-009     1.0243e-008    
  0.5             2.921e-010      2.4987e-009     1.0261e-008    
  0.55            4.723e-010      3.2482e-009     1.0537e-008    
  0.6             6.497e-010      5.5112e-009     1.0642e-008    
  0.65            -2.5636e-009    9.46e-009       -1.2234e-008   
  0.7             -1.9854e-009    2.486e-008      -5.56e-010     
  0.75            -1.9616e-009    6.0081e-008     -1.5776e-008   
  0.8             -1.6964e-009    1.3437e-007     -4.249e-009    
  0.85            -2.8159e-009    2.5194e-007     -2.2011e-008   
  0.9             -2.6601e-009    4.4675e-007     -2.9071e-008   
  0.95            -2.1684e-009    7.2903e-007     -4.2383e-008   
  1               -1.6006e-009    1.10521e-006    -5.8461e-008   
  1.05            -1.5804e-009    1.5858e-006     -9.2713e-008   
  1.1             6.809e-010      2.1569e-006     -1.2255e-007   
  1.15            1.5898e-009     2.8364e-006     -1.5195e-007   
  1.2             1.2997e-009     3.6195e-006     -1.7414e-007   
  1.25            2.895e-009      4.5006e-006     -2.0359e-007   
  1.3             2.5091e-009     5.4939e-006     -2.2517e-007   
  1.35            1.809e-009      6.5784e-006     -2.5891e-007   
  1.4             1.3627e-009     7.7609e-006     -2.9333e-007   
  1.45            1.2542e-009     9.0469e-006     -3.2058e-007   
  1.5             2.7274e-009     1.04189e-005    -3.5182e-007   
  1.55            -1.8249e-009    1.194e-005      -3.3875e-007   
  1.6             -2.0758e-009    1.3489e-005     -3.9828e-007   
  1.65            -2.4338e-009    1.5142e-005     -4.1849e-007   
  1.7             -2.7573e-009    1.6888e-005     -4.3582e-007   
  1.75            -2.795e-009     1.8724e-005     -4.4936e-007   
  1.8             -2.5436e-009    2.0651e-005     -4.6005e-007   
  1.85            -1.9694e-009    2.267e-005      -4.7056e-007   
  1.9             -1.4903e-009    2.4759e-005     -4.7664e-007   
  1.95            -1.3504e-009    2.6936e-005     -4.7938e-007   
  2               -2.6965e-009    2.9194e-005     -4.8257e-007   
  2.05            -2.2381e-009    3.1489e-005     -4.9613e-007   
  2.1             -1.6486e-009    3.3896e-005     -4.9441e-007   
  2.15            -1.3874e-009    3.6374e-005     -4.8866e-007   
  2.2             -1.3142e-009    3.8935e-005     -4.8219e-007   
  2.25            -2.4812e-009    4.1573e-005     -4.7648e-007   
  2.3             -1.8743e-009    4.4241e-005     -4.8023e-007   
  2.35            -1.4501e-009    4.6992e-005     -4.6892e-007   
  2.4             -1.3384e-009    4.9828e-005     -4.5555e-007   
  2.45            -2.6454e-009    5.2728e-005     -4.4388e-007   
  2.5             -2.1291e-009    5.5672e-005     -4.4309e-007   
  2.55            -1.5794e-009    5.8697e-005     -4.2817e-007   
  2.6             -1.3707e-009    6.1789e-005     -4.1046e-007   
  2.65            -1.306e-009     6.4933e-005     -3.9429e-007   
  2.7             -2.4009e-009    6.8144e-005     -3.7886e-007   
  2.75            -1.7729e-009    7.1384e-005     -3.7529e-007   
  2.8             -1.4208e-009    7.476e-005      -3.5662e-007   
  2.85            -1.3262e-009    7.815e-005      -3.3784e-007   
  2.9             -2.5892e-009    8.1557e-005     -3.22e-007     
  2.95            -2.0283e-009    8.5016e-005     -3.1749e-007   
  3               -1.5209e-009    8.8526e-005     -2.9926e-007   
  3.05            -1.3566e-009    9.2113e-005     -2.7965e-007   
  3.1             -2.7144e-009    9.5737e-005     -2.6344e-007   
  3.15            -2.2861e-009    9.9366e-005     -2.5996e-007   
  3.2             -1.691e-009     0.000103075     -2.4353e-007   
  3.25            -1.397e-009     0.000106832     -2.2563e-007   
  3.3             -1.3202e-009    0.000110624     -2.084e-007    
  3.35            1.3584e-009     0.00011441      -1.9495e-007   
  3.4             1.2552e-009     0.00011829      -2.034e-007    
  3.45            2.7185e-009     0.00012216      -1.957e-007    
  3.5             2.0858e-009     0.00012613      -1.7351e-007   
  3.55            1.48e-009       0.00013011      -1.6826e-007   
  3.6             1.2834e-009     0.00013411      -1.584e-007    
  3.65            2.8478e-009     0.0001381       -1.4942e-007   
  3.7             2.3813e-009     0.00014222      -1.306e-007    
  3.75            1.6882e-009     0.00014629      -1.2575e-007   
  3.8             1.3272e-009     0.00015041      -1.2078e-007   
  3.85            2.9264e-009     0.00015455      -1.118e-007    
  3.9             2.6235e-009     0.00015877      -9.586e-008    
  3.95            -1.6815e-009    0.00016306      -6.7411e-008   
  4               2.8245e-009     0.00016721      -9.232e-008    
  4.05            2.3104e-009     0.00017142      -7.6013e-008   
  4.1             1.6353e-009     0.00017568      -7.4571e-008   
  4.15            1.3166e-009     0.00017992      -7.2242e-008   
  4.2             2.9152e-009     0.00018424      -6.6379e-008   
  4.25            2.5787e-009     0.00018859      -5.3297e-008   
  4.3             1.9047e-009     0.0001929       -5.1754e-008   
  4.35            1.3994e-009     0.00019725      -5.3328e-008   
  4.4             1.265e-009      0.00020162      -4.8673e-008   
  4.45            2.7823e-009     0.00020605      -4.8252e-008   
  4.5             2.209e-009      0.00021051      -3.4601e-008   
  4.55            1.5562e-009     0.0002149       -3.7114e-008   
  4.6             1.2957e-009     0.0002193       -3.5859e-008   
  4.65            2.8892e-009     0.0002237       -3.3697e-008   
  4.7             2.4915e-009     0.00022817      -2.286e-008    
  4.75            1.7986e-009     0.00023261      -2.4256e-008   
  4.8             1.3597e-009     0.00023706      -2.735e-008    
  4.85            1.2579e-009     0.00024152      -2.4798e-008   
  4.9             2.7239e-009     0.00024599      -2.7285e-008   
  4.95            2.0887e-009     0.00025048      -1.5265e-008   
  5               1.4854e-009     0.00025496      -1.9569e-008   
END_DB

BEGIN_DB
 ICCAP_VAR VS         0              
 ICCAP_VAR VB         -2.5           
 ICCAP_VAR VD         0.1            

 #VG              IG              ID              IB             
  0               2.2608e-009     2.2925e-009     5.1e-010       
  0.05            1.4192e-009     2.0802e-009     -6.713e-009    
  0.1             1.02e-011       2.0702e-009     1.0279e-008    
  0.15            1.742e-010      2.1685e-009     1.0235e-008    
  0.2             3.425e-010      2.2766e-009     1.0441e-008    
  0.25            5.172e-010      2.3581e-009     1.0761e-008    
  0.3             6.886e-010      2.4031e-009     1.0893e-008    
  0.35            8.571e-010      2.4056e-009     1.0597e-008    
  0.4             -1.7416e-009    1.7456e-009     1.5686e-008    
  0.45            -1.7383e-009    -1.6498e-009    6.705e-009     
  0.5             -2.729e-010     -2.2096e-009    -1.0818e-008   
  0.55            -4.71e-010      -2.2768e-009    -1.1002e-008   
  0.6             -6.586e-010     -2.3113e-009    -1.152e-008    
  0.65            -8.468e-010     -2.3126e-009    -1.1335e-008   
  0.7             -9.964e-010     -2.2793e-009    -1.1176e-008   
  0.75            1.7194e-009     -1.7288e-009    -1.3039e-008   
  0.8             1.7594e-009     1.6341e-009     -9.373e-009    
  0.85            1.9364e-009     1.4109e-009     1.0011e-008    
  0.9             5.144e-010      2.3553e-009     1.0701e-008    
  0.95            -1.3397e-009    1.4701e-009     2.4646e-008    
  1               -1.3138e-009    1.028e-010      1.142e-008     
  1.05            -2.6831e-009    2.407e-010      1.2716e-008    
  1.1             -1.9878e-009    -1.2645e-009    6.66e-010      
  1.15            -6.97e-010      -2.1214e-009    -1.1406e-008   
  1.2             1.2974e-009     -5.124e-010     -1.129e-008    
  1.25            1.264e-009      3.6614e-009     -9.519e-009    
  1.3             2.6606e-009     1.3203e-008     2.7987e-008    
  1.35            2.0288e-009     3.1845e-008     -2.623e-009    
  1.4             1.461e-009      6.4979e-008     -8.67e-009     
  1.45            -2.1404e-009    1.1461e-007     2.2147e-008    
  1.5             -5.3e-012       1.9148e-007     -1.1613e-008   
  1.55            -4.672e-010     3.0405e-007     -1.0847e-008   
  1.6             -9.163e-010     4.5891e-007     -1.1451e-008   
  1.65            1.5201e-009     6.4464e-007     -1.4239e-008   
  1.7             1.2937e-009     8.5833e-007     -8.874e-009    
  1.75            2.881e-009      1.08663e-006    -9.593e-009    
  1.8             2.1811e-009     1.3281e-006     1.1879e-008    
  1.85            -7.72e-011      1.5743e-006     1.1834e-008    
  1.9             3.292e-010      1.8201e-006     1.0242e-008    
  1.95            7.559e-010      2.0648e-006     1.0668e-008    
  2               -1.5907e-009    2.3124e-006     1.8365e-008    
  2.05            -1.3748e-009    2.5582e-006     8.305e-009     
  2.1             -1.3079e-009    2.8046e-006     1.1342e-008    
  2.15            -2.4191e-009    3.0492e-006     1.3025e-008    
  2.2             -8.192e-010     3.2848e-006     -1.1132e-008   
  2.25            1.6558e-009     3.5219e-006     -1.6254e-008   
  2.3             1.3203e-009     3.7634e-006     -9.259e-009    
  2.35            2.9164e-009     3.9973e-006     -8.643e-009    
  2.4             1.2637e-009     4.2334e-006     1.0532e-008    
  2.45            1.016e-010      4.4701e-006     1.0838e-008    
  2.5             5.284e-010      4.7002e-006     1.0366e-008    
  2.55            9.355e-010      4.9258e-006     1.0904e-008    
  2.6             1.3218e-009     5.149e-006      1.0643e-008    
  2.65            1.579e-010      5.3777e-006     1.0675e-008    
  2.7             5.892e-010      5.5983e-006     1.0367e-008    
  2.75            -1.7774e-009    5.8162e-006     2.2968e-008    
  2.8             -1.4226e-009    6.0365e-006     6.468e-009     
  2.85            -1.3272e-009    6.2525e-006     1.0818e-008    
  2.9             -2.5937e-009    6.4659e-006     1.1527e-008    
  2.95            -2.0367e-009    6.6753e-006     1.125e-009     
  3               -1.5345e-009    6.883e-006      4.173e-009     
  3.05            -1.3615e-009    7.0922e-006     9.036e-009     
  3.1             -2.7287e-009    7.296e-006      1.1355e-008    
  3.15            -2.3216e-009    7.4956e-006     5.74e-010      
  3.2             -8.789e-010     7.6935e-006     -1.1335e-008   
  3.25            -1.2539e-009    7.8944e-006     -1.1093e-008   
  3.3             -3e-012         8.0834e-006     -1.1612e-008   
  3.35            -4.767e-010     8.2797e-006     -1.084e-008    
  3.4             -9.221e-010     8.4726e-006     -1.1547e-008   
  3.45            1.521e-009      8.6553e-006     -1.4142e-008   
  3.5             1.2924e-009     8.8478e-006     -8.957e-009    
  3.55            2.8758e-009     9.0326e-006     -9.664e-009    
  3.6             4.29e-010       9.2206e-006     1.026e-008     
  3.65            8.508e-010      9.3989e-006     1.0923e-008    
  3.7             -1.5095e-009    9.5744e-006     1.5861e-008    
  3.75            -1.3551e-009    9.7522e-006     9.405e-009     
  3.8             -2.7059e-009    9.9274e-006     1.133e-008     
  3.85            -2.2604e-009    1.00954e-005    6.75e-010      
  3.9             -9.011e-010     1.02633e-005    -1.1411e-008   
  3.95            -1.2864e-009    1.0432e-005     -1.1008e-008   
  4               -3.83e-011      1.05928e-005    -1.154e-008    
  4.05            -5.177e-010     1.0757e-005     -1.0914e-008   
  4.1             -9.517e-010     1.09182e-005    -1.1424e-008   
  4.15            2.808e-010      1.10692e-005    -1.3742e-008   
