! VERSION = 6.00
BEGIN_HEADER
 ICCAP_INPUTS
  VG         V  B GROUND SMU4 0.001 LIN        1    0          5          101  0.05      
  VS         V  E GROUND SMU2 0.1 CON        0
  VB         V  C GROUND SMU3 0.1 LIN        3    0          -5         3    -2.5      
  VD         V  S GROUND SMU1 0.1 LIN        2    0.1        5          2    4.9       
 ICCAP_OUTPUTS
  IG         I  B GROUND SMU4 B
  ID         I  S GROUND SMU1 B
  IB         I  C GROUND SMU3 B
END_HEADER

BEGIN_DB
 ICCAP_VAR VS         0              
 ICCAP_VAR VB         0              
 ICCAP_VAR VD         0.1            

 #VG              IG              ID              IB             
  0               1.1508e-009     1.017e-009      1.5945e-008    
  0.05            2.0737e-009     -8.006e-010     -2.1281e-008   
  0.1             1.5098e-009     1.9312e-009     -8.227e-009    
  0.15            9.57e-011       2.0868e-009     1.0191e-008    
  0.2             2.476e-010      2.1837e-009     1.0358e-008    
  0.25            4.125e-010      2.2739e-009     1.0451e-008    
  0.3             5.688e-010      2.3372e-009     1.0852e-008    
  0.35            -1.3154e-009    1.4839e-009     2.388e-008     
  0.4             -2.7234e-009    1.247e-010      1.1488e-008    
  0.45            -1.8895e-009    -1.3831e-009    4.47e-010      
  0.5             -5.159e-010     -2.2294e-009    -1.1086e-008   
  0.55            -6.951e-010     -2.1953e-009    -1.1514e-008   
  0.6             1.2409e-009     -1.2965e-009    -1.9488e-008   
  0.65            2.8565e-009     1.65e-009       -1.3075e-008   
  0.7             1.165e-010      3.9703e-009     1.0276e-008    
  0.75            2.712e-010      6.1395e-009     1.0317e-008    
  0.8             4.28e-010       9.5428e-009     1.0365e-008    
  0.85            -1.7098e-009    1.0893e-008     -1.4667e-008   
  0.9             -1.3998e-009    1.7464e-008     6.782e-009     
  0.95            -1.3123e-009    2.5372e-008     1.0904e-008    
  1               -2.5687e-009    3.4366e-008     1.1356e-008    
  1.05            -2.0476e-009    4.2933e-008     1.073e-009     
  1.1             -1.5414e-009    5.3004e-008     4.237e-009     
  1.15            -1.3544e-009    6.3461e-008     8.802e-009     
  1.2             -2.7172e-009    7.4071e-008     1.1498e-008    
  1.25            -3.389e-010     8.3217e-008     -1.0794e-008   
  1.3             -8.011e-010     9.305e-008      -1.1103e-008   
  1.35            1.6785e-009     1.04763e-007    -1.7062e-008   
  1.4             -1.2682e-009    1.1351e-007     2.0777e-008    
  1.45            -2.01e-011      1.2555e-007     -1.1635e-008   
  1.5             -4.745e-010     1.3514e-007     -1.077e-008    
  1.55            -9.107e-010     1.4502e-007     -1.1359e-008   
  1.6             -1.2815e-009    1.5483e-007     -1.1113e-008   
  1.65            -3.12e-011      1.6665e-007     -1.158e-008    
  1.7             -4.893e-010     1.7605e-007     -1.0755e-008   
  1.75            -9.156e-010     1.8571e-007     -1.1464e-008   
  1.8             -1.2912e-009    1.9535e-007     -1.1125e-008   
  1.85            -3.85e-011      2.0688e-007     -1.1578e-008   
  1.9             -4.963e-010     2.1612e-007     -1.0802e-008   
  1.95            -9.24e-010      2.2549e-007     -1.1415e-008   
  2               -1.2965e-009    2.3491e-007     -1.119e-008    
  2.05            -5.07e-011      2.4618e-007     -1.1474e-008   
  2.1             -5.099e-010     2.5518e-007     -1.0791e-008   
  2.15            -9.298e-010     2.6435e-007     -1.1465e-008   
  2.2             -1.3029e-009    2.7355e-007     -1.1116e-008   
  2.25            -5.61e-011      2.8459e-007     -1.153e-008    
  2.3             -5.169e-010     2.9331e-007     -1.0824e-008   
  2.35            -9.397e-010     3.0225e-007     -1.1467e-008   
  2.4             -1.3132e-009    3.1119e-007     -1.1093e-008   
  2.45            -5.91e-011      3.22e-007       -1.1525e-008   
  2.5             -5.233e-010     3.3047e-007     -1.0794e-008   
  2.55            -9.473e-010     3.3918e-007     -1.1471e-008   
  2.6             2.933e-010      3.4957e-007     -1.419e-008    
  2.65            -6.41e-011      3.5838e-007     -1.1378e-008   
  2.7             -5.306e-010     3.6665e-007     -1.0825e-008   
  2.75            -9.532e-010     3.7508e-007     -1.1508e-008   
  2.8             2.887e-010      3.8541e-007     -1.4005e-008   
  2.85            -6.64e-011      3.9397e-007     -1.145e-008    
  2.9             -5.404e-010     4.0198e-007     -1.0869e-008   
  2.95            -9.602e-010     4.1012e-007     -1.1449e-008   
  3               2.807e-010      4.2001e-007     -1.3838e-008   
  3.05            -7.7e-011       4.2836e-007     -1.129e-008    
  3.1             -5.531e-010     4.36e-007       -1.0818e-008   
  3.15            -9.702e-010     4.4396e-007     -1.1441e-008   
  3.2             2.747e-010      4.5353e-007     -1.3773e-008   
  3.25            -9.13e-011      4.6152e-007     -1.1343e-008   
  3.3             -5.602e-010     4.6891e-007     -1.0781e-008   
  3.35            -9.758e-010     4.7653e-007     -1.1385e-008   
  3.4             2.652e-010      4.858e-007      -1.3687e-008   
  3.45            -9.58e-011      4.9351e-007     -1.1236e-008   
  3.5             -5.701e-010     5.0058e-007     -1.0822e-008   
  3.55            -9.85e-010      5.0793e-007     -1.1408e-008   
  3.6             2.607e-010      5.1693e-007     -1.3461e-008   
  3.65            -1.069e-010     5.2426e-007     -1.1252e-008   
  3.7             -5.811e-010     5.3104e-007     -1.0874e-008   
  3.75            -9.892e-010     5.3799e-007     -1.1503e-008   
  3.8             2.508e-010      5.4667e-007     -1.3528e-008   
  3.85            -1.125e-010     5.5364e-007     -1.1297e-008   
  3.9             -5.883e-010     5.6012e-007     -1.0842e-008   
  3.95            -9.953e-010     5.6674e-007     -1.1514e-008   
  4               2.474e-010      5.7511e-007     -1.3273e-008   
  4.05            -1.24e-010      5.8178e-007     -1.1218e-008   
  4.1             -5.972e-010     5.8785e-007     -1.0872e-008   
  4.15            -1.0035e-009    5.9414e-007     -1.1514e-008   
  4.2             2.393e-010      6.0218e-007     -1.3289e-008   
  4.25            -1.398e-010     6.0843e-007     -1.1187e-008   
  4.3             -6.102e-010     6.1419e-007     -1.0844e-008   
  4.35            -1.0127e-009    6.2017e-007     -1.149e-008    
  4.4             2.3e-010        6.2779e-007     -1.3154e-008   
  4.45            -1.453e-010     6.3382e-007     -1.1102e-008   
  4.5             -6.154e-010     6.3929e-007     -1.0847e-008   
  4.55            -1.0179e-009    6.4484e-007     -1.1435e-008   
  4.6             2.268e-010      6.5215e-007     -1.3217e-008   
  4.65            -1.577e-010     6.5774e-007     -1.1146e-008   
  4.7             -6.27e-010      6.6279e-007     -1.0764e-008   
  4.75            -1.0259e-009    6.6805e-007     -1.14e-008     
  4.8             2.158e-010      6.7501e-007     -1.3079e-008   
  4.85            -1.617e-010     6.802e-007      -1.1071e-008   
  4.9             -6.323e-010     6.8499e-007     -1.081e-008    
  4.95            -1.028e-009     6.8984e-007     -1.1325e-008   
  5               2.124e-010      6.9653e-007     -1.3017e-008   
END_DB

BEGIN_DB
 ICCAP_VAR VS         0              
 ICCAP_VAR VB         0              
 ICCAP_VAR VD         5              

 #VG              IG              ID              IB             
  0               6.843e-010      7.186e-010      2.7325e-008    
  0.05            1.9981e-009     -1.6255e-009    -1.5703e-008   
  0.1             1.5435e-009     1.867e-009      -8.743e-009    
  0.15            1.266e-010      2.1038e-009     1.0308e-008    
  0.2             2.749e-010      2.2017e-009     1.043e-008     
  0.25            4.402e-010      2.286e-009      1.0448e-008    
  0.3             5.924e-010      2.3413e-009     1.0757e-008    
  0.35            -1.3175e-009    1.5001e-009     2.2887e-008    
  0.4             -2.7195e-009    1.455e-010      1.1651e-008    
  0.45            -1.8973e-009    -1.365e-009     5.51e-010      
  0.5             -5.263e-010     -2.2275e-009    -1.1069e-008   
  0.55            -7.068e-010     -2.1854e-009    -1.1437e-008   
  0.6             1.2445e-009     -1.2681e-009    -1.8701e-008   
  0.65            2.8582e-009     1.7509e-009     -1.3156e-008   
  0.7             1.116e-010      4.2502e-009     1.0216e-008    
  0.75            2.674e-010      6.8185e-009     1.0096e-008    
  0.8             4.263e-010      1.11589e-008    9.813e-009     
  0.85            -2.6492e-009    1.4282e-008     -2.6929e-008   
  0.9             -2.2082e-009    2.3709e-008     -4.43e-010     
  0.95            -9.111e-010     3.5316e-008     -1.327e-008    
  1               -1.276e-009     5.1307e-008     -1.3718e-008   
  1.05            -1.6794e-009    7.1515e-008     -1.5737e-008   
  1.1             -1.9573e-009    9.6091e-008     -1.527e-008    
  1.15            -6.093e-010     1.2387e-007     6.189e-009     
  1.2             -1.0088e-009    1.552e-007      -1.7436e-008   
  1.25            -1.3861e-009    1.9056e-007     -1.8516e-008   
  1.3             -1.7729e-009    2.3025e-007     -2.0119e-008   
  1.35            -2.0164e-009    2.7401e-007     -1.9211e-008   
  1.4             -2.331e-009     3.2118e-007     -1.9105e-008   
  1.45            -2.6784e-009    3.7207e-007     -1.7935e-008   
  1.5             -1.773e-009     4.2617e-007     -2.3516e-008   
  1.55            -2.0222e-009    4.8498e-007     -2.2405e-008   
  1.6             -2.3358e-009    5.4734e-007     -2.2092e-008   
  1.65            -2.681e-009     6.1342e-007     -2.059e-008    
  1.7             -2.784e-009     6.8335e-007     -1.8979e-008   
  1.75            -2.0222e-009    7.5662e-007     -2.4585e-008   
  1.8             -2.3328e-009    8.3411e-007     -2.3656e-008   
  1.85            -2.6774e-009    9.1522e-007     -2.193e-008    
  1.9             -2.7864e-009    1.00024e-006    -1.9908e-008   
  1.95            -2.0186e-009    1.08837e-006    -2.5216e-008   
  2               2.17e-010       1.1808e-006     -9.169e-009    
  2.05            -1.512e-010     1.2766e-006     -2.6062e-008   
  2.1             -6.236e-010     1.3759e-006     -2.5538e-008   
  2.15            -1.021e-009     1.48e-006       -2.568e-008    
  2.2             -1.4047e-009    1.5878e-006     -2.5371e-008   
  2.25            -1.7868e-009    1.6987e-006     -2.5707e-008   
  2.3             -2.0294e-009    1.8126e-006     -2.3513e-008   
  2.35            -2.347e-009     1.9308e-006     -2.2152e-008   
  2.4             -2.6834e-009    2.0522e-006     -1.9644e-008   
  2.45            -2.781e-009     2.1779e-006     -1.6967e-008   
  2.5             -2.0273e-009    2.3069e-006     -2.1691e-008   
  2.55            -2.3494e-009    2.4394e-006     -2.0257e-008   
  2.6             -1.4077e-009    2.5765e-006     -2.1843e-008   
  2.65            -1.7869e-009    2.7163e-006     -2.2006e-008   
  2.7             -2.0313e-009    2.8591e-006     -1.9545e-008   
  2.75            -2.3552e-009    3.0056e-006     -1.8227e-008   
  2.8             -1.4141e-009    3.1597e-006     -1.9765e-008   
  2.85            -1.7892e-009    3.3143e-006     -1.996e-008    
  2.9             -2.0355e-009    3.4706e-006     -1.7358e-008   
  2.95            -1.0321e-009    3.632e-006      -1.8081e-008   
  3               -1.4203e-009    3.7983e-006     -1.7786e-008   
  3.05            -1.7978e-009    3.9661e-006     -1.7953e-008   
  3.1             -2.0348e-009    4.1357e-006     -1.5477e-008   
  3.15            -1.0351e-009    4.3112e-006     -1.6332e-008   
  3.2             -1.4185e-009    4.4916e-006     -1.6028e-008   
  3.25            -1.797e-009     4.6725e-006     -1.6254e-008   
  3.3             -2.037e-009     4.8565e-006     -1.3707e-008   
  3.35            -1.0334e-009    5.044e-006      -1.4728e-008   
  3.4             -1.4162e-009    5.2381e-006     -1.444e-008    
  3.45            -1.7926e-009    5.4332e-006     -1.4674e-008   
  3.5             -6.44e-010      5.6281e-006     -1.3447e-008   
  3.55            -1.0331e-009    5.8303e-006     -1.3564e-008   
  3.6             -1.4235e-009    6.0377e-006     -1.3435e-008   
  3.65            -1.829e-010     6.24e-006       -1.3107e-008   
  3.7             -6.504e-010     6.4516e-006     -1.2428e-008   
  3.75            -1.0406e-009    6.6671e-006     -1.2587e-008   
  3.8             -1.4265e-009    6.886e-006      -1.2579e-008   
  3.85            -1.783e-010     7.1e-006        -1.2378e-008   
  3.9             -6.575e-010     7.3245e-006     -1.1768e-008   
  3.95            -1.0418e-009    7.5514e-006     -1.1921e-008   
  4               2.027e-010      7.7758e-006     -1.3515e-008   
  4.05            -1.831e-010     8.0076e-006     -1.1774e-008   
  4.1             -6.562e-010     8.2436e-006     -1.1341e-008   
  4.15            -1.0406e-009    8.482e-006      -1.1666e-008   
  4.2             1.973e-010      8.7171e-006     -1.3091e-008   
  4.25            -1.88e-010      8.9596e-006     -1.1563e-008   
  4.3             -6.558e-010     9.2058e-006     -1.109e-008    
  4.35            -1.048e-009     9.4555e-006     -1.1327e-008   
  4.4             1.945e-010      9.7005e-006     -1.3022e-008   
  4.45            -1.944e-010     9.9581e-006     -1.1392e-008   
  4.5             -6.668e-010     1.02146e-005    -1.1003e-008   
  4.55            1.8712e-009     1.04701e-005    -1.9497e-008   
  4.6             1.3927e-009     1.07309e-005    -9.397e-009    
  4.65            1.2579e-009     1.0992e-005     -8.817e-009    
  4.7             2.7653e-009     1.12553e-005    -1.1441e-008   
  4.75            -2.6014e-009    1.1533e-005     1.0632e-008    
  4.8             -2.1243e-009    1.1803e-005     9.21e-010      
  4.85            -1.6011e-009    1.2075e-005     3.338e-009     
  4.9             -1.3752e-009    1.2348e-005     7.785e-009     
  4.95            -1.2996e-009    1.2623e-005     1.1346e-008    
  5               -2.4577e-009    1.2902e-005     1.2298e-008    
END_DB

BEGIN_DB
 ICCAP_VAR VS         0              
 ICCAP_VAR VB         -2.5           
 ICCAP_VAR VD         0.1            

 #VG              IG              ID              IB             
  0               -1.2636e-009    -1.1166e-009    -1.1357e-008   
  0.05            -2.4144e-009    4.356e-010      1.6158e-008    
  0.1             -1.2118e-009    -2.1238e-009    2.165e-009     
  0.15            2.58e-010       -1.8114e-009    -1.2108e-008   
  0.2             1.134e-010      -1.9116e-009    -1.162e-008    
  0.25            -2.97e-011      -2.0291e-009    -1.1059e-008   
  0.3             -1.913e-010     -2.1321e-009    -1.1005e-008   
  0.35            -3.759e-010     -2.2095e-009    -1.09e-008     
  0.4             -5.542e-010     -2.2591e-009    -1.1103e-008   
  0.45            -7.31e-010      -2.2791e-009    -1.1249e-008   
  0.5             1.2422e-009     -1.579e-009     -1.7814e-008   
  0.55            2.8427e-009     -1.98e-010      -1.361e-008    
  0.6             1.398e-010      2.1132e-009     1.046e-008     
  0.65            3.032e-010      2.2106e-009     1.0313e-008    
  0.7             4.588e-010      2.2895e-009     1.0409e-008    
  0.75            -1.339e-009     1.3882e-009     2.5437e-008    
  0.8             -1.3072e-009    4.24e-011       1.143e-008     
  0.85            -2.7e-009       1.585e-010      1.1905e-008    
  0.9             -1.9093e-009    -1.3511e-009    5.25e-010      
  0.95            -5.67e-010      -2.2576e-009    -1.1161e-008   
  1               -7.48e-010      -2.2757e-009    -1.1392e-008   
  1.05            1.2392e-009     -1.5785e-009    -1.7813e-008   
  1.1             2.8431e-009     -1.911e-010     -1.359e-008    
  1.15            1.429e-010      2.1544e-009     1.0447e-008    
  1.2             3.02e-010       2.3863e-009     1.0334e-008    
  1.25            4.633e-010      2.9048e-009     1.0381e-008    
  1.3             -1.3386e-009    3.1111e-009     2.5353e-008    
  1.35            -1.3076e-009    3.8016e-009     1.1464e-008    
  1.4             -2.6968e-009    7.041e-009      1.1906e-008    
  1.45            1.4976e-009     1.0933e-008     -8.915e-009    
  1.5             1.2827e-009     1.763e-008      -9.018e-009    
  1.55            2.8417e-009     2.4276e-008     -9.861e-009    
  1.6             3.99e-010       3.2961e-008     1.0471e-008    
  1.65            8.091e-010      4.2176e-008     1.0723e-008    
  1.7             -1.5415e-009    4.9957e-008     1.7107e-008    
  1.75            -1.3575e-009    5.7018e-008     8.783e-009     
  1.8             -2.7139e-009    6.6841e-008     1.1741e-008    
  1.85            -3.529e-010     7.5247e-008     -1.1024e-008   
  1.9             -8.136e-010     8.4426e-008     -1.1071e-008   
  1.95            1.6654e-009     9.5429e-008     -1.6443e-008   
  2               1.3273e-009     1.07401e-007    -9.277e-009    
  2.05            -2.2753e-009    1.1492e-007     1.6846e-008    
  2.1             -1.3356e-009    1.2306e-007     -1.123e-008    
  2.15            -8.91e-011      1.3433e-007     -1.1749e-008   
  2.2             -5.525e-010     1.4345e-007     -1.0961e-008   
  2.25            2.016e-009      1.5406e-007     -2.1565e-008   
  2.3             1.4643e-009     1.6595e-007     -8.284e-009    
  2.35            1.2775e-009     1.7545e-007     -8.971e-009    
  2.4             2.8225e-009     1.8493e-007     -1.0198e-008   
  2.45            4.256e-010      1.9553e-007     1.0495e-008    
  2.5             8.292e-010      2.0568e-007     1.0771e-008    
  2.55            -1.5232e-009    2.1385e-007     1.6669e-008    
  2.6             -1.354e-009     2.2103e-007     9.294e-009     
  2.65            -2.6973e-009    2.3069e-007     1.1594e-008    
  2.7             -2.3124e-009    2.3945e-007     6.78e-010      
  2.75            -1.7434e-009    2.4865e-007     2.651e-009     
  2.8             -1.4207e-009    2.581e-007      6.07e-009      
  2.85            -1.3217e-009    2.6738e-007     1.054e-008     
  2.9             -2.587e-009     2.7672e-007     1.1365e-008    
  2.95            -2.073e-009     2.8489e-007     9.19e-010      
  3               -1.5745e-009    2.9401e-007     3.646e-009     
  3.05            -1.369e-009     3.0299e-007     8.158e-009     
  3.1             -2.7342e-009    3.1202e-007     1.1547e-008    
  3.15            -2.908e-010     3.1962e-007     -1.1067e-008   
  3.2             -7.59e-010      3.2765e-007     -1.0907e-008   
  3.25            1.7351e-009     3.3737e-007     -1.7453e-008   
  3.3             1.3474e-009     3.4818e-007     -9.357e-009    
  3.35            2.907e-009      3.5633e-007     -8.609e-009    
  3.4             2.6677e-009     3.6512e-007     -3.25e-010     
  3.45            6.098e-010      3.7441e-007     1.0357e-008    
  3.5             -1.7357e-009    3.8135e-007     2.2289e-008    
  3.55            -1.4159e-009    3.8752e-007     6.333e-009     
  3.6             -1.3178e-009    3.9578e-007     1.0794e-008    
  3.65            -2.5726e-009    4.0408e-007     1.1544e-008    
  3.7             -2.0597e-009    4.1112e-007     1.039e-009     
  3.75            -1.5615e-009    4.1907e-007     3.964e-009     
  3.8             -1.3659e-009    4.2693e-007     8.395e-009     
  3.85            -2.7258e-009    4.3486e-007     1.158e-008     
  3.9             -3.056e-010     4.4129e-007     -1.1051e-008   
  3.95            -7.73e-010      4.4807e-007     -1.1002e-008   
  4               1.7227e-009     4.5657e-007     -1.7186e-008   
  4.05            1.3434e-009     4.6623e-007     -9.273e-009    
  4.1             2.9058e-009     4.7324e-007     -8.894e-009    
  4.15            2.6569e-009     4.8076e-007     -3.45e-010     
