! VERSION = 6.00
BEGIN_HEADER
 ICCAP_INPUTS
  VG         V  B GROUND SMU4 0.001 LIN        1    0          5          101  0.05      
  VS         V  E GROUND SMU2 0.1 CON        0
  VB         V  C GROUND SMU3 0.1 LIN        3    0          -5         3    -2.5      
  VD         V  S GROUND SMU1 0.1 LIN        2    0.1        5          2    4.9       
 ICCAP_OUTPUTS
  IG         I  B GROUND SMU4 B
  ID         I  S GROUND SMU1 B
  IB         I  C GROUND SMU3 B
END_HEADER

BEGIN_DB
 ICCAP_VAR VS         0              
 ICCAP_VAR VB         0              
 ICCAP_VAR VD         0.1            

 #VG              IG              ID              IB             
  0               1.23e-009       1.1415e-009     1.3296e-008    
  0.05            2.6194e-009     -5.877e-010     -1.8539e-008   
  0.1             1.2456e-009     2.2894e-009     -4.066e-009    
  0.15            -1.3992e-009    1.1769e-009     2.8394e-008    
  0.2             -1.1788e-009    -2.2202e-009    9.62e-009      
  0.25            3.303e-010      -1.853e-009     -9.757e-009    
  0.3             1.9648e-009     -8.856e-010     -1.9252e-008   
  0.35            1.6299e-009     1.8922e-009     -8.791e-009    
  0.4             1.7949e-009     1.5981e-009     1.0788e-008    
  0.45            3.918e-010      2.3347e-009     1.2717e-008    
  0.5             5.771e-010      2.4766e-009     1.2117e-008    
  0.55            7.431e-010      2.8629e-009     1.0709e-008    
  0.6             -1.3714e-009    3.6294e-009     1.9196e-008    
  0.65            -2.6697e-009    7.3447e-009     1.5379e-008    
  0.7             2.4662e-009     2.1869e-008     9.508e-009     
  0.75            1.6681e-009     6.2759e-008     -5.622e-009    
  0.8             -5.889e-010     1.48e-007       1.3103e-008    
  0.85            -1.001e-009     3.1076e-007     -1.1402e-008   
  0.9             2.913e-010      5.6165e-007     -1.1563e-008   
  0.95            1.4901e-009     9.0892e-007     -1.9959e-008   
  1               1.6146e-009     1.3283e-006     8.612e-009     
  1.05            2.0235e-009     1.8194e-006     1.0838e-008    
  1.1             8.836e-010      2.3479e-006     1.2039e-008    
  1.15            -1.4728e-009    2.8799e-006     1.425e-008     
  1.2             -1.3972e-009    3.3955e-006     8.519e-009     
  1.25            -2.6947e-009    3.9084e-006     1.278e-008     
  1.3             -2.3044e-009    4.3956e-006     9.23e-010      
  1.35            -1.6452e-009    4.8758e-006     3.656e-009     
  1.4             -1.3911e-009    5.3389e-006     6.795e-009     
  1.45            -1.386e-009     5.7857e-006     1.0145e-008    
  1.5             -2.5611e-009    6.2181e-006     1.4541e-008    
  1.55            -1.9406e-009    6.6306e-006     1.579e-009     
  1.6             -1.4433e-009    7.0347e-006     5.312e-009     
  1.65            -1.3975e-009    7.4268e-006     8.527e-009     
  1.7             -2.6817e-009    7.8092e-006     1.2894e-008    
  1.75            -2.2719e-009    8.1777e-006     9.05e-010      
  1.8             -1.6135e-009    8.5408e-006     3.586e-009     
  1.85            -1.3924e-009    8.8942e-006     7.163e-009     
  1.9             -2.7217e-009    9.2377e-006     1.0639e-008    
  1.95            2.1309e-009     9.567e-006      -2.4524e-008   
  2               1.4493e-009     9.8976e-006     -7.988e-009    
  2.05            2.8654e-009     1.02193e-005    -7.983e-009    
  2.1             2.1202e-009     1.05373e-005    1.0747e-008    
  2.15            9.582e-010      1.08492e-005    1.0846e-008    
  2.2             -2.558e-010     1.11506e-005    1.1881e-008    
  2.25            -6.421e-010     1.1451e-005     2.0986e-008    
  2.3             -1.0398e-009    1.1745e-005     -1.1098e-008   
  2.35            2.486e-010      1.2019e-005     -1.1013e-008   
  2.4             1.4475e-009     1.2307e-005     -2.0732e-008   
  2.45            1.3364e-009     1.2585e-005     -7.718e-009    
  2.5             2.8614e-009     1.2857e-005     -1.1263e-008   
  2.55            1.4329e-009     1.3127e-005     8.815e-009     
  2.6             -1.3877e-009    1.3395e-005     2.9368e-008    
  2.65            -2.5893e-009    1.3655e-005     1.3936e-008    
  2.7             -2.0187e-009    1.3906e-005     1.117e-009     
  2.75            -1.4723e-009    1.4162e-005     5.104e-009     
  2.8             -1.3875e-009    1.4412e-005     8.654e-009     
  2.85            -2.6874e-009    1.4658e-005     1.2337e-008    
  2.9             -2.3215e-009    1.4887e-005     1.035e-009     
  2.95            -1.6744e-009    1.5126e-005     3.255e-009     
  3               -1.3866e-009    1.5359e-005     6.952e-009     
  3.05            -1.3819e-009    1.5589e-005     1.0148e-008    
  3.1             -2.5595e-009    1.5823e-005     1.4186e-008    
  3.15            -1.9735e-009    1.6039e-005     1.303e-009     
  3.2             -1.4547e-009    1.626e-005      5.374e-009     
  3.25            -1.3891e-009    1.6473e-005     8.534e-009     
  3.3             -2.6755e-009    1.6691e-005     1.2647e-008    
  3.35            -2.2732e-009    1.6895e-005     9.29e-010      
  3.4             -1.6282e-009    1.7106e-005     3.659e-009     
  3.45            -1.3844e-009    1.731e-005      7.226e-009     
  3.5             -2.7208e-009    1.7513e-005     1.054e-008     
  3.55            2.1452e-009     1.7706e-005     -2.4819e-008   
  3.6             1.4538e-009     1.79e-005       -8.261e-009    
  3.65            2.8718e-009     1.8096e-005     -7.737e-009    
  3.7             2.86e-009       1.829e-005      1.75e-010      
  3.75            -1.6845e-009    1.8474e-005     2.1361e-008    
  3.8             -1.3861e-009    1.8661e-005     6.93e-009      
  3.85            -2.7232e-009    1.8847e-005     1.0226e-008    
  3.9             2.2082e-009     1.9021e-005     -2.5336e-008   
  3.95            1.4828e-009     1.9202e-005     -7.63e-009     
  4               2.8632e-009     1.9369e-005     -8.138e-009    
  4.05            2.8685e-009     1.9548e-005     3.29e-010      
  4.1             -1.7414e-009    1.9719e-005     2.2785e-008    
  4.15            -1.3934e-009    1.9886e-005     6.366e-009     
  4.2             -1.382e-009     2.0055e-005     9.574e-009     
  4.25            -2.5898e-009    2.0219e-005     1.379e-008     
  4.3             -2.0322e-009    2.0372e-005     1.061e-009     
  4.35            -1.4814e-009    2.0533e-005     5.004e-009     
  4.4             -1.385e-009     2.069e-005      8.424e-009     
  4.45            -2.6891e-009    2.085e-005      1.2205e-008    
  4.5             1.8555e-009     2.099e-005      -2.0149e-008   
  4.55            1.3554e-009     2.1146e-005     -9.276e-009    
  4.6             1.3306e-009     2.1294e-005     -8.009e-009    
  4.65            2.7836e-009     2.1442e-005     -1.452e-008    
  4.7             2.5928e-009     2.1583e-005     8.881e-009     
  4.75            -1.7688e-009    2.1726e-005     2.3576e-008    
  4.8             -1.3993e-009    2.1865e-005     6.244e-009     
  4.85            -1.3822e-009    2.2002e-005     9.344e-009     
  4.9             -2.5979e-009    2.2139e-005     1.3523e-008    
  4.95            -2.0566e-009    2.2268e-005     1.049e-009     
  5               -1.494e-009     2.2402e-005     5.045e-009     
END_DB

BEGIN_DB
 ICCAP_VAR VS         0              
 ICCAP_VAR VB         0              
 ICCAP_VAR VD         5              

 #VG              IG              ID              IB             
  0               1.18e-009       1.1148e-009     1.4261e-008    
  0.05            2.4129e-009     -7.153e-010     -1.8901e-008   
  0.1             1.377e-009      2.1764e-009     -6.113e-009    
  0.15            -1.3889e-009    1.2894e-009     2.8888e-008    
  0.2             -1.3078e-009    -2.149e-009     1.1504e-008    
  0.25            1.3834e-009     -1.2277e-009    -2.5932e-008   
  0.3             1.1011e-009     2.355e-009      -8.175e-009    
  0.35            -1.4909e-009    1.9723e-009     9.869e-009     
  0.4             7.51e-011       -1.8578e-009    8.636e-009     
  0.45            1.5237e-009     -2.323e-010     -2.4406e-008   
  0.5             1.3758e-009     3.7941e-009     -8.501e-009    
  0.55            2.8414e-009     1.4184e-008     1.7736e-008    
  0.6             2.8912e-009     4.5125e-008     -2.311e-009    
  0.65            -1.4007e-009    1.3616e-007     -1.0645e-008   
  0.7             -2.6571e-009    3.1704e-007     -2.531e-008    
  0.75            -2.2333e-009    6.5746e-007     -4.7981e-008   
  0.8             -9.789e-010     1.1878e-006     -9.252e-008    
  0.85            -1.3722e-009    1.9718e-006     -1.4413e-007   
  0.9             -1.7843e-009    3.0175e-006     -2.1191e-007   
  0.95            -2.0485e-009    4.3235e-006     -2.8975e-007   
  1               -2.4121e-009    5.9121e-006     -3.7982e-007   
  1.05            -2.721e-009     7.7612e-006     -4.7973e-007   
  1.1             -2.7457e-009    9.8863e-006     -5.8249e-007   
  1.15            2.6949e-009     1.2133e-005     -6.9748e-007   
  1.2             2.8664e-009     1.4563e-005     -7.843e-007    
  1.25            2.8669e-009     1.7125e-005     -8.979e-007    
  1.3             2.5116e-009     1.9788e-005     -1.0028e-006   
  1.35            1.7757e-009     2.2558e-005     -1.10641e-006  
  1.4             -3.543e-010     2.5452e-005     -1.1749e-006   
  1.45            -8.49e-010      2.8399e-005     -1.2995e-006   
  1.5             -1.2139e-009    3.1436e-005     -1.3816e-006   
  1.55            -1.6322e-009    3.4514e-005     -1.4594e-006   
  1.6             -1.9588e-009    3.7587e-005     -1.5334e-006   
  1.65            -2.2544e-009    4.073e-005      -1.597e-006    
  1.7             -2.638e-009     4.3919e-005     -1.6574e-006   
  1.75            -2.7538e-009    4.7168e-005     -1.7086e-006   
  1.8             -2.6995e-009    5.0423e-005     -1.7519e-006   
  1.85            -2.4041e-009    5.372e-005      -1.7908e-006   
  1.9             -1.774e-009     5.7037e-005     -1.8274e-006   
  1.95            -1.4086e-009    6.0379e-005     -1.8548e-006   
  2               -1.3835e-009    6.3757e-005     -1.8781e-006   
  2.05            -2.6067e-009    6.714e-005      -1.896e-006    
  2.1             -2.0866e-009    7.0489e-005     -1.9239e-006   
  2.15            -1.5214e-009    7.3899e-005     -1.9338e-006   
  2.2             -1.3885e-009    7.7299e-005     -1.9362e-006   
  2.25            -2.6996e-009    8.0762e-005     -1.9401e-006   
  2.3             -2.3649e-009    8.4177e-005     -1.9504e-006   
  2.35            -1.7342e-009    8.7653e-005     -1.9481e-006   
  2.4             -1.4019e-009    9.1088e-005     -1.9378e-006   
  2.45            -1.3811e-009    9.4571e-005     -1.9249e-006   
  2.5             -2.5868e-009    9.8063e-005     -1.9117e-006   
  2.55            -2.039e-009     0.000101505     -1.9074e-006   
  2.6             -1.4952e-009    0.00010505      -1.8885e-006   
  2.65            -1.3879e-009    0.000108519     -1.8646e-006   
  2.7             -2.6882e-009    0.000112071     -1.8442e-006   
  2.75            -2.5577e-009    0.00011563      -1.8419e-006   
  2.8             -2e-009         0.00011917      -1.8072e-006   
  2.85            -1.4825e-009    0.00012266      -1.7768e-006   
  2.9             -1.3885e-009    0.00012617      -1.7488e-006   
  2.95            -2.6801e-009    0.00012969      -1.7172e-006   
  3               -2.2963e-009    0.00013327      -1.7007e-006   
  3.05            -1.663e-009     0.00013675      -1.6696e-006   
  3.1             -1.3958e-009    0.00014026      -1.6367e-006   
  3.15            -1.3739e-009    0.00014387      -1.6022e-006   
  3.2             -2.5397e-009    0.00014739      -1.5674e-006   
  3.25            -1.9517e-009    0.00015087      -1.5494e-006   
  3.3             -1.4563e-009    0.0001544       -1.5131e-006   
  3.35            -1.3882e-009    0.00015792      -1.4782e-006   
  3.4             -2.6659e-009    0.00016145      -1.4414e-006   
  3.45            -2.2488e-009    0.00016501      -1.4217e-006   
  3.5             -1.6283e-009    0.00016852      -1.3878e-006   
  3.55            -1.3897e-009    0.00017203      -1.3499e-006   
  3.6             -1.369e-009     0.00017557      -1.3174e-006   
  3.65            -2.5036e-009    0.00017908      -1.2802e-006   
  3.7             -1.8909e-009    0.00018258      -1.2611e-006   
  3.75            -1.4421e-009    0.00018609      -1.2247e-006   
  3.8             -1.3879e-009    0.00018963      -1.1915e-006   
  3.85            -2.6527e-009    0.00019315      -1.1585e-006   
  3.9             -2.1978e-009    0.00019662      -1.1396e-006   
  3.95            -1.5861e-009    0.00020014      -1.1094e-006   
  4               -1.3868e-009    0.00020365      -1.0733e-006   
  4.05            -2.7163e-009    0.00020715      -1.0433e-006   
  4.1             -2.4551e-009    0.00021062      -1.0252e-006   
  4.15            2.0849e-009     0.00021405      -9.8754e-007   
  4.2             2.4455e-009     0.00021755      -9.6272e-007   
  4.25            2.7288e-009     0.00022102      -9.355e-007    
  4.3             2.8814e-009     0.00022451      -9.1296e-007   
  4.35            2.8512e-009     0.00022799      -8.9299e-007   
  4.4             2.4357e-009     0.00023152      -8.6888e-007   
  4.45            1.6816e-009     0.00023494      -8.4901e-007   
  4.5             1.3412e-009     0.00023841      -8.293e-007    
  4.55            2.8876e-009     0.00024184      -8.0604e-007   
  4.6             2.6848e-009     0.00024534      -7.7518e-007   
  4.65            2.036e-009      0.00024874      -7.5521e-007   
  4.7             1.4266e-009     0.00025219      -7.3917e-007   
  4.75            2.8848e-009     0.00025561      -7.1764e-007   
  4.8             2.8382e-009     0.00025906      -6.8927e-007   
  4.85            2.3836e-009     0.00026246      -6.7048e-007   
  4.9             1.6345e-009     0.00026586      -6.5512e-007   
  4.95            1.3404e-009     0.00026927      -6.3926e-007   
  5               2.889e-009      0.00027265      -6.1995e-007   
END_DB

BEGIN_DB
 ICCAP_VAR VS         0              
 ICCAP_VAR VB         -2.5           
 ICCAP_VAR VD         0.1            

 #VG              IG              ID              IB             
  0               -8.296e-010     -8.062e-010     -2.4722e-008   
  0.05            -1.379e-009     1.5653e-009     2.2172e-008    
  0.1             -2.6933e-009    1.749e-010      1.4155e-008    
  0.15            2.3392e-009     -1.5972e-009    -2.0482e-008   
  0.2             1.4173e-009     2.1344e-009     -6.632e-009    
  0.25            -1.3886e-009    1.3328e-009     2.8839e-008    
  0.3             -1.3562e-009    -2.1195e-009    1.1751e-008    
  0.35            1.717e-010      -1.985e-009     -1.1012e-008   
  0.4             1.6559e-009     -1.019e-009     -2.2398e-008   
  0.45            1.8185e-009     1.5998e-009     -8.889e-009    
  0.5             4.039e-010      2.3083e-009     1.2531e-008    
  0.55            5.915e-010      2.3476e-009     1.1966e-008    
  0.6             7.646e-010      2.3662e-009     1.0775e-008    
  0.65            -1.3609e-009    1.6554e-009     1.8762e-008    
  0.7             -2.6503e-009    2.807e-010      1.5442e-008    
  0.75            -1.0713e-009    -2.2386e-009    1.21e-009      
  0.8             1.6234e-009     -1.7729e-009    -1.0848e-008   
  0.85            1.8378e-009     1.6013e-009     -8.711e-009    
  0.9             4.29e-010       2.4793e-009     1.2601e-008    
  0.95            6.178e-010      3.0688e-009     1.2207e-008    
  1               7.904e-010      5.3017e-009     1.0644e-008    
  1.05            2.5178e-009     1.1674e-008     9.142e-009     
  1.1             1.7556e-009     3.543e-008      -5.062e-009    
  1.15            1.3507e-009     9.8552e-008     -9.289e-009    
  1.2             1.7e-011        2.2412e-007     8.658e-009     
  1.25            -5.1e-010       4.4552e-007     -1.269e-008    
  1.3             -9.481e-010     7.6511e-007     -1.2136e-008   
  1.35            2.8898e-009     1.1735e-006     2.8815e-008    
  1.4             -1.9294e-009    1.6675e-006     2.6707e-008    
  1.45            -1.4433e-009    2.1799e-006     5.325e-009     
  1.5             -1.3885e-009    2.704e-006      8.867e-009     
  1.55            -2.6509e-009    3.2256e-006     1.2826e-008    
  1.6             -2.1967e-009    3.7349e-006     9.79e-010      
  1.65            -1.577e-009     4.2266e-006     4.325e-009     
  1.7             -1.3851e-009    4.697e-006      7.936e-009     
  1.75            -2.713e-009     5.1607e-006     1.1323e-008    
  1.8             2.0274e-009     5.5864e-006     -2.2905e-008   
  1.85            1.4117e-009     6.0152e-006     -8.744e-009    
  1.9             1.332e-009      6.424e-006      -8.113e-009    
  1.95            2.8291e-009     6.8179e-006     -1.261e-008    
  2               -1.6055e-009    7.2117e-006     1.8934e-008    
  2.05            -1.3869e-009    7.5827e-006     7.643e-009     
  2.1             -2.7169e-009    7.944e-006      1.1316e-008    
  2.15            2.0579e-009     8.286e-006      -2.3354e-008   
  2.2             1.4264e-009     8.6249e-006     -8.547e-009    
  2.25            2.8858e-009     8.9553e-006     -7.927e-009    
  2.3             -1.3846e-009    9.2901e-006     2.8756e-008    
  2.35            -2.6111e-009    9.6085e-006     1.3153e-008    
  2.4             -2.091e-009     9.9148e-006     1.025e-009     
  2.45            -1.5154e-009    1.02174e-005    4.687e-009     
  2.5             -1.3875e-009    1.05124e-005    8.529e-009     
  2.55            -2.6958e-009    1.08091e-005    1.2181e-008    
  2.6             1.8978e-009     1.10825e-005    -2.0651e-008   
  2.65            1.3775e-009     1.13604e-005    -9.12e-009     
  2.7             -2.123e-010     1.1642e-005     -8.303e-009    
  2.75            -1.4507e-009    1.192e-005      2.1934e-008    
  2.8             -1.3865e-009    1.2183e-005     8.872e-009     
  2.85            -2.6578e-009    1.2444e-005     1.2827e-008    
  2.9             -2.1938e-009    1.2695e-005     1.14e-009      
  2.95            -1.5847e-009    1.2945e-005     4.115e-009     
  3               -1.3848e-009    1.3191e-005     7.903e-009     
  3.05            -2.7136e-009    1.3432e-005     1.1462e-008    
  3.1             2.0299e-009     1.3666e-005     -2.2895e-008   
  3.15            1.4183e-009     1.3902e-005     -8.505e-009    
  3.2             2.8877e-009     1.413e-005      -8.006e-009    
  3.25            -1.3841e-009    1.4363e-005     2.8841e-008    
  3.3             -2.6025e-009    1.4587e-005     1.3453e-008    
  3.35            -2.072e-009     1.4805e-005     1.108e-009     
  3.4             -1.5043e-009    1.5022e-005     4.777e-009     
  3.45            -1.3852e-009    1.5229e-005     8.416e-009     
  3.5             -2.6889e-009    1.5447e-005     1.2142e-008    
  3.55            1.8773e-009     1.5643e-005     -2.0238e-008   
  3.6             1.3739e-009     1.5849e-005     -9.242e-009    
  3.65            1.3304e-009     1.6051e-005     -8.035e-009    
  3.7             2.781e-009      1.625e-005      -1.4323e-008   
  3.75            6.51e-010       1.6446e-005     1.2478e-008    
  3.8             1.0366e-009     1.6638e-005     1.0136e-008    
  3.85            -1.724e-010     1.6825e-005     1.0786e-008    
  3.9             -1.4287e-009    1.7017e-005     2.2767e-008    
  3.95            -1.3831e-009    1.7196e-005     9.013e-009     
  4               -2.6346e-009    1.7377e-005     1.3028e-008    
  4.05            -2.1319e-009    1.7553e-005     1.039e-009     
  4.1             -1.5399e-009    1.7728e-005     4.672e-009     
  4.15            -1.3826e-009    1.7901e-005     8.33e-009      
