! VERSION = 6.00
BEGIN_HEADER
 ICCAP_INPUTS
  VG         V  B GROUND SMU4 0.001 LIN        1    0          5          101  0.05      
  VS         V  E GROUND SMU2 0.1 CON        0
  VB         V  C GROUND SMU3 0.1 LIN        3    0          -5         3    -2.5      
  VD         V  S GROUND SMU1 0.1 LIN        2    0.1        5          2    4.9       
 ICCAP_OUTPUTS
  IG         I  B GROUND SMU4 B
  ID         I  S GROUND SMU1 B
  IB         I  C GROUND SMU3 B
END_HEADER

BEGIN_DB
 ICCAP_VAR VS         0              
 ICCAP_VAR VB         0              
 ICCAP_VAR VD         0.1            

 #VG              IG              ID              IB             
  0               1.2426e-009     1.1739e-009     1.1282e-008    
  0.05            2.6106e-009     -2.941e-010     -1.7436e-008   
  0.1             2.2724e-009     1.7851e-009     -3.678e-009    
  0.15            9.408e-010      4.5246e-009     1.0947e-008    
  0.2             -1.619e-009     9.5426e-009     1.368e-008     
  0.25            1.4334e-009     2.6871e-008     1.1862e-008    
  0.3             1.2881e-009     8.5846e-008     -8.496e-009    
  0.35            -1.9314e-009    2.6469e-007     2.7983e-008    
  0.4             3.25e-010       7.3552e-007     -1.3292e-008   
  0.45            2.0545e-009     1.8232e-006     1.1222e-008    
  0.5             1.4468e-009     3.9754e-006     -8.929e-009    
  0.55            1.2916e-009     7.5541e-006     -8.54e-009     
  0.6             3.04e-011       1.3034e-005     -1.0237e-008   
  0.65            5.11e-010       1.9935e-005     1.0553e-008    
  0.7             -1.8215e-009    2.8261e-005     2.3844e-008    
  0.75            -1.4377e-009    3.7349e-005     6.225e-009     
  0.8             -1.3465e-009    4.6884e-005     1.0658e-008    
  0.85            -2.5499e-009    5.6439e-005     1.1604e-008    
  0.9             -1.9265e-009    6.5686e-005     1.749e-009     
  0.95            -1.4801e-009    7.4673e-005     5.386e-009     
  1               -1.3573e-009    8.3293e-005     9.919e-009     
  1.05            -2.6273e-009    9.1598e-005     1.1167e-008    
  1.1             -2.077e-009     9.9309e-005     9.58e-010      
  1.15            -1.5429e-009    0.000106703     4.319e-009     
  1.2             -1.3763e-009    0.000113758     9.451e-009     
  1.25            -1.3365e-009    0.00012057      7.777e-009     
  1.3             -2.4743e-009    0.00012704      1.2993e-008    
  1.35            -1.8427e-009    0.00013313      2.338e-009     
  1.4             -1.446e-009     0.00013903      6.122e-009     
  1.45            -1.3472e-009    0.00014474      1.0438e-008    
  1.5             -2.5661e-009    0.00015023      1.1571e-008    
  1.55            -1.9743e-009    0.00015548      1.605e-009     
  1.6             -1.4956e-009    0.00016056      5.223e-009     
  1.65            -1.3616e-009    0.00016553      9.982e-009     
  1.7             -2.6442e-009    0.00017037      1.1131e-008    
  1.75            -2.1323e-009    0.00017499      7.43e-010      
  1.8             -1.5697e-009    0.00017948      4.093e-009     
  1.85            -1.3786e-009    0.00018393      9.054e-009     
  1.9             -2.6998e-009    0.0001882       1.1271e-008    
  1.95            -2.2745e-009    0.00019237      4.52e-010      
  2               -1.6624e-009    0.00019642      3.184e-009     
  2.05            -1.3998e-009    0.00020039      7.971e-009     
  2.1             -2.7329e-009    0.00020428      1.1258e-008    
  2.15            -2.4026e-009    0.00020806      3.12e-010      
  2.2             -8.385e-010     0.00021174      -1.196e-008    
  2.25            1.61e-009       0.00021524      -1.556e-008    
  2.3             1.3169e-009     0.00021887      -8.808e-009    
  2.35            2.8576e-009     0.00022234      -9.607e-009    
  2.4             1.3903e-009     0.00022574      1.0932e-008    
  2.45            -1.9737e-009    0.00022924      1.747e-008     
  2.5             -1.4835e-009    0.00023245      5.448e-009     
  2.55            -1.3579e-009    0.00023565      9.99e-009      
  2.6             -2.6333e-009    0.00023884      1.0998e-008    
  2.65            -2.1003e-009    0.00024193      9.61e-010      
  2.7             -1.5504e-009    0.00024492      4.271e-009     
  2.75            -1.3713e-009    0.000248        9.444e-009     
  2.8             -2.6846e-009    0.00025093      1.1352e-008    
  2.85            -2.2396e-009    0.00025381      4.9e-010       
  2.9             -1.637e-009     0.00025664      3.523e-009     
  2.95            -1.3928e-009    0.00025942      8.191e-009     
  3               -2.7274e-009    0.00026215      1.1443e-008    
  3.05            -2.3735e-009    0.00026483      4.47e-010      
  3.1             2.712e-010      0.00026731      -1.3013e-008   
  3.15            -2.046e-010     0.00027003      -1.1294e-008   
  3.2             -7.387e-010     0.0002726       -1.1822e-008   
  3.25            1.7218e-009     0.00027502      -1.7326e-008   
  3.3             1.3435e-009     0.00027759      -9.04e-009     
  3.35            2.886e-009      0.00028         -8.78e-009     
  3.4             3.222e-010      0.00028249      1.0454e-008    
  3.45            -1.3358e-009    0.00028488      2.7306e-008    
  3.5             -2.4973e-009    0.00028725      1.2229e-008    
  3.55            -1.8836e-009    0.00028949      2.139e-009     
  3.6             -1.4594e-009    0.00029174      5.677e-009     
  3.65            -1.3479e-009    0.00029395      1.0299e-008    
  3.7             -2.5938e-009    0.00029615      1.1122e-008    
  3.75            -2.0217e-009    0.0002983       1.26e-009      
  3.8             -1.5166e-009    0.00030042      4.66e-009      
  3.85            -1.3647e-009    0.00030252      9.536e-009     
  3.9             -2.6618e-009    0.00030462      1.1217e-008    
  3.95            -2.1735e-009    0.00030662      5.82e-010      
  4               -1.5955e-009    0.0003086       3.852e-009     
  4.05            -1.3824e-009    0.00031057      8.769e-009     
  4.1             -2.7133e-009    0.00031252      1.1311e-008    
  4.15            -2.3136e-009    0.00031445      5.54e-010      
  4.2             -1.6907e-009    0.00031631      2.973e-009     
  4.25            -1.4054e-009    0.00031816      7.482e-009     
  4.3             -2.7429e-009    0.00032002      1.1131e-008    
  4.35            -2.651e-010     0.0003218       -1.1218e-008   
  4.4             -7.973e-010     0.00032359      -1.1971e-008   
  4.45            1.6479e-009     0.00032519      -1.6209e-008   
  4.5             1.3251e-009     0.00032705      -8.756e-009    
  4.55            2.8765e-009     0.00032872      -9.1e-009      
  4.6             1.358e-009      0.00033042      1.0797e-008    
  4.65            1.759e-010      0.00033207      1.0562e-008    
  4.7             6.633e-010      0.00033372      1.1143e-008    
  4.75            -1.6674e-009    0.00033528      2.029e-008     
  4.8             -1.395e-009     0.0003369       7.985e-009     
  4.85            -2.725e-009     0.00033843      1.1165e-008    
  4.9             -2.3917e-009    0.00033998      3.26e-010      
  4.95            -8.35e-010      0.00034148      -1.2024e-008   
  5               1.6014e-009     0.00034284      -1.5567e-008   
END_DB

BEGIN_DB
 ICCAP_VAR VS         0              
 ICCAP_VAR VB         0              
 ICCAP_VAR VD         5              

 #VG              IG              ID              IB             
  0               1.2623e-009     1.8453e-005     -1.4851e-006   
  0.05            2.5463e-009     2.4935e-005     -2.0064e-006   
  0.1             1.8205e-009     3.3878e-005     -2.6911e-006   
  0.15            1.3765e-009     4.5609e-005     -3.6331e-006   
  0.2             2.8967e-009     6.0855e-005     -4.8283e-006   
  0.25            2.6675e-009     8.0329e-005     -6.3213e-006   
  0.3             2.0198e-009     0.000103708     -8.1148e-006   
  0.35            1.2919e-009     0.00013095      -1.01499e-005  
  0.4             -1.5913e-009    0.00016282      -1.2416e-005   
  0.45            -1.3827e-009    0.00019721      -1.4919e-005   
  0.5             -2.6991e-009    0.00023414      -1.7458e-005   
  0.55            -2.3094e-009    0.00027292      -2.008e-005    
  0.6             -1.6962e-009    0.0003138       -2.2695e-005   
  0.65            -1.4098e-009    0.00035623      -2.5279e-005   
  0.7             -2.7443e-009    0.00039989      -2.7828e-005   
  0.75            -2.4517e-009    0.00044393      -3.0362e-005   
  0.8             -1.8404e-009    0.00048922      -3.2789e-005   
  0.85            -1.4517e-009    0.00053521      -3.5128e-005   
  0.9             -1.3479e-009    0.00058171      -3.7357e-005   
  0.95            -2.5779e-009    0.00062853      -3.9513e-005   
  1               -2.01e-009      0.00067528      -4.1567e-005   
  1.05            -1.5109e-009    0.00072335      -4.3525e-005   
  1.1             -1.3668e-009    0.00077115      -4.5324e-005   
  1.15            -2.6617e-009    0.00081905      -4.7034e-005   
  1.2             -2.1795e-009    0.00086639      -4.8646e-005   
  1.25            -1.6014e-009    0.00091425      -5.0126e-005   
  1.3             -1.3905e-009    0.0009624       -5.1484e-005   
  1.35            -2.7158e-009    0.00101039      -5.2741e-005   
  1.4             -2.3501e-009    0.00105786      -5.3917e-005   
  1.45            -1.7341e-009    0.00110567      -5.4967e-005   
  1.5             2.4768e-009     0.0011527       -5.5903e-005   
  1.55            1.7452e-009     0.0012008       -5.6738e-005   
  1.6             1.3593e-009     0.0012482       -5.7493e-005   
  1.65            2.8968e-009     0.0012955       -5.8138e-005   
  1.7             2.6119e-009     0.0013434       -5.8709e-005   
  1.75            1.9389e-009     0.0013905       -5.9195e-005   
  1.8             1.4154e-009     0.0014374       -5.9596e-005   
  1.85            1.2884e-009     0.0014843       -5.989e-005    
  1.9             2.7492e-009     0.001531        -6.0151e-005   
  1.95            2.1358e-009     0.0015783       -6.0298e-005   
  2               1.5081e-009     0.001625        -6.0394e-005   
  2.05            1.308e-009      0.001671        -6.0411e-005   
  2.1             2.8312e-009     0.0017172       -6.0376e-005   
  2.15            2.3353e-009     0.0017638       -6.0272e-005   
  2.2             1.6401e-009     0.00181         -6.0116e-005   
  2.25            1.3321e-009     0.0018558       -5.9895e-005   
  2.3             2.8842e-009     0.0019014       -5.9636e-005   
  2.35            2.5121e-009     0.0019474       -5.932e-005    
  2.4             1.8023e-009     0.0019928       -5.8955e-005   
  2.45            1.3757e-009     0.0020383       -5.8568e-005   
  2.5             2.9123e-009     0.0020834       -5.8111e-005   
  2.55            2.666e-009      0.0021285       -5.7638e-005   
  2.6             2.0096e-009     0.0021733       -5.7115e-005   
  2.65            1.445e-009      0.0022182       -5.6571e-005   
  2.7             1.2955e-009     0.0022625       -5.5991e-005   
  2.75            2.7886e-009     0.0023077       -5.5387e-005   
  2.8             2.2026e-009     0.0023526       -5.4761e-005   
  2.85            1.5468e-009     0.0023968       -5.4114e-005   
  2.9             1.3141e-009     0.0024406       -5.3436e-005   
  2.95            2.8603e-009     0.0024843       -5.2747e-005   
  3               2.4064e-009     0.0025286       -5.2045e-005   
  3.05            1.6974e-009     0.0025725       -5.1333e-005   
  3.1             1.3466e-009     0.0026157       -5.0581e-005   
  3.15            2.8753e-009     0.0026589       -4.9839e-005   
  3.2             2.5803e-009     0.0027029       -4.9079e-005   
  3.25            1.8884e-009     0.0027462       -4.8315e-005   
  3.3             1.3998e-009     0.0027887       -4.7551e-005   
  3.35            2.9002e-009     0.0028319       -4.6769e-005   
  3.4             2.7144e-009     0.002875        -4.5985e-005   
  3.45            2.0997e-009     0.0029175       -4.5192e-005   
  3.5             1.4844e-009     0.00296         -4.4402e-005   
  3.55            1.3012e-009     0.0030021       -4.3618e-005   
  3.6             2.8163e-009     0.0030445       -4.2835e-005   
  3.65            2.2982e-009     0.0030872       -4.2058e-005   
  3.7             1.6049e-009     0.003129        -4.1282e-005   
  3.75            1.3311e-009     0.0031705       -4.0504e-005   
  3.8             2.8739e-009     0.0032123       -3.9719e-005   
  3.85            2.486e-009      0.0032543       -3.8951e-005   
  3.9             1.7721e-009     0.0032959       -3.819e-005    
  3.95            1.3708e-009     0.0033372       -3.743e-005    
  4               2.9044e-009     0.0033783       -3.6671e-005   
  4.05            2.6349e-009     0.0034199       -3.5939e-005   
  4.1             1.9565e-009     0.0034607       -3.5192e-005   
  4.15            1.4327e-009     0.0035016       -3.4473e-005   
  4.2             1.3049e-009     0.0035425       -3.3757e-005   
  4.25            2.772e-009      0.0035829       -3.3051e-005   
  4.3             2.1644e-009     0.0036238       -3.2344e-005   
  4.35            1.5329e-009     0.003664        -3.1662e-005   
  4.4             1.3318e-009     0.0037048       -3.0973e-005   
  4.45            2.8656e-009     0.0037447       -3.0303e-005   
  4.5             2.3764e-009     0.0037852       -2.9624e-005   
  4.55            1.6776e-009     0.003825        -2.8973e-005   
  4.6             1.3679e-009     0.0038645       -2.8348e-005   
  4.65            2.9175e-009     0.0039038       -2.7726e-005   
  4.7             2.5616e-009     0.0039437       -2.7103e-005   
  4.75            1.8611e-009     0.0039832       -2.6495e-005   
  4.8             1.4265e-009     0.0040222       -2.5904e-005   
  4.85            1.3297e-009     0.0040611       -2.5313e-005   
  4.9             2.7443e-009     0.0040998       -2.474e-005    
  4.95            2.0714e-009     0.0041392       -2.4169e-005   
  5               1.5089e-009     0.0041774       -2.3623e-005   
END_DB

BEGIN_DB
 ICCAP_VAR VS         0              
 ICCAP_VAR VB         -2.5           
 ICCAP_VAR VD         0.1            

 #VG              IG              ID              IB             
  0               2.0733e-009     2.2469e-009     -2.9908e-007   
  0.05            1.5537e-009     1.9372e-009     -2.9837e-007   
  0.1             1.7479e-009     1.6703e-009     -3.0845e-007   
  0.15            1.9331e-009     1.4457e-009     -3.1056e-007   
  0.2             2.553e-010      2.2446e-009     -3.1122e-007   
  0.25            4.585e-010      2.425e-009      -2.9512e-007   
  0.3             6.622e-010      2.8276e-009     -2.9721e-007   
  0.35            8.488e-010      4.1079e-009     -2.9924e-007   
  0.4             1.017e-009      8.7481e-009     -3.0159e-007   
  0.45            -1.3919e-009    2.2741e-008     -3.1203e-007   
  0.5             -2.7177e-009    8.1655e-008     -2.6102e-007   
  0.55            3.24e-010       2.5917e-007     -2.8102e-007   
  0.6             7.915e-010      7.2899e-007     -2.9562e-007   
  0.65            -1.3397e-009    1.8732e-006     -3.3252e-007   
  0.7             -2.4773e-009    4.0856e-006     -2.6246e-007   
  0.75            -1.8596e-009    7.731e-006      -3.0488e-007   
  0.8             2.1971e-009     1.2993e-005     -2.8732e-007   
  0.85            1.5302e-009     1.9884e-005     -3.0074e-007   
  0.9             1.3102e-009     2.8029e-005     -2.8302e-007   
  0.95            2.8431e-009     3.6927e-005     -2.8334e-007   
  1               2.3694e-009     4.6342e-005     -3.1524e-007   
  1.05            1.6725e-009     5.5816e-005     -3.0516e-007   
  1.1             1.3371e-009     6.4833e-005     -2.8644e-007   
  1.15            2.8782e-009     7.3482e-005     -2.8062e-007   
  1.2             2.5563e-009     8.1846e-005     -3.1721e-007   
  1.25            1.8572e-009     8.9662e-005     -3.0841e-007   
  1.3             1.3906e-009     9.7035e-005     -2.9208e-007   
  1.35            2.9001e-009     0.000103994     -2.7997e-007   
  1.4             2.6953e-009     0.000110727     -3.1946e-007   
  1.45            1.478e-009      0.00011713      -3.1089e-007   
  1.5             1.2981e-009     0.00012316      -2.8147e-007   
  1.55            2.8101e-009     0.00012895      -2.8476e-007   
  1.6             2.2739e-009     0.00013453      -3.1396e-007   
  1.65            1.5941e-009     0.00013986      -3.031e-007    
  1.7             1.3222e-009     0.00014494      -2.8483e-007   
  1.75            2.8671e-009     0.00014984      -2.822e-007    
  1.8             2.4791e-009     0.00015468      -3.164e-007    
  1.85            1.7573e-009     0.0001593       -3.0695e-007   
  1.9             1.3615e-009     0.00016376      -2.8964e-007   
  1.95            2.9024e-009     0.00016808      -2.8013e-007   
  2               2.6311e-009     0.00017235      -3.1852e-007   
  2.05            1.9656e-009     0.00017643      -3.1016e-007   
  2.1             1.4291e-009     0.00018041      -2.9598e-007   
  2.15            1.2912e-009     0.00018425      -2.8048e-007   
  2.2             2.7755e-009     0.00018805      -2.8614e-007   
  2.25            2.1926e-009     0.00019176      -3.1296e-007   
  2.3             1.5391e-009     0.00019536      -3.01e-007     
  2.35            1.3151e-009     0.00019887      -2.8287e-007   
  2.4             2.849e-009      0.0002023       -2.8319e-007   
  2.45            2.399e-009      0.0002057       -3.1526e-007   
  2.5             1.6914e-009     0.00020903      -3.0549e-007   
  2.55            1.3438e-009     0.00021224      -2.8725e-007   
  2.6             2.8895e-009     0.00021539      -2.8019e-007   
  2.65            2.5765e-009     0.00021851      -3.1751e-007   
  2.7             1.8929e-009     0.00022157      -3.0877e-007   
  2.75            1.4028e-009     0.0002246       -2.9321e-007   
  2.8             2.9005e-009     0.00022753      -2.8016e-007   
  2.85            2.7193e-009     0.00023044      -3.1949e-007   
  2.9             2.1018e-009     0.00023326      -3.1206e-007   
  2.95            1.4901e-009     0.00023602      -2.9954e-007   
  3               1.302e-009      0.00023872      -2.8189e-007   
  3.05            2.828e-009      0.00024142      -2.8392e-007   
  3.1             2.3162e-009     0.00024407      -3.1453e-007   
  3.15            1.6305e-009     0.00024666      -3.0413e-007   
  3.2             1.3287e-009     0.0002492       -2.8579e-007   
  3.25            2.8882e-009     0.00025167      -2.8098e-007   
  3.3             2.5094e-009     0.00025417      -3.1698e-007   
  3.35            1.7985e-009     0.0002566       -3.0771e-007   
  3.4             1.3715e-009     0.00025898      -2.9062e-007   
  3.45            2.9106e-009     0.00026137      -2.8006e-007   
  3.5             2.6592e-009     0.00026367      -3.1929e-007   
  3.55            2.0119e-009     0.00026594      -3.1102e-007   
  3.6             1.4417e-009     0.00026819      -2.9717e-007   
  3.65            1.2944e-009     0.00027039      -2.8113e-007   
  3.7             2.7875e-009     0.00027262      -2.8568e-007   
  3.75            2.2191e-009     0.00027476      -3.1352e-007   
  3.8             1.5596e-009     0.00027685      -3.022e-007    
  3.85            1.3166e-009     0.00027891      -2.8346e-007   
  3.9             2.8497e-009     0.00028103      -2.8263e-007   
  3.95            2.4351e-009     0.000283        -3.1523e-007   
  4               1.7276e-009     0.00028498      -3.0572e-007   
  4.05            1.3536e-009     0.00028696      -2.878e-007    
  4.1             2.8914e-009     0.00028886      -2.8042e-007   
  4.15            2.599e-009      0.0002908       -3.1786e-007   
