! VERSION = 6.00
BEGIN_HEADER
 ICCAP_INPUTS
  VG         V  B GROUND SMU4 0.001 LIN        2    0          5          6    1         
  VS         V  E GROUND SMU2 0.1 CON        0
  VD         V  S GROUND SMU1 0.1 LIN        1    0          5          101  0.05      
  VB         V  C GROUND SMU3 0.1 LIN        3    0          -2.5       2    -2.5      
 ICCAP_OUTPUTS
  ID         I  S GROUND SMU1 B
  IB         I  C GROUND SMU3 B
  IG         I  B GROUND SMU4 B
END_HEADER

BEGIN_DB
 ICCAP_VAR VG         0              
 ICCAP_VAR VS         0              
 ICCAP_VAR VB         0              

 #VD              ID              IB              IG             
  0               -7.996e-010     1.1227e-008     -7.629e-010    
  0.05            1.6021e-009     2.0376e-008     -1.3187e-009   
  0.1             2.006e-010      1.2672e-008     -2.6881e-009   
  0.15            -1.3337e-009    9.17e-010       -1.9667e-009   
  0.2             -2.3132e-009    -1.1525e-008    -6.363e-010    
  0.25            -1.5654e-009    -2.0055e-008    1.2713e-009    
  0.3             -1.166e-010     -1.2607e-008    2.9008e-009    
  0.35            2.3464e-009     1.0729e-008     1.0677e-009    
  0.4             1.8963e-009     1.2243e-008     -1.5377e-009   
  0.45            -1.4361e-009    9.184e-009      -1.8916e-009   
  0.5             -2.2931e-009    -1.1086e-008    -4.844e-010    
  0.55            -1.4685e-009    -2.3013e-008    1.2926e-009    
  0.6             -1.95e-011      -1.0211e-008    2.9311e-009    
  0.65            1.6089e-009     -1.89e-010      1.799e-009     
  0.7             2.3042e-009     1.0409e-008     3.569e-010     
  0.75            2.3728e-009     1.0724e-008     5.349e-010     
  0.8             1.4753e-009     2.428e-008      -1.3421e-009   
  0.85            9.3e-011        1.139e-008      -2.755e-009    
  0.9             -2.2453e-009    -1.1318e-008    -1.066e-009    
  0.95            -2.1616e-009    -1.1633e-008    -1.219e-009    
  1               -1.8601e-009    -1.1853e-008    2.796e-010     
  1.05            -1.9684e-009    -1.1464e-008    1.261e-010     
  1.1             -2.0973e-009    -1.1006e-008    -2.79e-011     
  1.15            -2.2045e-009    -1.0896e-008    -2.026e-010    
  1.2             -2.2689e-009    -1.1043e-008    -3.938e-010    
  1.25            -2.308e-009     -1.1481e-008    -5.839e-010    
  1.3             -1.5342e-009    -2.0951e-008    1.2798e-009    
  1.35            -7.95e-011      -1.1896e-008    2.9157e-009    
  1.4             1.4864e-009     -5.29e-010      1.8836e-009    
  1.45            2.3422e-009     1.0507e-008     4.489e-010     
  1.5             5.279e-010      1.785e-008      -2.3351e-009   
  1.55            -2.3069e-009    -1.1406e-008    -5.861e-010    
  1.6             -1.5268e-009    -2.1039e-008    1.2795e-009    
  1.65            -7.13e-011      -1.158e-008     2.9177e-009    
  1.7             1.4957e-009     -4.29e-010      1.8795e-009    
  1.75            2.3431e-009     1.0559e-008     4.435e-010     
  1.8             1.4068e-009     2.6035e-008     -1.3562e-009   
  1.85            2.1e-011        1.1373e-008     -1.3272e-009   
  1.9             1.517e-010      1.1982e-008     -2.7224e-009   
  1.95            -1.3801e-009    7.17e-010       -1.9319e-009   
  2               -2.3026e-009    -1.1222e-008    -5.586e-010    
  2.05            -1.5219e-009    -2.1507e-008    1.2836e-009    
  2.1             -5.51e-011      -1.12e-008      2.9196e-009    
  2.15            1.5272e-009     -3.65e-010      1.8559e-009    
  2.2             2.334e-009      1.0504e-008     4.181e-010     
  2.25            1.3916e-009     2.6446e-008     -1.361e-009    
  2.3             2.8e-012        1.1353e-008     -1.3311e-009   
  2.35            1.346e-010      1.1777e-008     -2.7329e-009   
  2.4             -2.2201e-009    -1.136e-008     -1.1141e-009   
  2.45            -1.795e-009     -1.2213e-008    1.5606e-009    
  2.5             1.4933e-009     -8.919e-009     1.8918e-009    
  2.55            2.3439e-009     1.0499e-008     4.482e-010     
  2.6             1.4128e-009     2.5937e-008     -1.3562e-009   
  2.65            2.53e-011       1.1241e-008     -1.3253e-009   
  2.7             1.542e-010      1.1829e-008     -2.7137e-009   
  2.75            -1.378e-009     5.65e-010       -1.9367e-009   
  2.8             -2.3051e-009    -1.1264e-008    -5.727e-010    
  2.85            -1.5196e-009    -2.1551e-008    1.2816e-009    
  2.9             -6.37e-011      -1.1685e-008    2.9138e-009    
  2.95            2.3704e-009     1.0738e-008     1.009e-009     
  3               1.8583e-009     1.296e-008      -1.5896e-009   
  3.05            -1.4988e-009    8.281e-009      -1.8453e-009   
  3.1             -2.2722e-009    -1.1059e-008    -4.129e-010    
  3.15            -2.3104e-009    -1.1403e-008    -6.019e-010    
  3.2             -1.54e-009      -2.0976e-008    1.2774e-009    
  3.25            -8.15e-011      -1.1927e-008    2.9101e-009    
  3.3             1.4857e-009     -5.16e-010      1.8972e-009    
  3.35            2.3474e-009     1.0424e-008     4.541e-010     
  3.4             1.4185e-009     2.5901e-008     -1.3524e-009   
  3.45            3.34e-011       1.1374e-008     -1.3247e-009   
  3.5             1.604e-010      1.1829e-008     -2.7174e-009   
  3.55            -1.375e-009     5.97e-010       -1.9379e-009   
  3.6             -2.3073e-009    -1.1429e-008    -5.723e-010    
  3.65            -1.521e-009     -2.1479e-008    1.2801e-009    
  3.7             -5.98e-011      -1.1468e-008    2.9136e-009    
  3.75            1.5198e-009     -4e-010         1.8794e-009    
  3.8             2.3381e-009     1.0558e-008     4.315e-010     
  3.85            5.14e-010       1.7767e-008     -2.3634e-009   
  3.9             -2.1117e-009    2.673e-009      -1.2981e-009   
  3.95            -1.9124e-009    -1.1569e-008    2.066e-010     
  4               -2.0307e-009    -1.0929e-008    4.33e-011      
  4.05            -2.1536e-009    -1.0818e-008    -1.056e-010    
  4.1             -2.2409e-009    -1.0965e-008    -3.039e-010    
  4.15            -2.2935e-009    -1.1178e-008    -4.962e-010    
  4.2             -1.4746e-009    -2.2833e-008    1.2918e-009    
  4.25            -2.11e-011      -1.0452e-008    2.9295e-009    
  4.3             1.5982e-009     -2.34e-010      1.8074e-009    
  4.35            2.3066e-009     1.0326e-008     3.678e-010     
  4.4             2.3754e-009     1.0785e-008     5.424e-010     
  4.45            1.4846e-009     2.4112e-008     -1.3391e-009   
  4.5             9.76e-011       1.1414e-008     -2.7466e-009   
  4.55            -2.0825e-009    -1.103e-008     -1.1e-011      
  4.6             -2.1917e-009    -1.1011e-008    -1.91e-010     
  4.65            -2.2639e-009    -1.1064e-008    -3.767e-010    
  4.7             -2.3068e-009    -1.1265e-008    -5.684e-010    
  4.75            -2.3126e-009    -1.1586e-008    -7.514e-010    
  4.8             -1.6218e-009    -1.7498e-008    2.154e-009     
  4.85            2.01e-009       -7.597e-009     1.4863e-009    
  4.9             2.1181e-009     1.0364e-008     4.9e-011       
  4.95            2.2165e-009     1.0331e-008     2.08e-010      
  5               2.3156e-009     1.0422e-008     3.784e-010     
END_DB

BEGIN_DB
 ICCAP_VAR VG         1              
 ICCAP_VAR VS         0              
 ICCAP_VAR VB         0              

 #VD              ID              IB              IG             
  0               -5.1799e-007    1.0772e-008     -9.239e-010    
  0.05            5.5806e-005     6.074e-009      1.9681e-009    
  0.1             9.6698e-005     -1.153e-008     -9.151e-010    
  0.15            0.00012507      1.664e-008      2.698e-010     
  0.2             0.00014296      -2.1366e-008    1.6587e-009    
  0.25            0.00015682      -1.1699e-008    -2.95e-011     
  0.3             0.00016912      1.9668e-008     -1.8682e-009   
  0.35            0.00017776      1.2644e-008     -1.636e-010    
  0.4             0.00018392      -1.7313e-008    2.3484e-009    
  0.45            0.00019195      -1.1173e-008    -8.216e-010    
  0.5             0.00019936      2.7141e-008     -1.3736e-009   
  0.55            0.00020455      1.0329e-008     5.383e-010     
  0.6             0.00020876      -2.4103e-008    1.4146e-009    
  0.65            0.00021475      -1.0912e-008    -3.081e-010    
  0.7             0.00022147      2.2333e-008     -1.5762e-009   
  0.75            0.00022426      1.0771e-008     1.1809e-009    
  0.8             0.00022923      -1.3483e-008    2.6783e-009    
  0.85            0.00023479      -1.0943e-008    -5.325e-010    
  0.9             0.00024098      2.4495e-008     -1.4541e-009   
  0.95            0.00024237      1.0857e-008     1.3667e-009    
  1               0.00024782      -1.6125e-008    1.6541e-009    
  1.05            0.0002517       -1.1653e-008    -2.22e-011     
  1.1             0.00025843      1.968e-008      -1.8659e-009   
  1.15            0.00026219      1.253e-008      -1.677e-010    
  1.2             0.0002642       -1.7237e-008    2.3647e-009    
  1.25            0.00026983      -1.1127e-008    -8.183e-010    
  1.3             0.00027492      2.7133e-008     -1.373e-009    
  1.35            0.00027785      1.0344e-008     5.318e-010     
  1.4             0.00028015      -2.3988e-008    1.4174e-009    
  1.45            0.00028449      -1.0898e-008    -3.078e-010    
  1.5             0.0002904       2.2276e-008     -1.5838e-009   
  1.55            0.00029141      1.0652e-008     1.1847e-009    
  1.6             0.00029489      -1.375e-008     2.6866e-009    
  1.65            0.00029994      -1.1132e-008    -5.308e-010    
  1.7             0.00030523      2.4082e-008     -1.4535e-009   
  1.75            0.00030876      1.9866e-008     -1.7576e-009   
  1.8             0.00031195      1.098e-008      -8.84e-011     
  1.85            0.00031311      -1.9597e-008    2.2247e-009    
  1.9             0.00031836      -1.371e-008     -8.98e-010     
  1.95            0.00032259      7.93e-009       -2.7495e-009   
  2               0.00032602      1.1563e-008     -2.1688e-009   
  2.05            0.00032954      4.851e-009      -2.5844e-009   
  2.1             0.00033279      1.1732e-008     -1.7577e-009   
  2.15            0.00033426      -2.818e-009     2.5053e-009    
  2.2             0.00033828      -2.7445e-008    -8.763e-010    
  2.25            0.00034133      -2.6828e-008    -2.8075e-009   
  2.3             0.00034227      -1.6229e-008    1.4211e-009    
  2.35            0.0003466       -5.0212e-008    1.5895e-009    
  2.4             0.00035092      -5.3888e-008    -2.6303e-009   
  2.45            0.00035325      -4.5299e-008    1.0011e-009    
  2.5             0.00035616      -9.5083e-008    1.2701e-009    
  2.55            0.00036097      -9.1189e-008    -2.7711e-009   
  2.6             0.00036349      -1.1657e-007    1.4247e-009    
  2.65            0.00036692      -1.3715e-007    -2.7365e-009   
  2.7             0.00036861      -1.4573e-007    1.1479e-009    
  2.75            0.00037222      -2.0986e-007    2.0155e-009    
  2.8             0.00037639      -2.3462e-007    -2.3556e-009   
  2.85            0.00037915      -2.5579e-007    7.263e-010     
  2.9             0.00038096      -3.4143e-007    1.327e-009     
  2.95            0.00038553      -3.7763e-007    -2.7999e-009   
  3               0.00038646      -4.2225e-007    1.3364e-009    
  3.05            0.0003906       -5.2304e-007    1.6969e-009    
  3.1             0.00039491      -5.9807e-007    -2.5593e-009   
  3.15            0.00039715      -6.6894e-007    9.234e-010     
  3.2             0.00039947      -8.1347e-007    1.2837e-009    
  3.25            0.00040451      -9.1128e-007    -2.7962e-009   
  3.3             0.00040471      -1.02517e-006   1.5465e-009    
  3.35            0.00040897      -1.1921e-006    1.2825e-009    
  3.4             0.000414        -1.3648e-006    -2.8028e-009   
  3.45            0.00041422      -1.5296e-006    1.522e-009     
  3.5             0.00041843      -1.7699e-006    3.065e-010     
  3.55            0.00042488      -1.9769e-006    -2.3731e-009   
  3.6             0.00042557      -2.2353e-006    2.1874e-009    
  3.65            0.00042915      -2.549e-006     -3.727e-010    
  3.7             0.00043446      -2.8319e-006    -1.5321e-009   
  3.75            0.00043626      -3.1957e-006    2.6802e-009    
  3.8             0.00044075      -3.6152e-006    -1.0695e-009   
  3.85            0.00044486      -3.9873e-006    -1.3249e-009   
  3.9             0.00044619      -4.4856e-006    2.9266e-009    
  3.95            0.00045238      -5.0392e-006    -1.7232e-009   
  4               0.00045488      -5.5688e-006    -1.629e-010    
  4.05            0.00045578      -6.2186e-006    2.3635e-009    
  4.1             0.00046158      -6.9014e-006    -2.1735e-009   
  4.15            0.00046553      -7.597e-006     4.998e-010     
  4.2             0.00046723      -8.4436e-006    1.4373e-009    
  4.25            0.00047287      -9.2881e-006    -2.7323e-009   
  4.3             0.0004754       -1.01642e-005   1.143e-009     
  4.35            0.00048039      -1.12403e-005   2.021e-009     
  4.4             0.00048432      -1.2199e-005    1.704e-009     
  4.45            0.00048974      -1.3411e-005    -2.5322e-009   
  4.5             0.00049347      -1.4588e-005    9.036e-010     
  4.55            0.0004974       -1.6012e-005    1.2855e-009    
  4.6             0.00050366      -1.7386e-005    -2.8033e-009   
  4.65            0.00050512      -1.8789e-005    1.5241e-009    
  4.7             0.00051142      -2.0446e-005    3.086e-010     
  4.75            0.00052005      -2.2124e-005    -2.3756e-009   
  4.8             0.0005223       -2.3832e-005    2.1859e-009    
  4.85            0.00052789      -2.5803e-005    -3.728e-010    
  4.9             0.00053545      -2.7719e-005    -1.5354e-009   
  4.95            0.0005392       -2.9813e-005    2.6841e-009    
  5               0.00054637      -3.2162e-005    -1.0668e-009   
END_DB

BEGIN_DB
 ICCAP_VAR VG         2              
 ICCAP_VAR VS         0              
 ICCAP_VAR VB         0              

 #VD              ID              IB              IG             
  0               -3.0367e-006    1.236e-009      2.8155e-009    
  0.05            0.00021373      -1.1827e-008    -2.0824e-009   
  0.1             0.00042237      1.0253e-008     3.795e-010     
  0.15            0.00062513      -2.2366e-008    1.5386e-009    
  0.2             0.00082332      -1.1307e-008    -1.3124e-009   
  0.25            0.00101311      1.3281e-008     -2.4121e-009   
  0.3             0.0011957       -8.535e-009     -1.3779e-009   
  0.35            0.001369        1.0359e-008     4.9e-010       
  0.4             0.0015315       -2.3699e-008    1.4403e-009    
  0.45            0.0016862       -1.1446e-008    -1.4265e-009   
  0.5             0.0018279       1.8466e-008     -1.6069e-009   
  0.55            0.0019566       1.077e-008      1.153e-009     
  0.6             0.0020734       -1.3055e-008    2.7179e-009    
  0.65            0.0021796       -1.0823e-008    -4.947e-010    
  0.7             0.0022747       2.403e-008      -1.4698e-009   
  0.75            0.0023534       1.0817e-008     1.329e-009     
  0.8             0.002425        -1.6913e-008    1.7056e-009    
  0.85            0.0024854       -1.1693e-008    2e-012         
  0.9             0.0025416       1.9134e-008     -1.9028e-009   
  0.95            0.0025853       1.2986e-008     -1.864e-010    
  1               0.0026213       -1.6733e-008    2.4011e-009    
  1.05            0.0026574       -1.1156e-008    -7.915e-010    
  1.1             0.0026886       2.6754e-008     -1.3783e-009   
  1.15            0.0027135       1.0309e-008     5.02e-010      
  1.2             0.0027336       -2.3716e-008    1.4357e-009    
  1.25            0.00276         -1.1465e-008    -1.4322e-009   
  1.3             0.0027785       1.8108e-008     -1.601e-009    
  1.35            0.0027925       1.0774e-008     1.1633e-009    
  1.4             0.0028087       -1.3149e-008    2.7045e-009    
  1.45            0.0028266       -1.0818e-008    -5.035e-010    
  1.5             0.0028441       2.4047e-008     -1.4639e-009   
  1.55            0.002853        1.0714e-008     1.3373e-009    
  1.6             0.0028677       -1.6574e-008    1.6986e-009    
  1.65            0.0028793       -1.1657e-008    -8.1e-012      
  1.7             0.0028957       1.9197e-008     -1.8974e-009   
  1.75            0.0029067       1.2839e-008     -1.77e-010     
  1.8             0.0029136       -1.6949e-008    2.3936e-009    
  1.85            0.0029282       -1.1168e-008    -7.993e-010    
  1.9             0.0029402       2.689e-008      -1.3766e-009   
  1.95            0.002949        1.0231e-008     5.094e-010     
  2               0.0029557       -2.4119e-008    1.4296e-009    
  2.05            0.0029701       -1.1852e-008    -1.4395e-009   
  2.1             0.0029777       1.7196e-008     -1.5953e-009   
  2.15            0.002983        9.412e-009      1.1677e-009    
  2.2             0.0029918       -2.2688e-008    1.9784e-009    
  2.25            0.0030037       -1.5087e-008    -1.021e-009    
  2.3             0.0030131       6.386e-009      -2.6855e-009   
  2.35            0.0030216       1.0917e-008     -1.9494e-009   
  2.4             0.0030261       -1.106e-009     2.4099e-009    
  2.45            0.0030345       -2.6776e-008    -7.311e-010    
  2.5             0.0030443       4.237e-009      -1.3901e-009   
  2.55            0.003049        -2.3254e-008    2.8749e-009    
  2.6             0.0030594       -5.3206e-008    -1.3622e-009   
  2.65            0.0030654       -3.6262e-008    -1.6689e-009   
  2.7             0.0030703       -6.565e-008     2.552e-009     
  2.75            0.0030771       -1.09773e-007   9.414e-010     
  2.8             0.0030856       -1.2142e-007    -1.4171e-009   
  2.85            0.00309         -1.5627e-007    2.8255e-009    
  2.9             0.0030996       -2.1987e-007    -1.2592e-009   
  2.95            0.0031058       -2.3993e-007    -1.7966e-009   
  3               0.0031093       -3.1863e-007    2.4843e-009    
  3.05            0.0031167       -4.1632e-007    -8.508e-010    
  3.1             0.0031247       -4.7122e-007    -1.3651e-009   
  3.15            0.0031275       -6.0108e-007    2.9181e-009    
  3.2             0.0031375       -7.4475e-007    -1.4712e-009   
  3.25            0.0031418       -8.6507e-007    -1.5615e-009   
  3.3             0.0031463       -1.05022e-006   2.6413e-009    
  3.35            0.0031526       -1.2645e-006    2.8092e-009    
  3.4             0.0031607       -1.4999e-006    -1.2481e-009   
  3.45            0.0031663       -1.7298e-006    -1.8096e-009   
  3.5             0.0031698       -2.0472e-006    2.4729e-009    
  3.55            0.0031768       -2.4135e-006    -8.343e-010    
  3.6             0.0031842       -2.7754e-006    -1.368e-009    
  3.65            0.0031874       -3.2424e-006    2.9094e-009    
  3.7             0.0031968       -3.766e-006     -1.4583e-009   
  3.75            0.0032014       -4.3092e-006    -1.5733e-009   
  3.8             0.0032062       -4.968e-006     2.6288e-009    
  3.85            0.0032131       -5.7118e-006    -1.0173e-009   
  3.9             0.003221        -6.4897e-006    -1.3315e-009   
  3.95            0.0032238       -7.4209e-006    2.9327e-009    
  4               0.0032342       -8.4544e-006    -1.6649e-009   
  4.05            0.0032387       -9.5719e-006    -2.16e-010     
  4.1             0.0032415       -1.0863e-005    2.454e-009     
  4.15            0.0032525       -1.2259e-005    -2.4735e-009   
