! VERSION = 6.00
BEGIN_HEADER
 ICCAP_INPUTS
  VG         V  B GROUND SMU4 0.001 LIN        2    0          5          6    1         
  VS         V  E GROUND SMU2 0.1 CON        0
  VD         V  S GROUND SMU1 0.1 LIN        1    0          5          101  0.05      
  VB         V  C GROUND SMU3 0.1 LIN        3    0          -2.5       2    -2.5      
 ICCAP_OUTPUTS
  ID         I  S GROUND SMU1 B
  IB         I  C GROUND SMU3 B
  IG         I  B GROUND SMU4 B
END_HEADER

BEGIN_DB
 ICCAP_VAR VG         0              
 ICCAP_VAR VS         0              
 ICCAP_VAR VB         0              

 #VD              ID              IB              IG             
  0               -1.3707e-009    1.0478e-008     -1.3907e-009   
  0.05            1.085e-010      1.1242e-008     -1.355e-009    
  0.1             3.32e-010       1.0783e-008     -1.3292e-009   
  0.15            5.534e-010      1.2289e-008     -2.6902e-009   
  0.2             -1.5621e-009    5.5e-011        6.06e-011      
  0.25            -1.5949e-009    -1.0673e-008    -1.059e-010    
  0.3             -1.5549e-009    -1.0964e-008    -3.076e-010    
  0.35            -3.06e-010      -1.113e-008     1.4484e-009    
  0.4             2.0754e-009     -8.596e-009     2.8762e-009    
  0.45            3.6758e-009     1.1118e-008     6.079e-010     
  0.5             3.9765e-009     1.1219e-008     7.858e-010     
  0.55            3.6468e-009     1.6607e-008     -1.8033e-009   
  0.6             1.9016e-009     6.017e-009      -1.591e-009    
  0.65            2.5304e-009     8.228e-009      -1.4697e-009   
  0.7             3.2828e-009     9.836e-009      -1.4066e-009   
  0.75            4.1317e-009     1.132e-008      -1.3695e-009   
  0.8             5.126e-009      1.0893e-008     -1.3384e-009   
  0.85            6.2872e-009     1.1681e-008     -2.7312e-009   
  0.9             6.3442e-009     1.31e-010       -2.5871e-009   
  0.95            7.8094e-009     8.47e-010       -2.3823e-009   
  1               1.108e-008      -1.3987e-008    1.3313e-009    
  1.05            1.1457e-008     -1.1099e-008    1.3006e-009    
  1.1             1.1681e-008     -1.1236e-008    -8.448e-010    
  1.15            1.6997e-008     1.4382e-008     -2.2283e-009   
  1.2             2.1734e-008     1.4493e-008     -1.482e-009    
  1.25            2.5338e-008     1.0213e-008     3.563e-010     
  1.3             2.8338e-008     -9.718e-009     2.8765e-009    
  1.35            3.1467e-008     -2.1844e-008    2.0381e-009    
  1.4             3.6809e-008     -1.2083e-008    7.76e-011      
  1.45            4.4595e-008     9.393e-009      -1.3715e-009   
  1.5             5.458e-008      1.0445e-008     7.099e-010     
  1.55            6.1668e-008     -1.4884e-008    2.5085e-009    
  1.6             6.9506e-008     -1.1375e-008    -1.2881e-009   
  1.65            8.5586e-008     2.1943e-008     -1.6075e-009   
  1.7             9.9484e-008     1.087e-008      1.676e-010     
  1.75            1.12238e-007    -8.568e-009     1.2731e-009    
  1.8             1.282e-007      1.0115e-008     -2.8291e-009   
  1.85            1.5495e-007     1.9952e-008     -1.6667e-009   
  1.9             1.753e-007      1.0371e-008     7.406e-010     
  1.95            2.0057e-007     -2.32e-008      1.5418e-009    
  2               2.305e-007      -1.1576e-008    -9.573e-010    
  2.05            2.7379e-007     2.5711e-008     -1.4414e-009   
  2.1             3.1279e-007     1.1603e-008     -3.69e-011     
  2.15            3.5055e-007     -1.31e-008      2.683e-009     
  2.2             3.9855e-007     -1.1785e-008    -1.034e-010    
  2.25            4.7012e-007     1.3523e-008     -2.2908e-009   
  2.3             5.3622e-007     1.8223e-008     -1.8872e-009   
  2.35            5.927e-007      9.353e-009      2.1381e-009    
  2.4             6.7676e-007     -1.2537e-008    5.29e-011      
  2.45            7.9196e-007     1.1073e-008     -2.5036e-009   
  2.5             8.8984e-007     1.0153e-008     1.135e-010     
  2.55            9.9284e-007     -1.6467e-008    2.4788e-009    
  2.6             1.1169e-006     4.894e-009      -1.3236e-009   
  2.65            1.2917e-006     1.8408e-008     -1.7289e-009   
  2.7             1.454e-006      1.7976e-008     -1.6998e-009   
  2.75            1.6384e-006     1.7829e-008     -1.6661e-009   
  2.8             1.8371e-006     1.7342e-008     -1.6387e-009   
  2.85            2.0628e-006     1.6438e-008     -1.6077e-009   
  2.9             2.3022e-006     4.605e-009      -2.7402e-009   
  2.95            2.5722e-006     2.598e-009      -2.7248e-009   
  3               2.8768e-006     4.69e-010       -2.7102e-009   
  3.05            3.2064e-006     -2.068e-009     -2.6928e-009   
  3.1             3.5683e-006     -5.515e-009     -2.6717e-009   
  3.15            3.8623e-006     -9.043e-009     1.2604e-009    
  3.2             4.3286e-006     -5.0997e-008    1.346e-009     
  3.25            4.7993e-006     -4.0135e-008    -2.3648e-009   
  3.3             5.3862e-006     -2.6498e-008    1.188e-010     
  3.35            5.8507e-006     -5.7383e-008    2.7739e-009    
  3.4             6.5717e-006     -6.7908e-008    -1.4439e-009   
  3.45            7.2718e-006     -3.9041e-008    -1.3768e-009   
  3.5             7.8492e-006     -7.3008e-008    2.5052e-009    
  3.55            8.7044e-006     -1.0863e-007    -5.465e-010    
  3.6             9.441e-006      -1.2819e-007    1.3628e-009    
  3.65            1.04188e-005    -1.5297e-007    -2.2995e-009   
  3.7             1.15008e-005    -1.5893e-007    -1.4827e-009   
  3.75            1.2625e-005     -1.9452e-007    -2.7596e-009   
  3.8             1.3481e-005     -2.2941e-007    1.6218e-009    
  3.85            1.4894e-005     -3.0042e-007    1.496e-009     
  3.9             1.6246e-005     -3.501e-007     -2.5803e-009   
  3.95            1.7725e-005     -3.8769e-007    8.312e-010     
  4               1.9267e-005     -5.0097e-007    1.3345e-009    
  4.05            2.1007e-005     -5.643e-007     -2.7737e-009   
  4.1             2.2684e-005     -6.3313e-007    1.1057e-009    
  4.15            2.4817e-005     -7.8466e-007    1.2773e-009    
  4.2             2.6958e-005     -8.9339e-007    -2.8207e-009   
  4.25            2.8904e-005     -1.00805e-006   1.4123e-009    
  4.3             3.16e-005       -1.1929e-006    6.747e-010     
  4.35            3.444e-005      -1.3691e-006    -1.347e-009    
  4.4             3.7031e-005     -1.5688e-006    2.9492e-009    
  4.45            4.0478e-005     -1.8457e-006    -1.4045e-009   
  4.5             4.3654e-005     -2.0674e-006    -1.7487e-009   
  4.55            4.6909e-005     -2.402e-006     2.3992e-009    
  4.6             5.0715e-005     -2.7917e-006    -5.96e-010     
  4.65            5.5145e-005     -3.1443e-006    -1.4856e-009   
  4.7             5.9164e-005     -3.6107e-006    2.6213e-009    
  4.75            6.3997e-005     -4.1654e-006    -9.087e-010    
  4.8             6.9271e-005     -4.6659e-006    -1.3849e-009   
  4.85            7.4216e-005     -5.3378e-006    2.859e-009     
  4.9             8.0461e-005     -6.1267e-006    -1.1914e-009   
  4.95            8.6664e-005     -6.8381e-006    -1.3338e-009   
  5               9.2777e-005     -7.7879e-006    2.9589e-009    
END_DB

BEGIN_DB
 ICCAP_VAR VG         1              
 ICCAP_VAR VS         0              
 ICCAP_VAR VB         0              

 #VD              ID              IB              IG             
  0               -3.0445e-006    1.0323e-008     1.3989e-009    
  0.05            0.00018815      -1.74e-008      -1.7756e-009   
  0.1             0.00035438      1.1569e-008     -8.69e-011     
  0.15            0.00049586      -1.7492e-008    2.2354e-009    
  0.2             0.00061534      -1.1405e-008    -8.686e-010    
  0.25            0.00071211      2.8112e-008     -1.3636e-009   
  0.3             0.00078797      1.0596e-008     6.092e-010     
  0.35            0.00084839      -2.5119e-008    1.36e-009      
  0.4             0.00090167      -1.0648e-008    -4.204e-010    
  0.45            0.00094845      2.4218e-008     -1.4913e-009   
  0.5             0.00098731      1.0524e-008     1.934e-010     
  0.55            0.0010191       -2.1143e-008    1.7278e-009    
  0.6             0.00105087      -1.1697e-008    1.7e-011       
  0.65            0.00108528      1.8859e-008     -1.9345e-009   
  0.7             0.00111206      1.2833e-008     -1.791e-010    
  0.75            0.00113511      -1.5899e-008    2.4063e-009    
  0.8             0.0011614       8.214e-009      1.2833e-009    
  0.85            0.0011882       -1.1213e-008    -8.325e-010    
  0.9             0.0012132       2.7864e-008     -1.3707e-009   
  0.95            0.0012338       1.0456e-008     5.684e-010     
  1               0.0012525       -2.4984e-008    1.3804e-009    
  1.05            0.0012748       -1.0638e-008    -3.794e-010    
  1.1             0.0012984       2.3701e-008     -1.5202e-009   
  1.15            0.0013184       1.0611e-008     1.593e-010     
  1.2             0.0013336       -2.1021e-008    1.7961e-009    
  1.25            0.0013562       -1.2021e-008    -1.1078e-009   
  1.3             0.0013753       1.0626e-008     -2.6214e-009   
  1.35            0.0013926       9.925e-009      3.672e-010     
  1.4             0.0014064       -2.3089e-008    1.5182e-009    
  1.45            0.0014292       -1.1673e-008    -1.3237e-009   
  1.5             0.0014465       1.269e-008      -2.3863e-009   
  1.55            0.0014594       9.593e-009      2.1536e-009    
  1.6             0.0014761       -1.141e-008     -3.566e-010    
  1.65            0.0014962       2.1916e-008     -1.5216e-009   
  1.7             0.0015122       1.6312e-008     -1.9003e-009   
  1.75            0.0015284       8.982e-009      -2.3988e-009   
  1.8             0.0015438       4.674e-009      -2.7156e-009   
  1.85            0.0015594       8.768e-009      -1.9558e-009   
  1.9             0.0015718       -4.891e-009     2.3898e-009    
  1.95            0.0015875       -3.1428e-008    -7.088e-010    
  2               0.001605        -2.054e-009     -1.3936e-009   
  2.05            0.0016169       -3.2799e-008    2.9071e-009    
  2.1             0.0016353       -6.6545e-008    -1.3842e-009   
  2.15            0.0016487       -5.4585e-008    -1.6387e-009   
  2.2             0.0016608       -9.581e-008     1.295e-009     
  2.25            0.001676        -1.3283e-007    -2.8233e-009   
  2.3             0.0016853       -1.533e-007     1.5351e-009    
  2.35            0.0017017       -2.2447e-007    2.593e-010     
  2.4             0.0017209       -2.534e-007     -2.3392e-009   
  2.45            0.0017311       -3.2445e-007    2.1916e-009    
  2.5             0.001745        -4.2482e-007    -4.2e-010      
  2.55            0.0017626       -4.852e-007     -1.4968e-009   
  2.6             0.0017737       -6.1398e-007    2.7222e-009    
  2.65            0.0017899       -7.647e-007     -1.113e-009    
  2.7             0.0018046       -8.8e-007       -1.3251e-009   
  2.75            0.0018148       -1.08141e-006   2.9319e-009    
  2.8             0.0018261       -1.3041e-006    2.5011e-009    
  2.85            0.0018437       -1.5358e-006    -2.0882e-009   
  2.9             0.0018585       -1.7877e-006    4.085e-010     
  2.95            0.0018682       -2.1318e-006    1.4874e-009    
  3               0.0018849       -2.4727e-006    -2.6872e-009   
  3.05            0.0018966       -2.8541e-006    1.0573e-009    
  3.1             0.0019118       -3.35e-006      1.2728e-009    
  3.15            0.0019278       -3.847e-006     -2.7541e-009   
  3.2             0.0019372       -4.4145e-006    1.7412e-009    
  3.25            0.0019532       -5.0987e-006    8.16e-011      
  3.3             0.001973        -5.8153e-006    -2.0322e-009   
  3.35            0.0019844       -6.6489e-006    2.3523e-009    
  3.4             0.002           -7.606e-006     -6.533e-010    
  3.45            0.002018        -8.6078e-006    -1.4067e-009   
  3.5             0.0020301       -9.7885e-006    2.8753e-009    
  3.55            0.0020493       -1.11133e-005   -1.3243e-009   
  3.6             0.0020593       -1.2516e-005    1.9843e-009    
  3.65            0.0020763       -1.4145e-005    -1.458e-010    
  3.7             0.0020974       -1.5877e-005    -1.7027e-009   
  3.75            0.0021119       -1.7837e-005    2.5277e-009    
  3.8             0.0021309       -2.0021e-005    -9.003e-010    
  3.85            0.0021501       -2.2321e-005    -1.3576e-009   
  3.9             0.0021652       -2.4945e-005    2.9713e-009    
  3.95            0.0021893       -2.7831e-005    -1.5727e-009   
  4               0.0022062       -3.089e-005     -1.4875e-009   
  4.05            0.0022246       -3.4277e-005    2.7389e-009    
  4.1             0.0022481       -3.8006e-005    -1.1302e-009   
  4.15            0.0022702       -4.1915e-005    -1.3241e-009   
  4.2             0.002289        -4.6288e-005    2.928e-009     
  4.25            0.0023165       -5.1043e-005    -1.8027e-009   
  4.3             0.0023388       -5.6037e-005    -6.21e-011     
  4.35            0.0023595       -6.1516e-005    2.1802e-009    
  4.4             0.0023882       -6.7395e-005    -2.2469e-009   
  4.45            0.0024151       -7.3608e-005    6.168e-010     
  4.5             0.00244         -8.0449e-005    1.3601e-009    
  4.55            0.0024725       -8.7615e-005    -2.7935e-009   
  4.6             0.0024988       -9.5224e-005    1.2542e-009    
  4.65            0.002532        -0.000103551    1.7663e-009    
  4.7             0.0025669       -0.000112275    -2.4873e-009   
  4.75            0.0025982       -0.00012088     2.2255e-009    
  4.8             0.0026345       -0.00013104     -4.588e-010    
  4.85            0.0026762       -0.00014155     -1.4749e-009   
  4.9             0.0027121       -0.00015286     2.754e-009     
  4.95            0.0027561       -0.00016503     -1.1532e-009   
  5               0.0027996       -0.00017751     -1.3237e-009   
END_DB

BEGIN_DB
 ICCAP_VAR VG         2              
 ICCAP_VAR VS         0              
 ICCAP_VAR VB         0              

 #VD              ID              IB              IG             
  0               -6.4687e-006    -1.1152e-008    1.7093e-009    
  0.05            0.00041814      -1.1101e-008    -2.6805e-009   
  0.1             0.00082422      1.9988e-008     -1.6618e-009   
  0.15            0.0012161       -8.411e-009     -2.6777e-009   
  0.2             0.0015891       1.0153e-008     3.08e-010      
  0.25            0.0019392       -2.2146e-008    1.5915e-009    
  0.3             0.0022665       -1.1486e-008    -9.58e-011     
  0.35            0.0025702       2.0122e-008     -1.7669e-009   
  0.4             0.002845        1.175e-008      -7.69e-011     
  0.45            0.0030913       -1.7776e-008    2.2163e-009    
  0.5             0.0033145       -1.1442e-008    -8.837e-010    
  0.55            0.0035113       2.8119e-008     -1.3621e-009   
  0.6             0.0036814       1.0538e-008     6.24e-010      
  0.65            0.0038287       -2.5387e-008    1.3573e-009    
  0.7             0.0039594       -1.082e-008     -4.527e-010    
  0.75            0.004075        2.4272e-008     -1.4764e-009   
  0.8             0.0041725       1.0479e-008     2.188e-010     
  0.85            0.0042538       -2.1191e-008    1.7039e-009    
  0.9             0.0043284       -1.1593e-008    -9.5e-012      
  0.95            0.0044005       1.9045e-008     -1.8843e-009   
  1               0.0044574       1.1172e-008     9.233e-010     
  1.05            0.0045109       -2.5233e-008    1.2872e-009    
  1.1             0.0045635       -1.1264e-008    -8.035e-010    
  1.15            0.0046121       2.7424e-008     -1.3749e-009   
  1.2             0.0046528       1.0417e-008     5.415e-010     
  1.25            0.0046895       -2.489e-008     1.3974e-009    
  1.3             0.004729        -1.069e-008     -3.469e-010    
  1.35            0.0047689       2.3066e-008     -1.5359e-009   
  1.4             0.0048026       1.0694e-008     1.358e-010     
  1.45            0.0048299       -2.0963e-008    1.8337e-009    
  1.5             0.0048656       -1.1761e-008    -1.0901e-009   
  1.55            0.0048964       1.069e-008      -2.6425e-009   
  1.6             0.0049241       9.863e-009      3.491e-010     
  1.65            0.0049468       -2.3267e-008    1.5436e-009    
  1.7             0.0049793       -1.1966e-008    -1.3103e-009   
  1.75            0.0050048       1.1906e-008     -2.4139e-009   
  1.8             0.0050252       8.395e-009      2.1538e-009    
  1.85            0.0050498       -1.2926e-008    -3.495e-010    
  1.9             0.0050774       1.9386e-008     -1.5311e-009   
  1.95            0.0050998       1.2758e-008     -1.9184e-009   
  2               0.0051227       3.646e-009      -2.4066e-009   
  2.05            0.0051413       -2.2816e-008    -2.2415e-009   
  2.1             0.0051639       -2.0028e-008    -2.4702e-009   
  2.15            0.0051811       -1.8702e-008    2.1019e-009    
  2.2             0.0052017       -5.1204e-008    -2.801e-010    
  2.25            0.0052255       -3.4113e-008    -1.575e-009    
  2.3             0.0052421       -6.9543e-008    2.6119e-009    
  2.35            0.0052608       -1.11212e-007   2.862e-009     
  2.4             0.0052831       -1.5056e-007    -1.3174e-009   
  2.45            0.0053001       -1.6195e-007    -1.7087e-009   
  2.5             0.005316        -2.2915e-007    2.5155e-009    
  2.55            0.005335        -3.1679e-007    -9.021e-010    
  2.6             0.0053545       -3.6044e-007    -1.3554e-009   
  2.65            0.0053676       -4.8431e-007    2.9636e-009    
  2.7             0.0053898       -6.2314e-007    -1.578e-009    
  2.75            0.0054045       -7.4215e-007    -1.4838e-009   
  2.8             0.0054185       -9.2341e-007    2.7313e-009    
  2.85            0.0054347       -1.1245e-006    7.399e-010     
  2.9             0.005449        -1.4014e-006    1.3202e-009    
  2.95            0.0054684       -1.665e-006     -2.8302e-009   
  3               0.0054791       -1.9794e-006    1.3984e-009    
  3.05            0.0054978       -2.3885e-006    1.5982e-009    
  3.1             0.0055163       -2.8226e-006    -2.6112e-009   
  3.15            0.0055305       -3.3141e-006    9.721e-010     
  3.2             0.0055468       -3.934e-006     1.2803e-009    
  3.25            0.0055654       -4.5808e-006    -2.7947e-009   
  3.3             0.0055759       -5.3321e-006    1.6542e-009    
  3.35            0.005594        -6.2253e-006    1.656e-010     
  3.4             0.0056161       -7.1844e-006    -2.1825e-009   
  3.45            0.0056292       -8.3091e-006    2.2853e-009    
  3.5             0.0056464       -9.587e-006     -5.522e-010    
  3.55            0.0056669       -1.09794e-005   -1.4326e-009   
  3.6             0.0056777       -1.2611e-005    1.5179e-009    
  3.65            0.0056982       -1.4399e-005    -2.6647e-009   
  3.7             0.0057138       -1.6396e-005    1.0328e-009    
  3.75            0.0057328       -1.868e-005     1.2731e-009    
  3.8             0.0057536       -2.1178e-005    -2.7696e-009   
  3.85            0.0057672       -2.3971e-005    1.7257e-009    
  3.9             0.005789        -2.711e-005     1.067e-010     
  3.95            0.0058152       -3.0539e-005    -2.066e-009    
  4               0.0058327       -3.4383e-005    2.3385e-009    
  4.05            0.005855        -3.8633e-005    -6.3e-010      
  4.1             0.0058808       -4.3274e-005    -1.4122e-009   
  4.15            0.0059009       -4.8428e-005    2.8532e-009    
