! VERSION = 6.00
BEGIN_HEADER
 ICCAP_INPUTS
  VG         V  B GROUND SMU4 0.001 LIN        1    0          5          101  0.05      
  VS         V  E GROUND SMU3 0.1 CON        0
  VB         V  C GROUND SMU1 0.1 LIN        3    0          -5         3    -2.5      
  VD         V  S GROUND SMU2 0.1 LIN        2    0.1        5          2    4.9       
 ICCAP_OUTPUTS
  IG         I  B GROUND SMU4 B
  ID         I  S GROUND SMU2 B
  IB         I  C GROUND SMU1 B
END_HEADER

BEGIN_DB
 ICCAP_VAR VS         0              
 ICCAP_VAR VB         0              
 ICCAP_VAR VD         0.1            

 #VG              IG              ID              IB             
  0               -5.345e-010     -2.3531e-009    1.2738e-008    
  0.05            1.4063e-009     -1.4137e-009    -1.3323e-008   
  0.1             -1.4032e-009    1.3665e-009     1.3344e-008    
  0.15            1.3298e-009     -1.3361e-009    -1.3466e-008   
  0.2             -1.3477e-009    1.2322e-009     1.2939e-008    
  0.25            1.3497e-009     -1.9178e-009    -1.2551e-008   
  0.3             -1.3576e-009    1.8797e-009     1.2381e-008    
  0.35            1.3604e-009     -1.686e-009     -1.2339e-008   
  0.4             -1.3722e-009    2.1495e-009     1.2391e-008    
  0.45            1.1235e-009     2.1071e-009     -1.3205e-008   
  0.5             -1.3985e-009    7.23e-009       1.2767e-008    
  0.55            -1.3337e-009    2.2071e-008     -1.3616e-008   
  0.6             1.3929e-009     7.7309e-008     -1.3623e-008   
  0.65            8.083e-010      2.3495e-007     -1.2648e-008   
  0.7             -1.3538e-009    5.7763e-007     1.251e-008     
  0.75            1.3779e-009     1.1691e-006     1.3051e-008    
  0.8             -1.3305e-009    2.0825e-006     1.2624e-008    
  0.85            1.4091e-009     3.2747e-006     -1.3307e-008   
  0.9             -1.3644e-009    4.8758e-006     1.2473e-008    
  0.95            1.3254e-009     6.6815e-006     -1.285e-008    
  1               -1.4147e-009    8.7296e-006     1.3189e-008    
  1.05            1.3567e-009     1.08697e-005    -1.2562e-008   
  1.1             9.532e-010      1.3113e-005     -1.2601e-008   
  1.15            -1.4042e-009    1.5331e-005     1.3574e-008    
  1.2             1.3389e-009     1.7445e-005     -1.2442e-008   
  1.25            -1.415e-009     1.9569e-005     1.3075e-008    
  1.3             1.3699e-009     2.1544e-005     -1.2526e-008   
  1.35            -1.3194e-009    2.347e-005      1.2667e-008    
  1.4             1.4057e-009     2.5325e-005     -1.3199e-008   
  1.45            -1.3578e-009    2.7132e-005     1.2453e-008    
  1.5             1.4037e-009     2.8819e-005     -1.302e-008    
  1.55            -1.3911e-009    3.0503e-005     1.2647e-008    
  1.6             1.3292e-009     3.2074e-005     -1.2619e-008   
  1.65            -1.416e-009     3.3647e-005     1.3201e-008    
  1.7             1.3638e-009     3.5109e-005     -1.249e-008    
  1.75            -1.3281e-009    3.6585e-005     1.2875e-008    
  1.8             1.4095e-009     3.7973e-005     -1.3305e-008   
  1.85            -1.3628e-009    3.9379e-005     1.2335e-008    
  1.9             1.3197e-009     4.0682e-005     -1.2937e-008   
  1.95            -1.4136e-009    4.2002e-005     1.3068e-008    
  2               1.354e-009      4.3254e-005     -1.2525e-008   
  2.05            -1.4061e-009    4.4506e-005     1.3049e-008    
  2.1             1.3852e-009     4.5698e-005     -1.2807e-008   
  2.15            -1.3327e-009    4.6892e-005     1.2633e-008    
  2.2             1.4112e-009     4.8035e-005     -1.3352e-008   
  2.25            -1.367e-009     4.9178e-005     1.2467e-008    
  2.3             1.3283e-009     5.0267e-005     -1.2914e-008   
  2.35            -1.4135e-009    5.1381e-005     1.3171e-008    
  2.4             1.3596e-009     5.2422e-005     -1.2521e-008   
  2.45            -1.3982e-009    5.3478e-005     1.2941e-008    
  2.5             1.3926e-009     5.4495e-005     -1.2848e-008   
  2.55            -1.3413e-009    5.5521e-005     1.2511e-008    
  2.6             1.4076e-009     5.6494e-005     -1.3288e-008   
  2.65            -1.3718e-009    5.7483e-005     1.2469e-008    
  2.7             1.3167e-009     5.8422e-005     -1.2571e-008   
  2.75            -1.4083e-009    5.9399e-005     1.3099e-008    
  2.8             1.3511e-009     6.0307e-005     -1.2547e-008   
  2.85            -1.4084e-009    6.1233e-005     1.3067e-008    
  2.9             1.3849e-009     6.2115e-005     -1.2707e-008   
  2.95            -1.3305e-009    6.3014e-005     1.2673e-008    
  3               1.4091e-009     6.3862e-005     -1.3298e-008   
  3.05            -1.3631e-009    6.4739e-005     1.2396e-008    
  3.1             1.3232e-009     6.5568e-005     -1.2883e-008   
  3.15            -1.4122e-009    6.6417e-005     1.3074e-008    
  3.2             1.356e-009      6.722e-005      -1.2544e-008   
  3.25            -1.403e-009     6.8037e-005     1.2933e-008    
  3.3             1.3898e-009     6.8815e-005     -1.2856e-008   
  3.35            -1.3367e-009    6.962e-005      1.2549e-008    
  3.4             1.4098e-009     7.0383e-005     -1.3333e-008   
  3.45            -1.3704e-009    7.1151e-005     1.2433e-008    
  3.5             1.4006e-009     7.1895e-005     -1.263e-008    
  3.55            -1.3907e-009    7.2646e-005     1.2691e-008    
  3.6             1.3313e-009     7.336e-005      -1.2632e-008   
  3.65            -1.4156e-009    7.4095e-005     1.3245e-008    
  3.7             1.3666e-009     7.4792e-005     -1.2514e-008   
  3.75            -1.328e-009     7.5506e-005     1.2912e-008    
  3.8             1.4086e-009     7.6187e-005     -1.3316e-008   
  3.85            -1.361e-009     7.6876e-005     1.2365e-008    
  3.9             1.3946e-009     7.7541e-005     -1.3011e-008   
  3.95            -1.397e-009     7.8213e-005     1.2872e-008    
  4               1.3394e-009     7.8853e-005     -1.2537e-008   
  4.05            -1.4136e-009    7.951e-005      1.3178e-008    
  4.1             1.3737e-009     8.0135e-005     -1.2508e-008   
  4.15            -1.4012e-009    8.0773e-005     1.263e-008     
  4.2             1.3903e-009     8.1376e-005     -1.2891e-008   
  4.25            -1.3404e-009    8.2002e-005     1.2547e-008    
  4.3             1.4079e-009     8.2603e-005     -1.3303e-008   
  4.35            -1.3709e-009    8.3202e-005     1.2414e-008    
  4.4             1.3982e-009     8.3787e-005     -1.2593e-008   
  4.45            -1.3881e-009    8.4372e-005     1.2636e-008    
  4.5             1.3299e-009     8.4936e-005     -1.2617e-008   
  4.55            -1.4152e-009    8.5503e-005     1.3229e-008    
  4.6             1.366e-009      8.6044e-005     -1.2452e-008   
  4.65            -1.329e-009     8.661e-005      1.2823e-008    
  4.7             1.4098e-009     8.7132e-005     -1.339e-008    
  4.75            -1.3627e-009    8.7675e-005     1.2334e-008    
  4.8             1.3211e-009     8.8193e-005     -1.2923e-008   
  4.85            -1.4119e-009    8.8723e-005     1.3212e-008    
  4.9             1.3534e-009     8.9219e-005     -1.2496e-008   
  4.95            -1.4039e-009    8.9727e-005     1.2926e-008    
  5               1.387e-009      9.022e-005      -1.276e-008    
END_DB

BEGIN_DB
 ICCAP_VAR VS         0              
 ICCAP_VAR VB         0              
 ICCAP_VAR VD         5              

 #VG              IG              ID              IB             
  0               -6.565e-010     -2.2542e-009    1.3044e-008    
  0.05            1.3352e-009     -1.2988e-009    -1.3221e-008   
  0.1             -1.3467e-009    2.027e-009      1.2593e-008    
  0.15            1.3549e-009     -1.9661e-009    -1.2727e-008   
  0.2             -1.366e-009     1.9133e-009     1.2632e-008    
  0.25            1.3714e-009     -1.7656e-009    -1.2603e-008   
  0.3             -1.3832e-009    2.0737e-009     1.2371e-008    
  0.35            1.4063e-009     2.6824e-009     -1.3871e-008   
  0.4             -1.4047e-009    6.8397e-009     1.2722e-008    
  0.45            -1.0485e-009    2.0705e-008     -1.5168e-008   
  0.5             1.4109e-009     8.0329e-008     -1.9213e-008   
  0.55            -1.3605e-009    2.7539e-007     -1.4239e-008   
  0.6             1.3364e-009     7.6293e-007     -6.9117e-008   
  0.65            -1.4032e-009    1.7774e-006     -1.2933e-007   
  0.7             -5.973e-010     3.5014e-006     -2.514e-007    
  0.75            1.3233e-009     6.1204e-006     -4.162e-007    
  0.8             9.197e-010      9.807e-006      -6.1147e-007   
  0.85            1.2554e-009     1.4627e-005     -9.0346e-007   
  0.9             -1.4069e-009    2.0656e-005     -1.1942e-006   
  0.95            -6.057e-010     2.7726e-005     -1.573e-006    
  1               1.4004e-009     3.5717e-005     -1.9528e-006   
  1.05            5.975e-010      4.4768e-005     -2.3192e-006   
  1.1             -1.4011e-009    5.4757e-005     -2.7282e-006   
  1.15            -5.902e-010     6.5131e-005     -3.1603e-006   
  1.2             1.3245e-009     7.6056e-005     -3.5508e-006   
  1.25            9.108e-010      8.7574e-005     -3.9084e-006   
  1.3             -1.331e-009     9.9676e-005     -4.2694e-006   
  1.35            -9.042e-010     0.000111919     -4.6409e-006   
  1.4             -6.85e-010      0.0001246       -4.9714e-006   
  1.45            1.4075e-009     0.00013748      -5.2846e-006   
  1.5             6.789e-010      0.00015079      -5.5444e-006   
  1.55            -1.4138e-009    0.00016426      -5.8039e-006   
  1.6             -6.704e-010     0.00017758      -6.0662e-006   
  1.65            1.4105e-009     0.00019138      -6.288e-006    
  1.7             6.61e-010       0.00020526      -6.4571e-006   
  1.75            -1.4131e-009    0.00021923      -6.6315e-006   
  1.8             -6.541e-010     0.00023327      -6.8074e-006   
  1.85            1.4118e-009     0.00024756      -6.946e-006    
  1.9             6.445e-010      0.00026175      -7.0369e-006   
  1.95            -1.4147e-009    0.00027648      -7.1279e-006   
  2               -6.341e-010     0.00029088      -7.2336e-006   
  2.05            1.408e-009      0.0003053       -7.2953e-006   
  2.1             6.263e-010      0.00031965      -7.3155e-006   
  2.15            -1.4108e-009    0.00033473      -7.3454e-006   
  2.2             -6.2e-010       0.00034934      -7.3834e-006   
  2.25            1.4024e-009     0.00036395      -7.3867e-006   
  2.3             6.095e-010      0.00037878      -7.3556e-006   
  2.35            -1.4055e-009    0.00039368      -7.3309e-006   
  2.4             -6.015e-010     0.00040839      -7.3237e-006   
  2.45            1.3963e-009     0.00042318      -7.2798e-006   
  2.5             5.918e-010      0.00043802      -7.204e-006    
  2.55            -1.3217e-009    0.00045309      -7.1424e-006   
  2.6             -9.223e-010     0.00046796      -7.0943e-006   
  2.65            1.3292e-009     0.0004827       -7.0204e-006   
  2.7             9.042e-010      0.00049771      -6.9169e-006   
  2.75            -1.3312e-009    0.00051299      -6.8202e-006   
  2.8             -8.945e-010     0.00052789      -6.7408e-006   
  2.85            1.3332e-009     0.00054278      -6.6537e-006   
  2.9             8.791e-010      0.00055779      -6.5279e-006   
  2.95            -1.3377e-009    0.00057269      -6.418e-006    
  3               -8.69e-010      0.00058781      -6.3197e-006   
  3.05            1.3417e-009     0.0006024       -6.2128e-006   
  3.1             8.528e-010      0.00061771      -6.0772e-006   
  3.15            -1.3429e-009    0.00063277      -5.9487e-006   
  3.2             -8.452e-010     0.00064774      -5.8475e-006   
  3.25            1.3463e-009     0.00066233      -5.7311e-006   
  3.3             8.322e-010      0.00067747      -5.5874e-006   
  3.35            -1.3462e-009    0.00069261      -5.4565e-006   
  3.4             -8.232e-010     0.00070735      -5.3529e-006   
  3.45            1.3497e-009     0.00072202      -5.2272e-006   
  3.5             8.112e-010      0.00073715      -5.0839e-006   
  3.55            -1.3546e-009    0.00075219      -4.9519e-006   
  3.6             -8.039e-010     0.00076697      -4.8458e-006   
  3.65            1.3559e-009     0.00078166      -4.7281e-006   
  3.7             7.921e-010      0.00079654      -4.5876e-006   
  3.75            -1.3612e-009    0.00081146      -4.4591e-006   
  3.8             -7.848e-010     0.00082616      -4.3541e-006   
  3.85            1.3621e-009     0.0008408       -4.2413e-006   
  3.9             7.762e-010      0.00085573      -4.1046e-006   
  3.95            -1.3683e-009    0.00087072      -3.982e-006    
  4               -7.637e-010     0.00088527      -3.8861e-006   
  4.05            1.3684e-009     0.0008998       -3.7797e-006   
  4.1             7.582e-010      0.00091459      -3.6499e-006   
  4.15            -1.3753e-009    0.00092952      -3.5352e-006   
  4.2             -7.477e-010     0.00094415      -3.4474e-006   
  4.25            1.3735e-009     0.00095865      -3.3484e-006   
  4.3             7.407e-010      0.00097322      -3.2293e-006   
  4.35            -1.3827e-009    0.00098787      -3.1241e-006   
  4.4             -7.31e-010      0.00100265      -3.0414e-006   
  4.45            1.383e-009      0.00101699      -2.9521e-006   
  4.5             7.223e-010      0.00103148      -2.8378e-006   
  4.55            -1.3958e-009    0.00104609      -2.7403e-006   
  4.6             -7.107e-010     0.00106051      -2.6725e-006   
  4.65            1.394e-009      0.00107467      -2.5913e-006   
  4.7             7.038e-010      0.00108912      -2.4861e-006   
  4.75            -1.4043e-009    0.00110372      -2.4004e-006   
  4.8             -6.887e-010     0.00111788      -2.3416e-006   
  4.85            1.4012e-009     0.00113204      -2.2697e-006   
  4.9             1.396e-009      0.0011473       -2.1781e-006   
  4.95            7.06e-010       0.0011614       -2.0985e-006   
  5               -1.4051e-009    0.0011758       -2.0215e-006   
END_DB

BEGIN_DB
 ICCAP_VAR VS         0              
 ICCAP_VAR VB         -2.5           
 ICCAP_VAR VD         0.1            

 #VG              IG              ID              IB             
  0               1.314e-010      1.6807e-009     -1.9118e-008   
  0.05            -7.255e-010     -2.2023e-009    -1.7771e-008   
  0.1             1.4072e-009     -1.4657e-009    -2.4102e-008   
  0.15            -6.443e-010     -2.2656e-009    -1.8342e-008   
  0.2             1.333e-009      -1.3013e-009    -2.4389e-008   
  0.25            7.815e-010      2.1382e-009     -4.422e-009    
  0.3             -8.031e-010     -2.1224e-009    -1.7571e-008   
  0.35            1.395e-009      -1.6615e-009    -2.3712e-008   
  0.4             -7.142e-010     -2.2136e-009    -1.7769e-008   
  0.45            1.409e-009      -1.4441e-009    -2.4223e-008   
  0.5             -6.323e-010     -2.2708e-009    -1.8618e-008   
  0.55            1.3392e-009     -1.2751e-009    -2.4375e-008   
  0.6             7.718e-010      2.1489e-009     -4.411e-009    
  0.65            -7.921e-010     -2.1271e-009    -1.7613e-008   
  0.7             1.4013e-009     -1.5994e-009    -2.3702e-008   
  0.75            1.3762e-009     -2.227e-009     -1.349e-008    
  0.8             -5.739e-010     -1.5958e-009    -2.0903e-008   
  0.85            -6.685e-010     9.039e-010      -1.8056e-008   
  0.9             -1.4067e-009    1.3514e-008     -1.8043e-008   
  0.95            1.369e-009      5.2391e-008     -1.2915e-008   
  1               1.052e-009      1.693e-007      -2.0607e-008   
  1.05            -7.199e-010     4.5425e-007     -1.8224e-008   
  1.1             1.3997e-009     1.01437e-006    -2.4103e-008   
  1.15            -1.3967e-009    1.9057e-006     -2.3219e-008   
  1.2             -7.264e-010     3.1271e-006     -1.8091e-008   
  1.25            1.3939e-009     4.6683e-006     -2.4102e-008   
  1.3             -7.94e-010      6.5236e-006     -1.7718e-008   
  1.35            1.3696e-009     8.5439e-006     -2.369e-008    
  1.4             7.826e-010      1.07147e-005    -4.184e-009    
  1.45            1.3563e-009     1.2883e-005     -2.0241e-008   
  1.5             7.99e-010       1.5051e-005     -4.345e-009    
  1.55            -9.259e-010     1.7171e-005     -1.7529e-008   
  1.6             1.3246e-009     1.9178e-005     -2.3894e-008   
  1.65            9.032e-010      2.1131e-005     -4.424e-009    
  1.7             -6.264e-010     2.3012e-005     -2.1402e-008   
  1.75            1.4063e-009     2.4785e-005     -2.4192e-008   
  1.8             -6.909e-010     2.6509e-005     -1.9157e-008   
  1.85            1.4057e-009     2.8142e-005     -2.4384e-008   
  1.9             -7.618e-010     2.974e-005      -1.7889e-008   
  1.95            1.3756e-009     3.124e-005      -2.3908e-008   
  2               -8.409e-010     3.2734e-005     -1.7578e-008   
  2.05            1.3464e-009     3.4141e-005     -2.369e-008    
  2.1             8.239e-010      3.5534e-005     -4.345e-009    
  2.15            -9.543e-010     3.6874e-005     -1.7509e-008   
  2.2             1.3201e-009     3.8151e-005     -2.3741e-008   
  2.25            9.288e-010      3.9415e-005     -4.445e-009    
  2.3             -6.471e-010     4.0651e-005     -2.0966e-008   
  2.35            1.4083e-009     4.1834e-005     -2.4501e-008   
  2.4             -7.135e-010     4.3011e-005     -1.8301e-008   
  2.45            1.3926e-009     4.4139e-005     -2.4311e-008   
  2.5             -7.835e-010     4.5268e-005     -1.7776e-008   
  2.55            1.3634e-009     4.635e-005      -2.3834e-008   
  2.6             7.713e-010      4.7423e-005     -4.234e-009    
  2.65            -8.845e-010     4.8475e-005     -1.76e-008     
  2.7             1.3365e-009     4.9485e-005     -2.3722e-008   
  2.75            8.627e-010      5.0522e-005     -4.367e-009    
  2.8             -1.0087e-009    5.1512e-005     -1.7303e-008   
  2.85            1.4061e-009     5.2472e-005     -2.3601e-008   
  2.9             -7.062e-010     5.3426e-005     -1.8501e-008   
  2.95            1.3972e-009     5.4351e-005     -2.4553e-008   
  3               -7.724e-010     5.5274e-005     -1.7815e-008   
  3.05            1.3681e-009     5.6169e-005     -2.3949e-008   
  3.1             7.613e-010      5.7071e-005     -4.218e-009    
  3.15            -8.671e-010     5.7937e-005     -1.7521e-008   
  3.2             1.3404e-009     5.8794e-005     -2.3637e-008   
  3.25            8.51e-010       5.9649e-005     -4.412e-009    
  3.3             -9.879e-010     6.0472e-005     -1.7389e-008   
  3.35            1.4048e-009     6.1293e-005     -2.3649e-008   
  3.4             -6.946e-010     6.2104e-005     -1.9166e-008   
  3.45            1.4002e-009     6.2896e-005     -2.456e-008    
  3.5             -7.619e-010     6.3682e-005     -1.7855e-008   
  3.55            1.3726e-009     6.4443e-005     -2.3938e-008   
  3.6             -8.336e-010     6.5216e-005     -1.7613e-008   
  3.65            1.3456e-009     6.5958e-005     -2.3624e-008   
  3.7             8.217e-010      6.6701e-005     -4.411e-009    
  3.75            -9.487e-010     6.7436e-005     -1.7485e-008   
  3.8             1.3204e-009     6.8156e-005     -2.368e-008    
  3.85            9.284e-010      6.8865e-005     -4.373e-009    
  3.9             -6.476e-010     6.9555e-005     -2.0927e-008   
  3.95            1.4074e-009     7.0239e-005     -2.4499e-008   
  4               -7.124e-010     7.0924e-005     -1.8312e-008   
  4.05            1.3926e-009     7.1586e-005     -2.4342e-008   
  4.1             -7.805e-010     7.225e-005      -1.7776e-008   
  4.15            1.3639e-009     7.2902e-005     -2.384e-008    
