! VERSION = 6.00
BEGIN_HEADER
 ICCAP_INPUTS
  VG         V  B GROUND SMU4 0.001 LIN        2    0          5          6    1         
  VS         V  E GROUND SMU2 0.1 CON        0
  VD         V  S GROUND SMU1 0.1 LIN        1    0          5          101  0.05      
  VB         V  C GROUND SMU3 0.1 LIN        3    0          -2.5       2    -2.5      
 ICCAP_OUTPUTS
  ID         I  S GROUND SMU1 B
  IB         I  C GROUND SMU3 B
  IG         I  B GROUND SMU4 B
END_HEADER

BEGIN_DB
 ICCAP_VAR VG         0              
 ICCAP_VAR VS         0              
 ICCAP_VAR VB         0              

 #VD              ID              IB              IG             
  0               -1.4934e-009    -8.597e-009     -1.4018e-009   
  0.05            -2.19e-009      9.098e-009      -1.1057e-009   
  0.1             -1.7699e-009    -1.014e-008     1.5312e-009    
  0.15            2.3281e-009     -8.303e-009     8.971e-010     
  0.2             1.7384e-009     1.355e-008      -1.6831e-009   
  0.25            -1.6186e-009    6.552e-009      -1.7478e-009   
  0.3             -1.561e-009     -2.0223e-008    2.3082e-009    
  0.35            2.112e-009      -6.567e-009     1.3853e-009    
  0.4             1.2869e-009     2.92e-008       -1.3719e-009   
  0.45            -2.105e-009     1.1487e-008     -1.3099e-009   
  0.5             -1.9579e-009    -1.1504e-008    -1.471e-009    
  0.55            -1.3543e-009    -2.6369e-008    1.3223e-009    
  0.6             9.68e-011       -9.031e-009     1.3232e-009    
  0.65            -2.17e-011      -1.2136e-008    2.8565e-009    
  0.7             1.395e-009      2.8325e-008     -1.3768e-009   
  0.75            5.3e-012        1.3055e-008     -1.3719e-009   
  0.8             1.448e-010      1.3945e-008     -2.6771e-009   
  0.85            -1.5332e-009    -2.1668e-008    1.3226e-009    
  0.9             -1.105e-010     -1.3891e-008    2.8561e-009    
  0.95            1.4582e-009     2.6334e-008     -1.3771e-009   
  1               7.22e-011       1.3402e-008     -2.6901e-009   
  1.05            -1.4829e-009    -2.4111e-008    1.3236e-009    
  1.1             -2.78e-011      -1.2031e-008    2.8565e-009    
  1.15            1.3964e-009     2.8221e-008     -1.3775e-009   
  1.2             1.21e-011       1.2833e-008     -2.6967e-009   
  1.25            -1.4257e-009    -2.5549e-008    2.614e-009     
  1.3             2.2709e-009     -3.63e-009      1.1984e-009    
  1.35            1.9671e-009     9.999e-009      -2.281e-010    
  1.4             8.869e-010      2.1572e-008     -1.6769e-009   
  1.45            -1.6119e-009    6.51e-009       -1.7493e-009   
  1.5             -2.2037e-009    -1.3062e-008    -3.011e-010    
  1.55            -2.2249e-009    -1.3029e-008    -5.031e-010    
  1.6             -2.2209e-009    -1.2138e-008    -6.927e-010    
  1.65            -2.2077e-009    -1.0659e-008    -8.569e-010    
  1.7             -1.637e-009     -1.52e-008      2.0215e-009    
  1.75            1.9249e-009     -8.374e-009     1.5496e-009    
  1.8             1.4149e-009     2.7716e-008     -1.3775e-009   
  1.85            3.97e-011       1.2944e-008     -1.3676e-009   
  1.9             1.821e-010      1.4105e-008     -2.6647e-009   
  1.95            -1.5516e-009    -2.0472e-008    1.3183e-009    
  2               -1.428e-010     -1.4801e-008    2.8551e-009    
  2.05            1.4824e-009     2.503e-008      -1.3768e-009   
  2.1             1.027e-010      1.3711e-008     -2.6753e-009   
  2.15            -1.5002e-009    -2.3134e-008    1.3242e-009    
  2.2             -5.57e-011      -1.2869e-008    2.8562e-009    
  2.25            1.4229e-009     2.7592e-008     -1.379e-009    
  2.3             4e-011          1.3119e-008     -1.3668e-009   
  2.35            1.848e-010      1.4351e-008     -2.6646e-009   
  2.4             -2.1495e-009    -1.2836e-008    -1.379e-010    
  2.45            -2.2094e-009    -1.3141e-008    -3.391e-010    
  2.5             -2.2209e-009    -1.3054e-008    -5.38e-010     
  2.55            -2.2159e-009    -1.2113e-008    -7.229e-010    
  2.6             -2.2045e-009    -1.0577e-008    -8.797e-010    
  2.65            -1.6469e-009    -1.4379e-008    1.9606e-009    
  2.7             1.8895e-009     -8.566e-009     1.5793e-009    
  2.75            1.6085e-009     1.1038e-008     1.7409e-009    
  2.8             2.2396e-009     1.2714e-008     3.477e-010     
  2.85            2.2773e-009     1.2473e-008     5.199e-010     
  2.9             2.3015e-009     1.0983e-008     6.832e-010     
  2.95            1.5486e-009     2.1005e-008     -1.369e-009    
  3               1.999e-010      1.4634e-008     -2.6613e-009   
  3.05            -1.5609e-009    -1.9844e-008    2.2946e-009    
  3.1             2.1055e-009     -6.54e-009      1.4011e-009    
  3.15            1.2952e-009     2.962e-008      -1.3721e-009   
  3.2             -2.1031e-009    1.166e-008      -1.3193e-009   
  3.25            -1.9513e-009    -1.0667e-008    -1.4832e-009   
  3.3             -1.363e-009     -2.6674e-008    1.3224e-009    
  3.35            9.1e-011        -9.342e-009     2.8353e-009    
  3.4             1.7761e-009     -2.1e-011       1.6501e-009    
  3.45            1.5003e-009     1.063e-008      1.8013e-009    
  3.5             2.2578e-009     1.2664e-008     4.193e-010     
  3.55            2.2845e-009     1.1853e-008     5.9e-010       
  3.6             1.4816e-009     2.4679e-008     -1.3782e-009   
  3.65            1.077e-010      1.37e-008       -2.6774e-009   
  3.7             -1.5018e-009    -2.2902e-008    1.3252e-009    
  3.75            -6.53e-011      -1.2903e-008    2.8518e-009    
  3.8             1.4222e-009     2.7418e-008     -1.379e-009    
  3.85            3.74e-011       1.3092e-008     -1.3668e-009   
  3.9             1.866e-010      1.4324e-008     -2.6642e-009   
  3.95            -1.5521e-009    -2.0354e-008    2.32e-009      
  4               2.1258e-009     -6.375e-009     1.3802e-009    
  4.05            1.2812e-009     2.9488e-008     -1.3736e-009   
  4.1             -2.1176e-009    1.1339e-008     -1.3017e-009   
  4.15            -1.9714e-009    -1.0495e-008    -1.4579e-009   
  4.2             -1.3426e-009    -2.6885e-008    1.3215e-009    
  4.25            1.083e-010      -9.073e-009     1.3251e-009    
  4.3             -9.8e-012       -1.1678e-008    2.8484e-009    
  4.35            1.3769e-009     2.8727e-008     -1.3769e-009   
  4.4             -8.7e-012       1.2479e-008     -1.3711e-009   
  4.45            1.308e-010      1.3828e-008     -2.6768e-009   
  4.5             -1.5206e-009    -2.2558e-008    1.3226e-009    
  4.55            -9e-011         -1.3418e-008    2.8542e-009    
  4.6             1.4418e-009     2.701e-008      -1.3784e-009   
  4.65            6.05e-011       1.3132e-008     -2.6856e-009   
  4.7             -1.4666e-009    -2.484e-008     2.5445e-009    
  4.75            2.2425e-009     -4.326e-009     1.2483e-009    
  4.8             2.0071e-009     1.0425e-008     -1.746e-010    
  4.85            9.239e-010      2.2472e-008     -1.6086e-009   
  4.9             -1.54e-009      7.163e-009      -1.7921e-009   
  4.95            -2.2169e-009    -1.3095e-008    -3.672e-010    
  5               -2.2261e-009    -1.2877e-008    -5.654e-010    
END_DB

BEGIN_DB
 ICCAP_VAR VG         1              
 ICCAP_VAR VS         0              
 ICCAP_VAR VB         0              

 #VD              ID              IB              IG             
  0               -5.0224e-009    -2.6765e-008    -2.7119e-009   
  0.05            5.219e-007      1.4571e-008     -2.3763e-009   
  0.1             8.8939e-007     2.4441e-008     -1.3805e-009   
  0.15            1.10485e-006    9.858e-009      1.0845e-009    
  0.2             1.2363e-006     2.7463e-008     2.8405e-009    
  0.25            1.312e-006      -1.1833e-008    -1.0029e-009   
  0.3             1.3679e-006     1.9785e-008     -1.5278e-009   
  0.35            1.389e-006      1.2643e-008     6.166e-010     
  0.4             1.403e-006      -1.8551e-008    2.1654e-009    
  0.45            1.4149e-006     -2.6498e-008    2.3647e-009    
  0.5             1.4246e-006     -2.6838e-008    2.5176e-009    
  0.55            1.4345e-006     -1.0354e-008    -1.4e-012      
  0.6             1.4642e-006     1.2699e-008     -2.6391e-009   
  0.65            1.4689e-006     1.3595e-008     -1.4441e-009   
  0.7             1.4698e-006     1.2667e-008     7.263e-010     
  0.75            1.4748e-006     -1.8805e-008    1.9569e-009    
  0.8             1.4778e-006     -2.5032e-008    2.1639e-009    
  0.85            1.4864e-006     -2.6478e-008    2.3564e-009    
  0.9             1.4923e-006     -2.6837e-008    2.5179e-009    
  0.95            1.5104e-006     -1.0483e-008    -1.6872e-009   
  1               1.5192e-006     2.9011e-008     -2.1016e-009   
  1.05            1.5255e-006     2.9232e-008     -1.3766e-009   
  1.1             1.533e-006      2.9312e-008     -1.3756e-009   
  1.15            1.5368e-006     2.934e-008      -1.374e-009    
  1.2             1.5427e-006     2.9285e-008     -1.3736e-009   
  1.25            1.5501e-006     2.9283e-008     -1.3715e-009   
  1.3             1.5532e-006     2.9043e-008     -2.1159e-009   
  1.35            1.5586e-006     2.9345e-008     -1.3778e-009   
  1.4             1.5673e-006     2.9074e-008     -1.3782e-009   
  1.45            1.574e-006      2.9272e-008     -1.3753e-009   
  1.5             1.5756e-006     2.9243e-008     -1.3751e-009   
  1.55            1.58e-006       2.9174e-008     -1.3745e-009   
  1.6             1.5879e-006     2.9063e-008     -1.3713e-009   
  1.65            1.5911e-006     2.9086e-008     -2.1106e-009   
  1.7             1.597e-006      2.9221e-008     -1.3779e-009   
  1.75            1.5998e-006     2.9183e-008     -1.3765e-009   
  1.8             1.6022e-006     2.9336e-008     -1.376e-009    
  1.85            1.6093e-006     2.9062e-008     -1.3729e-009   
  1.9             1.6132e-006     2.9348e-008     -1.3705e-009   
  1.95            1.6177e-006     2.911e-008      -1.3704e-009   
  2               1.6201e-006     2.8939e-008     -1.3685e-009   
  2.05            1.6235e-006     2.8817e-008     -1.3661e-009   
  2.1             1.6305e-006     2.8637e-008     -1.364e-009    
  2.15            1.6324e-006     2.8247e-008     -1.3611e-009   
  2.2             1.6379e-006     2.8e-008        -1.358e-009    
  2.25            1.64e-006       2.764e-008      -1.3541e-009   
  2.3             1.6471e-006     2.7139e-008     -1.9239e-009   
  2.35            1.6469e-006     2.8926e-008     -1.3676e-009   
  2.4             1.6519e-006     2.8595e-008     -1.3654e-009   
  2.45            1.6548e-006     2.85e-008       -1.3619e-009   
  2.5             1.6595e-006     2.8125e-008     -1.3602e-009   
  2.55            1.6639e-006     2.7704e-008     -1.3568e-009   
  2.6             1.6677e-006     2.7192e-008     -1.9403e-009   
  2.65            1.6701e-006     2.864e-008      -2.1131e-009   
  2.7             1.6738e-006     2.8803e-008     -1.3775e-009   
  2.75            1.6773e-006     2.8652e-008     -1.3758e-009   
  2.8             1.6811e-006     2.8617e-008     -1.3754e-009   
  2.85            1.6838e-006     2.8378e-008     -1.3738e-009   
  2.9             1.6888e-006     1.6696e-008     -1.9683e-009   
  2.95            1.692e-006      1.6582e-008     -1.9346e-009   
  3               1.6936e-006     1.6447e-008     -1.9032e-009   
  3.05            1.6994e-006     1.6466e-008     -1.8781e-009   
  3.1             1.7011e-006     1.6285e-008     -1.8392e-009   
  3.15            1.7054e-006     1.5944e-008     -1.8166e-009   
  3.2             1.7099e-006     1.5616e-008     -1.7858e-009   
  3.25            1.7131e-006     1.5259e-008     -1.7561e-009   
  3.3             1.7228e-006     1.4999e-008     -1.7286e-009   
  3.35            1.7213e-006     1.4462e-008     -1.7004e-009   
  3.4             1.7235e-006     1.4019e-008     -1.6781e-009   
  3.45            1.7263e-006     1.3439e-008     -1.6499e-009   
  3.5             1.7313e-006     1.287e-008      -1.6274e-009   
  3.55            1.7312e-006     1.2292e-008     -1.6033e-009   
  3.6             1.7385e-006     3.697e-009      -2.6794e-009   
  3.65            1.7427e-006     3.196e-009      -2.6768e-009   
  3.7             1.7465e-006     2.212e-009      -2.6736e-009   
  3.75            1.7505e-006     1.339e-009      -2.6677e-009   
  3.8             1.7413e-006     -2.0741e-008    -2.2822e-009   
  3.85            1.7605e-006     5.579e-009      -1.6235e-009   
  3.9             1.7524e-006     -2.02e-008      -2.7141e-009   
  3.95            1.7689e-006     1.509e-009      -1.9374e-009   
  4               1.752e-006      -6.788e-009     1.873e-009     
  4.05            1.7618e-006     -3.9322e-008    1.7889e-009    
  4.1             1.7735e-006     -3.409e-008     -1.9716e-009   
  4.15            1.7891e-006     -8.202e-009     -1.5199e-009   
  4.2             1.7783e-006     -1.6621e-008    2.1617e-009    
  4.25            1.7791e-006     -4.1271e-008    2.72e-010      
  4.3             1.8042e-006     -2.3409e-008    -2.7009e-009   
  4.35            1.8005e-006     -2.5567e-008    1.0057e-009    
  4.4             1.8017e-006     -5.9605e-008    1.48e-009      
  4.45            1.8112e-006     -5.3148e-008    -2.1108e-009   
  4.5             1.8311e-006     -3.5918e-008    -2.001e-010    
  4.55            1.817e-006      -5.9046e-008    2.8554e-009    
  4.6             1.8368e-006     -6.5624e-008    -1.1234e-009   
  4.65            1.8545e-006     -3.7457e-008    -1.4287e-009   
  4.7             1.8474e-006     -5.5141e-008    2.2727e-009    
  4.75            1.8466e-006     -7.9868e-008    1.621e-010     
  4.8             1.8754e-006     -6.4377e-008    -2.6824e-009   
  4.85            1.8672e-006     -7.1528e-008    1.1223e-009    
  4.9             1.8777e-006     -5.893e-008     -8.15e-011     
  4.95            1.8855e-006     -1.07032e-007   2.7838e-009    
  5               1.8983e-006     -9.771e-008     2.8521e-009    
END_DB

BEGIN_DB
 ICCAP_VAR VG         2              
 ICCAP_VAR VS         0              
 ICCAP_VAR VB         0              

 #VD              ID              IB              IG             
  0               -3.7875e-008    -1.2956e-008    1.3621e-009    
  0.05            3.0215e-006     2.9172e-008     2.8522e-009    
  0.1             5.919e-006      -1.6431e-008    1.6345e-009    
  0.15            8.665e-006      -1.2979e-008    -6.273e-010    
  0.2             1.12569e-005    1.7478e-008     -2.0842e-009   
  0.25            1.3664e-005     1.0515e-008     -2.3427e-009   
  0.3             1.5889e-005     1.0522e-008     2.087e-009     
  0.35            1.7937e-005     -2.0323e-008    1.4951e-009    
  0.4             1.9811e-005     -2.6382e-008    1.3185e-009    
  0.45            2.1523e-005     -1.2886e-008    -6.421e-010    
  0.5             2.3062e-005     7.506e-009      -1.3731e-009   
  0.55            2.4418e-005     2.5298e-008     -1.8403e-009   
  0.6             2.558e-005      1.1806e-008     8.749e-010     
  0.65            2.6582e-005     -2.5416e-008    1.3232e-009    
  0.7             2.746e-005      -2.0667e-008    1.8857e-009    
  0.75            2.8212e-005     -1.1998e-008    -9.761e-010    
  0.8             2.8841e-005     2.7577e-008     -1.3717e-009   
  0.85            2.9308e-005     1.2178e-008     4.575e-010     
  0.9             2.9682e-005     -1.9752e-008    1.5856e-009    
  0.95            3.0019e-005     -2.6089e-008    1.319e-009     
  1               3.0308e-005     -1.2829e-008    -5.554e-010    
  1.05            3.0566e-005     2.0755e-008     -1.5006e-009   
  1.1             3.0704e-005     9.537e-009      1.1177e-009    
  1.15            3.0855e-005     -2.5765e-008    2.3074e-009    
  1.2             3.1012e-005     -1.2961e-008    -7.67e-010     
  1.25            3.1156e-005     8.579e-009      -1.3707e-009   
  1.3             3.1255e-005     1.2171e-008     4.652e-010     
  1.35            3.1314e-005     -1.9824e-008    1.5648e-009    
  1.4             3.1403e-005     -2.6176e-008    1.3186e-009    
  1.45            3.1498e-005     -1.2805e-008    -5.683e-010    
  1.5             3.1609e-005     2.1036e-008     -1.4888e-009   
  1.55            3.1632e-005     9.523e-009      1.1305e-009    
  1.6             3.1697e-005     -2.5538e-008    2.2841e-009    
  1.65            3.1776e-005     -1.2976e-008    -7.828e-010    
  1.7             3.1874e-005     8.572e-009      -1.3733e-009   
  1.75            3.1917e-005     1.2245e-008     4.878e-010     
  1.8             3.1919e-005     -1.9952e-008    1.5524e-009    
  1.85            3.1975e-005     -2.6347e-008    1.3182e-009    
  1.9             3.2059e-005     -1.282e-008     -5.919e-010    
  1.95            3.2135e-005     2.1199e-008     -1.4757e-009   
  2               3.2134e-005     9.451e-009      1.1405e-009    
  2.05            3.2177e-005     -2.5467e-008    2.2663e-009    
  2.1             3.2257e-005     -1.3007e-008    -7.947e-010    
  2.15            3.2318e-005     8.595e-009      -1.3727e-009   
  2.2             3.2353e-005     1.2303e-008     5.04e-010      
  2.25            3.2351e-005     -2.0251e-008    1.5311e-009    
  2.3             3.2389e-005     -2.6315e-008    1.3185e-009    
  2.35            3.2457e-005     -1.2923e-008    -6.018e-010    
  2.4             3.2525e-005     7.176e-009      -1.3747e-009   
  2.45            3.2572e-005     2.6234e-008     -1.8924e-009   
  2.5             3.2562e-005     1.1913e-008     8.445e-010     
  2.55            3.2571e-005     -2.5242e-008    1.3244e-009    
  2.6             3.262e-005      -2.1878e-008    1.9346e-009    
  2.65            3.2676e-005     -1.2637e-008    -9.494e-010    
  2.7             3.2742e-005     2.666e-008      -1.3714e-009   
  2.75            3.2763e-005     2.2333e-008     -1.7428e-009   
  2.8             3.2807e-005     1.4024e-008     -2.435e-009    
  2.85            3.2766e-005     9.674e-009      2.024e-009     
  2.9             3.2798e-005     -1.251e-008     -5.2e-011      
  2.95            3.2894e-005     1.5748e-008     -2.04e-009     
  3               3.2905e-005     9.812e-009      7.633e-010     
  3.05            3.2888e-005     -2.7283e-008    1.342e-009     
  3.1             3.3004e-005     -1.3672e-008    -1.4245e-009   
  3.15            3.3032e-005     9.555e-009      -2.4623e-009   
  3.2             3.3048e-005     1.2674e-008     -1.7233e-009   
  3.25            3.3091e-005     7.585e-009      -2.4171e-009   
  3.3             3.3111e-005     9.899e-009      -1.6692e-009   
  3.35            3.3098e-005     -2.548e-009     2.4787e-009    
  3.4             3.3139e-005     -2.6292e-008    -7.042e-010    
  3.45            3.3203e-005     -7.83e-009      -1.3707e-009   
  3.5             3.3186e-005     -1.0435e-008    2.7916e-009    
  3.55            3.3243e-005     -3.2133e-008    -1.1919e-009   
  3.6             3.3291e-005     2.758e-009      -1.3633e-009   
  3.65            3.3279e-005     -2.4791e-008    2.8561e-009    
  3.7             3.3361e-005     -4.4961e-008    -1.4778e-009   
  3.75            3.338e-005      -1.9682e-008    -1.6767e-009   
  3.8             3.3378e-005     -3.8413e-008    2.4716e-009    
  3.85            3.341e-005      -6.6926e-008    -6.985e-010    
  3.9             3.3485e-005     -3.9055e-008    -1.4227e-009   
  3.95            3.3461e-005     -6.2161e-008    2.6627e-009    
  4               3.3515e-005     -9.2338e-008    -9.68e-010     
  4.05            3.3579e-005     -6.3881e-008    -1.3707e-009   
  4.1             3.3629e-005     -1.1517e-007    -1.767e-009    
  4.15            3.366e-005      -1.0492e-007    -2.342e-010    
