! VERSION = 6.00
BEGIN_HEADER
 ICCAP_INPUTS
  VG         V  B GROUND SMU4 0.001 LIN        1    0          5          101  0.05      
  VS         V  E GROUND SMU2 0.1 CON        0
  VB         V  C GROUND SMU3 0.1 LIN        3    0          -5         3    -2.5      
  VD         V  S GROUND SMU1 0.1 LIN        2    0.1        5          2    4.9       
 ICCAP_OUTPUTS
  IG         I  B GROUND SMU4 B
  ID         I  S GROUND SMU1 B
  IB         I  C GROUND SMU3 B
END_HEADER

BEGIN_DB
 ICCAP_VAR VS         0              
 ICCAP_VAR VB         0              
 ICCAP_VAR VD         0.1            

 #VG              IG              ID              IB             
  0               1.1473e-009     1.1025e-009     -9.839e-009    
  0.05            2.2631e-009     -7.53e-010      -1.9386e-008   
  0.1             1.453e-009      2.0702e-009     -6.473e-009    
  0.15            -1.3853e-009    1.36e-009       2.8759e-008    
  0.2             -1.3872e-009    -6.61e-011      1.2284e-008    
  0.25            -2.7104e-009    8.4e-011        1.3619e-008    
  0.3             2.4388e-009     -1.5125e-009    -2.2849e-008   
  0.35            1.3532e-009     2.1783e-009     -5.264e-009    
  0.4             -1.218e-010     2.1055e-009     1.0691e-008    
  0.45            -1.524e-009     1.0299e-009     2.4699e-008    
  0.5             -1.8779e-009    -1.3763e-009    8.203e-009     
  0.55            -5.084e-010     -2.1139e-009    -1.3382e-008   
  0.6             1.3345e-009     -6.73e-010      -1.2281e-008   
  0.65            2.8597e-009     2.699e-009      -8.279e-009    
  0.7             1.8398e-009     5.891e-009      1.0399e-008    
  0.75            -2.4861e-009    9.087e-009      -1.1766e-008   
  0.8             -1.8673e-009    1.6534e-008     1.968e-009     
  0.85            -1.4291e-009    2.8752e-008     5.384e-009     
  0.9             -1.3868e-009    4.4475e-008     9.101e-009     
  0.95            -2.6327e-009    6.3626e-008     1.3107e-008    
  1               -2.1461e-009    8.423e-008      1.446e-009     
  1.05            -1.5492e-009    1.07476e-007    4.459e-009     
  1.1             -8.95e-011      1.3506e-007     -8.093e-009    
  1.15            -1.3929e-009    1.5923e-007     2.5316e-008    
  1.2             -1.3781e-009    1.8349e-007     1.034e-008     
  1.25            -2.5332e-009    2.0968e-007     1.4642e-008    
  1.3             -1.9297e-009    2.3441e-007     1.684e-009     
  1.35            -1.4475e-009    2.6055e-007     5.373e-009     
  1.4             -1.3881e-009    2.8656e-007     8.859e-009     
  1.45            -2.6602e-009    3.1262e-007     1.2768e-008    
  1.5             -2.2163e-009    3.3732e-007     1.296e-009     
  1.55            -1.5909e-009    3.6287e-007     4.119e-009     
  1.6             -1.382e-009     3.8845e-007     7.418e-009     
  1.65            -2.7126e-009    4.1386e-007     1.1228e-008    
  1.7             2.0393e-009     4.3801e-007     -2.3444e-008   
  1.75            1.4062e-009     4.649e-007      -8.107e-009    
  1.8             2.8718e-009     4.895e-007      -7.755e-009    
  1.85            2.1777e-009     5.1454e-007     9.899e-009     
  1.9             -1.3828e-009    5.3849e-007     2.7049e-008    
  1.95            -2.6958e-009    5.6124e-007     1.2007e-008    
  2               1.9096e-009     5.8433e-007     -2.1334e-008   
  2.05            1.3648e-009     6.1025e-007     -8.27e-009     
  2.1             2.8724e-009     6.3383e-007     -7.904e-009    
  2.15            -1.3804e-009    6.5778e-007     2.8645e-008    
  2.2             -2.5487e-009    6.7994e-007     1.4405e-008    
  2.25            -1.9733e-009    7.0195e-007     1.606e-009     
  2.3             -1.4571e-009    7.2511e-007     4.994e-009     
  2.35            -1.386e-009     7.4831e-007     8.641e-009     
  2.4             -2.6653e-009    7.7143e-007     1.2716e-008    
  2.45            -2.243e-009     7.9308e-007     1.225e-009     
  2.5             -1.6204e-009    8.1551e-007     3.945e-009     
  2.55            -1.384e-009     8.3802e-007     7.223e-009     
  2.6             -2.7142e-009    8.603e-007      1.1021e-008    
  2.65            2.0698e-009     8.8146e-007     -2.3896e-008   
  2.7             1.4249e-009     9.0528e-007     -7.744e-009    
  2.75            2.8678e-009     9.2703e-007     -7.686e-009    
  2.8             2.1647e-009     9.4903e-007     9.974e-009     
  2.85            -1.3826e-009    9.6996e-007     2.6996e-008    
  2.9             -2.7016e-009    9.897e-007      1.1913e-008    
  2.95            1.9424e-009     1.00956e-006    -2.1937e-008   
  3               1.3736e-009     1.03244e-006    -8.256e-009    
  3.05            2.8755e-009     1.05294e-006    -7.806e-009    
  3.1             -2.1673e-009    1.07351e-006    2.8813e-008    
  3.15            -1.5467e-009    1.09163e-006    4.525e-009     
  3.2             -1.3835e-009    1.11187e-006    7.899e-009     
  3.25            -2.7019e-009    1.13203e-006    1.1812e-008    
  3.3             3.334e-010      1.1514e-006     -1.3069e-008   
  3.35            1.5129e-009     1.1728e-006     -2.02e-008     
  3.4             1.3194e-009     1.193e-006      -7.905e-009    
  3.45            2.8436e-009     1.2124e-006     -1.0206e-008   
  3.5             -1.7452e-009    1.2314e-006     2.2936e-008    
  3.55            -1.3956e-009    1.248e-006      5.894e-009     
  3.6             -1.3825e-009    1.2667e-006     9.801e-009     
  3.65            -2.5734e-009    1.2855e-006     1.4024e-008    
  3.7             -1.9996e-009    1.3031e-006     1.761e-009     
  3.75            -1.4716e-009    1.321e-006      5.114e-009     
  3.8             -1.3837e-009    1.3391e-006     8.715e-009     
  3.85            -2.6735e-009    1.3563e-006     1.2579e-008    
  3.9             -2.2784e-009    1.3732e-006     1.094e-009     
  3.95            -1.646e-009     1.3904e-006     3.786e-009     
  4               -1.3816e-009    1.4074e-006     7.106e-009     
  4.05            -1.3757e-009    1.4245e-006     1.0437e-008    
  4.1             -2.507e-009     1.4414e-006     1.489e-008     
  4.15            -1.8904e-009    1.4568e-006     1.814e-009     
  4.2             -1.4243e-009    1.4734e-006     5.261e-009     
  4.25            -1.3896e-009    1.4889e-006     8.851e-009     
  4.3             -2.6451e-009    1.5049e-006     1.3051e-008    
  4.35            -2.1732e-009    1.5195e-006     1.236e-009     
  4.4             -1.5513e-009    1.5352e-006     4.51e-009      
  4.45            -1.3823e-009    1.551e-006      7.737e-009     
  4.5             -2.7023e-009    1.5653e-006     1.1593e-008    
  4.55            1.9656e-009     1.58e-006       -2.2547e-008   
  4.6             1.3821e-009     1.5965e-006     -8.324e-009    
  4.65            2.868e-009      1.6103e-006     -7.74e-009     
  4.7             -1.385e-009     1.6246e-006     2.9124e-008    
  4.75            -2.5808e-009    1.6367e-006     1.4048e-008    
  4.8             -2.0187e-009    1.6497e-006     1.543e-009     
  4.85            -1.4681e-009    1.6632e-006     5.069e-009     
  4.9             -1.3846e-009    1.6761e-006     8.376e-009     
  4.95            -2.6764e-009    1.6895e-006     1.2537e-008    
  5               -2.2914e-009    1.7019e-006     1.049e-009     
END_DB

BEGIN_DB
 ICCAP_VAR VS         0              
 ICCAP_VAR VB         0              
 ICCAP_VAR VD         5              

 #VG              IG              ID              IB             
  0               -1.394e-009     -1.2125e-009    1.2421e-008    
  0.05            -2.7183e-009    5.02e-011       1.3576e-008    
  0.1             2.507e-009      -1.4889e-009    -2.4156e-008   
  0.15            1.3163e-009     2.2274e-009     -4.796e-009    
  0.2             -1.3869e-009    1.2393e-009     2.9482e-008    
  0.25            -1.2463e-009    -2.18e-009      1.0351e-008    
  0.3             2.812e-010      -1.9211e-009    -1.008e-008    
  0.35            1.7492e-009     -9.389e-010     -2.0697e-008   
  0.4             1.7254e-009     1.6972e-009     -8.724e-009    
  0.45            1.8939e-009     1.4108e-009     1.0237e-008    
  0.5             5.058e-010      2.3728e-009     1.2842e-008    
  0.55            6.899e-010      2.53e-009       1.1417e-008    
  0.6             8.594e-010      3.0035e-009     9.581e-009     
  0.65            -1.7342e-009    3.776e-009      1.4001e-008    
  0.7             -1.5092e-009    4.7913e-009     5.483e-009     
  0.75            2.6809e-009     1.2433e-008     2.8771e-008    
  0.8             1.99e-009       2.3151e-008     -4.169e-009    
  0.85            1.3872e-009     3.9451e-008     -1.0133e-008   
  0.9             1.3285e-009     6.3092e-008     -1.103e-008    
  0.95            2.8149e-009     9.4916e-008     -1.7833e-008   
  1               -1.5899e-009    1.3619e-007     -3.745e-009    
  1.05            -1.384e-009     1.8486e-007     -1.374e-009    
  1.1             -2.5964e-009    2.4419e-007     -1.9789e-008   
  1.15            -2.7522e-009    3.1331e-007     -2.078e-008    
  1.2             -2.716e-009     3.92e-007       -1.8167e-008   
  1.25            -2.4756e-009    4.8067e-007     -1.7398e-008   
  1.3             -2.6622e-009    5.7808e-007     -2.9369e-008   
  1.35            -2.7472e-009    6.8568e-007     -2.8783e-008   
  1.4             -2.6981e-009    8.0282e-007     -2.6322e-008   
  1.45            -2.3642e-009    9.2987e-007     -2.5714e-008   
  1.5             -1.6955e-009    1.06657e-006    -2.5246e-008   
  1.55            -1.5901e-009    1.2136e-006     -3.8196e-008   
  1.6             -1.9332e-009    1.3668e-006     -4.311e-008    
  1.65            -2.2667e-009    1.5307e-006     -4.288e-008    
  1.7             -2.6731e-009    1.7052e-006     -4.394e-008    
  1.75            -2.7415e-009    1.8885e-006     -4.192e-008    
  1.8             -2.6938e-009    2.0808e-006     -3.8067e-008   
  1.85            -2.3542e-009    2.2829e-006     -3.6069e-008   
  1.9             -1.6729e-009    2.4943e-006     -3.3895e-008   
  1.95            -1.3888e-009    2.7149e-006     -3.1362e-008   
  2               -1.388e-009     2.9455e-006     -2.7864e-008   
  2.05            -2.2185e-009    3.1812e-006     -3.6228e-008   
  2.1             -1.5664e-009    3.4291e-006     -3.2678e-008   
  2.15            -1.3836e-009    3.6862e-006     -2.9421e-008   
  2.2             -2.7064e-009    3.9525e-006     -2.4932e-008   
  2.25            -2.4509e-009    4.2244e-006     -3.4696e-008   
  2.3             -1.7826e-009    4.5083e-006     -3.1702e-008   
  2.35            -1.4007e-009    4.8005e-006     -2.7971e-008   
  2.4             -1.3911e-009    5.1038e-006     -2.3378e-008   
  2.45            -2.332e-009     5.4103e-006     -3.0403e-008   
  2.5             -1.6546e-009    5.7294e-006     -2.6398e-008   
  2.55            -2.7283e-009    6.055e-006      -3.4377e-008   
  2.6             -2.6609e-009    6.391e-006      -2.8501e-008   
  2.65            -2.1941e-009    6.7378e-006     -2.5046e-008   
  2.7             -1.5545e-009    7.0921e-006     -2.042e-008    
  2.75            -2.7262e-009    7.4568e-006     -2.8095e-008   
  2.8             -2.6059e-009    7.8279e-006     -2.2737e-008   
  2.85            -2.5442e-009    8.2064e-006     -3.0067e-008   
  2.9             -2.7577e-009    8.5944e-006     -2.8197e-008   
  2.95            -2.7118e-009    8.9906e-006     -2.2019e-008   
  3               -2.5362e-009    9.3938e-006     -1.7117e-008   
  3.05            -2.624e-009     9.805e-006      -2.5034e-008   
  3.1             -2.7586e-009    1.02262e-005    -2.2366e-008   
  3.15            -1.9495e-009    1.06565e-005    -2.5299e-008   
  3.2             -2.28e-009      1.10875e-005    -2.1638e-008   
  3.25            1.3423e-009     1.1535e-005     -2.074e-008    
  3.3             2.866e-009      1.1986e-005     -1.8714e-008   
  3.35            2.7471e-009     1.2451e-005     -1.0032e-008   
  3.4             2.1439e-009     1.2916e-005     -1.0943e-008   
  3.45            1.4551e-009     1.3389e-005     -1.5473e-008   
  3.5             1.3202e-009     1.3869e-005     -1.5062e-008   
  3.55            2.832e-009      1.4355e-005     -1.7425e-008   
  3.6             2.437e-009      1.4858e-005     -7.073e-009    
  3.65            1.665e-009      1.5359e-005     -1.0626e-008   
  3.7             1.3169e-009     1.587e-005      -1.3385e-008   
  3.75            2.8635e-009     1.6383e-005     -1.2673e-008   
  3.8             2.6479e-009     1.6916e-005     -4.44e-009     
  3.85            1.9547e-009     1.7443e-005     -6.205e-009    
  3.9             1.3768e-009     1.798e-005      -1.0953e-008   
  3.95            2.8683e-009     1.8522e-005     -1.0095e-008   
  4               2.784e-009      1.908e-005      -2.018e-009    
  4.05            2.5717e-009     1.9638e-005     6.884e-009     
  4.1             -1.8252e-009    2.021e-005      2.3622e-008    
  4.15            -1.4022e-009    2.0775e-005     4.315e-009     
  4.2             -1.3844e-009    2.1355e-005     7.948e-009     
  4.25            -2.6036e-009    2.1937e-005     1.2538e-008    
  4.3             -2.0673e-009    2.2516e-005     7.48e-010      
  4.35            -1.4923e-009    2.311e-005      4.504e-009     
  4.4             -1.3811e-009    2.3719e-005     7.733e-009     
  4.45            -2.6788e-009    2.4328e-005     1.1694e-008    
  4.5             -1.4388e-009    2.4935e-005     -9.665e-009    
  4.55            2.416e-009      2.5531e-005     -2.6748e-008   
  4.6             1.6325e-009     2.6148e-005     -5.876e-009    
  4.65            1.319e-009      2.6773e-005     -8.775e-009    
  4.7             2.8611e-009     2.7395e-005     -8.98e-009     
  4.75            -1.8948e-009    2.8055e-005     2.6319e-008    
  4.8             -1.4174e-009    2.8688e-005     5.04e-009      
  4.85            -1.3868e-009    2.933e-005      8.79e-009      
  4.9             -2.6285e-009    2.998e-005      1.2994e-008    
  4.95            -2.1328e-009    3.0627e-005     1.357e-009     
  5               -1.524e-009     3.1286e-005     4.57e-009      
END_DB

BEGIN_DB
 ICCAP_VAR VS         0              
 ICCAP_VAR VB         -2.5           
 ICCAP_VAR VD         0.1            

 #VG              IG              ID              IB             
  0               -1.3894e-009    -1.2698e-009    1.2896e-008    
  0.05            -2.7057e-009    5.32e-011       1.3187e-008    
  0.1             1.3212e-009     -1.4945e-009    -2.4111e-008   
  0.15            2.8606e-009     -2.26e-011      -1.273e-008    
  0.2             -1.3875e-009    1.4549e-009     2.7447e-008    
  0.25            -1.3766e-009    4.28e-011       1.312e-008     
  0.3             -2.6675e-009    2.068e-010      1.5197e-008    
  0.35            -1.9872e-009    -1.274e-009     9.67e-010      
  0.4             -7.183e-010     -2.2577e-009    -1.237e-008    
  0.45            -8.948e-010     -2.242e-009     -1.0496e-008   
  0.5             1.9089e-009     -1.6784e-009    -1.4015e-008   
  0.55            1.6592e-009     1.8245e-009     -8.439e-009    
  0.6             1.8261e-009     1.5231e-009     1.0507e-008    
  0.65            4.208e-010      2.3186e-009     1.2843e-008    
  0.7             6.158e-010      2.3389e-009     1.2429e-008    
  0.75            7.932e-010      2.3461e-009     1.0647e-008    
  0.8             -1.8702e-009    1.6727e-009     1.7268e-008    
  0.85            -1.6654e-009    -1.7676e-009    5.443e-009     
  0.9             1.3226e-009     -1.5171e-009    -2.3148e-008   
  0.95            2.8573e-009     -5.11e-011      -1.343e-008    
  1               -1.3879e-009    1.4778e-009     2.6285e-008    
  1.05            -2.7045e-009    7.51e-011       1.3458e-008    
  1.1             1.3249e-009     -1.4961e-009    -2.3465e-008   
  1.15            2.8623e-009     4.65e-011       -1.3245e-008   
  1.2             -1.39e-009      1.8612e-009     2.6815e-008    
  1.25            -2.7075e-009    1.4873e-009     1.3324e-008    
  1.3             2.4805e-009     2.4279e-009     -2.3597e-008   
  1.35            2.1461e-009     9.3618e-009     -5.247e-009    
  1.4             -2.6967e-009    1.5466e-008     -1.3325e-008   
  1.45            1.9472e-009     2.5645e-008     -2.2507e-008   
  1.5             1.3682e-009     4.1221e-008     -8.281e-009    
  1.55            2.8675e-009     5.7598e-008     -7.848e-009    
  1.6             -1.3865e-009    7.6843e-008     2.9239e-008    
  1.65            -2.5623e-009    9.6347e-008     1.4107e-008    
  1.7             7.618e-010      1.2122e-007     -1.722e-008    
  1.75            1.1497e-009     1.4448e-007     9.483e-009     
  1.8             1.5692e-009     1.6837e-007     9.284e-009     
  1.85            -1.9574e-009    1.9042e-007     2.7828e-008    
  1.9             -1.4312e-009    2.1239e-007     5.419e-009     
  1.95            -1.3881e-009    2.3677e-007     8.516e-009     
  2               -2.6501e-009    2.6122e-007     1.2959e-008    
  2.05            -2.1931e-009    2.8459e-007     1.227e-009     
  2.1             -1.5559e-009    3.0883e-007     4.718e-009     
  2.15            -1.3779e-009    3.3306e-007     7.568e-009     
  2.2             -2.6957e-009    3.5725e-007     1.1364e-008    
  2.25            1.9587e-009     3.8027e-007     -2.2649e-008   
  2.3             1.3701e-009     4.0609e-007     -8.18e-009     
  2.35            2.87e-009       4.2969e-007     -7.722e-009    
  2.4             -2.1799e-009    4.5341e-007     2.9167e-008    
  2.45            -1.5352e-009    4.7473e-007     4.721e-009     
  2.5             -1.379e-009     4.9823e-007     7.816e-009     
  2.55            -2.6967e-009    5.2153e-007     1.1741e-008    
  2.6             1.9258e-009     5.4352e-007     -2.1769e-008   
  2.65            1.3692e-009     5.6859e-007     -8.457e-009    
  2.7             2.8754e-009     5.9106e-007     -7.89e-009     
  2.75            -1.3765e-009    6.1423e-007     2.8595e-008    
  2.8             -2.5358e-009    6.3539e-007     1.4271e-008    
  2.85            -1.9397e-009    6.5655e-007     1.637e-009     
  2.9             -1.4471e-009    6.7885e-007     5.113e-009     
  2.95            -1.3854e-009    7.0094e-007     8.745e-009     
  3               -2.6461e-009    7.2292e-007     1.2896e-008    
  3.05            -2.1934e-009    7.4369e-007     1.201e-009     
  3.1             -1.568e-009     7.652e-007      4.25e-009      
  3.15            -1.3801e-009    7.8658e-007     7.619e-009     
  3.2             -2.7035e-009    8.0778e-007     1.1548e-008    
  3.25            1.9694e-009     8.2771e-007     -2.2297e-008   
  3.3             1.3885e-009     8.5064e-007     -8.196e-009    
  3.35            2.8834e-009     8.7107e-007     -7.971e-009    
  3.4             -2.1651e-009    8.9158e-007     2.8637e-008    
  3.45            -1.542e-009     9.0959e-007     4.502e-009     
  3.5             -1.3811e-009    9.2973e-007     7.937e-009     
  3.55            -2.6943e-009    9.4972e-007     1.1771e-008    
  3.6             1.9285e-009     9.6823e-007     -2.1397e-008   
  3.65            1.376e-009      9.8993e-007     -8.52e-009     
  3.7             2.8847e-009     1.00894e-006    -7.912e-009    
  3.75            -2.122e-009     1.028e-006      2.8621e-008    
  3.8             -1.5204e-009    1.04481e-006    4.762e-009     
  3.85            -1.3768e-009    1.06349e-006    8.255e-009     
  3.9             -2.6863e-009    1.08213e-006    1.2087e-008    
  3.95            1.8852e-009     1.09906e-006    -2.0708e-008   
  4               1.3676e-009     1.11941e-006    -8.685e-009    
  4.05            2.8928e-009     1.13688e-006    -8.034e-009    
  4.1             -1.183e-010     1.1562e-006     2.4504e-008    
  4.15            -1.3845e-009    1.1733e-006     2.4697e-008    
