! VERSION = 6.00
BEGIN_HEADER
 ICCAP_INPUTS
  VG         V  B GROUND SMU4 0.001 LIN        1    0          5          101  0.05      
  VS         V  E GROUND SMU2 0.1 CON        0
  VB         V  C GROUND SMU3 0.1 LIN        3    0          -5         3    -2.5      
  VD         V  S GROUND SMU1 0.1 LIN        2    0.1        5          2    4.9       
 ICCAP_OUTPUTS
  IG         I  B GROUND SMU4 B
  ID         I  S GROUND SMU1 B
  IB         I  C GROUND SMU3 B
END_HEADER

BEGIN_DB
 ICCAP_VAR VS         0              
 ICCAP_VAR VB         0              
 ICCAP_VAR VD         0.1            

 #VG              IG              ID              IB             
  0               2.8675e-009     -6.874e-010     -2.3467e-008   
  0.05            -1.3895e-009    1.5156e-009     2.458e-008     
  0.1             -2.6993e-009    1.161e-010      1.3628e-008    
  0.15            1.3342e-009     -1.5394e-009    -2.2787e-008   
  0.2             2.8699e-009     -7.05e-011      -1.3235e-008   
  0.25            -1.3925e-009    1.4603e-009     2.7235e-008    
  0.3             -1.3771e-009    6.03e-011       1.2931e-008    
  0.35            -2.681e-009     2.308e-010      1.4671e-008    
  0.4             -9.836e-010     -2.1225e-009    8.27e-010      
  0.45            1.7639e-009     -1.2921e-009    -1.1904e-008   
  0.5             2.6778e-009     2.7343e-009     -9.177e-009    
  0.55            3.003e-010      8.0486e-009     1.2606e-008    
  0.6             -2.136e-009     1.6915e-008     -2.1337e-008   
  0.65            -1.5301e-009    4.6727e-008     4.466e-009     
  0.7             -1.383e-009     1.04533e-007    8.049e-009     
  0.75            1.8186e-009     1.9866e-007     -2.6262e-008   
  0.8             6.758e-010      3.4064e-007     1.2684e-008    
  0.85            1.0498e-009     5.317e-007      9.977e-009     
  0.9             -1.754e-010     7.9016e-007     1.0153e-008    
  0.95            -1.4232e-009    1.11487e-006    2.2571e-008    
  1               -2.7385e-009    1.499e-006      -2.5097e-008   
  1.05            1.3319e-009     1.9508e-006     -2.6592e-008   
  1.1             2.835e-009      2.4603e-006     -1.1972e-008   
  1.15            5.113e-010      3.0034e-006     1.2385e-008    
  1.2             9.09e-010       3.5378e-006     1.131e-008     
  1.25            -1.4581e-009    4.0751e-006     1.3518e-008    
  1.3             -1.3873e-009    4.5954e-006     8.607e-009     
  1.35            -2.6722e-009    5.1034e-006     1.2593e-008    
  1.4             -2.2961e-009    5.5858e-006     9.82e-010      
  1.45            -1.6587e-009    6.0586e-006     3.402e-009     
  1.5             -1.3854e-009    6.5121e-006     6.958e-009     
  1.55            -1.3775e-009    6.9559e-006     1.0221e-008    
  1.6             -2.5555e-009    7.3855e-006     1.3833e-008    
  1.65            -1.9943e-009    7.7919e-006     1.143e-009     
  1.7             -1.4686e-009    8.1913e-006     5.071e-009     
  1.75            -1.3852e-009    8.5848e-006     8.638e-009     
  1.8             -2.6795e-009    8.9679e-006     1.2296e-008    
  1.85            1.8517e-009     9.3253e-006     -2.0187e-008   
  1.9             1.3601e-009     9.6893e-006     -9.197e-009    
  1.95            2.8743e-009     1.00426e-005    -8.182e-009    
  2               -1.3799e-009    1.03978e-005    2.9197e-008    
  2.05            -2.5702e-009    1.07371e-005    1.3949e-008    
  2.1             -2.0123e-009    1.10633e-005    1.174e-009     
  2.15            -1.4739e-009    1.1388e-005     5.045e-009     
  2.2             1.329e-009      1.1704e-005     4.647e-009     
  2.25            2.7918e-009     1.202e-005      -1.3874e-008   
  2.3             6.052e-010      1.2331e-005     1.2616e-008    
  2.35            9.864e-010      1.2628e-005     1.0534e-008    
  2.4             -2.258e-010     1.2923e-005     1.1464e-008    
  2.45            -1.4559e-009    1.3217e-005     2.1206e-008    
  2.5             -1.3861e-009    1.35e-005       8.709e-009     
  2.55            -2.6691e-009    1.3782e-005     1.2646e-008    
  2.6             -2.2916e-009    1.4054e-005     1.017e-009     
  2.65            -1.6531e-009    1.4329e-005     3.503e-009     
  2.7             -1.384e-009     1.4596e-005     7.058e-009     
  2.75            -1.3781e-009    1.4864e-005     1.032e-008     
  2.8             -2.5571e-009    1.5126e-005     1.4011e-008    
  2.85            -1.9857e-009    1.5377e-005     1.271e-009     
  2.9             -1.4676e-009    1.5628e-005     5.283e-009     
  2.95            -1.3847e-009    1.5879e-005     8.651e-009     
  3               -2.6756e-009    1.6125e-005     1.249e-008     
  3.05            1.8468e-009     1.6353e-005     -2.0104e-008   
  3.1             1.3589e-009     1.6594e-005     -9.143e-009    
  3.15            2.8771e-009     1.6828e-005     -8.101e-009    
  3.2             -1.3809e-009    1.7069e-005     2.9219e-008    
  3.25            -2.5625e-009    1.7294e-005     1.4048e-008    
  3.3             -1.9974e-009    1.7515e-005     1.062e-009     
  3.35            -1.4682e-009    1.7732e-005     5.039e-009     
  3.4             -1.3843e-009    1.7953e-005     8.592e-009     
  3.45            -2.6794e-009    1.817e-005      1.219e-008     
  3.5             1.8588e-009     1.8372e-005     -2.0305e-008   
  3.55            1.3632e-009     1.8582e-005     -9.234e-009    
  3.6             1.329e-009      1.8791e-005     -8.086e-009    
  3.65            2.7931e-009     1.8997e-005     -1.3703e-008   
  3.7             6.049e-010      1.9199e-005     1.2549e-008    
  3.75            9.875e-010      1.9395e-005     1.0841e-008    
  3.8             -2.29e-010      1.9585e-005     1.1464e-008    
  3.85            -1.4569e-009    1.9784e-005     2.1123e-008    
  3.9             -1.3859e-009    1.9972e-005     8.604e-009     
  3.95            -2.6655e-009    2.0161e-005     1.2623e-008    
  4               -2.2907e-009    2.0341e-005     9.58e-010      
  4.05            -1.6531e-009    2.0524e-005     3.639e-009     
  4.1             -1.3852e-009    2.0703e-005     7.008e-009     
  4.15            -1.3774e-009    2.0878e-005     1.0179e-008    
  4.2             -2.5572e-009    2.1059e-005     1.3826e-008    
  4.25            -1.9872e-009    2.1225e-005     1.136e-009     
  4.3             -1.4684e-009    2.1396e-005     5.286e-009     
  4.35            -1.3853e-009    2.1563e-005     8.43e-009      
  4.4             -2.6764e-009    2.1731e-005     1.228e-008     
  4.45            1.8614e-009     2.1881e-005     -2.0112e-008   
  4.5             1.3593e-009     2.205e-005      -9.209e-009    
  4.55            2.8729e-009     2.2206e-005     -7.908e-009    
  4.6             -1.3807e-009    2.2364e-005     2.926e-008     
  4.65            -2.5644e-009    2.2524e-005     1.3924e-008    
  4.7             -2.0107e-009    2.2667e-005     1.147e-009     
  4.75            -1.4729e-009    2.2815e-005     4.931e-009     
  4.8             -1.3831e-009    2.2957e-005     8.588e-009     
  4.85            -2.6781e-009    2.3111e-005     1.2433e-008    
  4.9             -4.549e-010     2.3245e-005     -1.2612e-008   
  4.95            -9.006e-010     2.3387e-005     -1.2713e-008   
  5               1.5438e-009     2.3516e-005     -1.4409e-008   
END_DB

BEGIN_DB
 ICCAP_VAR VS         0              
 ICCAP_VAR VB         0              
 ICCAP_VAR VD         5              

 #VG              IG              ID              IB             
  0               -2.2024e-009    -2.1869e-009    1.0166e-008    
  0.05            -1.4554e-009    -2.035e-009     4.146e-009     
  0.1             1.3276e-009     -1.3591e-009    -2.6443e-008   
  0.15            1.329e-009      1.198e-010      -8.952e-009    
  0.2             2.869e-009      1.75e-011       -1.111e-008    
  0.25            -1.3844e-009    1.464e-009      2.8734e-008    
  0.3             -1.3838e-009    2.56e-010       1.2359e-008    
  0.35            -2.6911e-009    1.2221e-009     1.3367e-008    
  0.4             1.328e-009      2.5411e-009     -2.296e-008    
  0.45            2.8594e-009     1.5276e-008     1.1469e-008    
  0.5             2.5394e-009     4.465e-008      -4.397e-009    
  0.55            -9.493e-010     1.1151e-007     7.983e-009     
  0.6             -1.3233e-009    2.462e-007      -2.7526e-008   
  0.65            -1.7324e-009    4.7351e-007     -4.4207e-008   
  0.7             -2.0093e-009    8.2672e-007     -6.8771e-008   
  0.75            -4.81e-011      1.3532e-006     -9.0137e-008   
  0.8             -9.604e-010     2.1109e-006     -1.4859e-007   
  0.85            -1.384e-009     3.1317e-006     -1.6653e-007   
  0.9             -2.597e-009     4.4068e-006     -2.5833e-007   
  0.95            -2.0788e-009    5.919e-006      -3.5543e-007   
  1               -1.5072e-009    7.6953e-006     -4.4418e-007   
  1.05            -1.3836e-009    9.7044e-006     -5.3969e-007   
  1.1             2.5058e-009     1.1901e-005     -6.6098e-007   
  1.15            2.764e-009      1.4253e-005     -7.4178e-007   
  1.2             2.8623e-009     1.6782e-005     -8.4848e-007   
  1.25            2.8134e-009     1.9427e-005     -9.5528e-007   
  1.3             2.317e-009      2.2159e-005     -1.05371e-006  
  1.35            2.7213e-009     2.5039e-005     -1.1555e-006   
  1.4             2.0586e-009     2.7943e-005     -1.2362e-006   
  1.45            1.4298e-009     3.0944e-005     -1.3259e-006   
  1.5             1.3334e-009     3.4026e-005     -1.4052e-006   
  1.55            2.8533e-009     3.7127e-005     -1.4763e-006   
  1.6             2.4579e-009     4.0328e-005     -1.5356e-006   
  1.65            1.6909e-009     4.3555e-005     -1.6e-006      
  1.7             1.3371e-009     4.6812e-005     -1.6614e-006   
  1.75            2.8739e-009     5.013e-005      -1.7082e-006   
  1.8             2.7335e-009     5.349e-005      -1.7461e-006   
  1.85            2.0933e-009     5.6832e-005     -1.7849e-006   
  1.9             1.4431e-009     6.0224e-005     -1.8245e-006   
  1.95            2.8495e-009     6.3632e-005     -1.8552e-006   
  2               2.8546e-009     6.7108e-005     -1.8703e-006   
  2.05            2.4873e-009     7.0542e-005     -1.8913e-006   
  2.1             1.7261e-009     7.4007e-005     -1.9105e-006   
  2.15            1.3408e-009     7.7487e-005     -1.9254e-006   
  2.2             2.87e-009       8.0972e-005     -1.9331e-006   
  2.25            2.7499e-009     8.4538e-005     -1.927e-006    
  2.3             2.141e-009      8.8038e-005     -1.9276e-006   
  2.35            1.4685e-009     9.1581e-005     -1.9296e-006   
  2.4             2.847e-009      9.5117e-005     -1.9266e-006   
  2.45            2.8597e-009     9.8711e-005     -1.9082e-006   
  2.5             2.5148e-009     0.000102267     -1.8974e-006   
  2.55            1.7545e-009     0.00010583      -1.8851e-006   
  2.6             1.3436e-009     0.00010939      -1.8763e-006   
  2.65            1.3291e-009     0.000112963     -1.8561e-006   
  2.7             1.5365e-009     0.00011663      -1.8372e-006   
  2.75            1.3301e-009     0.00012028      -1.8176e-006   
  2.8             2.8649e-009     0.00012385      -1.7913e-006   
  2.85            2.5971e-009     0.00012751      -1.7602e-006   
  2.9             1.8709e-009     0.00013109      -1.7369e-006   
  2.95            1.3678e-009     0.0001347       -1.7146e-006   
  3               2.8678e-009     0.00013826      -1.6864e-006   
  3.05            2.8059e-009     0.00014196      -1.6498e-006   
  3.1             2.2852e-009     0.00014553      -1.6222e-006   
  3.15            1.556e-009      0.00014915      -1.598e-006    
  3.2             1.3288e-009     0.00015274      -1.571e-006    
  3.25            2.8654e-009     0.00015634      -1.5376e-006   
  3.3             2.6209e-009     0.00016         -1.4994e-006   
  3.35            1.9099e-009     0.00016356      -1.4698e-006   
  3.4             1.3792e-009     0.00016722      -1.4447e-006   
  3.45            1.332e-009      0.00017081      -1.414e-006    
  3.5             2.819e-009      0.00017442      -1.3837e-006   
  3.55            2.3293e-009     0.00017803      -1.3433e-006   
  3.6             1.5819e-009     0.00018164      -1.3184e-006   
  3.65            1.3275e-009     0.00018523      -1.2914e-006   
  3.7             2.8694e-009     0.0001888       -1.2568e-006   
  3.75            2.6417e-009     0.00019249      -1.2206e-006   
  3.8             1.9582e-009     0.00019603      -1.1905e-006   
  3.85            1.3917e-009     0.00019965      -1.1685e-006   
  3.9             1.3311e-009     0.00020326      -1.1386e-006   
  3.95            2.8264e-009     0.0002068       -1.1108e-006   
  4               2.3618e-009     0.00021044      -1.0756e-006   
  4.05            1.6007e-009     0.00021401      -1.0498e-006   
  4.1             1.3304e-009     0.00021757      -1.028e-006    
  4.15            2.8723e-009     0.0002211       -1.0012e-006   
  4.2             -1.7144e-009    0.00022487      -9.7685e-007   
  4.25            -1.9905e-009    0.00022837      -9.5036e-007   
  4.3             -2.3192e-009    0.00023189      -9.2196e-007   
  4.35            -2.6772e-009    0.00023547      -8.9772e-007   
  4.4             -2.7311e-009    0.00023906      -8.7076e-007   
  4.45            -2.6704e-009    0.0002426       -8.4218e-007   
  4.5             -2.3248e-009    0.00024617      -8.177e-007    
  4.55            -1.6798e-009    0.00024972      -7.9253e-007   
  4.6             -1.3863e-009    0.00025324      -7.6754e-007   
  4.65            -1.3811e-009    0.00025677      -7.4236e-007   
  4.7             -2.5795e-009    0.00026031      -7.179e-007    
  4.75            -2.0303e-009    0.00026379      -7.0949e-007   
  4.8             -1.4791e-009    0.00026732      -6.8592e-007   
  4.85            -1.3806e-009    0.00027081      -6.6238e-007   
  4.9             -2.6788e-009    0.00027433      -6.4087e-007   
  4.95            -2.3563e-009    0.00027779      -6.3243e-007   
  5               -1.7144e-009    0.00028127      -6.1206e-007   
END_DB

BEGIN_DB
 ICCAP_VAR VS         0              
 ICCAP_VAR VB         -2.5           
 ICCAP_VAR VD         0.1            

 #VG              IG              ID              IB             
  0               -1.5682e-009    -1.8227e-009    -3.937e-009    
  0.05            -1.85e-009      -1.5096e-009    7.588e-009     
  0.1             -4.525e-010     -2.266e-009     -1.3117e-008   
  0.15            -6.509e-010     -2.2641e-009    -1.2608e-008   
  0.2             -8.25e-010      -2.2488e-009    -1.1279e-008   
  0.25            2.1318e-009     -1.6457e-009    -1.6929e-008   
  0.3             1.5286e-009     2.0168e-009     -8.001e-009    
  0.35            -1.3833e-009    1.413e-009      2.8566e-008    
  0.4             -1.3783e-009    6.3e-012        1.2731e-008    
  0.45            -2.6871e-009    1.474e-010      1.3683e-008    
  0.5             1.3301e-009     -1.5646e-009    -2.1667e-008   
  0.55            2.8697e-009     -1.207e-010     -1.4055e-008   
  0.6             -1.3868e-009    1.4911e-009     2.5919e-008    
  0.65            -2.6997e-009    8.5e-011        1.3097e-008    
  0.7             1.3324e-009     -1.5106e-009    -2.3659e-008   
  0.75            2.8757e-009     -3.6e-012       -1.244e-008    
  0.8             -1.3864e-009    1.5947e-009     2.7838e-008    
  0.85            -1.3752e-009    7.235e-010      1.2782e-008    
  0.9             -2.6783e-009    3.0327e-009     1.4115e-008    
  0.95            2.8218e-009     1.1094e-008     -9.221e-009    
  1               2.5273e-009     3.2547e-008     8.398e-009     
  1.05            -1.9103e-009    8.0757e-008     2.6562e-008    
  1.1             1.16e-009       1.6706e-007     -1.8634e-008   
  1.15            -4.35e-011      3.0827e-007     9.594e-009     
  1.2             -1.3854e-009    5.0249e-007     2.5406e-008    
  1.25            -1.3787e-009    7.5686e-007     1.0012e-008    
  1.3             -2.5447e-009    1.08391e-006    1.4182e-008    
  1.35            -2.278e-009     1.4735e-006     -1.8331e-008   
  1.4             1.3297e-009     1.9349e-006     -2.6476e-008   
  1.45            2.7794e-009     2.444e-006      -1.4346e-008   
  1.5             2.5859e-009     2.9874e-006     8.776e-009     
  1.55            -1.7773e-009    3.5364e-006     2.374e-008     
  1.6             -1.3982e-009    4.0657e-006     6.157e-009     
  1.65            -1.3852e-009    4.5837e-006     9.335e-009     
  1.7             -2.6119e-009    5.0856e-006     1.3456e-008    
  1.75            -2.0984e-009    5.5593e-006     1.002e-009     
  1.8             -1.5187e-009    6.0225e-006     4.96e-009      
  1.85            -1.3826e-009    6.4673e-006     8.275e-009     
  1.9             -2.6877e-009    6.9004e-006     1.1851e-008    
  1.95            1.9552e-009     7.3015e-006     -2.2037e-008   
  2               1.3861e-009     7.7056e-006     -8.896e-009    
  2.05            1.3322e-009     8.0937e-006     -7.899e-009    
  2.1             2.8239e-009     8.4669e-006     -1.2836e-008   
  2.15            2.5302e-009     8.8386e-006     8.41e-009      
  2.2             -1.8901e-009    9.2003e-006     2.6299e-008    
  2.25            -1.421e-009     9.5447e-006     5.507e-009     
  2.3             -1.3859e-009    9.886e-006      8.903e-009     
  2.35            -2.6491e-009    1.02182e-005    1.2894e-008    
  2.4             -2.2039e-009    1.05358e-005    1.139e-009     
  2.45            -1.5813e-009    1.08549e-005    4.237e-009     
  2.5             -1.3815e-009    1.11632e-005    7.489e-009     
  2.55            1.9185e-009     1.1464e-005     1.0839e-008    
  2.6             1.3775e-009     1.1762e-005     -8.98e-009     
  2.65            1.3336e-009     1.2054e-005     -7.985e-009    
  2.7             2.8135e-009     1.2341e-005     -1.3398e-008   
  2.75            5.834e-010      1.2632e-005     1.262e-008     
  2.8             -1.8534e-009    1.2905e-005     2.5484e-008    
  2.85            -1.4101e-009    1.3173e-005     5.622e-009     
  2.9             -1.3861e-009    1.3444e-005     9.031e-009     
  2.95            -2.6396e-009    1.3705e-005     1.3254e-008    
  3               -2.1596e-009    1.3957e-005     1.129e-009     
  3.05            -1.5458e-009    1.421e-005      4.495e-009     
  3.1             -1.3796e-009    1.4458e-005     7.909e-009     
  3.15            -2.6974e-009    1.4705e-005     1.1227e-008    
  3.2             2.0293e-009     1.4938e-005     -2.3215e-008   
  3.25            1.4123e-009     1.5176e-005     -8.365e-009    
  3.3             2.864e-009      1.541e-005      -7.991e-009    
  3.35            2.8349e-009     1.5646e-005     6.1e-011       
  3.4             5.295e-010      1.5872e-005     1.2499e-008    
  3.45            9.258e-010      1.6089e-005     1.1171e-008    
  3.5             -1.4413e-009    1.6307e-005     1.31e-008      
  3.55            -1.3826e-009    1.6527e-005     8.752e-009     
  3.6             -2.66e-009      1.6741e-005     1.2737e-008    
  3.65            -2.252e-009     1.6945e-005     9.94e-010      
  3.7             -1.6091e-009    1.7156e-005     3.764e-009     
  3.75            -1.3784e-009    1.736e-005      7.197e-009     
  3.8             -2.7027e-009    1.7558e-005     1.0529e-008    
  3.85            2.1456e-009     1.7755e-005     -2.4697e-008   
  3.9             1.4537e-009     1.7951e-005     -8.062e-009    
  3.95            2.8589e-009     1.8142e-005     -8.018e-009    
  4               2.8593e-009     1.8335e-005     2.32e-010      
  4.05            -1.6987e-009    1.8518e-005     2.1841e-008    
  4.1             -1.3865e-009    1.8705e-005     6.585e-009     
  4.15            -2.7109e-009    1.8887e-005     9.826e-009     
