! VERSION = 6.00
BEGIN_HEADER
 ICCAP_INPUTS
  VG         V  B GROUND SMU4 0.001 LIN        2    0          5          6    1         
  VS         V  E GROUND SMU2 0.1 CON        0
  VD         V  S GROUND SMU1 0.1 LIN        1    0          5          101  0.05      
  VB         V  C GROUND SMU3 0.1 LIN        3    0          -2.5       2    -2.5      
 ICCAP_OUTPUTS
  ID         I  S GROUND SMU1 B
  IB         I  C GROUND SMU3 B
  IG         I  B GROUND SMU4 B
END_HEADER

BEGIN_DB
 ICCAP_VAR VG         0              
 ICCAP_VAR VS         0              
 ICCAP_VAR VB         0              

 #VD              ID              IB              IG             
  0               1.017e-009      1.5132e-008     1.0823e-009    
  0.05            -9.727e-010     -2.4443e-008    1.6225e-009    
  0.1             1.5315e-009     -8.913e-009     1.8325e-009    
  0.15            2.3026e-009     1.0258e-008     3.881e-010     
  0.2             1.3909e-009     2.5695e-008     -1.3413e-009   
  0.25            3.13e-011       1.1115e-008     -1.3065e-009   
  0.3             1.608e-010      1.1907e-008     -2.6666e-009   
  0.35            -1.3112e-009    5.98e-010       -1.9301e-009   
  0.4             -2.2632e-009    -1.1443e-008    -6.218e-010    
  0.45            -1.5151e-009    -1.9625e-008    1.2494e-009    
  0.5             -9.37e-011      -1.286e-008     2.8388e-009    
  0.55            2.1256e-009     1.0238e-008     8.73e-011      
  0.6             2.2423e-009     1.0184e-008     2.691e-010     
  0.65            2.3294e-009     1.0455e-008     4.591e-010     
  0.7             1.4408e-009     2.4737e-008     -1.3305e-009   
  0.75            7.23e-011       1.1048e-008     -2.7269e-009   
  0.8             -2.0252e-009    -1.0961e-008    1.74e-011      
  0.85            -2.1463e-009    -1.0748e-008    -1.67e-010     
  0.9             -2.2247e-009    -1.0917e-008    -3.838e-010    
  0.95            -2.262e-009     -1.139e-008     -6.064e-010    
  1               -1.5087e-009    -2.0015e-008    1.2496e-009    
  1.05            -8.46e-011      -1.2584e-008    2.8466e-009    
  1.1             2.1187e-009     1.0115e-008     8.11e-011      
  1.15            2.2362e-009     1.0185e-008     2.544e-010     
  1.2             2.3257e-009     1.0398e-008     4.522e-010     
  1.25            1.4294e-009     2.4679e-008     -1.3315e-009   
  1.3             6.88e-011       1.0888e-008     -2.7302e-009   
  1.35            -2.0162e-009    -1.0969e-008    1.88e-011      
  1.4             -2.1374e-009    -1.0675e-008    -1.503e-010    
  1.45            -2.2228e-009    -1.0924e-008    -3.616e-010    
  1.5             -2.2624e-009    -1.1353e-008    -5.856e-010    
  1.55            -1.504e-009     -2.0157e-008    1.2512e-009    
  1.6             -7.59e-011      -1.2404e-008    2.847e-009     
  1.65            2.116e-009      1.012e-008      7.3e-011       
  1.7             2.2309e-009     1.021e-008      2.449e-010     
  1.75            2.3231e-009     1.0364e-008     4.307e-010     
  1.8             1.4236e-009     2.503e-008      -1.3322e-009   
  1.85            5.79e-011       1.106e-008      -2.7335e-009   
  1.9             -2.0044e-009    -1.1089e-008    3.31e-011      
  1.95            -2.1333e-009    -1.077e-008     -1.392e-010    
  2               -2.2184e-009    -1.0921e-008    -3.53e-010     
  2.05            -2.2593e-009    -1.1333e-008    -5.745e-010    
  2.1             -1.5002e-009    -2.0284e-008    1.253e-009     
  2.15            -6.65e-011      -1.2319e-008    2.8523e-009    
  2.2             2.1099e-009     1.019e-008      6.07e-011      
  2.25            2.2235e-009     1.0172e-008     2.344e-010     
  2.3             2.32e-009       1.0428e-008     4.231e-010     
  2.35            1.4178e-009     2.502e-008      -1.3344e-009   
  2.4             5.35e-011       1.1008e-008     -2.7421e-009   
  2.45            -2.0001e-009    -1.1067e-008    4.19e-011      
  2.5             -2.1288e-009    -1.0744e-008    -1.257e-010    
  2.55            -2.2161e-009    -1.0898e-008    -3.379e-010    
  2.6             -2.2589e-009    -1.1375e-008    -5.622e-010    
  2.65            -2.2583e-009    -1.169e-008     -7.794e-010    
  2.7             -1.5907e-009    -1.6546e-008    2.0262e-009    
  2.75            1.879e-009      -8.022e-009     1.5401e-009    
  2.8             2.1382e-009     1.0135e-008     1.048e-010     
  2.85            2.2538e-009     1.0196e-008     2.806e-010     
  2.9             2.3393e-009     1.0437e-008     4.697e-010     
  2.95            1.4597e-009     2.4126e-008     -1.3263e-009   
  3               8.94e-011       1.1094e-008     -2.7159e-009   
  3.05            -2.0359e-009    -1.0922e-008    -1e-013        
  3.1             -2.156e-009     -1.0773e-008    -1.78e-010     
  3.15            -2.2304e-009    -1.0869e-008    -3.885e-010    
  3.2             -1.3974e-009    -2.2905e-008    1.2816e-009    
  3.25            1.42e-011       -1.0054e-008    2.8998e-009    
  3.3             1.5767e-009     -2.34e-010      1.7934e-009    
  3.35            2.286e-009      1.0219e-008     3.327e-010     
  3.4             2.3583e-009     1.0717e-008     5.366e-010     
  3.45            1.5034e-009     2.2752e-008     -1.3138e-009   
  3.5             1.298e-010      1.1472e-008     -2.6842e-009   
  3.55            -1.3289e-009    6.74e-010       -1.909e-009    
  3.6             -2.2576e-009    -1.128e-008     -5.475e-010    
  3.65            -2.2605e-009    -1.1722e-008    -7.807e-010    
  3.7             -1.5907e-009    -1.6466e-008    2.0303e-009    
  3.75            1.8688e-009     -8.199e-009     1.5402e-009    
  3.8             2.1363e-009     1.0161e-008     9.48e-011      
  3.85            2.2512e-009     1.0142e-008     2.663e-010     
  3.9             2.3362e-009     1.0464e-008     4.476e-010     
  3.95            1.4505e-009     2.421e-008      -1.3265e-009   
  4               9.28e-011       1.1098e-008     -2.7247e-009   
  4.05            -2.0326e-009    -1.1065e-008    4.7e-012       
  4.1             -2.1466e-009    -1.0822e-008    -1.673e-010    
  4.15            -2.2271e-009    -1.0845e-008    -3.716e-010    
  4.2             -2.2621e-009    -1.144e-008     -5.841e-010    
  4.25            -2.2571e-009    -1.1677e-008    -8.147e-010    
  4.3             -1.6034e-009    -1.5768e-008    1.9711e-009    
  4.35            1.8326e-009     -8.578e-009     1.5733e-009    
  4.4             2.1585e-009     1.0148e-008     1.236e-010     
  4.45            2.2708e-009     1.0259e-008     2.975e-010     
  4.5             1.3386e-009     2.6429e-008     -1.3579e-009   
  4.55            7.1e-012        1.1533e-008     -1.3215e-009   
  4.6             1.112e-010      1.1264e-008     -2.7155e-009   
  4.65            -2.0537e-009    -1.0852e-008    -1.86e-011     
  4.7             -2.1633e-009    -1.0833e-008    -1.945e-010    
  4.75            -2.2346e-009    -1.0963e-008    -4.009e-010    
  4.8             -1.4079e-009    -2.2516e-008    1.2777e-009    
  4.85            -2.6e-012       -1.0271e-008    2.9009e-009    
  4.9             1.5533e-009     -3.96e-010      1.8081e-009    
  4.95            2.2984e-009     1.0283e-008     3.495e-010     
  5               1.3811e-009     2.5836e-008     -1.3473e-009   
END_DB

BEGIN_DB
 ICCAP_VAR VG         1              
 ICCAP_VAR VS         0              
 ICCAP_VAR VB         0              

 #VD              ID              IB              IG             
  0               -2.1275e-008    1.8825e-008     1.1349e-009    
  0.05            1.4171e-006     1.0306e-008     1.2905e-009    
  0.1             2.5076e-006     -1.1517e-008    -1.0812e-009   
  0.15            3.3308e-006     2.3863e-008     -1.4612e-009   
  0.2             3.9299e-006     1.0378e-008     7.172e-010     
  0.25            4.3767e-006     -2.0378e-008    1.8902e-009    
  0.3             4.727e-006      -1.1001e-008    -3.636e-010    
  0.35            5.0355e-006     1.5014e-008     -2.2603e-009   
  0.4             5.2573e-006     1.1117e-008     1.05e-011      
  0.45            5.42e-006       -1.079e-008     2.7906e-009    
  0.5             5.5919e-006     -1.3401e-008    2.784e-010     
  0.55            5.795e-006      1.0579e-008     -1.3217e-009   
  0.6             5.9456e-006     1.1041e-008     7.66e-011      
  0.65            6.0418e-006     -1.204e-008     2.7363e-009    
  0.7             6.1662e-006     -1.2689e-008    2.232e-010     
  0.75            6.3397e-006     1.1045e-008     -1.3095e-009   
  0.8             6.459e-006      1.0665e-008     1.475e-010     
  0.85            6.5224e-006     -1.3442e-008    2.677e-009     
  0.9             6.6456e-006     -1.2345e-008    1.651e-010     
  0.95            6.7975e-006     1.1482e-008     -2.7259e-009   
  1               6.9036e-006     1.8814e-008     -1.6037e-009   
  1.05            6.9673e-006     9.537e-009      2.1043e-009    
  1.1             7.0557e-006     -1.3676e-008    1.4756e-009    
  1.15            7.1812e-006     -1.1026e-008    -7.566e-010    
  1.2             7.3017e-006     1.9612e-008     -1.8096e-009   
  1.25            7.3835e-006     1.0346e-008     3.149e-010     
  1.3             7.4285e-006     -1.6009e-008    2.4707e-009    
  1.35            7.5201e-006     -1.1754e-008    3.66e-011      
  1.4             7.664e-006      1.1317e-008     -2.639e-009    
  1.45            7.7418e-006     1.5004e-008     -1.4706e-009   
  1.5             7.805e-006      1.048e-008      6.984e-010     
  1.55            7.8614e-006     -2.0129e-008    1.9228e-009    
  1.6             7.9553e-006     -1.0905e-008    -3.417e-010    
  1.65            8.0837e-006     1.4638e-008     -2.2798e-009   
  1.7             8.1437e-006     1.1372e-008     -2.3e-012      
  1.75            8.1655e-006     -1.0586e-008    2.8071e-009    
  1.8             8.2459e-006     -1.3624e-008    2.953e-010     
  1.85            8.3677e-006     1.0368e-008     -1.3241e-009   
  1.9             8.3943e-006     1.078e-008      1.1864e-009    
  1.95            8.4669e-006     -2.5542e-008    1.3529e-009    
  2               8.5742e-006     -1.1723e-008    -9.315e-010    
  2.05            8.6597e-006     2.1769e-008     -1.5918e-009   
  2.1             8.6817e-006     9.177e-009      2.1195e-009    
  2.15            8.7362e-006     -1.3837e-008    1.4672e-009    
  2.2             8.8525e-006     -1.1582e-008    -7.643e-010    
  2.25            8.9469e-006     1.8962e-008     -1.7949e-009   
  2.3             9.0127e-006     1.8974e-008     -1.7634e-009   
  2.35            9.0779e-006     1.8925e-008     -1.7326e-009   
  2.4             9.1423e-006     1.9014e-008     -1.7026e-009   
  2.45            9.2085e-006     1.913e-008      -1.6742e-009   
  2.5             9.2207e-006     7.965e-009      2.0434e-009    
  2.55            9.2738e-006     -1.7103e-008    1.5526e-009    
  2.6             9.3618e-006     -1.4018e-008    -6.626e-010    
  2.65            9.4543e-006     1.4727e-008     -1.9019e-009   
  2.7             9.5205e-006     1.4279e-008     -1.8682e-009   
  2.75            9.5901e-006     1.385e-008      -1.8335e-009   
  2.8             9.6471e-006     1.3254e-008     -1.8086e-009   
  2.85            9.7014e-006     1.2492e-008     -1.7683e-009   
  2.9             9.768e-006      1.1609e-008     -1.7371e-009   
  2.95            9.832e-006      1.0549e-008     -1.7074e-009   
  3               9.891e-006      -3e-010         -1.3103e-009   
  3.05            9.9068e-006     -5.251e-009     2.6933e-009    
  3.1             9.9646e-006     -2.6128e-008    -4.617e-010    
  3.15            1.00724e-005    -1.262e-009     -2.1337e-009   
  3.2             1.00479e-005    -8.63e-009      1.7092e-009    
  3.25            1.01362e-005    -4.4785e-008    2.0407e-009    
  3.3             1.02434e-005    -3.7504e-008    -1.8603e-009   
  3.35            1.03036e-005    -8.603e-009     -1.6904e-009   
  3.4             1.03118e-005    -2.3516e-008    2.0345e-009    
  3.45            1.03687e-005    -5.2718e-008    1.5691e-009    
  3.5             1.04648e-005    -5.261e-008     -2.0546e-009   
  3.55            1.05438e-005    -3.4852e-008    -2.27e-010     
  3.6             1.05596e-005    -6.3051e-008    2.9073e-009    
  3.65            1.06686e-005    -7.3167e-008    -1.0591e-009   
  3.7             1.0748e-005     -4.5196e-008    -1.4793e-009   
  3.75            1.07711e-005    -6.8063e-008    2.2379e-009    
  3.8             1.0859e-005     -9.9169e-008    2.8678e-009    
  3.85            1.0974e-005     -1.0895e-007    -1.6703e-009   
  3.9             1.0936e-005     -9.615e-008     1.6597e-009    
  3.95            1.1025e-005     -1.3293e-007    2.632e-010     
  4               1.1168e-005     -1.2105e-007    -2.4547e-009   
  4.05            1.1166e-005     -1.3699e-007    1.9691e-009    
  4.1             1.1247e-005     -1.7533e-007    2.22e-011      
  4.15            1.138e-005      -1.6376e-007    -2.0496e-009   
  4.2             1.1416e-005     -1.8947e-007    2.2274e-009    
  4.25            1.1497e-005     -2.3075e-007    -2.837e-010    
  4.3             1.1618e-005     -2.2013e-007    -1.6568e-009   
  4.35            1.1669e-005     -2.5553e-007    2.4335e-009    
  4.4             1.1758e-005     -3.0144e-007    -6.593e-010    
  4.45            1.187e-005      -2.92e-007      -1.437e-009    
  4.5             1.1916e-005     -3.3935e-007    2.6486e-009    
  4.55            1.2041e-005     -3.9027e-007    -9.566e-010    
  4.6             1.216e-005      -3.824e-007     -1.3546e-009   
  4.65            1.2211e-005     -4.3807e-007    2.8464e-009    
  4.7             1.2351e-005     -4.9742e-007    -1.2211e-009   
  4.75            1.2458e-005     -4.9855e-007    -1.3046e-009   
  4.8             1.2512e-005     -5.611e-007     2.9028e-009    
  4.85            1.2682e-005     -6.2726e-007    -1.5084e-009   
  4.9             1.2771e-005     -6.4309e-007    -1.5864e-009   
  4.95            1.2834e-005     -7.0315e-007    2.4784e-009    
  5               1.2971e-005     -7.7805e-007    -7.381e-010    
END_DB

BEGIN_DB
 ICCAP_VAR VG         2              
 ICCAP_VAR VS         0              
 ICCAP_VAR VB         0              

 #VD              ID              IB              IG             
  0               -9.0425e-008    -1.1427e-008    -5.169e-010    
  0.05            6.0736e-006     1.1153e-008     1.7953e-009    
  0.1             1.1894e-005     -2.2194e-008    1.7343e-009    
  0.15            1.7415e-005     -1.2769e-008    2.015e-010     
  0.2             2.2656e-005     1.3391e-008     -2.3762e-009   
  0.25            2.7478e-005     1.0027e-008     2.0338e-009    
  0.3             3.1947e-005     -1.1713e-008    -2.18e-011     
  0.35            3.6074e-005     1.7799e-008     -1.9587e-009   
  0.4             3.9735e-005     1.0381e-008     7.355e-010     
  0.45            4.3004e-005     -2.5657e-008    1.3514e-009    
  0.5             4.5928e-005     -1.1078e-008    -2.293e-010    
  0.55            4.852e-005      2.0687e-008     -1.702e-009    
  0.6             5.0722e-005     1.2976e-008     -1.594e-010    
  0.65            5.2556e-005     -1.5295e-008    2.5276e-009    
  0.7             5.4221e-005     -1.1024e-008    -4.627e-010    
  0.75            5.5667e-005     2.3006e-008     -1.523e-009    
  0.8             5.6777e-005     1.0823e-008     1.1057e-009    
  0.85            5.7805e-005     -2.4158e-008    1.2529e-009    
  0.9             5.872e-005      -1.0945e-008    -7.096e-010    
  0.95            5.9545e-005     2.5567e-008     -1.4206e-009   
  1               6.022e-005      1.076e-008      1.571e-010     
  1.05            6.0744e-005     -2.0222e-008    1.9191e-009    
  1.1             6.1353e-005     -1.1468e-008    -9.109e-010    
  1.15            6.1887e-005     2.7491e-008     -1.367e-009    
  1.2             6.2327e-005     1.0348e-008     3.517e-010     
  1.25            6.2689e-005     -2.1968e-008    1.637e-009     
  1.3             6.3073e-005     -1.2235e-008    9.56e-011      
  1.35            6.3569e-005     1.5393e-008     -2.1789e-009   
  1.4             6.3838e-005     9.454e-009      2.1574e-009    
  1.45            6.4168e-005     -1.1342e-008    -1.745e-010    
  1.5             6.4576e-005     2.0021e-008     -1.7706e-009   
  1.55            6.4857e-005     1.3902e-008     -2.086e-010    
  1.6             6.5059e-005     -1.4375e-008    2.5833e-009    
  1.65            6.5387e-005     -1.094e-008     -3.994e-010    
  1.7             6.5726e-005     2.2663e-008     -1.5674e-009   
  1.75            6.5893e-005     1.0851e-008     1.0602e-009    
  1.8             6.6146e-005     -2.4916e-008    1.261e-009     
  1.85            6.6434e-005     -1.0976e-008    -6.372e-010    
  1.9             6.6717e-005     2.4811e-008     -1.4427e-009   
  1.95            6.6928e-005     1.1084e-008     1.031e-010     
  2               6.7057e-005     -1.9679e-008    2.0067e-009    
  2.05            6.7332e-005     -1.1317e-008    -8.637e-010    
  2.1             6.7589e-005     2.6808e-008     -1.3797e-009   
  2.15            6.776e-005      1.0199e-008     2.901e-010     
  2.2             6.7873e-005     -2.1762e-008    1.7135e-009    
  2.25            6.8152e-005     -1.2006e-008    -1.0314e-009   
  2.3             6.8366e-005     2.6973e-008     -1.3368e-009   
  2.35            6.8505e-005     9.525e-009      5.032e-010     
  2.4             6.8611e-005     -2.4538e-008    1.4963e-009    
  2.45            6.8889e-005     -1.2926e-008    -1.2055e-009   
  2.5             6.9077e-005     9.428e-009      -2.5882e-009   
  2.55            6.9235e-005     1.528e-008      -1.9518e-009   
  2.6             6.9408e-005     8.311e-009      -2.5525e-009   
  2.65            6.955e-005      1.4542e-008     -1.8885e-009   
  2.7             6.9727e-005     6.459e-009      -2.5128e-009   
  2.75            6.9867e-005     1.2941e-008     -1.8278e-009   
  2.8             7.0035e-005     4.163e-009      -2.4626e-009   
  2.85            7.0177e-005     1.0416e-008     -1.7689e-009   
  2.9             7.0251e-005     -2.036e-009     2.3731e-009    
  2.95            7.041e-005      -2.4984e-008    -5.361e-010    
  3               7.0607e-005     -9.586e-009     -1.3856e-009   
  3.05            7.0693e-005     -1.1383e-008    2.766e-009     
  3.1             7.0887e-005     -3.5475e-008    -1.0879e-009   
  3.15            7.1043e-005     -1.263e-009     -1.3274e-009   
  3.2             7.1118e-005     -2.5967e-008    2.9008e-009    
  3.25            7.1339e-005     -5.0869e-008    -1.3636e-009   
  3.3             7.1446e-005     -2.328e-008     -1.7579e-009   
  3.35            7.1529e-005     -4.3393e-008    2.3773e-009    
  3.4             7.1659e-005     -7.2039e-008    -5.536e-010    
  3.45            7.1864e-005     -4.663e-008     -1.4863e-009   
  3.5             7.1939e-005     -7.3843e-008    2.5814e-009    
  3.55            7.2019e-005     -1.04292e-007   1.4629e-009    
  3.6             7.2198e-005     -9.747e-008     -2.496e-009    
  3.65            7.2269e-005     -1.0952e-007    1.9164e-009    
  3.7             7.2409e-005     -1.4913e-007    7.8e-011       
  3.75            7.2674e-005     -1.3989e-007    -2.1336e-009   
  3.8             7.2734e-005     -1.6798e-007    2.1887e-009    
  3.85            7.287e-005      -2.1275e-007    -2.231e-010    
  3.9             7.3112e-005     -2.0777e-007    -1.7284e-009   
  3.95            7.3193e-005     -2.4821e-007    2.3974e-009    
  4               7.3351e-005     -3.0161e-007    -5.784e-010    
  4.05            7.357e-005      -3.0327e-007    -1.4699e-009   
  4.1             7.3683e-005     -3.6091e-007    2.595e-009     
  4.15            7.3881e-005     -4.2467e-007    -8.997e-010    
