! VERSION = 6.00
BEGIN_HEADER
 ICCAP_INPUTS
  VG         V  B GROUND SMU4 0.001 LIN        2    0          5          6    1         
  VS         V  E GROUND SMU2 0.1 CON        0
  VD         V  S GROUND SMU1 0.1 LIN        1    0          5          101  0.05      
  VB         V  C GROUND SMU3 0.1 LIN        3    0          -2.5       2    -2.5      
 ICCAP_OUTPUTS
  ID         I  S GROUND SMU1 B
  IB         I  C GROUND SMU3 B
  IG         I  B GROUND SMU4 B
END_HEADER

BEGIN_DB
 ICCAP_VAR VG         0              
 ICCAP_VAR VS         0              
 ICCAP_VAR VB         0              

 #VD              ID              IB              IG             
  0               1.1712e-009     -1.1797e-008    1.3289e-009    
  0.05            -6.17e-011      -1.3157e-008    2.8821e-009    
  0.1             1.4585e-009     2.7192e-008     -1.3854e-009   
  0.15            4.76e-011       1.2864e-008     -1.3733e-009   
  0.2             2.045e-010      1.4298e-008     -2.6801e-009   
  0.25            -2.2041e-009    -1.2578e-008    -1.621e-010    
  0.3             -2.2617e-009    -1.3061e-008    -3.66e-010     
  0.35            -2.2736e-009    -1.2955e-008    -5.724e-010    
  0.4             -2.2626e-009    -1.1851e-008    -7.702e-010    
  0.45            -1.6235e-009    -1.8244e-008    2.2065e-009    
  0.5             2.0543e-009     -7.513e-009     1.4832e-009    
  0.55            1.378e-009      2.886e-008      -1.3818e-009   
  0.6             -2.92e-011      1.2242e-008     -1.3821e-009   
  0.65            1.108e-010      1.323e-008      -2.7037e-009   
  0.7             -1.5446e-009    -2.281e-008     1.3282e-009    
  0.75            -7.61e-011      -1.3194e-008    2.8827e-009    
  0.8             1.465e-009      2.6733e-008     -1.3836e-009   
  0.85            5.96e-011       1.3127e-008     -2.7177e-009   
  0.9             -1.5006e-009    -2.423e-008     2.5371e-009    
  0.95            2.2389e-009     -4.518e-009     1.2835e-009    
  1               1.2058e-009     2.8322e-008     -1.3911e-009   
  1.05            -2.1882e-009    1.0157e-008     -1.2081e-009   
  1.1             -1.8686e-009    -1.0135e-008    2.969e-010     
  1.15            -8.961e-010     -2.0373e-008    1.9057e-009    
  1.2             1.8322e-009     -9.04e-009      1.6508e-009    
  1.25            1.5602e-009     1.0634e-008     1.8229e-009    
  1.3             2.3034e-009     1.2392e-008     4.059e-010     
  1.35            2.344e-009      1.2044e-008     5.888e-010     
  1.4             1.5109e-009     2.4746e-008     -1.3803e-009   
  1.45            1.104e-010      1.3382e-008     -2.7088e-009   
  1.5             -1.5371e-009    -2.2735e-008    2.4518e-009    
  1.55            2.1916e-009     -5.363e-009     1.339e-009     
  1.6             1.2536e-009     2.881e-008      -1.3871e-009   
  1.65            -2.1613e-009    1.0925e-008     -1.2592e-009   
  1.7             -1.9125e-009    -1.0442e-008    2.57e-010      
  1.75            -9.387e-010     -2.1051e-008    1.8034e-009    
  1.8             1.7464e-009     -9.28e-009      1.7117e-009    
  1.85            1.4678e-009     1.0119e-008     1.8817e-009    
  1.9             2.3211e-009     1.2353e-008     4.63e-010      
  1.95            2.3535e-009     1.1611e-008     6.48e-010      
  2               2.3602e-009     1.0256e-008     8.14e-010      
  2.05            1.6868e-009     1.7109e-008     -1.8664e-009   
  2.1             -1.7717e-009    5.423e-009      -1.6752e-009   
  2.15            -1.5243e-009    -2.3077e-008    1.3293e-009    
  2.2             -5.08e-011      -1.2397e-008    2.8877e-009    
  2.25            1.4504e-009     2.718e-008      -1.3845e-009   
  2.3             4.47e-011       1.2597e-008     -2.7237e-009   
  2.35            -1.4849e-009    -2.4551e-008    2.5596e-009    
  2.4             2.2471e-009     -4.298e-009     1.2626e-009    
  2.45            2.0408e-009     1.0447e-008     -1.689e-010    
  2.5             9.462e-010      2.3136e-008     -1.6152e-009   
  2.55            -1.5489e-009    7.568e-009      -1.8299e-009   
  2.6             -2.2623e-009    -1.2991e-008    -3.861e-010    
  2.65            -2.275e-009     -1.2755e-008    -5.934e-010    
  2.7             -2.269e-009     -1.1655e-008    -7.894e-010    
  2.75            -2.244e-009     -1.0337e-008    -9.331e-010    
  2.8             -1.7059e-009    -1.3561e-008    1.8694e-009    
  2.85            1.8071e-009     -9.347e-009     1.6757e-009    
  2.9             1.5251e-009     1.0826e-008     1.8444e-009    
  2.95            2.3137e-009     1.2551e-008     4.282e-010     
  3               2.3499e-009     1.2316e-008     6.124e-010     
  3.05            2.3666e-009     1.0914e-008     7.749e-010     
  3.1             1.6543e-009     1.8604e-008     -1.9333e-009   
  3.15            -1.8274e-009    5.398e-009      -1.6361e-009   
  3.2             -1.4968e-009    -2.4225e-008    1.3287e-009    
  3.25            -1.56e-011      -1.1439e-008    2.8916e-009    
  3.3             1.4152e-009     2.7971e-008     -1.3842e-009   
  3.35            9.8e-012        1.2549e-008     -1.3768e-009   
  3.4             1.439e-010      1.3607e-008     -2.6979e-009   
  3.45            -2.1718e-009    -1.2153e-008    -8.55e-011     
  3.5             -2.2478e-009    -1.2946e-008    -2.974e-010    
  3.55            -2.2762e-009    -1.2951e-008    -5.147e-010    
  3.6             -2.2749e-009    -1.2639e-008    -7.089e-010    
  3.65            -2.2545e-009    -1.1081e-008    -8.757e-010    
  3.7             -1.6775e-009    -1.512e-008     1.9993e-009    
  3.75            1.9078e-009     -8.872e-009     1.6072e-009    
  3.8             1.6288e-009     1.1099e-008     1.7739e-009    
  3.85            2.2919e-009     1.2409e-008     3.525e-010     
  3.9             2.3366e-009     1.2386e-008     5.355e-010     
  3.95            2.3612e-009     1.1607e-008     7.07e-010      
  4               2.3664e-009     9.999e-009      8.658e-010     
  4.05            1.7352e-009     1.5636e-008     -1.781e-009    
  4.1             -1.7042e-009    6.058e-009      -1.7293e-009   
  4.15            -1.564e-009     -2.1587e-008    2.3931e-009    
  4.2             2.1611e-009     -5.953e-009     1.3755e-009    
  4.25            1.2825e-009     2.8684e-008     -1.3846e-009   
  4.3             -2.1404e-009    1.1348e-008     -1.2896e-009   
  4.35            -1.9996e-009    -1.0314e-008    -1.4614e-009   
  4.4             -1.3603e-009    -2.6237e-008    1.3299e-009    
  4.45            1.061e-010      -9.1e-009       2.8847e-009    
  4.5             1.8303e-009     4.4e-011        1.6603e-009    
  4.55            1.5469e-009     1.0842e-008     1.8248e-009    
  4.6             2.3077e-009     1.2426e-008     4.098e-010     
  4.65            2.3463e-009     1.1924e-008     5.962e-010     
  4.7             2.3622e-009     1.0728e-008     7.68e-010      
  4.75            1.6444e-009     1.8753e-008     -1.3602e-009   
  4.8             2.737e-010      1.5488e-008     -2.6447e-009   
  4.85            -2.2287e-009    1.073e-009      -1.0538e-009   
  4.9             -1.7631e-009    -1.1115e-008    1.6357e-009    
  4.95            1.5767e-009     -8.965e-009     1.8148e-009    
  5               2.3077e-009     1.2419e-008     3.979e-010     
END_DB

BEGIN_DB
 ICCAP_VAR VG         1              
 ICCAP_VAR VS         0              
 ICCAP_VAR VB         0              

 #VD              ID              IB              IG             
  0               -1.0195e-007    2.871e-009      -2.927e-010    
  0.05            7.0191e-006     -1.5001e-008    -2.3783e-009   
  0.1             1.10738e-005    1.0769e-008     1.6025e-009    
  0.15            1.3734e-005     -1.9009e-008    7.15e-010      
  0.2             1.5247e-005     -8.274e-009     1.3266e-009    
  0.25            1.6468e-005     -1.2817e-008    -5.251e-010    
  0.3             1.7523e-005     2.0612e-008     -1.5249e-009   
  0.35            1.7995e-005     9.721e-009      1.1098e-009    
  0.4             1.8676e-005     -2.6111e-008    1.3252e-009    
  0.45            1.9315e-005     -1.3019e-008    -7.435e-010    
  0.5             1.9995e-005     8.252e-009      -1.3811e-009   
  0.55            2.0412e-005     1.2037e-008     4.489e-010     
  0.6             2.0767e-005     -1.9705e-008    1.6023e-009    
  0.65            2.1213e-005     -2.6231e-008    1.3279e-009    
  0.7             2.1793e-005     -1.2781e-008    -5.453e-010    
  0.75            2.2424e-005     2.0834e-008     -1.5129e-009   
  0.8             2.2547e-005     9.702e-009      1.1211e-009    
  0.85            2.3011e-005     -2.5991e-008    1.3233e-009    
  0.9             2.3525e-005     -1.2993e-008    -7.638e-010    
  0.95            2.4058e-005     8.489e-009      -1.3815e-009   
  1               2.4509e-005     2.1756e-008     -1.6988e-009   
  1.05            2.467e-005      1.1313e-008     9.707e-010     
  1.1             2.5017e-005     -2.6383e-008    1.3285e-009    
  1.15            2.5473e-005     -1.2829e-008    -5.611e-010    
  1.2             2.6086e-005     2.0992e-008     -1.4986e-009   
  1.25            2.6136e-005     9.775e-009      1.1312e-009    
  1.3             2.658e-005      -2.5959e-008    2.3102e-009    
  1.35            2.7023e-005     -1.3059e-008    -7.771e-010    
  1.4             2.7555e-005     8.586e-009      -1.3818e-009   
  1.45            2.7414e-005     9.396e-009      1.5549e-009    
  1.5             2.7975e-005     -1.4544e-008    1.5658e-009    
  1.55            2.859e-005      -1.049e-008     -1.1573e-009   
  1.6             2.9063e-005     2.8958e-008     -1.3816e-009   
  1.65            2.9201e-005     1.2485e-008     6.786e-010     
  1.7             2.9379e-005     -8.59e-009      1.3263e-009    
  1.75            2.988e-005      -1.2735e-008    -4.796e-010    
  1.8             3.0488e-005     2.0045e-008     -1.5623e-009   
  1.85            3.0506e-005     9.76e-009       1.0669e-009    
  1.9             3.0869e-005     -2.6631e-008    1.3279e-009    
  1.95            3.1595e-005     -1.198e-008     -1.7655e-009   
  2               3.182e-005      1.1261e-008     -2.556e-010    
  2.05            3.1769e-005     -1.6756e-008    2.6996e-009    
  2.1             3.2293e-005     -1.3607e-008    -4.518e-010    
  2.15            3.2864e-005     1.84e-008       -1.5844e-009   
  2.2             3.2867e-005     8.092e-009      1.0536e-009    
  2.25            3.3189e-005     -2.9072e-008    1.3291e-009    
  2.3             3.3955e-005     -1.4939e-008    -1.7401e-009   
  2.35            3.4178e-005     1.3337e-008     -2.042e-009    
  2.4             3.4565e-005     7.614e-009      -2.6171e-009   
  2.45            3.4882e-005     1.1131e-008     -1.9769e-009   
  2.5             3.5252e-005     4.729e-009      -2.5895e-009   
  2.55            3.5517e-005     7.718e-009      -1.9091e-009   
  2.6             3.5617e-005     -3.734e-009     2.3735e-009    
  2.65            3.5961e-005     -2.8418e-008    -5.168e-010    
  2.7             3.6429e-005     -1.2484e-008    -1.3896e-009   
  2.75            3.6516e-005     -1.2282e-008    2.7508e-009    
  2.8             3.6996e-005     -3.7657e-008    -1.0477e-009   
  2.85            3.7508e-005     -2.523e-009     -1.3843e-009   
  2.9             3.744e-005      -2.96e-008      2.86e-009      
  2.95            3.8124e-005     -5.2843e-008    -1.3234e-009   
  3               3.8445e-005     -2.3727e-008    -1.9236e-009   
  3.05            3.8508e-005     -4.9253e-008    2.3697e-009    
  3.1             3.8836e-005     -8.0705e-008    -5.081e-010    
  3.15            3.9421e-005     -5.7548e-008    -1.5369e-009   
  3.2             3.944e-005      -8.0796e-008    2.5933e-009    
  3.25            3.9833e-005     -9.216e-008     -3.705e-010    
  3.3             3.9992e-005     -1.3506e-007    1.6873e-009    
  3.35            4.0478e-005     -1.4363e-007    -2.4734e-009   
  3.4             4.0822e-005     -1.402e-007     6.979e-010     
  3.45            4.0905e-005     -1.9741e-007    1.3831e-009    
  3.5             4.1507e-005     -2.0578e-007    -2.6975e-009   
  3.55            4.1742e-005     -2.1062e-007    9.606e-010     
  3.6             4.1981e-005     -2.7812e-007    1.3291e-009    
  3.65            4.2612e-005     -2.8984e-007    -2.7564e-009   
  3.7             4.2623e-005     -3.0654e-007    1.2128e-009    
  3.75            4.3124e-005     -3.8038e-007    2.1392e-009    
  3.8             4.357e-005      -4.0652e-007    -2.2273e-009   
  3.85            4.4052e-005     -4.2905e-007    4.227e-010     
  3.9             4.4138e-005     -5.124e-007     1.6325e-009    
  3.95            4.4698e-005     -5.5797e-007    -2.5057e-009   
  4               4.5093e-005     -5.9318e-007    7.314e-010     
  4.05            4.5237e-005     -6.993e-007     1.3645e-009    
  4.1             4.5913e-005     -7.5527e-007    -2.7116e-009   
  4.15            4.6185e-005     -8.0807e-007    9.92e-010      
  4.2             4.6522e-005     -9.3615e-007    1.3285e-009    
  4.25            4.7195e-005     -1.00511e-006   -2.7561e-009   
  4.3             4.7231e-005     -1.07912e-006   1.2417e-009    
  4.35            4.7809e-005     -1.1999e-006    1.4193e-009    
  4.4             4.8487e-005     -1.3227e-006    -2.6591e-009   
  4.45            4.8852e-005     -1.4131e-006    8.954e-010     
  4.5             4.9108e-005     -1.5895e-006    1.3291e-009    
  4.55            4.991e-005      -1.7098e-006    -2.7535e-009   
  4.6             5.0093e-005     -1.8279e-006    1.1483e-009    
  4.65            5.0643e-005     -2.0365e-006    2.2814e-009    
  4.7             5.1315e-005     -2.1776e-006    -2.1608e-009   
  4.75            5.1966e-005     -2.3249e-006    3.443e-010     
  4.8             5.2138e-005     -2.5474e-006    1.7466e-009    
  4.85            5.2963e-005     -2.7452e-006    -2.4353e-009   
  4.9             5.3597e-005     -2.9182e-006    6.579e-010     
  4.95            5.3868e-005     -3.1905e-006    1.4047e-009    
  5               5.4805e-005     -3.4192e-006    -2.6818e-009   
END_DB

BEGIN_DB
 ICCAP_VAR VG         2              
 ICCAP_VAR VS         0              
 ICCAP_VAR VB         0              

 #VD              ID              IB              IG             
  0               -4.3022e-007    1.3829e-008     -1.3152e-009   
  0.05            5.6298e-005     -2.6422e-008    1.4991e-009    
  0.1             0.000110632     -1.5849e-008    1.6344e-009    
  0.15            0.00016235      -1.2417e-008    -2.7408e-009   
  0.2             0.00021065      1.6057e-008     -1.5131e-009   
  0.25            0.00025539      2.8727e-008     -1.3754e-009   
  0.3             0.00029622      1.2123e-008     8.108e-010     
  0.35            0.00033315      -2.6039e-008    1.3296e-009    
  0.4             0.00036637      -1.2948e-008    -6.425e-010    
  0.45            0.00039579      8.632e-009      -1.3816e-009   
  0.5             0.000421        1.2422e-008     6.318e-010     
  0.55            0.00044246      -8.269e-009     1.3299e-009    
  0.6             0.00046184      -1.1496e-008    -1.7814e-009   
  0.65            0.00047701      9.919e-009      -1.384e-010    
  0.7             0.00048949      -1.8521e-008    2.3166e-009    
  0.75            0.00050079      -1.2621e-008    -8.838e-010    
  0.8             0.00051046      2.7932e-008     -1.382e-009    
  0.85            0.00051682      1.094e-008      1.674e-009     
  0.9             0.00052374      -1.0417e-008    1.846e-010     
  0.95            0.00053048      1.6674e-008     -2.2269e-009   
  1               0.00053502      1.2425e-008     7.592e-010     
  1.05            0.000539        -2.5735e-008    1.3331e-009    
  1.1             0.00054442      -1.1418e-008    -1.6893e-009   
  1.15            0.00054755      1.1268e-008     -2.137e-010    
  1.2             0.00055021      -1.7688e-008    2.4833e-009    
  1.25            0.0005538       -1.2873e-008    -7.966e-010    
  1.3             0.0005574       2.6705e-008     -1.3827e-009   
  1.35            0.00055983      1.2281e-008     5.042e-010     
  1.4             0.00056188      -8.602e-009     1.3316e-009    
  1.45            0.00056491      -1.289e-008     -5.862e-010    
  1.5             0.00056771      7.677e-009      -1.3827e-009   
  1.55            0.00056981      1.2386e-008     5.756e-010     
  1.6             0.00057139      -8.434e-009     1.329e-009     
  1.65            0.00057487      -1.1376e-008    -1.7342e-009   
  1.7             0.00057642      1.0431e-008     -1.757e-010    
  1.75            0.00057772      -1.8018e-008    2.4242e-009    
  1.8             0.00058027      -1.297e-008     -8.245e-010    
  1.85            0.00058254      2.715e-008      -1.3826e-009   
  1.9             0.00058399      1.2257e-008     5.475e-010     
  1.95            0.00058523      -8.663e-009     1.3302e-009    
  2               0.0005874       -1.3127e-008    -6.38e-010     
  2.05            0.00058967      8.221e-009      -1.3844e-009   
  2.1             0.00059093      1.1718e-008     6.188e-010     
  2.15            0.00059187      -2.5111e-008    1.3579e-009    
  2.2             0.00059491      -1.1781e-008    -1.542e-009    
  2.25            0.00059609      1.2874e-008     -1.5005e-009   
  2.3             0.00059769      1.4645e-008     -1.9434e-009   
  2.35            0.00059942      1.0216e-008     -2.4449e-009   
  2.4             0.00060085      5.144e-009      -2.6923e-009   
  2.45            0.00060215      8.408e-009      -2.0411e-009   
  2.5             0.00060297      -3.394e-009     2.4095e-009    
  2.55            0.00060437      -2.9627e-008    -7.172e-010    
  2.6             0.00060635      3.659e-009      -1.3898e-009   
  2.65            0.00060688      -2.0147e-008    2.8283e-009    
  2.7             0.00060899      -4.6325e-008    -1.329e-009    
  2.75            0.0006102       -2.513e-008     -1.7141e-009   
  2.8             0.000611        -5.0024e-008    2.5705e-009    
  2.85            0.00061224      -8.5786e-008    -9.162e-010    
  2.9             0.00061393      -6.2664e-008    -1.3841e-009   
  2.95            0.00061464      -9.935e-008     -2.6978e-009   
  3               0.00061571      -1.2585e-007    1.0749e-009    
  3.05            0.00061677      -1.8911e-007    2.2046e-009    
  3.1             0.00061832      -2.0627e-007    -2.315e-009    
  3.15            0.0006195       -2.2322e-007    6.593e-010     
  3.2             0.00062009      -3.0424e-007    1.3496e-009    
  3.25            0.00062216      -3.3827e-007    -2.7483e-009   
  3.3             0.00062249      -3.7976e-007    1.256e-009     
  3.35            0.00062382      -4.7394e-007    1.8119e-009    
  3.4             0.00062545      -5.3859e-007    -2.5151e-009   
  3.45            0.00062659      -6.0345e-007    8.609e-010     
  3.5             0.00062725      -7.3761e-007    1.3305e-009    
  3.55            0.00062918      -8.2556e-007    -2.7488e-009   
  3.6             0.00062925      -9.3215e-007    1.465e-009     
  3.65            0.00063083      -1.09252e-006   1.5075e-009    
  3.7             0.00063267      -1.2231e-006    2.3032e-009    
  3.75            0.00063401      -1.4164e-006    -5.616e-010    
  3.8             0.00063569      -1.5745e-006    -1.4263e-009   
  3.85            0.00063634      -1.7976e-006    2.7762e-009    
  3.9             0.00063816      -2.0556e-006    -1.2034e-009   
  3.95            0.00063964      -2.2796e-006    -1.9112e-009   
  4               0.00064035      -2.5909e-006    2.48e-009      
  4.05            0.00064196      -2.9368e-006    -8.018e-010    
  4.1             0.00064388      -3.2549e-006    -1.3814e-009   
  4.15            0.0006446       -3.6653e-006    2.8591e-009    
