! VERSION = 6.00
BEGIN_HEADER
 ICCAP_INPUTS
  VG         V  B GROUND SMU4 0.001 LIN        2    0          5          6    1         
  VS         V  E GROUND SMU3 0.1 CON        0
  VD         V  S GROUND SMU2 0.1 LIN        1    0          5          101  0.05      
  VB         V  C GROUND SMU1 0.1 LIN        3    0          -2.5       2    -2.5      
 ICCAP_OUTPUTS
  ID         I  S GROUND SMU2 B
  IB         I  C GROUND SMU1 B
  IG         I  B GROUND SMU4 B
END_HEADER

BEGIN_DB
 ICCAP_VAR VG         0              
 ICCAP_VAR VS         0              
 ICCAP_VAR VB         0              

 #VD              ID              IB              IG             
  0               2.3815e-009     -1.3232e-008    3.829e-010     
  0.05            1.6723e-009     1.2321e-008     -1.4023e-009   
  0.1             -1.6313e-009    -1.2443e-008    1.4047e-009    
  0.15            1.5707e-009     1.2459e-008     -1.4152e-009   
  0.2             -1.532e-009     -1.2701e-008    1.4117e-009    
  0.25            1.4737e-009     1.2818e-008     -1.4188e-009   
  0.3             -1.4478e-009    -1.3084e-008    1.4103e-009    
  0.35            1.3989e-009     1.3125e-008     -1.411e-009    
  0.4             -1.3685e-009    -1.3341e-008    1.3204e-009    
  0.45            1.2574e-009     1.3102e-008     -1.3464e-009   
  0.5             -1.9873e-009    -1.2562e-008    1.352e-009     
  0.55            1.9258e-009     1.256e-008      -1.3643e-009   
  0.6             -1.8782e-009    -1.2553e-008    1.3666e-009    
  0.65            1.8068e-009     1.2388e-008     -1.3801e-009   
  0.7             -1.7617e-009    -1.2425e-008    1.384e-009     
  0.75            1.6998e-009     1.2368e-008     -1.3982e-009   
  0.8             -1.6563e-009    -1.2499e-008    1.3996e-009    
  0.85            1.5989e-009     1.2439e-008     -1.4124e-009   
  0.9             -1.5552e-009    -1.2619e-008    1.4093e-009    
  0.95            1.5071e-009     1.2682e-008     -1.4173e-009   
  1               -1.4641e-009    -1.2892e-008    1.4125e-009    
  1.05            1.4146e-009     1.3033e-008     -1.4145e-009   
  1.1             -1.3897e-009    -1.334e-008     1.4052e-009    
  1.15            7.711e-010      1.2503e-008     -1.3262e-009   
  1.2             -1.2477e-009    -1.309e-008     1.3485e-009    
  1.25            1.9603e-009     1.2656e-008     -1.3625e-009   
  1.3             -1.9093e-009    -1.2586e-008    1.3623e-009    
  1.35            1.8443e-009     1.2445e-008     -1.3758e-009   
  1.4             -1.8004e-009    -1.2361e-008    1.3783e-009    
  1.45            1.7368e-009     1.2362e-008     -1.394e-009    
  1.5             -1.6886e-009    -1.2488e-008    1.3952e-009    
  1.55            1.6271e-009     1.2315e-008     -1.4111e-009   
  1.6             -1.582e-009     -1.2488e-008    1.4096e-009    
  1.65            1.5294e-009     1.2546e-008     -1.4182e-009   
  1.7             -1.4922e-009    -1.2855e-008    1.4129e-009    
  1.75            1.4393e-009     1.2951e-008     -1.4166e-009   
  1.8             -1.408e-009     -1.324e-008     1.4084e-009    
  1.85            1.3682e-009     1.326e-008      -1.4052e-009   
  1.9             -1.3343e-009    -1.3384e-008    1.3276e-009    
  1.95            1.2365e-009     1.3029e-008     -1.3572e-009   
  2               -1.9469e-009    -1.2654e-008    1.3585e-009    
  2.05            1.8813e-009     1.2518e-008     -1.3721e-009   
  2.1             -1.8294e-009    -1.2479e-008    1.3739e-009    
  2.15            1.7682e-009     1.2343e-008     -1.3903e-009   
  2.2             -1.7168e-009    -1.2462e-008    1.3889e-009    
  2.25            1.6562e-009     1.2339e-008     -1.4049e-009   
  2.3             -1.6153e-009    -1.2465e-008    1.4046e-009    
  2.35            1.5552e-009     1.2469e-008     -1.4165e-009   
  2.4             -1.519e-009     -1.2744e-008    1.4112e-009    
  2.45            1.4683e-009     1.2738e-008     -1.4175e-009   
  2.5             -1.4339e-009    -1.3096e-008    1.411e-009     
  2.55            1.3879e-009     1.3091e-008     -1.4103e-009   
  2.6             -1.3542e-009    -1.333e-008     1.3198e-009    
  2.65            1.2483e-009     1.3107e-008     -1.3496e-009   
  2.7             -1.9712e-009    -1.2569e-008    1.3539e-009    
  2.75            1.9168e-009     1.2617e-008     -1.3677e-009   
  2.8             -1.8633e-009    -1.2508e-008    1.3711e-009    
  2.85            1.7997e-009     1.2422e-008     -1.3853e-009   
  2.9             -1.7521e-009    -1.2404e-008    1.3852e-009    
  2.95            1.6863e-009     1.2372e-008     -1.4012e-009   
  3               -1.6456e-009    -1.254e-008     1.401e-009     
  3.05            1.5838e-009     1.2434e-008     -1.416e-009    
  3.1             -1.5468e-009    -1.2648e-008    1.4108e-009    
  3.15            1.49e-009       1.2702e-008     -1.4177e-009   
  3.2             -1.4561e-009    -1.2992e-008    1.4113e-009    
  3.25            1.4141e-009     1.3077e-008     -1.4124e-009   
  3.3             -1.3826e-009    -1.3403e-008    1.4005e-009    
  3.35            1.3365e-009     1.3205e-008     -1.328e-009    
  3.4             -1.2478e-009    -1.3129e-008    1.3485e-009    
  3.45            1.9434e-009     1.2627e-008     -1.3609e-009   
  3.5             -1.9008e-009    -1.2605e-008    1.3634e-009    
  3.55            1.837e-009      1.2374e-008     -1.3758e-009   
  3.6             -1.783e-009     -1.2424e-008    1.3777e-009    
  3.65            1.7206e-009     1.2389e-008     -1.3931e-009   
  3.7             -1.6781e-009    -1.2548e-008    1.3952e-009    
  3.75            1.6204e-009     1.2433e-008     -1.4117e-009   
  3.8             -1.5813e-009    -1.263e-008     1.4105e-009    
  3.85            1.519e-009      1.2591e-008     -1.419e-009    
  3.9             -1.4844e-009    -1.2876e-008    1.4111e-009    
  3.95            1.4346e-009     1.2944e-008     -1.4165e-009   
  4               -1.4027e-009    -1.3237e-008    1.4071e-009    
  4.05            1.3595e-009     1.3186e-008     -1.405e-009    
  4.1             -1.3306e-009    -1.3277e-008    1.3266e-009    
  4.15            1.2266e-009     1.2997e-008     -1.3566e-009   
  4.2             -1.932e-009     -1.2621e-008    1.3598e-009    
  4.25            1.8709e-009     1.2582e-008     -1.374e-009    
  4.3             -1.8195e-009    -1.246e-008     1.3749e-009    
  4.35            1.7592e-009     1.2323e-008     -1.3899e-009   
  4.4             -1.7111e-009    -1.2454e-008    1.3912e-009    
  4.45            1.651e-009      1.2381e-008     -1.4053e-009   
  4.5             -1.6041e-009    -1.2432e-008    1.4044e-009    
  4.55            1.5467e-009     1.2498e-008     -1.4174e-009   
  4.6             -1.5098e-009    -1.2771e-008    1.4111e-009    
  4.65            1.4551e-009     1.2824e-008     -1.4171e-009   
  4.7             -1.4255e-009    -1.3156e-008    1.4094e-009    
  4.75            1.3842e-009     1.3137e-008     -1.4094e-009   
  4.8             -1.3513e-009    -1.3362e-008    1.3239e-009    
  4.85            1.247e-009      1.3113e-008     -1.3526e-009   
  4.9             -1.9667e-009    -1.2555e-008    1.357e-009     
  4.95            1.8966e-009     1.2611e-008     -1.3659e-009   
  5               -1.8526e-009    -1.2398e-008    1.3728e-009    
END_DB

BEGIN_DB
 ICCAP_VAR VG         1              
 ICCAP_VAR VS         0              
 ICCAP_VAR VB         0              

 #VD              ID              IB              IG             
  0               7.3356e-008     -1.378e-008     2.171e-010     
  0.05            4.8962e-006     1.2717e-008     1.2172e-009    
  0.1             8.5499e-006     -8.069e-009     1.3506e-009    
  0.15            1.11484e-005    -1.2908e-008    1.3311e-009    
  0.2             1.2987e-005     1.2887e-008     -7.412e-010    
  0.25            1.4255e-005     3.736e-009      -1.4178e-009   
  0.3             1.5171e-005     1.2903e-008     -1.3419e-009   
  0.35            1.5869e-005     1.2662e-008     -1.3906e-009   
  0.4             1.6395e-005     1.3109e-008     -1.4184e-009   
  0.45            1.684e-005      1.2933e-008     -1.3497e-009   
  0.5             1.7264e-005     1.2781e-008     -1.3968e-009   
  0.55            1.7618e-005     1.2954e-008     -1.4169e-009   
  0.6             1.7961e-005     1.3098e-008     -1.3561e-009   
  0.65            1.8295e-005     1.2955e-008     -1.4041e-009   
  0.7             1.8589e-005     1.2949e-008     -1.4123e-009   
  0.75            1.8871e-005     1.3108e-008     -1.3614e-009   
  0.8             1.9178e-005     1.2935e-008     -1.4119e-009   
  0.85            1.9432e-005     1.2938e-008     -1.4057e-009   
  0.9             1.969e-005      1.3105e-008     -1.3689e-009   
  0.95            1.9955e-005     1.3114e-008     -1.4162e-009   
  1               2.02e-005       1.2855e-008     -1.3295e-009   
  1.05            2.0446e-005     1.2511e-008     -1.3752e-009   
  1.1             2.068e-005      1.3129e-008     -1.4192e-009   
  1.15            2.0902e-005     1.276e-008      -1.3363e-009   
  1.2             2.1149e-005     1.2648e-008     -1.381e-009    
  1.25            2.1359e-005     1.3242e-008     -1.4208e-009   
  1.3             2.156e-005      1.2775e-008     -1.3405e-009   
  1.35            2.179e-005      1.2709e-008     -1.3886e-009   
  1.4             2.1983e-005     1.3151e-008     -1.418e-009    
  1.45            2.2186e-005     1.2891e-008     -1.3474e-009   
  1.5             2.2422e-005     1.2786e-008     -1.3972e-009   
  1.55            2.2596e-005     1.2933e-008     -1.4153e-009   
  1.6             2.2782e-005     1.308e-008      -1.3544e-009   
  1.65            2.2989e-005     1.2871e-008     -1.4069e-009   
  1.7             2.3167e-005     1.297e-008      -1.411e-009    
  1.75            2.3343e-005     1.3052e-008     -1.3606e-009   
  1.8             2.3547e-005     1.2888e-008     -1.4113e-009   
  1.85            2.3712e-005     1.2837e-008     -1.4072e-009   
  1.9             2.387e-005      1.3012e-008     -1.3696e-009   
  1.95            2.4078e-005     1.2951e-008     -1.4154e-009   
  2               2.4247e-005     1.2593e-008     -1.3287e-009   
  2.05            2.4439e-005     1.2194e-008     -1.3751e-009   
  2.1             2.4613e-005     1.2799e-008     -1.4179e-009   
  2.15            2.4754e-005     1.2189e-008     -1.3348e-009   
  2.2             2.4934e-005     1.1806e-008     -1.3825e-009   
  2.25            2.5098e-005     1.2181e-008     -1.4178e-009   
  2.3             2.5242e-005     1.1546e-008     -1.3424e-009   
  2.35            2.5411e-005     9.06e-009       -1.3228e-009   
  2.4             2.5596e-005     1.031e-008      -1.3674e-009   
  2.45            2.5731e-005     5.559e-009      -1.349e-009    
  2.5             2.5892e-005     6.853e-009      -1.3297e-009   
  2.55            2.6072e-005     -6.56e-010      -1.4013e-009   
  2.6             2.6179e-005     -1.6847e-008    -5.745e-010    
  2.65            2.6344e-005     -1.841e-008     1.3313e-009    
  2.7             2.6425e-005     -2.0155e-008    1.3773e-009    
  2.75            2.6589e-005     -2.2333e-008    1.412e-009     
  2.8             2.6751e-005     -2.3731e-008    1.3378e-009    
  2.85            2.6889e-005     -2.5711e-008    1.3829e-009    
  2.9             2.7068e-005     -2.8524e-008    1.4138e-009    
  2.95            2.7227e-005     -3.1065e-008    1.3445e-009    
  3               2.7361e-005     -3.4097e-008    1.3943e-009    
  3.05            2.7522e-005     -3.7992e-008    1.4103e-009    
  3.1             2.7699e-005     -4.2045e-008    1.3506e-009    
  3.15            2.7822e-005     -4.6786e-008    1.3991e-009    
  3.2             2.7998e-005     -5.215e-008     1.4074e-009    
  3.25            2.8154e-005     -5.8445e-008    1.3604e-009    
  3.3             2.8318e-005     -6.5193e-008    1.4052e-009    
  3.35            2.847e-005      -7.2887e-008    1.3199e-009    
  3.4             2.8613e-005     -8.1222e-008    1.3645e-009    
  3.45            2.8783e-005     -9.1705e-008    1.4102e-009    
  3.5             2.8968e-005     -1.02424e-007   1.3274e-009    
  3.55            2.9172e-005     -1.1441e-007    1.1881e-009    
  3.6             2.9327e-005     -1.0385e-007    -1.3721e-009   
  3.65            2.9556e-005     -1.1804e-007    -1.4156e-009   
  3.7             2.9707e-005     -1.357e-007     -1.3341e-009   
  3.75            2.9908e-005     -1.5522e-007    -1.379e-009    
  3.8             3.0075e-005     -1.7576e-007    -1.4183e-009   
  3.85            3.024e-005      -1.998e-007     -1.3416e-009   
  3.9             3.0435e-005     -2.2605e-007    -1.3889e-009   
  3.95            3.0589e-005     -2.5428e-007    -1.4179e-009   
  4               3.0777e-005     -2.8621e-007    -1.3452e-009   
  4.05            3.1011e-005     -3.2138e-007    -1.3954e-009   
  4.1             3.1177e-005     -3.593e-007     -1.416e-009    
  4.15            3.1368e-005     -4.0118e-007    -1.3542e-009   
  4.2             3.1594e-005     -4.4709e-007    -1.4031e-009   
  4.25            3.1801e-005     -4.9674e-007    -1.4118e-009   
  4.3             3.2e-005        -5.5063e-007    -1.3587e-009   
  4.35            3.2235e-005     -6.0956e-007    -1.4113e-009   
  4.4             3.2449e-005     -6.7383e-007    -1.4052e-009   
  4.45            3.2669e-005     -7.4265e-007    -1.3687e-009   
  4.5             3.2928e-005     -8.1694e-007    -1.415e-009    
  4.55            3.3165e-005     -8.9764e-007    -1.3278e-009   
  4.6             3.3452e-005     -9.839e-007     -1.3747e-009   
  4.65            3.3695e-005     -1.07604e-006   -1.4174e-009   
  4.7             3.3954e-005     -1.1859e-006    -1.2179e-009   
  4.75            3.4221e-005     -1.2824e-006    -1.4171e-009   
  4.8             3.451e-005      -1.3942e-006    -1.353e-009    
  4.85            3.4818e-005     -1.5152e-006    -1.4027e-009   
  4.9             3.5118e-005     -1.6444e-006    -1.4141e-009   
  4.95            3.5422e-005     -1.7807e-006    -1.3575e-009   
  5               3.5767e-005     -1.9253e-006    -1.4104e-009   
END_DB

BEGIN_DB
 ICCAP_VAR VG         2              
 ICCAP_VAR VS         0              
 ICCAP_VAR VB         0              

 #VD              ID              IB              IG             
  0               3.2377e-007     -1.3373e-008    5.46e-011      
  0.05            2.1375e-005     -1.3055e-008    7.528e-010     
  0.1             4.1929e-005     -3.728e-009     1.4017e-009    
  0.15            6.1572e-005     -1.2763e-008    1.3384e-009    
  0.2             8.0304e-005     -1.2823e-008    1.3709e-009    
  0.25            9.7938e-005     -1.352e-008     1.4031e-009    
  0.3             0.0001145       9.328e-009      1.3913e-009    
  0.35            0.00012985      -1.2702e-008    1.3507e-009    
  0.4             0.00014394      -1.2827e-008    1.3713e-009    
  0.45            0.00015674      -1.3549e-008    1.3964e-009    
  0.5             0.00016834      -1.3133e-008    1.4021e-009    
  0.55            0.0001786       -1.2649e-008    1.3433e-009    
  0.6             0.00018766      -1.2611e-008    1.3608e-009    
  0.65            0.00019559      -1.3268e-008    1.3876e-009    
  0.7             0.00020243      -1.3527e-008    1.4016e-009    
  0.75            0.00020834      -1.2814e-008    1.3352e-009    
  0.8             0.00021331      -1.251e-008     1.3505e-009    
  0.85            0.00021756      -1.2907e-008    1.3749e-009    
  0.9             0.00022121      -1.3636e-008    1.3988e-009    
  0.95            0.00022432      -1.3064e-008    1.3994e-009    
  1               0.00022697      -1.2696e-008    1.3447e-009    
  1.05            0.00022923      -1.2645e-008    1.3632e-009    
  1.1             0.00023126      -1.3373e-008    1.3907e-009    
  1.15            0.0002331       -1.3339e-008    1.4025e-009    
  1.2             0.00023471      -1.2791e-008    1.338e-009     
  1.25            0.00023619      -1.2531e-008    1.3551e-009    
  1.3             0.0002376       -1.3019e-008    1.3777e-009    
  1.35            0.00023886      -1.3567e-008    1.4013e-009    
  1.4             0.00024004      -1.3001e-008    1.3976e-009    
  1.45            0.00024113      -1.2675e-008    1.3478e-009    
  1.5             0.0002421       -1.2661e-008    1.3675e-009    
  1.55            0.00024309      -1.3386e-008    1.3936e-009    
  1.6             0.00024405      -1.334e-008     1.4026e-009    
  1.65            0.00024491      -1.2676e-008    1.3392e-009    
  1.7             0.00024569      -1.2612e-008    1.3564e-009    
  1.75            0.00024652      -1.3041e-008    1.3818e-009    
  1.8             0.00024727      -1.3608e-008    1.4012e-009    
  1.85            0.00024804      -1.2929e-008    1.3303e-009    
  1.9             0.00024871      -1.2485e-008    1.3484e-009    
  1.95            0.00024936      -1.2808e-008    1.3691e-009    
  2               0.00025006      -1.3567e-008    1.3959e-009    
  2.05            0.00025063      -1.3241e-008    1.4012e-009    
  2.1             0.00025127      -1.2881e-008    1.3434e-009    
  2.15            0.00025179      -1.2815e-008    1.3599e-009    
  2.2             0.00025237      -1.3526e-008    1.3856e-009    
  2.25            0.00025298      -1.4024e-008    1.4035e-009    
  2.3             0.00025355      -1.3555e-008    1.3329e-009    
  2.35            0.00025409      -1.3407e-008    1.3531e-009    
  2.4             0.00025463      -1.4173e-008    1.3736e-009    
  2.45            0.00025513      -1.5439e-008    1.3977e-009    
  2.5             0.00025567      -1.5557e-008    1.3983e-009    
  2.55            0.00025613      -1.6006e-008    1.3454e-009    
  2.6             0.00025656      -1.7024e-008    1.3615e-009    
  2.65            0.00025703      -1.9026e-008    1.3893e-009    
  2.7             0.00025753      -2.0997e-008    1.4021e-009    
  2.75            0.00025798      -2.2381e-008    1.3384e-009    
  2.8             0.00025835      -2.4809e-008    1.3542e-009    
  2.85            0.00025882      -2.8361e-008    1.3782e-009    
  2.9             0.00025918      -3.2898e-008    1.3991e-009    
  2.95            0.00025965      -3.6947e-008    1.3946e-009    
  3               0.00026005      -4.2357e-008    1.3492e-009    
  3.05            0.00026043      -4.8841e-008    1.3656e-009    
  3.1             0.00026084      -5.7592e-008    1.3922e-009    
  3.15            0.00026128      -6.6825e-008    1.4026e-009    
  3.2             0.0002617       -7.7068e-008    1.3401e-009    
  3.25            0.00026209      -8.9686e-008    1.3578e-009    
  3.3             0.00026246      -1.05151e-007   1.3815e-009    
  3.35            0.000263        -1.2187e-007    1.3369e-009    
  3.4             0.00026338      -1.4174e-007    1.3558e-009    
  3.45            0.0002638       -1.6527e-007    1.3754e-009    
  3.5             0.00026425      -1.9241e-007    1.3979e-009    
  3.55            0.00026465      -2.2226e-007    1.397e-009     
  3.6             0.00026506      -2.5668e-007    1.3467e-009    
  3.65            0.00026544      -2.9608e-007    1.3663e-009    
  3.7             0.00026591      -3.417e-007     1.3922e-009    
  3.75            0.00026637      -3.9319e-007    1.4005e-009    
  3.8             0.00026682      -4.5028e-007    1.3399e-009    
  3.85            0.00026719      -5.1554e-007    1.3557e-009    
  3.9             0.00026765      -5.8966e-007    1.3788e-009    
  3.95            0.00026814      -6.7328e-007    1.3991e-009    
  4               0.00026866      -7.6588e-007    1.3943e-009    
  4.05            0.00026915      -8.7018e-007    1.3521e-009    
  4.1             0.00026958      -9.8698e-007    1.3685e-009    
  4.15            0.00027013      -1.11824e-006   1.3936e-009    
