! VERSION = 6.00
BEGIN_HEADER
 ICCAP_INPUTS
  VG         V  B GROUND SMU4 0.001 LIN        2    0          5          6    1         
  VS         V  E GROUND SMU2 0.1 CON        0
  VD         V  S GROUND SMU1 0.1 LIN        1    0          5          101  0.05      
  VB         V  C GROUND SMU3 0.1 LIN        3    0          -2.5       2    -2.5      
 ICCAP_OUTPUTS
  ID         I  S GROUND SMU1 B
  IB         I  C GROUND SMU3 B
  IG         I  B GROUND SMU4 B
END_HEADER

BEGIN_DB
 ICCAP_VAR VG         0              
 ICCAP_VAR VS         0              
 ICCAP_VAR VB         0              

 #VD              ID              IB              IG             
  0               -8.466e-010     -2.5737e-008    -8.415e-010    
  0.05            2.032e-010      1.1753e-008     -2.6842e-009   
  0.1             -1.3368e-009    6.05e-010       -1.9415e-009   
  0.15            -2.2877e-009    -1.1195e-008    -6.224e-010    
  0.2             -2.2951e-009    -1.1312e-008    -8.065e-010    
  0.25            -1.6213e-009    -1.6518e-008    1.246e-009     
  0.3             -2.529e-010     -1.4104e-008    2.8188e-009    
  0.35            2.2057e-009     1.0127e-008     2.155e-010     
  0.4             2.3104e-009     1.0227e-008     3.852e-010     
  0.45            2.385e-009      1.0578e-008     5.539e-010     
  0.5             1.5008e-009     2.3395e-008     -1.3302e-009   
  0.55            1.286e-010      1.1248e-008     -1.3023e-009   
  0.6             2.628e-010      1.2709e-008     -2.6425e-009   
  0.65            -1.2917e-009    6.08e-010       -1.9717e-009   
  0.7             -2.2989e-009    -1.1219e-008    -6.962e-010    
  0.75            -2.2846e-009    -1.1294e-008    -8.62e-010     
  0.8             -2.2459e-009    -1.1132e-008    -1.0009e-009   
  0.85            -1.7062e-009    -1.3373e-008    1.7423e-009    
  0.9             1.6799e-009     -9.414e-009     1.7446e-009    
  0.95            1.4614e-009     9.805e-009      1.9143e-009    
  1               2.3612e-009     1.0466e-008     4.865e-010     
  1.05            1.447e-009      2.4743e-008     -1.3403e-009   
  1.1             7.9e-011        1.0931e-008     -1.3103e-009   
  1.15            2.03e-010       1.1733e-008     -2.6835e-009   
  1.2             -1.3294e-009    6.41e-010       -1.9438e-009   
  1.25            -2.2921e-009    -1.1303e-008    -6.245e-010    
  1.3             -2.2946e-009    -1.1379e-008    -8.08e-010     
  1.35            -1.621e-009     -1.6681e-008    1.246e-009     
  1.4             -2.502e-010     -1.4327e-008    2.8146e-009    
  1.45            2.2122e-009     1.0154e-008     2.167e-010     
  1.5             2.3122e-009     1.0236e-008     3.85e-010      
  1.55            2.3858e-009     1.0665e-008     5.571e-010     
  1.6             1.5031e-009     2.3543e-008     -1.3287e-009   
  1.65            1.291e-010      1.1114e-008     -1.303e-009    
  1.7             2.621e-010      1.2515e-008     -2.6423e-009   
  1.75            -1.2952e-009    6.09e-010       -1.977e-009    
  1.8             -2.2983e-009    -1.1355e-008    -6.908e-010    
  1.85            -1.5692e-009    -1.8915e-008    1.2592e-009    
  1.9             -1.54e-010      -1.2856e-008    2.8743e-009    
  1.95            2.1433e-009     1.0125e-008     1.163e-010     
  2               2.2548e-009     1.0112e-008     2.827e-010     
  2.05            2.3443e-009     1.0332e-008     4.484e-010     
  2.1             1.4194e-009     2.541e-008      -1.3499e-009   
  2.15            4.74e-011       1.115e-008      -1.3163e-009   
  2.2             1.747e-010      1.1247e-008     -2.7082e-009   
  2.25            -1.3656e-009    5.13e-010       -1.9217e-009   
  2.3             -2.2841e-009    -1.1187e-008    -5.723e-010    
  2.35            -2.2984e-009    -1.1297e-008    -7.578e-010    
  2.4             -1.6021e-009    -1.764e-008     1.2503e-009    
  2.45            -2.141e-010     -1.3958e-008    2.8563e-009    
  2.5             2.199e-009      1.0165e-008     1.776e-010     
  2.55            2.3062e-009     1.0154e-008     3.457e-010     
  2.6             2.3882e-009     1.0489e-008     5.119e-010     
  2.65            1.4806e-009     2.4589e-008     -1.3374e-009   
  2.7             9.91e-011       1.0812e-008     -1.3068e-009   
  2.75            2.255e-010      1.2105e-008     -2.6672e-009   
  2.8             -1.3194e-009    6.63e-010       -1.9542e-009   
  2.85            -2.2961e-009    -1.1271e-008    -6.39e-010     
  2.9             -2.2926e-009    -1.1415e-008    -8.203e-010    
  2.95            -2.2553e-009    -1.1272e-008    -9.669e-010    
  3               -1.6913e-009    -1.3922e-008    1.7997e-009    
  3.05            1.7327e-009     -9.386e-009     1.6969e-009    
  3.1             1.5063e-009     9.986e-009      1.872e-009     
  3.15            2.3455e-009     1.0308e-008     4.456e-010     
  3.2             1.4179e-009     2.5376e-008     -1.3468e-009   
  3.25            4.84e-011       1.1085e-008     -1.3159e-009   
  3.3             1.739e-010      1.138e-008      -2.6999e-009   
  3.35            -1.3641e-009    5.08e-010       -1.921e-009    
  3.4             -2.2862e-009    -1.1174e-008    -5.729e-010    
  3.45            -2.2991e-009    -1.1333e-008    -7.671e-010    
  3.5             -1.6025e-009    -1.7598e-008    1.2489e-009    
  3.55            -2.151e-010     -1.3784e-008    2.8349e-009    
  3.6             2.1894e-009     1.0034e-008     1.841e-010     
  3.65            2.2982e-009     1.0159e-008     3.48e-010      
  3.7             2.3744e-009     1.0506e-008     5.165e-010     
  3.75            1.4734e-009     2.4314e-008     -1.3342e-009   
  3.8             1.025e-010      1.0952e-008     -1.3053e-009   
  3.85            2.332e-010      1.2276e-008     -2.6586e-009   
  3.9             -1.3175e-009    6.43e-010       -1.9565e-009   
  3.95            -2.2941e-009    -1.1344e-008    -6.524e-010    
  4               -2.2887e-009    -1.1316e-008    -8.329e-010    
  4.05            -1.6299e-009    -1.6235e-008    2.0346e-009    
  4.1             1.933e-009      -8.716e-009     1.5409e-009    
  4.15            2.1505e-009     1.0021e-008     1.234e-010     
  4.2             2.2599e-009     1.0124e-008     2.883e-010     
  4.25            2.3487e-009     1.0353e-008     4.56e-010      
  4.3             1.422e-009      2.5327e-008     -1.3438e-009   
  4.35            5.85e-011       1.1067e-008     -1.3123e-009   
  4.4             1.829e-010      1.1361e-008     -2.6939e-009   
  4.45            -1.3584e-009    5.98e-010       -1.928e-009    
  4.5             -2.2858e-009    -1.1259e-008    -5.869e-010    
  4.55            -2.2949e-009    -1.1427e-008    -7.765e-010    
  4.6             -1.604e-009     -1.7359e-008    1.2479e-009    
  4.65            -2.18e-010      -1.3961e-008    2.8372e-009    
  4.7             2.1962e-009     1.012e-008      1.883e-010     
  4.75            2.2967e-009     1.0144e-008     3.504e-010     
  4.8             2.3814e-009     1.0573e-008     5.204e-010     
  4.85            1.4783e-009     2.413e-008      -1.3336e-009   
  4.9             1.097e-010      1.0938e-008     -1.3073e-009   
  4.95            2.387e-010      1.2296e-008     -2.6651e-009   
  5               -1.3113e-009    6e-010          -1.9595e-009   
END_DB

BEGIN_DB
 ICCAP_VAR VG         1              
 ICCAP_VAR VS         0              
 ICCAP_VAR VB         0              

 #VD              ID              IB              IG             
  0               -4.7993e-008    1.9303e-008     5.572e-010     
  0.05            3.3634e-006     -8.759e-009     -1.8158e-009   
  0.1             5.5266e-006     1.1338e-008     -2.5148e-009   
  0.15            6.6563e-006     1.2523e-008     -1.454e-010    
  0.2             7.0361e-006     -8.697e-009     2.9229e-009    
  0.25            7.1893e-006     -1.6901e-008    1.7059e-009    
  0.3             7.2431e-006     -1.0927e-008    -5.754e-010    
  0.35            7.3377e-006     1.6206e-008     -2.0857e-009   
  0.4             7.3373e-006     1.06e-008       1.712e-010     
  0.45            7.2682e-006     -1.2848e-008    2.7255e-009    
  0.5             7.2833e-006     -1.2536e-008    1.666e-010     
  0.55            7.3761e-006     1.1059e-008     -1.3097e-009   
  0.6             7.3798e-006     1.0393e-008     2.265e-010     
  0.65            7.3095e-006     -1.3709e-008    2.6621e-009    
  0.7             7.3184e-006     -1.2218e-008    1.173e-010     
  0.75            7.4054e-006     1.1459e-008     -2.7327e-009   
  0.8             7.4131e-006     1.8054e-008     -1.5885e-009   
  0.85            7.3361e-006     9.568e-009      2.1356e-009    
  0.9             7.3486e-006     -1.358e-008     2.871e-010     
  0.95            7.4273e-006     1.0586e-008     -1.3307e-009   
  1               7.4351e-006     1.0927e-008     1.037e-010     
  1.05            7.3517e-006     -1.1672e-008    2.8101e-009    
  1.1             7.3674e-006     -1.3153e-008    2.326e-010     
  1.15            7.4496e-006     1.0801e-008     -1.3209e-009   
  1.2             7.4525e-006     1.0597e-008     1.603e-010     
  1.25            7.3721e-006     -1.2832e-008    2.7491e-009    
  1.3             7.4728e-006     -1.16e-008      -1.4863e-009   
  1.35            7.4832e-006     2.8096e-008     -1.356e-009    
  1.4             7.3867e-006     1.0536e-008     1.0759e-009    
  1.45            7.3943e-006     -2.4082e-008    1.4569e-009    
  1.5             7.4342e-006     -1.1218e-008    -8.357e-010    
  1.55            7.4897e-006     2.0197e-008     -1.7692e-009   
  1.6             7.4649e-006     1.0073e-008     4.105e-010     
  1.65            7.4029e-006     -1.6398e-008    2.4526e-009    
  1.7             7.4089e-006     -1.1703e-008    -5e-011        
  1.75            7.5026e-006     1.1193e-008     -2.6495e-009   
  1.8             7.4923e-006     1.4458e-008     -1.4691e-009   
  1.85            7.4459e-006     1.0417e-008     7.4e-010       
  1.9             7.4299e-006     -2.0289e-008    1.9193e-009    
  1.95            7.438e-006      -1.081e-008     -4.25e-010     
  2               7.5204e-006     1.4235e-008     -2.2894e-009   
  2.05            7.5266e-006     2.7749e-008     -1.361e-009    
  2.1             7.5281e-006     2.791e-008      -1.3578e-009   
  2.15            7.5302e-006     2.786e-008      -1.3547e-009   
  2.2             7.4285e-006     1.0312e-008     1.0825e-009    
  2.25            7.4449e-006     -2.4331e-008    1.4476e-009    
  2.3             7.4767e-006     -1.1596e-008    -8.417e-010    
  2.35            7.5325e-006     1.9658e-008     -1.7611e-009   
  2.4             7.5074e-006     9.386e-009      4.183e-010     
  2.45            7.4428e-006     -1.7237e-008    2.4442e-009    
  2.5             7.4496e-006     -1.2652e-008    -5.88e-011     
  2.55            7.5417e-006     1.0084e-008     -2.646e-009    
  2.6             7.5295e-006     1.2937e-008     -2.52e-010     
  2.65            7.4511e-006     -1.0464e-008    1.2701e-009    
  2.7             7.5355e-006     -1.3471e-008    -1.2971e-009   
  2.75            7.5325e-006     7.359e-009      -1.3426e-009   
  2.8             7.5578e-006     1.3034e-008     -2.0945e-009   
  2.85            7.5637e-006     1.2892e-008     -2.068e-009    
  2.9             7.5625e-006     1.268e-008      -2.0346e-009   
  2.95            7.5646e-006     1.2064e-008     -2.0067e-009   
  3               7.565e-006      1.1468e-008     -1.9718e-009   
  3.05            7.5673e-006     1.0958e-008     -1.9446e-009   
  3.1             7.5696e-006     1.0345e-008     -1.9123e-009   
  3.15            7.5721e-006     9.339e-009      -1.8932e-009   
  3.2             7.5755e-006     8.189e-009      -1.8572e-009   
  3.25            7.5772e-006     6.938e-009      -1.8284e-009   
  3.3             7.5177e-006     -2.0658e-008    -2.8064e-009   
  3.35            7.591e-006      -2.36e-010      -2.1462e-009   
  3.4             7.4511e-006     -6.866e-009     1.742e-009     
  3.45            7.5259e-006     -4.3134e-008    2.064e-009     
  3.5             7.5775e-006     -3.5587e-008    -1.9013e-009   
  3.55            7.5979e-006     -5.87e-009      -1.713e-009    
  3.6             7.5007e-006     -1.9854e-008    2.0525e-009    
  3.65            7.5336e-006     -4.9485e-008    1.5972e-009    
  3.7             7.5618e-006     -4.8421e-008    -2.0741e-009   
  3.75            7.6091e-006     -2.9351e-008    -2.335e-010    
  3.8             7.5352e-006     -5.6923e-008    1.2663e-009    
  3.85            7.5689e-006     -6.2718e-008    -2.6449e-009   
  3.9             7.6161e-006     -5.0251e-008    4.1e-010       
  3.95            7.5577e-006     -8.3442e-008    2.4666e-009    
  4               7.6677e-006     -8.7287e-008    -1.7221e-009   
  4.05            7.6791e-006     -5.5644e-008    -1.3157e-009   
  4.1             7.6108e-006     -8.366e-008     2.7226e-009    
  4.15            7.6458e-006     -1.0768e-007    -3e-011        
  4.2             7.6022e-006     -1.2152e-007    2.8886e-009    
  4.25            7.7043e-006     -1.3483e-007    -1.2901e-009   
  4.3             7.7389e-006     -1.0841e-007    -1.3949e-009   
  4.35            7.67e-006       -1.3887e-007    2.4008e-009    
  4.4             7.6686e-006     -1.7493e-007    -2.4e-011      
  4.45            7.7788e-006     -1.6822e-007    -2.6653e-009   
  4.5             7.6751e-006     -1.8373e-007    1.2834e-009    
  4.55            7.7274e-006     -2.3957e-007    1.3302e-009    
  4.6             7.7706e-006     -2.4137e-007    -2.3743e-009   
  4.65            7.8472e-006     -2.3962e-007    1.045e-010     
  4.7             7.7811e-006     -2.8262e-007    2.8007e-009    
  4.75            7.9038e-006     -3.0598e-007    -1.4283e-009   
  4.8             7.9363e-006     -2.8736e-007    -1.3617e-009   
  4.85            7.8789e-006     -3.3228e-007    2.4925e-009    
  4.9             7.8925e-006     -3.8014e-007    -1.635e-010    
  4.95            8.0154e-006     -3.8692e-007    -2.5559e-009   
  5               7.9048e-006     -4.1379e-007    1.4208e-009    
END_DB

BEGIN_DB
 ICCAP_VAR VG         2              
 ICCAP_VAR VS         0              
 ICCAP_VAR VB         0              

 #VD              ID              IB              IG             
  0               -2.5658e-007    1.0035e-008     -1.1246e-009   
  0.05            2.1377e-005     -1.1348e-008    2.93e-009      
  0.1             4.139e-005      -1.3053e-008    2.137e-010     
  0.15            6.0263e-005     1.24e-008       -2.4032e-009   
  0.2             7.7777e-005     1.0015e-008     4.267e-010     
  0.25            9.3907e-005     -2.1863e-008    1.6253e-009    
  0.3             0.000108869     -1.2128e-008    4.67e-011      
  0.35            0.00012285      9.865e-009      -1.7637e-009   
  0.4             0.00013533      1.204e-008      -8.53e-011     
  0.45            0.00014638      -1.7617e-008    2.2441e-009    
  0.5             0.00015651      -1.1312e-008    -8.758e-010    
  0.55            0.00016544      2.7352e-008     -1.3535e-009   
  0.6             0.00017279      1.0102e-008     5.896e-010     
  0.65            0.0001789       -2.4853e-008    1.3821e-009    
  0.7             0.00018449      -1.1885e-008    -1.5181e-009   
  0.75            0.00018841      1.6114e-008     -1.5281e-009   
  0.8             0.00019135      1.078e-008      1.358e-010     
  0.85            0.00019297      -2.0548e-008    1.8545e-009    
  0.9             0.00019461      -1.1376e-008    -1.0824e-009   
  0.95            0.00019544      1.1095e-008     -2.633e-009    
  1               0.00019587      1.0177e-008     3.194e-010     
  1.05            0.0001957       -2.2126e-008    1.6112e-009    
  1.1             0.00019636      -1.1371e-008    -1.2548e-009   
  1.15            0.00019658      1.1556e-008     -2.4573e-009   
  1.2             0.00019618      9.998e-009      2.0795e-009    
  1.25            0.00019639      -1.1022e-008    -2.758e-010    
  1.3             0.00019683      2.2014e-008     -1.6138e-009   
  1.35            0.00019646      1.0444e-008     1.1284e-009    
  1.4             0.00019669      -2.1122e-008    2.0191e-009    
  1.45            0.00019654      -1.2824e-008    1.737e-010     
  1.5             0.00019723      1.5122e-008     -2.1846e-009   
  1.55            0.00019702      1.0341e-008     7.292e-010     
  1.6             0.00019687      -2.5749e-008    1.3253e-009    
  1.65            0.00019702      -1.0814e-008    -5.472e-010    
  1.7             0.00019745      2.4741e-008     -1.4419e-009   
  1.75            0.00019687      1.0718e-008     1.3581e-009    
  1.8             0.00019715      -1.5907e-008    1.6606e-009    
  1.85            0.00019754      -1.1299e-008    -1.2121e-009   
  1.9             0.00019768      1.1284e-008     -2.4996e-009   
  1.95            0.00019716      1.0234e-008     2.0468e-009    
  2               0.00019732      -1.11e-008      -2.255e-010    
  2.05            0.00019772      2.135e-008      -1.6487e-009   
  2.1             0.00019732      1.0526e-008     1.0922e-009    
  2.15            0.00019745      -2.1784e-008    1.247e-009     
  2.2             0.00019769      -1.1347e-008    -9.639e-010    
  2.25            0.0001979       2.715e-008      -1.3355e-009   
  2.3             0.00019773      1.0169e-008     6.905e-010     
  2.35            0.00019753      -2.5568e-008    1.3357e-009    
  2.4             0.00019763      -1.0911e-008    -5.12e-010     
  2.45            0.00019801      2.4115e-008     -1.469e-009    
  2.5             0.00019746      1.0527e-008     1.3149e-009    
  2.55            0.0001977       -1.6925e-008    1.7073e-009    
  2.6             0.00019766      -1.2172e-008    -6.1e-012      
  2.65            0.00019814      1.7933e-008     -1.9004e-009   
  2.7             0.00019808      1.2649e-008     -1.786e-010    
  2.75            0.00019767      -1.704e-008     2.3998e-009    
  2.8             0.00019804      -1.235e-008     -7.764e-010    
  2.85            0.0001983       2.4831e-008     -1.3782e-009   
  2.9             0.0001983       2.0345e-008     -1.5402e-009   
  2.95            0.00019832      1.4216e-008     -1.9432e-009   
  3               0.00019839      7.354e-009      -2.4227e-009   
  3.05            0.00019836      4.927e-009      -2.7178e-009   
  3.1             0.00019842      8.291e-009      -2.0358e-009   
  3.15            0.00019843      6.67e-010       -2.5043e-009   
  3.2             0.00019821      -1.9406e-008    -2.7981e-009   
  3.25            0.00019853      -5.725e-009     -2.461e-009    
  3.3             0.00019838      -1.175e-008     5.084e-010     
  3.35            0.00019799      -5.1396e-008    1.4326e-009    
  3.4             0.00019828      -4.0757e-008    -2.7139e-009   
  3.45            0.00019804      -3.0563e-008    1.1314e-009    
  3.5             0.00019823      -7.0848e-008    2.0041e-009    
  3.55            0.00019841      -6.9723e-008    -2.3307e-009   
  3.6             0.00019836      -6.1767e-008    7.161e-010     
  3.65            0.00019821      -1.11418e-007   1.3299e-009    
  3.7             0.0001985       -1.08045e-007   -1.7809e-009   
  3.75            0.00019866      -1.1132e-007    -1.6084e-009   
  3.8             0.0001985       -1.3278e-007    2.5556e-009    
  3.85            0.00019866      -1.7636e-007    -9.73e-010     
  3.9             0.00019889      -1.6511e-007    -1.333e-009    
  3.95            0.00019863      -2.1814e-007    2.9334e-009    
  4               0.0001991       -2.7006e-007    -1.6156e-009   
  4.05            0.00019896      -2.8313e-007    -1.4683e-009   
  4.1             0.0001988       -3.3392e-007    2.7236e-009    
  4.15            0.00019911      -4.0319e-007    -1.1553e-009   
