! VERSION = 6.00
BEGIN_HEADER
 ICCAP_INPUTS
  VG         V  B GROUND SMU4 0.001 LIN        1    0          5          101  0.05      
  VS         V  E GROUND SMU2 0.1 CON        0
  VB         V  C GROUND SMU3 0.1 LIN        3    0          -5         3    -2.5      
  VD         V  S GROUND SMU1 0.1 LIN        2    0.1        5          2    4.9       
 ICCAP_OUTPUTS
  IG         I  B GROUND SMU4 B
  ID         I  S GROUND SMU1 B
  IB         I  C GROUND SMU3 B
END_HEADER

BEGIN_DB
 ICCAP_VAR VS         0              
 ICCAP_VAR VB         0              
 ICCAP_VAR VD         0.1            

 #VG              IG              ID              IB             
  0               -7.256e-010     -7.795e-010     -2.6115e-008   
  0.05            -1.9493e-009    1.5979e-009     1.9556e-008    
  0.1             -1.5819e-009    -1.7602e-009    4.884e-009     
  0.15            -1.9403e-009    -1.2336e-009    1.112e-008     
  0.2             1.6675e-009     -1.5205e-009    -1.2901e-008   
  0.25            2.6569e-009     1.6323e-009     -8.827e-009    
  0.3             4.018e-010      4.264e-009      1.1118e-008    
  0.35            -1.3514e-009    8.4856e-009     2.6002e-008    
  0.4             2.8426e-009     2.354e-008      1.1131e-008    
  0.45            -2.2507e-009    2.3902e-007     1.0579e-008    
  0.5             -1.649e-009     1.7466e-007     3.273e-009     
  0.55            -1.393e-009     3.9139e-007     7.478e-009     
  0.6             1.747e-009      7.4689e-007     -1.1882e-008   
  0.65            2.7528e-009     1.2937e-006     2.3304e-008    
  0.7             -1.3873e-009    2.0723e-006     2.6342e-008    
  0.75            -2.6973e-009    3.0428e-006     1.1293e-008    
  0.8             -2.3523e-009    4.1819e-006     1.87e-010      
  0.85            2.676e-010      5.4196e-006     -1.2899e-008   
  0.9             -1.921e-010     6.762e-006      -1.1149e-008   
  0.95            -7.129e-010     8.1224e-006     -1.1741e-008   
  1               1.7457e-009     9.4333e-006     -1.7668e-008   
  1.05            1.3434e-009     1.07484e-005    -8.989e-009    
  1.1             -1.4894e-009    1.2022e-005     -8.57e-009     
  1.15            -1.3493e-009    1.3231e-005     9.989e-009     
  1.2             -2.6225e-009    1.4382e-005     1.1462e-008    
  1.25            -2.1177e-009    1.5468e-005     6.42e-010      
  1.3             -1.5637e-009    1.6524e-005     3.737e-009     
  1.35            -1.3764e-009    1.7541e-005     8.456e-009     
  1.4             -2.6816e-009    1.8516e-005     1.1608e-008    
  1.45            -2.2821e-009    1.9448e-005     3.34e-010      
  1.5             2.32e-010       2.0319e-005     -1.256e-008    
  1.55            -2.566e-010     2.1207e-005     -1.1236e-008   
  1.6             -7.695e-010     2.2059e-005     -1.1676e-008   
  1.65            1.671e-009      2.2861e-005     -1.6493e-008   
  1.7             1.3297e-009     2.3666e-005     -8.971e-009    
  1.75            2.8567e-009     2.4432e-005     -8.867e-009    
  1.8             3.308e-010      2.5205e-005     1.0812e-008    
  1.85            -1.3264e-009    2.5943e-005     2.6909e-008    
  1.9             -2.4724e-009    2.6659e-005     1.2797e-008    
  1.95            -1.6782e-009    2.7351e-005     -1.1915e-008   
  2               -5.234e-010     2.8014e-005     -1.1717e-008   
  2.05            1.9942e-009     2.8676e-005     -2.1336e-008   
  2.1             1.4305e-009     2.933e-005      -9.012e-009    
  2.15            1.2798e-009     2.996e-005      -8.619e-009    
  2.2             2.7445e-009     3.0586e-005     -1.2608e-008   
  2.25            1.5153e-009     3.1192e-005     1.1393e-008    
  2.3             3.775e-010      3.1811e-005     1.0965e-008    
  2.35            -1.3201e-009    3.2407e-005     2.615e-008     
  2.4             -2.4185e-009    3.299e-005      1.3128e-008    
  2.45            -1.7193e-009    3.355e-005      -1.1746e-008   
  2.5             -5.841e-010     3.4099e-005     -1.1764e-008   
  2.55            1.9165e-009     3.464e-005      -2.0305e-008   
  2.6             1.3991e-009     3.5184e-005     -9.134e-009    
  2.65            2.8638e-009     3.564e-005      -8.434e-009    
  2.7             2.6985e-009     3.6243e-005     -2.4e-011      
  2.75            1.5641e-009     3.6758e-005     1.1334e-008    
  2.8             1.9956e-009     3.7272e-005     9.657e-009     
  2.85            -1.4022e-009    3.7789e-005     2.574e-008     
  2.9             -2.7094e-009    3.8277e-005     1.1104e-008    
  2.95            -2.545e-010     3.8747e-005     -1.1183e-008   
  3               -7.763e-010     3.9231e-005     -1.1665e-008   
  3.05            1.6711e-009     3.9684e-005     -1.6522e-008   
  3.1             1.3279e-009     4.01e-005       -9.022e-009    
  3.15            2.854e-009      4.062e-005      -8.663e-009    
  3.2             3.403e-010      4.0977e-005     1.074e-008     
  3.25            -1.323e-009     4.1533e-005     2.6893e-008    
  3.3             -2.4653e-009    4.1976e-005     1.2629e-008    
  3.35            -1.8592e-009    4.2401e-005     1.913e-009     
  3.4             -1.4526e-009    4.2828e-005     5.592e-009     
  3.45            -1.3398e-009    4.3255e-005     1.0327e-008    
  3.5             -2.5824e-009    4.3674e-005     1.1717e-008    
  3.55            -2.0412e-009    4.4077e-005     9.59e-010      
  3.6             -1.5295e-009    4.4482e-005     4.186e-009     
  3.65            -1.3578e-009    4.4885e-005     9.236e-009     
  3.7             -2.6557e-009    4.5282e-005     1.1497e-008    
  3.75            -2.2133e-009    4.5667e-005     3.78e-010      
  3.8             -1.6354e-009    4.6052e-005     3.39e-009      
  3.85            -1.3821e-009    4.6438e-005     7.751e-009     
  3.9             -2.7001e-009    4.6811e-005     1.1227e-008    
  3.95            -3.078e-010     4.7173e-005     -1.1184e-008   
  4               -8.194e-010     4.7538e-005     -1.1715e-008   
  4.05            1.6022e-009     4.7878e-005     -1.5611e-008   
  4.1             1.3118e-009     4.8255e-005     -8.853e-009    
  4.15            2.8437e-009     4.8605e-005     -9.377e-009    
  4.2             1.3417e-009     4.8953e-005     1.0846e-008    
  4.25            1.942e-010      4.9305e-005     1.0606e-008    
  4.3             6.556e-010      4.9647e-005     1.1072e-008    
  4.35            -1.661e-009     4.9967e-005     2.0387e-008    
  4.4             -1.3879e-009    5.0315e-005     7.621e-009     
  4.45            -2.701e-009     5.0644e-005     1.1121e-008    
  4.5             -2.974e-010     5.0877e-005     -1.1235e-008   
  4.55            -8.089e-010     5.1277e-005     -1.1627e-008   
  4.6             1.6255e-009     5.157e-005      -1.5884e-008   
  4.65            1.3158e-009     5.19e-005       -8.809e-009    
  4.7             2.8496e-009     5.2207e-005     -9.355e-009    
  4.75            1.3288e-009     5.2505e-005     1.084e-008     
  4.8             -2.0021e-009    5.282e-005      1.6461e-008    
  4.85            -1.5011e-009    5.311e-005      4.566e-009     
  4.9             -1.3521e-009    5.3398e-005     9.441e-009     
  4.95            -2.6339e-009    5.3693e-005     1.1508e-008    
  5               -2.155e-009     5.3977e-005     4.95e-010      
END_DB

BEGIN_DB
 ICCAP_VAR VS         0              
 ICCAP_VAR VB         0              
 ICCAP_VAR VD         5              

 #VG              IG              ID              IB             
  0               -1.8e-011       4.4377e-007     -4.3792e-008   
  0.05            -5.429e-010     7.112e-007      -7.4839e-008   
  0.1             -2.6763e-009    1.1346e-006     -1.003e-007    
  0.15            -2.2576e-009    1.794e-006      -1.5666e-007   
  0.2             -1.6664e-009    2.826e-006      -2.4267e-007   
  0.25            -1.4018e-009    4.376e-006      -3.6893e-007   
  0.3             -2.7132e-009    6.5704e-006     -5.4785e-007   
  0.35            -2.4054e-009    9.4365e-006     -7.9807e-007   
  0.4             1.9963e-009     1.2955e-005     -1.09395e-006  
  0.45            2.3053e-009     1.7169e-005     -1.3917e-006   
  0.5             2.6004e-009     2.1905e-005     -1.7554e-006   
  0.55            2.8454e-009     2.7085e-005     -2.1313e-006   
  0.6             2.8098e-009     3.2671e-005     -2.5339e-006   
  0.65            2.3241e-009     3.8557e-005     -2.9353e-006   
  0.7             1.6455e-009     4.4732e-005     -3.3625e-006   
  0.75            1.3274e-009     5.1099e-005     -3.7477e-006   
  0.8             2.8602e-009     5.7637e-005     -4.1423e-006   
  0.85            2.4973e-009     6.4459e-005     -4.5198e-006   
  0.9             1.8064e-009     7.1317e-005     -4.8979e-006   
  0.95            1.3721e-009     7.8262e-005     -5.2681e-006   
  1               2.8712e-009     8.5311e-005     -5.6136e-006   
  1.05            2.6362e-009     9.2614e-005     -5.9444e-006   
  1.1             1.9873e-009     9.981e-005      -6.2629e-006   
  1.15            1.4378e-009     0.000107032     -6.5753e-006   
  1.2             -1.8275e-009    0.00011451      -6.8505e-006   
  1.25            -1.4463e-009    0.00012187      -7.1204e-006   
  1.3             -1.3378e-009    0.00012921      -7.3695e-006   
  1.35            -2.5609e-009    0.00013661      -7.6032e-006   
  1.4             -1.9906e-009    0.00014392      -7.8347e-006   
  1.45            -1.507e-009     0.00015132      -8.0361e-006   
  1.5             -1.3562e-009    0.00015874      -8.2189e-006   
  1.55            -2.6398e-009    0.00016616      -8.3875e-006   
  1.6             -2.1542e-009    0.00017349      -8.5577e-006   
  1.65            -1.5934e-009    0.00018091      -8.6986e-006   
  1.7             -1.3828e-009    0.00018835      -8.8179e-006   
  1.75            -2.6916e-009    0.00019572      -8.9335e-006   
  1.8             -2.311e-009     0.00020308      -9.0468e-006   
  1.85            -1.7143e-009    0.00021046      -9.134e-006    
  1.9             -1.4119e-009    0.00021787      -9.2087e-006   
  1.95            -1.3214e-009    0.00022533      -9.2696e-006   
  2               -2.4598e-009    0.00023262      -9.3615e-006   
  2.05            -1.8502e-009    0.0002399       -9.3772e-006   
  2.1             -1.4545e-009    0.00024726      -9.408e-006    
  2.15            -1.3408e-009    0.00025458      -9.425e-006    
  2.2             -2.5714e-009    0.0002619       -9.4372e-006   
  2.25            -2.0062e-009    0.00026915      -9.4553e-006   
  2.3             -1.5156e-009    0.00027646      -9.4456e-006   
  2.35            -1.3598e-009    0.00028372      -9.4442e-006   
  2.4             -2.6481e-009    0.00029102      -9.4031e-006   
  2.45            -2.1715e-009    0.00029817      -9.3881e-006   
  2.5             -1.6009e-009    0.00030542      -9.3506e-006   
  2.55            -1.3851e-009    0.00031264      -9.3037e-006   
  2.6             -2.6994e-009    0.00031983      -9.2496e-006   
  2.65            -2.3277e-009    0.00032696      -9.207e-006    
  2.7             -1.7183e-009    0.00033417      -9.1448e-006   
  2.75            -1.4179e-009    0.00034142      -9.0793e-006   
  2.8             -1.3242e-009    0.00034859      -9.0045e-006   
  2.85            -2.4672e-009    0.00035575      -8.9284e-006   
  2.9             -1.8645e-009    0.0003628       -8.8667e-006   
  2.95            -1.4595e-009    0.00036989      -8.7844e-006   
  3               -1.3431e-009    0.00037696      -8.6926e-006   
  3.05            -2.5827e-009    0.00038404      -8.6053e-006   
  3.1             -2.0324e-009    0.00039102      -8.5235e-006   
  3.15            -1.5242e-009    0.00039802      -8.4249e-006   
  3.2             -1.365e-009     0.00040508      -8.3249e-006   
  3.25            -2.6562e-009    0.0004121       -8.2223e-006   
  3.3             -2.1996e-009    0.000419        -8.139e-006    
  3.35            -1.6204e-009    0.00042598      -8.0333e-006   
  3.4             -1.3879e-009    0.00043297      -7.9279e-006   
  3.45            -2.6988e-009    0.0004399       -7.8199e-006   
  3.5             -2.3436e-009    0.00044677      -7.7213e-006   
  3.55            -1.7377e-009    0.00045368      -7.6106e-006   
  3.6             -1.4219e-009    0.00046056      -7.5034e-006   
  3.65            -1.3267e-009    0.00046742      -7.3892e-006   
  3.7             -2.4913e-009    0.00047427      -7.2852e-006   
  3.75            -1.8921e-009    0.00048106      -7.1756e-006   
  3.8             -1.4682e-009    0.00048791      -7.0625e-006   
  3.85            -1.343e-009     0.00049473      -6.9552e-006   
  3.9             -2.5977e-009    0.00050149      -6.8486e-006   
  3.95            -2.0611e-009    0.00050819      -6.7427e-006   
  4               -1.5315e-009    0.00051496      -6.6291e-006   
  4.05            -1.3648e-009    0.00052171      -6.5151e-006   
  4.1             -2.6654e-009    0.00052837      -6.3959e-006   
  4.15            -2.2296e-009    0.00053501      -6.3034e-006   
  4.2             -1.6372e-009    0.00054167      -6.1943e-006   
  4.25            -1.3865e-009    0.00054843      -6.0878e-006   
  4.3             -2.7041e-009    0.00055504      -5.9835e-006   
  4.35            -2.3847e-009    0.00056161      -5.8868e-006   
  4.4             -1.7677e-009    0.00056834      -5.7818e-006   
  4.45            -1.4226e-009    0.00057491      -5.6757e-006   
  4.5             -1.3253e-009    0.0005815       -5.5724e-006   
  4.55            -2.5173e-009    0.000588        -5.4744e-006   
  4.6             -1.9278e-009    0.00059452      -5.3804e-006   
  4.65            -1.4721e-009    0.00060101      -5.2832e-006   
  4.7             -1.338e-009     0.0006075       -5.1856e-006   
  4.75            -2.6109e-009    0.00061398      -5.0913e-006   
  4.8             -2.0956e-009    0.00062035      -5.0019e-006   
  4.85            -1.5476e-009    0.00062677      -4.8994e-006   
  4.9             -1.3558e-009    0.00063319      -4.8046e-006   
  4.95            -2.6719e-009    0.00063955      -4.7125e-006   
  5               -2.2515e-009    0.00064589      -4.6337e-006   
END_DB

BEGIN_DB
 ICCAP_VAR VS         0              
 ICCAP_VAR VB         -2.5           
 ICCAP_VAR VD         0.1            

 #VG              IG              ID              IB             
  0               8.369e-010      8.456e-010      2.6266e-008    
  0.05            1.2746e-009     -1.4952e-009    -2.0037e-008   
  0.1             2.8582e-009     -9.68e-011      -1.3267e-008   
  0.15            9.32e-011       2.1034e-009     1.0852e-008    
  0.2             2.838e-010      2.2013e-009     1.1187e-008    
  0.25            4.884e-010      2.2879e-009     1.1207e-008    
  0.3             -1.3416e-009    1.4586e-009     2.4493e-008    
  0.35            -2.7063e-009    1.201e-010      1.1775e-008    
  0.4             -3.56e-011      -1.9792e-009    -1.1242e-008   
  0.45            -2.654e-010     -1.9176e-009    -1.1861e-008   
  0.5             1.4685e-009     -2.746e-010     -1.1779e-008   
  0.55            1.3525e-009     3.1982e-009     -8.757e-009    
  0.6             2.8411e-009     1.1403e-008     2.6149e-008    
  0.65            4.023e-010      3.5541e-008     1.0929e-008    
  0.7             -1.3181e-009    1.00327e-007    2.6165e-008    
  0.75            2.0907e-009     2.4601e-007     -2.3185e-008   
  0.8             -1.3794e-009    5.4009e-007     2.7082e-008    
  0.85            -2.6881e-009    1.0164e-006     1.1455e-008    
  0.9             -1.9479e-009    1.7058e-006     -1.0582e-008   
  0.95            2.238e-010      2.6067e-006     -1.2927e-008   
  1               -1.972e-010     3.725e-006      -1.1166e-008   
  1.05            -7.223e-010     4.9979e-006     -1.1744e-008   
  1.1             1.7334e-009     6.2912e-006     -1.7798e-008   
  1.15            1.3407e-009     7.6128e-006     -9.065e-009    
  1.2             2.8675e-009     8.9064e-006     -8.715e-009    
  1.25            2.841e-010      1.02024e-005    1.0531e-008    
  1.3             7.475e-010      1.14e-005       1.11e-008      
  1.35            -1.9716e-009    1.2564e-005     1.7228e-008    
  1.4             -9.911e-010     1.3666e-005     -1.1317e-008   
  1.45            2.391e-010      1.4693e-005     -1.3075e-008   
  1.5             -1.807e-010     1.5713e-005     -1.1175e-008   
  1.55            -7.039e-010     1.6689e-005     -1.1666e-008   
  1.6             -1.1037e-009    1.7617e-005     -1.0963e-008   
  1.65            1.3541e-009     1.8485e-005     -2.5026e-008   
  1.7             2.873e-009      1.9336e-005     -8.549e-009    
  1.75            2.6e-009        2.0172e-005     -3.58e-010     
  1.8             1.9266e-009     2.0966e-005     -3.394e-009    
  1.85            1.4106e-009     2.1739e-005     -9.154e-009    
  1.9             1.2736e-009     2.2488e-005     -8.611e-009    
  1.95            2.7338e-009     2.3209e-005     -1.2902e-008   
  2               6.053e-010      2.3928e-005     1.1092e-008    
  2.05            1.0057e-009     2.4608e-005     1.0468e-008    
  2.1             -1.409e-009     2.5287e-005     2.5666e-008    
  2.15            -1.3213e-009    2.594e-005      1.1109e-008    
  2.2             -2.4704e-009    2.6584e-005     1.2839e-008    
  2.25            -7.529e-010     2.7195e-005     -1.1669e-008   
  2.3             -1.1392e-009    2.7811e-005     -1.0697e-008   
  2.35            9.18e-011       2.8381e-005     -1.2075e-008   
  2.4             -3.861e-010     2.8978e-005     -1.1244e-008   
  2.45            2.194e-009      2.9554e-005     -2.3934e-008   
  2.5             1.5306e-009     3.0114e-005     -7.604e-009    
  2.55            1.3015e-009     3.0661e-005     -8.88e-009     
  2.6             2.8321e-009     3.1205e-005     -1.0193e-008   
  2.65            4.527e-010      3.1746e-005     1.0902e-008    
  2.7             -1.9097e-009    3.2274e-005     2.5483e-008    
  2.75            -1.4614e-009    3.2794e-005     5.384e-009     
  2.8             -1.3385e-009    3.3301e-005     1.0074e-008    
  2.85            -2.5962e-009    3.3803e-005     1.149e-008     
  2.9             -2.0668e-009    3.4288e-005     8.04e-010      
  2.95            -1.5403e-009    3.4766e-005     4.067e-009     
  3               -1.3633e-009    3.5246e-005     8.877e-009     
  3.05            -2.6643e-009    3.5715e-005     1.1333e-008    
  3.1             -2.2441e-009    3.6173e-005     3.58e-010      
  3.15            -1.6517e-009    3.6629e-005     3.013e-009     
  3.2             -1.3889e-009    3.7074e-005     7.462e-009     
  3.25            -2.7072e-009    3.7518e-005     1.1126e-008    
  3.3             -2.839e-010     3.7939e-005     -1.108e-008    
  3.35            -8.02e-010      3.8376e-005     -1.1731e-008   
  3.4             -1.1881e-009    3.8805e-005     -1.0796e-008   
  3.45            5.6e-011        3.9205e-005     -1.1981e-008   
  3.5             -4.386e-010     3.9625e-005     -1.1425e-008   
  3.55            2.1155e-009     4.0034e-005     -2.3055e-008   
  3.6             1.4874e-009     4.0431e-005     -8.206e-009    
  3.65            1.2929e-009     4.0826e-005     -8.85e-009     
  3.7             2.8018e-009     4.1216e-005     -1.0876e-008   
  3.75            5.094e-010      4.161e-005      1.1112e-008    
  3.8             -1.8394e-009    4.1988e-005     2.4293e-008    
  3.85            -1.4332e-009    4.2365e-005     5.924e-009     
  3.9             -1.3315e-009    4.2738e-005     1.0388e-008    
  3.95            -2.5569e-009    4.3105e-005     1.1818e-008    
  4               -1.9915e-009    4.3462e-005     1.226e-009     
  4.05            -1.5031e-009    4.382e-005      4.681e-009     
  4.1             -1.3508e-009    4.4173e-005     9.556e-009     
  4.15            -2.6414e-009    4.4522e-005     1.1249e-008    
