! VERSION = 6.00
BEGIN_HEADER
 ICCAP_INPUTS
  VG         V  B GROUND SMU4 0.001 LIN        2    0          5          6    1         
  VS         V  E GROUND SMU3 0.1 CON        0
  VD         V  S GROUND SMU2 0.1 LIN        1    0          5          101  0.05      
  VB         V  C GROUND SMU1 0.1 LIN        3    0          -2.5       2    -2.5      
 ICCAP_OUTPUTS
  ID         I  S GROUND SMU2 B
  IB         I  C GROUND SMU1 B
  IG         I  B GROUND SMU4 B
END_HEADER

BEGIN_DB
 ICCAP_VAR VG         0              
 ICCAP_VAR VS         0              
 ICCAP_VAR VB         0              

 #VD              ID              IB              IG             
  0               2.3886e-009     -1.3311e-008    4.196e-010     
  0.05            1.5846e-009     1.2492e-008     -1.4099e-009   
  0.1             -1.5284e-009    -1.2722e-008    1.4098e-009    
  0.15            1.4623e-009     1.2748e-008     -1.4186e-009   
  0.2             -1.4235e-009    -1.3138e-008    1.4112e-009    
  0.25            1.3715e-009     1.3122e-008     -1.407e-009    
  0.3             -1.3366e-009    -1.3296e-008    1.3221e-009    
  0.35            1.2246e-009     1.2787e-008     -1.3496e-009   
  0.4             -1.9124e-009    -1.2714e-008    1.3543e-009    
  0.45            1.8351e-009     1.2581e-008     -1.3706e-009   
  0.5             -1.7747e-009    -1.2399e-008    1.3749e-009    
  0.55            1.7001e-009     1.2373e-008     -1.3919e-009   
  0.6             -1.6453e-009    -1.2473e-008    1.3976e-009    
  0.65            1.5783e-009     1.2521e-008     -1.412e-009    
  0.7             -1.5193e-009    -1.271e-008     1.4119e-009    
  0.75            1.4598e-009     1.2814e-008     -1.4174e-009   
  0.8             -1.4205e-009    -1.3175e-008    1.4101e-009    
  0.85            1.3663e-009     1.3165e-008     -1.4075e-009   
  0.9             -1.3338e-009    -1.3249e-008    1.3229e-009    
  0.95            1.2206e-009     1.2783e-008     -1.3497e-009   
  1               -1.9095e-009    -1.2691e-008    1.355e-009     
  1.05            1.8272e-009     1.2511e-008     -1.3706e-009   
  1.1             -1.7639e-009    -1.2471e-008    1.377e-009     
  1.15            1.6941e-009     1.2346e-008     -1.393e-009    
  1.2             -1.6341e-009    -1.2492e-008    1.3985e-009    
  1.25            1.5692e-009     1.2522e-008     -1.4126e-009   
  1.3             -1.522e-009     -1.2777e-008    1.4105e-009    
  1.35            1.4626e-009     1.2801e-008     -1.4158e-009   
  1.4             -1.4142e-009    -1.3161e-008    1.4113e-009    
  1.45            1.3698e-009     1.321e-008      -1.4064e-009   
  1.5             -7.474e-010     -1.2442e-008    1.3248e-009    
  1.55            1.2215e-009     1.2815e-008     -1.3513e-009   
  1.6             -1.904e-009     -1.266e-008     1.3582e-009    
  1.65            1.8277e-009     1.2477e-008     -1.3738e-009   
  1.7             -1.7626e-009    -1.2408e-008    1.3763e-009    
  1.75            1.6877e-009     1.2389e-008     -1.3925e-009   
  1.8             -1.6348e-009    -1.2491e-008    1.3985e-009    
  1.85            1.5686e-009     1.254e-008      -1.4118e-009   
  1.9             -1.518e-009     -1.2734e-008    1.4117e-009    
  1.95            1.4591e-009     1.2852e-008     -1.4174e-009   
  2               -1.4151e-009    -1.3175e-008    1.4091e-009    
  2.05            1.3636e-009     1.3179e-008     -1.4062e-009   
  2.1             -1.3275e-009    -1.3227e-008    1.3253e-009    
  2.15            1.2184e-009     1.277e-008      -1.354e-009    
  2.2             -1.8932e-009    -1.2658e-008    1.3582e-009    
  2.25            1.8181e-009     1.2469e-008     -1.3727e-009   
  2.3             -1.7579e-009    -1.2487e-008    1.3768e-009    
  2.35            1.6883e-009     1.2417e-008     -1.3952e-009   
  2.4             -1.6254e-009    -1.2511e-008    1.4015e-009    
  2.45            1.557e-009      1.2545e-008     -1.416e-009    
  2.5             -1.5061e-009    -1.2851e-008    1.4118e-009    
  2.55            1.4493e-009     1.286e-008      -1.4169e-009   
  2.6             -1.4052e-009    -1.3252e-008    1.4101e-009    
  2.65            1.361e-009      1.3156e-008     -1.4052e-009   
  2.7             -1.323e-009     -1.3239e-008    1.3251e-009    
  2.75            1.2127e-009     1.2701e-008     -1.3538e-009   
  2.8             -1.8888e-009    -1.2597e-008    1.36e-009      
  2.85            1.8126e-009     1.2416e-008     -1.3749e-009   
  2.9             -1.7473e-009    -1.2523e-008    1.3797e-009    
  2.95            1.6743e-009     1.2399e-008     -1.3938e-009   
  3               -1.6223e-009    -1.245e-008     1.4011e-009    
  3.05            1.5495e-009     1.2514e-008     -1.4136e-009   
  3.1             -1.4994e-009    -1.2794e-008    1.4144e-009    
  3.15            1.4446e-009     1.2831e-008     -1.4164e-009   
  3.2             -1.4025e-009    -1.3191e-008    1.4079e-009    
  3.25            1.3547e-009     1.3132e-008     -1.404e-009    
  3.3             -1.3131e-009    -1.3199e-008    1.3267e-009    
  3.35            1.2059e-009     1.263e-008      -1.3557e-009   
  3.4             -1.8866e-009    -1.2615e-008    1.3578e-009    
  3.45            1.8006e-009     1.2387e-008     -1.3746e-009   
  3.5             -1.7423e-009    -1.2584e-008    1.3793e-009    
  3.55            1.6769e-009     1.2406e-008     -1.3953e-009   
  3.6             -1.6111e-009    -1.2483e-008    1.3995e-009    
  3.65            1.5449e-009     1.2587e-008     -1.4154e-009   
  3.7             -1.4976e-009    -1.2799e-008    1.4125e-009    
  3.75            1.4382e-009     1.2906e-008     -1.4169e-009   
  3.8             -1.3983e-009    -1.3165e-008    1.4064e-009    
  3.85            1.3442e-009     1.3171e-008     -1.4009e-009   
  3.9             -1.3109e-009    -1.3245e-008    1.3266e-009    
  3.95            1.2008e-009     1.265e-008      -1.3542e-009   
  4               -1.8778e-009    -1.2573e-008    1.3596e-009    
  4.05            1.7953e-009     1.2376e-008     -1.3746e-009   
  4.1             -1.7317e-009    -1.2503e-008    1.3815e-009    
  4.15            1.6616e-009     1.2348e-008     -1.3967e-009   
  4.2             -1.6031e-009    -1.2508e-008    1.4006e-009    
  4.25            1.541e-009      1.2525e-008     -1.4146e-009   
  4.3             -1.4947e-009    -1.2899e-008    1.4134e-009    
  4.35            1.4355e-009     1.2962e-008     -1.4169e-009   
  4.4             -1.3929e-009    -1.3292e-008    1.4064e-009    
  4.45            1.3447e-009     1.3153e-008     -1.3239e-009   
  4.5             -1.2401e-009    -1.2907e-008    1.3418e-009    
  4.55            1.9273e-009     1.2769e-008     -1.3565e-009   
  4.6             -1.8657e-009    -1.2568e-008    1.3616e-009    
  4.65            1.7873e-009     1.2445e-008     -1.3782e-009   
  4.7             -1.7237e-009    -1.249e-008     1.3837e-009    
  4.75            1.6604e-009     1.2424e-008     -1.4001e-009   
  4.8             -1.5955e-009    -1.2532e-008    1.4046e-009    
  4.85            1.5351e-009     1.2615e-008     -1.4174e-009   
  4.9             -1.4853e-009    -1.277e-008     1.4138e-009    
  4.95            1.4263e-009     1.2966e-008     -1.4166e-009   
  5               -1.3904e-009    -1.3151e-008    1.4074e-009    
END_DB

BEGIN_DB
 ICCAP_VAR VG         1              
 ICCAP_VAR VS         0              
 ICCAP_VAR VB         0              

 #VD              ID              IB              IG             
  0               7.1082e-008     1.3716e-008     -1.477e-010    
  0.05            5.0304e-006     1.2834e-008     1.3861e-009    
  0.1             8.8333e-006     -1.3212e-008    1.3648e-009    
  0.15            1.158e-005      1.277e-008      -8.782e-010    
  0.2             1.3519e-005     6.416e-009      -1.3755e-009   
  0.25            1.4832e-005     1.318e-008      -1.4177e-009   
  0.3             1.58e-005       1.2719e-008     -1.3336e-009   
  0.35            1.6575e-005     1.2565e-008     -1.3815e-009   
  0.4             1.7156e-005     1.3179e-008     -1.416e-009    
  0.45            1.7626e-005     1.2802e-008     -1.3433e-009   
  0.5             1.8109e-005     1.2653e-008     -1.3916e-009   
  0.55            1.8502e-005     1.3018e-008     -1.4149e-009   
  0.6             1.8863e-005     1.2863e-008     -1.3498e-009   
  0.65            1.9186e-005     1.2827e-008     -1.4e-009      
  0.7             1.9543e-005     1.2917e-008     -1.4106e-009   
  0.75            1.9814e-005     1.2955e-008     -1.3575e-009   
  0.8             2.0125e-005     1.3075e-008     -1.4085e-009   
  0.85            2.0384e-005     1.2726e-008     -1.4031e-009   
  0.9             2.0703e-005     1.3104e-008     -1.3648e-009   
  0.95            2.0948e-005     1.313e-008      -1.4125e-009   
  1               2.1197e-005     1.2678e-008     -1.3287e-009   
  1.05            2.1434e-005     1.2449e-008     -1.3731e-009   
  1.1             2.1686e-005     1.3174e-008     -1.4173e-009   
  1.15            2.1894e-005     1.2708e-008     -1.3357e-009   
  1.2             2.2153e-005     1.2554e-008     -1.3799e-009   
  1.25            2.235e-005      1.3146e-008     -1.4172e-009   
  1.3             2.2525e-005     1.2747e-008     -1.3428e-009   
  1.35            2.2805e-005     1.27e-008       -1.3911e-009   
  1.4             2.2996e-005     1.3014e-008     -1.4143e-009   
  1.45            2.3179e-005     1.2933e-008     -1.3503e-009   
  1.5             2.3409e-005     1.2906e-008     -1.4022e-009   
  1.55            2.3564e-005     1.2863e-008     -1.4094e-009   
  1.6             2.375e-005      1.3033e-008     -1.3573e-009   
  1.65            2.4005e-005     1.2979e-008     -1.408e-009    
  1.7             2.4119e-005     1.2741e-008     -1.3227e-009   
  1.75            2.4318e-005     1.2284e-008     -1.365e-009    
  1.8             2.4486e-005     1.3103e-008     -1.4149e-009   
  1.85            2.4711e-005     1.2609e-008     -1.327e-009    
  1.9             2.4841e-005     1.2239e-008     -1.374e-009    
  1.95            2.501e-005      1.2973e-008     -1.4164e-009   
  2               2.5214e-005     1.2433e-008     -1.3341e-009   
  2.05            2.5375e-005     1.2255e-008     -1.3816e-009   
  2.1             2.5544e-005     1.2674e-008     -1.416e-009    
  2.15            2.5683e-005     1.2153e-008     -1.3434e-009   
  2.2             2.5836e-005     9.518e-009      -1.3234e-009   
  2.25            2.6037e-005     1.1281e-008     -1.3692e-009   
  2.3             2.6154e-005     1.1784e-008     -1.4148e-009   
  2.35            2.6372e-005     1.0877e-008     -1.3323e-009   
  2.4             2.6486e-005     8.741e-009      -1.3129e-009   
  2.45            2.6591e-005     9.639e-009      -1.4125e-009   
  2.5             2.6744e-005     1.79e-010       -1.4174e-009   
  2.55            2.6989e-005     8.256e-009      -1.3348e-009   
  2.6             2.7067e-005     -1.7651e-008    1.3447e-009    
  2.65            2.7125e-005     -1.947e-008     1.3933e-009    
  2.7             2.7323e-005     -2.0891e-008    1.4064e-009    
  2.75            2.7464e-005     -2.256e-008     1.3522e-009    
  2.8             2.7604e-005     -2.4556e-008    1.401e-009     
  2.85            2.7791e-005     -2.6409e-008    1.3169e-009    
  2.9             2.7856e-005     -2.8554e-008    1.3619e-009    
  2.95            2.8095e-005     -3.2215e-008    1.4072e-009    
  3               2.8271e-005     -3.4994e-008    1.3238e-009    
  3.05            2.8378e-005     -3.855e-008     1.3683e-009    
  3.1             2.8474e-005     -4.3492e-008    1.4105e-009    
  3.15            2.8677e-005     -4.7832e-008    1.3325e-009    
  3.2             2.8802e-005     -5.3154e-008    1.3765e-009    
  3.25            2.8972e-005     -6.0152e-008    1.4138e-009    
  3.3             2.9099e-005     -6.6773e-008    1.3392e-009    
  3.35            2.9296e-005     -7.475e-008     1.3855e-009    
  3.4             2.9424e-005     -8.4043e-008    1.4112e-009    
  3.45            2.9588e-005     -9.3978e-008    1.3458e-009    
  3.5             2.9691e-005     -1.05214e-007   1.393e-009     
  3.55            2.9846e-005     -1.0821e-007    1.1749e-009    
  3.6             3.0047e-005     -1.3171e-007    1.405e-009     
  3.65            3.0209e-005     -1.4825e-007    1.3534e-009    
  3.7             3.0321e-005     -1.6574e-007    1.4035e-009    
  3.75            3.0537e-005     -1.8505e-007    1.3194e-009    
  3.8             3.0693e-005     -2.0702e-007    1.3619e-009    
  3.85            3.0807e-005     -2.3201e-007    1.4087e-009    
  3.9             3.1034e-005     -2.5782e-007    1.3261e-009    
  3.95            3.115e-005      -2.8751e-007    1.37e-009      
  4               3.1358e-005     -3.2045e-007    1.4116e-009    
  4.05            3.1607e-005     -3.5509e-007    1.3337e-009    
  4.1             3.1719e-005     -3.9415e-007    1.377e-009     
  4.15            3.1956e-005     -4.3761e-007    1.4117e-009    
  4.2             3.2141e-005     -4.8353e-007    1.3396e-009    
  4.25            3.2278e-005     -5.3425e-007    1.387e-009     
  4.3             3.2569e-005     -5.8973e-007    1.4091e-009    
  4.35            3.2811e-005     -6.4948e-007    1.3452e-009    
  4.4             3.2971e-005     -7.1578e-007    1.3948e-009    
  4.45            3.3156e-005     -7.8474e-007    1.4054e-009    
  4.5             3.3414e-005     -8.6118e-007    1.3564e-009    
  4.55            3.362e-005      -9.4192e-007    1.4009e-009    
  4.6             3.3886e-005     -1.02986e-006   1.3193e-009    
  4.65            3.4126e-005     -1.1238e-006    1.3617e-009    
  4.7             3.4376e-005     -1.2121e-006    1.3962e-009    
  4.75            3.4655e-005     -1.3312e-006    1.3627e-009    
  4.8             3.4995e-005     -1.4466e-006    1.4092e-009    
  4.85            3.5275e-005     -1.5715e-006    1.3264e-009    
  4.9             3.5477e-005     -1.7001e-006    1.3713e-009    
  4.95            3.5801e-005     -1.8387e-006    1.4124e-009    
  5               3.6138e-005     -1.9877e-006    1.3341e-009    
END_DB

BEGIN_DB
 ICCAP_VAR VG         2              
 ICCAP_VAR VS         0              
 ICCAP_VAR VB         0              

 #VD              ID              IB              IG             
  0               3.2654e-007     -1.2447e-008    -6.255e-010    
  0.05            2.1418e-005     1.0711e-008     1.4012e-009    
  0.1             4.2044e-005     -1.3003e-008    1.4028e-009    
  0.15            6.1764e-005     -1.3122e-008    1.361e-009     
  0.2             8.0598e-005     -1.3044e-008    1.4084e-009    
  0.25            9.8361e-005     -1.2851e-008    1.3203e-009    
  0.3             0.00011511      1.3178e-008     5.509e-010     
  0.35            0.00013063      1.2617e-008     -1.3199e-009   
  0.4             0.00014495      1.2284e-008     -1.3554e-009   
  0.45            0.00015796      1.2536e-008     -1.3877e-009   
  0.5             0.0001697       1.3089e-008     -1.4133e-009   
  0.55            0.00018016      1.3036e-008     -1.4098e-009   
  0.6             0.00018939      1.2797e-008     -1.3448e-009   
  0.65            0.00019755      1.2383e-008     -1.3719e-009   
  0.7             0.00020453      1.3e-008        -1.4085e-009   
  0.75            0.00021054      1.3051e-008     -1.4166e-009   
  0.8             0.00021566      1.2763e-008     -1.3288e-009   
  0.85            0.00022007      1.2301e-008     -1.3619e-009   
  0.9             0.00022381      1.2582e-008     -1.3954e-009   
  0.95            0.00022698      1.3288e-008     -1.417e-009    
  1               0.00022972      1.2922e-008     -1.3202e-009   
  1.05            0.00023215      1.2316e-008     -1.3536e-009   
  1.1             0.00023428      1.244e-008      -1.3793e-009   
  1.15            0.00023612      1.3058e-008     -1.4134e-009   
  1.2             0.00023775      1.3069e-008     -1.4135e-009   
  1.25            0.00023925      1.2955e-008     -1.3364e-009   
  1.3             0.0002407       1.2248e-008     -1.3701e-009   
  1.35            0.00024197      1.2831e-008     -1.4053e-009   
  1.4             0.00024315      1.3164e-008     -1.4152e-009   
  1.45            0.00024426      1.2827e-008     -1.327e-009    
  1.5             0.0002453       1.2245e-008     -1.3603e-009   
  1.55            0.00024639      1.2587e-008     -1.3896e-009   
  1.6             0.0002473       1.325e-008      -1.4185e-009   
  1.65            0.00024817      1.2947e-008     -1.4082e-009   
  1.7             0.00024899      1.2954e-008     -1.3447e-009   
  1.75            0.00024993      1.2375e-008     -1.3797e-009   
  1.8             0.00025064      1.3011e-008     -1.4126e-009   
  1.85            0.00025138      1.3133e-008     -1.4156e-009   
  1.9             0.00025208      1.2863e-008     -1.3342e-009   
  1.95            0.00025284      1.2214e-008     -1.3675e-009   
  2               0.0002535       1.2706e-008     -1.3943e-009   
  2.05            0.00025411      1.3158e-008     -1.4187e-009   
  2.1             0.00025476      1.271e-008      -1.3241e-009   
  2.15            0.0002554       1.2048e-008     -1.3529e-009   
  2.2             0.00025595      1.2273e-008     -1.3864e-009   
  2.25            0.00025653      1.2629e-008     -1.416e-009    
  2.3             0.00025705      1.2449e-008     -1.4089e-009   
  2.35            0.00025758      1.1966e-008     -1.3411e-009   
  2.4             0.00025821      1.0957e-008     -1.375e-009    
  2.45            0.00025864      7.53e-009       -1.3341e-009   
  2.5             0.00025916      9.341e-009      -1.4044e-009   
  2.55            0.00025965      7.55e-010       -1.4152e-009   
  2.6             0.00026002      -1.6931e-008    1.41e-009      
  2.65            0.00026047      -1.918e-008     1.4084e-009    
  2.7             0.00026095      -2.0838e-008    1.3386e-009    
  2.75            0.00026131      -2.2419e-008    1.3685e-009    
  2.8             0.00026172      -2.5632e-008    1.3972e-009    
  2.85            0.00026229      -2.9382e-008    1.413e-009     
  2.9             0.00026272      -3.2994e-008    1.3277e-009    
  2.95            0.00026302      -3.7318e-008    1.3555e-009    
  3               0.00026349      -4.3349e-008    1.3858e-009    
  3.05            0.00026388      -5.0802e-008    1.4139e-009    
  3.1             0.00026436      -5.8732e-008    1.4028e-009    
  3.15            0.00026478      -6.8246e-008    1.3476e-009    
  3.2             0.0002652       -7.8834e-008    1.3769e-009    
  3.25            0.00026562      -9.2531e-008    1.406e-009     
  3.3             0.00026601      -1.07801e-007   1.4125e-009    
  3.35            0.0002666       -1.2542e-007    7.22e-010      
  3.4             0.00026698      -1.3907e-007    -8.067e-010    
  3.45            0.00026746      -1.4987e-007    -1.3841e-009   
  3.5             0.00026789      -1.6972e-007    -1.4144e-009   
  3.55            0.00026828      -2.0045e-007    -1.4129e-009   
  3.6             0.00026869      -2.3568e-007    -1.3407e-009   
  3.65            0.00026919      -2.7635e-007    -1.374e-009    
  3.7             0.0002696       -3.213e-007     -1.4077e-009   
  3.75            0.00027005      -3.727e-007     -1.4156e-009   
  3.8             0.00027045      -4.313e-007     -1.3321e-009   
  3.85            0.00027092      -4.9798e-007    -1.3627e-009   
  3.9             0.0002714       -5.7186e-007    -1.3924e-009   
  3.95            0.00027185      -6.5505e-007    -1.4188e-009   
  4               0.00027231      -7.4938e-007    -1.3216e-009   
  4.05            0.00027288      -8.5552e-007    -1.348e-009    
  4.1             0.00027335      -9.7304e-007    -1.3845e-009   
  4.15            0.00027389      -1.10393e-006   -1.4141e-009   
