! VERSION = 6.00
BEGIN_HEADER
 ICCAP_INPUTS
  VG         V  B GROUND SMU4 0.001 LIN        2    0          5          6    1         
  VS         V  E GROUND SMU2 0.1 CON        0
  VD         V  S GROUND SMU1 0.1 LIN        1    0          5          101  0.05      
  VB         V  C GROUND SMU3 0.1 LIN        3    0          -2.5       2    -2.5      
 ICCAP_OUTPUTS
  ID         I  S GROUND SMU1 B
  IB         I  C GROUND SMU3 B
  IG         I  B GROUND SMU4 B
END_HEADER

BEGIN_DB
 ICCAP_VAR VG         0              
 ICCAP_VAR VS         0              
 ICCAP_VAR VB         0              

 #VD              ID              IB              IG             
  0               5.319e-010      1.939e-008      4.365e-010     
  0.05            -7.77e-010      -1.8888e-008    2.2264e-009    
  0.1             2.0719e-009     -7.181e-009     1.4688e-009    
  0.15            1.3652e-009     2.922e-008      -1.3804e-009   
  0.2             -4.78e-011      1.1918e-008     -1.3841e-009   
  0.25            9.5e-011        1.3227e-008     -2.6993e-009   
  0.3             -1.5204e-009    -2.3631e-008    2.4924e-009    
  0.35            2.219e-009      -5.024e-009     1.316e-009     
  0.4             1.2299e-009     2.9041e-008     -1.3809e-009   
  0.45            -2.1719e-009    1.0273e-008     -1.2322e-009   
  0.5             -1.8741e-009    -1.0015e-008    2.862e-010     
  0.55            -9.099e-010     -2.0007e-008    1.8631e-009    
  0.6             1.8065e-009     -9.184e-009     1.6679e-009    
  0.65            1.5213e-009     1.0436e-008     1.8301e-009    
  0.7             2.3e-009        1.2678e-008     4.192e-010     
  0.75            2.3339e-009     1.1989e-008     5.983e-010     
  0.8             1.5089e-009     2.4674e-008     -1.3831e-009   
  0.85            1.141e-010      1.3687e-008     -2.696e-009    
  0.9             -1.5331e-009    -2.3001e-008    2.4585e-009    
  0.95            2.2049e-009     -5.52e-009      1.3397e-009    
  1               1.2525e-009     2.9517e-008     -1.3799e-009   
  1.05            -2.1678e-009    1.0711e-008     -1.2596e-009   
  1.1             -1.8967e-009    -1.0166e-008    2.696e-010     
  1.15            -9.277e-010     -2.036e-008     1.8007e-009    
  1.2             1.7534e-009     -9.204e-009     1.6894e-009    
  1.25            1.4766e-009     1.0066e-008     1.8543e-009    
  1.3             2.3041e-009     1.2553e-008     4.501e-010     
  1.35            2.3313e-009     1.178e-008      6.253e-010     
  1.4             1.5287e-009     2.3522e-008     -1.3814e-009   
  1.45            1.392e-010      1.4029e-008     -2.6974e-009   
  1.5             -2.1581e-009    -1.2419e-008    -7.02e-011     
  1.55            -2.2355e-009    -1.3231e-008    -2.803e-010    
  1.6             -2.2587e-009    -1.3089e-008    -4.861e-010    
  1.65            -2.2508e-009    -1.2731e-008    -6.774e-010    
  1.7             -2.2374e-009    -1.1176e-008    -8.501e-010    
  1.75            -1.6532e-009    -1.5482e-008    2.0328e-009    
  1.8             1.9409e-009     -8.21e-009      1.5648e-009    
  1.85            1.4357e-009     2.7486e-008     -1.3866e-009   
  1.9             3.64e-011       1.2753e-008     -1.3775e-009   
  1.95            1.791e-010      1.4648e-008     -2.6898e-009   
  2               -2.1874e-009    -1.2696e-008    -1.214e-010    
  2.05            -2.2445e-009    -1.3231e-008    -3.287e-010    
  2.1             -2.2601e-009    -1.3034e-008    -5.338e-010    
  2.15            -2.2509e-009    -1.21e-008      -7.24e-010     
  2.2             -1.5913e-009    -1.9382e-008    1.327e-009     
  2.25            -1.777e-010     -1.5673e-008    2.8701e-009    
  2.3             1.5329e-009     2.3628e-008     -1.3846e-009   
  2.35            1.411e-010      1.4013e-008     -2.6988e-009   
  2.4             -1.5461e-009    -2.1852e-008    2.406e-009     
  2.45            2.1816e-009     -5.811e-009     1.3623e-009    
  2.5             1.2725e-009     2.9524e-008     -1.3794e-009   
  2.55            -2.1554e-009    1.076e-008      -1.2774e-009   
  2.6             -1.9141e-009    -1.0292e-008    2.441e-010     
  2.65            -9.452e-010     -2.087e-008     1.7665e-009    
  2.7             1.7227e-009     -9.146e-009     1.7119e-009    
  2.75            1.4455e-009     1.0145e-008     1.8695e-009    
  2.8             2.3045e-009     1.2647e-008     4.67e-010      
  2.85            2.3293e-009     1.1665e-008     6.399e-010     
  2.9             1.5398e-009     2.2997e-008     -1.382e-009    
  2.95            1.521e-010      1.4157e-008     -2.6979e-009   
  3               -1.5544e-009    -2.1357e-008    1.3296e-009    
  3.05            -1.189e-010     -1.4475e-008    2.877e-009     
  3.1             1.4891e-009     2.577e-008      -1.3862e-009   
  3.15            8.68e-011       1.3333e-008     -2.7039e-009   
  3.2             -1.508e-009     -2.3554e-008    1.3325e-009    
  3.25            -4.48e-011      -1.2715e-008    2.879e-009     
  3.3             1.4292e-009     2.7649e-008     -1.3877e-009   
  3.35            3.05e-011       1.2795e-008     -1.3784e-009   
  3.4             1.788e-010      1.4538e-008     -2.6898e-009   
  3.45            -2.1803e-009    -1.269e-008     -1.167e-010    
  3.5             -2.2432e-009    -1.3227e-008    -3.318e-010    
  3.55            -2.2568e-009    -1.2946e-008    -5.311e-010    
  3.6             -2.2465e-009    -1.2057e-008    -7.202e-010    
  3.65            -1.5871e-009    -1.9727e-008    1.3264e-009    
  3.7             -1.737e-010     -1.5546e-008    2.8701e-009    
  3.75            1.5279e-009     2.3613e-008     -1.3852e-009   
  3.8             1.422e-010      1.3919e-008     -2.7001e-009   
  3.85            -1.5466e-009    -2.1804e-008    2.4087e-009    
  3.9             2.1795e-009     -5.725e-009     1.3621e-009    
  3.95            1.2712e-009     2.953e-008      -1.379e-009    
  4               -2.1555e-009    1.0954e-008     -1.2782e-009   
  4.05            -2.0217e-009    -1.1505e-008    -1.4408e-009   
  4.1             -1.3393e-009    -2.7001e-008    1.33e-009      
  4.15            2.2907e-009     -8.648e-009     1.2115e-009    
  4.2             2.1573e-009     1.1168e-008     1.3732e-009    
  4.25            1.2783e-009     2.9631e-008     -1.3783e-009   
  4.3             -2.15e-009      1.1062e-008     -1.2865e-009   
  4.35            -1.2094e-009    -2.6571e-008    1.3717e-009    
  4.4             2.3446e-009     -7.843e-009     1.0806e-009    
  4.45            1.8912e-009     9.735e-009      -1.4787e-009   
  4.5             -1.3842e-009    8.269e-009      -1.892e-009    
  4.55            -2.253e-009     -1.3072e-008    -5.329e-010    
  4.6             -2.2463e-009    -1.204e-008     -7.254e-010    
  4.65            -2.2344e-009    -1.0429e-008    -8.818e-010    
  4.7             -1.6644e-009    -1.4316e-008    1.9573e-009    
  4.75            1.8842e-009     -8.684e-009     1.6014e-009    
  4.8             1.4671e-009     2.6579e-008     -1.3876e-009   
  4.85            7.31e-011       1.3325e-008     -1.3732e-009   
  4.9             2.199e-010      1.4845e-008     -2.6774e-009   
  4.95            -2.2036e-009    -1.304e-008     -1.841e-010    
  5               -2.2493e-009    -1.3167e-008    -3.836e-010    
END_DB

BEGIN_DB
 ICCAP_VAR VG         1              
 ICCAP_VAR VS         0              
 ICCAP_VAR VB         0              

 #VD              ID              IB              IG             
  0               -1.0326e-007    1.2605e-008     -2.7139e-009   
  0.05            6.8778e-006     -2.7033e-008    -2.7009e-009   
  0.1             1.10073e-005    1.9679e-008     -1.6173e-009   
  0.15            1.3305e-005     1.8083e-008     -1.9777e-009   
  0.2             1.4854e-005     1.9713e-008     -1.5308e-009   
  0.25            1.5658e-005     9.65e-009       1.0861e-009    
  0.3             1.6502e-005     -2.6664e-008    1.3273e-009    
  0.35            1.7236e-005     -1.3162e-008    -7.241e-010    
  0.4             1.7955e-005     8.127e-009      -1.3776e-009   
  0.45            1.8577e-005     2.2876e-008     -1.7366e-009   
  0.5             1.8881e-005     1.124e-008      9.459e-010     
  0.55            1.9353e-005     -2.6325e-008    1.3253e-009    
  0.6             1.9908e-005     -1.2803e-008    -5.27e-010     
  0.65            2.054e-005      2.0328e-008     -1.5193e-009   
  0.7             2.07e-005       9.736e-009      1.1075e-009    
  0.75            2.1179e-005     -2.609e-008     1.323e-009     
  0.8             2.1682e-005     -1.3096e-008    -7.515e-010    
  0.85            2.2203e-005     8.34e-009       -1.3776e-009   
  0.9             2.2528e-005     1.2184e-008     4.589e-010     
  0.95            2.2765e-005     -1.977e-008     1.5863e-009    
  1               2.3376e-005     -1.0474e-008    -1.1407e-009   
  1.05            2.3888e-005     2.8989e-008     -1.3775e-009   
  1.1             2.4066e-005     1.2639e-008     6.586e-010     
  1.15            2.4283e-005     -8.566e-009     1.3238e-009    
  1.2             2.4677e-005     -2.0144e-008    1.8499e-009    
  1.25            2.5166e-005     -1.2226e-008    -9.979e-010    
  1.3             2.5744e-005     2.7941e-008     -1.3785e-009   
  1.35            2.5523e-005     9.241e-009      1.5576e-009    
  1.4             2.611e-005      -1.4578e-008    1.5569e-009    
  1.45            2.671e-005      -1.0606e-008    -1.1597e-009   
  1.5             2.7189e-005     2.882e-008      -1.3767e-009   
  1.55            2.7329e-005     1.2523e-008     6.834e-010     
  1.6             2.7506e-005     -8.613e-009     1.3255e-009    
  1.65            2.8021e-005     -1.2635e-008    -4.851e-010    
  1.7             2.8598e-005     2.0101e-008     -1.5525e-009   
  1.75            2.8603e-005     9.863e-009      1.0772e-009    
  1.8             2.8974e-005     -2.6279e-008    1.3242e-009    
  1.85            2.971e-005      -1.1652e-008    -1.7744e-009   
  1.9             2.9958e-005     1.1682e-008     -2.422e-010    
  1.95            2.9925e-005     -1.6585e-008    2.6787e-009    
  2               3.0443e-005     -1.3097e-008    -4.66e-010     
  2.05            3.1024e-005     1.913e-008      -1.5748e-009   
  2.1             3.1011e-005     8.89e-009       1.064e-009     
  2.15            3.1364e-005     -2.7776e-008    1.3248e-009    
  2.2             3.2126e-005     -1.3531e-008    -1.7611e-009   
  2.25            3.2372e-005     1.5157e-008     -2.0093e-009   
  2.3             3.2757e-005     9.554e-009      -2.5973e-009   
  2.35            3.3046e-005     1.3791e-008     -1.9431e-009   
  2.4             3.3434e-005     7.707e-009      -2.5634e-009   
  2.45            3.372e-005      1.1386e-008     -1.8745e-009   
  2.5             3.4106e-005     5.023e-009      -2.5275e-009   
  2.55            3.4379e-005     7.914e-009      -1.8046e-009   
  2.6             3.4465e-005     -4.165e-009     2.426e-009     
  2.65            3.4907e-005     -2.916e-008     -5.974e-010    
  2.7             3.538e-005      1.936e-009      -1.4765e-009   
  2.75            3.5404e-005     -1.4767e-008    2.6327e-009    
  2.8             3.5838e-005     -4.0626e-008    -9.012e-010    
  2.85            3.6405e-005     -6.36e-009      -1.381e-009    
  2.9             3.6375e-005     -2.9788e-008    2.8031e-009    
  2.95            3.6964e-005     -5.6125e-008    -1.1525e-009   
  3               3.7438e-005     -2.4079e-008    -1.3778e-009   
  3.05            3.7363e-005     -5.6332e-008    2.8744e-009    
  3.1             3.8124e-005     -8.1557e-008    -1.4465e-009   
  3.15            3.8395e-005     -6.0725e-008    -1.7417e-009   
  3.2             3.8472e-005     -8.6906e-008    2.4651e-009    
  3.25            3.8866e-005     -1.3629e-007    -1.583e-010    
  3.3             3.9035e-005     -1.4465e-007    1.7329e-009    
  3.35            3.9501e-005     -1.5411e-007    -2.4314e-009   
  3.4             3.9883e-005     -1.5176e-007    6.658e-010     
  3.45            4.0022e-005     -2.1075e-007    1.3991e-009    
  3.5             4.0608e-005     -2.2222e-007    -2.6805e-009   
  3.55            4.0862e-005     -2.2852e-007    9.358e-010     
  3.6             4.1099e-005     -2.9911e-007    1.3261e-009    
  3.65            4.1712e-005     -3.142e-007     -2.7495e-009   
  3.7             4.1755e-005     -3.3356e-007    1.1924e-009    
  3.75            4.2259e-005     -4.1185e-007    2.173e-009     
  3.8             4.2726e-005     -4.4174e-007    -2.2021e-009   
  3.85            4.3222e-005     -4.6825e-007    3.988e-010     
  3.9             4.3328e-005     -5.5667e-007    1.6606e-009    
  3.95            4.3903e-005     -6.076e-007     -2.4863e-009   
  4               4.4328e-005     -6.4765e-007    7.1e-010       
  4.05            4.4507e-005     -7.5984e-007    1.3685e-009    
  4.1             4.5203e-005     -8.2208e-007    -2.7042e-009   
  4.15            4.5487e-005     -8.8065e-007    9.796e-010     
  4.2             4.58e-005       -1.01656e-006   1.3256e-009    
  4.25            4.6512e-005     -1.09307e-006   -2.7523e-009   
  4.3             4.6843e-005     -1.1836e-006    -1.4331e-009   
  4.35            4.724e-005      -1.2805e-006    2.6803e-009    
  4.4             4.7819e-005     -1.4306e-006    -9.567e-010    
  4.45            4.8539e-005     -1.5068e-006    -1.3782e-009   
  4.5             4.8626e-005     -1.6618e-006    2.8303e-009    
  4.55            4.9461e-005     -1.8384e-006    -1.2176e-009   
  4.6             5.0027e-005     -1.9336e-006    -2.0801e-009   
  4.65            5.024e-005      -2.1278e-006    2.2765e-009    
  4.7             5.0765e-005     -2.3352e-006    -3.695e-010    
  4.75            5.1605e-005     -2.4848e-006    -1.6507e-009   
  4.8             5.1869e-005     -2.6805e-006    2.5158e-009    
  4.85            5.2486e-005     -2.9243e-006    -7.264e-010    
  4.9             5.3353e-005     -3.0881e-006    -1.4149e-009   
  4.95            5.356e-005      -3.3236e-006    2.7102e-009    
  5               5.4328e-005     -3.6066e-006    -9.966e-010    
END_DB

BEGIN_DB
 ICCAP_VAR VG         2              
 ICCAP_VAR VS         0              
 ICCAP_VAR VB         0              

 #VD              ID              IB              IG             
  0               -4.5571e-007    1.7722e-008     -2.3643e-009   
  0.05            6.0415e-005     -1.3238e-008    2.7884e-009    
  0.1             0.00011879      -1.0879e-008    -2.7299e-009   
  0.15            0.00017366      1.0891e-008     -2.237e-010    
  0.2             0.00022466      -1.844e-008     2.5121e-009    
  0.25            0.0002718       -1.3219e-008    -7.703e-010    
  0.3             0.0003149       2.6995e-008     -1.3778e-009   
  0.35            0.00035316      1.2504e-008     4.834e-010     
  0.4             0.00038695      -8.646e-009     1.3257e-009    
  0.45            0.00041697      -1.3213e-008    -5.727e-010    
  0.5             0.00044289      7.766e-009      -1.3775e-009   
  0.55            0.00046377      9.831e-009      1.6405e-009    
  0.6             0.00048261      -1.0253e-008    2.357e-010     
  0.65            0.00049902      1.7086e-008     -2.2936e-009   
  0.7             0.00051147      1.2829e-008     7.366e-010     
  0.75            0.00052181      -2.5884e-008    1.3277e-009    
  0.8             0.00053133      -1.3325e-008    -5.642e-010    
  0.85            0.00053944      7.887e-009      -1.38e-009     
  0.9             0.00054471      9.856e-009      1.6186e-009    
  0.95            0.00055094      -1.0566e-008    2.419e-010     
  1               0.00055708      1.6859e-008     -2.3113e-009   
  1.05            0.00056111      1.2805e-008     7.232e-010     
  1.1             0.00056468      -2.5726e-008    1.3269e-009    
  1.15            0.00056909      -1.3123e-008    -5.436e-010    
  1.2             0.00057296      7.671e-009      -1.3786e-009   
  1.25            0.00057471      9.78e-009       1.604e-009     
  1.3             0.00057824      -1.053e-008     2.541e-010     
  1.35            0.00058239      1.6662e-008     -2.3289e-009   
  1.4             0.00058463      1.2803e-008     7.073e-010     
  1.45            0.00058661      -2.5629e-008    1.3279e-009    
  1.5             0.0005893       -1.8141e-008    1.7285e-009    
  1.55            0.00059242      -1.0306e-008    -1.1547e-009   
  1.6             0.00059492      2.7906e-008     -1.9848e-009   
  1.65            0.00059659      1.1794e-008     9.036e-010     
  1.7             0.00059835      -2.7111e-008    2.5227e-009    
  1.75            0.00060084      -1.3327e-008    -7.736e-010    
  1.8             0.00060352      8.747e-009      -1.3868e-009   
  1.85            0.00060477      1.2794e-008     7.394e-010     
  1.9             0.00060616      -2.6047e-008    1.3269e-009    
  1.95            0.00060862      -1.3301e-008    -5.645e-010    
  2               0.00061093      7.589e-009      -1.3782e-009   
  2.05            0.00061108      9.375e-009      1.6246e-009    
  2.1             0.00061336      -1.1335e-008    2.452e-010     
  2.15            0.00061626      1.5491e-008     -2.3013e-009   
  2.2             0.00061765      1.4779e-008     -1.5223e-009   
  2.25            0.00061957      1.4753e-008     -2.0341e-009   
  2.3             0.00062125      1.0537e-008     -2.5292e-009   
  2.35            0.00062258      1.3198e-008     -1.5887e-009   
  2.4             0.00062415      9.329e-009      -2.1261e-009   
  2.45            0.00062569      3.223e-009      -2.577e-009    
  2.5             0.00062673      -2.0356e-008    -2.7278e-009   
  2.55            0.00062693      -1.0491e-008    1.4438e-009    
  2.6             0.00062877      -3.9121e-008    1.5106e-009    
  2.65            0.0006309       -4.2516e-008    -2.6622e-009   
  2.7             0.00063197      -3.2375e-008    1.0178e-009    
  2.75            0.00063315      -8.0607e-008    2.3044e-009    
  2.8             0.00063486      -7.7921e-008    -2.2517e-009   
  2.85            0.00063625      -7.2692e-008    6.037e-010     
  2.9             0.00063753      -1.05416e-007   1.3581e-009    
  2.95            0.00063831      -1.4769e-007    2.5557e-009    
  3               0.0006403       -1.6714e-007    -2.1185e-009   
  3.05            0.00064174      -1.7889e-007    4.344e-010     
  3.1             0.00064211      -2.5051e-007    1.4516e-009    
  3.15            0.00064412      -2.8335e-007    -2.6874e-009   
  3.2             0.00064502      -3.1684e-007    1.0734e-009    
  3.25            0.00064621      -4.1115e-007    2.1886e-009    
  3.3             0.00064769      -4.6285e-007    -2.3072e-009   
  3.35            0.00064919      -5.1931e-007    6.544e-010     
  3.4             0.00064981      -6.4516e-007    1.3348e-009    
  3.45            0.00065189      -7.2817e-007    -2.7294e-009   
  3.5             0.00065227      -8.2529e-007    1.2623e-009    
  3.55            0.00065381      -9.8057e-007    1.7869e-009    
  3.6             0.00065558      -1.11492e-006   -2.5234e-009   
  3.65            0.00065739      -1.2486e-006    -1.4617e-009   
  3.7             0.00065801      -1.441e-006     2.7111e-009    
  3.75            0.00065977      -1.6626e-006    -1.1135e-009   
  3.8             0.0006615       -1.846e-006     -1.3764e-009   
  3.85            0.00066216      -2.1229e-006    2.8836e-009    
  3.9             0.00066457      -2.4168e-006    -1.7546e-009   
  3.95            0.00066547      -2.707e-006     -1.496e-010    
  4               0.00066614      -3.0787e-006    2.3555e-009    
  4.05            0.00066812      -3.4504e-006    -2.2205e-009   
  4.1             0.00066986      -3.8458e-006    5.642e-010     
  4.15            0.00067078      -4.3389e-006    1.3667e-009    
