! VERSION = 6.00
BEGIN_HEADER
 ICCAP_INPUTS
  VG         V  B GROUND SMU4 0.001 LIN        1    0          5          101  0.05      
  VS         V  E GROUND SMU2 0.1 CON        0
  VB         V  C GROUND SMU3 0.1 LIN        3    0          -5         3    -2.5      
  VD         V  S GROUND SMU1 0.1 LIN        2    0.1        5          2    4.9       
 ICCAP_OUTPUTS
  IG         I  B GROUND SMU4 B
  ID         I  S GROUND SMU1 B
  IB         I  C GROUND SMU3 B
END_HEADER

BEGIN_DB
 ICCAP_VAR VS         0              
 ICCAP_VAR VB         0              
 ICCAP_VAR VD         0.1            

 #VG              IG              ID              IB             
  0               -2.3458e-009    -2.2708e-009    -3.14e-010     
  0.05            -1.316e-009     -2.1022e-009    2.621e-009     
  0.1             1.691e-010      -1.9226e-009    -1.1686e-008   
  0.15            -4e-012         -2.0548e-009    -1.0965e-008   
  0.2             -1.796e-010     -2.1772e-009    -1.0802e-008   
  0.25            -3.92e-010      -2.2636e-009    -1.0855e-008   
  0.3             -5.966e-010     -2.3162e-009    -1.1199e-008   
  0.35            -7.998e-010     -2.3267e-009    -1.1269e-008   
  0.4             2.0644e-009     -1.6476e-009    -1.6586e-008   
  0.45            1.5414e-009     1.9361e-009     -8.38e-009     
  0.5             1.214e-010      2.2263e-009     1.0341e-008    
  0.55            3.1e-010        2.5632e-009     1.0288e-008    
  0.6             4.891e-010      3.4067e-009     1.0562e-008    
  0.65            -1.3458e-009    4.8836e-009     2.4228e-008    
  0.7             -1.3156e-009    9.5708e-009     1.128e-008     
  0.75            -1.2958e-009    1.9179e-008     -2.84e-009     
  0.8             -4.73e-011      4.5137e-008     -1.1783e-008   
  0.85            -5.392e-010     8.5409e-008     -1.0874e-008   
  0.9             -2.6723e-009    1.4668e-007     1.0748e-008    
  0.95            -2.1958e-009    2.276e-007      6.15e-010      
  1               -1.6496e-009    3.2516e-007     3.275e-009     
  1.05            -1.3998e-009    4.3498e-007     7.659e-009     
  1.1             -1.3156e-009    5.5253e-007     1.1585e-008    
  1.15            -2.4268e-009    6.7636e-007     1.2288e-008    
  1.2             -1.8436e-009    7.9735e-007     2.12e-009      
  1.25            -1.463e-009     9.2299e-007     5.87e-009      
  1.3             -1.3407e-009    1.04967e-006    1.0569e-008    
  1.35            -2.8134e-009    1.1742e-006     -2.5732e-008   
  1.4             -1.171e-010     1.2978e-006     -1.1551e-008   
  1.45            -6.121e-010     1.4239e-006     -1.0803e-008   
  1.5             -1.0287e-009    1.5494e-006     -1.1336e-008   
  1.55            2.06e-010       1.672e-006      -1.3067e-008   
  1.6             -2.035e-010     1.7959e-006     -1.12e-008     
  1.65            -7.02e-010      1.9188e-006     -1.079e-008    
  1.7             1.8102e-009     2.0404e-006     -1.8267e-008   
  1.75            1.376e-009      2.1636e-006     -9.456e-009    
  1.8             1.2572e-009     2.2831e-006     -8.706e-009    
  1.85            2.6732e-009     2.4026e-006     -1.2995e-008   
  1.9             2.5564e-009     2.5229e-006     8.477e-009     
  1.95            4.611e-010      2.6421e-006     1.0273e-008    
  2               -1.3105e-009    2.7592e-006     2.476e-008     
  2.05            -2.3768e-009    2.8745e-006     1.2862e-008    
  2.1             -1.7884e-009    2.9877e-006     2.444e-009     
  2.15            -1.4419e-009    3.1021e-006     6.309e-009     
  2.2             -1.3354e-009    3.2161e-006     1.0797e-008    
  2.25            -2.5694e-009    3.3305e-006     1.1313e-008    
  2.3             -2.0063e-009    3.4397e-006     1.189e-009     
  2.35            -1.5368e-009    3.5505e-006     4.36e-009      
  2.4             -1.3663e-009    3.6611e-006     9.631e-009     
  2.45            -2.7018e-009    3.7715e-006     1.1321e-008    
  2.5             -2.233e-009     3.8779e-006     7.19e-010      
  2.55            -1.6809e-009    3.986e-006      3.04e-009      
  2.6             -1.4109e-009    4.0935e-006     7.412e-009     
  2.65            -1.3182e-009    4.1996e-006     1.1397e-008    
  2.7             -2.4604e-009    4.3063e-006     1.2049e-008    
  2.75            -1.875e-009     4.4081e-006     1.872e-009     
  2.8             -1.4772e-009    4.5138e-006     5.339e-009     
  2.85            -1.3467e-009    4.6171e-006     1.0491e-008    
  2.9             -2.6292e-009    4.7193e-006     1.1153e-008    
  2.95            -2.1136e-009    4.8178e-006     6.34e-010      
  3               -1.5928e-009    4.9184e-006     3.531e-009     
  3.05            -1.3839e-009    5.0174e-006     8.491e-009     
  3.1             -2.7472e-009    5.1151e-006     1.1559e-008    
  3.15            -2.3405e-009    5.2116e-006     6.02e-010      
  3.2             -8.521e-010     5.3061e-006     -1.1173e-008   
  3.25            -1.2319e-009    5.4019e-006     -1.1182e-008   
  3.3             9.3e-012        5.494e-006      -1.1996e-008   
  3.35            -4.664e-010     5.5888e-006     -1.0812e-008   
  3.4             -9.194e-010     5.6808e-006     -1.136e-008    
  3.45            -1.3124e-009    5.7735e-006     -1.1164e-008   
  3.5             -5.95e-011      5.8619e-006     -1.1736e-008   
  3.55            -5.617e-010     5.9512e-006     -1.0802e-008   
  3.6             -9.864e-010     6.0399e-006     -1.1383e-008   
  3.65            2.468e-010      6.1241e-006     -1.3345e-008   
  3.7             -1.492e-010     6.2126e-006     -1.1376e-008   
  3.75            -6.456e-010     6.2984e-006     -1.0857e-008   
  3.8             -1.0594e-009    6.3829e-006     -1.125e-008    
  3.85            1.842e-010      6.462e-006      -1.2783e-008   
  3.9             -2.48e-010      6.5472e-006     -1.1083e-008   
  3.95            -7.444e-010     6.6281e-006     -1.0946e-008   
  4               1.7564e-009     6.7059e-006     -1.7403e-008   
  4.05            1.3576e-009     6.7891e-006     -9.36e-009     
  4.1             1.2573e-009     6.8663e-006     -8.609e-009    
  4.15            2.6612e-009     6.9444e-006     -1.3517e-008   
  4.2             6.898e-010      7.0213e-006     1.0387e-008    
  4.25            1.0913e-009     7.0952e-006     1.0584e-008    
  4.3             -7.44e-011      7.1668e-006     1.2025e-008    
  4.35            3.407e-010      7.2415e-006     1.0411e-008    
  4.4             7.728e-010      7.3131e-006     1.0626e-008    
  4.45            -1.5769e-009    7.3812e-006     1.7595e-008    
  4.5             -1.3789e-009    7.4514e-006     8.863e-009     
  4.55            -2.7556e-009    7.5194e-006     1.1428e-008    
  4.6             -2.3451e-009    7.5843e-006     6e-010         
  4.65            -1.7346e-009    7.6506e-006     2.773e-009     
  4.7             -1.4209e-009    7.7159e-006     6.514e-009     
  4.75            -1.3317e-009    7.7807e-006     1.0999e-008    
  4.8             -2.5641e-009    7.8442e-006     1.174e-008     
  4.85            -1.9686e-009    7.9034e-006     1.574e-009     
  4.9             -1.4982e-009    7.9642e-006     4.603e-009     
  4.95            -1.3593e-009    8.0237e-006     9.615e-009     
  5               -2.7018e-009    8.0844e-006     1.141e-008     
END_DB

BEGIN_DB
 ICCAP_VAR VS         0              
 ICCAP_VAR VB         0              
 ICCAP_VAR VD         5              

 #VG              IG              ID              IB             
  0               1.2394e-009     1.1164e-009     1.1465e-008    
  0.05            2.7551e-009     -3.896e-010     -1.6094e-008   
  0.1             3.644e-010      2.2968e-009     1.0459e-008    
  0.15            5.433e-010      2.3785e-009     1.0814e-008    
  0.2             -1.3363e-009    1.5047e-009     2.3917e-008    
  0.25            -1.3136e-009    1.31e-010       1.1673e-008    
  0.3             -2.6568e-009    2.782e-010      1.3451e-008    
  0.35            -2.02e-009      -1.2765e-009    7.51e-010      
  0.4             -7.646e-010     -2.3187e-009    -1.1433e-008   
  0.45            1.2551e-009     -1.6125e-009    -1.7227e-008   
  0.5             2.8569e-009     -1.56e-010      -1.4378e-008   
  0.55            2.247e-010      2.5918e-009     1.0441e-008    
  0.6             4.072e-010      3.6195e-009     1.0474e-008    
  0.65            5.885e-010      6.4723e-009     1.0591e-008    
  0.7             2.8673e-009     1.2517e-008     2.6427e-008    
  0.75            -1.5683e-009    2.8372e-008     2.0336e-008    
  0.8             -1.3723e-009    5.887e-008      4.791e-009     
  0.85            -9.776e-010     1.128e-007      8.611e-009     
  0.9             -1.3807e-009    2.012e-007      -2.293e-008    
  0.95            -1.7949e-009    3.2696e-007     -3.0132e-008   
  1               -2.0599e-009    4.9523e-007     -3.651e-008    
  1.05            -2.3971e-009    7.0422e-007     -4.5169e-008   
  1.1             -2.7356e-009    9.6262e-007     -5.3911e-008   
  1.15            -8.839e-010     1.2734e-006     -6.0667e-008   
  1.2             -1.2765e-009    1.6303e-006     -8.1905e-008   
  1.25            -1.6993e-009    2.0339e-006     -9.5715e-008   
  1.3             -1.882e-009     2.4746e-006     -1.05758e-007  
  1.35            -8.43e-011      2.9763e-006     -1.2483e-007   
  1.4             3.38e-010       3.5196e-006     -1.1141e-007   
  1.45            7.584e-010      4.1005e-006     -1.2334e-007   
  1.5             1.1486e-009     4.7275e-006     -1.3509e-007   
  1.55            1.5712e-009     5.3999e-006     -1.4488e-007   
  1.6             2.0033e-009     6.1329e-006     -1.5537e-007   
  1.65            2.3499e-009     6.9133e-006     -1.6619e-007   
  1.7             2.6496e-009     7.7323e-006     -1.759e-007    
  1.75            2.9239e-009     8.5942e-006     -1.8435e-007   
  1.8             2.8823e-009     9.4998e-006     -1.9562e-007   
  1.85            2.4405e-009     1.04463e-005    -2.0211e-007   
  1.9             1.4742e-009     1.143e-005      -2.3145e-007   
  1.95            1.9106e-009     1.2473e-005     -1.9649e-007   
  2               2.2849e-009     1.3571e-005     -1.9979e-007   
  2.05            2.579e-009      1.4694e-005     -2.0122e-007   
  2.1             2.8836e-009     1.5859e-005     -2.0222e-007   
  2.15            2.9244e-009     1.707e-005      -2.0625e-007   
  2.2             2.5815e-009     1.8314e-005     -2.0653e-007   
  2.25            1.895e-009      1.9597e-005     -2.0629e-007   
  2.3             1.405e-009      2.0931e-005     -2.0874e-007   
  2.35            1.2772e-009     2.2303e-005     -2.0423e-007   
  2.4             2.7842e-009     2.3707e-005     -2.0244e-007   
  2.45            2.1925e-009     2.5176e-005     -1.8673e-007   
  2.5             1.5446e-009     2.6665e-005     -1.8642e-007   
  2.55            1.3067e-009     2.819e-005      -1.8225e-007   
  2.6             2.8968e-009     2.9758e-005     -1.7604e-007   
  2.65            2.4712e-009     3.1385e-005     -1.6096e-007   
  2.7             1.775e-009      3.3024e-005     -1.5781e-007   
  2.75            1.3613e-009     3.4709e-005     -1.5586e-007   
  2.8             1.264e-009      3.6458e-005     -1.482e-007    
  2.85            2.7103e-009     3.8216e-005     -1.4566e-007   
  2.9             2.0647e-009     4.0021e-005     -1.278e-007    
  2.95            1.4758e-009     4.1854e-005     -1.2689e-007   
  3               1.2899e-009     4.3708e-005     -1.2082e-007   
  3.05            2.862e-009      4.5603e-005     -1.156e-007    
  3.1             2.3541e-009     4.7556e-005     -9.956e-008    
  3.15            1.6636e-009     4.952e-005      -9.77e-008     
  3.2             1.3323e-009     5.1518e-005     -9.528e-008    
  3.25            2.9366e-009     5.3546e-005     -8.877e-008    
  3.3             -2.2608e-009    5.568e-005      -5.9697e-008   
  3.35            -1.6595e-009    5.7769e-005     -6.5432e-008   
  3.4             -1.3975e-009    5.99e-005       -5.6162e-008   
  3.45            -1.3224e-009    6.2071e-005     -4.7237e-008   
  3.5             -2.4924e-009    6.4261e-005     -4.1319e-008   
  3.55            -1.8776e-009    6.646e-005      -4.7163e-008   
  3.6             -1.4599e-009    6.8709e-005     -3.9718e-008   
  3.65            -1.3446e-009    7.0987e-005     -3.1004e-008   
  3.7             -2.6582e-009    7.3287e-005     -2.6121e-008   
  3.75            -2.1457e-009    7.5603e-005     -3.3094e-008   
  3.8             -1.5849e-009    7.7961e-005     -2.6654e-008   
  3.85            -2.8046e-009    8.0317e-005     -3.1955e-008   
  3.9             -2.5907e-009    8.2724e-005     -2.5197e-008   
  3.95            -2.4765e-009    8.5138e-005     -3.1111e-008   
  4               -2.769e-009     8.759e-005      -2.6881e-008   
  4.05            -2.7933e-009    9.0069e-005     -2.1191e-008   
  4.1             -2.1563e-009    9.2552e-005     -2.5516e-008   
  4.15            -2.5399e-009    9.5068e-005     -2.2165e-008   
  4.2             -2.795e-009     9.7609e-005     -1.8741e-008   
  4.25            -1.95e-009      0.00010018      -2.2185e-008   
  4.3             -2.217e-009     0.000102733     -1.9114e-008   
  4.35            -1.2594e-009    0.00010537      -1.9366e-008   
  4.4             -1.6867e-009    0.000107996     -1.933e-008    
  4.45            -1.9842e-009    0.00011063      -1.7298e-008   
  4.5             -9.386e-010     0.000113264     -1.6858e-008   
  4.55            1.524e-010      0.00011592      -1.567e-008    
  4.6             -2.781e-010     0.00011864      -1.4785e-008   
  4.65            -7.641e-010     0.00012135      -1.4396e-008   
  4.7             -1.1573e-009    0.00012411      -1.4092e-008   
  4.75            -1.5859e-009    0.00012684      -1.4332e-008   
  4.8             -3.629e-010     0.00012952      -1.2797e-008   
  4.85            -8.372e-010     0.00013228      -1.3038e-008   
  4.9             -1.2223e-009    0.00013508      -1.2693e-008   
  4.95            2.47e-011       0.00013778      -1.2864e-008   
  5               -4.428e-010     0.00014057      -1.1783e-008   
END_DB

BEGIN_DB
 ICCAP_VAR VS         0              
 ICCAP_VAR VB         -2.5           
 ICCAP_VAR VD         0.1            

 #VG              IG              ID              IB             
  0               -1.0352e-009    -9.669e-010     -1.1927e-008   
  0.05            -1.4019e-009    1.2284e-009     2.8235e-008    
  0.1             -1.2341e-009    -2.1875e-009    1.1092e-008    
  0.15            2.469e-010      -1.8673e-009    -1.161e-008    
  0.2             9.58e-011       -1.9783e-009    -1.1081e-008   
  0.25            -6e-011         -2.1097e-009    -1.0772e-008   
  0.3             -2.518e-010     -2.2146e-009    -1.0942e-008   
  0.35            -4.501e-010     -2.2864e-009    -1.1063e-008   
  0.4             -6.45e-010      -2.3213e-009    -1.1512e-008   
  0.45            -8.335e-010     -2.3224e-009    -1.1312e-008   
  0.5             2.0381e-009     -1.6657e-009    -1.6128e-008   
  0.55            1.565e-009      1.918e-009      -8.773e-009    
  0.6             1.407e-010      2.1621e-009     1.0254e-008    
  0.65            3.099e-010      2.2671e-009     1.0381e-008    
  0.7             4.824e-010      2.3562e-009     1.0775e-008    
  0.75            6.567e-010      2.4134e-009     1.0916e-008    
  0.8             8.239e-010      2.4227e-009     1.0624e-008    
  0.85            -1.8069e-009    1.725e-009      1.6647e-008    
  0.9             -1.7114e-009    -1.7103e-009    6.36e-009      
  0.95            -2.093e-010     -2.1985e-009    -1.094e-008    
  1               -4.154e-010     -2.2735e-009    -1.0993e-008   
  1.05            -6.114e-010     -2.3126e-009    -1.1504e-008   
  1.1             -7.979e-010     -2.3104e-009    -1.1433e-008   
  1.15            1.2532e-009     -1.561e-009     -1.6884e-008   
  1.2             2.5036e-009     1.5192e-009     -1.4624e-008   
  1.25            1.107e-010      3.8646e-009     1.0241e-008    
  1.3             2.824e-010      7.6756e-009     1.0413e-008    
  1.35            -1.897e-009     1.2283e-008     -1.7273e-008   
  1.4             -1.4674e-009    2.6966e-008     5.361e-009     
  1.45            -1.3499e-009    5.0378e-008     1.023e-008     
  1.5             -2.6812e-009    8.6251e-008     1.1301e-008    
  1.55            6.824e-010      1.4043e-007     -1.3782e-008   
  1.6             1.0739e-009     2.1048e-007     1.0553e-008    
  1.65            -9.37e-011      2.9827e-007     1.2021e-008    
  1.7             3.061e-010      3.966e-007      1.0302e-008    
  1.75            7.364e-010      5.0177e-007     1.0662e-008    
  1.8             1.1215e-009     6.1186e-007     1.0515e-008    
  1.85            -5.2e-011       7.2786e-007     1.1568e-008    
  1.9             3.617e-010      8.4357e-007     1.0281e-008    
  1.95            7.87e-010       9.5953e-007     1.0828e-008    
  2               -1.5668e-009    1.07809e-006    1.7503e-008    
  2.05            -2.75e-009      1.1934e-006     -2.2735e-008   
  2.1             -8.239e-010     1.3105e-006     -1.1208e-008   
  2.15            -1.1986e-009    1.4286e-006     -1.1145e-008   
  2.2             4.75e-011       1.5438e-006     -1.1782e-008   
  2.25            -4.014e-010     1.6618e-006     -1.0814e-008   
  2.3             -8.676e-010     1.7785e-006     -1.145e-008    
  2.35            1.5923e-009     1.8928e-006     -1.516e-008    
  2.4             1.3113e-009     2.0107e-006     -9.107e-009    
  2.45            2.9118e-009     2.1248e-006     -8.943e-009    
  2.5             3.54e-010       2.2418e-006     1.032e-008     
  2.55            7.787e-010      2.3548e-006     1.0869e-008    
  2.6             -1.5724e-009    2.4659e-006     1.7697e-008    
  2.65            -1.3729e-009    2.5765e-006     8.687e-009     
  2.7             -1.3136e-009    2.6874e-006     1.1636e-008    
  2.75            -2.4025e-009    2.7979e-006     1.3464e-008    
  2.8             -1.7895e-009    2.9066e-006     2.625e-009     
  2.85            -1.4311e-009    3.015e-006      6.247e-009     
  2.9             -1.3381e-009    3.123e-006      1.0446e-008    
  2.95            -2.6163e-009    3.2299e-006     1.1247e-008    
  3               -2.0746e-009    3.3333e-006     9.12e-010      
  3.05            -1.5484e-009    3.4384e-006     4.234e-009     
  3.1             -1.3714e-009    3.5426e-006     8.851e-009     
  3.15            -2.7497e-009    3.6456e-006     1.1441e-008    
  3.2             -2.3662e-009    3.7461e-006     4.6e-010       
  3.25            -8.406e-010     3.8454e-006     -1.1332e-008   
  3.3             -1.2239e-009    3.9458e-006     -1.1217e-008   
  3.35            2.8e-011        4.0424e-006     -1.1678e-008   
  3.4             -4.37e-010      4.1413e-006     -1.0921e-008   
  3.45            -8.934e-010     4.2387e-006     -1.1448e-008   
  3.5             -1.2763e-009    4.3353e-006     -1.1099e-008   
  3.55            -2.4e-011       4.428e-006      -1.1569e-008   
  3.6             -4.95e-010      4.5231e-006     -1.0855e-008   
  3.65            -9.392e-010     4.6158e-006     -1.1385e-008   
  3.7             3.057e-010      4.7052e-006     -1.3805e-008   
  3.75            -7.28e-011      4.798e-006      -1.1476e-008   
  3.8             -5.611e-010     4.8878e-006     -1.104e-008    
  3.85            -9.868e-010     4.9768e-006     -1.1403e-008   
  3.9             2.608e-010      5.0617e-006     -1.3181e-008   
  3.95            -1.313e-010     5.1494e-006     -1.1338e-008   
  4               -6.2e-010       5.2352e-006     -1.0892e-008   
  4.05            -1.0366e-009    5.3193e-006     -1.1266e-008   
  4.1             2.159e-010      5.3998e-006     -1.2766e-008   
  4.15            -1.949e-010     5.4844e-006     -1.1245e-008   
