! VERSION = 6.00
BEGIN_HEADER
 ICCAP_INPUTS
  VG         V  B GROUND SMU4 0.001 LIN        2    0          5          6    1         
  VS         V  E GROUND SMU2 0.1 CON        0
  VD         V  S GROUND SMU1 0.1 LIN        1    0          5          101  0.05      
  VB         V  C GROUND SMU3 0.1 LIN        3    0          -2.5       2    -2.5      
 ICCAP_OUTPUTS
  ID         I  S GROUND SMU1 B
  IB         I  C GROUND SMU3 B
  IG         I  B GROUND SMU4 B
END_HEADER

BEGIN_DB
 ICCAP_VAR VG         0              
 ICCAP_VAR VS         0              
 ICCAP_VAR VB         0              

 #VD              ID              IB              IG             
  0               1.7161e-009     4.853e-009      1.4752e-009    
  0.05            2.3718e-009     -9.024e-009     9.781e-010     
  0.1             1.8247e-009     1.3394e-008     -1.6049e-009   
  0.15            -1.5041e-009    8.402e-009      -1.8442e-009   
  0.2             -2.2515e-009    -1.085e-008     -4.142e-010    
  0.25            -2.2941e-009    -1.1361e-008    -6.1e-010      
  0.3             -2.3013e-009    -1.1416e-008    -8.008e-010    
  0.35            -1.637e-009     -1.6922e-008    2.0881e-009    
  0.4             1.9429e-009     -8.463e-009     1.5357e-009    
  0.45            2.1148e-009     1.0179e-008     1.094e-010     
  0.5             2.2235e-009     1.0351e-008     2.766e-010     
  0.55            2.3202e-009     1.0466e-008     4.563e-010     
  0.6             2.3771e-009     1.086e-008      6.244e-010     
  0.65            1.5519e-009     2.213e-008      -1.315e-009    
  0.7             1.784e-010      1.1905e-008     -2.7148e-009   
  0.75            -1.3431e-009    5.89e-010       -1.954e-009    
  0.8             -2.2969e-009    -1.1287e-008    -6.232e-010    
  0.85            -2.3015e-009    -1.1502e-008    -8.144e-010    
  0.9             -1.6404e-009    -1.6638e-008    2.064e-009     
  0.95            1.9245e-009     -8.777e-009     1.5468e-009    
  1               2.1252e-009     1.011e-008      1.196e-010     
  1.05            2.2326e-009     1.0273e-008     2.89e-010      
  1.1             2.3235e-009     1.0473e-008     4.687e-010     
  1.15            2.38e-009       1.0902e-008     6.364e-010     
  1.2             1.5608e-009     2.182e-008      -1.3131e-009   
  1.25            1.89e-010       1.2057e-008     -2.7087e-009   
  1.3             -1.3389e-009    5.84e-010       -1.9603e-009   
  1.35            -2.3003e-009    -1.1273e-008    -6.339e-010    
  1.4             -2.3021e-009    -1.149e-008     -8.201e-010    
  1.45            -2.2713e-009    -1.1224e-008    -9.742e-010    
  1.5             -1.7104e-009    -1.3672e-008    1.7677e-009    
  1.55            1.6917e-009     -9.507e-009     1.724e-009     
  1.6             1.4472e-009     1.0113e-008     1.8979e-009    
  1.65            2.3271e-009     1.0471e-008     4.761e-010     
  1.7             2.3826e-009     1.0885e-008     6.489e-010     
  1.75            1.5722e-009     2.1609e-008     -1.312e-009    
  1.8             1.973e-010      1.2223e-008     -2.7029e-009   
  1.85            -1.3288e-009    6.54e-010       -1.9634e-009   
  1.9             -2.2993e-009    -1.1294e-008    -6.474e-010    
  1.95            -2.2994e-009    -1.1419e-008    -8.338e-010    
  2               -1.6494e-009    -1.6295e-008    2.0354e-009    
  2.05            1.901e-009      -8.816e-009     1.5666e-009    
  2.1             2.1383e-009     1.0168e-008     1.426e-010     
  2.15            2.2453e-009     1.0271e-008     3.125e-010     
  2.2             2.3345e-009     1.0591e-008     4.875e-010     
  2.25            2.3839e-009     1.0854e-008     6.564e-010     
  2.3             1.5779e-009     2.1326e-008     -1.3119e-009   
  2.35            2.082e-010      1.2487e-008     -2.6968e-009   
  2.4             -1.3219e-009    6.55e-010       -1.9696e-009   
  2.45            -2.2997e-009    -1.14e-008      -6.572e-010    
  2.5             -2.2968e-009    -1.1377e-008    -8.442e-010    
  2.55            -1.6564e-009    -1.6053e-008    2.0125e-009    
  2.6             1.8858e-009     -9.148e-009     1.5811e-009    
  2.65            2.1476e-009     1.0224e-008     1.579e-010     
  2.7             2.251e-009      1.0339e-008     3.242e-010     
  2.75            2.3389e-009     1.065e-008      4.958e-010     
  2.8             1.4534e-009     2.5342e-008     -1.3355e-009   
  2.85            8.31e-011       1.1349e-008     -1.3073e-009   
  2.9             2.122e-010      1.2428e-008     -2.6895e-009   
  2.95            -1.3117e-009    8.39e-010       -1.9729e-009   
  3               -2.3014e-009    -1.1335e-008    -6.685e-010    
  3.05            -2.2963e-009    -1.1396e-008    -8.546e-010    
  3.1             -1.6591e-009    -1.5818e-008    1.9886e-009    
  3.15            1.8717e-009     -9.247e-009     1.5888e-009    
  3.2             2.1553e-009     1.0302e-008     1.661e-010     
  3.25            2.2573e-009     1.0356e-008     3.361e-010     
  3.3             2.3408e-009     1.0671e-008     5.083e-010     
  3.35            1.4631e-009     2.517e-008      -1.3319e-009   
  3.4             9.38e-011       1.1161e-008     -1.3075e-009   
  3.45            2.25e-010       1.2824e-008     -2.6837e-009   
  3.5             -1.3057e-009    6.83e-010       -1.9795e-009   
  3.55            -2.3e-009       -1.15e-008      -6.808e-010    
  3.6             -2.2935e-009    -1.128e-008     -8.66e-010     
  3.65            -1.6632e-009    -1.5607e-008    1.9684e-009    
  3.7             1.858e-009      -9.307e-009     1.5995e-009    
  3.75            2.1598e-009     1.0223e-008     1.775e-010     
  3.8             2.2669e-009     1.0257e-008     3.424e-010     
  3.85            2.344e-009      1.072e-008      5.212e-010     
  3.9             2.3866e-009     1.0859e-008     6.916e-010     
  3.95            2.3903e-009     1.0627e-008     8.593e-010     
  4               1.7387e-009     1.5877e-008     -1.7523e-009   
  4.05            -1.6538e-009    6.833e-009      -1.7437e-009   
  4.1             -2.1991e-009    -1.0886e-008    -2.586e-010    
  4.15            -2.2644e-009    -1.099e-008     -4.669e-010    
  4.2             -2.3019e-009    -1.1409e-008    -6.523e-010    
  4.25            -2.2996e-009    -1.1449e-008    -8.408e-010    
  4.3             -2.2689e-009    -1.115e-008     -9.98e-010     
  4.35            -1.7175e-009    -1.3484e-008    1.7331e-009    
  4.4             1.6528e-009     -9.423e-009     1.7528e-009    
  4.45            1.4228e-009     1.011e-008      1.9194e-009    
  4.5             2.3337e-009     1.0618e-008     4.953e-010     
  4.55            2.3844e-009     1.0959e-008     6.702e-010     
  4.6             2.3902e-009     1.0679e-008     8.337e-010     
  4.65            1.7161e-009     1.645e-008      -1.7806e-009   
  4.7             -1.6777e-009    6.611e-009      -1.7216e-009   
  4.75            -2.1827e-009    -1.0869e-008    -2.403e-010    
  4.8             -2.2567e-009    -1.0933e-008    -4.345e-010    
  4.85            -2.2974e-009    -1.1457e-008    -6.29e-010     
  4.9             -2.2976e-009    -1.1437e-008    -8.217e-010    
  4.95            -1.6447e-009    -1.64e-008      2.0446e-009    
  5               1.9171e-009     -8.844e-009     1.5559e-009    
END_DB

BEGIN_DB
 ICCAP_VAR VG         1              
 ICCAP_VAR VS         0              
 ICCAP_VAR VB         0              

 #VD              ID              IB              IG             
  0               -8.279e-009     5.684e-009      1.5446e-009    
  0.05            8.2259e-007     1.0599e-008     -2.7531e-009   
  0.1             1.3315e-006     -1.127e-008     -1.5734e-009   
  0.15            1.6003e-006     1.0094e-008     2.1481e-009    
  0.2             1.7474e-006     -1.3447e-008    2.711e-010     
  0.25            1.8486e-006     1.0926e-008     -1.3242e-009   
  0.3             1.8743e-006     1.0619e-008     1.1982e-009    
  0.35            1.9124e-006     -2.5319e-008    1.3517e-009    
  0.4             1.9412e-006     -1.1418e-008    -9.643e-010    
  0.45            1.9752e-006     2.1727e-008     -1.6036e-009   
  0.5             1.9626e-006     1.0146e-008     2.1312e-009    
  0.55            1.9777e-006     -1.37e-008      2.837e-010     
  0.6             2.0093e-006     1.0889e-008     -1.3263e-009   
  0.65            1.9962e-006     1.0684e-008     1.1834e-009    
  0.7             2.0123e-006     -2.5101e-008    1.3566e-009    
  0.75            2.0302e-006     -1.1434e-008    -9.46e-010     
  0.8             2.0549e-006     2.1571e-008     -1.6207e-009   
  0.85            2.0371e-006     1.0244e-008     2.1167e-009    
  0.9             2.0459e-006     -1.3895e-008    2.98e-010      
  0.95            2.0756e-006     1.0705e-008     -1.3298e-009   
  1               2.0609e-006     1.0618e-008     1.169e-009     
  1.05            2.067e-006      -2.4866e-008    1.3664e-009    
  1.1             2.0829e-006     -1.1481e-008    -9.324e-010    
  1.15            2.1042e-006     2.133e-008      -1.6385e-009   
  1.2             2.0836e-006     1.0301e-008     2.102e-009     
  1.25            2.0928e-006     -1.4154e-008    1.506e-009     
  1.3             2.1029e-006     -1.1044e-008    -7.547e-010    
  1.35            2.1266e-006     1.9029e-008     -1.8685e-009   
  1.4             2.1246e-006     1.021e-008      3.298e-010     
  1.45            2.1128e-006     -1.5217e-008    2.5521e-009    
  1.5             2.1164e-006     -1.1634e-008    8.7e-012       
  1.55            2.15e-006       1.1148e-008     -2.6959e-009   
  1.6             2.1205e-006     1.0576e-008     1.2297e-009    
  1.65            2.1311e-006     -2.5508e-008    1.3352e-009    
  1.7             2.1483e-006     -1.1489e-008    -9.95e-010     
  1.75            2.1667e-006     2.2154e-008     -1.575e-009    
  1.8             2.1453e-006     1.0049e-008     2.158e-009     
  1.85            2.1503e-006     -1.3304e-008    2.555e-010     
  1.9             2.1762e-006     1.1007e-008     -1.3217e-009   
  1.95            2.1818e-006     1.0821e-008     1.267e-010     
  2               2.1609e-006     -1.2132e-008    2.7723e-009    
  2.05            2.1657e-006     -1.2749e-008    1.99e-010      
  2.1             2.1934e-006     1.1218e-008     -1.3126e-009   
  2.15            2.1969e-006     1.0535e-008     1.844e-010     
  2.2             2.1749e-006     -1.321e-008     2.7108e-009    
  2.25            2.1788e-006     -1.2336e-008    1.408e-010     
  2.3             2.2084e-006     1.1271e-008     -1.3066e-009   
  2.35            2.1805e-006     1.0562e-008     1.3401e-009    
  2.4             2.1926e-006     -2.6389e-008    1.2992e-009    
  2.45            2.2112e-006     -1.162e-008     -1.0896e-009   
  2.5             2.2267e-006     2.3364e-008     -1.4902e-009   
  2.55            2.2144e-006     1.0161e-008     6.993e-010     
  2.6             2.2079e-006     -2.0121e-008    1.9737e-009    
  2.65            2.212e-006      -1.1221e-008    -3.831e-010    
  2.7             2.2418e-006     1.3402e-008     -2.346e-009    
  2.75            2.24e-006       1.0549e-008     1.33e-011      
  2.8             2.2171e-006     -1.1033e-008    2.8522e-009    
  2.85            2.2454e-006     -1.2111e-008    -1.3294e-009   
  2.9             2.2576e-006     2.5683e-008     -1.3807e-009   
  2.95            2.2587e-006     1.1723e-008     -2.398e-009    
  3               2.2607e-006     1.1923e-008     -2.3685e-009   
  3.05            2.2639e-006     1.1903e-008     -2.3423e-009   
  3.1             2.2679e-006     1.1931e-008     -2.3137e-009   
  3.15            2.2721e-006     1.1782e-008     -2.2856e-009   
  3.2             2.2751e-006     1.1926e-008     -2.256e-009    
  3.25            2.2791e-006     1.171e-008      -2.2239e-009   
  3.3             2.281e-006      1.1492e-008     -2.1927e-009   
  3.35            2.2854e-006     1.1338e-008     -2.1657e-009   
  3.4             2.2896e-006     1.0947e-008     -2.1366e-009   
  3.45            2.2924e-006     1.0532e-008     -2.1009e-009   
  3.5             2.2958e-006     1.0053e-008     -2.0701e-009   
  3.55            2.2997e-006     9.462e-009      -2.0391e-009   
  3.6             2.3046e-006     8.765e-009      -2.0068e-009   
  3.65            2.3058e-006     7.968e-009      -1.9731e-009   
  3.7             2.3126e-006     7.175e-009      -1.942e-009    
  3.75            2.3138e-006     6.091e-009      -1.9117e-009   
  3.8             2.3207e-006     5.09e-009       -1.8777e-009   
  3.85            2.3034e-006     -2.1957e-008    -2.7896e-009   
  3.9             2.3297e-006     -1.764e-009     -2.1826e-009   
  3.95            2.2908e-006     -7.587e-009     1.7155e-009    
  4               2.3164e-006     -4.4173e-008    2.0989e-009    
  4.05            2.3336e-006     -3.5786e-008    -1.8848e-009   
  4.1             2.3465e-006     -4.193e-009     -1.7348e-009   
  4.15            2.3206e-006     -1.8236e-008    2.032e-009     
  4.2             2.3321e-006     -4.7871e-008    1.608e-009     
  4.25            2.3486e-006     -4.5903e-008    -2.0606e-009   
  4.3             2.3668e-006     -2.4899e-008    -1.4551e-009   
  4.35            2.3513e-006     -3.3241e-008    2.28e-009      
  4.4             2.353e-006      -5.9289e-008    1.098e-010     
  4.45            2.3919e-006     -4.0623e-008    -2.7458e-009   
  4.5             2.3676e-006     -4.5933e-008    1.1363e-009    
  4.55            2.3811e-006     -8.6856e-008    1.3897e-009    
  4.6             2.3954e-006     -7.7255e-008    -2.231e-009    
  4.65            2.4196e-006     -6.1734e-008    -3.33e-011     
  4.7             2.4009e-006     -8.8793e-008    2.8787e-009    
  4.75            2.4346e-006     -9.7624e-008    -1.284e-009    
  4.8             2.4552e-006     -6.6615e-008    -1.3938e-009   
  4.85            2.4384e-006     -1.263e-007     2.7555e-009    
  4.9             2.4697e-006     -1.2031e-007    -1.458e-009    
  4.95            2.4865e-006     -8.814e-008     -1.3528e-009   
  5               2.4733e-006     -1.1676e-007    2.4871e-009    
END_DB

BEGIN_DB
 ICCAP_VAR VG         2              
 ICCAP_VAR VS         0              
 ICCAP_VAR VB         0              

 #VD              ID              IB              IG             
  0               -7.6737e-008    -2.2686e-008    -7.004e-010    
  0.05            6.011e-006      9.502e-009      1.568e-009     
  0.1             1.1677e-005     -2.2669e-008    1.7535e-009    
  0.15            1.6987e-005     -1.2523e-008    1.921e-010     
  0.2             2.1993e-005     1.3152e-008     -2.4136e-009   
  0.25            2.6593e-005     1.0246e-008     4.511e-010     
  0.3             3.0812e-005     -2.1946e-008    1.5822e-009    
  0.35            3.4687e-005     -1.1676e-008    1.64e-011      
  0.4             3.8265e-005     1.6004e-008     -2.1578e-009   
  0.45            4.1379e-005     1.0311e-008     6.47e-010      
  0.5             4.4133e-005     -2.4295e-008    1.4056e-009    
  0.55            4.6576e-005     -1.1162e-008    -1.732e-010    
  0.6             4.8749e-005     1.8874e-008     -1.8748e-009   
  0.65            5.046e-005      1.084e-008      8.265e-010     
  0.7             5.1882e-005     -2.6012e-008    1.3152e-009    
  0.75            5.3105e-005     -1.0841e-008    -3.924e-010    
  0.8             5.4141e-005     2.1203e-008     -1.6398e-009   
  0.85            5.4892e-005     1.1956e-008     -9.72e-011     
  0.9             5.5392e-005     -1.5796e-008    2.4678e-009    
  0.95            5.594e-005      -1.0891e-008    -6.05e-010     
  1               5.6405e-005     2.3733e-008     -1.4787e-009   
  1.05            5.6602e-005     1.0514e-008     1.1738e-009    
  1.1             5.6905e-005     -2.3478e-008    1.247e-009     
  1.15            5.7186e-005     -1.1135e-008    -8.17e-010     
  1.2             5.7446e-005     2.629e-008      -1.3971e-009   
  1.25            5.7451e-005     1.0792e-008     1.3578e-009    
  1.3             5.7666e-005     -1.9221e-008    1.8415e-009    
  1.35            5.7873e-005     -1.1437e-008    -9.889e-010    
  1.4             5.8058e-005     2.8214e-008     -1.3531e-009   
  1.45            5.8137e-005     1.027e-008      4.583e-010     
  1.5             5.8157e-005     -2.2038e-008    1.5738e-009    
  1.55            5.8262e-005     -1.1688e-008    1.25e-011      
  1.6             5.8511e-005     1.5889e-008     -2.1438e-009   
  1.65            5.8545e-005     1.039e-008      6.484e-010     
  1.7             5.8559e-005     -2.4402e-008    1.405e-009     
  1.75            5.8798e-005     -1.1147e-008    -1.3431e-009   
  1.8             5.8866e-005     1.1584e-008     -2.55e-009     
  1.85            5.8928e-005     1.03e-008       3.297e-010     
  1.9             5.8883e-005     -2.077e-008     1.7463e-009    
  1.95            5.9063e-005     -1.1245e-008    -1.0466e-009   
  2               5.9182e-005     2.848e-008      -1.3435e-009   
  2.05            5.92e-005       1.0357e-008     5.241e-010     
  2.1             5.9178e-005     -2.2774e-008    1.5088e-009    
  2.15            5.9243e-005     -1.1548e-008    -4.35e-011     
  2.2             5.945e-005      1.695e-008      -2.0533e-009   
  2.25            5.9433e-005     1.0523e-008     7.096e-010     
  2.3             5.9431e-005     -2.5045e-008    1.3649e-009    
  2.35            5.951e-005      -1.1067e-008    -2.476e-010    
  2.4             5.9689e-005     1.9608e-008     -1.7786e-009   
  2.45            5.9655e-005     1.0757e-008     8.916e-010     
  2.5             5.9662e-005     -2.6712e-008    1.2965e-009    
  2.55            5.9748e-005     -1.1122e-008    -4.663e-010    
  2.6             5.9902e-005     2.1574e-008     -1.569e-009    
  2.65            5.9962e-005     2.7804e-008     -1.3501e-009   
  2.7             5.9963e-005     9.572e-009      4.7e-010       
  2.75            5.9922e-005     -2.3391e-008    1.5512e-009    
  2.8             6.0095e-005     -1.257e-008     -1.1829e-009   
  2.85            6.0157e-005     9.371e-009      -2.6849e-009   
  2.9             6.0211e-005     1.4001e-008     -2.0846e-009   
  2.95            6.0181e-005     7.256e-009      6.877e-010     
  3               6.0155e-005     -2.8746e-008    1.3773e-009    
  3.05            6.0353e-005     -1.6271e-008    -1.3922e-009   
  3.1             6.0379e-005     5.848e-009      -2.502e-009    
  3.15            6.0425e-005     1.1883e-008     -1.784e-009    
  3.2             6.0475e-005     3.143e-009      -2.4537e-009   
  3.25            6.0505e-005     -2.86e-010      -1.3165e-009   
  3.3             6.0463e-005     -8.75e-009      2.9288e-009    
  3.35            6.062e-005      -2.8201e-008    -1.4919e-009   
  3.4             6.0591e-005     -2.0872e-008    -2.6299e-009   
  3.45            6.0505e-005     -1.2346e-008    1.8242e-009    
  3.5             6.0579e-005     -4.0172e-008    1.28e-010      
  3.55            6.0747e-005     -3.1279e-008    -1.9341e-009   
  3.6             6.0722e-005     -2.9063e-008    2.2983e-009    
  3.65            6.0762e-005     -5.5932e-008    -4.459e-010    
  3.7             6.0904e-005     -3.0463e-008    -1.5838e-009   
  3.75            6.0871e-005     -5.1952e-008    2.4851e-009    
  3.8             6.0939e-005     -8.1128e-008    -7.83e-010     
  3.85            6.1057e-005     -5.4753e-008    -1.4092e-009   
  3.9             6.1023e-005     -8.4462e-008    2.7152e-009    
  3.95            6.1082e-005     -1.1505e-007    2.9343e-009    
  4               6.1238e-005     -1.3282e-007    -1.5376e-009   
  4.05            6.124e-005      -1.1871e-007    -1.628e-009    
  4.1             6.1232e-005     -1.4802e-007    2.4616e-009    
  4.15            6.1301e-005     -1.8894e-007    -7.402e-010    
