! VERSION = 6.00
BEGIN_HEADER
 ICCAP_INPUTS
  VG         V  B GROUND SMU4 0.001 LIN        1    0          5          101  0.05      
  VS         V  E GROUND SMU2 0.1 CON        0
  VB         V  C GROUND SMU3 0.1 LIN        3    0          -5         3    -2.5      
  VD         V  S GROUND SMU1 0.1 LIN        2    0.1        5          2    4.9       
 ICCAP_OUTPUTS
  IG         I  B GROUND SMU4 B
  ID         I  S GROUND SMU1 B
  IB         I  C GROUND SMU3 B
END_HEADER

BEGIN_DB
 ICCAP_VAR VS         0              
 ICCAP_VAR VB         0              
 ICCAP_VAR VD         0.1            

 #VG              IG              ID              IB             
  0               -5.99e-011      -2.774e-010     -1.103e-008    
  0.05            1.127e-010      2.1281e-009     1.0333e-008    
  0.1             2.796e-010      2.2353e-009     1.0202e-008    
  0.15            4.558e-010      2.3302e-009     1.0442e-008    
  0.2             6.347e-010      2.4033e-009     1.0768e-008    
  0.25            -1.3154e-009    1.614e-009      2.1681e-008    
  0.3             -2.7005e-009    4.185e-010      1.2079e-008    
  0.35            9.55e-011       -1.1631e-009    7.14e-010      
  0.4             1.9786e-009     2.2266e-009     -1.0908e-008   
  0.45            2.7933e-009     1.0985e-008     1.8402e-008    
  0.5             7.866e-010      3.6971e-008     1.0532e-008    
  0.55            -3.036e-010     1.1117e-007     1.1505e-008    
  0.6             -7.858e-010     3.2062e-007     -1.1023e-008   
  0.65            1.7057e-009     8.3904e-007     -1.7138e-008   
  0.7             2.8139e-009     1.8176e-006     2.3989e-008    
  0.75            -1.808e-010     3.742e-006      1.3157e-008    
  0.8             2.2e-010        6.509e-006      1.0614e-008    
  0.85            6.5e-010        1.01678e-005    1.0365e-008    
  0.9             -1.8486e-009    1.4716e-005     2.3797e-008    
  0.95            -7.574e-010     1.951e-005      -1.0959e-008   
  1               1.7424e-009     2.4524e-005     -1.7634e-008   
  1.05            1.3499e-009     2.9639e-005     -9.369e-009    
  1.1             1.2519e-009     3.4621e-005     -8.536e-009    
  1.15            2.6615e-009     3.9507e-005     -1.3443e-008   
  1.2             2.5577e-009     4.4245e-005     8.648e-009     
  1.25            4.809e-010      4.8688e-005     1.0332e-008    
  1.3             -1.2989e-009    5.2941e-005     2.5249e-008    
  1.35            -2.3733e-009    5.6995e-005     1.3107e-008    
  1.4             -1.7739e-009    6.0849e-005     2.424e-009     
  1.45            -1.4254e-009    6.4563e-005     6.054e-009     
  1.5             -1.326e-009     6.8136e-005     1.0727e-008    
  1.55            -2.5784e-009    7.1565e-005     1.1294e-008    
  1.6             -2.0284e-009    7.4855e-005     1.12e-009      
  1.65            -1.5327e-009    7.8052e-005     4.211e-009     
  1.7             -1.36e-009      8.1151e-005     9.226e-009     
  1.75            -2.7064e-009    8.4149e-005     1.1447e-008    
  1.8             -2.2928e-009    8.7028e-005     7.44e-010      
  1.85            -1.705e-009     8.9853e-005     2.819e-009     
  1.9             -1.4069e-009    9.2606e-005     6.712e-009     
  1.95            -1.3179e-009    9.5285e-005     1.0942e-008    
  2               -2.5302e-009    9.7895e-005     1.1539e-008    
  2.05            -1.9532e-009    0.000100403     1.499e-009     
  2.1             -1.4971e-009    0.000102881     4.584e-009     
  2.15            -1.352e-009     0.000105304     9.842e-009     
  2.2             -2.6778e-009    0.000107676     1.15e-008      
  2.25            -2.22e-009      0.00010996      7.64e-010      
  2.3             -1.6596e-009    0.000112226     3.006e-009     
  2.35            2.4375e-009     0.00011454      7.218e-009     
  2.4             1.772e-009      0.00011671      -4.476e-009    
  2.45            1.3653e-009     0.00011879      -9.336e-009    
  2.5             1.2567e-009     0.00012089      -8.536e-009    
  2.55            2.691e-009      0.00012296      -1.3067e-008   
  2.6             2.5319e-009     0.00012497      9.105e-009     
  2.65            4.403e-010      0.00012698      1.0376e-008    
  2.7             8.58e-010       0.00012887      1.0655e-008    
  2.75            1.2305e-009     0.00013076      1.0642e-008    
  2.8             7.97e-011       0.00013267      1.1337e-008    
  2.85            5.061e-010      0.00013451      1.0298e-008    
  2.9             -1.2951e-009    0.00013633      2.4453e-008    
  2.95            -2.3355e-009    0.00013813      1.327e-008     
  3               -1.7401e-009    0.00013983      2.514e-009     
  3.05            -1.4209e-009    0.00014153      6.285e-009     
  3.1             -1.3183e-009    0.00014322      1.0875e-008    
  3.15            -2.5532e-009    0.00014489      1.1498e-008    
  3.2             -1.9962e-009    0.00014649      1.271e-009     
  3.25            -1.5229e-009    0.0001481       4.176e-009     
  3.3             -1.3582e-009    0.00014967      9.231e-009     
  3.35            -2.6928e-009    0.00015123      1.1585e-008    
  3.4             -2.261e-009     0.00015276      8.33e-010      
  3.45            -1.6864e-009    0.00015426      2.642e-009     
  3.5             -1.4076e-009    0.00015573      6.785e-009     
  3.55            -1.3152e-009    0.00015722      1.1109e-008    
  3.6             -2.5073e-009    0.00015865      1.1531e-008    
  3.65            -1.9309e-009    0.00016004      1.641e-009     
  3.7             -1.4932e-009    0.00016142      4.739e-009     
  3.75            -1.3488e-009    0.00016281      9.923e-009     
  3.8             -2.6653e-009    0.0001642       1.1225e-008    
  3.85            -2.2002e-009    0.00016549      7.54e-010      
  3.9             -1.6469e-009    0.0001668       2.904e-009     
  3.95            -1.3889e-009    0.00016807      7.436e-009     
  4               -1.305e-009     0.00016937      1.1459e-008    
  4.05            -2.4631e-009    0.00017065      1.2162e-008    
  4.1             -1.8721e-009    0.00017184      1.931e-009     
  4.15            -1.4659e-009    0.00017308      5.128e-009     
  4.2             -1.3394e-009    0.00017427      1.0046e-008    
  4.25            -2.6306e-009    0.00017547      1.1134e-008    
  4.3             -2.1393e-009    0.0001766       8.06e-010      
  4.35            -1.5973e-009    0.00017774      3.409e-009     
  4.4             -1.3776e-009    0.00017887      8.071e-009     
  4.45            -1.3011e-009    0.00018001      1.16e-008      
  4.5             -2.4117e-009    0.00018114      1.2608e-008    
  4.55            -1.8153e-009    0.00018218      2.176e-009     
  4.6             -1.446e-009     0.00018324      5.677e-009     
  4.65            -1.3304e-009    0.00018427      1.0384e-008    
  4.7             -2.6042e-009    0.00018533      1.1098e-008    
  4.75            -2.0801e-009    0.00018633      9.16e-010      
  4.8             -1.5615e-009    0.00018733      3.602e-009     
  4.85            -1.3699e-009    0.00018832      8.739e-009     
  4.9             -2.7258e-009    0.00018928      1.1503e-008    
  4.95            -2.3485e-009    0.00019024      5.5e-010       
  5               -8.331e-010     0.00019115      -1.1107e-008   
END_DB

BEGIN_DB
 ICCAP_VAR VS         0              
 ICCAP_VAR VB         0              
 ICCAP_VAR VD         5              

 #VG              IG              ID              IB             
  0               -1.3473e-009    -1.2005e-009    1.0606e-008    
  0.05            -1.3162e-009    3.146e-010      1.1357e-008    
  0.1             -2.7062e-009    1.2669e-009     1.1347e-008    
  0.15            -2.5802e-009    3.1431e-009     2.42e-010      
  0.2             2.7257e-009     1.5637e-008     1.5535e-008    
  0.25            -2.5191e-009    5.9899e-008     5.864e-009     
  0.3             -1.3544e-009    2.0328e-007     -1.8784e-008   
  0.35            -2.675e-009     6.1716e-007     -4.3605e-008   
  0.4             -1.3536e-009    1.6602e-006     -1.4977e-007   
  0.45            -2.6774e-009    4.0393e-006     -3.2553e-007   
  0.5             -2.2351e-009    8.1305e-006     -6.7663e-007   
  0.55            -5.577e-010     1.4735e-005     -1.1613e-006   
  0.6             -2.086e-010     2.4179e-005     -1.819e-006    
  0.65            1.817e-010      3.6168e-005     -2.6535e-006   
  0.7             6.139e-010      5.0308e-005     -3.5963e-006   
  0.75            1.0062e-009     6.6405e-005     -4.6215e-006   
  0.8             1.3918e-009     8.4134e-005     -5.6933e-006   
  0.85            1.8239e-009     0.00010364      -6.7939e-006   
  0.9             1.0523e-009     0.00012463      -7.8776e-006   
  0.95            1.4477e-009     0.00014601      -9.0123e-006   
  1               1.8819e-009     0.00016865      -1.00832e-005  
  1.05            2.2513e-009     0.00019228      -1.11401e-005  
  1.1             -2.6885e-009    0.00021636      -1.2177e-005   
  1.15            -2.2893e-009    0.00024126      -1.3162e-005   
  1.2             -1.726e-009     0.00026623      -1.4067e-005   
  1.25            -1.4143e-009    0.0002913       -1.4934e-005   
  1.3             -1.3129e-009    0.00031684      -1.574e-005    
  1.35            -2.5165e-009    0.00034269      -1.6511e-005   
  1.4             -1.9727e-009    0.00036846      -1.7232e-005   
  1.45            -1.5161e-009    0.00039465      -1.7885e-005   
  1.5             -1.3509e-009    0.00042103      -1.8484e-005   
  1.55            -2.6677e-009    0.00044756      -1.9037e-005   
  1.6             -2.2333e-009    0.00047387      -1.9555e-005   
  1.65            -1.6809e-009    0.00050061      -2.001e-005    
  1.7             -1.4033e-009    0.00052744      -2.0416e-005   
  1.75            -1.3069e-009    0.00055421      -2.077e-005    
  1.8             -2.4783e-009    0.00058117      -2.1096e-005   
  1.85            -1.9224e-009    0.0006079       -2.1381e-005   
  1.9             -1.4913e-009    0.00063489      -2.1617e-005   
  1.95            -1.3437e-009    0.00066182      -2.1801e-005   
  2               -2.6465e-009    0.0006889       -2.1953e-005   
  2.05            -2.1874e-009    0.00071562      -2.2097e-005   
  2.1             -1.6462e-009    0.00074266      -2.2184e-005   
  2.15            -1.3899e-009    0.0007696       -2.2231e-005   
  2.2             -1.3024e-009    0.00079661      -2.225e-005    
  2.25            -2.4479e-009    0.00082357      -2.2245e-005   
  2.3             -1.8843e-009    0.00085026      -2.2228e-005   
  2.35            -1.4642e-009    0.00087716      -2.2161e-005   
  2.4             -1.3292e-009    0.00090398      -2.2074e-005   
  2.45            -2.6195e-009    0.0009309       -2.197e-005    
  2.5             -2.1424e-009    0.00095749      -2.1858e-005   
  2.55            -1.6146e-009    0.00098421      -2.1709e-005   
  2.6             -1.379e-009     0.00101103      -2.154e-005    
  2.65            -1.2935e-009    0.00103766      -2.1355e-005   
  2.7             -2.4178e-009    0.00106428      -2.116e-005    
  2.75            -1.8456e-009    0.00109075      -2.0956e-005   
  2.8             -1.4516e-009    0.00111783      -2.0725e-005   
  2.85            1.253e-009      0.0011443       -2.0488e-005   
  2.9             2.6646e-009     0.0011704       -2.0271e-005   
  2.95            2.0675e-009     0.0011972       -2.0006e-005   
  3               1.4958e-009     0.0012233       -1.9742e-005   
  3.05            1.2872e-009     0.0012495       -1.9472e-005   
  3.1             2.8239e-009     0.0012757       -1.9195e-005   
  3.15            2.3538e-009     0.0013019       -1.8902e-005   
  3.2             1.7224e-009     0.001328        -1.8615e-005   
  3.25            1.3486e-009     0.0013539       -1.8322e-005   
  3.3             2.9093e-009     0.0013798       -1.8021e-005   
  3.35            2.6185e-009     0.001406        -1.7708e-005   
  3.4             1.9971e-009     0.0014319       -1.7406e-005   
  3.45            1.4658e-009     0.0014577       -1.71e-005     
  3.5             1.2867e-009     0.0014832       -1.679e-005    
  3.55            2.8175e-009     0.0015089       -1.6488e-005   
  3.6             2.3202e-009     0.0015348       -1.617e-005    
  3.65            1.6711e-009     0.0015605       -1.5862e-005   
  3.7             1.3357e-009     0.0015857       -1.5558e-005   
  3.75            2.9088e-009     0.0016112       -1.5253e-005   
  3.8             2.5953e-009     0.0016369       -1.4934e-005   
  3.85            1.9584e-009     0.0016621       -1.4632e-005   
  3.9             1.4466e-009     0.0016871       -1.4336e-005   
  3.95            1.2836e-009     0.0017121       -1.4036e-005   
  4               2.8118e-009     0.0017372       -1.3736e-005   
  4.05            2.2935e-009     0.0017624       -1.3438e-005   
  4.1             1.6427e-009     0.0017874       -1.3146e-005   
  4.15            1.3333e-009     0.0018123       -1.2863e-005   
  4.2             2.9146e-009     0.0018371       -1.2587e-005   
  4.25            2.5826e-009     0.0018622       -1.2293e-005   
  4.3             1.929e-009      0.0018868       -1.2028e-005   
  4.35            1.428e-009      0.0019116       -1.1756e-005   
  4.4             1.2844e-009     0.0019358       -1.1484e-005   
  4.45            2.7977e-009     0.0019607       -1.1223e-005   
  4.5             2.2458e-009     0.0019854       -1.0955e-005   
  4.55            1.6158e-009     0.0020097       -1.0701e-005   
  4.6             1.3292e-009     0.0020339       -1.0456e-005   
  4.65            2.9098e-009     0.0020579       -1.0212e-005   
  4.7             -2.1532e-009    0.0020828       -9.9428e-006   
  4.75            -1.5926e-009    0.0021066       -9.7167e-006   
  4.8             -1.368e-009     0.0021307       -9.4777e-006   
  4.85            -2.7267e-009    0.0021546       -9.2472e-006   
  4.9             -2.3968e-009    0.0021785       -9.0264e-006   
  4.95            -1.8078e-009    0.0022021       -8.8031e-006   
  5               -1.4248e-009    0.0022257       -8.587e-006    
END_DB

BEGIN_DB
 ICCAP_VAR VS         0              
 ICCAP_VAR VB         -2.5           
 ICCAP_VAR VD         0.1            

 #VG              IG              ID              IB             
  0               -8.737e-010     -8.684e-010     1.3202e-008    
  0.05            -2.7085e-009    1.579e-010      1.1434e-008    
  0.1             -1.919e-009     -1.3516e-009    6.17e-010      
  0.15            -5.906e-010     -2.2716e-009    -1.1228e-008   
  0.2             -7.878e-010     -2.2797e-009    -1.1367e-008   
  0.25            1.246e-009      -1.6137e-009    -1.7059e-008   
  0.3             2.82e-009       -2.642e-010     -1.4625e-008   
  0.35            2.422e-010      2.2129e-009     1.0212e-008    
  0.4             4.225e-010      2.3135e-009     1.0394e-008    
  0.45            5.972e-010      2.3823e-009     1.0792e-008    
  0.5             -1.3144e-009    1.5489e-009     2.2821e-008    
  0.55            -2.6991e-009    2.484e-010      1.1637e-008    
  0.6             1.262e-010      -1.6261e-009    6.53e-010      
  0.65            2.0221e-009     3.758e-010      -1.083e-008    
  0.7             1.725e-009      4.9734e-009     -8.866e-009    
  0.75            -1.779e-009     1.3583e-008     -9.548e-009    
  0.8             -6.27e-010      5.5558e-008     -1.085e-008    
  0.85            -2.4599e-009    1.8131e-007     1.3605e-008    
  0.9             -1.5457e-009    5.448e-007      -1.182e-008    
  0.95            2.0722e-009     1.3281e-006     1.2554e-008    
  1               1.4761e-009     2.8836e-006     -8.41e-009     
  1.05            1.2801e-009     5.3994e-006     -8.853e-009    
  1.1             2.831e-009      8.9004e-006     -1.0325e-008   
  1.15            -2.6241e-009    1.3378e-005     1.0143e-008    
  1.2             -6.516e-010     1.8153e-005     -1.0843e-008   
  1.25            1.885e-009      2.313e-005      -1.9838e-008   
  1.3             1.3872e-009     2.8212e-005     -9.602e-009    
  1.35            1.2593e-009     3.3165e-005     -8.611e-009    
  1.4             2.7393e-009     3.7944e-005     -1.2316e-008   
  1.45            6.089e-010      4.2636e-005     1.021e-008     
  1.5             -1.7474e-009    4.6987e-005     2.2502e-008    
  1.55            -1.4055e-009    5.1168e-005     6.657e-009     
  1.6             -1.3108e-009    5.5123e-005     1.0722e-008    
  1.65            -2.5337e-009    5.8901e-005     1.1537e-008    
  1.7             -1.971e-009     6.249e-005      1.413e-009     
  1.75            -1.488e-009     6.5944e-005     4.562e-009     
  1.8             -1.3408e-009    6.9268e-005     9.75e-009      
  1.85            -2.6645e-009    7.2466e-005     1.1109e-008    
  1.9             -2.2206e-009    7.5533e-005     8.02e-010      
  1.95            -1.6483e-009    7.8508e-005     2.88e-009      
  2               -1.3805e-009    8.1388e-005     7.737e-009     
  2.05            -1.2999e-009    8.4157e-005     1.1114e-008    
  2.1             -2.4589e-009    8.6875e-005     1.2312e-008    
  2.15            -7.699e-010     8.9457e-005     -1.0876e-008   
  2.2             1.7216e-009     9.1929e-005     -1.7343e-008   
  2.25            1.3333e-009     9.4447e-005     -9.326e-009    
  2.3             1.2492e-009     9.6847e-005     -8.594e-009    
  2.35            2.6358e-009     9.9228e-005     -1.3921e-008   
  2.4             1.9751e-009     0.000101532     -3.039e-009    
  2.45            1.4341e-009     0.000103753     -9.201e-009    
  2.5             1.2731e-009     0.000105947     -8.665e-009    
  2.55            2.7971e-009     0.000108102     -1.1251e-008   
  2.6             5.464e-010      0.000110234     1.019e-008     
  2.65            -1.8343e-009    0.000112289     2.4156e-008    
  2.7             2.6208e-009     0.00011441      5.704e-009     
  2.75            2.5893e-009     0.00011638      8.134e-009     
  2.8             5.192e-010      0.00011838      1.0195e-008    
  2.85            -1.2868e-009    0.0001203       2.4678e-008    
  2.9             -2.325e-009     0.00012216      1.3917e-008    
  2.95            -1.7153e-009    0.00012399      2.832e-009     
  3               -1.3989e-009    0.00012576      6.713e-009     
  3.05            -1.3093e-009    0.00012754      1.0759e-008    
  3.1             -2.5194e-009    0.00012929      1.169e-008     
  3.15            -1.953e-009     0.00013098      1.507e-009     
  3.2             -1.4815e-009    0.00013263      4.737e-009     
  3.25            -1.3354e-009    0.00013429      9.584e-009     
  3.3             -2.6544e-009    0.0001359       1.1167e-008    
  3.35            -2.2005e-009    0.00013747      8.75e-010      
  3.4             -1.6298e-009    0.00013903      3.274e-009     
  3.45            -1.3754e-009    0.00014058      7.528e-009     
  3.5             -1.2974e-009    0.0001421       1.1189e-008    
  3.55            -2.4375e-009    0.00014361      1.2311e-008    
  3.6             -1.8423e-009    0.00014503      2.212e-009     
  3.65            -1.4397e-009    0.00014651      5.467e-009     
  3.7             -1.3228e-009    0.00014788      1.0219e-008    
  3.75            -2.6016e-009    0.00014931      1.1154e-008    
  3.8             -2.0898e-009    0.00015068      9.85e-010      
  3.85            -1.5601e-009    0.00015203      3.773e-009     
  3.9             -1.3551e-009    0.00015336      8.575e-009     
  3.95            -2.7066e-009    0.00015469      1.1235e-008    
  4               -2.3349e-009    0.00015596      5.57e-010      
  4.05            -8.473e-010     0.00015724      -1.1191e-008   
  4.1             -1.2282e-009    0.00015852      -1.1146e-008   
  4.15            1.08e-011       0.00015967      -1.1778e-008   
