! VERSION = 6.00
BEGIN_HEADER
 ICCAP_INPUTS
  VG         V  B GROUND SMU4 0.001 LIN        2    0          5          6    1         
  VS         V  E GROUND SMU2 0.1 CON        0
  VD         V  S GROUND SMU1 0.1 LIN        1    0          5          101  0.05      
  VB         V  C GROUND SMU3 0.1 LIN        3    0          -2.5       2    -2.5      
 ICCAP_OUTPUTS
  ID         I  S GROUND SMU1 B
  IB         I  C GROUND SMU3 B
  IG         I  B GROUND SMU4 B
END_HEADER

BEGIN_DB
 ICCAP_VAR VG         0              
 ICCAP_VAR VS         0              
 ICCAP_VAR VB         0              

 #VD              ID              IB              IG             
  0               9.908e-010      2.214e-008      1.0174e-009    
  0.05            -1.1484e-009    -2.6445e-008    1.3756e-009    
  0.1             1.3072e-009     -8.871e-009     2.0752e-009    
  0.15            1.8709e-009     1.2873e-008     -1.5579e-009   
  0.2             -2.1794e-009    8.578e-009      -9.334e-010    
  0.25            -1.6079e-009    -1.3919e-008    1.781e-009     
  0.3             1.73e-009       -9.433e-009     1.6952e-009    
  0.35            1.4895e-009     9.78e-009       1.8718e-009    
  0.4             2.3517e-009     1.0402e-008     4.721e-010     
  0.45            1.4735e-009     2.5076e-008     -1.3319e-009   
  0.5             1.398e-010      1.1212e-008     -1.3012e-009   
  0.55            2.803e-010      1.2449e-008     -2.651e-009    
  0.6             -2.1604e-009    6.62e-010       -9.873e-010    
  0.65            -1.6327e-009    -1.3281e-008    1.6763e-009    
  0.7             1.6406e-009     -9.306e-009     1.7649e-009    
  0.75            2.3056e-009     1.0222e-008     3.615e-010     
  0.8             2.3808e-009     1.0703e-008     5.442e-010     
  0.85            1.527e-009      2.3492e-008     -1.3212e-009   
  0.9             1.875e-010      1.1471e-008     -2.7133e-009   
  0.95            -2.0011e-009    -1.1058e-008    -6.82e-011     
  1               -2.107e-009     -1.1004e-008    -2.698e-010    
  1.05            -2.1735e-009    -1.1211e-008    -4.755e-010    
  1.1             -2.2012e-009    -1.1525e-008    -6.755e-010    
  1.15            -1.4957e-009    -1.8911e-008    1.2501e-009    
  1.2             -1.161e-010     -1.3656e-008    2.8474e-009    
  1.25            2.181e-009      1.0236e-008     1.488e-010     
  1.3             2.2877e-009     1.0214e-008     3.274e-010     
  1.35            2.3707e-009     1.0519e-008     5.11e-010      
  1.4             1.5015e-009     2.4431e-008     -1.3259e-009   
  1.45            1.65e-010       1.1363e-008     -2.7219e-009   
  1.5             -1.9743e-009    -1.1114e-008    -4.06e-011     
  1.55            -2.0895e-009    -1.0941e-008    -2.299e-010    
  1.6             -2.1595e-009    -1.1169e-008    -4.435e-010    
  1.65            -2.1985e-009    -1.1526e-008    -6.333e-010    
  1.7             -1.4773e-009    -1.9892e-008    1.2552e-009    
  1.75            -8.32e-011      -1.2931e-008    2.8636e-009    
  1.8             2.1588e-009     1.0238e-008     1.205e-010     
  1.85            2.2677e-009     1.0268e-008     2.934e-010     
  1.9             2.3569e-009     1.0471e-008     4.74e-010      
  1.95            1.473e-009      2.5068e-008     -1.3335e-009   
  2               1.361e-010      1.1202e-008     -1.3023e-009   
  2.05            2.737e-010      1.2612e-008     -2.6519e-009   
  2.1             -2.1611e-009    5.64e-010       -9.829e-010    
  2.15            -1.6286e-009    -1.3292e-008    1.6988e-009    
  2.2             1.6618e-009     -9.361e-009     1.7499e-009    
  2.25            2.2968e-009     1.0174e-008     3.485e-010     
  2.3             2.3786e-009     1.0611e-008     5.325e-010     
  2.35            1.5128e-009     2.3856e-008     -1.3243e-009   
  2.4             1.832e-010      1.1366e-008     -2.7159e-009   
  2.45            -1.9891e-009    -1.1083e-008    -4.99e-011     
  2.5             -2.0919e-009    -1.1009e-008    -2.463e-010    
  2.55            -2.1646e-009    -1.1152e-008    -4.528e-010    
  2.6             -2.1975e-009    -1.153e-008     -6.5e-010      
  2.65            -2.1955e-009    -1.1442e-008    -8.396e-010    
  2.7             -2.1547e-009    -1.1219e-008    -9.929e-010    
  2.75            -1.6334e-009    -1.3257e-008    1.6874e-009    
  2.8             1.6464e-009     -9.397e-009     1.7632e-009    
  2.85            2.3062e-009     1.0251e-008     3.653e-010     
  2.9             2.3829e-009     1.0612e-008     5.442e-010     
  2.95            1.5308e-009     2.3505e-008     -1.3213e-009   
  3               1.898e-010      1.1377e-008     -2.7102e-009   
  3.05            -2.0009e-009    -1.103e-008     -7.34e-011     
  3.1             -2.103e-009     -1.1043e-008    -2.664e-010    
  3.15            -2.1678e-009    -1.1029e-008    -4.786e-010    
  3.2             -2.1989e-009    -1.1457e-008    -6.696e-010    
  3.25            -1.4945e-009    -1.8919e-008    1.2494e-009    
  3.3             -1.141e-010     -1.3588e-008    2.8458e-009    
  3.35            2.1777e-009     1.0238e-008     1.537e-010     
  3.4             2.2874e-009     1.0295e-008     3.287e-010     
  3.45            2.3724e-009     1.0494e-008     5.086e-010     
  3.5             1.5045e-009     2.4189e-008     -1.3263e-009   
  3.55            1.696e-010      1.1407e-008     -2.7186e-009   
  3.6             -1.9744e-009    -1.1175e-008    -4.57e-011     
  3.65            -2.0851e-009    -1.0972e-008    -2.397e-010    
  3.7             -2.1548e-009    -1.1008e-008    -4.352e-010    
  3.75            -2.1922e-009    -1.1428e-008    -6.357e-010    
  3.8             -2.1949e-009    -1.1406e-008    -8.277e-010    
  3.85            -2.1555e-009    -1.1327e-008    -9.8e-010      
  3.9             -1.6233e-009    -1.3445e-008    1.7015e-009    
  3.95            1.6676e-009     -9.348e-009     1.7484e-009    
  4               2.2985e-009     1.0202e-008     3.465e-010     
  4.05            2.3779e-009     1.0509e-008     5.231e-010     
  4.1             1.5174e-009     2.3874e-008     -1.3232e-009   
  4.15            1.797e-010      1.1406e-008     -2.7163e-009   
  4.2             -1.9826e-009    -1.1181e-008    -5.12e-011     
  4.25            -2.0845e-009    -1.1017e-008    -2.49e-010     
  4.3             -2.155e-009     -1.1164e-008    -4.453e-010    
  4.35            -2.1928e-009    -1.147e-008     -6.463e-010    
  4.4             -2.1865e-009    -1.1401e-008    -8.368e-010    
  4.45            -2.1506e-009    -1.1383e-008    -9.872e-010    
  4.5             -1.6272e-009    -1.3324e-008    1.6861e-009    
  4.55            1.6528e-009     -9.373e-009     1.7568e-009    
  4.6             2.3089e-009     1.0181e-008     3.614e-010     
  4.65            2.3874e-009     1.0677e-008     5.43e-010      
  4.7             1.5323e-009     2.3712e-008     -1.3217e-009   
  4.75            1.933e-010      1.1413e-008     -2.7123e-009   
  4.8             -2.1766e-009    4.62e-010       -8.866e-010    
  4.85            -2.1292e-009    -1.1224e-008    -1.0376e-009   
  4.9             -1.6524e-009    -1.2942e-008    1.6164e-009    
  4.95            1.5839e-009     -9.287e-009     1.8201e-009    
  5               2.3381e-009     1.0328e-008     4.177e-010     
END_DB

BEGIN_DB
 ICCAP_VAR VG         1              
 ICCAP_VAR VS         0              
 ICCAP_VAR VB         0              

 #VD              ID              IB              IG             
  0               -1.2622e-008    1.2172e-008     1.352e-010     
  0.05            1.0963e-006     1.5297e-008     2.3431e-009    
  0.1             1.7961e-006     -1.1947e-008    1.09e-011      
  0.15            2.2026e-006     1.134e-008      -2.6489e-009   
  0.2             2.3561e-006     1.5303e-008     -1.4872e-009   
  0.25            2.384e-006      1.0407e-008     6.902e-010     
  0.3             2.3882e-006     -1.989e-008     1.9592e-009    
  0.35            2.3913e-006     -1.109e-008     -3.694e-010    
  0.4             2.4188e-006     1.3877e-008     -2.3155e-009   
  0.45            2.4169e-006     1.1247e-008     9e-012         
  0.5             2.3908e-006     -1.031e-008     2.8236e-009    
  0.55            2.4169e-006     -1.1286e-008    -1.3185e-009   
  0.6             2.4258e-006     2.681e-008      -1.3751e-009   
  0.65            2.4203e-006     1.2684e-008     -1.546e-010    
  0.7             2.3955e-006     -8.951e-009     2.8946e-009    
  0.75            2.4015e-006     -1.7415e-008    1.6937e-009    
  0.8             2.4044e-006     -1.1017e-008    -5.589e-010    
  0.85            2.4292e-006     1.6487e-008     -2.0737e-009   
  0.9             2.4265e-006     1.0666e-008     1.761e-010     
  0.95            2.4e-006        -1.3351e-008    2.6912e-009    
  1               2.4003e-006     -1.2511e-008    1.599e-010     
  1.05            2.4264e-006     1.1088e-008     -1.2987e-009   
  1.1             2.3942e-006     1.0601e-008     1.319e-009     
  1.15            2.4051e-006     -2.6437e-008    1.3008e-009    
  1.2             2.4014e-006     -1.2273e-008    8.98e-011      
  1.25            2.4303e-006     1.1415e-008     -2.6957e-009   
  1.3             2.4311e-006     1.7384e-008     -1.5512e-009   
  1.35            2.4204e-006     1.0172e-008     6.045e-010     
  1.4             2.4101e-006     -1.8881e-008    2.1008e-009    
  1.45            2.4092e-006     -1.1181e-008    -2.683e-010    
  1.5             2.4377e-006     1.2781e-008     -2.4206e-009   
  1.55            2.4329e-006     1.1698e-008     -6.37e-011     
  1.6             2.4044e-006     -9.284e-009     2.8588e-009    
  1.65            2.429e-006      -1.136e-008     -1.2274e-009   
  1.7             2.4391e-006     2.5921e-008     -1.3977e-009   
  1.75            2.4338e-006     1.3755e-008     -2.286e-010    
  1.8             2.4093e-006     -8.65e-009      1.253e-009     
  1.85            2.4332e-006     -1.1246e-008    -1.3049e-009   
  1.9             2.4403e-006     2.6696e-008     -1.3771e-009   
  1.95            2.4346e-006     1.2799e-008     -1.618e-010    
  2               2.409e-006      -8.899e-009     2.8967e-009    
  2.05            2.4142e-006     -1.7647e-008    1.709e-009     
  2.1             2.4162e-006     -1.1099e-008    -5.482e-010    
  2.15            2.4419e-006     1.6322e-008     -2.0923e-009   
  2.2             2.4374e-006     1.0596e-008     1.628e-010     
  2.25            2.4108e-006     -1.2945e-008    2.7049e-009    
  2.3             2.4104e-006     -1.278e-008     1.669e-010     
  2.35            2.4374e-006     1.1215e-008     -1.2986e-009   
  2.4             2.4406e-006     1.951e-008      -1.7741e-009   
  2.45            2.4342e-006     9.868e-009      3.93e-010      
  2.5             2.4124e-006     -1.6679e-008    2.4352e-009    
  2.55            2.4128e-006     -1.2237e-008    -3.72e-011     
  2.6             2.4428e-006     1.0604e-008     -2.6141e-009   
  2.65            2.4412e-006     1.3837e-008     -1.4542e-009   
  2.7             2.424e-006      9.672e-009      7.453e-010     
  2.75            2.4195e-006     -2.1234e-008    1.869e-009     
  2.8             2.42e-006       -1.2006e-008    -4.354e-010    
  2.85            2.4456e-006     1.3558e-008     -2.234e-009    
  2.9             2.4467e-006     1.3477e-008     -2.2014e-009   
  2.95            2.4471e-006     1.3428e-008     -2.1631e-009   
  3               2.4473e-006     1.3606e-008     -2.1307e-009   
  3.05            2.4479e-006     1.3688e-008     -2.0912e-009   
  3.1             2.448e-006      1.3574e-008     -2.0648e-009   
  3.15            2.4485e-006     1.3605e-008     -2.0259e-009   
  3.2             2.4485e-006     1.3618e-008     -1.991e-009    
  3.25            2.4495e-006     1.3285e-008     -1.9573e-009   
  3.3             2.4489e-006     1.3373e-008     -1.9168e-009   
  3.35            2.4509e-006     1.2916e-008     -1.8873e-009   
  3.4             2.4519e-006     1.2663e-008     -1.8483e-009   
  3.45            2.4515e-006     1.2146e-008     -1.8198e-009   
  3.5             2.4522e-006     1.1666e-008     -1.7861e-009   
  3.55            2.4536e-006     1.091e-008      -1.7539e-009   
  3.6             2.4552e-006     9.983e-009      -1.7233e-009   
  3.65            2.4525e-006     -4.4e-010       -1.305e-009    
  3.7             2.4383e-006     -5.083e-009     2.6783e-009    
  3.75            2.4365e-006     -2.5404e-008    -5.011e-010    
  3.8             2.466e-006      -4.32e-010      -2.1429e-009   
  3.85            2.4246e-006     -6.418e-009     1.7051e-009    
  3.9             2.4447e-006     -4.2423e-008    2.0466e-009    
  3.95            2.4608e-006     -3.4192e-008    -1.8718e-009   
  4               2.4721e-006     -3.665e-009     -1.7008e-009   
  4.05            2.4425e-006     -1.7072e-008    2.0183e-009    
  4.1             2.4512e-006     -4.5616e-008    1.5714e-009    
  4.15            2.4623e-006     -4.3741e-008    -2.0525e-009   
  4.2             2.4815e-006     -2.3453e-008    -2.264e-010    
  4.25            2.4597e-006     -4.9309e-008    1.2534e-009    
  4.3             2.4704e-006     -5.3304e-008    -2.6153e-009   
  4.35            2.4878e-006     -3.8926e-008    4.161e-010     
  4.4             2.4727e-006     -7.0454e-008    2.3825e-009    
  4.45            2.5036e-006     -7.1239e-008    -1.7226e-009   
  4.5             2.5147e-006     -3.7948e-008    -1.3013e-009   
  4.55            2.4964e-006     -6.1334e-008    2.7142e-009    
  4.6             2.5012e-006     -8.7042e-008    -5.505e-010    
  4.65            2.533e-006      -6.6269e-008    -2.0837e-009   
  4.7             2.497e-006      -7.7693e-008    1.7443e-009    
  4.75            2.5379e-006     -1.15412e-007   -1.7302e-009   
  4.8             2.5355e-006     -1.1479e-007    -2.0157e-009   
  4.85            2.5602e-006     -9.747e-008     -1.4691e-009   
  4.9             2.5453e-006     -1.111e-007     2.2384e-009    
  4.95            2.549e-006      -1.4254e-007    1.462e-010     
  5               2.5856e-006     -1.2861e-007    -2.7217e-009   
END_DB

BEGIN_DB
 ICCAP_VAR VG         2              
 ICCAP_VAR VS         0              
 ICCAP_VAR VB         0              

 #VD              ID              IB              IG             
  0               -9.362e-008     -1.6e-010       -2.597e-009    
  0.05            6.9274e-006     -1.1362e-008    -2.5191e-009   
  0.1             1.3412e-005     1.0583e-008     -2.4921e-009   
  0.15            1.9483e-005     1.0548e-008     7.676e-010     
  0.2             2.5129e-005     -2.5564e-008    1.3443e-009    
  0.25            3.0373e-005     -1.1123e-008    -3.154e-010    
  0.3             3.5246e-005     2.0846e-008     -1.6837e-009   
  0.35            3.966e-005      1.2644e-008     -1.415e-010    
  0.4             4.3622e-005     -1.5506e-008    2.4942e-009    
  0.45            4.7258e-005     -1.1057e-008    -5.395e-010    
  0.5             5.0523e-005     2.3236e-008     -1.5048e-009   
  0.55            5.3242e-005     1.0563e-008     1.1214e-009    
  0.6             5.5671e-005     -2.3872e-008    1.2508e-009    
  0.65            5.7733e-005     -1.1189e-008    -7.612e-010    
  0.7             5.9436e-005     2.5795e-008     -1.4061e-009   
  0.75            6.0537e-005     1.0626e-008     1.3014e-009    
  0.8             6.1496e-005     -1.9834e-008    1.885e-009     
  0.85            6.2161e-005     -1.1578e-008    -9.454e-010    
  0.9             6.2558e-005     2.7583e-008     -1.3555e-009   
  0.95            6.2682e-005     1.0117e-008     4.321e-010     
  1               6.264e-005      -2.2124e-008    1.5963e-009    
  1.05            6.2677e-005     -1.2173e-008    3.9e-011       
  1.1             6.2878e-005     1.5557e-008     -2.1387e-009   
  1.15            6.282e-005      1.0253e-008     6.291e-010     
  1.2             6.2742e-005     -2.4486e-008    1.4167e-009    
  1.25            6.2929e-005     -1.1385e-008    -1.3082e-009   
  1.3             6.2937e-005     1.1374e-008     -2.5044e-009   
  1.35            6.2913e-005     1.0197e-008     3.289e-010     
  1.4             6.28e-005       -2.1047e-008    1.7329e-009    
  1.45            6.2789e-005     -1.2567e-008    1.335e-010     
  1.5             6.2977e-005     1.4236e-008     -2.2775e-009   
  1.55            6.2837e-005     9.866e-009      2.0937e-009    
  1.6             6.2841e-005     -1.167e-008     -1.523e-010    
  1.65            6.2986e-005     1.8966e-008     -1.8517e-009   
  1.7             6.2895e-005     1.0547e-008     8.229e-010     
  1.75            6.2848e-005     -2.5927e-008    1.3207e-009    
  1.8             6.2894e-005     -1.097e-008     -3.851e-010    
  1.85            6.3012e-005     2.1644e-008     -1.6175e-009   
  1.9             6.2988e-005     1.2015e-008     -8.8e-011      
  1.95            6.2852e-005     -1.6328e-008    2.4055e-009    
  2               6.2936e-005     -1.1101e-008    -6.127e-010    
  2.05            6.3039e-005     2.4133e-008     -1.464e-009    
  2.1             6.3028e-005     1.1016e-008     9.87e-011      
  2.15            6.2901e-005     -1.8956e-008    2.1009e-009    
  2.2             6.2986e-005     -1.1172e-008    -8.286e-010    
  2.25            6.3062e-005     2.6404e-008     -1.385e-009    
  2.3             6.3038e-005     1.0336e-008     2.93e-010      
  2.35            6.2911e-005     -2.0968e-008    1.7808e-009    
  2.4             6.3026e-005     -1.1721e-008    -1.0001e-009   
  2.45            6.3075e-005     2.7821e-008     -1.3424e-009   
  2.5             6.3025e-005     1.0255e-008     4.967e-010     
  2.55            6.2919e-005     -2.2919e-008    1.5269e-009    
  2.6             6.2922e-005     -1.2068e-008    -1.9e-011      
  2.65            6.3092e-005     1.6445e-008     -2.0415e-009   
  2.7             6.3005e-005     1.0261e-008     6.918e-010     
  2.75            6.293e-005      -2.5138e-008    1.3776e-009    
  2.8             6.3115e-005     -1.1779e-008    -1.3743e-009   
  2.85            6.3112e-005     1.1574e-008     -2.4427e-009   
  2.9             6.31e-005       1.9297e-008     -1.7412e-009   
  2.95            6.3111e-005     2.539e-008      -1.3841e-009   
  3               6.3104e-005     1.9426e-008     -1.686e-009    
  3.05            6.3119e-005     2.5155e-008     -1.3705e-009   
  3.1             6.3112e-005     1.8849e-008     -1.6326e-009   
  3.15            6.313e-005      1.056e-008      -2.2603e-009   
  3.2             6.3123e-005     1.7784e-008     -1.5851e-009   
  3.25            6.3139e-005     9.356e-009      -2.1999e-009   
  3.3             6.3132e-005     4.88e-009       -2.6777e-009   
  3.35            6.3145e-005     7.237e-009      -2.1328e-009   
  3.4             6.3148e-005     1.078e-009      -2.6477e-009   
  3.45            6.3154e-005     3.59e-009       -2.0647e-009   
  3.5             6.3032e-005     -5.908e-009     2.215e-009     
  3.55            6.3032e-005     -2.978e-008     -3.346e-010    
  3.6             6.3139e-005     -1.7533e-008    -1.4576e-009   
  3.65            6.3074e-005     -1.8969e-008    2.5998e-009    
  3.7             6.312e-005      -4.3434e-008    -9.132e-010    
  3.75            6.3191e-005     -1.0388e-008    -1.3627e-009   
  3.8             6.3094e-005     -3.6698e-008    2.8165e-009    
  3.85            6.3195e-005     -6.3233e-008    -1.1791e-009   
  3.9             6.3221e-005     -3.4076e-008    -1.3079e-009   
  3.95            6.3118e-005     -6.5398e-008    2.9087e-009    
  4               6.3269e-005     -9.3155e-008    -1.4749e-009   
  4.05            6.3239e-005     -7.4261e-008    -1.644e-009    
  4.1             6.3176e-005     -1.1974e-007    2.5045e-009    
  4.15            6.3222e-005     -1.3534e-007    -8.189e-010    
