! VERSION = 6.00
BEGIN_HEADER
 ICCAP_INPUTS
  VG         V  B GROUND SMU4 0.001 LIN        1    0          5          101  0.05      
  VS         V  E GROUND SMU2 0.1 CON        0
  VB         V  C GROUND SMU3 0.1 LIN        3    0          -5         3    -2.5      
  VD         V  S GROUND SMU1 0.1 LIN        2    0.1        5          2    4.9       
 ICCAP_OUTPUTS
  IG         I  B GROUND SMU4 B
  ID         I  S GROUND SMU1 B
  IB         I  C GROUND SMU3 B
END_HEADER

BEGIN_DB
 ICCAP_VAR VS         0              
 ICCAP_VAR VB         0              
 ICCAP_VAR VD         0.1            

 #VG              IG              ID              IB             
  0               8.049e-010      8.342e-010      2.653e-008     
  0.05            2.8224e-009     -1.853e-010     -1.3631e-008   
  0.1             1.839e-010      2.1891e-009     1.0192e-008    
  0.15            3.824e-010      2.3023e-009     1.0262e-008    
  0.2             -1.3552e-009    1.375e-009      2.5962e-008    
  0.25            -1.3197e-009    1.55e-011       1.1231e-008    
  0.3             -2.6924e-009    1.9e-010        1.1741e-008    
  0.35            -9.448e-010     -2.1337e-009    5.86e-010      
  0.4             1.7663e-009     -1.2614e-009    -1.372e-008    
  0.45            2.659e-009      2.5987e-009     -9.176e-009    
  0.5             1.4133e-009     7.5577e-009     1.119e-008     
  0.55            -2.7096e-009    1.9268e-008     -1.0951e-008   
  0.6             -3.605e-010     5.8847e-008     -1.0906e-008   
  0.65            -2.7118e-009    1.5966e-007     1.0338e-008    
  0.7             -2.3236e-009    3.5287e-007     5.82e-010      
  0.75            -1.7314e-009    6.7319e-007     2.614e-009     
  0.8             -2.3225e-009    1.1649e-006     -1.7321e-008   
  0.85            -2.35e-010      1.9147e-006     -1.1128e-008   
  0.9             -7.442e-010     2.9989e-006     -1.0995e-008   
  0.95            1.7093e-009     4.4019e-006     -1.7027e-008   
  1               1.3364e-009     6.1192e-006     -9.117e-009    
  1.05            2.8917e-009     8.0505e-006     -8.775e-009    
  1.1             3.006e-010      1.01822e-005    1.0303e-008    
  1.15            -2.7961e-009    1.2318e-005     1.0681e-008    
  1.2             2.41e-011       1.4392e-005     -1.2032e-008   
  1.25            -4.802e-010     1.6482e-005     -1.0839e-008   
  1.3             2.061e-009      1.8485e-005     -2.1955e-008   
  1.35            1.4687e-009     2.0431e-005     -8.39e-009     
  1.4             1.2815e-009     2.2287e-005     -8.686e-009    
  1.45            2.7816e-009     2.4095e-005     -1.088e-008    
  1.5             1.4714e-009     2.5831e-005     1.1302e-008    
  1.55            3.261e-010      2.7575e-005     1.029e-008     
  1.6             7.718e-010      2.9182e-005     1.0579e-008    
  1.65            -1.555e-009     3.0764e-005     1.7469e-008    
  1.7             -1.3622e-009    3.2308e-005     8.951e-009     
  1.75            -2.6841e-009    3.3795e-005     1.1562e-008    
  1.8             -2.2372e-009    3.5221e-005     7.26e-010      
  1.85            -1.6682e-009    3.662e-005      2.951e-009     
  1.9             -1.3962e-009    3.7987e-005     7.279e-009     
  1.95            -2.7431e-009    3.9319e-005     1.137e-008     
  2               -2.851e-010     4.0583e-005     -1.105e-008    
  2.05            -7.813e-010     4.1866e-005     -1.1024e-008   
  2.1             1.6624e-009     4.3075e-005     -1.6382e-008   
  2.15            1.3212e-009     4.4293e-005     -9.003e-009    
  2.2             2.8828e-009     4.5471e-005     -9.013e-009    
  2.25            3.527e-010      4.6664e-005     1.0195e-008    
  2.3             8.008e-010      4.779e-005      1.0671e-008    
  2.35            -1.536e-009     4.8895e-005     1.698e-008     
  2.4             -1.3567e-009    5.0014e-005     9.313e-009     
  2.45            -2.6701e-009    5.1094e-005     1.1367e-008    
  2.5             -2.2009e-009    5.2135e-005     9.6e-010       
  2.55            -1.6412e-009    5.3172e-005     3.09e-009      
  2.6             -1.3872e-009    5.4192e-005     7.72e-009      
  2.65            -2.7353e-009    5.5196e-005     1.1379e-008    
  2.7             -3.116e-010     5.6157e-005     -1.0933e-008   
  2.75            -8.115e-010     5.7132e-005     -1.1116e-008   
  2.8             1.6249e-009     5.806e-005      -1.5885e-008   
  2.85            1.3116e-009     5.9018e-005     -9.012e-009    
  2.9             2.8678e-009     5.9932e-005     -9e-009        
  2.95            3.804e-010      6.0861e-005     1.0268e-008    
  3               -1.3104e-009    6.1767e-005     2.6053e-008    
  3.05            -2.4183e-009    6.2651e-005     1.2675e-008    
  3.1             -1.8112e-009    6.3491e-005     2.213e-009     
  3.15            -1.4409e-009    6.4341e-005     5.812e-009     
  3.2             -1.3277e-009    6.5184e-005     1.0449e-008    
  3.25            -2.5506e-009    6.6019e-005     1.1329e-008    
  3.3             -1.9871e-009    6.6823e-005     1.343e-009     
  3.35            -1.5064e-009    6.7616e-005     4.213e-009     
  3.4             -1.3532e-009    6.8402e-005     9.46e-009      
  3.45            -2.6547e-009    6.9192e-005     1.1348e-008    
  3.5             -2.1715e-009    6.9944e-005     7.16e-010      
  3.55            -1.6073e-009    7.0696e-005     3.398e-009     
  3.6             -1.3802e-009    7.1443e-005     7.977e-009     
  3.65            -2.7235e-009    7.2173e-005     1.1476e-008    
  3.7             -2.3373e-009    7.2882e-005     5.4e-010       
  3.75            -1.7516e-009    7.3592e-005     2.606e-009     
  3.8             -1.4179e-009    7.4292e-005     6.296e-009     
  3.85            -1.3189e-009    7.4991e-005     1.0788e-008    
  3.9             -2.4956e-009    7.5676e-005     1.1759e-008    
  3.95            -1.909e-009     7.6327e-005     1.745e-009     
  4               -1.4747e-009    7.699e-005      4.819e-009     
  4.05            -1.3426e-009    7.764e-005      9.992e-009     
  4.1             -2.6075e-009    7.8289e-005     1.1169e-008    
  4.15            -2.0853e-009    7.8901e-005     9.5e-010       
  4.2             -1.5569e-009    7.9526e-005     3.741e-009     
  4.25            -1.3678e-009    8.0157e-005     8.779e-009     
  4.3             -2.6975e-009    8.074e-005      1.1596e-008    
  4.35            -2.2632e-009    8.1332e-005     6.78e-010      
  4.4             -1.6781e-009    8.192e-005      2.96e-009      
  4.45            -1.3985e-009    8.2492e-005     7.138e-009     
  4.5             -2.7493e-009    8.3067e-005     1.1384e-008    
  4.55            -2.653e-010     8.3614e-005     -1.116e-008    
  4.6             -7.68e-010      8.4168e-005     -1.1033e-008   
  4.65            1.6755e-009     8.4671e-005     -1.6422e-008   
  4.7             1.3296e-009     8.5233e-005     -9.048e-009    
  4.75            2.8894e-009     8.5756e-005     -8.675e-009    
  4.8             3.427e-010      8.6287e-005     1.0298e-008    
  4.85            7.888e-010      8.679e-005      1.0621e-008    
  4.9             -1.5373e-009    8.7266e-005     1.6923e-008    
  4.95            -1.3569e-009    8.7797e-005     9.014e-009     
  5               -2.6799e-009    8.8284e-005     1.1578e-008    
END_DB

BEGIN_DB
 ICCAP_VAR VS         0              
 ICCAP_VAR VB         0              
 ICCAP_VAR VD         5              

 #VG              IG              ID              IB             
  0               -7.45e-010      -7.921e-010     -2.6005e-008   
  0.05            -1.3077e-009    1.6131e-009     1.9634e-008    
  0.1             -2.6341e-009    2.528e-010      1.3351e-008    
  0.15            -1.039e-009     -2.1966e-009    8.26e-010      
  0.2             1.6078e-009     -1.6769e-009    -1.2477e-008   
  0.25            1.8505e-009     1.7273e-009     -8.951e-009    
  0.3             4.497e-010      3.213e-009      1.0405e-008    
  0.35            -1.3385e-009    5.0708e-009     2.5004e-008    
  0.4             -9.089e-010     1.1418e-008     -1.591e-009    
  0.45            -1.3068e-009    4.7038e-008     -1.5416e-008   
  0.5             -2.3398e-009    1.5464e-007     -2.075e-009    
  0.55            -1.7172e-009    3.9751e-007     -2.7938e-008   
  0.6             -1.402e-009     8.9054e-007     -5.9976e-008   
  0.65            -5.45e-011      1.7708e-006     -1.1864e-007   
  0.7             4.09e-010       3.2934e-006     -2.2235e-007   
  0.75            8.547e-010      5.6385e-006     -3.8124e-007   
  0.8             1.2438e-009     8.9937e-006     -6.0261e-007   
  0.85            -1.5761e-009    1.3711e-005     -8.6175e-007   
  0.9             1.2673e-009     1.9131e-005     -1.2648e-006   
  0.95            2.7246e-009     2.5697e-005     -1.611e-006    
  1               2.1066e-009     3.324e-005      -1.9987e-006   
  1.05            1.489e-009      4.1505e-005     -2.4238e-006   
  1.1             1.2828e-009     5.0377e-005     -2.8484e-006   
  1.15            2.8111e-009     5.9969e-005     -3.2763e-006   
  1.2             2.3066e-009     6.9998e-005     -3.6818e-006   
  1.25            1.6245e-009     8.0351e-005     -4.0887e-006   
  1.3             1.3117e-009     9.094e-005      -4.4748e-006   
  1.35            2.8723e-009     0.000101926     -4.8457e-006   
  1.4             2.4856e-009     0.000113297     -5.1869e-006   
  1.45            2.8956e-009     0.00012471      -5.5072e-006   
  1.5             2.5655e-009     0.00013647      -5.8207e-006   
  1.55            1.8813e-009     0.00014826      -6.1067e-006   
  1.6             1.3877e-009     0.00016019      -6.3751e-006   
  1.65            1.2614e-009     0.00017224      -6.6121e-006   
  1.7             2.7061e-009     0.0001843       -6.832e-006    
  1.75            2.0794e-009     0.00019668      -7.0166e-006   
  1.8             1.4717e-009     0.00020905      -7.1978e-006   
  1.85            1.2795e-009     0.00022145      -7.3556e-006   
  1.9             2.7997e-009     0.00023391      -7.4912e-006   
  1.95            2.2773e-009     0.00024658      -7.6003e-006   
  2               1.5976e-009     0.00025921      -7.7023e-006   
  2.05            1.3059e-009     0.00027181      -7.7862e-006   
  2.1             2.8673e-009     0.00028442      -7.8489e-006   
  2.15            2.4573e-009     0.00029729      -7.8896e-006   
  2.2             1.7536e-009     0.00031002      -7.9267e-006   
  2.25            1.344e-009      0.00032277      -7.9547e-006   
  2.3             2.8955e-009     0.00033554      -7.96e-006     
  2.35            2.6088e-009     0.00034841      -7.9457e-006   
  2.4             1.9402e-009     0.00036124      -7.9305e-006   
  2.45            1.4101e-009     0.00037405      -7.9078e-006   
  2.5             1.2683e-009     0.00038684      -7.8702e-006   
  2.55            2.7373e-009     0.00039965      -7.8229e-006   
  2.6             2.1402e-009     0.00041262      -7.7591e-006   
  2.65            1.5051e-009     0.00042549      -7.7e-006      
  2.7             1.2884e-009     0.0004383       -7.6289e-006   
  2.75            2.8208e-009     0.00045109      -7.5499e-006   
  2.8             2.334e-009      0.00046427      -7.4578e-006   
  2.85            1.6341e-009     0.00047711      -7.373e-006    
  2.9             1.3171e-009     0.00048988      -7.2807e-006   
  2.95            2.8798e-009     0.00050267      -7.178e-006    
  3               2.5048e-009     0.00051563      -7.0695e-006   
  3.05            1.8147e-009     0.00052842      -6.9663e-006   
  3.1             1.3623e-009     0.00054118      -6.8608e-006   
  3.15            2.9056e-009     0.00055394      -6.7462e-006   
  3.2             2.6452e-009     0.00056681      -6.6238e-006   
  3.25            2.0126e-009     0.00057954      -6.5087e-006   
  3.3             1.4369e-009     0.00059226      -6.3936e-006   
  3.35            1.2721e-009     0.00060494      -6.277e-006    
  3.4             2.7675e-009     0.00061763      -6.1584e-006   
  3.45            2.2022e-009     0.00063046      -6.0296e-006   
  3.5             1.545e-009      0.00064312      -5.9101e-006   
  3.55            1.294e-009      0.00065573      -5.7902e-006   
  3.6             2.8372e-009     0.0006683       -5.6688e-006   
  3.65            2.3951e-009     0.00068107      -5.5386e-006   
  3.7             1.6901e-009     0.00069363      -5.4154e-006   
  3.75            1.3274e-009     0.00070611      -5.3015e-006   
  3.8             2.8863e-009     0.00071867      -5.1811e-006   
  3.85            2.5512e-009     0.00073131      -5.0528e-006   
  3.9             1.8685e-009     0.00074379      -4.9363e-006   
  3.95            1.382e-009      0.00075622      -4.8232e-006   
  4               1.2588e-009     0.00076863      -4.7078e-006   
  4.05            2.6912e-009     0.0007811       -4.5945e-006   
  4.1             2.0629e-009     0.00079362      -4.4704e-006   
  4.15            1.4645e-009     0.00080597      -4.3646e-006   
  4.2             1.2777e-009     0.00081825      -4.2543e-006   
  4.25            2.7928e-009     0.00083061      -4.1508e-006   
  4.3             2.2547e-009     0.000843        -4.0383e-006   
  4.35            1.5817e-009     0.0008553       -3.935e-006    
  4.4             1.3043e-009     0.0008675       -3.8391e-006   
  4.45            2.8581e-009     0.00087983      -3.7354e-006   
  4.5             2.4332e-009     0.00089217      -3.6281e-006   
  4.55            1.7428e-009     0.00090438      -3.5349e-006   
  4.6             1.3433e-009     0.00091639      -3.4465e-006   
  4.65            2.8988e-009     0.00092854      -3.3522e-006   
  4.7             2.5912e-009     0.00094071      -3.2544e-006   
  4.75            1.9221e-009     0.00095269      -3.1685e-006   
  4.8             1.4053e-009     0.00096467      -3.0863e-006   
  4.85            1.2684e-009     0.00097662      -3.0033e-006   
  4.9             2.7232e-009     0.00098852      -2.921e-006    
  4.95            2.1228e-009     0.00100057      -2.8305e-006   
  5               1.5012e-009     0.00101245      -2.7569e-006   
END_DB

BEGIN_DB
 ICCAP_VAR VS         0              
 ICCAP_VAR VB         -2.5           
 ICCAP_VAR VD         0.1            

 #VG              IG              ID              IB             
  0               1.3035e-009     1.3612e-009     7.037e-009     
  0.05            1.2665e-009     7.1e-011        -9.247e-009    
  0.1             2.8814e-009     -6.16e-011      -1.2319e-008   
  0.15            7.17e-011       2.1304e-009     1.0178e-008    
  0.2             2.732e-010      2.2498e-009     1.0309e-008    
  0.25            4.687e-010      2.3438e-009     1.0456e-008    
  0.3             -1.3349e-009    1.4539e-009     2.4949e-008    
  0.35            -2.7326e-009    8.18e-011       1.1228e-008    
  0.4             -8.8e-012       -2.0608e-009    -1.0912e-008   
  0.45            -2.357e-010     -2.1798e-009    -1.1009e-008   
  0.5             -4.658e-010     -2.2468e-009    -1.1045e-008   
  0.55            1.2827e-009     -1.4402e-009    -2.2596e-008   
  0.6             2.8996e-009     3.6e-012        -1.0819e-008   
  0.65            1.8624e-009     1.5224e-009     -4.14e-010     
  0.7             4.535e-010      2.3805e-009     1.0569e-008    
  0.75            -2.2605e-009    7.713e-010      1.8762e-008    
  0.8             1.5608e-009     -9.095e-010     -1.2279e-008   
  0.85            1.3911e-009     3.6896e-009     -8.742e-009    
  0.9             2.8848e-009     1.4131e-008     2.0492e-008    
  0.95            -8.26e-011      4.7573e-008     1.1724e-008    
  1               2.916e-009      1.3208e-007     -1.0798e-008   
  1.05            2.7912e-009     3.1538e-007     3.85e-010      
  1.1             5.069e-010      6.4502e-007     1.038e-008     
  1.15            -1.3135e-009    1.1894e-006     -1.1703e-008   
  1.2             -2.4605e-009    2.0053e-006     1.2389e-008    
  1.25            -1.8534e-009    3.14e-006       2.04e-009      
  1.3             -1.4444e-009    4.6217e-006     5.418e-009     
  1.35            -1.3303e-009    6.3939e-006     1.0063e-008    
  1.4             -2.5778e-009    8.3539e-006     1.1349e-008    
  1.45            -2.0263e-009    1.04102e-005    1.137e-009     
  1.5             2.1784e-009     1.2472e-005     4.362e-009     
  1.55            1.5215e-009     1.4543e-005     -7.171e-009    
  1.6             1.2928e-009     1.6563e-005     -8.703e-009    
  1.65            2.8299e-009     1.8521e-005     -9.955e-009    
  1.7             4.554e-010      2.0458e-005     1.0246e-008    
  1.75            -1.8934e-009    2.2295e-005     2.5178e-008    
  1.8             -1.453e-009     2.4021e-005     5.071e-009     
  1.85            -1.3357e-009    2.5707e-005     9.964e-009     
  1.9             -2.5969e-009    2.7335e-005     1.123e-008     
  1.95            -2.0611e-009    2.8871e-005     1.002e-009     
  2               -1.5238e-009    3.0378e-005     3.954e-009     
  2.05            -1.3551e-009    3.184e-005      9.067e-009     
  2.1             -2.6765e-009    3.3257e-005     1.1329e-008    
  2.15            -2.2293e-009    3.4605e-005     7.8e-010       
  2.2             -1.6351e-009    3.5936e-005     3.084e-009     
  2.25            -1.3835e-009    3.7223e-005     7.516e-009     
  2.3             -2.7311e-009    3.8485e-005     1.122e-008     
  2.35            -2.962e-010     3.9677e-005     -1.0934e-008   
  2.4             -8.057e-010     4.0879e-005     -1.1275e-008   
  2.45            1.6145e-009     4.2004e-005     -1.5766e-008   
  2.5             1.3096e-009     4.3159e-005     -8.911e-009    
  2.55            2.8687e-009     4.4264e-005     -8.999e-009    
  2.6             3.813e-010      4.538e-005      1.0137e-008    
  2.65            -1.3086e-009    4.6458e-005     2.6317e-008    
  2.7             -2.4271e-009    4.7507e-005     1.2982e-008    
  2.75            -1.8122e-009    4.8508e-005     2.272e-009     
  2.8             -1.4279e-009    4.9525e-005     5.809e-009     
  2.85            -1.3243e-009    5.0513e-005     1.047e-008     
  2.9             -2.5479e-009    5.1487e-005     1.1439e-008    
  2.95            -1.9679e-009    5.2413e-005     1.313e-009     
  3               -1.4914e-009    5.3345e-005     4.637e-009     
  3.05            -1.3443e-009    5.4256e-005     9.524e-009     
  3.1             -2.6451e-009    5.5158e-005     1.133e-008     
  3.15            -2.1597e-009    5.6026e-005     8.4e-010       
  3.2             -1.5848e-009    5.6899e-005     3.521e-009     
  3.25            -1.366e-009     5.7749e-005     8.148e-009     
  3.3             -2.708e-009     5.8588e-005     1.1409e-008    
  3.35            -2.3188e-009    5.9404e-005     5.98e-010      
  3.4             -1.7122e-009    6.0218e-005     2.775e-009     
  3.45            -1.399e-009     6.1014e-005     6.646e-009     
  3.5             -1.3103e-009    6.1807e-005     1.0763e-008    
  3.55            -2.4801e-009    6.2586e-005     1.237e-008     
  3.6             -1.8766e-009    6.3331e-005     1.935e-009     
  3.65            -1.4486e-009    6.4083e-005     5.335e-009     
  3.7             -1.3312e-009    6.4822e-005     1.0196e-008    
  3.75            -2.5884e-009    6.5547e-005     1.1258e-008    
  3.8             -2.046e-009     6.6252e-005     1.038e-009     
  3.85            -1.5277e-009    6.6955e-005     3.985e-009     
  3.9             -1.3523e-009    6.7645e-005     9.076e-009     
  3.95            -2.6726e-009    6.8343e-005     1.1425e-008    
  4               -2.2222e-009    6.9001e-005     8.1e-010       
  4.05            -1.6358e-009    6.9662e-005     3.158e-009     
  4.1             -1.3781e-009    7.0315e-005     7.529e-009     
  4.15            -2.73e-009      7.0961e-005     1.1288e-008    
