! VERSION = 6.00
BEGIN_HEADER
 ICCAP_INPUTS
  VG         V  B GROUND SMU4 0.001 LIN        1    0          5          101  0.05      
  VS         V  E GROUND SMU3 0.1 CON        0
  VB         V  C GROUND SMU1 0.1 LIN        3    0          -5         3    -2.5      
  VD         V  S GROUND SMU2 0.1 LIN        2    0.1        5          2    4.9       
 ICCAP_OUTPUTS
  IG         I  B GROUND SMU4 B
  ID         I  S GROUND SMU2 B
  IB         I  C GROUND SMU1 B
END_HEADER

BEGIN_DB
 ICCAP_VAR VS         0              
 ICCAP_VAR VB         0              
 ICCAP_VAR VD         0.1            

 #VG              IG              ID              IB             
  0               -9.94e-011      1.8822e-009     5.033e-009     
  0.05            -1.3946e-009    1.7385e-009     1.2442e-008    
  0.1             1.3998e-009     -1.6914e-009    -1.2497e-008   
  0.15            -1.4121e-009    1.622e-009      1.2512e-008    
  0.2             1.4119e-009     -1.5702e-009    -1.2802e-008   
  0.25            -1.4236e-009    1.5155e-009     1.2728e-008    
  0.3             1.4165e-009     -1.4568e-009    -1.3055e-008   
  0.35            -1.4204e-009    1.4773e-009     1.3133e-008    
  0.4             8.181e-010      2.3387e-009     -3.514e-009    
  0.45            -1.4221e-009    2.3846e-009     1.2812e-008    
  0.5             1.4153e-009     2.0539e-009     -1.3035e-008   
  0.55            1.3838e-009     1.4243e-008     1.2676e-008    
  0.6             -1.4173e-009    4.7352e-008     1.3161e-008    
  0.65            7.387e-010      1.4678e-007     -1.3205e-008   
  0.7             -1.3967e-009    3.8752e-007     1.2776e-008    
  0.75            1.3319e-009     8.511e-007      -1.2656e-008   
  0.8             -1.1533e-009    1.6467e-006     -1.2491e-008   
  0.85            1.3479e-009     2.7611e-006     -1.307e-008    
  0.9             -1.4196e-009    4.2389e-006     1.3002e-008    
  0.95            1.3802e-009     5.9873e-006     -1.2782e-008   
  1               -1.3301e-009    8.0178e-006     1.2675e-008    
  1.05            1.4171e-009     1.01267e-005    -1.3343e-008   
  1.1             8.688e-010      1.2374e-005     -1.2972e-008   
  1.15            -1.3449e-009    1.4579e-005     1.2529e-008    
  1.2             1.4167e-009     1.6651e-005     -1.31e-008     
  1.25            -1.3792e-009    1.8698e-005     1.2563e-008    
  1.3             1.3198e-009     2.0585e-005     -1.2594e-008   
  1.35            -1.4174e-009    2.2437e-005     1.3058e-008    
  1.4             1.3496e-009     2.416e-005      -1.2609e-008   
  1.45            -1.4197e-009    2.5835e-005     1.3107e-008    
  1.5             1.3864e-009     2.7396e-005     -1.2763e-008   
  1.55            -1.3319e-009    2.8929e-005     1.2635e-008    
  1.6             1.4141e-009     3.0356e-005     -1.34e-008     
  1.65            -1.3694e-009    3.1776e-005     1.2485e-008    
  1.7             1.3236e-009     3.3105e-005     -1.2934e-008   
  1.75            -1.4203e-009    3.4426e-005     1.3295e-008    
  1.8             1.359e-009      3.5646e-005     -1.2626e-008   
  1.85            -1.4095e-009    3.6855e-005     1.2911e-008    
  1.9             1.3936e-009     3.8025e-005     -1.2937e-008   
  1.95            -1.3418e-009    3.9169e-005     1.252e-008     
  2               1.4169e-009     4.0254e-005     -1.3252e-008   
  2.05            -1.3754e-009    4.1346e-005     1.2476e-008    
  2.1             1.4098e-009     4.2355e-005     -1.2551e-008   
  2.15            -1.3919e-009    4.3381e-005     1.2817e-008    
  2.2             1.3323e-009     4.4354e-005     -1.2744e-008   
  2.25            -1.423e-009     4.5327e-005     1.318e-008     
  2.3             1.3653e-009     4.6246e-005     -1.2639e-008   
  2.35            -1.4184e-009    4.7173e-005     1.2584e-008    
  2.4             1.387e-009      4.8039e-005     -1.276e-008    
  2.45            -1.3318e-009    4.8928e-005     1.2768e-008    
  2.5             1.4161e-009     4.9772e-005     -1.3359e-008   
  2.55            -1.3686e-009    5.0605e-005     1.2393e-008    
  2.6             1.3243e-009     5.1404e-005     -1.2901e-008   
  2.65            -1.421e-009     5.2219e-005     1.3327e-008    
  2.7             1.36e-009       5.2978e-005     -1.2594e-008   
  2.75            -1.4098e-009    5.3771e-005     1.2914e-008    
  2.8             1.392e-009      5.4488e-005     -1.2932e-008   
  2.85            -1.341e-009     5.5248e-005     1.2567e-008    
  2.9             1.4176e-009     5.5943e-005     -1.3268e-008   
  2.95            -1.3764e-009    5.6664e-005     1.2542e-008    
  3               1.4104e-009     5.7319e-005     -1.2587e-008   
  3.05            -1.3946e-009    5.8034e-005     1.2765e-008    
  3.1             1.333e-009      5.8678e-005     -1.2588e-008   
  3.15            -1.4255e-009    5.9339e-005     1.3214e-008    
  3.2             1.3681e-009     5.9956e-005     -1.2638e-008   
  3.25            -1.4204e-009    6.06e-005       1.2556e-008    
  3.3             1.3888e-009     6.1201e-005     -1.2768e-008   
  3.35            -1.3339e-009    6.1831e-005     1.2743e-008    
  3.4             1.4182e-009     6.2389e-005     -1.3319e-008   
  3.45            -1.3698e-009    6.2999e-005     1.2439e-008    
  3.5             1.3271e-009     6.357e-005      -1.2908e-008   
  3.55            -1.4194e-009    6.4139e-005     1.3177e-008    
  3.6             1.3578e-009     6.4679e-005     -1.2543e-008   
  3.65            -1.4103e-009    6.5226e-005     1.2929e-008    
  3.7             1.395e-009      6.5751e-005     -1.2991e-008   
  3.75            -1.3412e-009    6.6275e-005     1.254e-008     
  3.8             1.4163e-009     6.6778e-005     -1.3286e-008   
  3.85            -1.3781e-009    6.7299e-005     1.2521e-008    
  3.9             1.4094e-009     6.7781e-005     -1.2573e-008   
  3.95            -1.3987e-009    6.8265e-005     1.2772e-008    
  4               1.335e-009      6.8754e-005     -1.2609e-008   
  4.05            -1.4228e-009    6.9223e-005     1.3219e-008    
  4.1             1.3702e-009     6.9695e-005     -1.2558e-008   
  4.15            -1.4176e-009    7.0145e-005     1.2567e-008    
  4.2             1.3882e-009     7.0603e-005     -1.2854e-008   
  4.25            -1.3363e-009    7.1042e-005     1.2697e-008    
  4.3             1.4185e-009     7.146e-005      -1.3349e-008   
  4.35            -1.37e-009      7.1888e-005     1.2441e-008    
  4.4             1.3261e-009     7.2322e-005     -1.2935e-008   
  4.45            -1.4217e-009    7.2734e-005     1.3249e-008    
  4.5             1.3604e-009     7.3109e-005     -1.2562e-008   
  4.55            -1.4109e-009    7.3536e-005     1.2953e-008    
  4.6             1.3975e-009     7.3904e-005     -1.2915e-008   
  4.65            -1.3447e-009    7.43e-005       1.2524e-008    
  4.7             1.4173e-009     7.4674e-005     -1.3237e-008   
  4.75            -1.3761e-009    7.5041e-005     1.2476e-008    
  4.8             1.3203e-009     7.5388e-005     -1.257e-008    
  4.85            -1.4154e-009    7.5769e-005     1.3198e-008    
  4.9             1.3518e-009     7.6128e-005     -1.2556e-008   
  4.95            -1.4191e-009    7.6487e-005     1.3035e-008    
  5               1.3858e-009     7.6812e-005     -1.2771e-008   
END_DB

BEGIN_DB
 ICCAP_VAR VS         0              
 ICCAP_VAR VB         0              
 ICCAP_VAR VD         5              

 #VG              IG              ID              IB             
  0               3.56e-010       2.3747e-009     -1.3124e-008   
  0.05            -1.394e-009     1.7291e-009     1.2511e-008    
  0.1             1.3956e-009     -1.6675e-009    -1.2554e-008   
  0.15            -1.4138e-009    1.6057e-009     1.2587e-008    
  0.2             1.4125e-009     -1.5456e-009    -1.2781e-008   
  0.25            -1.4232e-009    1.5412e-009     1.2786e-008    
  0.3             1.4182e-009     -1.2613e-009    -1.3113e-008   
  0.35            -1.4181e-009    2.2151e-009     1.3093e-008    
  0.4             1.3225e-009     2.0563e-009     -1.3733e-008   
  0.45            -1.1032e-009    1.3074e-008     -1.438e-008    
  0.5             1.4097e-009     5.3259e-008     -1.6264e-008   
  0.55            1.4158e-009     1.9416e-007     -1.3357e-008   
  0.6             6.478e-010      5.7563e-007     -3.1031e-008   
  0.65            -8.276e-010     1.3962e-006     -9.9917e-008   
  0.7             1.3567e-009     2.8601e-006     -1.8254e-007   
  0.75            8.183e-010      5.2112e-006     -3.2478e-007   
  0.8             -1.3626e-009    8.6474e-006     -5.1602e-007   
  0.85            -7.648e-010     1.3208e-005     -7.6746e-007   
  0.9             1.3783e-009     1.8911e-005     -1.09651e-006  
  0.95            -1.4159e-009    2.587e-005      -1.4079e-006   
  1               -6.045e-010     3.3721e-005     -1.8019e-006   
  1.05            1.4051e-009     4.2423e-005     -2.1773e-006   
  1.1             5.95e-010       5.2165e-005     -2.5362e-006   
  1.15            -1.4089e-009    6.2442e-005     -2.9169e-006   
  1.2             -5.888e-010     7.3177e-005     -3.3142e-006   
  1.25            1.3257e-009     8.4371e-005     -3.6648e-006   
  1.3             9.168e-010      9.6072e-005     -3.9752e-006   
  1.35            -1.3323e-009    0.000108246     -4.2836e-006   
  1.4             6.267e-010      0.00012051      -4.5743e-006   
  1.45            -1.4194e-009    0.00013327      -4.84e-006     
  1.5             -6.235e-010     0.00014606      -5.1088e-006   
  1.55            1.4133e-009     0.00015904      -5.3254e-006   
  1.6             6.139e-010      0.00017234      -5.4903e-006   
  1.65            -1.415e-009     0.00018589      -5.6579e-006   
  1.7             -6.065e-010     0.00019941      -5.8284e-006   
  1.75            1.4067e-009     0.00021304      -5.9518e-006   
  1.8             5.955e-010      0.0002269       -6.0268e-006   
  1.85            -1.4099e-009    0.00024094      -6.1047e-006   
  1.9             -5.911e-010     0.00025497      -6.1927e-006   
  1.95            1.3254e-009     0.00026898      -6.2329e-006   
  2               9.144e-010      0.00028321      -6.238e-006    
  2.05            -1.333e-009     0.00029762      -6.2368e-006   
  2.1             -9.044e-010     0.00031192      -6.2495e-006   
  2.15            1.3299e-009     0.0003261       -6.2335e-006   
  2.2             8.916e-010      0.00034062      -6.1801e-006   
  2.25            -1.3401e-009    0.00035525      -6.1282e-006   
  2.3             -8.835e-010     0.00036978      -6.0855e-006   
  2.35            1.3381e-009     0.00038414      -6.0254e-006   
  2.4             8.69e-010       0.00039881      -5.927e-006    
  2.45            -1.3454e-009    0.00041361      -5.8354e-006   
  2.5             -8.616e-010     0.00042823      -5.7588e-006   
  2.55            1.3447e-009     0.00044277      -5.6669e-006   
  2.6             8.468e-010      0.00045755      -5.5415e-006   
  2.65            -1.353e-009     0.00047244      -5.4254e-006   
  2.7             -8.417e-010     0.00048716      -5.3233e-006   
  2.75            1.35e-009       0.00050198      -5.2095e-006   
  2.8             8.302e-010      0.00051683      -5.0704e-006   
  2.85            -1.3609e-009    0.0005318       -4.9401e-006   
  2.9             -8.184e-010     0.00054656      -4.8309e-006   
  2.95            1.3586e-009     0.00056124      -4.7102e-006   
  3               8.112e-010      0.00057613      -4.5638e-006   
  3.05            -1.3649e-009    0.00059111      -4.429e-006    
  3.1             -8.037e-010     0.00060586      -4.3187e-006   
  3.15            1.3629e-009     0.0006205       -4.1933e-006   
  3.2             7.913e-010      0.00063545      -4.0491e-006   
  3.25            -1.375e-009     0.00065047      -3.9151e-006   
  3.3             -7.838e-010     0.00066522      -3.8069e-006   
  3.35            1.3702e-009     0.00067986      -3.6899e-006   
  3.4             7.753e-010      0.0006947       -3.5455e-006   
  3.45            -1.3779e-009    0.00070974      -3.42e-006     
  3.5             -7.708e-010     0.00072447      -3.3192e-006   
  3.55            1.3748e-009     0.00073914      -3.2068e-006   
  3.6             7.581e-010      0.00075403      -3.0744e-006   
  3.65            -1.3856e-009    0.00076888      -2.9549e-006   
  3.7             -7.522e-010     0.0007836       -2.8677e-006   
  3.75            1.3822e-009     0.00079816      -2.7638e-006   
  3.8             7.449e-010      0.00081303      -2.6414e-006   
  3.85            -1.3932e-009    0.00082786      -2.5358e-006   
  3.9             -7.374e-010     0.00084254      -2.4556e-006   
  3.95            1.3911e-009     0.00085705      -2.3671e-006   
  4               7.274e-010      0.0008718       -2.2536e-006   
  4.05            -1.4009e-009    0.00088654      -2.1591e-006   
  4.1             -7.211e-010     0.00090116      -2.0937e-006   
  4.15            1.3965e-009     0.00091564      -2.015e-006    
  4.2             7.158e-010      0.00093034      -1.9125e-006   
  4.25            -1.4067e-009    0.00094498      -1.8252e-006   
  4.3             -7.065e-010     0.00095947      -1.7705e-006   
  4.35            1.4047e-009     0.00097382      -1.7029e-006   
  4.4             6.979e-010      0.00098871      -1.6079e-006   
  4.45            -1.4129e-009    0.00100333      -1.5362e-006   
  4.5             -6.923e-010     0.00101772      -1.4948e-006   
  4.55            1.4087e-009     0.00103197      -1.4357e-006   
  4.6             6.834e-010      0.00104642      -1.3498e-006   
  4.65            -1.4169e-009    0.0010609       -1.29e-006     
  4.7             -6.768e-010     0.00107513      -1.2554e-006   
  4.75            1.4134e-009     0.00108932      -1.2048e-006   
  4.8             6.723e-010      0.00110379      -1.1288e-006   
  4.85            -1.4207e-009    0.00111806      -1.0757e-006   
  4.9             -6.651e-010     0.00113227      -1.047e-006    
  4.95            8.041e-010      0.0011468       -1.00587e-006  
  5               -1.3653e-009    0.0011613       -9.4407e-007   
END_DB

BEGIN_DB
 ICCAP_VAR VS         0              
 ICCAP_VAR VB         -2.5           
 ICCAP_VAR VD         0.1            

 #VG              IG              ID              IB             
  0               3.345e-010      -8.636e-010     -2.4725e-008   
  0.05            -6.408e-010     -2.2744e-009    -1.8156e-008   
  0.1             1.3326e-009     -1.2992e-009    -2.4324e-008   
  0.15            7.849e-010      2.1405e-009     -4.241e-009    
  0.2             -8.079e-010     -2.1245e-009    -1.7511e-008   
  0.25            1.3978e-009     -1.6763e-009    -2.3622e-008   
  0.3             -7.248e-010     -2.2119e-009    -1.7565e-008   
  0.35            1.4189e-009     -1.4697e-009    -2.4014e-008   
  0.4             -6.463e-010     -2.2699e-009    -1.804e-008    
  0.45            1.3314e-009     -1.3083e-009    -2.4358e-008   
  0.5             -6.842e-010     -2.2438e-009    -1.7742e-008   
  0.55            1.404e-009      -1.378e-009     -2.442e-008    
  0.6             -6.061e-010     -2.3002e-009    -1.974e-008    
  0.65            1.3499e-009     -1.2304e-009    -2.4083e-008   
  0.7             7.476e-010      2.1986e-009     -4.288e-009    
  0.75            -7.675e-010     -2.0695e-009    -1.7475e-008   
  0.8             1.4122e-009     -1.1295e-009    -2.374e-008    
  0.85            1.3763e-009     1.8384e-009     -1.755e-008    
  0.9             1.4159e-009     7.6276e-009     -1.6669e-008   
  0.95            -1.3921e-009    3.2108e-008     -1.757e-008    
  1               -7.483e-010     1.02983e-007    -1.7769e-008   
  1.05            -1.4151e-009    3.0206e-007     -1.5055e-008   
  1.1             -6.078e-010     7.169e-007      -2.2007e-008   
  1.15            -1.406e-009     1.4304e-006     -1.7445e-008   
  1.2             -7.249e-010     2.5028e-006     -1.7971e-008   
  1.25            1.3983e-009     3.9047e-006     -2.4098e-008   
  1.3             -7.954e-010     5.684e-006      -1.7616e-008   
  1.35            1.3663e-009     7.6486e-006     -2.3622e-008   
  1.4             7.832e-010      9.8121e-006     -4.199e-009    
  1.45            1.3904e-009     1.2003e-005     -2.2105e-008   
  1.5             -8.217e-010     1.4199e-005     -1.7521e-008   
  1.55            1.3583e-009     1.6275e-005     -2.3595e-008   
  1.6             8.126e-010      1.8282e-005     -4.253e-009    
  1.65            -9.425e-010     2.016e-005      -1.7477e-008   
  1.7             1.3201e-009     2.1947e-005     -2.3604e-008   
  1.75            9.303e-010      2.3661e-005     -4.296e-009    
  1.8             -6.518e-010     2.5281e-005     -2.0802e-008   
  1.85            1.418e-009      2.6811e-005     -2.4533e-008   
  1.9             -7.206e-010     2.8296e-005     -1.8128e-008   
  1.95            1.404e-009      2.9689e-005     -2.4064e-008   
  2               -7.987e-010     3.105e-005      -1.7642e-008   
  2.05            1.3684e-009     3.2345e-005     -2.3565e-008   
  2.1             7.886e-010      3.3594e-005     -4.168e-009    
  2.15            -9.108e-010     3.4807e-005     -1.7479e-008   
  2.2             1.3291e-009     3.5968e-005     -2.3651e-008   
  2.25            8.988e-010      3.7097e-005     -4.262e-009    
  2.3             -6.326e-010     3.8188e-005     -2.1265e-008   
  2.35            1.4142e-009     3.9229e-005     -2.4279e-008   
  2.4             -6.974e-010     4.0273e-005     -1.865e-008    
  2.45            1.4097e-009     4.1256e-005     -2.4179e-008   
  2.5             -7.762e-010     4.2241e-005     -1.7772e-008   
  2.55            1.3772e-009     4.3178e-005     -2.3582e-008   
  2.6             7.67e-010       4.4108e-005     -4.111e-009    
  2.65            -8.81e-010      4.5001e-005     -1.7536e-008   
  2.7             1.3387e-009     4.5872e-005     -2.3529e-008   
  2.75            8.734e-010      4.6742e-005     -4.237e-009    
  2.8             -6.151e-010     4.7565e-005     -2.1938e-008   
  2.85            1.4071e-009     4.8386e-005     -2.4278e-008   
  2.9             -6.812e-010     4.9187e-005     -1.9525e-008   
  2.95            1.4136e-009     4.9963e-005     -2.4398e-008   
  3               -7.577e-010     5.0731e-005     -1.7831e-008   
  3.05            1.3843e-009     5.148e-005      -2.3723e-008   
  3.1             -8.388e-010     5.221e-005      -1.7529e-008   
  3.15            1.3524e-009     5.2906e-005     -2.3488e-008   
  3.2             8.333e-010      5.3622e-005     -4.265e-009    
  3.25            -9.702e-010     5.4312e-005     -1.7338e-008   
  3.3             1.4085e-009     5.4971e-005     -2.3529e-008   
  3.35            -6.935e-010     5.5628e-005     -1.9137e-008   
  3.4             1.4147e-009     5.6268e-005     -2.4324e-008   
  3.45            -7.646e-010     5.691e-005      -1.7819e-008   
  3.5             1.382e-009      5.7525e-005     -2.3668e-008   
  3.55            -8.502e-010     5.8139e-005     -1.7549e-008   
  3.6             1.3475e-009     5.8727e-005     -2.3464e-008   
  3.65            8.404e-010      5.9319e-005     -4.288e-009    
  3.7             -9.802e-010     5.9899e-005     -1.7276e-008   
  3.75            1.4113e-009     6.0457e-005     -2.3583e-008   
  3.8             -6.992e-010     6.1013e-005     -1.8923e-008   
  3.85            1.4083e-009     6.1571e-005     -2.4251e-008   
  3.9             -7.688e-010     6.2103e-005     -1.7793e-008   
  3.95            1.3752e-009     6.2632e-005     -2.3601e-008   
  4               7.619e-010      6.3148e-005     -4.053e-009    
  4.05            -8.759e-010     6.3654e-005     -1.7534e-008   
  4.1             1.3384e-009     6.4159e-005     -2.3497e-008   
  4.15            8.677e-010      6.4642e-005     -4.223e-009    
