! VERSION = 6.00
BEGIN_HEADER
 ICCAP_INPUTS
  VG         V  B GROUND SMU4 0.001 LIN        2    0          5          6    1         
  VS         V  E GROUND SMU2 0.1 CON        0
  VD         V  S GROUND SMU1 0.1 LIN        1    0          5          101  0.05      
  VB         V  C GROUND SMU3 0.1 LIN        3    0          -2.5       2    -2.5      
 ICCAP_OUTPUTS
  ID         I  S GROUND SMU1 B
  IB         I  C GROUND SMU3 B
  IG         I  B GROUND SMU4 B
END_HEADER

BEGIN_DB
 ICCAP_VAR VG         0              
 ICCAP_VAR VS         0              
 ICCAP_VAR VB         0              

 #VD              ID              IB              IG             
  0               -1.0218e-009    -1.8459e-008    -1.0677e-009   
  0.05            -1.4271e-009    8.02e-009       -1.8781e-009   
  0.1             -2.2518e-009    -1.2699e-008    -4.971e-010    
  0.15            -2.2601e-009    -1.2324e-008    -6.874e-010    
  0.2             -2.2555e-009    -1.113e-008     -8.585e-010    
  0.25            -1.6594e-009    -1.5363e-008    2.0332e-009    
  0.3             1.9317e-009     -8.326e-009     1.5581e-009    
  0.35            1.4273e-009     2.6731e-008     -1.3882e-009   
  0.4             3.67e-011       1.2823e-008     -2.727e-009    
  0.45            -1.4567e-009    -2.4323e-008    1.3326e-009    
  0.5             6e-012          -1.0948e-008    2.887e-009     
  0.55            1.3627e-009     2.798e-008      -1.3884e-009   
  0.6             -4.16e-011      1.2598e-008     -1.3829e-009   
  0.65            1.037e-010      1.3279e-008     -2.7164e-009   
  0.7             -1.5113e-009    -2.2527e-008    2.4682e-009    
  0.75            2.2124e-009     -4.923e-009     1.2958e-009    
  0.8             1.2136e-009     2.8483e-008     -1.3965e-009   
  0.85            -2.1915e-009    1.0266e-008     -1.2172e-009   
  0.9             -1.873e-009     -1.0253e-008    2.911e-010     
  0.95            -9.023e-010     -2.0204e-008    1.8941e-009    
  1               1.8274e-009     -8.839e-009     1.6334e-009    
  1.05            1.5654e-009     1.0434e-008     1.79e-009      
  1.1             2.2699e-009     1.2206e-008     3.823e-010     
  1.15            2.3135e-009     1.1716e-008     5.545e-010     
  1.2             1.4749e-009     2.5131e-008     -1.3861e-009   
  1.25            8.8e-011        1.3243e-008     -2.7239e-009   
  1.3             -1.5048e-009    -2.2936e-008    2.492e-009     
  1.35            2.2332e-009     -4.92e-009      1.2805e-009    
  1.4             2.0465e-009     1.0909e-008     -1.532e-010    
  1.45            9.524e-010      2.3954e-008     -1.5898e-009   
  1.5             -1.5262e-009    7.114e-009      -1.8197e-009   
  1.55            -2.2426e-009    -1.274e-008     -3.994e-010    
  1.6             -2.2542e-009    -1.2629e-008    -5.941e-010    
  1.65            -2.2603e-009    -1.1675e-008    -7.757e-010    
  1.7             -2.2503e-009    -1.0473e-008    -9.248e-010    
  1.75            -1.6919e-009    -1.3606e-008    1.891e-009     
  1.8             1.8246e-009     -8.906e-009     1.6347e-009    
  1.85            1.5658e-009     1.0672e-008     1.7904e-009    
  1.9             2.2719e-009     1.2372e-008     3.823e-010     
  1.95            2.3125e-009     1.2041e-008     5.554e-010     
  2               2.3502e-009     1.1021e-008     7.162e-010     
  2.05            2.3633e-009     9.782e-009      8.671e-010     
  2.1             1.7262e-009     1.4903e-008     -1.7461e-009   
  2.15            -1.6896e-009    5.899e-009      -1.7155e-009   
  2.2             -2.2117e-009    -1.2803e-008    -2.436e-010    
  2.25            -2.246e-009     -1.2814e-008    -4.376e-010    
  2.3             -2.2545e-009    -1.2286e-008    -6.24e-010     
  2.35            -2.2554e-009    -1.1092e-008    -8.081e-010    
  2.4             -1.6318e-009    -1.6639e-008    2.1279e-009    
  2.45            2.004e-009      -7.602e-009     1.4968e-009    
  2.5             1.3854e-009     2.7979e-008     -1.3889e-009   
  2.55            -2.2e-011       1.2908e-008     -1.383e-009    
  2.6             1.194e-010      1.3729e-008     -2.711e-009    
  2.65            -1.5295e-009    -2.2103e-008    2.4399e-009    
  2.7             2.2027e-009     -5.535e-009     1.3221e-009    
  2.75            1.2324e-009     2.8769e-008     -1.3938e-009   
  2.8             -2.1835e-009    1.0524e-008     -1.2362e-009   
  2.85            -1.8847e-009    -1.0187e-008    2.77e-010      
  2.9             -9.143e-010     -2.0383e-008    1.8664e-009    
  2.95            1.8066e-009     -8.857e-009     1.651e-009     
  3               1.5349e-009     1.039e-008      1.8086e-009    
  3.05            2.2736e-009     1.229e-008      3.977e-010     
  3.1             2.3151e-009     1.1673e-008     5.716e-010     
  3.15            1.4856e-009     2.475e-008      -1.3851e-009   
  3.2             9.78e-011       1.3235e-008     -2.718e-009    
  3.25            -1.5092e-009    -2.2812e-008    1.3317e-009    
  3.3             -4.86e-011      -1.2224e-008    2.8869e-009    
  3.35            1.4215e-009     2.7079e-008     -1.3889e-009   
  3.4             1.72e-011       1.2874e-008     -1.3751e-009   
  3.45            1.577e-010      1.3784e-008     -2.7018e-009   
  3.5             -2.1567e-009    -1.2436e-008    -1.038e-010    
  3.55            -2.2251e-009    -1.2914e-008    -2.984e-010    
  3.6             -2.2515e-009    -1.2678e-008    -4.965e-010    
  3.65            -2.2555e-009    -1.1978e-008    -6.852e-010    
  3.7             -1.5729e-009    -1.9971e-008    1.3249e-009    
  3.75            -1.414e-010     -1.4445e-008    2.8814e-009    
  3.8             1.4923e-009     2.4584e-008     -1.3861e-009   
  3.85            1.024e-010      1.3597e-008     -2.7154e-009   
  3.9             -1.5139e-009    -2.2735e-008    1.332e-009     
  3.95            -5.08e-011      -1.2554e-008    2.8855e-009    
  4               1.4267e-009     2.6909e-008     -1.3888e-009   
  4.05            2.66e-011       1.3296e-008     -1.3745e-009   
  4.1             1.663e-010      1.3969e-008     -2.6977e-009   
  4.15            -1.5652e-009    -2.0448e-008    1.3264e-009    
  4.2             -1.333e-010     -1.4207e-008    2.8838e-009    
  4.25            1.4921e-009     2.4834e-008     -1.3864e-009   
  4.3             9.03e-011       1.3485e-008     -2.7129e-009   
  4.35            -1.5139e-009    -2.2897e-008    1.3319e-009    
  4.4             -4.65e-011      -1.2239e-008    2.8884e-009    
  4.45            1.4212e-009     2.7033e-008     -1.3885e-009   
  4.5             2.37e-011       1.3004e-008     -1.3753e-009   
  4.55            1.642e-010      1.3756e-008     -2.6996e-009   
  4.6             -1.5602e-009    -2.0463e-008    1.3268e-009    
  4.65            -1.277e-010     -1.3844e-008    2.8863e-009    
  4.7             1.4852e-009     2.505e-008      -1.3875e-009   
  4.75            8.82e-011       1.3235e-008     -2.7163e-009   
  4.8             -1.5078e-009    -2.3057e-008    2.4941e-009    
  4.85            2.2338e-009     -4.979e-009     1.2856e-009    
  4.9             1.2047e-009     2.864e-008      -1.3987e-009   
  4.95            -2.1996e-009    1.006e-008      -1.2077e-009   
  5               -1.8579e-009    -1.0071e-008    3.094e-010     
END_DB

BEGIN_DB
 ICCAP_VAR VG         1              
 ICCAP_VAR VS         0              
 ICCAP_VAR VB         0              

 #VD              ID              IB              IG             
  0               -1.0122e-008    -1.0989e-008    1.2178e-009    
  0.05            8.6767e-007     2.7842e-008     -2.0342e-009   
  0.1             1.499e-006      -1.0016e-008    -1.8007e-009   
  0.15            1.9489e-006     2.7719e-008     -1.3697e-009   
  0.2             2.2611e-006     2.7268e-008     -1.3664e-009   
  0.25            2.4851e-006     2.6784e-008     -1.3609e-009   
  0.3             2.654e-006      2.634e-008      -1.905e-009    
  0.35            2.7874e-006     2.8582e-008     -1.3791e-009   
  0.4             2.8961e-006     2.8215e-008     -1.3754e-009   
  0.45            2.992e-006      2.7893e-008     -1.3722e-009   
  0.5             3.0775e-006     2.7754e-008     -1.3684e-009   
  0.55            3.1552e-006     2.723e-008      -1.3649e-009   
  0.6             3.2257e-006     2.6746e-008     -1.3616e-009   
  0.65            3.2962e-006     2.6121e-008     -1.8904e-009   
  0.7             3.362e-006      2.843e-008      -1.3768e-009   
  0.75            3.4277e-006     2.8149e-008     -1.3746e-009   
  0.8             3.4912e-006     2.781e-008      -1.3693e-009   
  0.85            3.5513e-006     2.7432e-008     -1.3677e-009   
  0.9             3.6128e-006     2.7002e-008     -1.3634e-009   
  0.95            3.6712e-006     2.6428e-008     -1.905e-009    
  1               3.7284e-006     2.8469e-008     -1.3795e-009   
  1.05            3.7902e-006     2.8466e-008     -1.3774e-009   
  1.1             3.8433e-006     2.8096e-008     -1.3726e-009   
  1.15            3.8959e-006     2.771e-008      -1.3697e-009   
  1.2             3.9514e-006     2.7262e-008     -1.3654e-009   
  1.25            4.0047e-006     2.6891e-008     -1.3625e-009   
  1.3             4.0545e-006     2.6317e-008     -1.8918e-009   
  1.35            4.1083e-006     2.8513e-008     -1.3787e-009   
  1.4             4.1603e-006     2.832e-008      -2.0382e-009   
  1.45            4.21e-006       2.8987e-008     -1.3901e-009   
  1.5             4.2601e-006     2.9105e-008     -1.3868e-009   
  1.55            4.3065e-006     2.8956e-008     -1.3851e-009   
  1.6             4.3561e-006     2.8911e-008     -1.3834e-009   
  1.65            4.4064e-006     2.8704e-008     -1.3798e-009   
  1.7             4.4552e-006     2.8457e-008     -1.3778e-009   
  1.75            4.5031e-006     2.8101e-008     -2.0227e-009   
  1.8             4.5477e-006     2.8964e-008     -1.389e-009    
  1.85            4.5985e-006     2.8963e-008     -1.3868e-009   
  1.9             4.6466e-006     2.8931e-008     -1.3839e-009   
  1.95            4.6901e-006     2.8821e-008     -1.3814e-009   
  2               4.7361e-006     2.8439e-008     -1.3782e-009   
  2.05            4.7835e-006     2.829e-008      -1.3753e-009   
  2.1             4.8257e-006     2.7951e-008     -1.3727e-009   
  2.15            4.8763e-006     2.7616e-008     -1.3688e-009   
  2.2             4.9205e-006     2.7065e-008     -1.3642e-009   
  2.25            4.9642e-006     2.6469e-008     -1.3606e-009   
  2.3             5.0062e-006     2.5827e-008     -1.8954e-009   
  2.35            5.0511e-006     2.7924e-008     -1.378e-009    
  2.4             5.0939e-006     2.7683e-008     -1.3768e-009   
  2.45            5.1395e-006     2.7126e-008     -1.372e-009    
  2.5             5.1865e-006     2.6541e-008     -1.3677e-009   
  2.55            5.2279e-006     2.5911e-008     -1.365e-009    
  2.6             5.2711e-006     2.519e-008      -1.9128e-009   
  2.65            5.3103e-006     1.589e-008      -1.8818e-009   
  2.7             5.3557e-006     1.5775e-008     -1.8506e-009   
  2.75            5.3961e-006     1.5319e-008     -1.8284e-009   
  2.8             5.4422e-006     1.5099e-008     -1.7885e-009   
  2.85            5.4831e-006     1.4474e-008     -1.7729e-009   
  2.9             5.5235e-006     1.4057e-008     -1.7373e-009   
  2.95            5.5672e-006     1.3321e-008     -1.7162e-009   
  3               5.6057e-006     1.2473e-008     -1.6908e-009   
  3.05            5.6506e-006     1.176e-008      -1.6561e-009   
  3.1             5.6914e-006     1.0807e-008     -1.6425e-009   
  3.15            5.7381e-006     1.963e-009      -2.7127e-009   
  3.2             5.7458e-006     -2.0323e-008    -2.2268e-009   
  3.25            5.8201e-006     6.083e-009      -1.7314e-009   
  3.3             5.8424e-006     -2.0087e-008    -2.7354e-009   
  3.35            5.9052e-006     9.86e-010       -2.0663e-009   
  3.4             5.939e-006      -7.086e-009     2.142e-010     
  3.45            5.9414e-006     -3.6528e-008    2.7324e-009    
  3.5             6.0468e-006     -3.4325e-008    -1.5361e-009   
  3.55            6.088e-006      2.024e-009      -1.3923e-009   
  3.6             6.0955e-006     -2.1666e-008    2.6132e-009    
  3.65            6.1383e-006     -4.7098e-008    -3.125e-010    
  3.7             6.2002e-006     -3.8059e-008    -2.0998e-009   
  3.75            6.1873e-006     -3.2718e-008    1.7749e-009    
  3.8             6.2667e-006     -7.1744e-008    1.9994e-009    
  3.85            6.3431e-006     -6.7159e-008    -1.9195e-009   
  3.9             6.3968e-006     -4.2113e-008    -1.6472e-009   
  3.95            6.4118e-006     -5.8402e-008    2.0737e-009    
  4               6.445e-006      -9.0102e-008    1.517e-009     
  4.05            6.5192e-006     -9.4728e-008    1.1196e-009    
  4.1             6.5462e-006     -8.845e-008     1.3341e-009    
  4.15            6.6354e-006     -1.1381e-007    -2.4502e-009   
  4.2             6.6885e-006     -1.0451e-007    1.381e-010     
  4.25            6.6956e-006     -1.4102e-007    2.799e-009     
  4.3             6.8181e-006     -1.4982e-007    -1.4578e-009   
  4.35            6.8684e-006     -1.2442e-007    -1.3902e-009   
  4.4             6.8875e-006     -1.5897e-007    2.5651e-009    
  4.45            6.9379e-006     -1.9654e-007    -2.121e-010    
  4.5             7.0421e-006     -1.8799e-007    -2.5524e-009   
  4.55            7.025e-006      -2.1078e-007    1.4423e-009    
  4.6             7.1118e-006     -2.6779e-007    1.3359e-009    
  4.65            7.1971e-006     -2.7041e-007    -2.5708e-009   
  4.7             7.2785e-006     -2.7097e-007    2.757e-010     
  4.75            7.2973e-006     -3.2321e-007    2.6841e-009    
  4.8             7.4409e-006     -3.4231e-007    -1.5932e-009   
  4.85            7.4979e-006     -3.2732e-007    -1.3917e-009   
  4.9             7.5369e-006     -3.7722e-007    2.642e-009     
  4.95            7.6193e-006     -4.3004e-007    -3.775e-010    
  5               7.7296e-006     -4.3307e-007    -2.4134e-009   
END_DB

BEGIN_DB
 ICCAP_VAR VG         2              
 ICCAP_VAR VS         0              
 ICCAP_VAR VB         0              

 #VD              ID              IB              IG             
  0               -6.4964e-008    -1.0687e-008    -4.184e-010    
  0.05            5.2519e-006     1.2009e-008     1.9516e-009    
  0.1             1.03233e-005    -1.7379e-008    1.7221e-009    
  0.15            1.5143e-005     -2.5827e-008    1.6534e-009    
  0.2             1.9671e-005     -1.2593e-008    3.119e-010     
  0.25            2.3919e-005     1.3705e-008     -2.5606e-009   
  0.3             2.7808e-005     2.8358e-008     -2.062e-009    
  0.35            3.1337e-005     1.2591e-008     7.611e-010     
  0.4             3.4512e-005     -8.047e-009     2.8684e-009    
  0.45            3.7368e-005     -1.152e-008     2.607e-010     
  0.5             3.9957e-005     1.4453e-008     -2.4942e-009   
  0.55            4.2094e-005     1.1378e-008     2.0044e-009    
  0.6             4.3993e-005     -1.9263e-008    1.6283e-009    
  0.65            4.5691e-005     -1.0771e-008    -1.1191e-009   
  0.7             4.709e-005      2.8661e-008     -1.3833e-009   
  0.75            4.8255e-005     1.2518e-008     6.191e-010     
  0.8             4.9205e-005     -8.847e-009     1.3291e-009    
  0.85            5.0068e-005     -2.1491e-008    1.9327e-009    
  0.9             5.0854e-005     -1.2503e-008    -9.59e-010     
  0.95            5.1535e-005     2.7075e-008     -1.3815e-009   
  1               5.2077e-005     2.2857e-008     -1.746e-009    
  1.05            5.2534e-005     1.1317e-008     9.413e-010     
  1.1             5.2934e-005     -2.5995e-008    1.3287e-009    
  1.15            5.3375e-005     -1.2675e-008    -5.256e-010    
  1.2             5.3801e-005     2.033e-008      -1.5378e-009   
  1.25            5.4072e-005     9.745e-009      1.0938e-009    
  1.3             5.438e-005      -2.6071e-008    1.3243e-009    
  1.35            5.4727e-005     -1.2958e-008    -7.353e-010    
  1.4             5.5047e-005     8.202e-009      -1.3814e-009   
  1.45            5.5295e-005     2.2867e-008     -1.7483e-009   
  1.5             5.5503e-005     1.1291e-008     9.41e-010      
  1.55            5.5713e-005     -2.6058e-008    1.3269e-009    
  1.6             5.5996e-005     -1.2703e-008    -5.224e-010    
  1.65            5.6263e-005     2.0427e-008     -1.5357e-009   
  1.7             5.6398e-005     9.715e-009      1.0978e-009    
  1.75            5.6618e-005     -2.6103e-008    1.3245e-009    
  1.8             5.6921e-005     -1.1689e-008    -1.788e-009    
  1.85            5.7089e-005     1.163e-008      -2.307e-010    
  1.9             5.7181e-005     -1.6413e-008    2.6709e-009    
  1.95            5.7405e-005     -2.3448e-008    2.059e-009     
  2               5.7606e-005     -1.2645e-008    -9.038e-010    
  2.05            5.7844e-005     2.6224e-008     -1.3811e-009   
  2.1             5.7992e-005     2.5139e-008     -1.8492e-009   
  2.15            5.8114e-005     1.1747e-008     8.868e-010     
  2.2             5.8231e-005     -2.5635e-008    1.329e-009     
  2.25            5.8404e-005     -2.0745e-008    1.8839e-009    
  2.3             5.8607e-005     -1.2552e-008    -9.821e-010    
  2.35            5.8797e-005     2.7157e-008     -1.3823e-009   
  2.4             5.8928e-005     2.1289e-008     -1.7161e-009   
  2.45            5.9037e-005     1.0557e-008     9.629e-010     
  2.5             5.9151e-005     -2.7212e-008    1.3286e-009    
  2.55            5.9329e-005     -1.4216e-008    -5.545e-010    
  2.6             5.9526e-005     1.8729e-008     -1.5152e-009   
  2.65            5.9555e-005     7.419e-009      1.1177e-009    
  2.7             5.9691e-005     -2.8964e-008    2.3456e-009    
  2.75            5.9867e-005     -1.6963e-008    -7.622e-010    
  2.8             6.0041e-005     3.381e-009      -1.3823e-009   
  2.85            6.0194e-005     5.571e-009      -2.6899e-009   
  2.9             6.0329e-005     8.856e-009      -2.2585e-009   
  2.95            6.0441e-005     2.694e-009      -2.6803e-009   
  3               6.055e-005      5.333e-009      -2.2091e-009   
  3.05            6.0618e-005     -4.073e-009     2.2086e-009    
  3.1             6.074e-005      -2.8954e-008    -2.85e-010     
  3.15            6.0895e-005     -2.2482e-008    -2.6978e-009   
  3.2             6.0895e-005     -1.448e-008     1.6472e-009    
  3.25            6.1073e-005     -4.1855e-008    3.186e-010     
  3.3             6.1263e-005     -3.3391e-008    -2.2665e-009   
  3.35            6.1348e-005     -2.987e-008     2.1645e-009    
  3.4             6.1461e-005     -5.8923e-008    -2.147e-010    
  3.45            6.165e-005      -3.6571e-008    -1.8479e-009   
  3.5             6.1726e-005     -5.5303e-008    2.4078e-009    
  3.55            6.1853e-005     -8.7176e-008    -5.783e-010    
  3.6             6.2017e-005     -6.484e-008     -1.4997e-009   
  3.65            6.2099e-005     -8.822e-008     1.0599e-009    
  3.7             6.2265e-005     -1.1209e-007    -2.1919e-009   
  3.75            6.2361e-005     -1.1925e-007    2.2139e-009    
  3.8             6.2478e-005     -1.5945e-007    -2.893e-010    
  3.85            6.2667e-005     -1.4902e-007    -1.762e-009    
  3.9             6.2744e-005     -1.82e-007      2.4549e-009    
  3.95            6.2895e-005     -2.2884e-007    -6.43e-010     
  4               6.3086e-005     -2.2226e-007    -1.461e-009    
  4.05            6.3162e-005     -2.6713e-007    2.6486e-009    
  4.1             6.3327e-005     -3.2231e-007    -9.259e-010    
  4.15            6.353e-005      -3.2099e-007    -1.3818e-009   
