! VERSION = 6.00
BEGIN_HEADER
 ICCAP_INPUTS
  VG         V  B GROUND SMU4 0.001 LIN        1    0          5          101  0.05      
  VS         V  E GROUND SMU2 0.1 CON        0
  VB         V  C GROUND SMU3 0.1 LIN        3    0          -5         3    -2.5      
  VD         V  S GROUND SMU1 0.1 LIN        2    0.1        5          2    4.9       
 ICCAP_OUTPUTS
  IG         I  B GROUND SMU4 B
  ID         I  S GROUND SMU1 B
  IB         I  C GROUND SMU3 B
END_HEADER

BEGIN_DB
 ICCAP_VAR VS         0              
 ICCAP_VAR VB         0              
 ICCAP_VAR VD         0.1            

 #VG              IG              ID              IB             
  0               -1.3366e-009    -1.216e-009     1.0784e-008    
  0.05            -1.3075e-009    8.4e-011        1.1158e-008    
  0.1             -2.6625e-009    2.324e-010      1.2276e-008    
  0.15            -9.75e-010      -2.1794e-009    5.29e-010      
  0.2             1.7079e-009     -1.6397e-009    -1.3271e-008   
  0.25            1.7487e-009     1.656e-009      -9.403e-009    
  0.3             3.458e-010      2.293e-009      1.0309e-008    
  0.35            5.269e-010      2.3744e-009     1.0707e-008    
  0.4             -1.3256e-009    1.5325e-009     2.3812e-008    
  0.45            -2.7092e-009    2.273e-010      1.1493e-008    
  0.5             1.715e-010      -1.6273e-009    3.76e-010      
  0.55            5e-012          -1.2595e-009    -1.1194e-008   
  0.6             1.2654e-009     2.6529e-009     -1.0941e-008   
  0.65            2.8813e-009     8.7771e-009     -1.1897e-008   
  0.7             -1.4137e-009    2.7113e-008     -1.1952e-008   
  0.75            -1.3207e-009    7.9178e-008     1.057e-008     
  0.8             1.4502e-009     1.8549e-007     -2.317e-008    
  0.85            3.042e-010      3.8036e-007     1.0177e-008    
  0.9             7.338e-010      6.5624e-007     1.055e-008     
  0.95            -1.5808e-009    1.02234e-006    1.8287e-008    
  1               -2.7521e-009    1.4267e-006     -2.395e-008    
  1.05            -9.238e-010     1.8799e-006     -1.167e-008    
  1.1             -1.3167e-009    2.3592e-006     -1.1307e-008   
  1.15            -7.85e-011      2.8412e-006     -1.1679e-008   
  1.2             -5.815e-010     3.3407e-006     -1.104e-008    
  1.25            -9.997e-010     3.8443e-006     -1.1624e-008   
  1.3             2.332e-010      4.334e-006      -1.3037e-008   
  1.35            -1.866e-010     4.8405e-006     -1.1291e-008   
  1.4             -6.836e-010     5.3461e-006     -1.12e-008     
  1.45            1.7963e-009     5.8414e-006     -1.903e-008    
  1.5             1.3558e-009     6.3413e-006     -9.504e-009    
  1.55            1.2522e-009     6.8367e-006     -8.66e-009     
  1.6             2.673e-009      7.3301e-006     -1.3484e-008   
  1.65            2.537e-009      7.827e-006      8.689e-009     
  1.7             4.589e-010      8.3209e-006     1.021e-008     
  1.75            -1.2997e-009    8.81e-006       2.5517e-008    
  1.8             -2.3705e-009    9.294e-006      1.3355e-008    
  1.85            -1.7555e-009    9.7675e-006     2.372e-009     
  1.9             -1.4128e-009    1.02463e-005    6.212e-009     
  1.95            -1.3188e-009    1.07215e-005    1.0397e-008    
  2               -2.5431e-009    1.1194e-005     1.143e-008     
  2.05            1.3414e-009     1.1653e-005     1.297e-009     
  2.1             2.8943e-009     1.2116e-005     -8.629e-009    
  2.15            2.6042e-009     1.2581e-005     -5.68e-010     
  2.2             1.951e-009      1.3036e-005     -3.164e-009    
  2.25            1.4175e-009     1.3489e-005     -9.238e-009    
  2.3             1.268e-009      1.394e-005      -8.885e-009    
  2.35            2.7614e-009     1.4386e-005     -1.176e-008    
  2.4             5.51e-010       1.4839e-005     1.0229e-008    
  2.45            -1.7843e-009    1.5279e-005     2.3334e-008    
  2.5             -1.4157e-009    1.5716e-005     6.015e-009     
  2.55            -1.3207e-009    1.6151e-005     1.0396e-008    
  2.6             -2.5571e-009    1.6583e-005     1.1379e-008    
  2.65            -1.9857e-009    1.7001e-005     9.97e-010      
  2.7             -1.4968e-009    1.7424e-005     4.335e-009     
  2.75            -1.3453e-009    1.7842e-005     9.299e-009     
  2.8             -2.6621e-009    1.8262e-005     1.137e-008     
  2.85            -2.2178e-009    1.8667e-005     6.34e-010      
  2.9             -1.6334e-009    1.9073e-005     2.934e-009     
  2.95            -1.3785e-009    1.9474e-005     7.476e-009     
  3               -1.3057e-009    1.9871e-005     1.1179e-008    
  3.05            -2.4334e-009    2.0266e-005     1.2545e-008    
  3.1             -1.8163e-009    2.0647e-005     2.018e-009     
  3.15            -1.4324e-009    2.1031e-005     5.498e-009     
  3.2             -1.3267e-009    2.1408e-005     1.005e-008     
  3.25            -2.5832e-009    2.1787e-005     1.1411e-008    
  3.3             -2.051e-009     2.2147e-005     7.56e-010      
  3.35            -1.5293e-009    2.2512e-005     3.988e-009     
  3.4             -1.3542e-009    2.2874e-005     8.816e-009     
  3.45            -2.6879e-009    2.3232e-005     1.1412e-008    
  3.5             -2.2724e-009    2.3575e-005     4.65e-010      
  3.55            -1.6768e-009    2.3919e-005     2.773e-009     
  3.6             -1.3894e-009    2.4262e-005     6.976e-009     
  3.65            -1.3121e-009    2.4599e-005     1.081e-008     
  3.7             -2.4791e-009    2.4931e-005     1.1959e-008    
  3.75            -1.8876e-009    2.525e-005      1.654e-009     
  3.8             -1.4557e-009    2.5573e-005     5.144e-009     
  3.85            -1.3338e-009    2.5888e-005     9.87e-009      
  3.9             -2.6183e-009    2.6204e-005     1.1338e-008    
  3.95            -2.1109e-009    2.6501e-005     7.05e-010      
  4               -1.5658e-009    2.6801e-005     3.703e-009     
  4.05            -1.3604e-009    2.7099e-005     8.55e-009      
  4.1             -2.7033e-009    2.739e-005      1.1406e-008    
  4.15            -2.3349e-009    2.7671e-005     4.3e-010       
  4.2             -8.43e-010      2.795e-005      -1.1482e-008   
  4.25            -1.2249e-009    2.8229e-005     -1.1332e-008   
  4.3             6.1e-012        2.8486e-005     -1.188e-008    
  4.35            -4.712e-010     2.8758e-005     -1.1117e-008   
  4.4             -9.243e-010     2.9018e-005     -1.16e-008     
  4.45            1.4867e-009     2.9265e-005     -1.3971e-008   
  4.5             1.2815e-009     2.9529e-005     -8.855e-009    
  4.55            2.8136e-009     2.9777e-005     -1.0625e-008   
  4.6             4.763e-010      3.002e-005      1.0282e-008    
  4.65            -1.2946e-009    3.0256e-005     2.5015e-008    
  4.7             -2.3444e-009    3.0491e-005     1.3822e-008    
  4.75            -1.7234e-009    3.0709e-005     2.515e-009     
  4.8             -1.4028e-009    3.0931e-005     6.4e-009       
  4.85            -1.3138e-009    3.1147e-005     1.0823e-008    
  4.9             -2.5173e-009    3.1364e-005     1.1743e-008    
  4.95            -1.9372e-009    3.1566e-005     1.454e-009     
  5               -1.4731e-009    3.1767e-005     4.625e-009     
END_DB

BEGIN_DB
 ICCAP_VAR VS         0              
 ICCAP_VAR VB         0              
 ICCAP_VAR VD         5              

 #VG              IG              ID              IB             
  0               1.2985e-009     1.3281e-009     -1.13e-008     
  0.05            1.2631e-009     6.04e-011       -9.39e-009     
  0.1             2.8782e-009     -5.96e-011      -1.2344e-008   
  0.15            1.0474e-009     2.3554e-009     1.0397e-008    
  0.2             -1.5071e-009    1.9172e-009     1.2077e-008    
  0.25            -9.997e-010     -2.1625e-009    9.418e-009     
  0.3             1.6798e-009     -1.6392e-009    -1.3236e-008   
  0.35            1.7782e-009     1.6386e-009     -9.314e-009    
  0.4             3.743e-010      2.331e-009      1.0257e-008    
  0.45            5.604e-010      2.4511e-009     1.0749e-008    
  0.5             -1.3213e-009    1.7837e-009     2.3217e-008    
  0.55            -2.7023e-009    1.082e-009      1.1549e-008    
  0.6             -2.5819e-009    2.1982e-009     1.56e-010      
  0.65            1.4011e-009     1.1223e-008     1.0799e-008    
  0.7             1.2658e-009     3.3721e-008     -1.1148e-008   
  0.75            2.7421e-009     9.3896e-008     -1.882e-008    
  0.8             2.2181e-009     2.2459e-007     -2.1756e-008   
  0.85            1.5506e-009     4.577e-007      -3.6539e-008   
  0.9             1.296e-009      8.2849e-007     -5.9437e-008   
  0.95            2.5606e-009     1.3597e-006     -5.8474e-008   
  1               -2.5541e-009    2.0518e-006     -1.0194e-007   
  1.05            -2.7667e-009    2.9247e-006     -1.5901e-007   
  1.1             -2.6957e-009    3.9771e-006     -1.987e-007    
  1.15            -2.3189e-009    5.2373e-006     -2.4342e-007   
  1.2             -1.7142e-009    6.6602e-006     -2.9021e-007   
  1.25            -1.4036e-009    8.2694e-006     -3.3608e-007   
  1.3             -1.3158e-009    1.00669e-005    -3.8175e-007   
  1.35            1.4972e-009     1.1988e-005     -4.3199e-007   
  1.4             1.2855e-009     1.4136e-005     -4.9743e-007   
  1.45            2.821e-009      1.6466e-005     -5.4434e-007   
  1.5             2.3608e-009     1.9003e-005     -5.7783e-007   
  1.55            1.6766e-009     2.1694e-005     -6.2176e-007   
  1.6             1.3271e-009     2.4562e-005     -6.6132e-007   
  1.65            2.8888e-009     2.7608e-005     -6.9253e-007   
  1.7             2.5785e-009     3.087e-005      -7.1204e-007   
  1.75            1.9103e-009     3.4277e-005     -7.3819e-007   
  1.8             1.4042e-009     3.7868e-005     -7.6308e-007   
  1.85            1.2667e-009     4.1623e-005     -7.7684e-007   
  1.9             2.7506e-009     4.5559e-005     -7.904e-007    
  1.95            2.1771e-009     4.9703e-005     -7.8598e-007   
  2               1.5442e-009     5.399e-005      -7.9344e-007   
  2.05            1.2987e-009     5.8441e-005     -7.9295e-007   
  2.1             2.8525e-009     6.3061e-005     -7.8796e-007   
  2.15            2.4324e-009     6.7911e-005     -7.7043e-007   
  2.2             1.7443e-009     7.288e-005      -7.6204e-007   
  2.25            1.3456e-009     7.8014e-005     -7.5173e-007   
  2.3             2.8947e-009     8.3325e-005     -7.3357e-007   
  2.35            2.6357e-009     8.8846e-005     -7.0558e-007   
  2.4             2.0052e-009     9.4477e-005     -6.8625e-007   
  2.45            1.4459e-009     0.000100282     -6.6885e-007   
  2.5             1.2758e-009     0.000106242     -6.4437e-007   
  2.55            2.7923e-009     0.000112367     -6.2095e-007   
  2.6             1.4763e-009     0.00011875      -5.7384e-007   
  2.65            1.2814e-009     0.00012522      -5.6496e-007   
  2.7             2.8126e-009     0.0001318       -5.3929e-007   
  2.75            2.3212e-009     0.00013864      -5.024e-007    
  2.8             1.6407e-009     0.00014567      -4.79e-007     
  2.85            1.3182e-009     0.00015277      -4.5504e-007   
  2.9             2.8824e-009     0.00015998      -4.2755e-007   
  2.95            2.5503e-009     0.00016747      -3.931e-007    
  3               1.8791e-009     0.00017496      -3.7007e-007   
  3.05            1.3918e-009     0.00018264      -3.5061e-007   
  3.1             1.2638e-009     0.00019046      -3.2585e-007   
  3.15            2.7342e-009     0.00019841      -3.0583e-007   
  3.2             2.1453e-009     0.00020656      -2.73e-007     
  3.25            1.5222e-009     0.00021484      -2.5696e-007   
  3.3             1.2929e-009     0.00022317      -2.3772e-007   
  3.35            2.8417e-009     0.00023166      -2.1918e-007   
  3.4             2.4029e-009     0.00024043      -1.9187e-007   
  3.45            1.714e-009      0.00024916      -1.7835e-007   
  3.5             1.3393e-009     0.00025802      -1.6642e-007   
  3.55            2.897e-009      0.00026706      -1.5046e-007   
  3.6             2.6127e-009     0.00027626      -1.2794e-007   
  3.65            1.9705e-009     0.00028551      -1.1722e-007   
  3.7             1.4317e-009     0.0002949       -1.1082e-007   
  3.75            1.2735e-009     0.00030434      -9.949e-008    
  3.8             2.7833e-009     0.00031393      -9.138e-008    
  3.85            -1.8903e-009    0.00032395      -5.2166e-008   
  3.9             -1.4519e-009    0.00033378      -5.6824e-008   
  3.95            -1.3328e-009    0.00034372      -4.4081e-008   
  4               -2.6157e-009    0.00035378      -3.5733e-008   
  4.05            -2.1135e-009    0.00036383      -4.0161e-008   
  4.1             -1.5617e-009    0.0003741       -3.118e-008    
  4.15            -1.3633e-009    0.00038444      -2.1768e-008   
  4.2             -2.536e-009     0.00039476      -2.6104e-008   
  4.25            -2.4607e-009    0.00040521      -3.0825e-008   
  4.3             -2.7407e-009    0.00041582      -2.5652e-008   
  4.35            -2.7347e-009    0.00042649      -1.9023e-008   
  4.4             -2.1474e-009    0.00043725      -2.267e-008    
  4.45            -2.5432e-009    0.00044819      -1.9067e-008   
  4.5             -1.6246e-009    0.00045935      -2.1177e-008   
  4.55            -1.9344e-009    0.0004702       -1.8291e-008   
  4.6             -8.973e-010     0.00048117      -1.7306e-008   
  4.65            -1.2899e-009    0.00049242      -1.5851e-008   
  4.7             -1.703e-009     0.00050364      -1.5928e-008   
  4.75            -5.46e-010      0.00051459      -1.4046e-008   
  4.8             -9.76e-010      0.00052604      -1.381e-008    
  4.85            -1.3798e-009    0.00053754      -1.3158e-008   
  4.9             -1.7756e-009    0.00054897      -1.3558e-008   
  4.95            -6.432e-010     0.00056022      -1.2093e-008   
  5               -1.0477e-009    0.00057187      -1.2242e-008   
END_DB

BEGIN_DB
 ICCAP_VAR VS         0              
 ICCAP_VAR VB         -2.5           
 ICCAP_VAR VD         0.1            

 #VG              IG              ID              IB             
  0               1.3244e-009     1.4417e-009     -1.1185e-008   
  0.05            1.2016e-009     2.2708e-009     -8.986e-009    
  0.1             -1.737e-010     2.0036e-009     1.1038e-008    
  0.15            -1.41e-011      2.0824e-009     1.0464e-008    
  0.2             1.545e-010      2.1773e-009     1.0244e-008    
  0.25            3.361e-010      2.286e-009      1.0236e-008    
  0.3             5.109e-010      2.3701e-009     1.0591e-008    
  0.35            -1.3274e-009    1.4963e-009     2.4272e-008    
  0.4             -1.299e-009     1.647e-010      1.1233e-008    
  0.45            -2.623e-009     3.079e-010      1.3047e-008    
  0.5             -1.022e-009     -2.1527e-009    4.99e-010      
  0.55            1.6388e-009     -1.6498e-009    -1.3035e-008   
  0.6             1.7905e-009     1.6113e-009     -9.282e-009    
  0.65            3.917e-010      2.3208e-009     1.0316e-008    
  0.7             5.713e-010      2.3925e-009     1.0655e-008    
  0.75            -1.3174e-009    1.5532e-009     2.2771e-008    
  0.8             -2.6903e-009    2.085e-010      1.1508e-008    
  0.85            -9.205e-010     -2.1803e-009    4.72e-010      
  0.9             -1.071e-009     -2.1252e-009    -1.1274e-008   
  0.95            -1.2409e-009    -2.0336e-009    -1.1688e-008   
  1               2.195e-010      -1.7803e-009    -1.1919e-008   
  1.05            5.56e-011       -1.8983e-009    -1.1364e-008   
  1.1             -1.077e-010     -2.0253e-009    -1.1083e-008   
  1.15            -3.113e-010     -2.092e-009     -1.1099e-008   
  1.2             -5.189e-010     -2.0243e-009    -1.1274e-008   
  1.25            1.3445e-009     -5.367e-010     -1.153e-008    
  1.3             1.2879e-009     2.7551e-009     -8.874e-009    
  1.35            1.2589e-009     8.8806e-009     -1.0148e-008   
  1.4             -2.3832e-009    2.8876e-008     -1.1527e-008   
  1.45            -8.112e-010     8.1193e-008     -1.1372e-008   
  1.5             -2.5015e-009    2.0334e-007     1.2621e-008    
  1.55            -4.876e-010     4.1225e-007     -1.111e-008    
  1.6             -9.318e-010     7.0833e-007     -1.1567e-008   
  1.65            -1.3247e-009    1.07003e-006    -1.1303e-008   
  1.7             1.2939e-009     1.4608e-006     1.0315e-008    
  1.75            2.8417e-009     1.8872e-006     -1.0009e-008   
  1.8             4.234e-010      2.3443e-006     1.0235e-008    
  1.85            8.455e-010      2.7965e-006     1.0691e-008    
  1.9             -1.488e-009     3.2655e-006     1.5538e-008    
  1.95            -1.3411e-009    3.734e-006      9.504e-009     
  2               -2.6503e-009    4.2073e-006     1.1321e-008    
  2.05            -2.1973e-009    4.6752e-006     5.93e-010      
  2.1             -1.621e-009     5.149e-006      3.171e-009     
  2.15            -1.3785e-009    5.623e-006      7.508e-009     
  2.2             -1.3024e-009    6.095e-006      1.0992e-008    
  2.25            -2.4262e-009    6.5661e-006     1.2302e-008    
  2.3             -1.8237e-009    7.028e-006      1.869e-009     
  2.35            -1.4371e-009    7.4945e-006     5.272e-009     
  2.4             -1.3258e-009    7.9579e-006     1.0088e-008    
  2.45            -2.5877e-009    8.4201e-006     1.122e-008     
  2.5             -2.0623e-009    8.873e-006      6.16e-010      
  2.55            -1.5453e-009    9.3283e-006     3.647e-009     
  2.6             -1.3587e-009    9.7807e-006     8.387e-009     
  2.65            -2.6932e-009    1.02288e-005    1.13e-008      
  2.7             -3.842e-010     1.06637e-005    -1.1103e-008   
  2.75            -8.54e-010      1.11077e-005    -1.151e-008    
  2.8             2.9053e-009     1.1557e-005     -1.1632e-008   
  2.85            2.7836e-009     1.1988e-005     1.61e-010      
  2.9             5.099e-010      1.2423e-005     1.0211e-008    
  2.95            -1.8439e-009    1.285e-005      2.4329e-008    
  3               -1.4374e-009    1.3271e-005     5.516e-009     
  3.05            -1.3264e-009    1.3689e-005     1.0116e-008    
  3.1             -2.5948e-009    1.41e-005       1.1162e-008    
  3.15            -2.0797e-009    1.4504e-005     7.3e-010       
  3.2             -1.5421e-009    1.4908e-005     3.952e-009     
  3.25            -1.3573e-009    1.5309e-005     8.583e-009     
  3.3             -2.6953e-009    1.5704e-005     1.1389e-008    
  3.35            -2.3101e-009    1.6094e-005     4.25e-010      
  3.4             -1.7172e-009    1.6478e-005     2.537e-009     
  3.45            -1.4017e-009    1.6858e-005     6.404e-009     
  3.5             -1.3128e-009    1.7236e-005     1.0751e-008    
  3.55            -2.5185e-009    1.7609e-005     1.1692e-008    
  3.6             -1.9419e-009    1.7968e-005     1.34e-009      
  3.65            -1.4832e-009    1.8332e-005     4.412e-009     
  3.7             -1.3399e-009    1.8688e-005     9.45e-009      
  3.75            -2.6473e-009    1.9043e-005     1.1203e-008    
  3.8             -2.1911e-009    1.9385e-005     5.83e-010      
  3.85            -1.6209e-009    1.9727e-005     3.193e-009     
  3.9             -1.3768e-009    2.0065e-005     7.394e-009     
  3.95            -1.2986e-009    2.0396e-005     1.1314e-008    
  4               -2.4236e-009    2.0726e-005     1.2455e-008    
  4.05            -1.8263e-009    2.1038e-005     1.878e-009     
  4.1             -1.4343e-009    2.1358e-005     5.389e-009     
  4.15            -1.3238e-009    2.1668e-005     1.0002e-008    
