! VERSION = 6.00
BEGIN_HEADER
 ICCAP_INPUTS
  VG         V  B GROUND SMU4 0.001 LIN        1    0          5          101  0.05      
  VS         V  E GROUND SMU2 0.1 CON        0
  VB         V  C GROUND SMU3 0.1 LIN        3    0          -5         3    -2.5      
  VD         V  S GROUND SMU1 0.1 LIN        2    0.1        5          2    4.9       
 ICCAP_OUTPUTS
  IG         I  B GROUND SMU4 B
  ID         I  S GROUND SMU1 B
  IB         I  C GROUND SMU3 B
END_HEADER

BEGIN_DB
 ICCAP_VAR VS         0              
 ICCAP_VAR VB         0              
 ICCAP_VAR VD         0.1            

 #VG              IG              ID              IB             
  0               -4.209e-010     -5.196e-010     1.0314e-008    
  0.05            -1.4765e-009    1.9428e-009     1.1715e-008    
  0.1             -1.9295e-009    -1.3196e-009    1.0086e-008    
  0.15            -6.1e-010       -2.2604e-009    -1.1359e-008   
  0.2             -8.002e-010     -2.2692e-009    -1.1413e-008   
  0.25            1.2478e-009     -1.6e-009       -1.6526e-008   
  0.3             2.8173e-009     -2.512e-010     -1.4769e-008   
  0.35            2.437e-010      2.2403e-009     1.0208e-008    
  0.4             4.215e-010      2.3591e-009     1.0263e-008    
  0.45            5.943e-010      2.5004e-009     1.0616e-008    
  0.5             -1.3231e-009    1.939e-009      2.2281e-008    
  0.55            -2.716e-009     1.6484e-009     1.1574e-008    
  0.6             -2.5906e-009    5.4057e-009     5.19e-010      
  0.65            2.8243e-009     1.6652e-008     1.8692e-008    
  0.7             -1.689e-010     4.5969e-008     1.2943e-008    
  0.75            1.2755e-009     1.05151e-007    2.397e-009     
  0.8             1.9403e-009     2.1138e-007     -1.2279e-008   
  0.85            1.4257e-009     3.8497e-007     -9.214e-009    
  0.9             1.2778e-009     6.344e-007      -8.998e-009    
  0.95            2.8044e-009     1.02861e-006    -1.1281e-008   
  1               2.2548e-009     1.4098e-006     1.2976e-008    
  1.05            1.1035e-009     1.9178e-006     1.0437e-008    
  1.1             -5.6e-011       2.4638e-006     1.1741e-008    
  1.15            3.559e-010      3.0516e-006     1.0169e-008    
  1.2             7.818e-010      3.6213e-006     1.0488e-008    
  1.25            -1.5563e-009    4.189e-006      1.7362e-008    
  1.3             -1.368e-009     4.7383e-006     8.727e-009     
  1.35            -2.7237e-009    5.2645e-006     1.1506e-008    
  1.4             -2.338e-009     5.7952e-006     4.35e-010      
  1.45            -8.463e-010     6.2543e-006     -1.1251e-008   
  1.5             1.6134e-009     6.7171e-006     -1.5493e-008   
  1.55            1.3192e-009     7.1768e-006     -9.257e-009    
  1.6             2.8995e-009     7.617e-006      -9.069e-009    
  1.65            3.476e-010      8.0576e-006     1.0155e-008    
  1.7             7.734e-010      8.4693e-006     1.0449e-008    
  1.75            -1.5675e-009    8.8739e-006     1.7569e-008    
  1.8             -1.3724e-009    9.2721e-006     8.516e-009     
  1.85            -2.7259e-009    9.6558e-006     1.1536e-008    
  1.9             -3.681e-010     1.00224e-005    -1.1044e-008   
  1.95            -8.381e-010     1.0392e-005     -1.1271e-008   
  2               1.626e-009      1.07431e-005    -1.5796e-008   
  2.05            1.3227e-009     1.10997e-005    -9.178e-009    
  2.1             -1.7278e-009    1.1455e-005     -9.13e-009     
  2.15            -1.4133e-009    1.1799e-005     6.574e-009     
  2.2             -1.324e-009     1.2128e-005     1.0656e-008    
  2.25            -2.5412e-009    1.2453e-005     1.158e-008     
  2.3             -1.9686e-009    1.2768e-005     1.237e-009     
  2.35            -1.5019e-009    1.3083e-005     4.353e-009     
  2.4             -1.3544e-009    1.3393e-005     9.403e-009     
  2.45            -2.6939e-009    1.3699e-005     1.1334e-008    
  2.5             -2.2574e-009    1.3995e-005     5.33e-010      
  2.55            -1.6709e-009    1.4295e-005     2.865e-009     
  2.6             -1.4001e-009    1.4582e-005     7.027e-009     
  2.65            -1.3157e-009    1.4869e-005     1.1086e-008    
  2.7             -2.5063e-009    1.5157e-005     1.1788e-008    
  2.75            -1.9152e-009    1.5427e-005     1.499e-009     
  2.8             -1.4771e-009    1.5707e-005     4.856e-009     
  2.85            -1.3499e-009    1.5977e-005     9.525e-009     
  2.9             -2.6671e-009    1.6246e-005     1.1317e-008    
  2.95            -2.191e-009     1.6506e-005     5.45e-010      
  3               -1.6303e-009    1.6766e-005     2.899e-009     
  3.05            -1.3893e-009    1.7024e-005     7.422e-009     
  3.1             -1.3082e-009    1.7277e-005     1.1195e-008    
  3.15            -2.4603e-009    1.7529e-005     1.2122e-008    
  3.2             -1.8577e-009    1.777e-005      1.896e-009     
  3.25            -1.4593e-009    1.8012e-005     5.353e-009     
  3.3             -1.3401e-009    1.8254e-005     1.0107e-008    
  3.35            -2.6396e-009    1.8495e-005     1.129e-008     
  3.4             -2.1408e-009    1.8724e-005     6.74e-010      
  3.45            -1.5906e-009    1.8958e-005     3.469e-009     
  3.5             -1.3792e-009    1.9186e-005     7.91e-009      
  3.55            -1.3039e-009    1.9409e-005     1.143e-008     
  3.6             -2.4127e-009    1.9635e-005     1.2773e-008    
  3.65            -1.8052e-009    1.9852e-005     2.118e-009     
  3.7             -1.4384e-009    2.0069e-005     5.669e-009     
  3.75            -1.3347e-009    2.0281e-005     1.0095e-008    
  3.8             -2.611e-009     2.0498e-005     1.1152e-008    
  3.85            -2.0826e-009    2.0699e-005     7.32e-010      
  3.9             -1.5557e-009    2.0907e-005     3.773e-009     
  3.95            -1.3706e-009    2.111e-005      8.59e-009      
  4               -2.7269e-009    2.1313e-005     1.1268e-008    
  4.05            -3.654e-010     2.1504e-005     -1.1048e-008   
  4.1             -8.302e-010     2.1701e-005     -1.1314e-008   
  4.15            1.6339e-009     2.1887e-005     -1.5764e-008   
  4.2             1.325e-009      2.2087e-005     -9.124e-009    
  4.25            2.9049e-009     2.2274e-005     -9.131e-009    
  4.3             1.278e-009      2.2464e-005     1.0567e-008    
  4.35            1.239e-010      2.265e-005      1.0913e-008    
  4.4             5.471e-010      2.283e-005      1.0108e-008    
  4.45            -1.8132e-009    2.3009e-005     2.3494e-008    
  4.5             -1.437e-009     2.3188e-005     5.736e-009     
  4.55            -1.3332e-009    2.3362e-005     1.0336e-008    
  4.6             -2.6097e-009    2.3536e-005     1.131e-008     
  4.65            -2.0706e-009    2.37e-005       6.58e-010      
  4.7             -1.5548e-009    2.3871e-005     3.816e-009     
  4.75            -1.3685e-009    2.4033e-005     8.546e-009     
  4.8             -2.723e-009     2.4201e-005     1.1456e-008    
  4.85            -2.3477e-009    2.4359e-005     4.21e-010      
  4.9             -8.335e-010     2.4517e-005     -1.1312e-008   
  4.95            -1.2128e-009    2.4672e-005     -1.1238e-008   
  5               2.92e-011       2.4819e-005     -1.2064e-008   
END_DB

BEGIN_DB
 ICCAP_VAR VS         0              
 ICCAP_VAR VB         0              
 ICCAP_VAR VD         5              

 #VG              IG              ID              IB             
  0               1.057e-009      9.971e-010      2.1178e-008    
  0.05            1.4481e-009     -1.1272e-009    -2.6079e-008   
  0.1             2.0004e-009     1.3789e-009     -9.058e-009    
  0.15            5.984e-010      2.4061e-009     1.0559e-008    
  0.2             -1.3225e-009    1.5591e-009     2.2137e-008    
  0.25            -2.7147e-009    2.026e-010      1.1578e-008    
  0.3             -1.9247e-009    -1.3043e-009    4.99e-010      
  0.35            -5.99e-010      -2.1727e-009    -1.1281e-008   
  0.4             1.3326e-009     -9.964e-010     -1.1337e-008   
  0.45            2.9248e-009     2.1844e-009     -9.27e-009     
  0.5             2.9219e-009     5.4255e-009     -1.23e-010     
  0.55            2.8005e-009     1.7471e-008     1.6802e-008    
  0.6             2.9284e-009     5.5145e-008     1.3e-010       
  0.65            -1.4989e-009    1.5842e-007     -1.095e-008    
  0.7             -2.755e-009     3.7328e-007     -3.0834e-008   
  0.75            -2.4404e-009    7.7195e-007     -5.3454e-008   
  0.8             -8.926e-010     1.3909e-006     -1.0108e-007   
  0.85            -1.2827e-009    2.3164e-006     -1.5778e-007   
  0.9             -1.6963e-009    3.537e-006      -2.2763e-007   
  0.95            -1.9778e-009    5.0269e-006     -3.0756e-007   
  1               -2.2741e-009    6.8091e-006     -3.9746e-007   
  1.05            -2.6404e-009    8.8459e-006     -4.9314e-007   
  1.1             -2.789e-009     1.11015e-005    -5.9197e-007   
  1.15            1.9248e-009     1.354e-005      -7.0862e-007   
  1.2             2.2796e-009     1.616e-005      -7.805e-007    
  1.25            2.5713e-009     1.8909e-005     -8.8156e-007   
  1.3             2.8722e-009     2.1755e-005     -9.7967e-007   
  1.35            2.9043e-009     2.4698e-005     -1.07908e-006  
  1.4             6.091e-010      2.7748e-005     -1.1501e-006   
  1.45            2.814e-010      3.079e-005      -1.2696e-006   
  1.5             -1.147e-010     3.4e-005        -1.345e-006    
  1.55            -6.038e-010     3.7261e-005     -1.4189e-006   
  1.6             -1.0184e-009    4.0585e-005     -1.4883e-006   
  1.65            -1.4165e-009    4.3963e-005     -1.5501e-006   
  1.7             -1.8088e-009    4.7333e-005     -1.6098e-006   
  1.75            -2.0605e-009    5.0706e-005     -1.662e-006    
  1.8             -2.4098e-009    5.414e-005      -1.7089e-006   
  1.85            -2.7252e-009    5.7624e-005     -1.7486e-006   
  1.9             -2.7756e-009    6.1145e-005     -1.7852e-006   
  1.95            -2.5391e-009    6.4681e-005     -1.8136e-006   
  2               -1.9919e-009    6.8263e-005     -1.8421e-006   
  2.05            -1.5034e-009    7.1832e-005     -1.8646e-006   
  2.1             -1.3556e-009    7.5445e-005     -1.8785e-006   
  2.15            -2.6878e-009    7.9052e-005     -1.8907e-006   
  2.2             -2.2595e-009    8.266e-005      -1.9139e-006   
  2.25            -1.6759e-009    8.629e-005      -1.9202e-006   
  2.3             -1.3997e-009    8.9943e-005     -1.9236e-006   
  2.35            -1.3159e-009    9.366e-005      -1.9202e-006   
  2.4             -2.4987e-009    9.7288e-005     -1.9213e-006   
  2.45            -1.9136e-009    0.000100972     -1.9279e-006   
  2.5             -1.4738e-009    0.000104613     -1.9182e-006   
  2.55            -1.3452e-009    0.000108357     -1.9061e-006   
  2.6             -2.6553e-009    0.000112098     -1.8935e-006   
  2.65            -2.4491e-009    0.00011581      -1.9037e-006   
  2.7             -1.8617e-009    0.00011955      -1.8776e-006   
  2.75            -1.4576e-009    0.00012324      -1.8584e-006   
  2.8             -1.3408e-009    0.00012702      -1.8321e-006   
  2.85            -2.6373e-009    0.00013081      -1.8111e-006   
  2.9             -2.1353e-009    0.00013445      -1.8011e-006   
  2.95            -1.5913e-009    0.00013821      -1.7807e-006   
  3               -1.3765e-009    0.00014198      -1.7511e-006   
  3.05            -1.3034e-009    0.00014573      -1.7231e-006   
  3.1             -2.4039e-009    0.00014943      -1.6956e-006   
  3.15            -1.7956e-009    0.00015314      -1.6806e-006   
  3.2             -1.4322e-009    0.00015691      -1.6505e-006   
  3.25            -1.3312e-009    0.00016063      -1.619e-006    
  3.3             -2.5977e-009    0.00016438      -1.5895e-006   
  3.35            -2.0555e-009    0.00016811      -1.5719e-006   
  3.4             -1.5467e-009    0.00017187      -1.5378e-006   
  3.45            -1.3658e-009    0.00017561      -1.5045e-006   
  3.5             -2.715e-009     0.00017936      -1.4719e-006   
  3.55            -2.3252e-009    0.00018307      -1.4547e-006   
  3.6             -1.7306e-009    0.00018682      -1.4243e-006   
  3.65            -1.4139e-009    0.00019053      -1.3897e-006   
  3.7             -1.322e-009     0.00019428      -1.3576e-006   
  3.75            -2.5543e-009    0.00019803      -1.3281e-006   
  3.8             -1.9833e-009    0.00020174      -1.3077e-006   
  3.85            -1.5074e-009    0.00020547      -1.2773e-006   
  3.9             -1.3535e-009    0.00020919      -1.2438e-006   
  3.95            -2.6887e-009    0.00021292      -1.2104e-006   
  4               -2.2497e-009    0.00021662      -1.1948e-006   
  4.05            -1.6689e-009    0.00022032      -1.1677e-006   
  4.1             -1.3958e-009    0.00022405      -1.1368e-006   
  4.15            -1.3108e-009    0.00022774      -1.1056e-006   
  4.2             -2.4998e-009    0.00023145      -1.0762e-006   
  4.25            -1.9087e-009    0.00023513      -1.0608e-006   
  4.3             -1.4707e-009    0.00023881      -1.031e-006    
  4.35            2.5377e-009     0.00024238      -9.9983e-007   
  4.4             2.849e-009      0.00024613      -9.767e-007    
  4.45            2.9182e-009     0.00024987      -9.5577e-007   
  4.5             2.624e-009      0.00025352      -9.3483e-007   
  4.55            1.9726e-009     0.00025709      -9.1285e-007   
  4.6             1.437e-009      0.00026077      -8.9561e-007   
  4.65            1.2833e-009     0.00026435      -8.7162e-007   
  4.7             2.8082e-009     0.00026805      -8.5139e-007   
  4.75            2.2807e-009     0.00027163      -8.1966e-007   
  4.8             1.6144e-009     0.00027525      -8.0322e-007   
  4.85            1.3221e-009     0.00027892      -7.8603e-007   
  4.9             2.9059e-009     0.00028246      -7.6501e-007   
  4.95            2.5544e-009     0.00028611      -7.3651e-007   
  5               1.8797e-009     0.0002897       -7.1947e-007   
END_DB

BEGIN_DB
 ICCAP_VAR VS         0              
 ICCAP_VAR VB         -2.5           
 ICCAP_VAR VD         0.1            

 #VG              IG              ID              IB             
  0               9.124e-010      9.182e-010      -1.3436e-008   
  0.05            1.2937e-009     -1.4119e-009    -2.3305e-008   
  0.1             1.2602e-009     1.81e-011       -1.0378e-008   
  0.15            2.8861e-009     -1.242e-010     -1.2985e-008   
  0.2             1.258e-010      2.1643e-009     1.0093e-008    
  0.25            3.059e-010      2.2756e-009     1.0097e-008    
  0.3             4.766e-010      2.3618e-009     1.0367e-008    
  0.35            -1.3405e-009    1.4684e-009     2.4954e-008    
  0.4             -1.3112e-009    1.129e-010      1.1e-008       
  0.45            -2.6716e-009    2.554e-010      1.2202e-008    
  0.5             -1.9616e-009    -1.2693e-009    4.45e-010      
  0.55            -6.866e-010     -2.2604e-009    -1.146e-008    
  0.6             1.2606e-009     -1.5489e-009    -1.8929e-008   
  0.65            2.8693e-009     -1.578e-010     -1.3481e-008   
  0.7             1.548e-010      2.1841e-009     1.0096e-008    
  0.75            3.378e-010      2.3055e-009     1.0167e-008    
  0.8             5.164e-010      2.4167e-009     1.0478e-008    
  0.85            -1.3321e-009    1.68e-009       2.4257e-008    
  0.9             -1.3032e-009    9.306e-010      1.1278e-008    
  0.95            -2.6527e-009    3.3998e-009     1.2613e-008    
  1               2.7026e-009     1.1572e-008     -1.0092e-008   
  1.05            6.491e-010      3.5791e-008     1.0263e-008    
  1.1             -1.6854e-009    8.866e-008      2.0589e-008    
  1.15            1.2992e-009     1.8691e-007     -2.1452e-008   
  1.2             1.508e-010      3.5044e-007     1.0749e-008    
  1.25            5.867e-010      5.7842e-007     1.0122e-008    
  1.3             -1.7665e-009    8.8781e-007     2.2404e-008    
  1.35            -2.6952e-009    1.3109e-006     -2.2075e-008   
  1.4             -7.741e-010     1.7885e-006     -1.1174e-008   
  1.45            1.699e-009      2.3308e-006     -1.7095e-008   
  1.5             1.3377e-009     2.9112e-006     -9.276e-009    
  1.55            2.915e-009      3.4823e-006     -8.999e-009    
  1.6             2.936e-010      4.0568e-006     1.0294e-008    
  1.65            7.273e-010      4.5901e-006     1.0376e-008    
  1.7             -1.6076e-009    5.1078e-006     1.8779e-008    
  1.75            -1.3757e-009    5.6044e-006     8.073e-009     
  1.8             -1.3032e-009    6.0828e-006     1.1191e-008    
  1.85            -2.4018e-009    6.5376e-006     1.2876e-008    
  1.9             -1.7953e-009    6.9775e-006     2.086e-009     
  1.95            -1.428e-009     7.4047e-006     5.939e-009     
  2               -1.3255e-009    7.8149e-006     1.0318e-008    
  2.05            -2.5799e-009    8.2159e-006     1.131e-008     
  2.1             -2.0328e-009    8.5981e-006     1.064e-009     
  2.15            -1.5243e-009    8.977e-006      4.195e-009     
  2.2             -1.3559e-009    9.3423e-006     9.083e-009     
  2.25            -2.6931e-009    9.703e-006      1.1293e-008    
  2.3             -2.2706e-009    1.00472e-005    4.52e-010      
  2.35            -1.6754e-009    1.03878e-005    2.686e-009     
  2.4             -1.3963e-009    1.07216e-005    7.075e-009     
  2.45            -1.3111e-009    1.10498e-005    1.0975e-008    
  2.5             -2.494e-009     1.13715e-005    1.1785e-008    
  2.55            2.6061e-009     1.1685e-005     -1.0987e-008   
  2.6             5.312e-010      1.1994e-005     1.0111e-008    
  2.65            -1.8373e-009    1.2297e-005     2.4057e-008    
  2.7             -1.4339e-009    1.2595e-005     5.788e-009     
  2.75            -1.3263e-009    1.2887e-005     1.0324e-008    
  2.8             -2.5962e-009    1.3179e-005     1.1e-008       
  2.85            -2.0628e-009    1.3458e-005     7.18e-010      
  2.9             -1.5356e-009    1.3736e-005     3.86e-009      
  2.95            -1.3562e-009    1.4009e-005     9.023e-009     
  3               -2.7023e-009    1.4276e-005     1.1316e-008    
  3.05            -2.2978e-009    1.4541e-005     4.49e-010      
  3.1             -8.797e-010     1.48e-005       -1.1462e-008   
  3.15            -1.2726e-009    1.5058e-005     -1.1238e-008   
  3.2             -2.89e-011      1.5305e-005     -1.1786e-008   
  3.25            -5.196e-010     1.5558e-005     -1.0999e-008   
  3.3             -9.556e-010     1.5807e-005     -1.1488e-008   
  3.35            2.813e-010      1.6039e-005     -1.3643e-008   
  3.4             -1.172e-010     1.6284e-005     -1.1516e-008   
  3.45            -6.178e-010     1.6522e-005     -1.097e-008    
  3.5             -1.0345e-009    1.6761e-005     -1.1489e-008   
  3.55            2.015e-010      1.6977e-005     -1.2832e-008   
  3.6             -2.239e-010     1.7212e-005     -1.1177e-008   
  3.65            -7.233e-010     1.7435e-005     -1.1093e-008   
  3.7             1.7656e-009     1.7653e-005     -1.8189e-008   
  3.75            1.3536e-009     1.7874e-005     -9.553e-009    
  3.8             1.2597e-009     1.8087e-005     -8.643e-009    
  3.85            2.6712e-009     1.8305e-005     -1.3987e-008   
  3.9             2.5781e-009     1.8512e-005     8.322e-009     
  3.95            4.967e-010      1.8724e-005     1.0125e-008    
  4               -1.2958e-009    1.8927e-005     2.4791e-008    
  4.05            -2.3424e-009    1.9133e-005     1.368e-008     
  4.1             -8.542e-010     1.9323e-005     -1.1362e-008   
  4.15            -1.2411e-009    1.952e-005      -1.1238e-008   
