! VERSION = 6.00
BEGIN_HEADER
 ICCAP_INPUTS
  VG         V  B GROUND SMU4 0.001 LIN        2    0          5          6    1         
  VS         V  E GROUND SMU2 0.1 CON        0
  VD         V  S GROUND SMU1 0.1 LIN        1    0          5          101  0.05      
  VB         V  C GROUND SMU3 0.1 LIN        3    0          -2.5       2    -2.5      
 ICCAP_OUTPUTS
  ID         I  S GROUND SMU1 B
  IB         I  C GROUND SMU3 B
  IG         I  B GROUND SMU4 B
END_HEADER

BEGIN_DB
 ICCAP_VAR VG         0              
 ICCAP_VAR VS         0              
 ICCAP_VAR VB         0              

 #VD              ID              IB              IG             
  0               1.1557e-009     -1.1706e-008    1.3202e-009    
  0.05            -1.149e-010     -1.3909e-008    2.8556e-009    
  0.1             1.4814e-009     2.5544e-008     -1.3771e-009   
  0.15            1.087e-010      1.3498e-008     -2.6845e-009   
  0.2             -1.5257e-009    -2.2587e-008    1.322e-009     
  0.25            -9.56e-011      -1.361e-008     2.8531e-009    
  0.3             1.4715e-009     2.6036e-008     -1.3782e-009   
  0.35            9.11e-011       1.3274e-008     -2.6839e-009   
  0.4             -1.5146e-009    -2.302e-008     1.3232e-009    
  0.45            -7.91e-011      -1.3126e-008    2.8547e-009    
  0.5             1.4595e-009     2.6451e-008     -1.3781e-009   
  0.55            8.39e-011       1.3259e-008     -2.688e-009    
  0.6             -1.5051e-009    -2.3549e-008    1.3238e-009    
  0.65            -5.85e-011      -1.2674e-008    2.8549e-009    
  0.7             1.4444e-009     2.7057e-008     -1.3781e-009   
  0.75            6.68e-011       1.2927e-008     -1.3622e-009   
  0.8             2.295e-010      1.4762e-008     -2.6484e-009   
  0.85            -2.2006e-009    9.78e-010       -1.0228e-009   
  0.9             -1.7233e-009    -1.1111e-008    1.6563e-009    
  0.95            1.5926e-009     -8.897e-009     1.7807e-009    
  1               2.2646e-009     1.2683e-008     3.995e-010     
  1.05            2.3016e-009     1.2414e-008     5.843e-010     
  1.1             2.3228e-009     1.0838e-008     7.58e-010      
  1.15            1.63e-009       1.85e-008       -1.9282e-009   
  1.2             -1.8095e-009    5.264e-009      -1.6311e-009   
  1.25            -1.4897e-009    -2.4222e-008    1.3238e-009    
  1.3             -4.22e-011      -1.2211e-008    2.8574e-009    
  1.35            1.4299e-009     2.7711e-008     -1.3782e-009   
  1.4             4.97e-011       1.2974e-008     -1.364e-009    
  1.45            2.057e-010      1.458e-008      -2.6569e-009   
  1.5             -1.2766e-009    1.112e-009      -1.9626e-009   
  1.55            -2.2303e-009    -1.2238e-008    -7.065e-010    
  1.6             -1.5717e-009    -1.9704e-008    1.315e-009     
  1.65            -1.875e-010     -1.5681e-008    2.8441e-009    
  1.7             1.5309e-009     2.2784e-008     -1.3713e-009   
  1.75            1.729e-010      1.422e-008      -2.669e-009    
  1.8             -1.5681e-009    -2.0342e-008    1.317e-009     
  1.85            -1.663e-010     -1.5022e-008    2.8475e-009    
  1.9             1.5196e-009     2.3589e-008     -1.3719e-009   
  1.95            1.546e-010      1.392e-008      -2.6724e-009   
  2               -2.1586e-009    -1.2413e-008    -1.175e-010    
  2.05            -2.2264e-009    -1.306e-008     -3.483e-010    
  2.1             -2.235e-009     -1.2869e-008    -5.588e-010    
  2.15            -2.2257e-009    -1.1747e-008    -7.629e-010    
  2.2             -1.5973e-009    -1.8225e-008    2.1907e-009    
  2.25            2.0245e-009     -7.595e-009     1.4845e-009    
  2.3             1.3789e-009     2.8757e-008     -1.3786e-009   
  2.35            -1e-012         1.2481e-008     -1.3723e-009   
  2.4             1.49e-010       1.3966e-008     -2.6745e-009   
  2.45            -1.5501e-009    -2.1045e-008    2.3475e-009    
  2.5             2.1258e-009     -6.482e-009     1.3935e-009    
  2.55            1.3035e-009     2.944e-008      -1.375e-009    
  2.6             -2.0926e-009    1.17e-008       -1.3396e-009   
  2.65            -1.9278e-009    -1.0763e-008    -1.5214e-009   
  2.7             -1.4054e-009    -2.6315e-008    1.3212e-009    
  2.75            4.32e-011       -9.85e-009      1.3207e-009    
  2.8             -9.94e-011      -1.3883e-008    2.8532e-009    
  2.85            1.4779e-009     2.5834e-008     -1.3771e-009   
  2.9             1.033e-010      1.344e-008      -2.6855e-009   
  2.95            -1.5171e-009    -2.294e-008     1.3228e-009    
  3               -9.04e-011      -1.3282e-008    2.8553e-009    
  3.05            1.4664e-009     2.6353e-008     -1.3775e-009   
  3.1             8.89e-011       1.3336e-008     -2.6881e-009   
  3.15            -1.5065e-009    -2.333e-008     2.4724e-009    
  3.2             2.1923e-009     -5.618e-009     1.321e-009     
  3.25            1.2421e-009     2.9324e-008     -1.3745e-009   
  3.3             -2.1408e-009    1.0733e-008     -1.273e-009    
  3.35            -1.9049e-009    -1.041e-008     2.328e-010     
  3.4             -9.541e-010     -2.1074e-008    1.7229e-009    
  3.45            1.6713e-009     -8.957e-009     1.7315e-009    
  3.5             2.2514e-009     1.2589e-008     3.416e-010     
  3.55            2.2923e-009     1.2277e-008     5.327e-010     
  3.6             1.4593e-009     2.6469e-008     -1.3789e-009   
  3.65            8.55e-011       1.3317e-008     -2.6876e-009   
  3.7             -1.4994e-009    -2.359e-008     1.3238e-009    
  3.75            -5.77e-011      -1.2709e-008    2.8573e-009    
  3.8             1.449e-009      2.7107e-008     -1.3796e-009   
  3.85            6.62e-011       1.3259e-008     -2.6906e-009   
  3.9             -1.4906e-009    -2.3955e-008    2.5114e-009    
  3.95            2.2108e-009     -4.961e-009     1.2963e-009    
  4               1.2246e-009     2.9178e-008     -1.3788e-009   
  4.05            -2.154e-009     1.0555e-008     -1.251e-009    
  4.1             -1.8841e-009    -1.0258e-008    2.545e-010     
  4.15            -9.37e-010      -2.0432e-008    1.7656e-009    
  4.2             1.7082e-009     -9.114e-009     1.709e-009     
  4.25            2.2403e-009     1.2558e-008     3.123e-010     
  4.3             2.288e-009      1.2375e-008     5.056e-010     
  4.35            1.4406e-009     2.7052e-008     -1.3793e-009   
  4.4             6.8e-011        1.3111e-008     -1.3627e-009   
  4.45            2.302e-010      1.4863e-008     -2.656e-009    
  4.5             -2.2028e-009    9.96e-010       -1.0167e-009   
  4.55            -1.7215e-009    -1.115e-008     1.6567e-009    
  4.6             1.6034e-009     -8.898e-009     1.7733e-009    
  4.65            2.2654e-009     1.2666e-008     3.905e-010     
  4.7             2.2969e-009     1.233e-008      5.818e-010     
  4.75            1.4932e-009     2.4857e-008     -1.3766e-009   
  4.8             1.235e-010      1.36e-008       -2.6816e-009   
  4.85            -1.5291e-009    -2.2168e-008    1.3208e-009    
  4.9             -1.131e-010     -1.4051e-008    2.8526e-009    
  4.95            1.4821e-009     2.5546e-008     -1.3783e-009   
  5               1.087e-010      1.3595e-008     -2.6823e-009   
END_DB

BEGIN_DB
 ICCAP_VAR VG         1              
 ICCAP_VAR VS         0              
 ICCAP_VAR VB         0              

 #VD              ID              IB              IG             
  0               -3.9248e-009    2.9465e-008     2.8532e-009    
  0.05            4.4549e-007     -2.6975e-008    1.9404e-009    
  0.1             7.3391e-007     -1.0947e-008    2.525e-010     
  0.15            9.1572e-007     1.2601e-008     -2.6518e-009   
  0.2             9.9653e-007     9.251e-009      1.5048e-009    
  0.25            1.05726e-006    -2.2882e-008    2.0125e-009    
  0.3             1.09613e-006    -1.3175e-008    -6.845e-010    
  0.35            1.13572e-006    1.8872e-008     -1.6419e-009   
  0.4             1.1442e-006     1.2612e-008     -4.395e-010    
  0.45            1.1748e-006     1.6438e-008     -2.3236e-009   
  0.5             1.186e-006      1.0107e-008     3.85e-011      
  0.55            1.1871e-006     -1.1938e-008    2.8187e-009    
  0.6             1.1985e-006     -1.2148e-008    2.904e-010     
  0.65            1.2226e-006     9.24e-009       -1.3765e-009   
  0.7             1.2365e-006     2.924e-008      -1.3742e-009   
  0.75            1.2475e-006     2.9362e-008     -1.3742e-009   
  0.8             1.2557e-006     2.9159e-008     -2.1027e-009   
  0.85            1.2635e-006     2.9428e-008     -1.3801e-009   
  0.9             1.2719e-006     2.9489e-008     -1.3779e-009   
  0.95            1.2803e-006     2.9333e-008     -1.3768e-009   
  1               1.2854e-006     2.9326e-008     -1.3735e-009   
  1.05            1.2954e-006     2.9009e-008     -2.0981e-009   
  1.1             1.2987e-006     2.9437e-008     -1.3788e-009   
  1.15            1.3059e-006     2.9289e-008     -1.3772e-009   
  1.2             1.3151e-006     2.9473e-008     -1.3766e-009   
  1.25            1.3169e-006     2.9285e-008     -1.3729e-009   
  1.3             1.3246e-006     2.912e-008      -1.3712e-009   
  1.35            1.3311e-006     2.8913e-008     -2.053e-009    
  1.4             1.335e-006      2.9395e-008     -1.3768e-009   
  1.45            1.3401e-006     2.9464e-008     -1.376e-009    
  1.5             1.3444e-006     2.9233e-008     -1.3729e-009   
  1.55            1.3524e-006     2.9158e-008     -1.3696e-009   
  1.6             1.3568e-006     2.8704e-008     -1.3661e-009   
  1.65            1.3614e-006     2.8386e-008     -1.3626e-009   
  1.7             1.3647e-006     2.7802e-008     -1.3573e-009   
  1.75            1.3692e-006     2.733e-008      -1.9238e-009   
  1.8             1.372e-006      2.9094e-008     -1.369e-009    
  1.85            1.375e-006      2.8877e-008     -1.3656e-009   
  1.9             1.3794e-006     2.8462e-008     -1.3621e-009   
  1.95            1.3857e-006     2.7834e-008     -1.3581e-009   
  2               1.3873e-006     2.7302e-008     -1.9291e-009   
  2.05            1.3926e-006     2.8841e-008     -1.3683e-009   
  2.1             1.3949e-006     2.8759e-008     -1.3654e-009   
  2.15            1.3993e-006     2.8338e-008     -1.3631e-009   
  2.2             1.4037e-006     2.7814e-008     -1.3578e-009   
  2.25            1.4041e-006     2.7176e-008     -1.9234e-009   
  2.3             1.409e-006      2.8881e-008     -2.0871e-009   
  2.35            1.414e-006      2.9263e-008     -1.3774e-009   
  2.4             1.4193e-006     2.9143e-008     -1.3771e-009   
  2.45            1.4199e-006     2.9216e-008     -1.3745e-009   
  2.5             1.4227e-006     2.8848e-008     -1.3718e-009   
  2.55            1.426e-006      2.8749e-008     -2.081e-009    
  2.6             1.4277e-006     2.8849e-008     -1.3787e-009   
  2.65            1.4311e-006     2.8946e-008     -1.3768e-009   
  2.7             1.4408e-006     2.8828e-008     -1.3755e-009   
  2.75            1.4372e-006     2.8542e-008     -1.3731e-009   
  2.8             1.4424e-006     2.8239e-008     -2.0844e-009   
  2.85            1.4433e-006     2.8413e-008     -1.3782e-009   
  2.9             1.4442e-006     1.6399e-008     -2.0011e-009   
  2.95            1.4473e-006     1.6286e-008     -1.9612e-009   
  3               1.4489e-006     1.6166e-008     -1.9179e-009   
  3.05            1.4526e-006     1.6126e-008     -1.8789e-009   
  3.1             1.4553e-006     1.6045e-008     -1.8344e-009   
  3.15            1.459e-006      1.5794e-008     -1.797e-009    
  3.2             1.4623e-006     1.5651e-008     -1.7644e-009   
  3.25            1.4647e-006     1.544e-008      -1.7192e-009   
  3.3             1.4514e-006     7.33e-009       2.0098e-009    
  3.35            1.4524e-006     -1.8705e-008    1.5606e-009    
  3.4             1.4612e-006     -1.4105e-008    -2.0633e-009   
  3.45            1.4752e-006     1.2247e-008     -2.0013e-009   
  3.5             1.4783e-006     1.1801e-008     -1.9562e-009   
  3.55            1.4817e-006     1.118e-008      -1.9181e-009   
  3.6             1.4852e-006     1.057e-008      -1.8728e-009   
  3.65            1.4904e-006     9.844e-009      -1.8349e-009   
  3.7             1.4923e-006     9.093e-009      -1.7948e-009   
  3.75            1.4967e-006     8.048e-009      -1.7561e-009   
  3.8             1.4996e-006     7.023e-009      -1.7164e-009   
  3.85            1.4928e-006     -1.8828e-008    -2.7184e-009   
  3.9             1.5067e-006     3.087e-009      -2.0349e-009   
  3.95            1.5086e-006     1.609e-009      -1.992e-009    
  4               1.5119e-006     1.24e-010       -1.9518e-009   
  4.05            1.498e-006      -7.729e-009     1.8622e-009    
  4.1             1.5059e-006     -4.0265e-008    1.7876e-009    
  4.15            1.5168e-006     -3.4962e-008    -1.9716e-009   
  4.2             1.529e-006      -9.461e-009     -1.5093e-009   
  4.25            1.5226e-006     -1.7886e-008    2.1727e-009    
  4.3             1.5193e-006     -4.1832e-008    2.587e-010     
  4.35            1.542e-006      -2.4021e-008    -2.7008e-009   
  4.4             1.5364e-006     -2.6458e-008    1.0276e-009    
  4.45            1.5364e-006     -6.0806e-008    1.4498e-009    
  4.5             1.5491e-006     -5.3603e-008    -2.1451e-009   
  4.55            1.5652e-006     -3.7126e-008    -1.707e-010    
  4.6             1.5523e-006     -5.9796e-008    2.8581e-009    
  4.65            1.5737e-006     -6.5274e-008    -1.1717e-009   
  4.7             1.5878e-006     -3.6495e-008    -1.4047e-009   
  4.75            1.5794e-006     -5.5337e-008    2.3247e-009    
  4.8             1.5814e-006     -7.9495e-008    1.068e-010     
  4.85            1.6065e-006     -6.3234e-008    -2.6752e-009   
  4.9             1.5959e-006     -7.1443e-008    1.1817e-009    
  4.95            1.6078e-006     -7.386e-008     -2.7215e-009   
  5               1.6186e-006     -1.02218e-007   -2.6262e-009   
END_DB

BEGIN_DB
 ICCAP_VAR VG         2              
 ICCAP_VAR VS         0              
 ICCAP_VAR VB         0              

 #VD              ID              IB              IG             
  0               -3.7195e-008    -1.781e-008     -1.2358e-009   
  0.05            2.8672e-006     -2.6636e-008    -2.6883e-009   
  0.1             5.6263e-006     1.9644e-008     -1.6071e-009   
  0.15            8.2267e-006     1.0289e-008     2.0938e-009    
  0.2             1.06683e-005    -1.295e-008     3.344e-010     
  0.25            1.2953e-005     8.514e-009      1.536e-009     
  0.3             1.5073e-005     -2.6549e-008    1.3211e-009    
  0.35            1.7026e-005     -1.2888e-008    -6.083e-010    
  0.4             1.8805e-005     7.163e-009      -1.3732e-009   
  0.45            2.0426e-005     2.6708e-008     -1.8943e-009   
  0.5             2.1846e-005     1.1996e-008     8.472e-010     
  0.55            2.3095e-005     -2.5275e-008    1.3197e-009    
  0.6             2.4206e-005     -2.163e-008     1.9235e-009    
  0.65            2.517e-005      -1.2142e-008    -9.53e-010     
  0.7             2.6004e-005     2.7429e-008     -1.3728e-009   
  0.75            2.6655e-005     1.2146e-008     4.383e-010     
  0.8             2.7176e-005     -1.9208e-008    1.5998e-009    
  0.85            2.7667e-005     -1.0451e-008    -1.119e-009    
  0.9             2.8066e-005     2.9318e-008     -1.3764e-009   
  0.95            2.8351e-005     1.2517e-008     6.381e-010     
  1               2.8591e-005     -8.713e-009     1.32e-009      
  1.05            2.8822e-005     -1.2499e-008    -4.456e-010    
  1.1             2.9038e-005     1.9264e-008     -1.5815e-009   
  1.15            2.917e-005      1.007e-008      1.0349e-009    
  1.2             2.93e-005       -2.6662e-008    1.322e-009     
  1.25            2.9505e-005     -1.1605e-008    -1.7294e-009   
  1.3             2.9594e-005     1.2572e-008     -1.4273e-009   
  1.35            2.9673e-005     2.9221e-008     -1.3746e-009   
  1.4             2.975e-005      1.2601e-008     6.616e-010     
  1.45            2.981e-005      -8.504e-009     1.3206e-009    
  1.5             2.9926e-005     -1.2642e-008    -4.767e-010    
  1.55            3.0041e-005     1.9459e-008     -1.5518e-009   
  1.6             3.0081e-005     9.859e-009      1.0612e-009    
  1.65            3.0169e-005     -2.6667e-008    1.3216e-009    
  1.7             3.0316e-005     -1.1603e-008    -1.7499e-009   
  1.75            3.033e-005      1.1873e-008     -2.52e-010     
  1.8             3.033e-005      -1.6133e-008    2.6875e-009    
  1.85            3.0448e-005     -2.4156e-008    2.0824e-009    
  1.9             3.0538e-005     -1.2745e-008    -8.879e-010    
  1.95            3.0631e-005     2.6286e-008     -1.3712e-009   
  2               3.069e-005      2.5856e-008     -1.8559e-009   
  2.05            3.0705e-005     1.1692e-008     8.674e-010     
  2.1             3.0732e-005     -2.5727e-008    1.3192e-009    
  2.15            3.0788e-005     -2.0966e-008    1.8776e-009    
  2.2             3.0867e-005     -1.1896e-008    -9.747e-010    
  2.25            3.0958e-005     2.7908e-008     -1.3738e-009   
  2.3             3.0976e-005     1.2153e-008     4.625e-010     
  2.35            3.098e-005      -1.9355e-008    1.5555e-009    
  2.4             3.1033e-005     -2.6594e-008    1.3221e-009    
  2.45            3.1106e-005     -1.3052e-008    -5.673e-010    
  2.5             3.1174e-005     6.717e-009      -1.3728e-009   
  2.55            3.1227e-005     2.7206e-008     -1.9386e-009   
  2.6             3.1232e-005     1.1811e-008     8.243e-010     
  2.65            3.1238e-005     -2.5617e-008    1.3235e-009    
  2.7             3.1359e-005     -1.0659e-008    -1.4903e-009   
  2.75            3.1387e-005     1.9417e-008     -1.6459e-009   
  2.8             3.1428e-005     1.4878e-008     -2.367e-009    
  2.85            3.1415e-005     8.794e-009      2.0883e-009    
  2.9             3.1445e-005     -1.3301e-008    -1.425e-010    
  2.95            3.1536e-005     1.5397e-008     -1.9255e-009   
  3               3.1589e-005     1.057e-008      -2.5609e-009   
  3.05            3.1622e-005     1.4052e-008     -1.8513e-009   
  3.1             3.1664e-005     9.085e-009      -2.52e-009     
  3.15            3.169e-005      1.2178e-008     -1.7806e-009   
  3.2             3.1718e-005     7.187e-009      -2.4792e-009   
  3.25            3.1762e-005     9.429e-009      -1.7226e-009   
  3.3             3.1809e-005     4.532e-009      -2.434e-009    
  3.35            3.18e-005       -1.891e-008     -2.7187e-009   
  3.4             3.1872e-005     -2.345e-009     -2.6123e-009   
  3.45            3.1889e-005     -6.971e-009     2.585e-010     
  3.5             3.1873e-005     -4.0321e-008    1.866e-009     
  3.55            3.1934e-005     -3.3957e-008    -2.3389e-009   
  3.6             3.1979e-005     -1.6777e-008    5.753e-010     
  3.65            3.1974e-005     -5.4636e-008    1.4435e-009    
  3.7             3.2053e-005     -4.8455e-008    -2.6087e-009   
  3.75            3.2086e-005     -3.3465e-008    8.596e-010     
  3.8             3.2082e-005     -7.7555e-008    1.3201e-009    
  3.85            3.2175e-005     -6.7594e-008    -2.7199e-009   
  3.9             3.2176e-005     -5.8598e-008    1.1074e-009    
  3.95            3.2215e-005     -1.03936e-007   1.3162e-009    
  4               3.2279e-005     -9.2727e-008    -2.7141e-009   
  4.05            3.2262e-005     -9.0444e-008    1.3764e-009    
  4.1             3.235e-005      -1.3148e-007    -7.565e-010    
  4.15            3.2358e-005     -1.351e-007     1.3229e-009    
