! VERSION = 6.00
BEGIN_HEADER
 ICCAP_INPUTS
  VG         V  B GROUND SMU4 0.001 LIN        2    0          5          6    1         
  VS         V  E GROUND SMU2 0.1 CON        0
  VD         V  S GROUND SMU1 0.1 LIN        1    0          5          101  0.05      
  VB         V  C GROUND SMU3 0.1 LIN        3    0          -2.5       2    -2.5      
 ICCAP_OUTPUTS
  ID         I  S GROUND SMU1 B
  IB         I  C GROUND SMU3 B
  IG         I  B GROUND SMU4 B
END_HEADER

BEGIN_DB
 ICCAP_VAR VG         0              
 ICCAP_VAR VS         0              
 ICCAP_VAR VB         0              

 #VD              ID              IB              IG             
  0               1.0256e-009     1.7444e-008     1.135e-009     
  0.05            -9.243e-010     -2.3222e-008    1.8251e-009    
  0.1             1.7523e-009     -9.404e-009     1.685e-009     
  0.15            1.5076e-009     1.0363e-008     1.8587e-009    
  0.2             2.3299e-009     1.0424e-008     4.257e-010     
  0.25            2.3955e-009     1.0781e-008     5.961e-010     
  0.3             1.5417e-009     2.2483e-008     -1.333e-009    
  0.35            1.503e-010      1.1798e-008     -2.746e-009    
  0.4             -1.3897e-009    5.8e-010        -1.9375e-009   
  0.45            -2.3148e-009    -1.1192e-008    -5.759e-010    
  0.5             -2.3332e-009    -1.1377e-008    -7.618e-010    
  0.55            -1.6344e-009    -1.7427e-008    1.2552e-009    
  0.6             -2.343e-010     -1.3969e-008    2.8626e-009    
  0.65            2.1871e-009     1.0298e-008     1.863e-010     
  0.7             2.2903e-009     1.0389e-008     3.539e-010     
  0.75            2.3677e-009     1.0583e-008     5.225e-010     
  0.8             1.4784e-009     2.4282e-008     -1.3445e-009   
  0.85            9.34e-011       1.1397e-008     -1.3161e-009   
  0.9             2.224e-010      1.2623e-008     -2.6893e-009   
  0.95            -1.3299e-009    6.84e-010       -1.9871e-009   
  1               -2.3291e-009    -1.1444e-008    -6.773e-010    
  1.05            -2.3243e-009    -1.133e-008     -8.546e-010    
  1.1             -1.6738e-009    -1.5591e-008    2.0084e-009    
  1.15            1.8865e-009     -8.766e-009     1.5795e-009    
  1.2             2.1633e-009     1.0354e-008     1.514e-010     
  1.25            2.2686e-009     1.0246e-008     3.175e-010     
  1.3             2.3603e-009     1.0642e-008     4.859e-010     
  1.35            2.4131e-009     1.081e-008      6.581e-010     
  1.4             1.5922e-009     2.0823e-008     -1.3227e-009   
  1.45            1.992e-010      1.2158e-008     -2.7119e-009   
  1.5             -1.3468e-009    5.81e-010       -1.9691e-009   
  1.55            -2.3223e-009    -1.1317e-008    -6.401e-010    
  1.6             -2.3267e-009    -1.1283e-008    -8.244e-010    
  1.65            -1.6601e-009    -1.6289e-008    2.0504e-009    
  1.7             1.9228e-009     -8.598e-009     1.5477e-009    
  1.75            2.1497e-009     1.0394e-008     1.209e-010     
  1.8             2.2505e-009     1.0273e-008     2.911e-010     
  1.85            2.3449e-009     1.062e-008      4.605e-010     
  1.9             2.4059e-009     1.0826e-008     6.332e-010     
  1.95            1.5658e-009     2.172e-008      -1.3289e-009   
  2               1.752e-010      1.1946e-008     -2.7261e-009   
  2.05            -1.367e-009     5.49e-010       -1.9551e-009   
  2.1             -2.322e-009     -1.1317e-008    -6.09e-010     
  2.15            -2.3321e-009    -1.1366e-008    -7.98e-010     
  2.2             -1.65e-009      -1.6795e-008    1.2489e-009    
  2.25            -2.678e-010     -1.4326e-008    2.8401e-009    
  2.3             2.2073e-009     1.0371e-008     2.207e-010     
  2.35            2.3066e-009     1.0402e-008     3.904e-010     
  2.4             2.38e-009       1.0751e-008     5.607e-010     
  2.45            1.5064e-009     2.3412e-008     -1.3397e-009   
  2.5             1.241e-010      1.1454e-008     -1.3122e-009   
  2.55            2.583e-010      1.2999e-008     -2.6572e-009   
  2.6             -1.3052e-009    7.3e-010        -2.0105e-009   
  2.65            -2.3322e-009    -1.1352e-008    -7.291e-010    
  2.7             -1.6189e-009    -1.8075e-008    1.2581e-009    
  2.75            -2.083e-010     -1.3609e-008    2.8746e-009    
  2.8             2.1709e-009     1.0421e-008     1.569e-010     
  2.85            2.2775e-009     1.0367e-008     3.276e-010     
  2.9             2.3607e-009     1.0536e-008     4.967e-010     
  2.95            2.4129e-009     1.09e-008       6.695e-010     
  3               1.5983e-009     2.0568e-008     -1.322e-009    
  3.05            2.133e-010      1.2363e-008     -2.6955e-009   
  3.1             -1.3407e-009    6.27e-010       -1.9781e-009   
  3.15            -2.327e-009     -1.132e-008     -6.619e-010    
  3.2             -1.5859e-009    -1.9563e-008    1.2659e-009    
  3.25            -1.506e-010     -1.2573e-008    2.9016e-009    
  3.3             2.1363e-009     1.0349e-008     9.77e-011      
  3.35            2.2381e-009     1.0281e-008     2.61e-010      
  3.4             2.3324e-009     1.0471e-008     4.329e-010     
  3.45            2.3966e-009     1.0741e-008     6.136e-010     
  3.5             1.5488e-009     2.2355e-008     -1.3306e-009   
  3.55            1.61e-010       1.1691e-008     -2.7379e-009   
  3.6             -1.3801e-009    5.85e-010       -1.9451e-009   
  3.65            -2.316e-009     -1.1272e-008    -5.933e-010    
  3.7             -2.3336e-009    -1.1409e-008    -7.788e-010    
  3.75            -1.6407e-009    -1.7074e-008    1.2537e-009    
  3.8             -2.512e-010     -1.4086e-008    2.8486e-009    
  3.85            2.198e-009      1.0439e-008     1.997e-010     
  3.9             2.2984e-009     1.0413e-008     3.708e-010     
  3.95            2.3765e-009     1.0637e-008     5.382e-010     
  4               1.4952e-009     2.3758e-008     -1.3418e-009   
  4.05            1.121e-010      1.1333e-008     -1.3153e-009   
  4.1             2.458e-010      1.2862e-008     -2.6703e-009   
  4.15            -1.3124e-009    6.83e-010       -1.9992e-009   
  4.2             -2.3321e-009    -1.1376e-008    -7.082e-010    
  4.25            -2.3229e-009    -1.1207e-008    -8.779e-010    
  4.3             -2.2807e-009    -1.1066e-008    -1.022e-009    
  4.35            -1.7511e-009    -1.3116e-008    1.7058e-009    
  4.4             1.6291e-009     -9.374e-009     1.7826e-009    
  4.45            2.2911e-009     1.031e-008      3.471e-010     
  4.5             2.3695e-009     1.0649e-008     5.23e-010      
  4.55            1.4814e-009     2.4162e-008     -1.3457e-009   
  4.6             9.36e-011       1.144e-008      -1.3187e-009   
  4.65            2.259e-010      1.2573e-008     -2.6835e-009   
  4.7             -1.3255e-009    6.85e-010       -1.9894e-009   
  4.75            -2.3319e-009    -1.137e-008     -6.792e-010    
  4.8             -2.3246e-009    -1.1247e-008    -8.598e-010    
  4.85            -2.2897e-009    -1.117e-008     -1.0005e-009   
  4.9             -1.7406e-009    -1.3254e-008    1.7343e-009    
  4.95            1.6547e-009     -9.279e-009     1.7512e-009    
  5               1.442e-009      1.0094e-008     1.9342e-009    
END_DB

BEGIN_DB
 ICCAP_VAR VG         1              
 ICCAP_VAR VS         0              
 ICCAP_VAR VB         0              

 #VD              ID              IB              IG             
  0               -1.6968e-009    1.1162e-008     1.4667e-009    
  0.05            2.0264e-007     -1.1227e-008    2.8153e-009    
  0.1             3.2514e-007     -1.1421e-008    -9.331e-010    
  0.15            3.9617e-007     2.4698e-008     -1.4605e-009   
  0.2             4.2578e-007     1.2144e-008     -9.92e-011     
  0.25            4.3292e-007     -1.2204e-008    2.7654e-009    
  0.3             4.3693e-007     -1.1601e-008    -4.03e-011     
  0.35            4.4516e-007     1.316e-008      -2.4105e-009   
  0.4             4.481e-007      1.0651e-008     1.914e-010     
  0.45            4.443e-007      -1.6743e-008    2.3798e-009    
  0.5             4.4389e-007     -1.0797e-008    -4.031e-010    
  0.55            4.5107e-007     1.795e-008      -1.9683e-009   
  0.6             4.4859e-007     1.017e-008      2.1188e-009    
  0.65            4.4668e-007     -1.2052e-008    9.41e-011      
  0.7             4.5384e-007     1.1522e-008     -2.5751e-009   
  0.75            4.5506e-007     1.1093e-008     5.68e-011      
  0.8             4.4996e-007     -1.4721e-008    2.5798e-009    
  0.85            4.4878e-007     -1.1099e-008    -2.349e-010    
  0.9             4.5587e-007     1.5588e-008     -2.1746e-009   
  0.95            4.5621e-007     1.0369e-008     3.756e-010     
  1               4.5205e-007     -1.8972e-008    2.0749e-009    
  1.05            4.5126e-007     -1.0943e-008    -6e-010        
  1.1             4.5803e-007     2.0229e-008     -1.7259e-009   
  1.15            4.5665e-007     1.0498e-008     7.055e-010     
  1.2             4.5393e-007     -2.2119e-008    1.6005e-009    
  1.25            4.5434e-007     -1.1464e-008    -9.259e-010    
  1.3             4.6031e-007     2.4635e-008     -1.4597e-009   
  1.35            4.607e-007      1.2165e-008     -9.94e-011     
  1.4             4.5563e-007     -1.2092e-008    2.7669e-009    
  1.45            4.5429e-007     -1.1647e-008    -3.46e-011     
  1.5             4.6095e-007     1.3079e-008     -2.4256e-009   
  1.55            4.6134e-007     1.069e-008      1.925e-010     
  1.6             4.5702e-007     -1.6662e-008    2.3775e-009    
  1.65            4.5575e-007     -1.0834e-008    -3.892e-010    
  1.7             4.6229e-007     1.7756e-008     -1.975e-009    
  1.75            4.5876e-007     1.0219e-008     2.1126e-009    
  1.8             4.5627e-007     -1.1966e-008    9.96e-011      
  1.85            4.6295e-007     1.1681e-008     -2.5835e-009   
  1.9             4.6392e-007     1.1154e-008     5.69e-011      
  1.95            4.5884e-007     -1.4856e-008    2.5868e-009    
  2               4.5793e-007     -1.1104e-008    -2.305e-010    
  2.05            4.6439e-007     1.5695e-008     -2.1804e-009   
  2.1             4.6403e-007     1.0418e-008     3.721e-010     
  2.15            4.5986e-007     -1.8853e-008    2.0946e-009    
  2.2             4.5929e-007     -1.1017e-008    -5.88e-010     
  2.25            4.6552e-007     2.0322e-008     -1.7366e-009   
  2.3             4.6369e-007     1.0457e-008     6.881e-010     
  2.35            4.6048e-007     -2.1979e-008    1.6183e-009    
  2.4             4.6125e-007     -1.1509e-008    -9.161e-010    
  2.45            4.6702e-007     2.4517e-008     -1.4679e-009   
  2.5             4.6663e-007     1.2266e-008     -1.154e-010    
  2.55            4.6131e-007     -1.2071e-008    2.7818e-009    
  2.6             4.6001e-007     -1.1742e-008    -2.88e-011     
  2.65            4.6666e-007     1.2871e-008     -2.4365e-009   
  2.7             4.6729e-007     1.0606e-008     1.828e-010     
  2.75            4.6269e-007     -1.6779e-008    2.3897e-009    
  2.8             4.6132e-007     -1.1129e-008    -3.822e-010    
  2.85            4.6767e-007     1.7437e-008     -1.9901e-009   
  2.9             4.6397e-007     1.0185e-008     2.1026e-009    
  2.95            4.6151e-007     -1.2321e-008    1.065e-010     
  3               4.6804e-007     1.1365e-008     -2.5898e-009   
  3.05            4.6936e-007     1.0853e-008     4.73e-011      
  3.1             4.6378e-007     -1.4841e-008    2.5955e-009    
  3.15            4.626e-007      -1.1703e-008    -2.108e-010    
  3.2             4.6934e-007     1.4723e-008     -2.1971e-009   
  3.25            4.6981e-007     1.8727e-008     -1.8041e-009   
  3.3             4.6812e-007     9.591e-009      6.382e-010     
  3.35            4.6471e-007     -2.227e-008     1.685e-009     
  3.4             4.652e-007      -1.2351e-008    -8.69e-010     
  3.45            4.7127e-007     2.27e-008       -1.4991e-009   
  3.5             4.7211e-007     2.5548e-008     -1.3936e-009   
  3.55            4.7168e-007     1.5687e-008     -2.0041e-009   
  3.6             4.6773e-007     8.653e-009      2.0892e-009    
  3.65            4.6533e-007     -1.4179e-008    1.179e-010     
  3.7             4.7197e-007     9.255e-009      -2.6007e-009   
  3.75            4.7291e-007     1.1708e-008     -2.2883e-009   
  3.8             4.7345e-007     1.5673e-008     -1.8777e-009   
  3.85            4.7459e-007     1.9185e-008     -1.5744e-009   
  3.9             4.745e-007      8.484e-009      -2.5221e-009   
  3.95            4.7538e-007     1.1593e-008     -2.1505e-009   
  4               4.7591e-007     1.5292e-008     -1.7771e-009   
  4.05            4.7618e-007     6.394e-009      -2.6908e-009   
  4.1             4.7741e-007     7.442e-009      -2.4207e-009   
  4.15            4.7806e-007     1.0917e-008     -2.0333e-009   
  4.2             4.7892e-007     1.4018e-008     -1.6728e-009   
  4.25            4.7925e-007     3.98e-009       -2.6217e-009   
  4.3             4.8076e-007     5.894e-009      -2.3097e-009   
  4.35            4.8175e-007     9.354e-009      -1.9079e-009   
  4.4             4.8187e-007     1.718e-009      -2.7472e-009   
  4.45            4.8356e-007     9.42e-010       -2.5387e-009   
  4.5             4.8469e-007     3.568e-009      -2.1821e-009   
  4.55            4.812e-007      -1.9081e-008    -2.8125e-009   
  4.6             4.8225e-007     -1.9363e-008    -2.8273e-009   
  4.65            4.8374e-007     -1.9059e-008    -2.7965e-009   
  4.7             4.8993e-007     -5.436e-009     -2.6736e-009   
  4.75            4.9216e-007     -4.787e-009     -2.3919e-009   
  4.8             4.8853e-007     -8.136e-009     1.8299e-009    
  4.85            4.8845e-007     -3.564e-008     1.5622e-009    
  4.9             4.9139e-007     -3.2206e-008    -2.2913e-009   
  4.95            4.9862e-007     -1.4127e-008    2.661e-010     
  5               4.9565e-007     -4.4118e-008    2.2698e-009    
END_DB

BEGIN_DB
 ICCAP_VAR VG         2              
 ICCAP_VAR VS         0              
 ICCAP_VAR VB         0              

 #VD              ID              IB              IG             
  0               -1.7469e-008    1.2538e-008     9e-011         
  0.05            1.4261e-006     1.4437e-008     2.3312e-009    
  0.1             2.7553e-006     -1.1798e-008    5.54e-011      
  0.15            4.0088e-006     1.1295e-008     -2.74e-009     
  0.2             5.1731e-006     1.6961e-008     -1.5458e-009   
  0.25            6.2482e-006     1.0498e-008     6.335e-010     
  0.3             7.2331e-006     -1.9007e-008    2.091e-009     
  0.35            8.1365e-006     -1.086e-008     -2.946e-010    
  0.4             8.9703e-006     1.2979e-008     -2.4421e-009   
  0.45            9.7054e-006     1.1668e-008     -5.92e-011     
  0.5             1.03432e-005    -9.078e-009     2.9072e-009    
  0.55            1.09143e-005    -1.4996e-008    1.5851e-009    
  0.6             1.1412e-005     4.367e-009      1.2647e-009    
  0.65            1.1829e-005     -1.1002e-008    -7.566e-010    
  0.7             1.2178e-005     2.5803e-008     -1.4261e-009   
  0.75            1.2435e-005     1.0537e-008     2.046e-010     
  0.8             1.2607e-005     -1.9862e-008    1.9427e-009    
  0.85            1.2762e-005     -1.1504e-008    -9.362e-010    
  0.9             1.2875e-005     2.7724e-008     -1.3745e-009   
  0.95            1.2931e-005     1.0237e-008     3.997e-010     
  1               1.2953e-005     -2.1655e-008    1.6523e-009    
  1.05            1.3008e-005     -1.1252e-008    -1.1095e-009   
  1.1             1.3043e-005     2.7841e-008     -1.3445e-009   
  1.15            1.3048e-005     1.0472e-008     5.92e-010      
  1.2             1.3041e-005     -2.3825e-008    1.4531e-009    
  1.25            1.3058e-005     -1.1314e-008    -1.086e-010    
  1.3             1.3101e-005     1.8086e-008     -1.9478e-009   
  1.35            1.3092e-005     1.0723e-008     7.834e-010     
  1.4             1.3088e-005     -2.5736e-008    1.3452e-009    
  1.45            1.3103e-005     -1.0848e-008    -3.334e-010    
  1.5             1.3137e-005     2.0621e-008     -1.701e-009    
  1.55            1.3138e-005     1.2528e-008     -1.43e-010     
  1.6             1.3119e-005     -1.5317e-008    2.5398e-009    
  1.65            1.3138e-005     -1.0985e-008    -5.52e-010     
  1.7             1.3167e-005     2.3353e-008     -1.5207e-009   
  1.75            1.3142e-005     1.0648e-008     1.1278e-009    
  1.8             1.3154e-005     -2.4124e-008    1.2624e-009    
  1.85            1.3168e-005     -1.1053e-008    -7.665e-010    
  1.9             1.3194e-005     2.5915e-008     -1.4235e-009   
  1.95            1.3194e-005     1.0573e-008     2.168e-010     
  2               1.3171e-005     -1.988e-008     1.9211e-009    
  2.05            1.3194e-005     -1.142e-008     -9.473e-010    
  2.1             1.3216e-005     2.7784e-008     -1.3749e-009   
  2.15            1.3213e-005     1.0265e-008     4.063e-010     
  2.2             1.3187e-005     -2.1832e-008    1.6431e-009    
  2.25            1.3219e-005     -1.1282e-008    -1.1158e-009   
  2.3             1.3233e-005     2.7712e-008     -1.3428e-009   
  2.35            1.3222e-005     1.0444e-008     6.047e-010     
  2.4             1.3205e-005     -2.4042e-008    1.4514e-009    
  2.45            1.321e-005      -1.1392e-008    -1.217e-010    
  2.5             1.3249e-005     1.825e-008      -1.9391e-009   
  2.55            1.3232e-005     1.0682e-008     7.923e-010     
  2.6             1.322e-005      -2.581e-008     1.3425e-009    
  2.65            1.3228e-005     -1.0873e-008    -3.434e-010    
  2.7             1.3263e-005     2.0674e-008     -1.6907e-009   
  2.75            1.3241e-005     1.0824e-008     9.684e-010     
  2.8             1.3237e-005     -2.644e-008     1.2922e-009    
  2.85            1.325e-005      -1.1114e-008    -5.66e-010     
  2.9             1.3275e-005     2.31e-008       -1.5141e-009   
  2.95            1.325e-005      1.0287e-008     1.1399e-009    
  3               1.3257e-005     -2.4171e-008    1.2619e-009    
  3.05            1.3268e-005     -1.1584e-008    -7.762e-010    
  3.1             1.3292e-005     2.5366e-008     -1.4219e-009   
  3.15            1.3292e-005     1.8574e-008     -1.8103e-009   
  3.2             1.3298e-005     2.5536e-008     -1.4072e-009   
  3.25            1.3298e-005     1.859e-008      -1.7544e-009   
  3.3             1.3303e-005     1.1081e-008     -2.4317e-009   
  3.35            1.3307e-005     1.8396e-008     -1.7039e-009   
  3.4             1.3308e-005     1.0885e-008     -2.3837e-009   
  3.45            1.331e-005      1.7818e-008     -1.6559e-009   
  3.5             1.3319e-005     1.0167e-008     -2.326e-009    
  3.55            1.3318e-005     1.7203e-008     -1.6107e-009   
  3.6             1.3325e-005     9.275e-009      -2.2631e-009   
  3.65            1.3327e-005     5.172e-009      -2.7459e-009   
  3.7             1.3332e-005     7.498e-009      -2.2012e-009   
  3.75            1.3338e-005     2.597e-009      -2.7217e-009   
  3.8             1.3342e-005     5.127e-009      -2.1379e-009   
  3.85            1.3346e-005     -1.076e-009     -2.6992e-009   
  3.9             1.3352e-005     2.156e-009      -2.0696e-009   
  3.95            1.333e-005      -6.988e-009     2.2586e-009    
  4               1.333e-005      -3.0153e-008    -3.584e-010    
  4.05            1.3352e-005     -2.4151e-008    -2.7251e-009   
  4.1             1.3327e-005     -1.3878e-008    1.7057e-009    
  4.15            1.334e-005      -4.2048e-008    2.335e-010     
