! VERSION = 6.00
BEGIN_HEADER
 ICCAP_INPUTS
  VG         V  B GROUND SMU4 0.001 LIN        2    0          5          6    1         
  VS         V  E GROUND SMU3 0.1 CON        0
  VD         V  S GROUND SMU2 0.1 LIN        1    0          5          101  0.05      
  VB         V  C GROUND SMU1 0.1 LIN        3    0          -2.5       2    -2.5      
 ICCAP_OUTPUTS
  ID         I  S GROUND SMU2 B
  IB         I  C GROUND SMU1 B
  IG         I  B GROUND SMU4 B
END_HEADER

BEGIN_DB
 ICCAP_VAR VG         0              
 ICCAP_VAR VS         0              
 ICCAP_VAR VB         0              

 #VD              ID              IB              IG             
  0               2.3654e-009     -1.3075e-008    5.041e-010     
  0.05            1.4582e-009     1.2951e-008     -1.4216e-009   
  0.1             -1.4224e-009    -1.3169e-008    1.4115e-009    
  0.15            1.3822e-009     1.3221e-008     -1.4124e-009   
  0.2             -1.3514e-009    -1.3308e-008    1.3249e-009    
  0.25            1.2473e-009     1.3112e-008     -1.3523e-009   
  0.3             -1.9585e-009    -1.263e-008     1.3546e-009    
  0.35            1.8917e-009     1.2672e-008     -1.3681e-009   
  0.4             -1.8461e-009    -1.2505e-008    1.367e-009     
  0.45            1.7769e-009     1.2459e-008     -1.3826e-009   
  0.5             -1.73e-009      -1.2561e-008    1.3824e-009    
  0.55            1.6668e-009     1.2494e-008     -1.3982e-009   
  0.6             -1.6232e-009    -1.2588e-008    1.4005e-009    
  0.65            1.5645e-009     1.2631e-008     -1.4132e-009   
  0.7             -1.526e-009     -1.2872e-008    1.4116e-009    
  0.75            1.4732e-009     1.2866e-008     -1.4194e-009   
  0.8             -1.4382e-009    -1.3206e-008    1.4112e-009    
  0.85            1.3909e-009     1.3222e-008     -1.4147e-009   
  0.9             -1.3619e-009    -1.3482e-008    1.3246e-009    
  0.95            1.2586e-009     1.3002e-008     -1.3506e-009   
  1               -1.9737e-009    -1.2589e-008    1.3492e-009    
  1.05            1.9097e-009     1.2761e-008     -1.362e-009    
  1.1             -1.8608e-009    -1.2572e-008    1.3635e-009    
  1.15            1.7937e-009     1.2481e-008     -1.378e-009    
  1.2             -1.741e-009     -1.2522e-008    1.3796e-009    
  1.25            1.6833e-009     1.2413e-008     -1.3966e-009   
  1.3             -1.6401e-009    -1.2563e-008    1.3974e-009    
  1.35            1.5781e-009     1.2578e-008     -1.413e-009    
  1.4             -1.5363e-009    -1.2819e-008    1.409e-009     
  1.45            1.483e-009      1.2881e-008     -1.4186e-009   
  1.5             -1.4544e-009    -1.3185e-008    1.412e-009     
  1.55            1.4077e-009     1.3178e-008     -1.4148e-009   
  1.6             -1.3697e-009    -1.3371e-008    1.4019e-009    
  1.65            1.3329e-009     1.3302e-008     -1.3322e-009   
  1.7             -1.2382e-009    -1.3101e-008    1.3492e-009    
  1.75            1.9287e-009     1.2642e-008     -1.3625e-009   
  1.8             -1.8814e-009    -1.2644e-008    1.3601e-009    
  1.85            1.8084e-009     1.2464e-008     -1.3755e-009   
  1.9             -1.7606e-009    -1.2471e-008    1.3762e-009    
  1.95            1.6975e-009     1.2541e-008     -1.3928e-009   
  2               -1.6565e-009    -1.2607e-008    1.3954e-009    
  2.05            1.592e-009      1.2609e-008     -1.4114e-009   
  2.1             -1.5486e-009    -1.2826e-008    1.4098e-009    
  2.15            1.4981e-009     1.2856e-008     -1.4185e-009   
  2.2             -1.4601e-009    -1.3068e-008    1.4118e-009    
  2.25            1.4151e-009     1.3158e-008     -1.4163e-009   
  2.3             -1.385e-009     -1.3419e-008    1.4053e-009    
  2.35            1.3374e-009     1.3332e-008     -1.4036e-009   
  2.4             -1.3133e-009    -1.3421e-008    1.3333e-009    
  2.45            1.2118e-009     1.2879e-008     -1.3604e-009   
  2.5             -1.8891e-009    -1.2659e-008    1.3617e-009    
  2.55            1.8262e-009     1.2519e-008     -1.3759e-009   
  2.6             -1.7708e-009    -1.2453e-008    1.3769e-009    
  2.65            1.7093e-009     1.2556e-008     -1.3925e-009   
  2.7             -1.6606e-009    -1.2606e-008    1.396e-009     
  2.75            1.6033e-009     1.2585e-008     -1.4091e-009   
  2.8             -1.5574e-009    -1.2773e-008    1.408e-009     
  2.85            1.5068e-009     1.2854e-008     -1.4172e-009   
  2.9             -1.4699e-009    -1.3089e-008    1.4125e-009    
  2.95            1.4241e-009     1.3117e-008     -1.4173e-009   
  3               -1.3859e-009    -1.3431e-008    1.4064e-009    
  3.05            7.721e-010      1.2729e-008     -1.3301e-009   
  3.1             -1.2544e-009    -1.3094e-008    1.3487e-009    
  3.15            1.9512e-009     1.2645e-008     -1.3584e-009   
  3.2             -1.9071e-009    -1.2661e-008    1.3596e-009    
  3.25            1.8336e-009     1.2493e-008     -1.3716e-009   
  3.3             -1.7898e-009    -1.2479e-008    1.3773e-009    
  3.35            1.7271e-009     1.2564e-008     -1.3909e-009   
  3.4             -1.6745e-009    -1.2588e-008    1.3929e-009    
  3.45            1.6121e-009     1.2588e-008     -1.4074e-009   
  3.5             -1.5732e-009    -1.2774e-008    1.4077e-009    
  3.55            1.5162e-009     1.287e-008      -1.4179e-009   
  3.6             -1.4783e-009    -1.3036e-008    1.4127e-009    
  3.65            1.4272e-009     1.312e-008      -1.4161e-009   
  3.7             -1.3966e-009    -1.3303e-008    1.4063e-009    
  3.75            1.3578e-009     1.3337e-008     -1.4062e-009   
  3.8             -1.3265e-009    -1.3432e-008    1.3314e-009    
  3.85            1.2216e-009     1.2928e-008     -1.3568e-009   
  3.9             -1.9157e-009    -1.2641e-008    1.3608e-009    
  3.95            1.8521e-009     1.2561e-008     -1.3718e-009   
  4               -1.8003e-009    -1.2481e-008    1.3726e-009    
  4.05            1.735e-009      1.244e-008      -1.3871e-009   
  4.1             -1.6859e-009    -1.2541e-008    1.3907e-009    
  4.15            1.6271e-009     1.2443e-008     -1.4035e-009   
  4.2             -1.5847e-009    -1.2615e-008    1.4061e-009    
  4.25            1.5273e-009     1.2658e-008     -1.4152e-009   
  4.3             -1.4894e-009    -1.2912e-008    1.411e-009     
  4.35            1.4371e-009     1.3005e-008     -1.4169e-009   
  4.4             -1.4084e-009    -1.3363e-008    1.4083e-009    
  4.45            1.3614e-009     1.3364e-008     -1.4077e-009   
  4.5             -1.329e-009     -1.3476e-008    1.3313e-009    
  4.55            1.2306e-009     1.2917e-008     -1.355e-009    
  4.6             -1.9269e-009    -1.2588e-008    1.3576e-009    
  4.65            1.8624e-009     1.2599e-008     -1.3693e-009   
  4.7             -1.8097e-009    -1.2466e-008    1.3727e-009    
  4.75            1.7417e-009     1.2469e-008     -1.385e-009    
  4.8             -1.6948e-009    -1.2551e-008    1.3876e-009    
  4.85            1.6362e-009     1.2513e-008     -1.402e-009    
  4.9             -1.5906e-009    -1.2629e-008    1.4021e-009    
  4.95            1.5372e-009     1.2708e-008     -1.4144e-009   
  5               -1.4959e-009    -1.2984e-008    1.4096e-009    
END_DB

BEGIN_DB
 ICCAP_VAR VG         1              
 ICCAP_VAR VS         0              
 ICCAP_VAR VB         0              

 #VD              ID              IB              IG             
  0               7.3664e-008     7.572e-009      -1.889e-010    
  0.05            4.7632e-006     1.2494e-008     1.3152e-009    
  0.1             8.5894e-006     -7.427e-009     1.358e-009     
  0.15            1.152e-005      1.2518e-008     -9.909e-010    
  0.2             1.3676e-005     8.655e-009      -1.3497e-009   
  0.25            1.5249e-005     1.2747e-008     -1.3918e-009   
  0.3             1.6391e-005     1.3204e-008     -1.4174e-009   
  0.35            1.7263e-005     1.2868e-008     -1.3532e-009   
  0.4             1.7946e-005     1.2963e-008     -1.4009e-009   
  0.45            1.8523e-005     1.3094e-008     -1.4152e-009   
  0.5             1.9015e-005     1.2968e-008     -1.3612e-009   
  0.55            1.9499e-005     1.308e-008      -1.4083e-009   
  0.6             1.989e-005      1.2912e-008     -1.4093e-009   
  0.65            2.0226e-005     1.3015e-008     -1.3661e-009   
  0.7             2.0623e-005     1.3186e-008     -1.4127e-009   
  0.75            2.0906e-005     1.2847e-008     -1.3309e-009   
  0.8             2.128e-005      1.2435e-008     -1.3713e-009   
  0.85            2.1571e-005     1.331e-008      -1.4174e-009   
  0.9             2.1872e-005     1.2784e-008     -1.335e-009    
  0.95            2.2184e-005     1.2515e-008     -1.3795e-009   
  1               2.2456e-005     1.334e-008      -1.4183e-009   
  1.05            2.2725e-005     1.2753e-008     -1.3428e-009   
  1.1             2.3007e-005     1.2737e-008     -1.3868e-009   
  1.15            2.3253e-005     1.3291e-008     -1.4195e-009   
  1.2             2.3488e-005     1.2802e-008     -1.3485e-009   
  1.25            2.3747e-005     1.2758e-008     -1.3926e-009   
  1.3             2.3983e-005     1.3198e-008     -1.4179e-009   
  1.35            2.4222e-005     1.2873e-008     -1.3529e-009   
  1.4             2.4461e-005     1.2925e-008     -1.4012e-009   
  1.45            2.4691e-005     1.3024e-008     -1.4125e-009   
  1.5             2.4887e-005     1.2943e-008     -1.3603e-009   
  1.55            2.5138e-005     1.3074e-008     -1.408e-009    
  1.6             2.5336e-005     1.2947e-008     -1.4067e-009   
  1.65            2.5542e-005     1.2967e-008     -1.3672e-009   
  1.7             2.5758e-005     1.3199e-008     -1.4116e-009   
  1.75            2.5939e-005     1.2828e-008     -1.3316e-009   
  1.8             2.6192e-005     1.243e-008      -1.3733e-009   
  1.85            2.6346e-005     1.3221e-008     -1.4162e-009   
  1.9             2.6538e-005     1.2638e-008     -1.3372e-009   
  1.95            2.677e-005      1.2437e-008     -1.3792e-009   
  2               2.6921e-005     1.3142e-008     -1.4185e-009   
  2.05            2.7108e-005     1.2412e-008     -1.3427e-009   
  2.1             2.7327e-005     1.2193e-008     -1.3882e-009   
  2.15            2.7473e-005     6.448e-009      -1.3658e-009   
  2.2             2.7639e-005     1.2406e-008     -1.4125e-009   
  2.25            2.7829e-005     1.1688e-008     -1.3297e-009   
  2.3             2.8033e-005     1.0973e-008     -1.3737e-009   
  2.35            2.8161e-005     5.982e-009      -1.3562e-009   
  2.4             2.8322e-005     7.38e-009       -1.3371e-009   
  2.45            2.8514e-005     8.368e-009      -1.3189e-009   
  2.5             2.8664e-005     -1.88e-010      -1.4164e-009   
  2.55            2.8842e-005     -1.5429e-008    -6.127e-010    
  2.6             2.9015e-005     -1.7317e-008    -5.802e-010    
  2.65            2.9167e-005     -1.9108e-008    1.333e-009     
  2.7             2.9237e-005     -2.0853e-008    1.3727e-009    
  2.75            2.9407e-005     -2.3395e-008    1.4152e-009    
  2.8             2.9589e-005     -2.4799e-008    1.3378e-009    
  2.85            2.9719e-005     -2.677e-008     1.3823e-009    
  2.9             2.9909e-005     -3.011e-008     1.4123e-009    
  2.95            3.0088e-005     -3.2653e-008    1.3454e-009    
  3               3.0205e-005     -3.5878e-008    1.3855e-009    
  3.05            3.0383e-005     -4.0126e-008    1.4117e-009    
  3.1             3.055e-005      -4.4421e-008    1.3508e-009    
  3.15            3.0698e-005     -4.9369e-008    1.3951e-009    
  3.2             3.0858e-005     -5.5131e-008    1.4078e-009    
  3.25            3.1043e-005     -6.1553e-008    1.3548e-009    
  3.3             3.1193e-005     -6.887e-008     1.4026e-009    
  3.35            3.1365e-005     -7.6999e-008    1.403e-009     
  3.4             3.152e-005      -8.61e-008      1.3627e-009    
  3.45            3.1673e-005     -9.6893e-008    1.408e-009     
  3.5             3.1878e-005     -1.07901e-007   1.3271e-009    
  3.55            3.2022e-005     -1.2088e-007    1.3486e-009    
  3.6             3.2183e-005     -1.354e-007     1.3948e-009    
  3.65            3.2348e-005     -1.5165e-007    1.4075e-009    
  3.7             3.2495e-005     -1.695e-007     1.3552e-009    
  3.75            3.2674e-005     -1.8962e-007    1.4016e-009    
  3.8             3.2866e-005     -2.1134e-007    1.322e-009     
  3.85            3.3034e-005     -2.3553e-007    1.3628e-009    
  3.9             3.3232e-005     -2.6316e-007    1.4086e-009    
  3.95            3.3432e-005     -2.925e-007     1.3271e-009    
  4               3.3615e-005     -3.2511e-007    1.3658e-009    
  4.05            3.3776e-005     -3.6191e-007    1.4112e-009    
  4.1             3.3984e-005     -4.0058e-007    1.3316e-009    
  4.15            3.4167e-005     -4.4317e-007    1.3751e-009    
  4.2             3.4396e-005     -4.9119e-007    1.4141e-009    
  4.25            3.4619e-005     -5.4144e-007    1.3385e-009    
  4.3             3.4769e-005     -5.9705e-007    1.3821e-009    
  4.35            3.5015e-005     -6.5842e-007    1.416e-009     
  4.4             3.5278e-005     -7.2354e-007    1.3456e-009    
  4.45            3.5482e-005     -7.9428e-007    1.3863e-009    
  4.5             3.5733e-005     -8.7053e-007    1.4105e-009    
  4.55            3.5991e-005     -9.52e-007      1.3491e-009    
  4.6             3.6209e-005     -1.04067e-006   1.397e-009     
  4.65            3.6502e-005     -1.13613e-006   1.4071e-009    
  4.7             3.6735e-005     -1.2255e-006    1.1762e-009    
  4.75            3.7017e-005     -1.3431e-006    1.4077e-009    
  4.8             3.7337e-005     -1.46e-006      1.3575e-009    
  4.85            3.761e-005      -1.5846e-006    1.4042e-009    
  4.9             3.7895e-005     -1.7156e-006    1.3223e-009    
  4.95            3.8168e-005     -1.8546e-006    1.3617e-009    
  5               3.8529e-005     -2.0037e-006    1.4101e-009    
END_DB

BEGIN_DB
 ICCAP_VAR VG         2              
 ICCAP_VAR VS         0              
 ICCAP_VAR VB         0              

 #VD              ID              IB              IG             
  0               2.2576e-007     -1.3019e-008    9.91e-011      
  0.05            1.4713e-005     -1.264e-008     9.598e-010     
  0.1             2.9246e-005     -7.987e-009     1.347e-009     
  0.15            4.3472e-005     -1.2968e-008    1.3962e-009    
  0.2             5.7503e-005     -1.3065e-008    1.4086e-009    
  0.25            7.1064e-005     -1.3081e-008    1.3534e-009    
  0.3             8.4439e-005     -1.318e-008     1.4033e-009    
  0.35            9.7307e-005     -1.2947e-008    1.4043e-009    
  0.4             0.000109758     -1.3076e-008    1.361e-009     
  0.45            0.00012201      -1.259e-008     -8.627e-010    
  0.5             0.0001335       7.125e-009      -1.3652e-009   
  0.55            0.0001445       1.279e-008      -1.3981e-009   
  0.6             0.00015494      1.3264e-008     -1.4188e-009   
  0.65            0.00016461      1.2904e-008     -1.4063e-009   
  0.7             0.00017371      1.2931e-008     -1.351e-009    
  0.75            0.00018211      1.2582e-008     -1.3842e-009   
  0.8             0.00018984      1.3126e-008     -1.4167e-009   
  0.85            0.00019682      1.2943e-008     -1.4154e-009   
  0.9             0.00020312      1.2742e-008     -1.343e-009    
  0.95            0.00020863      1.2498e-008     -1.3701e-009   
  1               0.00021362      1.2911e-008     -1.4027e-009   
  1.05            0.00021788      1.3152e-008     -1.4193e-009   
  1.1             0.00022168      1.2816e-008     -1.3301e-009   
  1.15            0.00022492      1.2523e-008     -1.3599e-009   
  1.2             0.00022787      1.2659e-008     -1.3909e-009   
  1.25            0.00023033      1.3231e-008     -1.4187e-009   
  1.3             0.00023254      1.2896e-008     -1.4138e-009   
  1.35            0.00023457      1.2821e-008     -1.3461e-009   
  1.4             0.00023643      1.2467e-008     -1.3771e-009   
  1.45            0.00023808      1.2986e-008     -1.4091e-009   
  1.5             0.00023954      1.315e-008      -1.4185e-009   
  1.55            0.00024089      1.2754e-008     -1.3354e-009   
  1.6             0.00024223      1.244e-008      -1.3623e-009   
  1.65            0.00024338      1.2726e-008     -1.3948e-009   
  1.7             0.00024451      1.3196e-008     -1.4192e-009   
  1.75            0.00024553      1.284e-008      -1.4067e-009   
  1.8             0.00024651      1.2908e-008     -1.3519e-009   
  1.85            0.00024754      1.2519e-008     -1.3807e-009   
  1.9             0.00024846      1.3068e-008     -1.4126e-009   
  1.95            0.00024928      1.2936e-008     -1.4176e-009   
  2               0.00025011      1.2782e-008     -1.3398e-009   
  2.05            0.00025097      1.2428e-008     -1.3674e-009   
  2.1             0.00025173      1.287e-008      -1.4019e-009   
  2.15            0.00025245      1.3198e-008     -1.4211e-009   
  2.2             0.0002532       1.2763e-008     -1.3269e-009   
  2.25            0.00025392      1.2415e-008     -1.3554e-009   
  2.3             0.00025465      1.2486e-008     -1.3864e-009   
  2.35            0.00025523      1.3015e-008     -1.4166e-009   
  2.4             0.00025587      1.2784e-008     -1.4141e-009   
  2.45            0.00025648      1.2491e-008     -1.344e-009    
  2.5             0.00025712      1.198e-008      -1.3709e-009   
  2.55            0.00025757      1.2277e-008     -1.4067e-009   
  2.6             0.00025807      6.063e-009      -1.3655e-009   
  2.65            0.00025869      1.1412e-008     -1.3981e-009   
  2.7             0.00025916      5.317e-009      -1.3601e-009   
  2.75            0.00025973      7.934e-009      -1.3242e-009   
  2.8             0.00026011      9.34e-009       -1.4191e-009   
  2.85            0.00026067      -1.3962e-008    -6.63e-010     
  2.9             0.00026118      -1.5137e-008    -6.714e-010    
  2.95            0.00026166      -1.6567e-008    -6.781e-010    
  3               0.00026204      -1.855e-008     -6.864e-010    
  3.05            0.00026265      -1.8114e-008    -1.1018e-009   
  3.1             0.00026317      -1.4929e-008    -1.4162e-009   
  3.15            0.00026359      -1.6486e-008    -1.1873e-009   
  3.2             0.00026398      -1.1472e-008    -1.4188e-009   
  3.25            0.00026446      -1.7773e-008    -1.3276e-009   
  3.3             0.00026492      -2.4935e-008    -1.3539e-009   
  3.35            0.00026535      -3.2574e-008    -1.387e-009    
  3.4             0.00026576      -4.1526e-008    -1.4155e-009   
  3.45            0.00026618      -5.2375e-008    -1.4144e-009   
  3.5             0.00026659      -6.5313e-008    -1.3441e-009   
  3.55            0.00026704      -8.021e-008     -1.3737e-009   
  3.6             0.00026745      -9.6847e-008    1.3782e-009    
  3.65            0.00026789      -1.2023e-007    -1.42e-009     
  3.7             0.00026828      -1.3798e-007    -1.3272e-009   
  3.75            0.00026875      -1.6377e-007    -1.3549e-009   
  3.8             0.00026918      -1.9298e-007    -1.3856e-009   
  3.85            0.00026951      -2.2505e-007    -1.4175e-009   
  3.9             0.00026993      -2.6263e-007    -1.4163e-009   
  3.95            0.00027035      -3.0544e-007    -1.3437e-009   
  4               0.00027086      -3.5323e-007    -1.372e-009    
  4.05            0.00027127      -4.0608e-007    -1.4055e-009   
  4.1             0.0002717       -4.6727e-007    -1.4188e-009   
  4.15            0.00027209      -5.3517e-007    -1.332e-009    
