! VERSION = 6.00
BEGIN_HEADER
 ICCAP_INPUTS
  VG         V  B GROUND SMU4 0.001 LIN        1    0          5          101  0.05      
  VS         V  E GROUND SMU2 0.1 CON        0
  VB         V  C GROUND SMU3 0.1 LIN        3    0          -5         3    -2.5      
  VD         V  S GROUND SMU1 0.1 LIN        2    0.1        5          2    4.9       
 ICCAP_OUTPUTS
  IG         I  B GROUND SMU4 B
  ID         I  S GROUND SMU1 B
  IB         I  C GROUND SMU3 B
END_HEADER

BEGIN_DB
 ICCAP_VAR VS         0              
 ICCAP_VAR VB         0              
 ICCAP_VAR VD         0.1            

 #VG              IG              ID              IB             
  0               -7.99e-010      -8.036e-010     -2.6656e-008   
  0.05            -1.3605e-009    1.5241e-009     2.1914e-008    
  0.1             -2.6595e-009    1.687e-010      1.4304e-008    
  0.15            -1.304e-010     -2.16e-009      -1.2527e-008   
  0.2             -3.525e-010     -2.2205e-009    -1.3268e-008   
  0.25            -5.667e-010     -2.2276e-009    -1.2972e-008   
  0.3             -7.613e-010     -2.199e-009     -1.1958e-008   
  0.35            2.1491e-009     -1.4914e-009    -1.7952e-008   
  0.4             2.5164e-009     1.4614e-009     -7.334e-009    
  0.45            -1.3657e-009    2.8628e-009     2.6112e-008    
  0.5             -2.6877e-009    5.2873e-009     1.3235e-008    
  0.55            2.4794e-009     1.7554e-008     1.0086e-008    
  0.6             1.7079e-009     5.0655e-008     -4.815e-009    
  0.65            8.58e-011       1.3358e-007     7.937e-009     
  0.7             1.3098e-009     3.1975e-007     -2.4699e-008   
  0.75            2.858e-009      6.9536e-007     -8.172e-009    
  0.8             1.8683e-009     1.4169e-006     1.1483e-008    
  0.85            7.445e-010      2.7681e-006     1.26e-008      
  0.9             -1.5585e-009    4.9367e-006     1.8397e-008    
  0.95            -1.3601e-009    7.7833e-006     7.447e-009     
  1               -2.6864e-009    1.12909e-005    1.0995e-008    
  1.05            1.5549e-009     1.4926e-005     -2.6942e-008   
  1.1             -1.9139e-009    1.9139e-005     2.7277e-008    
  1.15            -1.4121e-009    2.3066e-005     5.16e-009      
  1.2             -1.3676e-009    2.6888e-005     8.675e-009     
  1.25            -2.6379e-009    3.055e-005      1.2455e-008    
  1.3             -2.1913e-009    3.3949e-005     1.058e-009     
  1.35            -1.5615e-009    3.7239e-005     4.152e-009     
  1.4             -1.3618e-009    4.034e-005      7.228e-009     
  1.45            -2.6948e-009    4.3302e-005     1.1037e-008    
  1.5             2.0301e-009     4.6048e-005     -2.3934e-008   
  1.55            1.3867e-009     4.8681e-005     -8.101e-009    
  1.6             1.3109e-009     5.1211e-005     -7.879e-009    
  1.65            2.8116e-009     5.363e-005      -1.1489e-008   
  1.7             4.949e-010      5.5994e-005     1.2506e-008    
  1.75            9.025e-010      5.8202e-005     1.1604e-008    
  1.8             -1.4203e-009    6.0378e-005     1.3063e-008    
  1.85            -1.3691e-009    6.2448e-005     8.506e-009     
  1.9             -2.6448e-009    6.4452e-005     1.2634e-008    
  1.95            -2.2056e-009    6.6328e-005     1.13e-009      
  2               -1.5695e-009    6.8231e-005     4.193e-009     
  2.05            -1.3595e-009    6.998e-005      7.046e-009     
  2.1             -2.691e-009     7.1721e-005     1.0649e-008    
  2.15            2.0445e-009     7.3329e-005     -2.4198e-008   
  2.2             1.3948e-009     7.496e-005      -8.172e-009    
  2.25            2.8464e-009     7.656e-005      -7.815e-009    
  2.3             2.8106e-009     7.8072e-005     2.79e-010      
  2.35            4.823e-010      7.957e-005      1.2591e-008    
  2.4             8.917e-010      8.107e-005      1.169e-008     
  2.45            -1.4264e-009    8.2451e-005     1.3278e-008    
  2.5             -1.3676e-009    8.3851e-005     8.78e-009      
  2.55            -2.6439e-009    8.5244e-005     1.2681e-008    
  2.6             -2.2204e-009    8.6498e-005     1.199e-009     
  2.65            -1.5807e-009    8.7753e-005     3.91e-009      
  2.7             -1.3617e-009    8.8979e-005     6.982e-009     
  2.75            -2.6935e-009    9.0182e-005     1.0663e-008    
  2.8             2.0755e-009     9.1365e-005     -2.4452e-008   
  2.85            1.4066e-009     9.2474e-005     -7.884e-009    
  2.9             2.8445e-009     9.3609e-005     -7.96e-009     
  2.95            2.8143e-009     9.4715e-005     2.76e-010      
  3               -1.6361e-009    9.5766e-005     2.0974e-008    
  3.05            -1.3621e-009    9.6804e-005     6.65e-009      
  3.1             -2.6987e-009    9.7854e-005     1.0218e-008    
  3.15            2.1433e-009     9.882e-005      -2.5157e-008   
  3.2             1.4344e-009     9.9783e-005     -7.689e-009    
  3.25            1.3069e-009     0.000100799     -7.959e-009    
  3.3             2.8308e-009     0.000101774     -1.0533e-008   
  3.35            -1.6924e-009    0.000102637     2.2479e-008    
  3.4             -1.3689e-009    0.000103501     6.179e-009     
  3.45            -2.7016e-009    0.00010446      9.554e-009     
  3.5             2.217e-009      0.000105251     -2.5911e-008   
  3.55            1.4783e-009     0.000106145     -6.936e-009    
  3.6             2.8318e-009     0.00010694      -8.228e-009    
  3.65            9.557e-010      0.000107766     1.125e-008     
  3.7             -2.653e-010     0.000108515     1.1434e-008    
  3.75            -1.4309e-009    0.00010938      2.1656e-008    
  3.8             -1.3681e-009    0.00011014      8.542e-009     
  3.85            -2.6536e-009    0.000110831     1.2594e-008    
  3.9             -2.2487e-009    0.000111495     1.213e-009     
  3.95            -1.6031e-009    0.000112245     3.635e-009     
  4               -1.3617e-009    0.000113        6.809e-009     
  4.05            -2.698e-009     0.000113655     1.015e-008     
  4.1             -1.5898e-009    0.00011451      -2.4982e-008   
  4.15            -1.36e-009      0.00011513      6.934e-009     
  4.2             -2.6945e-009    0.00011576      1.0711e-008    
  4.25            2.0802e-009     0.00011641      -2.4423e-008   
  4.3             1.4107e-009     0.00011699      -7.86e-009     
  4.35            1.3093e-009     0.00011756      -7.842e-009    
  4.4             2.8242e-009     0.00011814      -1.094e-008    
  4.45            -1.6511e-009    0.00011874      2.1147e-008    
  4.5             -1.3641e-009    0.00011931      6.505e-009     
  4.55            -1.3598e-009    0.0001199       1.0019e-008    
  4.6             -2.5329e-009    0.00012048      1.4184e-008    
  4.65            -1.941e-009     0.00012102      1.546e-009     
  4.7             -1.4261e-009    0.0001215       4.951e-009     
  4.75            -1.3674e-009    0.00012199      8.594e-009     
  4.8             -2.6563e-009    0.0001225       1.2403e-008    
  4.85            -2.2651e-009    0.00012299      9.71e-010      
  4.9             -1.6197e-009    0.00012346      3.837e-009     
  4.95            -1.3636e-009    0.00012397      6.64e-009      
  5               -2.6972e-009    0.00012429      1.0178e-008    
END_DB

BEGIN_DB
 ICCAP_VAR VS         0              
 ICCAP_VAR VB         0              
 ICCAP_VAR VD         5              

 #VG              IG              ID              IB             
  0               2.8441e-009     -6.842e-010     -2.4291e-008   
  0.05            -2.2023e-009    1.4749e-009     2.5245e-008    
  0.1             -1.4232e-009    -1.9903e-009    4.264e-009     
  0.15            1.3033e-009     -1.2925e-009    -2.6867e-008   
  0.2             1.202e-009      2.321e-009      -8.592e-009    
  0.25            -2.414e-010     2.2924e-009     9.826e-009     
  0.3             -1.6574e-009    2.2329e-009     2.2066e-008    
  0.35            -1.4626e-009    4.7297e-009     6.063e-009     
  0.4             2.8521e-009     1.907e-008      1.1092e-008    
  0.45            2.6097e-009     5.5382e-008     -5.624e-009    
  0.5             -1.3714e-009    1.4995e-007     -1.3738e-008   
  0.55            -2.3743e-009    3.309e-007      -2.7218e-008   
  0.6             -1.7252e-009    7.0609e-007     -5.392e-008    
  0.65            -5.032e-010     1.4365e-006     -1.2014e-007   
  0.7             -9.408e-010     2.8888e-006     -2.2341e-007   
  0.75            -1.3092e-009    5.6734e-006     -4.0435e-007   
  0.8             -1.7097e-009    1.03467e-005    -7.052e-007    
  0.85            2.8003e-009     1.7184e-005     -1.13472e-006  
  0.9             1.2252e-009     2.6506e-005     -1.6445e-006   
  0.95            1.6306e-009     3.8073e-005     -2.2957e-006   
  1               2.0383e-009     5.2442e-005     -3.0033e-006   
  1.05            2.4072e-009     6.8834e-005     -3.7192e-006   
  1.1             2.7021e-009     8.6814e-005     -4.5079e-006   
  1.15            2.8397e-009     0.00010525      -5.2577e-006   
  1.2             1.4194e-009     0.00012667      -5.9704e-006   
  1.25            1.3134e-009     0.00014788      -6.6626e-006   
  1.3             2.8302e-009     0.00016854      -7.3034e-006   
  1.35            2.4528e-009     0.00019085      -7.8832e-006   
  1.4             1.6944e-009     0.00021293      -8.3628e-006   
  1.45            1.3133e-009     0.00023368      -8.8554e-006   
  1.5             2.8584e-009     0.00025662      -9.2878e-006   
  1.55            2.7051e-009     0.00028025      -9.6641e-006   
  1.6             2.1069e-009     0.00030311      -9.9903e-006   
  1.65            1.4337e-009     0.00032714      -1.02918e-005  
  1.7             1.3066e-009     0.00035042      -1.05342e-005  
  1.75            2.8301e-009     0.00037413      -1.07366e-005  
  1.8             2.4699e-009     0.00039809      -1.08967e-005  
  1.85            1.718e-009      0.00042152      -1.10163e-005  
  1.9             1.3082e-009     0.00044833      -1.11137e-005  
  1.95            2.8562e-009     0.00047239      -1.11642e-005  
  2               2.719e-009      0.00049658      -1.11765e-005  
  2.05            2.1276e-009     0.0005209       -1.11651e-005  
  2.1             1.445e-009      0.00054476      -1.11315e-005  
  2.15            1.3054e-009     0.00056879      -1.10746e-005  
  2.2             2.836e-009      0.00059437      -1.09736e-005  
  2.25            2.4828e-009     0.00061883      -1.08644e-005  
  2.3             1.7452e-009     0.00064298      -1.07325e-005  
  2.35            1.3222e-009     0.00066735      -1.05988e-005  
  2.4             2.8568e-009     0.00069035      -1.04394e-005  
  2.45            2.7299e-009     0.00071519      -1.02607e-005  
  2.5             2.1417e-009     0.0007389       -1.00754e-005  
  2.55            1.4501e-009     0.00076358      -9.8849e-006   
  2.6             2.8383e-009     0.00078709      -9.6902e-006   
  2.65            2.8349e-009     0.00081214      -9.461e-006    
  2.7             2.4971e-009     0.00083642      -9.2457e-006   
  2.75            1.7444e-009     0.00086053      -9.0209e-006   
  2.8             1.3211e-009     0.00088463      -8.7886e-006   
  2.85            2.8512e-009     0.00090866      -8.5801e-006   
  2.9             2.7313e-009     0.00093319      -8.3358e-006   
  2.95            2.1596e-009     0.00095693      -8.1019e-006   
  3               1.4636e-009     0.00098122      -7.8626e-006   
  3.05            1.3054e-009     0.00100514      -7.6362e-006   
  3.1             2.8408e-009     0.0010292       -7.4043e-006   
  3.15            2.5071e-009     0.00105348      -7.1692e-006   
  3.2             1.7764e-009     0.00107684      -6.9512e-006   
  3.25            1.3292e-009     0.00110129      -6.7246e-006   
  3.3             2.8571e-009     0.00112535      -6.4813e-006   
  3.35            1.2652e-009     0.0011501       -6.2592e-006   
  3.4             1.6806e-009     0.0011739       -6.022e-006    
  3.45            2.0826e-009     0.0011975       -5.8146e-006   
  3.5             2.4565e-009     0.0012215       -5.6164e-006   
  3.55            2.7337e-009     0.0012454       -5.4158e-006   
  3.6             2.8504e-009     0.00127         -5.2047e-006   
  3.65            2.8077e-009     0.0012937       -5.0104e-006   
  3.7             2.3664e-009     0.0013173       -4.8327e-006   
  3.75            1.6071e-009     0.0013409       -4.651e-006    
  3.8             1.3085e-009     0.0013644       -4.4769e-006   
  3.85            2.8598e-009     0.0013877       -4.3085e-006   
  3.9             2.6614e-009     0.001412        -4.1195e-006   
  3.95            1.9789e-009     0.0014353       -3.9571e-006   
  4               1.3847e-009     0.0014571       -3.8035e-006   
  4.05            2.8541e-009     0.0014828       -3.6471e-006   
  4.1             2.8215e-009     0.0015063       -3.4807e-006   
  4.15            2.383e-009      0.0015298       -3.3382e-006   
  4.2             1.6245e-009     0.0015534       -3.2122e-006   
  4.25            1.3098e-009     0.001576        -3.0765e-006   
  4.3             2.8604e-009     0.0015987       -2.9408e-006   
  4.35            2.6735e-009     0.0016236       -2.799e-006    
  4.4             2.0062e-009     0.0016473       -2.6821e-006   
  4.45            1.3967e-009     0.0016701       -2.5706e-006   
  4.5             1.3155e-009     0.0016932       -2.4615e-006   
  4.55            2.8292e-009     0.0017161       -2.3514e-006   
  4.6             2.4026e-009     0.0017388       -2.235e-006    
  4.65            1.6445e-009     0.0017618       -2.1303e-006   
  4.7             1.3115e-009     0.0017852       -2.0435e-006   
  4.75            2.8626e-009     0.0018081       -1.9647e-006   
  4.8             2.6881e-009     0.0018309       -1.8539e-006   
  4.85            2.0446e-009     0.0018535       -1.7703e-006   
  4.9             1.408e-009      0.0018766       -1.6937e-006   
  4.95            2.8467e-009     0.0018992       -1.6072e-006   
  5               2.832e-009      0.0019216       -1.5261e-006   
END_DB

BEGIN_DB
 ICCAP_VAR VS         0              
 ICCAP_VAR VB         -2.5           
 ICCAP_VAR VD         0.1            

 #VG              IG              ID              IB             
  0               8.689e-010      1.075e-010      1.0138e-008    
  0.05            1.3073e-009     -1.4655e-009    -2.3679e-008   
  0.1             2.8635e-009     -2.24e-011      -1.1916e-008   
  0.15            -1.369e-009     1.3937e-009     2.7786e-008    
  0.2             -2.7151e-009    3.9e-012        1.2424e-008    
  0.25            2.5667e-009     -1.4279e-009    -2.5275e-008   
  0.3             1.2179e-009     2.2244e-009     -3.859e-009    
  0.35            -2.183e-010     1.9803e-009     1.0108e-008    
  0.4             -1.6458e-009    8.944e-010      2.2598e-008    
  0.45            -1.7688e-009    -1.5623e-009    6.878e-009     
  0.5             -3.251e-010     -2.2202e-009    -1.3001e-008   
  0.55            -5.332e-010     -2.2429e-009    -1.2967e-008   
  0.6             -7.201e-010     -2.2349e-009    -1.2244e-008   
  0.65            2.231e-009      -1.5635e-009    -1.9327e-008   
  0.7             1.4312e-009     2.0505e-009     -7.026e-009    
  0.75            -1.3637e-009    1.3875e-009     2.9181e-008    
  0.8             -2.723e-009     2.416e-010      1.1876e-008    
  0.85            2.6607e-009     2.0265e-009     -2.6659e-008   
  0.9             2.4337e-009     6.1378e-009     9.19e-009      
  0.95            -2.0842e-009    1.7195e-008     -2.1308e-008   
  1               -1.5023e-009    5.6428e-008     4.623e-009     
  1.05            -1.986e-010     1.5934e-007     -9.015e-009    
  1.1             -1.4034e-009    3.9237e-007     2.3095e-008    
  1.15            -1.3696e-009    8.816e-007      8.914e-009     
  1.2             -2.4505e-009    1.8165e-006     -1.9125e-008   
  1.25            1.9798e-009     3.433e-006      -2.3184e-008   
  1.3             1.3808e-009     5.8453e-006     -8.29e-009     
  1.35            2.8556e-009     9.0038e-006     -7.761e-009    
  1.4             -1.7843e-009    1.2833e-005     3.6e-011       
  1.45            -1.3836e-009    1.678e-005      5.581e-009     
  1.5             -2.7222e-009    2.0792e-005     9.36e-009      
  1.55            2.331e-009      2.4583e-005     -2.645e-008    
  1.6             1.5797e-009     2.8296e-005     -5.94e-009     
  1.65            1.3056e-009     3.1835e-005     -8.522e-009    
  1.7             2.8576e-009     3.5127e-005     -8.842e-009    
  1.75            -1.8932e-009    3.8386e-005     2.6774e-008    
  1.8             -1.4083e-009    4.1343e-005     5.119e-009     
  1.85            -1.3671e-009    4.4144e-005     8.953e-009     
  1.9             -2.6332e-009    4.6816e-005     1.2612e-008    
  1.95            -2.2074e-009    4.9288e-005     1.246e-009     
  2               -1.5814e-009    5.1709e-005     3.827e-009     
  2.05            -1.3605e-009    5.3973e-005     7.179e-009     
  2.1             -2.6945e-009    5.6201e-005     1.0621e-008    
  2.15            2.1016e-009     5.8254e-005     -2.4567e-008   
  2.2             1.4312e-009     6.0228e-005     -7.576e-009    
  2.25            1.3075e-009     6.2169e-005     -8.134e-009    
  2.3             2.822e-009      6.4033e-005     -1.0621e-008   
  2.35            -1.6891e-009    6.5846e-005     2.217e-008     
  2.4             -1.3679e-009    6.7628e-005     6.389e-009     
  2.45            -1.362e-009     6.9291e-005     9.785e-009     
  2.5             -2.5545e-009    7.0919e-005     1.3701e-008    
  2.55            -1.9936e-009    7.2448e-005     1.392e-009     
  2.6             -1.4566e-009    7.3984e-005     5.006e-009     
  2.65            -1.3626e-009    7.546e-005      8.287e-009     
  2.7             -2.6653e-009    7.6799e-005     1.2193e-008    
  2.75            1.8375e-009     7.8277e-005     -2.0668e-008   
  2.8             1.3353e-009     7.9624e-005     -8.953e-009    
  2.85            2.8591e-009     8.0953e-005     -8.18e-009     
  2.9             2.7511e-009     8.222e-005      -2.43e-010     
  2.95            1.5224e-009     8.3397e-005     9.307e-009     
  3               -1.9781e-009    8.4648e-005     2.842e-008     
  3.05            -1.438e-009     8.5883e-005     5.129e-009     
  3.1             -1.364e-009     8.7022e-005     8.259e-009     
  3.15            -2.6596e-009    8.8125e-005     1.2471e-008    
  3.2             -1.4363e-009    8.9256e-005     -9.36e-009     
  3.25            2.4154e-009     9.0252e-005     -2.6959e-008   
  3.3             1.6309e-009     9.1244e-005     -5.723e-009    
  3.35            1.3084e-009     9.2321e-005     -8.739e-009    
  3.4             2.8604e-009     9.3214e-005     -8.481e-009    
  3.45            -1.9457e-009    9.4287e-005     2.7893e-008    
  3.5             -1.4229e-009    9.5198e-005     5.167e-009     
  3.55            -1.3621e-009    9.6189e-005     8.462e-009     
  3.6             -2.6409e-009    9.7132e-005     1.2284e-008    
  3.65            -2.2485e-009    9.789e-005      1.049e-009     
  3.7             -1.6088e-009    9.8861e-005     3.861e-009     
  3.75            -1.3551e-009    9.9711e-005     6.755e-009     
  3.8             -2.6945e-009    0.000100525     1.0258e-008    
  3.85            2.1481e-009     0.000101275     -2.5393e-008   
  3.9             1.4458e-009     0.000102043     -7.621e-009    
  3.95            1.3112e-009     0.000102891     -7.907e-009    
  4               2.8383e-009     0.000103652     -1.0224e-008   
  4.05            -1.7054e-009    0.00010439      2.2949e-008    
  4.1             -1.3608e-009    0.000105167     6.066e-009     
  4.15            -2.7053e-009    0.000105863     9.702e-009     
