! VERSION = 6.00
BEGIN_HEADER
 ICCAP_INPUTS
  VG         V  B GROUND SMU4 0.001 LIN        1    0          5          101  0.05      
  VS         V  E GROUND SMU2 0.1 CON        0
  VB         V  C GROUND SMU3 0.1 LIN        3    0          -5         3    -2.5      
  VD         V  S GROUND SMU1 0.1 LIN        2    0.1        5          2    4.9       
 ICCAP_OUTPUTS
  IG         I  B GROUND SMU4 B
  ID         I  S GROUND SMU1 B
  IB         I  C GROUND SMU3 B
END_HEADER

BEGIN_DB
 ICCAP_VAR VS         0              
 ICCAP_VAR VB         0              
 ICCAP_VAR VD         0.1            

 #VG              IG              ID              IB             
  0               1.1791e-009     1.0629e-009     1.271e-008     
  0.05            2.2259e-009     -7.254e-010     -2.0425e-008   
  0.1             1.4392e-009     2.0343e-009     -7.377e-009    
  0.15            5.23e-011       2.0883e-009     1.0336e-008    
  0.2             2.276e-010      2.2e-009        1.0357e-008    
  0.25            4.152e-010      2.3175e-009     1.0462e-008    
  0.3             5.989e-010      2.4213e-009     1.0847e-008    
  0.35            -1.3131e-009    1.7377e-009     2.2531e-008    
  0.4             -2.6837e-009    9.795e-010      1.1977e-008    
  0.45            -2.555e-009     1.9918e-009     6.28e-010      
  0.5             1.3894e-009     1.1197e-008     -1.1538e-008   
  0.55            1.2615e-009     3.5375e-008     -8.915e-009    
  0.6             -2.7678e-009    1.0608e-007     1.0316e-008    
  0.65            4.88e-011       2.9102e-007     -1.1908e-008   
  0.7             -4.18e-010      6.941e-007      -1.0894e-008   
  0.75            1.2738e-009     1.433e-006      1.0522e-008    
  0.8             2.7949e-009     2.5981e-006     -1.1132e-008   
  0.85            5.355e-010      4.229e-006      1.0377e-008    
  0.9             -1.8337e-009    6.1887e-006     2.4303e-008    
  0.95            -1.4298e-009    8.3505e-006     5.744e-009     
  1               -1.3215e-009    1.06313e-005    1.0352e-008    
  1.05            -1.793e-010     1.2891e-005     1.1287e-008    
  1.1             -6.775e-010     1.518e-005      -1.0952e-008   
  1.15            1.8144e-009     1.743e-005      -1.909e-008    
  1.2             1.3663e-009     1.9569e-005     -9.628e-009    
  1.25            1.257e-009      2.1652e-005     -8.728e-009    
  1.3             2.6773e-009     2.3632e-005     -1.3154e-008   
  1.35            2.546e-009      2.5549e-005     8.545e-009     
  1.4             4.666e-010      2.739e-005      1.0421e-008    
  1.45            -1.2958e-009    2.9136e-005     2.5503e-008    
  1.5             -2.3721e-009    3.0795e-005     1.321e-008     
  1.55            -1.7576e-009    3.2378e-005     2.473e-009     
  1.6             -1.4142e-009    3.3911e-005     6.125e-009     
  1.65            -1.3174e-009    3.5398e-005     1.0518e-008    
  1.7             -2.5422e-009    3.6833e-005     1.1536e-008    
  1.75            -1.9822e-009    3.8202e-005     1.406e-009     
  1.8             -1.5018e-009    3.9513e-005     4.491e-009     
  1.85            -1.3423e-009    4.0797e-005     9.193e-009     
  1.9             -2.656e-009     4.2072e-005     1.1215e-008    
  1.95            -2.2123e-009    4.3256e-005     7.21e-010      
  2               -1.6353e-009    4.4439e-005     3.289e-009     
  2.05            -1.3784e-009    4.5602e-005     7.517e-009     
  2.1             -1.3001e-009    4.6687e-005     1.1008e-008    
  2.15            -2.4276e-009    4.7783e-005     1.2649e-008    
  2.2             -1.8347e-009    4.8824e-005     2.118e-009     
  2.25            -1.4334e-009    4.9874e-005     5.67e-009      
  2.3             -1.3251e-009    5.0893e-005     1.0011e-008    
  2.35            -2.5796e-009    5.1889e-005     1.1098e-008    
  2.4             -2.0542e-009    5.2821e-005     1.154e-009     
  2.45            -1.5344e-009    5.3752e-005     4.013e-009     
  2.5             -1.3543e-009    5.4699e-005     8.897e-009     
  2.55            -2.6863e-009    5.5604e-005     1.113e-008     
  2.6             -2.2784e-009    5.6458e-005     6.34e-010      
  2.65            -8.807e-010     5.7331e-005     -1.136e-008    
  2.7             -1.2704e-009    5.818e-005      -1.1099e-008   
  2.75            -2.49e-011      5.8958e-005     -1.1652e-008   
  2.8             -5.149e-010     5.9849e-005     -1.0909e-008   
  2.85            -9.593e-010     6.0622e-005     -1.138e-008    
  2.9             2.711e-010      6.1378e-005     -1.3547e-008   
  2.95            -1.101e-010     6.2163e-005     -1.1351e-008   
  3               -6.165e-010     6.2914e-005     -1.0897e-008   
  3.05            -1.0328e-009    6.3675e-005     -1.1412e-008   
  3.1             1.99e-010       6.4313e-005     -1.2728e-008   
  3.15            -2.12e-010      6.5057e-005     -1.1114e-008   
  3.2             -7.147e-010     6.5798e-005     -1.0929e-008   
  3.25            1.7664e-009     6.6477e-005     -1.8143e-008   
  3.3             1.3513e-009     6.717e-005      -9.463e-009    
  3.35            1.2534e-009     6.7806e-005     -8.666e-009    
  3.4             2.6577e-009     6.8518e-005     -1.3745e-008   
  3.45            2.5641e-009     6.9139e-005     8.397e-009     
  3.5             4.931e-010      6.9789e-005     1.0393e-008    
  3.55            -1.2934e-009    7.0398e-005     2.5101e-008    
  3.6             -2.3422e-009    7.0991e-005     1.3652e-008    
  3.65            -1.7371e-009    7.1616e-005     2.519e-009     
  3.7             -1.4055e-009    7.2202e-005     6.346e-009     
  3.75            -1.3143e-009    7.2764e-005     1.0492e-008    
  3.8             -2.5227e-009    7.3383e-005     1.1517e-008    
  3.85            -1.9558e-009    7.3952e-005     1.496e-009     
  3.9             -1.4838e-009    7.4465e-005     4.489e-009     
  3.95            -1.3413e-009    7.4987e-005     9.36e-009      
  4               -2.6482e-009    7.5536e-005     1.1254e-008    
  4.05            -2.1848e-009    7.6058e-005     7.82e-010      
  4.1             -1.6199e-009    7.6528e-005     3.037e-009     
  4.15            -1.3752e-009    7.7095e-005     7.552e-009     
  4.2             -1.2984e-009    7.761e-005      1.1202e-008    
  4.25            -2.4129e-009    7.8044e-005     1.2836e-008    
  4.3             -1.8199e-009    7.8536e-005     2.113e-009     
  4.35            -1.4341e-009    7.9022e-005     5.749e-009     
  4.4             -1.3238e-009    7.9498e-005     1.017e-008     
  4.45            -2.5799e-009    7.9933e-005     1.1319e-008    
  4.5             -2.0504e-009    8.038e-005      9.71e-010      
  4.55            -1.5345e-009    8.0812e-005     4.175e-009     
  4.6             -1.3522e-009    8.1308e-005     8.722e-009     
  4.65            -2.6852e-009    8.1734e-005     1.1432e-008    
  4.7             -2.2832e-009    8.2108e-005     6.07e-010      
  4.75            -1.7041e-009    8.2569e-005     2.863e-009     
  4.8             -1.3958e-009    8.2977e-005     6.611e-009     
  4.85            -1.3075e-009    8.3339e-005     1.0856e-008    
  4.9             -2.4947e-009    8.3777e-005     1.1839e-008    
  4.95            -7.045e-010     8.4113e-005     -1.103e-008    
  5               1.789e-009      8.4524e-005     -1.8497e-008   
END_DB

BEGIN_DB
 ICCAP_VAR VS         0              
 ICCAP_VAR VB         0              
 ICCAP_VAR VD         5              

 #VG              IG              ID              IB             
  0               -2.3164e-009    -2.1909e-009    1.5175e-008    
  0.05            -1.3196e-009    -2.0273e-009    2.615e-009     
  0.1             1.567e-010      -1.7835e-009    -1.1522e-008   
  0.15            4.7e-012        -1.616e-009     -1.0953e-008   
  0.2             2.1922e-009     2.251e-009      -1.099e-008    
  0.25            1.9029e-009     6.6463e-009     -7.701e-009    
  0.3             2.7418e-009     2.4069e-008     1.492e-008     
  0.35            2.9172e-009     8.2949e-008     -2.466e-009    
  0.4             -1.5392e-009    2.8124e-007     -2.2669e-008   
  0.45            -1.3559e-009    8.0227e-007     -5.98e-008     
  0.5             -2.7656e-009    1.9686e-006     -1.9228e-007   
  0.55            -2.5492e-009    4.2036e-006     -3.4247e-007   
  0.6             -2.0129e-009    7.7812e-006     -6.1006e-007   
  0.65            2.72e-009       1.2634e-005     -9.7667e-007   
  0.7             1.8739e-009     1.8748e-005     -1.3746e-006   
  0.75            2.2414e-009     2.6206e-005     -1.8582e-006   
  0.8             2.5315e-009     3.4542e-005     -2.3729e-006   
  0.85            2.8409e-009     4.3656e-005     -2.9094e-006   
  0.9             2.8979e-009     5.3512e-005     -3.4634e-006   
  0.95            2.6195e-009     6.388e-005      -4.0146e-006   
  1               1.9794e-009     7.4719e-005     -4.5539e-006   
  1.05            1.435e-009      8.5995e-005     -5.085e-006    
  1.1             1.275e-009      9.7599e-005     -5.5809e-006   
  1.15            2.7981e-009     0.000109668     -6.069e-006    
  1.2             1.272e-009      0.00012193      -6.5034e-006   
  1.25            2.7888e-009     0.00013429      -6.9494e-006   
  1.3             2.2679e-009     0.00014694      -7.3413e-006   
  1.35            1.6098e-009     0.00015962      -7.7184e-006   
  1.4             1.3103e-009     0.00017244      -8.0627e-006   
  1.45            2.883e-009      0.00018534      -8.3731e-006   
  1.5             2.5434e-009     0.00019851      -8.6516e-006   
  1.55            1.8726e-009     0.00021158      -8.9127e-006   
  1.6             1.3905e-009     0.00022478      -9.1491e-006   
  1.65            1.2651e-009     0.00023797      -9.3534e-006   
  1.7             2.7589e-009     0.00025121      -9.5314e-006   
  1.75            2.1951e-009     0.00026473      -9.6775e-006   
  1.8             1.5597e-009     0.00027809      -9.8084e-006   
  1.85            1.3006e-009     0.00029153      -9.9252e-006   
  1.9             2.869e-009      0.00030488      -1.00113e-005  
  1.95            2.4873e-009     0.00031849      -1.0067e-005   
  2               1.8134e-009     0.00033193      -1.0117e-005   
  2.05            1.3679e-009     0.00034541      -1.01517e-005  
  2.1             1.2597e-009     0.00035888      -1.01621e-005  
  2.15            2.7221e-009     0.00037232      -1.01565e-005  
  2.2             2.1228e-009     0.00038598      -1.01336e-005  
  2.25            1.5131e-009     0.00039952      -1.01008e-005  
  2.3             1.2915e-009     0.00041295      -1.00536e-005  
  2.35            2.8508e-009     0.00042641      -9.9936e-006   
  2.4             2.4291e-009     0.00044005      -9.9172e-006   
  2.45            1.7428e-009     0.00045353      -9.8351e-006   
  2.5             1.3516e-009     0.0004669       -9.7517e-006   
  2.55            1.2542e-009     0.00048041      -9.6424e-006   
  2.6             2.6803e-009     0.00049384      -9.5433e-006   
  2.65            2.0497e-009     0.00050741      -9.418e-006    
  2.7             1.4718e-009     0.00052086      -9.2954e-006   
  2.75            1.2836e-009     0.00053425      -9.1836e-006   
  2.8             2.8276e-009     0.00054783      -9.0376e-006   
  2.85            2.3626e-009     0.00056131      -8.8901e-006   
  2.9             1.6804e-009     0.00057474      -8.7482e-006   
  2.95            1.3291e-009     0.00058807      -8.6093e-006   
  3               2.9016e-009     0.00060135      -8.4525e-006   
  3.05            2.62e-009       0.00061478      -8.2949e-006   
  3.1             1.975e-009      0.00062807      -8.1464e-006   
  3.15            1.4346e-009     0.00064123      -7.9941e-006   
  3.2             1.2753e-009     0.00065445      -7.8358e-006   
  3.25            2.7998e-009     0.00066781      -7.6793e-006   
  3.3             2.2868e-009     0.00068105      -7.5225e-006   
  3.35            1.6251e-009     0.00069436      -7.3502e-006   
  3.4             1.3172e-009     0.00070753      -7.2138e-006   
  3.45            2.8892e-009     0.00072067      -7.0602e-006   
  3.5             2.567e-009      0.00073378      -6.8892e-006   
  3.55            1.9022e-009     0.00074684      -6.7347e-006   
  3.6             1.4078e-009     0.00075999      -6.5806e-006   
  3.65            1.27e-009       0.00077291      -6.4214e-006   
  3.7             2.7706e-009     0.00078605      -6.2876e-006   
  3.75            2.2211e-009     0.00079909      -6.1218e-006   
  3.8             1.5689e-009     0.00081216      -5.9852e-006   
  3.85            1.3072e-009     0.00082496      -5.8393e-006   
  3.9             2.8765e-009     0.00083782      -5.6968e-006   
  3.95            2.5122e-009     0.00085087      -5.544e-006    
  4               1.8352e-009     0.00086371      -5.4059e-006   
  4.05            1.3805e-009     0.00087653      -5.2827e-006   
  4.1             1.2662e-009     0.00088928      -5.134e-006    
  4.15            2.7344e-009     0.00090204      -4.996e-006    
  4.2             2.1546e-009     0.00091491      -4.8704e-006   
  4.25            1.529e-009      0.00092762      -4.7534e-006   
  4.3             1.2994e-009     0.00094024      -4.6244e-006   
  4.35            2.8626e-009     0.00095288      -4.5039e-006   
  4.4             2.4511e-009     0.00096563      -4.3667e-006   
  4.45            1.767e-009      0.00097851      -4.2544e-006   
  4.5             1.361e-009      0.00099097      -4.1543e-006   
  4.55            1.2617e-009     0.00100348      -4.0393e-006   
  4.6             2.6988e-009     0.00101583      -3.9156e-006   
  4.65            2.086e-009      0.00102845      -3.7975e-006   
  4.7             1.4924e-009     0.00104088      -3.702e-006    
  4.75            1.2938e-009     0.00105321      -3.603e-006    
  4.8             2.8455e-009     0.00106557      -3.5062e-006   
  4.85            2.389e-009      0.00107791      -3.3895e-006   
  4.9             1.7079e-009     0.00109021      -3.3109e-006   
  4.95            1.3476e-009     0.00110244      -3.2067e-006   
  5               1.2651e-009     0.0011146       -3.1302e-006   
END_DB

BEGIN_DB
 ICCAP_VAR VS         0              
 ICCAP_VAR VB         -2.5           
 ICCAP_VAR VD         0.1            

 #VG              IG              ID              IB             
  0               9.794e-010      9.207e-010      2.3668e-008    
  0.05            1.3309e-009     -1.3076e-009    -2.5425e-008   
  0.1             1.1959e-009     2.2556e-009     -8.752e-009    
  0.15            -1.897e-010     1.9653e-009     1.126e-008     
  0.2             -3.45e-011      2.0423e-009     1.0583e-008    
  0.25            1.258e-010      2.1312e-009     1.0198e-008    
  0.3             2.947e-010      2.2337e-009     1.0301e-008    
  0.35            4.695e-010      2.321e-009      1.0486e-008    
  0.4             -2.2968e-009    5.591e-010      1.8091e-008    
  0.45            -6.3e-010       -2.2596e-009    -1.1308e-008   
  0.5             -8.096e-010     -2.2596e-009    -1.1393e-008   
  0.55            2.0627e-009     -1.5951e-009    -1.6525e-008   
  0.6             1.5321e-009     1.9957e-009     -8.59e-009     
  0.65            1.275e-010      2.3903e-009     1.0202e-008    
  0.7             2.966e-010      3.2847e-009     1.0295e-008    
  0.75            4.722e-010      6.3925e-009     1.0475e-008    
  0.8             -2.3212e-009    1.3996e-008     -2.4012e-008   
  0.85            -8.506e-010     5.0087e-008     -1.1148e-008   
  0.9             -2.4179e-009    1.6448e-007     1.0554e-008    
  0.95            -1.8331e-009    4.4923e-007     2.09e-009      
  1               -1.4386e-009    1.04604e-006    5.683e-009     
  1.05            -2.7608e-009    2.0594e-006     -2.4238e-008   
  1.1             9.8e-011        3.4837e-006     -1.2137e-008   
  1.15            -3.498e-010     5.3834e-006     -1.0904e-008   
  1.2             -8.221e-010     7.5055e-006     -1.1147e-008   
  1.25            1.6638e-009     9.7089e-006     -1.6368e-008   
  1.3             -1.2977e-009    1.2073e-005     -9.053e-009    
  1.35            -2.3906e-009    1.4323e-005     1.3253e-008    
  1.4             -1.7928e-009    1.6516e-005     2.381e-009     
  1.45            -1.4281e-009    1.8666e-005     5.939e-009     
  1.5             -1.3219e-009    2.0718e-005     1.0443e-008    
  1.55            -2.586e-009     2.2676e-005     1.137e-008     
  1.6             -2.0805e-009    2.4521e-005     7.54e-010      
  1.65            -1.5533e-009    2.6301e-005     3.76e-009      
  1.7             -1.3567e-009    2.7999e-005     8.777e-009     
  1.75            -2.7118e-009    2.9617e-005     1.1522e-008    
  1.8             -3.654e-010     3.1139e-005     -1.0921e-008   
  1.85            -8.28e-010      3.2624e-005     -1.1101e-008   
  1.9             -1.1981e-009    3.4072e-005     -1.103e-008    
  1.95            3.86e-011       3.5414e-005     -1.1834e-008   
  2               -4.25e-010      3.6762e-005     -1.0847e-008   
  2.05            -8.727e-010     3.8055e-005     -1.1287e-008   
  2.1             -1.2507e-009    3.9304e-005     -1.0995e-008   
  2.15            -1.08e-011      4.0464e-005     -1.1732e-008   
  2.2             -4.874e-010     4.1654e-005     -1.0835e-008   
  2.25            -9.157e-010     4.2777e-005     -1.1403e-008   
  2.3             1.5239e-009     4.3849e-005     -1.427e-008    
  2.35            1.2937e-009     4.4921e-005     -9.032e-009    
  2.4             2.8519e-009     4.5979e-005     -9.555e-009    
  2.45            4.239e-010      4.7004e-005     1.03e-008      
  2.5             8.429e-010      4.798e-005      1.0804e-008    
  2.55            -1.5057e-009    4.8919e-005     1.625e-008     
  2.6             -1.3434e-009    4.9882e-005     9.336e-009     
  2.65            -2.6752e-009    5.0791e-005     1.1473e-008    
  2.7             -2.2662e-009    5.1694e-005     6.18e-010      
  2.75            -1.6832e-009    5.2588e-005     2.718e-009     
  2.8             -1.392e-009     5.3446e-005     7.064e-009     
  2.85            -1.3083e-009    5.4279e-005     1.1054e-008    
  2.9             -2.509e-009     5.511e-005      1.1685e-008    
  2.95            -1.9391e-009    5.5905e-005     1.598e-009     
  3               -1.4813e-009    5.669e-005      4.669e-009     
  3.05            -1.3395e-009    5.7463e-005     9.616e-009     
  3.1             -2.6601e-009    5.8235e-005     1.1383e-008    
  3.15            -2.2368e-009    5.897e-005      6.19e-010      
  3.2             -1.6654e-009    5.968e-005      2.932e-009     
  3.25            -1.3851e-009    6.0406e-005     7.255e-009     
  3.3             -1.3021e-009    6.1096e-005     1.1162e-008    
  3.35            -2.4881e-009    6.1809e-005     1.189e-008     
  3.4             -1.9122e-009    6.2468e-005     1.742e-009     
  3.45            -1.4686e-009    6.314e-005      4.903e-009     
  3.5             -1.3371e-009    6.381e-005      9.706e-009     
  3.55            -2.6464e-009    6.4418e-005     1.1124e-008    
  3.6             -2.2056e-009    6.5019e-005     7.01e-010      
  3.65            -1.6398e-009    6.5661e-005     3.165e-009     
  3.7             -1.3774e-009    6.6273e-005     7.606e-009     
  3.75            -1.2991e-009    6.682e-005      1.13e-008      
  3.8             -2.4628e-009    6.7425e-005     1.2128e-008    
  3.85            -1.8832e-009    6.7959e-005     1.908e-009     
  3.9             -1.4555e-009    6.855e-005      5.167e-009     
  3.95            -1.3281e-009    6.9122e-005     9.973e-009     
  4               -2.6315e-009    6.9649e-005     1.1109e-008    
  4.05            -2.1762e-009    7.0219e-005     7.62e-010      
  4.1             -1.6149e-009    7.0757e-005     3.194e-009     
  4.15            -1.3715e-009    7.1292e-005     7.728e-009     
