! VERSION = 6.00
BEGIN_HEADER
 ICCAP_INPUTS
  VG         V  B GROUND SMU4 0.001 LIN        2    0          5          6    1         
  VS         V  E GROUND SMU2 0.1 CON        0
  VD         V  S GROUND SMU1 0.1 LIN        1    0          5          101  0.05      
  VB         V  C GROUND SMU3 0.1 LIN        3    0          -2.5       2    -2.5      
 ICCAP_OUTPUTS
  ID         I  S GROUND SMU1 B
  IB         I  C GROUND SMU3 B
  IG         I  B GROUND SMU4 B
END_HEADER

BEGIN_DB
 ICCAP_VAR VG         0              
 ICCAP_VAR VS         0              
 ICCAP_VAR VB         0              

 #VD              ID              IB              IG             
  0               8.75e-011       1.0361e-008     8.615e-010     
  0.05            -1.4962e-009    -2.3167e-008    1.315e-009     
  0.1             -2.78e-011      -1.259e-008     2.8733e-009    
  0.15            1.4339e-009     2.7394e-008     -1.3826e-009   
  0.2             1.21e-011       1.275e-008      -1.3711e-009   
  0.25            1.53e-010       1.4373e-008     -2.6888e-009   
  0.3             -1.5509e-009    -2.0936e-008    2.3269e-009    
  0.35            2.1119e-009     -5.756e-009     1.3916e-009    
  0.4             1.2937e-009     2.8675e-008     -1.3796e-009   
  0.45            -2.1183e-009    1.1291e-008     -1.2906e-009   
  0.5             -1.9396e-009    -1.0687e-008    2.474e-010     
  0.55            -9.505e-010     -2.1913e-008    1.7302e-009    
  0.6             1.688e-009      -8.699e-009     1.7299e-009    
  0.65            1.4245e-009     1.0012e-008     1.8901e-009    
  0.7             2.3192e-009     1.2416e-008     4.641e-010     
  0.75            2.3463e-009     1.191e-008      6.405e-010     
  0.8             2.3506e-009     1.0404e-008     8.093e-010     
  0.85            1.6725e-009     1.7059e-008     -1.865e-009    
  0.9             -1.7814e-009    5.088e-009      -1.6432e-009   
  0.95            -1.4886e-009    -2.3722e-008    1.3155e-009    
  1               -1.49e-011      -1.2102e-008    2.87e-009      
  1.05            1.4192e-009     2.7727e-008     -1.3813e-009   
  1.1             -3.7e-012       1.2716e-008     -1.3754e-009   
  1.15            1.36e-010       1.3986e-008     -2.6966e-009   
  1.2             -1.5415e-009    -2.1502e-008    2.3545e-009    
  1.25            2.1275e-009     -5.633e-009     1.3734e-009    
  1.3             1.2759e-009     2.8658e-008     -1.3804e-009   
  1.35            -2.132e-009     1.1082e-008     -1.2672e-009   
  1.4             -1.9206e-009    -1.0559e-008    2.605e-010     
  1.45            -9.375e-010     -2.133e-008     1.7644e-009    
  1.5             1.7183e-009     -8.726e-009     1.7078e-009    
  1.55            1.4485e-009     1.0044e-008     1.8667e-009    
  1.6             2.3179e-009     1.2416e-008     4.436e-010     
  1.65            2.3447e-009     1.1981e-008     6.194e-010     
  1.7             2.3502e-009     1.0503e-008     7.851e-010     
  1.75            1.6563e-009     1.7776e-008     -1.9e-009      
  1.8             -1.8064e-009    5.315e-009      -1.6188e-009   
  1.85            -1.478e-009     -2.4289e-008    1.3147e-009    
  1.9             1.9e-012        -1.1558e-008    2.8723e-009    
  1.95            1.5523e-009     -5.74e-010      1.8125e-009    
  2               2.3076e-009     1.2608e-008     3.823e-010     
  2.05            2.3392e-009     1.2557e-008     5.637e-010     
  2.1             2.3503e-009     1.1509e-008     7.305e-010     
  2.15            2.345e-009      9.848e-009      8.888e-010     
  2.2             1.746e-009      1.4388e-008     -1.7403e-009   
  2.25            -1.67e-009      5.908e-009      -1.722e-009    
  2.3             -1.5468e-009    -2.1333e-008    2.343e-009     
  2.35            2.1237e-009     -5.727e-009     1.3921e-009    
  2.4             1.2879e-009     2.8747e-008     -1.3758e-009   
  2.45            -2.1238e-009    1.1228e-008     -1.287e-009    
  2.5             -1.9377e-009    -1.049e-008     2.479e-010     
  2.55            -9.51e-010      -2.1659e-008    1.7358e-009    
  2.6             1.6875e-009     -8.685e-009     1.7328e-009    
  2.65            1.4236e-009     9.999e-009      1.8882e-009    
  2.7             2.3245e-009     1.2536e-008     4.666e-010     
  2.75            2.3472e-009     1.2218e-008     6.511e-010     
  2.8             2.3486e-009     1.056e-008      8.112e-010     
  2.85            1.6749e-009     1.6981e-008     -1.8624e-009   
  2.9             -1.7705e-009    5.189e-009      -1.6452e-009   
  2.95            -1.4964e-009    -2.3362e-008    2.4567e-009    
  3               2.1853e-009     -4.803e-009     1.3148e-009    
  3.05            1.2193e-009     2.8274e-008     -1.3854e-009   
  3.1             -2.1638e-009    1.0231e-008     -1.2117e-009   
  3.15            -1.8775e-009    -1.0283e-008    3.106e-010     
  3.2             -8.938e-010     -2.0685e-008    1.8662e-009    
  3.25            1.8079e-009     -8.671e-009     1.6525e-009    
  3.3             1.5342e-009     1.0527e-008     1.8145e-009    
  3.35            2.3034e-009     1.2468e-008     3.851e-010     
  3.4             2.3378e-009     1.2501e-008     5.661e-010     
  3.45            2.3493e-009     1.1323e-008     7.33e-010      
  3.5             2.3446e-009     9.802e-009      8.956e-010     
  3.55            1.7463e-009     1.4551e-008     -1.7338e-009   
  3.6             -1.661e-009     5.966e-009      -1.7277e-009   
  3.65            -2.2481e-009    -1.2923e-008    -2.412e-010    
  3.7             -2.271e-009     -1.3001e-008    -4.521e-010    
  3.75            -2.269e-009     -1.2642e-008    -6.455e-010    
  3.8             -2.2517e-009    -1.1217e-008    -8.345e-010    
  3.85            -1.6393e-009    -1.6121e-008    2.0551e-009    
  3.9             1.9412e-009     -7.51e-009      1.5529e-009    
  3.95            1.4187e-009     2.7659e-008     -1.3833e-009   
  4               7.1e-012        1.2602e-008     -1.3733e-009   
  4.05            1.431e-010      1.4178e-008     -2.69e-009     
  4.1             -1.5531e-009    -2.1275e-008    2.3405e-009    
  4.15            2.1237e-009     -5.736e-009     1.387e-009     
  4.2             1.286e-009      2.8632e-008     -1.3802e-009   
  4.25            -2.1272e-009    1.1356e-008     -1.2814e-009   
  4.3             -1.9374e-009    -1.0678e-008    2.471e-010     
  4.35            -9.466e-010     -2.1913e-008    1.7314e-009    
  4.4             1.6824e-009     -8.713e-009     1.73e-009      
  4.45            1.4295e-009     1.0033e-008     1.8862e-009    
  4.5             2.3238e-009     1.2462e-008     4.742e-010     
  4.55            2.3471e-009     1.1696e-008     6.498e-010     
  4.6             2.3496e-009     1.021e-008      8.101e-010     
  4.65            1.6863e-009     1.6819e-008     -1.8618e-009   
  4.7             -1.7688e-009    5.315e-009      -1.649e-009    
  4.75            -1.4945e-009    -2.3505e-008    2.4633e-009    
  4.8             2.1897e-009     -4.705e-009     1.3163e-009    
  4.85            1.2191e-009     2.8309e-008     -1.3893e-009   
  4.9             -2.1676e-009    1.0131e-008     -1.2094e-009   
  4.95            -1.8792e-009    -1.0211e-008    3.119e-010     
  5               -8.929e-010     -2.0662e-008    1.8873e-009    
END_DB

BEGIN_DB
 ICCAP_VAR VG         1              
 ICCAP_VAR VS         0              
 ICCAP_VAR VB         0              

 #VD              ID              IB              IG             
  0               -2.3843e-007    -1.6558e-008    1.2713e-009    
  0.05            1.5879e-005     9.844e-009      -1.5008e-009   
  0.1             2.6198e-005     9.667e-009      1.108e-009     
  0.15            3.2718e-005     -2.6245e-008    2.3371e-009    
  0.2             3.7059e-005     -1.3241e-008    -7.264e-010    
  0.25            4.0155e-005     8.275e-009      -1.3793e-009   
  0.3             4.2392e-005     2.2092e-008     -1.6976e-009   
  0.35            4.3829e-005     1.1197e-008     9.62e-010      
  0.4             4.5264e-005     -2.6653e-008    2.5749e-009    
  0.45            4.6755e-005     -2.1608e-008    1.9147e-009    
  0.5             4.8238e-005     -1.2803e-008    -9.484e-010    
  0.55            4.9811e-005     2.7614e-008     -1.379e-009    
  0.6             5.0876e-005     2.2562e-008     -1.7306e-009   
  0.65            5.1532e-005     1.1811e-008     9.448e-010     
  0.7             5.2419e-005     -2.6542e-008    2.605e-009     
  0.75            5.3543e-005     -2.2467e-008    1.9498e-009    
  0.8             5.4777e-005     -1.2886e-008    -9.365e-010    
  0.85            5.6092e-005     2.7386e-008     -1.377e-009    
  0.9             5.6989e-005     2.3661e-008     -1.7593e-009   
  0.95            5.7435e-005     1.1896e-008     9.299e-010     
  1               5.8121e-005     -2.6367e-008    2.6283e-009    
  1.05            5.9094e-005     -2.3136e-008    1.9945e-009    
  1.1             6.0149e-005     -1.2621e-008    -9.165e-010    
  1.15            6.1409e-005     2.7302e-008     -1.3768e-009   
  1.2             6.2182e-005     2.4244e-008     -1.7866e-009   
  1.25            6.2548e-005     1.1705e-008     9.135e-010     
  1.3             6.3178e-005     -2.623e-008     1.3129e-009    
  1.35            6.482e-005      -1.0466e-008    -1.5746e-009   
  1.4             6.5372e-005     1.7032e-008     -1.5477e-009   
  1.45            6.555e-005      9.9e-009        1.077e-009     
  1.5             6.6288e-005     -2.6659e-008    2.3949e-009    
  1.55            6.7316e-005     -1.3228e-008    -6.9e-010      
  1.6             6.8327e-005     7.903e-009      -1.3772e-009   
  1.65            6.9147e-005     2.353e-008      -1.7558e-009   
  1.7             6.9339e-005     1.1469e-008     9.299e-010     
  1.75            6.9871e-005     -2.6528e-008    1.3137e-009    
  1.8             7.1503e-005     -1.0789e-008    -1.5998e-009   
  1.85            7.1916e-005     1.6143e-008     -1.525e-009    
  1.9             7.1979e-005     9.388e-009      1.0924e-009    
  1.95            7.2655e-005     -2.7061e-008    2.3582e-009    
  2               7.36e-005       -1.4039e-008    -7.122e-010    
  2.05            7.458e-005      6.931e-009      -1.3791e-009   
  2.1             7.5294e-005     2.0938e-008     -1.73e-009     
  2.15            7.6062e-005     1.3534e-008     -2.4405e-009   
  2.2             7.6556e-005     1.6555e-008     -1.6653e-009   
  2.25            7.7251e-005     1.2591e-008     -2.3863e-009   
  2.3             7.7829e-005     1.4823e-008     -1.6115e-009   
  2.35            7.8495e-005     1.0657e-008     -2.3412e-009   
  2.4             7.9123e-005     3.788e-009      -2.7056e-009   
  2.45            7.9817e-005     7.332e-009      -2.2833e-009   
  2.5             8.0048e-005     -1.6953e-008    -2.741e-009    
  2.55            8.1063e-005     -6.35e-010      -2.5321e-009   
  2.6             8.0653e-005     -7.253e-009     1.9661e-009    
  2.65            8.1381e-005     -3.264e-008     5.03e-011      
  2.7             8.2635e-005     -2.433e-008     -1.7368e-009   
  2.75            8.2909e-005     -2.3104e-008    2.4614e-009    
  2.8             8.3588e-005     -5.1674e-008    -6.1e-010      
  2.85            8.4631e-005     -2.3383e-008    -1.4518e-009   
  2.9             8.4666e-005     -4.4796e-008    2.6755e-009    
  2.95            8.5451e-005     -7.6421e-008    -9.165e-010    
  3               8.6492e-005     -4.6761e-008    -1.3771e-009   
  3.05            8.6383e-005     -7.6942e-008    2.8234e-009    
  3.1             8.7124e-005     -1.13883e-007   -6.98e-011     
  3.15            8.7746e-005     -1.2048e-007    2.2176e-009    
  3.2             8.8391e-005     -1.4481e-007    -2.1879e-009   
  3.25            8.9188e-005     -1.438e-007     3.422e-010     
  3.3             8.9298e-005     -1.9887e-007    1.6951e-009    
  3.35            9.0235e-005     -2.1531e-007    -2.4697e-009   
  3.4             9.0855e-005     -2.221e-007     6.588e-010     
  3.45            9.1102e-005     -2.9245e-007    1.3726e-009    
  3.5             9.2291e-005     -3.1602e-007    -2.7112e-009   
  3.55            9.2682e-005     -3.3631e-007    9.43e-010      
  3.6             9.3131e-005     -4.2361e-007    1.3121e-009    
  3.65            9.432e-005      -4.5697e-007    -2.7706e-009   
  3.7             9.4364e-005     -4.962e-007     1.2029e-009    
  3.75            9.5257e-005     -5.9859e-007    2.1571e-009    
  3.8             9.6138e-005     -6.5511e-007    -2.2238e-009   
  3.85            9.7042e-005     -7.1029e-007    3.881e-010     
  3.9             9.7222e-005     -8.3275e-007    1.632e-009     
  3.95            9.83e-005       -9.2091e-007    -2.5158e-009   
  4               9.9072e-005     -1.00176e-006   7.067e-010     
  4.05            0.000100255     -1.1142e-006    -1.6895e-009   
  4.1             0.00010053      -1.2498e-006    2.5092e-009    
  4.15            0.00010141      -1.4191e-006    -6.715e-010    
  4.2             0.000102637     -1.5336e-006    -1.4256e-009   
  4.25            0.000102852     -1.7114e-006    2.7128e-009    
  4.3             0.000103955     -1.9266e-006    -9.675e-010    
  4.35            0.000105177     -2.0682e-006    -1.3782e-009   
  4.4             0.000105362     -2.3016e-006    2.8441e-009    
  4.45            0.00010691      -2.5691e-006    -1.2223e-009   
  4.5             0.000107938     -2.7564e-006    -2.0685e-009   
  4.55            0.000108394     -3.0593e-006    2.2955e-009    
  4.6             0.000109324     -3.3822e-006    -3.767e-010    
  4.65            0.00011091      -3.6579e-006    -1.63e-009     
  4.7             0.000111391     -3.9931e-006    2.537e-009     
  4.75            0.000112633     -4.3925e-006    -7.247e-010    
  4.8             0.000114188     -4.7205e-006    -1.4064e-009   
  4.85            0.00011523      -5.1333e-006    -1.9872e-009   
  4.9             0.00011643      -5.5854e-006    1.747e-010     
  4.95            0.0001169       -6.0864e-006    1.7379e-009    
  5               0.00011868      -6.5858e-006    -2.5718e-009   
END_DB

BEGIN_DB
 ICCAP_VAR VG         2              
 ICCAP_VAR VS         0              
 ICCAP_VAR VB         0              

 #VD              ID              IB              IG             
  0               -1.3136e-006    1.4248e-008     1.303e-009     
  0.05            9.1622e-005     -1.7687e-008    1.9808e-009    
  0.1             0.00018118      -2.6372e-008    -1.3363e-009   
  0.15            0.00026618      2.0792e-008     -1.6874e-009   
  0.2             0.00034622      1.0161e-008     1.0914e-009    
  0.25            0.00042088      -2.47e-008      2.1572e-009    
  0.3             0.00049009      -1.2843e-008    -9.432e-010    
  0.35            0.00055318      2.8513e-008     -1.3797e-009   
  0.4             0.00060941      1.2526e-008     6.782e-010     
  0.45            0.00065917      -2.505e-008     1.3242e-009    
  0.5             0.0007035       -1.2604e-008    -4.727e-010    
  0.55            0.00074188      7.553e-009      -1.3776e-009   
  0.6             0.0007744       2.0793e-008     -1.6578e-009   
  0.65            0.00080118      9.811e-009      1.1032e-009    
  0.7             0.00082401      -2.4251e-008    2.125e-009     
  0.75            0.00084391      -1.2226e-008    -9.6e-010      
  0.8             0.00086071      2.8396e-008     -1.3804e-009   
  0.85            0.00087344      1.2473e-008     6.965e-010     
  0.9             0.00088421      -2.5208e-008    1.3187e-009    
  0.95            0.00089472      -1.2732e-008    -4.943e-010    
  1               0.00090407      7.75e-009       -1.3782e-009   
  1.05            0.00090953      1.0228e-008     1.5788e-009    
  1.1             0.00091705      -1.1591e-008    2.93e-010      
  1.15            0.00092474      1.6408e-008     -2.3443e-009   
  1.2             0.00092963      1.2433e-008     6.739e-010     
  1.25            0.0009338       -2.507e-008     1.3233e-009    
  1.3             0.00094061      -1.0347e-008    -1.578e-009    
  1.35            0.00094464      1.344e-008      -1.4544e-009   
  1.4             0.000949        2.8171e-008     -1.3663e-009   
  1.45            0.00095211      1.2021e-008     8.736e-010     
  1.5             0.00095522      -2.6368e-008    1.314e-009     
  1.55            0.00096097      -1.133e-008     -1.7712e-009   
  1.6             0.00096394      1.953e-008      -1.7554e-009   
  1.65            0.00096603      1.0551e-008     1.0406e-009    
  1.7             0.00096894      -2.549e-008     2.2485e-009    
  1.75            0.00097275      -1.3063e-008    -9.014e-010    
  1.8             0.0009765       2.7982e-008     -1.3787e-009   
  1.85            0.00097862      1.2437e-008     6.18e-010      
  1.9             0.00098051      -8.034e-009     2.8731e-009    
  1.95            0.00098507      -9.591e-009     -1.535e-009    
  2               0.00098721      1.4595e-008     -1.4875e-009   
  2.05            0.00098989      2.8125e-008     -2.1197e-009   
  2.1             0.00099204      1.3246e-008     -1.4595e-009   
  2.15            0.00099463      1.7847e-008     -1.8601e-009   
  2.2             0.00099577      9.58e-009       9.842e-010     
  2.25            0.00099745      -2.8758e-008    2.3594e-009    
  2.3             0.00100031      -1.6862e-008    -8.417e-010    
  2.35            0.00100325      4.464e-009      -2.734e-009    
  2.4             0.00100523      9.406e-009      -2.297e-009    
  2.45            0.00100738      2.636e-009      -2.6403e-009   
  2.5             0.00100927      5.701e-009      -1.8572e-009   
  2.55            0.00101018      -8.842e-009     2.5045e-009    
  2.6             0.00101225      -3.6015e-008    -8.216e-010    
  2.65            0.00101479      -2.684e-009     -1.3775e-009   
  2.7             0.00101535      -3.0354e-008    2.8584e-009    
  2.75            0.00101867      -5.813e-008     -1.4198e-009   
  2.8             0.00101994      -4.269e-008     -1.5856e-009   
  2.85            0.00102076      -6.6778e-008    2.6523e-009    
  2.9             0.00102176      -1.05808e-007   1.3576e-009    
  2.95            0.001025        -9.019e-008     -6.206e-010    
  3               0.0010254       -1.5069e-007    2.8576e-009    
  3.05            0.0010294       -1.8325e-007    -1.8145e-009   
  3.1             0.0010305       -1.9809e-007    -9.24e-011     
  3.15            0.001031        -2.6904e-007    2.1987e-009    
  3.2             0.0010334       -3.0797e-007    -2.3113e-009   
  3.25            0.001035        -3.4395e-007    6.312e-010     
  3.3             0.0010356       -4.4713e-007    1.3334e-009    
  3.35            0.0010385       -5.0759e-007    -2.7653e-009   
  3.4             0.0010388       -5.7914e-007    1.2498e-009    
  3.45            0.0010409       -7.0919e-007    1.8178e-009    
  3.5             0.0010434       -8.1522e-007    -2.5199e-009   
  3.55            0.0010449       -9.2751e-007    8.363e-010     
  3.6             0.0010459       -1.11695e-006   1.313e-009     
  3.65            0.0010488       -1.2744e-006    -1.0797e-009   
  3.7             0.0010512       -1.4297e-006    -1.3718e-009   
  3.75            0.0010518       -1.6746e-006    2.8681e-009    
  3.8             0.0010549       -1.9417e-006    -1.717e-009    
  3.85            0.0010563       -2.2011e-006    -1.989e-010    
  3.9             0.0010567       -2.548e-006     2.3925e-009    
  3.95            0.0010594       -2.896e-006     -2.2079e-009   
  4               0.0010615       -3.274e-006     5.034e-010     
  4.05            0.0010626       -3.7534e-006    1.3884e-009    
  4.1             0.0010658       -4.2381e-006    -2.7471e-009   
  4.15            0.0010673       -4.778e-006     1.1451e-009    
