! VERSION = 6.00
BEGIN_HEADER
 ICCAP_INPUTS
  VG         V  B GROUND SMU4 0.001 LIN        1    0          5          101  0.05      
  VS         V  E GROUND SMU2 0.1 CON        0
  VB         V  C GROUND SMU3 0.1 LIN        3    0          -5         3    -2.5      
  VD         V  S GROUND SMU1 0.1 LIN        2    0.1        5          2    4.9       
 ICCAP_OUTPUTS
  IG         I  B GROUND SMU4 B
  ID         I  S GROUND SMU1 B
  IB         I  C GROUND SMU3 B
END_HEADER

BEGIN_DB
 ICCAP_VAR VS         0              
 ICCAP_VAR VB         0              
 ICCAP_VAR VD         0.1            

 #VG              IG              ID              IB             
  0               -7.811e-010     -8.224e-010     1.1717e-008    
  0.05            -1.3087e-009    1.5639e-009     2.0725e-008    
  0.1             -2.6868e-009    2.013e-010      1.2173e-008    
  0.15            -1.9562e-009    -1.3141e-009    8.15e-010      
  0.2             -6.582e-010     -2.2784e-009    -1.1342e-008   
  0.25            -8.448e-010     -2.2699e-009    -1.123e-008    
  0.3             -9.928e-010     -2.2002e-009    -1.113e-008    
  0.35            1.7216e-009     -1.5226e-009    -1.3354e-008   
  0.4             2.6478e-009     1.724e-009      -9.335e-009    
  0.45            3.378e-010      4.8094e-009     1.0299e-008    
  0.5             -1.3034e-009    9.284e-009      -1.0847e-008   
  0.55            -2.4191e-009    3.6423e-008     1.2647e-008    
  0.6             9.087e-010      1.2226e-007     -1.6872e-008   
  0.65            1.2919e-009     3.7546e-007     1.0675e-008    
  0.7             2.3285e-009     1.1308e-006     1.4489e-008    
  0.75            1.2115e-009     3.0729e-006     1.0593e-008    
  0.8             5.88e-011       7.7968e-006     1.1404e-008    
  0.85            -2.5264e-009    1.6455e-005     1.0576e-008    
  0.9             -5.083e-010     3.0676e-005     -1.0898e-008   
  0.95            -9.393e-010     5.0897e-005     -1.1261e-008   
  1               -1.3288e-009    7.5876e-005     -1.1153e-008   
  1.05            -8.76e-011      0.00010242      -1.1772e-008   
  1.1             -2.4422e-009    0.00013179      -1.088e-008    
  1.15            -4e-010         0.00016048      -1.0904e-008   
  1.2             -8.648e-010     0.00018841      -1.1098e-008   
  1.25            -1.2416e-009    0.00021518      -1.1159e-008   
  1.3             -6.7e-012       0.00023932      -1.2078e-008   
  1.35            -4.727e-010     0.00026337      -1.0879e-008   
  1.4             -9.132e-010     0.00028612      -1.1338e-008   
  1.45            -1.2983e-009    0.00030769      -1.1197e-008   
  1.5             -6.18e-011      0.0003272       -1.178e-008    
  1.55            -5.443e-010     0.00034672      -1.0861e-008   
  1.6             -9.702e-010     0.00036514      -1.1368e-008   
  1.65            2.682e-010      0.00038215      -1.3673e-008   
  1.7             -1.274e-010     0.00039904      -1.161e-008    
  1.75            -6.154e-010     0.00041518      -1.0883e-008   
  1.8             -1.0208e-009    0.00043074      -1.1236e-008   
  1.85            2.125e-010      0.00044499      -1.3117e-008   
  1.9             -1.964e-010     0.00045956      -1.1361e-008   
  1.95            -6.807e-010     0.00047349      -1.0843e-008   
  2               -1.0787e-009    0.00048693      -1.1339e-008   
  2.05            1.578e-010      0.00049925      -1.2763e-008   
  2.1             -2.685e-010     0.00051203      -1.1128e-008   
  2.15            -7.554e-010     0.00052417      -1.0953e-008   
  2.2             1.7427e-009     0.00053566      -1.7592e-008   
  2.25            1.3474e-009     0.00054713      -9.42e-009     
  2.3             2.9135e-009     0.00055811      -8.992e-009    
  2.35            2.6291e-009     0.0005689       -4.32e-010     
  2.4             2.552e-009      0.00057944      8.781e-009     
  2.45            4.674e-010      0.00058984      1.0291e-008    
  2.5             -1.2976e-009    0.00059984      2.4877e-008    
  2.55            -2.3654e-009    0.00060955      1.3199e-008    
  2.6             -1.7746e-009    0.00061856      2.499e-009     
  2.65            -1.4355e-009    0.00062785      6e-009         
  2.7             -1.3257e-009    0.00063673      1.0899e-008    
  2.75            -2.573e-009     0.00064575      1.1443e-008    
  2.8             -2.0323e-009    0.00065398      1.077e-009     
  2.85            -1.5491e-009    0.00066252      4.164e-009     
  2.9             -1.3652e-009    0.00067077      9.215e-009     
  2.95            -2.7038e-009    0.00067874      1.1724e-008    
  3               -2.2895e-009    0.00068635      7.07e-010      
  3.05            -1.7194e-009    0.000694        2.804e-009     
  3.1             -1.4183e-009    0.00070147      6.61e-009      
  3.15            -1.318e-009     0.00070881      1.128e-008     
  3.2             -2.5238e-009    0.000716        1.1621e-008    
  3.25            -1.9633e-009    0.00072272      1.619e-009     
  3.3             -1.511e-009     0.00072968      4.514e-009     
  3.35            -1.3542e-009    0.00073627      9.619e-009     
  3.4             -2.6755e-009    0.00074302      1.1467e-008    
  3.45            -2.2226e-009    0.0007492       7.7e-010       
  3.5             -1.6683e-009    0.00075564      3.131e-009     
  3.55            -1.3998e-009    0.00076164      7.247e-009     
  3.6             -1.3078e-009    0.00076779      1.1461e-008    
  3.65            -2.4659e-009    0.00077382      1.1996e-008    
  3.7             -1.8925e-009    0.00077943      1.821e-009     
  3.75            -1.4755e-009    0.00078508      4.841e-009     
  3.8             -1.3433e-009    0.00079075      1.0105e-008    
  3.85            -2.6376e-009    0.00079628      1.1241e-008    
  3.9             -2.1472e-009    0.00080159      8.2e-010       
  3.95            -1.6198e-009    0.00080678      3.352e-009     
  4               -1.3846e-009    0.00081205      8.109e-009     
  4.05            -1.298e-009     0.00081698      1.1728e-008    
  4.1             -2.4001e-009    0.00082229      1.263e-008     
  4.15            -1.817e-009     0.00082689      2.337e-009     
  4.2             -1.4532e-009    0.00083166      5.812e-009     
  4.25            -1.3278e-009    0.00083639      1.0625e-008    
  4.3             -2.5884e-009    0.00084098      1.1438e-008    
  4.35            -2.0646e-009    0.00084541      9.72e-010      
  4.4             -1.0082e-009    0.00084991      -1.1343e-008   
  4.45            2.306e-010      0.0008538       -1.3404e-008   
  4.5             -1.784e-010     0.00085846      -1.1452e-008   
  4.55            -6.647e-010     0.00086275      -1.0859e-008   
  4.6             -1.063e-009     0.0008668       -1.1331e-008   
  4.65            1.742e-010      0.00087036      -1.2945e-008   
  4.7             -2.585e-010     0.0008747       -1.117e-008    
  4.75            -7.402e-010     0.00087857      -1.0831e-008   
  4.8             1.7605e-009     0.00088214      -1.7757e-008   
  4.85            1.3543e-009     0.00088596      -9.45e-009     
  4.9             2.9107e-009     0.00088942      -8.861e-009    
  4.95            2.6246e-009     0.00089321      -3.7e-010      
  5               2.5436e-009     0.00089664      8.688e-009     
END_DB

BEGIN_DB
 ICCAP_VAR VS         0              
 ICCAP_VAR VB         0              
 ICCAP_VAR VD         5              

 #VG              IG              ID              IB             
  0               -5.687e-010     -6.659e-010     1.0734e-008    
  0.05            -1.6495e-009    1.7947e-009     1.4433e-008    
  0.1             -1.8056e-009    -1.5166e-009    7.979e-009     
  0.15            -3.914e-010     -2.2059e-009    -1.0883e-008   
  0.2             -5.911e-010     -2.2227e-009    -1.1105e-008   
  0.25            -7.9e-010       -2.0758e-009    -1.1231e-008   
  0.3             2.0698e-009     -7.47e-010      -1.6965e-008   
  0.35            1.7848e-009     4.0757e-009     -8.626e-009    
  0.4             2.8612e-009     1.5462e-008     1.9271e-008    
  0.45            2.8769e-009     5.698e-008      -3.824e-009    
  0.5             1.9738e-009     2.1031e-007     -2.9785e-008   
  0.55            1.451e-009      7.2899e-007     -6.886e-008    
  0.6             2.5257e-009     2.3535e-006     -1.7031e-007   
  0.65            1.869e-009      6.723e-006      -5.0606e-007   
  0.7             -2.7634e-009    1.6937e-005     -1.1904e-006   
  0.75            -2.4396e-009    3.667e-005      -2.5309e-006   
  0.8             -1.8735e-009    6.933e-005      -4.585e-006    
  0.85            -1.5249e-009    0.00011668      -7.4066e-006   
  0.9             -1.3557e-009    0.00017883      -1.0863e-005   
  0.95            1.8274e-009     0.00025234      -1.4898e-005   
  1               1.3781e-009     0.0003388       -1.9119e-005   
  1.05            1.2517e-009     0.0004355       -2.359e-005    
  1.1             2.6768e-009     0.00054001      -2.8185e-005   
  1.15            2.0728e-009     0.00065457      -3.2744e-005   
  1.2             1.5016e-009     0.00077194      -3.7181e-005   
  1.25            1.2853e-009     0.00089385      -4.1395e-005   
  1.3             2.825e-009      0.0010197       -4.5407e-005   
  1.35            1.6785e-009     0.0011493       -4.9274e-005   
  1.4             2.1015e-009     0.0012832       -5.2709e-005   
  1.45            2.4007e-009     0.001419        -5.5955e-005   
  1.5             2.7025e-009     0.0015559       -5.8925e-005   
  1.55            2.9204e-009     0.0016941       -6.1642e-005   
  1.6             2.7656e-009     0.0018337       -6.408e-005    
  1.65            2.2457e-009     0.0019744       -6.6241e-005   
  1.7             1.6171e-009     0.0021159       -6.8152e-005   
  1.75            1.3135e-009     0.0022587       -6.98e-005     
  1.8             2.8841e-009     0.0024022       -7.1185e-005   
  1.85            2.5035e-009     0.0025484       -7.2345e-005   
  1.9             1.8524e-009     0.002693        -7.3284e-005   
  1.95            1.3976e-009     0.002838        -7.4015e-005   
  2               1.2569e-009     0.002984        -7.4522e-005   
  2.05            2.7201e-009     0.0031298       -7.4846e-005   
  2.1             2.1421e-009     0.0032776       -7.4979e-005   
  2.15            1.5427e-009     0.0034238       -7.495e-005    
  2.2             1.2969e-009     0.0035704       -7.475e-005    
  2.25            2.8568e-009     0.0037169       -7.4421e-005   
  2.3             2.4134e-009     0.0038655       -7.394e-005    
  2.35            1.7657e-009     0.004012        -7.3335e-005   
  2.4             1.3611e-009     0.004159        -7.2615e-005   
  2.45            1.2465e-009     0.0043061       -7.1795e-005   
  2.5             2.6579e-009     0.0044529       -7.0869e-005   
  2.55            2.0374e-009     0.0046013       -6.9859e-005   
  2.6             1.4801e-009     0.0047481       -6.8759e-005   
  2.65            1.2801e-009     0.0048943       -6.7595e-005   
  2.7             2.8121e-009     0.0050414       -6.6375e-005   
  2.75            2.3058e-009     0.0051895       -6.5089e-005   
  2.8             1.6661e-009     0.0053382       -6.3741e-005   
  2.85            1.3341e-009     0.0054843       -6.2364e-005   
  2.9             2.9084e-009     0.0056301       -6.096e-005    
  2.95            2.5602e-009     0.0057775       -5.9525e-005   
  3               1.9296e-009     0.0059236       -5.8065e-005   
  3.05            1.4275e-009     0.0060688       -5.6581e-005   
  3.1             1.2647e-009     0.0062141       -5.5101e-005   
  3.15            2.7593e-009     0.0063587       -5.3604e-005   
  3.2             2.2095e-009     0.0065053       -5.2111e-005   
  3.25            1.5877e-009     0.0066501       -5.0611e-005   
  3.3             1.309e-009      0.0067945       -4.9119e-005   
  3.35            2.8748e-009     0.0069381       -4.7645e-005   
  3.4             2.4693e-009     0.0070843       -4.6162e-005   
  3.45            1.8177e-009     0.0072273       -4.4705e-005   
  3.5             1.3812e-009     0.007371        -4.3256e-005   
  3.55            1.2533e-009     0.0075141       -4.1838e-005   
  3.6             2.6942e-009     0.007657        -4.0436e-005   
  3.65            2.0821e-009     0.0078015       -3.9054e-005   
  3.7             1.5108e-009     0.0079435       -3.7691e-005   
  3.75            1.2878e-009     0.0080852       -3.6365e-005   
  3.8             2.8381e-009     0.008227        -3.5064e-005   
  3.85            2.364e-009      0.0083697       -3.378e-005    
  3.9             1.7112e-009     0.008511        -3.2535e-005   
  3.95            1.3448e-009     0.008652        -3.1321e-005   
  4               2.909e-009      0.0087923       -3.0136e-005   
  4.05            2.5935e-009     0.0089347       -2.8977e-005   
  4.1             1.97e-009       0.009074        -2.7858e-005   
  4.15            1.4465e-009     0.0092136       -2.6767e-005   
  4.2             1.2725e-009     0.0093526       -2.5707e-005   
  4.25            2.7818e-009     0.0094914       -2.4678e-005   
  4.3             2.2423e-009     0.0096316       -2.3679e-005   
  4.35            1.6142e-009     0.0097697       -2.2705e-005   
  4.4             1.3194e-009     0.0099074       -2.1772e-005   
  4.45            2.8879e-009     0.0100464       -2.0857e-005   
  4.5             2.5022e-009     0.0101854       -1.9971e-005   
  4.55            1.8417e-009     0.0103216       -1.9126e-005   
  4.6             1.3918e-009     0.0104578       -1.8311e-005   
  4.65            1.2635e-009     0.0105937       -1.753e-005    
  4.7             2.7344e-009     0.0107294       -1.6773e-005   
  4.75            2.1307e-009     0.0108669       -1.6043e-005   
  4.8             1.5262e-009     0.0110023       -1.5341e-005   
  4.85            1.2964e-009     0.0111374       -1.4668e-005   
  4.9             2.8572e-009     0.0112715       -1.4024e-005   
  4.95            -2.4261e-009    0.011419        -1.3397e-005   
  5               -2.7336e-009    0.011555        -1.2807e-005   
END_DB

BEGIN_DB
 ICCAP_VAR VS         0              
 ICCAP_VAR VB         -2.5           
 ICCAP_VAR VD         0.1            

 #VG              IG              ID              IB             
  0               -1.4294e-009    -1.4843e-009    1.0366e-008    
  0.05            -1.1526e-009    -2.1798e-009    1.1015e-008    
  0.1             3.086e-010      -1.7938e-009    -1.2425e-008   
  0.15            1.548e-010      -1.8994e-009    -1.1817e-008   
  0.2             -1.46e-011      -2.0264e-009    -1.1133e-008   
  0.25            -1.993e-010     -2.1415e-009    -1.0936e-008   
  0.3             -4.037e-010     -2.2231e-009    -1.0861e-008   
  0.35            -6.078e-010     -2.2732e-009    -1.1081e-008   
  0.4             -8.029e-010     -2.2861e-009    -1.1321e-008   
  0.45            2.0445e-009     -1.6251e-009    -1.6388e-008   
  0.5             1.5392e-009     1.8834e-009     -8.65e-009     
  0.55            1.344e-010      2.1183e-009     1.0422e-008    
  0.6             3.1e-010        2.228e-009      1.0391e-008    
  0.65            4.868e-010      2.3236e-009     1.0457e-008    
  0.7             -1.3367e-009    1.4773e-009     2.4361e-008    
  0.75            -1.3024e-009    2.641e-010      1.1351e-008    
  0.8             -2.6589e-009    1.003e-009      1.2707e-008    
  0.85            -2.4846e-009    2.4367e-009     8.13e-010      
  0.9             1.8928e-009     1.3123e-008     1.0801e-008    
  0.95            1.4016e-009     5.1536e-008     -9.37e-009     
  1               -1.7184e-009    1.8042e-007     2.6538e-008    
  1.05            -5.551e-010     5.9243e-007     -1.1001e-008   
  1.1             1.2533e-009     1.7643e-006     1.0626e-008    
  1.15            2.7028e-009     4.8326e-006     -1.2722e-008   
  1.2             1.2463e-009     1.1267e-005     -2.5617e-008   
  1.25            9.82e-011       2.336e-005      1.1297e-008    
  1.3             5.211e-010      4.0932e-005     1.0403e-008    
  1.35            -1.8311e-009    6.4031e-005     2.3799e-008    
  1.4             -1.4436e-009    9.0582e-005     5.754e-009     
  1.45            -1.4111e-009    0.000119        3.067e-009     
  1.5             -1.311e-009     0.00014738      1.13e-008      
  1.55            -2.491e-009     0.00017499      1.1885e-008    
  1.6             -1.9011e-009    0.00020114      1.755e-009     
  1.65            -1.4785e-009    0.00022602      5.011e-009     
  1.7             -1.343e-009     0.00024952      1.0233e-008    
  1.75            -2.6492e-009    0.00027161      1.1372e-008    
  1.8             -2.1494e-009    0.00029225      8.28e-010      
  1.85            -1.608e-009     0.00031186      3.496e-009     
  1.9             -1.3838e-009    0.00033039      8.089e-009     
  1.95            -1.3012e-009    0.00034792      1.1665e-008    
  2               -2.3923e-009    0.00036471      1.2854e-008    
  2.05            -1.7943e-009    0.00038039      2.413e-009     
  2.1             -1.4404e-009    0.00039557      5.893e-009     
  2.15            -1.3288e-009    0.00041005      1.0718e-008    
  2.2             -2.5837e-009    0.00042393      1.1321e-008    
  2.25            -2.0465e-009    0.0004371       1.073e-009     
  2.3             -1.5404e-009    0.00044996      4.232e-009     
  2.35            -1.3636e-009    0.0004623       9.006e-009     
  2.4             -2.7189e-009    0.00047416      1.15e-008      
  2.45            -2.3144e-009    0.00048552      6.28e-010      
  2.5             -1.7149e-009    0.00049665      2.972e-009     
  2.55            -1.4069e-009    0.00050741      6.789e-009     
  2.6             -1.3164e-009    0.00051788      1.0959e-008    
  2.65            -2.5436e-009    0.00052794      1.1722e-008    
  2.7             -1.9722e-009    0.00053761      1.508e-009     
  2.75            -1.4872e-009    0.00054711      4.825e-009     
  2.8             -1.3434e-009    0.0005565       9.828e-009     
  2.85            -2.6821e-009    0.00056547      1.1379e-008    
  2.9             -2.223e-009     0.00057411      7.05e-010      
  2.95            -1.6358e-009    0.00058265      3.316e-009     
  3               -1.3801e-009    0.00059085      7.831e-009     
  3.05            -1.3059e-009    0.00059894      1.1318e-008    
  3.1             -2.4625e-009    0.00060692      1.252e-008     
  3.15            -1.8559e-009    0.00061439      2.253e-009     
  3.2             -1.4463e-009    0.00062192      5.731e-009     
  3.25            -1.3309e-009    0.00062918      1.0492e-008    
  3.3             -2.6302e-009    0.00063638      1.1405e-008    
  3.35            -2.1098e-009    0.00064322      9.53e-010      
  3.4             -1.5594e-009    0.00065006      3.793e-009     
  3.45            -1.3633e-009    0.00065668      8.634e-009     
  3.5             -2.7276e-009    0.0006631       1.1471e-008    
  3.55            -2.3466e-009    0.00066944      5.64e-010      
  3.6             -1.748e-009     0.00067568      2.663e-009     
  3.65            -1.4113e-009    0.0006818       6.608e-009     
  3.7             -1.317e-009     0.00068776      1.0847e-008    
  3.75            -2.5617e-009    0.00069364      1.1484e-008    
  3.8             -1.9984e-009    0.00069923      1.369e-009     
  3.85            -1.5034e-009    0.00070475      4.535e-009     
  3.9             -1.3449e-009    0.00071028      9.567e-009     
  3.95            -2.6873e-009    0.00071566      1.1359e-008    
  4               -2.2571e-009    0.00072071      5.73e-010      
  4.05            -9.098e-010     0.00072591      -1.145e-008    
  4.1             -1.2997e-009    0.00073102      -1.1114e-008   
  4.15            -5.78e-011      0.00073569      -1.1547e-008   
