! VERSION = 6.00
BEGIN_HEADER
 ICCAP_INPUTS
  VG         V  B GROUND SMU4 0.001 LIN        2    0          5          6    1         
  VS         V  E GROUND SMU2 0.1 CON        0
  VD         V  S GROUND SMU1 0.1 LIN        1    0          5          101  0.05      
  VB         V  C GROUND SMU3 0.1 LIN        3    0          -2.5       2    -2.5      
 ICCAP_OUTPUTS
  ID         I  S GROUND SMU1 B
  IB         I  C GROUND SMU3 B
  IG         I  B GROUND SMU4 B
END_HEADER

BEGIN_DB
 ICCAP_VAR VG         0              
 ICCAP_VAR VS         0              
 ICCAP_VAR VB         0              

 #VD              ID              IB              IG             
  0               8.629e-010      1.0811e-008     8.706e-010     
  0.05            -1.4581e-009    -2.201e-008     1.2667e-009    
  0.1             -4.3e-011       -1.107e-008     2.8801e-009    
  0.15            1.5075e-009     -3.3e-010       1.8418e-009    
  0.2             2.285e-009      1.0458e-008     4.413e-010     
  0.25            2.3461e-009     1.076e-008      6.165e-010     
  0.3             1.5366e-009     2.2123e-008     -1.3041e-009   
  0.35            1.971e-010      1.1888e-008     -2.6629e-009   
  0.4             -1.3012e-009    7.7e-010        -1.9244e-009   
  0.45            -2.2372e-009    -1.1398e-008    -6.314e-010    
  0.5             -2.231e-009     -1.1399e-008    -8.171e-010    
  0.55            -1.5972e-009    -1.6201e-008    2.0084e-009    
  0.6             1.8812e-009     -8.849e-009     1.5467e-009    
  0.65            2.1256e-009     1.0236e-008     1.571e-010     
  0.7             2.2344e-009     1.0317e-008     3.326e-010     
  0.75            2.3092e-009     1.0616e-008     5.039e-010     
  0.8             1.4458e-009     2.486e-008      -1.3186e-009   
  0.85            1.107e-010      1.1162e-008     -1.2911e-009   
  0.9             2.54e-010       1.2809e-008     -2.6219e-009   
  0.95            -1.2584e-009    7.34e-010       -1.9539e-009   
  1               -2.2358e-009    -1.1365e-008    -7.022e-010    
  1.05            -1.5524e-009    -1.8573e-008    1.2426e-009    
  1.1             -1.893e-010     -1.3669e-008    2.8291e-009    
  1.15            2.1367e-009     1.0242e-008     1.713e-010     
  1.2             2.2436e-009     1.0289e-008     3.518e-010     
  1.25            2.3201e-009     1.058e-008      5.247e-010     
  1.3             1.4607e-009     2.4467e-008     -1.3169e-009   
  1.35            1.286e-010      1.1349e-008     -2.7023e-009   
  1.4             -2.0133e-009    -1.0906e-008    -4.25e-011     
  1.45            -2.1258e-009    -1.091e-008     -2.367e-010    
  1.5             -2.1968e-009    -1.0909e-008    -4.413e-010    
  1.55            -2.2301e-009    -1.1417e-008    -6.379e-010    
  1.6             -1.5165e-009    -2.0085e-008    1.2513e-009    
  1.65            -1.266e-010     -1.287e-008     2.8519e-009    
  1.7             2.0948e-009     1.0197e-008     1.124e-010     
  1.75            2.2029e-009     1.0198e-008     2.845e-010     
  1.8             2.2937e-009     1.056e-008      4.622e-010     
  1.85            2.3506e-009     1.0798e-008     6.378e-010     
  1.9             1.5552e-009     2.1506e-008     -1.3001e-009   
  1.95            2.129e-010      1.2351e-008     -2.6499e-009   
  2               -1.2874e-009    5.57e-010       -1.9366e-009   
  2.05            -2.2337e-009    -1.145e-008     -6.494e-010    
  2.1             -1.5298e-009    -1.9694e-008    1.2472e-009    
  2.15            -1.436e-010     -1.2895e-008    2.8418e-009    
  2.2             2.1103e-009     1.02e-008       1.288e-010     
  2.25            2.2145e-009     1.0248e-008     3.002e-010     
  2.3             2.3022e-009     1.058e-008      4.816e-010     
  2.35            1.4282e-009     2.5352e-008     -1.3208e-009   
  2.4             9.4e-011        1.1178e-008     -1.295e-009    
  2.45            2.298e-010      1.2407e-008     -2.6405e-009   
  2.5             -1.2728e-009    6.04e-010       -1.9437e-009   
  2.55            -2.235e-009     -1.1402e-008    -6.713e-010    
  2.6             -1.5383e-009    -1.9145e-008    1.2458e-009    
  2.65            -1.63e-010      -1.3274e-008    2.839e-009     
  2.7             2.1205e-009     1.0147e-008     1.465e-010     
  2.75            2.2273e-009     1.0292e-008     3.23e-010      
  2.8             2.3108e-009     1.0564e-008     4.986e-010     
  2.85            1.4383e-009     2.5028e-008     -1.3205e-009   
  2.9             1.072e-010      1.1341e-008     -1.2935e-009   
  2.95            2.492e-010      1.2615e-008     -2.629e-009    
  3               -1.2653e-009    7.11e-010       -1.9512e-009   
  3.05            -2.2352e-009    -1.1395e-008    -6.93e-010     
  3.1             -1.5497e-009    -1.8778e-008    1.2442e-009    
  3.15            -1.76e-010      -1.3507e-008    2.8309e-009    
  3.2             2.1317e-009     1.0128e-008     1.666e-010     
  3.25            2.2389e-009     1.0256e-008     3.433e-010     
  3.3             2.3187e-009     1.0621e-008     5.158e-010     
  3.35            1.4531e-009     2.4491e-008     -1.3174e-009   
  3.4             1.231e-010      1.1423e-008     -2.7069e-009   
  3.45            -2.0135e-009    -1.0956e-008    -3.78e-011     
  3.5             -2.1207e-009    -1.0856e-008    -2.312e-010    
  3.55            -2.1934e-009    -1.1073e-008    -4.328e-010    
  3.6             -2.2333e-009    -1.1342e-008    -6.237e-010    
  3.65            -2.229e-009     -1.1363e-008    -8.205e-010    
  3.7             -1.5981e-009    -1.6197e-008    2.011e-009     
  3.75            1.8769e-009     -8.899e-009     1.5434e-009    
  3.8             2.1238e-009     1.0209e-008     1.532e-010     
  3.85            2.2294e-009     1.032e-008      3.319e-010     
  3.9             2.3107e-009     1.06e-008       5.067e-010     
  3.95            1.4472e-009     2.4889e-008     -1.3195e-009   
  4               1.111e-010      1.1324e-008     -1.2939e-009   
  4.05            2.509e-010      1.2885e-008     -2.6315e-009   
  4.1             -1.2591e-009    7.41e-010       -1.9545e-009   
  4.15            -2.2366e-009    -1.1384e-008    -7.009e-010    
  4.2             -1.5459e-009    -1.8727e-008    1.2437e-009    
  4.25            -1.812e-010     -1.3533e-008    2.8316e-009    
  4.3             2.1339e-009     1.0214e-008     1.652e-010     
  4.35            2.2401e-009     1.0343e-008     3.442e-010     
  4.4             2.3243e-009     1.0581e-008     5.182e-010     
  4.45            1.4566e-009     2.46e-008       -1.3187e-009   
  4.5             1.236e-010      1.1358e-008     -2.708e-009    
  4.55            -2.0121e-009    -1.0933e-008    -4.26e-011     
  4.6             -2.1207e-009    -1.0882e-008    -2.326e-010    
  4.65            -2.1917e-009    -1.0976e-008    -4.363e-010    
  4.7             -2.2289e-009    -1.1363e-008    -6.318e-010    
  4.75            -1.5136e-009    -2.0029e-008    1.2527e-009    
  4.8             -1.235e-010     -1.2706e-008    2.8571e-009    
  4.85            2.1025e-009     1.0176e-008     1.105e-010     
  4.9             2.2099e-009     1.0316e-008     2.884e-010     
  4.95            2.2967e-009     1.0521e-008     4.582e-010     
  5               2.3533e-009     1.095e-008      6.365e-010     
END_DB

BEGIN_DB
 ICCAP_VAR VG         1              
 ICCAP_VAR VS         0              
 ICCAP_VAR VB         0              

 #VD              ID              IB              IG             
  0               -1.9457e-007    -1.1793e-008    1.1493e-009    
  0.05            1.4719e-005     -2.971e-009     -1.3604e-009   
  0.1             2.4996e-005     1.0355e-008     3.644e-010     
  0.15            3.1809e-005     -2.1066e-008    1.6966e-009    
  0.2             3.6926e-005     -1.1284e-008    -1.0544e-009   
  0.25            4.061e-005      2.7991e-008     -1.3237e-009   
  0.3             4.3209e-005     1.027e-008      5.661e-010     
  0.35            4.5244e-005     -2.3014e-008    1.4695e-009    
  0.4             4.729e-005      -1.1557e-008    -7.43e-011     
  0.45            4.9558e-005     1.7468e-008     -1.9664e-009   
  0.5             5.0899e-005     1.061e-008      7.495e-010     
  0.55            5.2361e-005     -2.5051e-008    1.3455e-009    
  0.6             5.396e-005      -1.1015e-008    -3.042e-010    
  0.65            5.5798e-005     2.0149e-008     -1.7115e-009   
  0.7             5.7079e-005     1.2996e-008     -1.601e-010    
  0.75            5.7901e-005     -1.5168e-008    2.5422e-009    
  0.8             5.945e-005      -1.0932e-008    -5.266e-010    
  0.85            6.1067e-005     2.2505e-008     -1.5195e-009   
  0.9             6.1718e-005     1.0609e-008     1.093e-009     
  0.95            6.3031e-005     -2.446e-008     1.2528e-009    
  1               6.4415e-005     -1.0985e-008    -7.367e-010    
  1.05            6.5892e-005     2.5103e-008     -1.4085e-009   
  1.1             6.6283e-005     1.0672e-008     1.2702e-009    
  1.15            6.7528e-005     -1.3088e-008    2.6651e-009    
  1.2             6.8811e-005     -1.0877e-008    -3.898e-010    
  1.25            7.0346e-005     2.1147e-008     -1.6191e-009   
  1.3             7.1325e-005     1.2166e-008     -9.14e-011     
  1.35            7.1886e-005     -1.6178e-008    2.4317e-009    
  1.4             7.324e-005      -1.0845e-008    -6.086e-010    
  1.45            7.4649e-005     2.3608e-008     -1.4632e-009   
  1.5             7.4959e-005     1.0554e-008     1.1607e-009    
  1.55            7.6208e-005     -2.3066e-008    1.2401e-009    
  1.6             7.744e-005      -1.1205e-008    -8.178e-010    
  1.65            7.8776e-005     2.6067e-008     -1.3829e-009   
  1.7             7.8869e-005     1.0733e-008     1.3434e-009    
  1.75            8.0181e-005     -1.8896e-008    1.8127e-009    
  1.8             8.1518e-005     -1.1628e-008    -9.855e-010    
  1.85            8.2742e-005     2.7428e-008     -1.3368e-009   
  1.9             8.3434e-005     9.57e-009       4.748e-010     
  1.95            8.3892e-005     -2.3235e-008    1.5518e-009    
  2               8.5464e-005     -1.2623e-008    -1.1573e-009   
  2.05            8.6482e-005     9.271e-009      -2.6339e-009   
  2.1             8.74e-005       1.3725e-008     -2.0534e-009   
  2.15            8.835e-005      7.402e-009      -2.6027e-009   
  2.2             8.9262e-005     1.1998e-008     -1.9887e-009   
  2.25            9.0184e-005     4.293e-009      -2.57e-009     
  2.3             9.1079e-005     9.077e-009      -1.9198e-009   
  2.35            9.2017e-005     1.77e-010       -2.5308e-009   
  2.4             9.2866e-005     4.389e-009      -1.8639e-009   
  2.45            9.3282e-005     -8.23e-009      2.3013e-009    
  2.5             9.4187e-005     -3.3108e-008    -5.052e-010    
  2.55            9.5557e-005     -5.095e-009     -1.5266e-009   
  2.6             9.5994e-005     -2.4461e-008    2.498e-009     
  2.65            9.7016e-005     -5.1825e-008    -8.242e-010    
  2.7             9.8218e-005     -2.2616e-008    -1.3823e-009   
  2.75            9.8654e-005     -4.9648e-008    2.729e-009     
  2.8             9.9867e-005     -8.1107e-008    -1.0763e-009   
  2.85            0.000100919     -5.4523e-008    -1.3202e-009   
  2.9             0.00010143      -9.075e-008     -4.96e-011     
  2.95            0.000102        -1.3274e-007    2.1621e-009    
  3               0.00010318      -1.4341e-007    -2.2181e-009   
  3.05            0.00010408      -1.454e-007     6.205e-010     
  3.1             0.00010445      -2.0637e-007    1.3506e-009    
  3.15            0.0001058       -2.1651e-007    -2.724e-009    
  3.2             0.00010614      -2.2997e-007    1.2284e-009    
  3.25            0.00010729      -2.9601e-007    1.8156e-009    
  3.3             0.00010845      -3.2715e-007    -2.4205e-009   
  3.35            0.00010922      -3.5209e-007    8.267e-010     
  3.4             0.00010983      -4.415e-007     1.2812e-009    
  3.45            0.00011112      -4.7745e-007    -2.7583e-009   
  3.5             0.00011125      -5.2217e-007    1.4382e-009    
  3.55            0.00011255      -6.1983e-007    1.5238e-009    
  3.6             0.00011384      -6.9344e-007    -2.6021e-009   
  3.65            0.00011451      -7.5947e-007    1.0137e-009    
  3.7             0.00011545      -8.9329e-007    1.2482e-009    
  3.75            0.00011669      -9.7903e-007    -2.7209e-009   
  3.8             0.00011684      -1.07603e-006   1.6554e-009    
  3.85            0.00011801      -1.2206e-006    2.8588e-009    
  3.9             0.00012001      -1.3726e-006    -1.7965e-009   
  3.95            0.00012068      -1.499e-006     -4.64e-011     
  4               0.00012124      -1.6956e-006    2.1527e-009    
  4.05            0.00012263      -1.876e-006     -2.2234e-009   
  4.1             0.00012374      -2.0499e-006    6.28e-010      
  4.15            0.00012425      -2.3095e-006    1.3466e-009    
  4.2             0.00012588      -2.5269e-006    -2.7279e-009   
  4.25            0.00012648      -2.7511e-006    1.2319e-009    
  4.3             0.00012778      -3.0634e-006    1.8055e-009    
  4.35            0.00012934      -3.3425e-006    -2.4248e-009   
  4.4             0.00013042      -3.6265e-006    8.327e-010     
  4.45            0.00013141      -4.0164e-006    1.2807e-009    
  4.5             0.00013307      -4.3514e-006    -2.7617e-009   
  4.55            0.00013357      -4.6955e-006    1.4425e-009    
  4.6             0.00013522      -5.1405e-006    1.5149e-009    
  4.65            0.000137        -5.5743e-006    -2.6041e-009   
  4.7             0.00013801      -5.9938e-006    1.0184e-009    
  4.75            0.00013953      -6.5434e-006    1.246e-009     
  4.8             0.00014134      -7.0309e-006    -2.722e-009    
  4.85            0.00014197      -7.5282e-006    1.6538e-009    
  4.9             0.00014377      -8.1442e-006    1.437e-010     
  4.95            0.00014635      -8.7252e-006    -2.1245e-009   
  5               0.00014733      -9.3366e-006    2.261e-009     
END_DB

BEGIN_DB
 ICCAP_VAR VG         2              
 ICCAP_VAR VS         0              
 ICCAP_VAR VB         0              

 #VD              ID              IB              IG             
  0               -5.1003e-007    -1.1175e-008    1.1255e-009    
  0.05            7.659e-005      1.0327e-008     -2.6988e-009   
  0.1             0.00014983      1.0573e-008     2.3376e-009    
  0.15            0.00021921      -1.0988e-008    -7e-010        
  0.2             0.00028436      2.6196e-008     -1.3785e-009   
  0.25            0.00034436      1.0292e-008     4.197e-010     
  0.3             0.0003989       -2.2864e-008    1.4876e-009    
  0.35            0.00044831      -1.1249e-008    -2.016e-010    
  0.4             0.00049276      2.0796e-008     -1.6612e-009   
  0.45            0.0005308       1.0569e-008     1.0707e-009    
  0.5             0.00056401      -1.1452e-008    2.7478e-009    
  0.55            0.00059303      -1.0831e-008    -4.214e-010    
  0.6             0.00061791      2.3042e-008     -1.4927e-009   
  0.65            0.00063838      1.0821e-008     1.628e-010     
  0.7             0.00065501      -2.0675e-008    1.7977e-009    
  0.75            0.00066946      -1.19e-008      5.33e-011      
  0.8             0.00068298      1.7397e-008     -1.9876e-009   
  0.85            0.00069301      1.0732e-008     8.539e-010     
  0.9             0.00070178      -2.5905e-008    1.2743e-009    
  0.95            0.00071042      -1.096e-008     -7.097e-010    
  1               0.00071811      2.6228e-008     -1.3764e-009   
  1.05            0.00072423      1.0293e-008     4.258e-010     
  1.1             0.00072923      -2.2921e-008    1.4779e-009    
  1.15            0.00073583      -1.1297e-008    -1.342e-009    
  1.2             0.00074046      2.0383e-008     -1.661e-009    
  1.25            0.00074432      1.0542e-008     1.0703e-009    
  1.3             0.00074878      -2.2547e-008    2.1015e-009    
  1.35            0.00075352      -1.1406e-008    -9.422e-010    
  1.4             0.00075786      2.7835e-008     -1.324e-009    
  1.45            0.00076083      1.0413e-008     6.759e-010     
  1.5             0.00076383      -2.5317e-008    1.3264e-009    
  1.55            0.00076765      -1.0952e-008    -5.007e-010    
  1.6             0.00077175      2.3886e-008     -1.4526e-009   
  1.65            0.00077345      1.0737e-008     1.3022e-009    
  1.7             0.00077697      -1.697e-008     1.6979e-009    
  1.75            0.00077969      -1.1783e-008    -8.3e-012      
  1.8             0.00078377      1.8457e-008     -1.8934e-009   
  1.85            0.00078624      1.3121e-008     -1.748e-010    
  1.9             0.00078797      -1.6704e-008    2.3952e-009    
  1.95            0.00079139      -1.1481e-008    -7.768e-010    
  2               0.00079447      2.6259e-008     -1.3601e-009   
  2.05            0.0007966       9.369e-009      4.902e-010     
  2.1             0.00079803      -2.5238e-008    1.4261e-009    
  2.15            0.00080196      -1.367e-008     -1.4073e-009   
  2.2             0.00080408      1.1137e-008     -2.2518e-009   
  2.25            0.00080628      6.341e-009      -2.6102e-009   
  2.3             0.00080853      1.2251e-008     -1.8372e-009   
  2.35            0.00081081      4.406e-009      -2.331e-009    
  2.4             0.00081294      -1.382e-009     -2.65e-009     
  2.45            0.00081433      -2.4289e-008    -2.7258e-009   
  2.5             0.00081556      -1.2191e-008    1.2242e-009    
  2.55            0.00081797      -4.8735e-008    1.8196e-009    
  2.6             0.0008204       -4.7729e-008    -2.417e-009    
  2.65            0.00082216      -3.9048e-008    8.154e-010     
  2.7             0.00082367      -8.9149e-008    1.2818e-009    
  2.75            0.00082621      -8.4775e-008    -2.7611e-009   
  2.8             0.0008269       -8.763e-008     1.4353e-009    
  2.85            0.00082923      -1.3097e-007    1.2574e-009    
  2.9             0.00083174      -1.5382e-007    -2.7461e-009   
  2.95            0.0008323       -1.7081e-007    1.5585e-009    
  3               0.00083457      -2.3354e-007    2.349e-010     
  3.05            0.00083761      -2.5055e-007    -2.2671e-009   
  3.1             0.00083847      -3.0719e-007    2.1888e-009    
  3.15            0.00084034      -3.8737e-007    -4.588e-010    
  3.2             0.00084291      -4.2208e-007    -1.4721e-009   
  3.25            0.0008439       -5.1629e-007    2.6619e-009    
  3.3             0.00084626      -6.2565e-007    -1.1144e-009   
  3.35            0.00084821      -6.9151e-007    -1.2951e-009   
  3.4             0.00084892      -8.3199e-007    2.8694e-009    
  3.45            0.00085166      -9.7828e-007    -1.7496e-009   
  3.5             0.00085302      -1.10401e-006   -9.89e-011     
  3.55            0.00085439      -1.2795e-006    2.8753e-009    
  3.6             0.00085717      -1.4863e-006    -1.7364e-009   
  3.65            0.00085861      -1.6761e-006    -1.127e-010    
  3.7             0.00085938      -1.9447e-006    2.2839e-009    
  3.75            0.00086202      -2.2058e-006    -2.154e-009    
  3.8             0.00086407      -2.4861e-006    5.37e-010      
  3.85            0.00086514      -2.8526e-006    1.3928e-009    
  3.9             0.00086779      -3.2092e-006    -2.699e-009    
  3.95            0.00086906      -3.6038e-006    1.1522e-009    
  4               0.00087143      -4.0933e-006    1.9377e-009    
  4.05            0.00087406      -4.5883e-006    -2.3422e-009   
  4.1             0.00087616      -5.1268e-006    7.51e-010      
  4.15            0.00087779      -5.7776e-006    1.2999e-009    
