! VERSION = 6.00
BEGIN_HEADER
 ICCAP_INPUTS
  VG         V  B GROUND SMU4 0.001 LIN        2    0          5          6    1         
  VS         V  E GROUND SMU2 0.1 CON        0
  VD         V  S GROUND SMU1 0.1 LIN        1    0          5          101  0.05      
  VB         V  C GROUND SMU3 0.1 LIN        3    0          -2.5       2    -2.5      
 ICCAP_OUTPUTS
  ID         I  S GROUND SMU1 B
  IB         I  C GROUND SMU3 B
  IG         I  B GROUND SMU4 B
END_HEADER

BEGIN_DB
 ICCAP_VAR VG         0              
 ICCAP_VAR VS         0              
 ICCAP_VAR VB         0              

 #VD              ID              IB              IG             
  0               -7.719e-010     -2.6781e-008    -7.301e-010    
  0.05            1.6118e-009     1.8043e-008     -1.906e-009    
  0.1             -1.7818e-009    4.965e-009      -1.6141e-009   
  0.15            -1.4655e-009    -2.4198e-008    1.3057e-009    
  0.2             -3.59e-011      -1.2034e-008    2.8634e-009    
  0.25            1.4112e-009     2.7617e-008     -1.3679e-009   
  0.3             3.4e-011        1.2881e-008     -1.3558e-009   
  0.35            1.897e-010      1.4358e-008     -2.6694e-009   
  0.4             -1.2702e-009    1.064e-009      -1.9544e-009   
  0.45            -2.2467e-009    -1.2552e-008    -6.86e-010     
  0.5             -2.2246e-009    -1.0924e-008    -8.661e-010    
  0.55            -1.6349e-009    -1.5124e-008    1.962e-009     
  0.6             1.8498e-009     -8.348e-009     1.5894e-009    
  0.65            1.564e-009      1.0964e-008     1.7573e-009    
  0.7             2.2656e-009     1.2468e-008     3.709e-010     
  0.75            2.3062e-009     1.2194e-008     5.59e-010      
  0.8             2.3236e-009     1.1054e-008     7.339e-010     
  0.85            1.5979e-009     1.9157e-008     -1.9413e-009   
  0.9             -1.8074e-009    5.041e-009      -1.5928e-009   
  0.95            -1.451e-009     -2.4712e-008    1.3048e-009    
  1               -1.69e-011      -1.1551e-008    2.8645e-009    
  1.05            1.3892e-009     2.8058e-008     -1.3678e-009   
  1.1             1.46e-011       1.2636e-008     -1.3589e-009   
  1.15            1.667e-010      1.4032e-008     -2.6751e-009   
  1.2             -2.152e-009     -9.771e-009     -1.1827e-009   
  1.25            -1.8307e-009    -9.996e-009     3.147e-010     
  1.3             -8.835e-010     -2.0737e-008    1.8639e-009    
  1.35            1.774e-009      -8.766e-009     1.6367e-009    
  1.4             1.4904e-009     1.0453e-008     1.8049e-009    
  1.45            2.2778e-009     1.2435e-008     4.256e-010     
  1.5             2.3143e-009     1.1944e-008     6.097e-010     
  1.55            2.3236e-009     1.0518e-008     7.816e-010     
  1.6             1.6337e-009     1.7447e-008     -1.8647e-009   
  1.65            -1.7473e-009    5.093e-009      -1.6378e-009   
  1.7             -2.178e-009     -1.2588e-008    -1.778e-010    
  1.75            -2.2352e-009    -1.3066e-008    -3.983e-010    
  1.8             -2.2451e-009    -1.2774e-008    -5.99e-010     
  1.85            -2.2342e-009    -1.1615e-008    -7.904e-010    
  1.9             -1.6039e-009    -1.7048e-008    2.104e-009     
  1.95            1.9467e-009     -7.648e-009     1.5114e-009    
  2               1.3893e-009     2.7946e-008     -1.3681e-009   
  2.05            1.94e-011       1.2763e-008     -1.3589e-009   
  2.1             1.713e-010      1.4233e-008     -2.6777e-009   
  2.15            -2.154e-009     -9.348e-009     -1.185e-009    
  2.2             -1.8331e-009    -1.0096e-008    3.118e-010     
  2.25            -8.855e-010     -2.0838e-008    1.8699e-009    
  2.3             1.7671e-009     -8.774e-009     1.6386e-009    
  2.35            1.4869e-009     1.0492e-008     1.8086e-009    
  2.4             2.2788e-009     1.2413e-008     4.189e-010     
  2.45            2.3188e-009     1.1934e-008     6.096e-010     
  2.5             1.4976e-009     2.3531e-008     -1.3621e-009   
  2.55            1.482e-010      1.3854e-008     -2.6825e-009   
  2.6             -1.5357e-009    -2.1054e-008    2.3155e-009    
  2.65            2.0834e-009     -5.974e-009     1.3851e-009    
  2.7             1.285e-009      2.8975e-008     -1.364e-009    
  2.75            -2.0679e-009    1.1912e-008     -1.3237e-009   
  2.8             -1.8994e-009    -1.1416e-008    -1.4992e-009   
  2.85            -1.3771e-009    -2.6053e-008    1.3051e-009    
  2.9             5.72e-011       -9.804e-009     2.8697e-009    
  2.95            1.6528e-009     -2.16e-010      1.7115e-009    
  3               2.1233e-009     9.985e-009      4.42e-011      
  3.05            2.2145e-009     1.2357e-008     2.311e-010     
  3.1             2.2806e-009     1.2512e-008     4.246e-010     
  3.15            2.3183e-009     1.1934e-008     6.128e-010     
  3.2             1.5032e-009     2.3304e-008     -1.362e-009    
  3.25            1.502e-010      1.4037e-008     -2.6821e-009   
  3.3             -2.1472e-009    -1.2299e-008    -1.076e-010    
  3.35            -2.2227e-009    -1.2979e-008    -3.322e-010    
  3.4             -2.2457e-009    -1.2888e-008    -5.427e-010    
  3.45            -2.24e-009      -1.207e-008     -7.446e-010    
  3.5             -2.2187e-009    -1.0743e-008    -9.091e-010    
  3.55            -1.6618e-009    -1.3678e-008    1.8525e-009    
  3.6             1.7682e-009     -8.748e-009     1.6423e-009    
  3.65            1.4788e-009     1.0782e-008     1.813e-009     
  3.7             2.2796e-009     1.2439e-008     4.257e-010     
  3.75            2.3177e-009     1.2311e-008     6.146e-010     
  3.8             1.5031e-009     2.3279e-008     -1.3613e-009   
  3.85            1.522e-010      1.3869e-008     -2.6849e-009   
  3.9             -1.5371e-009    -2.0721e-008    2.3086e-009    
  3.95            2.0775e-009     -6.021e-009     1.392e-009     
  4               1.2896e-009     2.9088e-008     -1.3656e-009   
  4.05            -2.0656e-009    1.1755e-008     -1.3313e-009   
  4.1             -1.8966e-009    -1.1502e-008    -1.4981e-009   
  4.15            -1.3774e-009    -2.6063e-008    1.3049e-009    
  4.2             5.45e-011       -9.645e-009     2.8761e-009    
  4.25            1.311e-009      2.9135e-008     -1.3669e-009   
  4.3             -2.0548e-009    1.2073e-008     -1.352e-009    
  4.35            -1.2579e-009    -2.6703e-008    1.3192e-009    
  4.4             2.2681e-009     -8.489e-009     1.1565e-009    
  4.45            2.1419e-009     1.0532e-008     1.309e-009     
  4.5             1.2223e-009     2.8907e-008     -1.3681e-009   
  4.55            -2.1218e-009    1.1036e-008     -1.2533e-009   
  4.6             -1.8842e-009    -1.0475e-008    2.54e-010      
  4.65            -9.327e-010     -2.1929e-008    1.7457e-009    
  4.7             1.6648e-009     -8.938e-009     1.7007e-009    
  4.75            2.118e-009      1.0132e-008     3.42e-011      
  4.8             1.0874e-009     2.7189e-008     -1.4145e-009   
  4.85            -2.1922e-009    8.968e-009      -1.0848e-009   
  4.9             -1.763e-009     -1.0344e-008    1.5292e-009    
  4.95            2.3247e-009     -8.478e-009     9.071e-010     
  5               1.75e-009       1.3326e-008     -1.6551e-009   
END_DB

BEGIN_DB
 ICCAP_VAR VG         1              
 ICCAP_VAR VS         0              
 ICCAP_VAR VB         0              

 #VD              ID              IB              IG             
  0               -7.1076e-008    1.2497e-008     6.186e-010     
  0.05            6.681e-006      -8.278e-009     -1.294e-009    
  0.1             1.12708e-005    8.989e-009      -1.3668e-009   
  0.15            1.4209e-005     1.1597e-008     -2.7245e-009   
  0.2             1.6276e-005     9.882e-009      -1.573e-010    
  0.25            1.7419e-005     -1.7846e-008    2.5166e-009    
  0.3             1.8544e-005     -2.0172e-008    1.8202e-009    
  0.35            1.9369e-005     -1.2391e-008    -9.921e-010    
  0.4             2.0224e-005     2.836e-008      -1.3647e-009   
  0.45            2.0292e-005     9.109e-009      1.5339e-009    
  0.5             2.1167e-005     -1.4399e-008    1.5215e-009    
  0.55            2.1765e-005     -1.0458e-008    -1.1543e-009   
  0.6             2.2389e-005     2.9172e-008     -2.1534e-009   
  0.65            2.2603e-005     1.2576e-008     6.692e-010     
  0.7             2.2966e-005     -8.149e-009     2.8522e-009    
  0.75            2.3494e-005     -1.2629e-008    3.247e-010     
  0.8             2.4106e-005     1.3951e-008     -2.5382e-009   
  0.85            2.4517e-005     2.8558e-008     -2.0196e-009   
  0.9             2.4582e-005     1.2614e-008     7.578e-010     
  0.95            2.4921e-005     -8.092e-009     2.8615e-009    
  1               2.5353e-005     -1.1007e-008    2.524e-010     
  1.05            2.606e-005      1.4861e-008     -2.4382e-009   
  1.1             2.5937e-005     1.0859e-008     2.0004e-009    
  1.15            2.6435e-005     -2.0044e-008    1.5565e-009    
  1.2             2.6754e-005     -2.6696e-008    1.3047e-009    
  1.25            2.7192e-005     -1.2821e-008    -5.586e-010    
  1.3             2.7635e-005     2.149e-008      -1.4765e-009   
  1.35            2.757e-005      9.547e-009      1.116e-009     
  1.4             2.8068e-005     -2.6102e-008    2.2696e-009    
  1.45            2.8424e-005     -1.2943e-008    -7.691e-010    
  1.5             2.8869e-005     8.418e-009      -1.3655e-009   
  1.55            2.8611e-005     1.0279e-008     1.5394e-009    
  1.6             2.9317e-005     -1.422e-008     1.5114e-009    
  1.65            2.9569e-005     -2.6963e-008    1.3058e-009    
  1.7             2.997e-005      -1.3065e-008    -5.915e-010    
  1.75            3.0311e-005     6.922e-009      -1.363e-009    
  1.8             3.0746e-005     2.635e-008      -1.8719e-009   
  1.85            3.0621e-005     1.1993e-008     8.387e-010     
  1.9             3.1026e-005     -2.5959e-008    1.306e-009     
  1.95            3.1602e-005     -1.0313e-008    -1.5065e-009   
  2               3.1831e-005     1.8885e-008     -1.6039e-009   
  2.05            3.213e-005      2.696e-008      -1.3629e-009   
  2.1             3.2382e-005     2.1784e-008     -1.7069e-009   
  2.15            3.2312e-005     1.0549e-008     9.382e-010     
  2.2             3.2572e-005     -2.8193e-008    2.5815e-009    
  2.25            3.2948e-005     -1.4817e-008    -5.373e-010    
  2.3             3.3291e-005     3.622e-009      -1.3718e-009   
  2.35            3.3668e-005     1.6016e-008     -1.7541e-009   
  2.4             3.4024e-005     1.0717e-008     -2.4473e-009   
  2.45            3.4272e-005     1.4257e-008     -1.6878e-009   
  2.5             3.451e-005      8.89e-009       -2.397e-009    
  2.55            3.4733e-005     1.1897e-008     -1.6284e-009   
  2.6             3.4977e-005     6.495e-009      -2.3416e-009   
  2.65            3.5288e-005     -1.8e-010       -2.6963e-009   
  2.7             3.5473e-005     2.251e-009      -2.2859e-009   
  2.75            3.5517e-005     -2.1499e-008    -2.7323e-009   
  2.8             3.5355e-005     -1.1199e-008    1.4062e-009    
  2.85            3.5933e-005     -4.1489e-008    1.6967e-009    
  2.9             3.6248e-005     -3.7533e-008    -2.421e-009    
  2.95            3.6523e-005     -2.055e-008     6.45e-010      
  3               3.6707e-005     -6.1808e-008    1.3717e-009    
  3.05            3.7051e-005     -5.4162e-008    -2.6739e-009   
  3.1             3.7191e-005     -4.0526e-008    9.253e-010     
  3.15            3.7453e-005     -8.7566e-008    2.5983e-009    
  3.2             3.7984e-005     -8.1594e-008    -1.9737e-009   
  3.25            3.8257e-005     -6.9858e-008    7.24e-011      
  3.3             3.8184e-005     -1.1691e-007    2.8219e-009    
  3.35            3.8557e-005     -1.124e-007     1.509e-009     
  3.4             3.9088e-005     -1.3035e-007    -2.5446e-009   
  3.45            3.9231e-005     -1.2539e-007    7.683e-010     
  3.5             3.9504e-005     -1.8258e-007    1.3167e-009    
  3.55            4.0022e-005     -1.8725e-007    -2.7226e-009   
  3.6             4.0136e-005     -1.9126e-007    1.0307e-009    
  3.65            4.0546e-005     -2.5689e-007    2.4337e-009    
  3.7             4.1049e-005     -2.6928e-007    -2.0575e-009   
  3.75            4.1411e-005     -2.7937e-007    2.136e-010     
  3.8             4.1713e-005     -3.4684e-007    1.908e-009     
  3.85            4.2118e-005     -3.7721e-007    -2.3113e-009   
  3.9             4.2451e-005     -3.9799e-007    5.319e-010     
  3.95            4.267e-005      -4.8262e-007    1.4597e-009    
  4               4.3339e-005     -5.248e-007     -2.5964e-009   
  4.05            4.373e-005      -5.6024e-007    8.238e-010     
  4.1             4.4057e-005     -6.6793e-007    1.309e-009     
  4.15            4.4914e-005     -7.2145e-007    -2.7351e-009   
  4.2             4.5113e-005     -7.7629e-007    1.0764e-009    
  4.25            4.5863e-005     -9.0665e-007    2.3403e-009    
  4.3             4.656e-005      -9.7771e-007    -2.0942e-009   
  4.35            4.7135e-005     -1.05313e-006   2.74e-010      
  4.4             4.7689e-005     -1.1648e-006    2.6754e-009    
  4.45            4.8404e-005     -1.3165e-006    -1.9267e-009   
  4.5             4.904e-005      -1.4063e-006    -1.62e-011     
  4.55            4.9772e-005     -1.5725e-006    2.2917e-009    
  4.6             5.0839e-005     -1.7269e-006    -2.1172e-009   
  4.65            5.128e-005      -1.85e-006      3.065e-010     
  4.7             5.1898e-005     -2.0613e-006    1.7501e-009    
  4.75            5.3322e-005     -2.2482e-006    -2.3975e-009   
  4.8             5.4033e-005     -2.4122e-006    6.238e-010     
  4.85            5.4684e-005     -2.6678e-006    1.3918e-009    
  4.9             5.6442e-005     -2.8955e-006    -2.6552e-009   
  4.95            5.727e-005      -3.1132e-006    9.016e-010     
  5               5.8314e-005     -3.4432e-006    1.3059e-009    
END_DB

BEGIN_DB
 ICCAP_VAR VG         2              
 ICCAP_VAR VS         0              
 ICCAP_VAR VB         0              

 #VD              ID              IB              IG             
  0               -3.9373e-007    -1.7198e-008    2.7925e-009    
  0.05            3.4597e-005     1.2494e-008     -2.7493e-009   
  0.1             6.8543e-005     1.3859e-008     -1.4409e-009   
  0.15            0.000101278     2.9085e-008     -1.3647e-009   
  0.2             0.00013263      9.429e-009      2.7576e-009    
  0.25            0.00016219      -2.3896e-008    2.051e-009     
  0.3             0.00019019      -1.2309e-008    -9.875e-010    
  0.35            0.00021611      2.9074e-008     -1.3657e-009   
  0.4             0.00023978      1.2495e-008     7.258e-010     
  0.45            0.00026138      -2.5924e-008    1.3076e-009    
  0.5             0.00028092      -1.7353e-008    1.6689e-009    
  0.55            0.00029863      -1.0375e-008    -1.1734e-009   
  0.6             0.0003139       2.6866e-008     -1.9227e-009   
  0.65            0.00032694      1.1841e-008     9.253e-010     
  0.7             0.00033826      -2.6619e-008    2.4429e-009    
  0.75            0.00034807      -1.304e-008     -7.952e-010    
  0.8             0.00035655      2.7076e-008     -1.3647e-009   
  0.85            0.00036249      9.46e-009       1.5645e-009    
  0.9             0.00036873      -1.1231e-008    2.749e-010     
  0.95            0.0003744       1.6365e-008     -2.33e-009     
  1               0.00037836      1.2462e-008     6.704e-010     
  1.05            0.00038171      -2.5429e-008    1.3112e-009    
  1.1             0.00038628      -9.775e-009     -1.584e-009    
  1.15            0.00038899      1.3106e-008     -1.4311e-009   
  1.2             0.00039169      2.836e-008      -2.0105e-009   
  1.25            0.00039379      1.2269e-008     8.755e-010     
  1.3             0.00039584      -2.6742e-008    2.5128e-009    
  1.35            0.00039841      -1.3068e-008    -7.321e-010    
  1.4             0.00040062      2.6324e-008     -1.3673e-009   
  1.45            0.00040229      2.2001e-008     -1.6849e-009   
  1.5             0.00040352      1.0284e-008     1.0568e-009    
  1.55            0.00040543      -2.4945e-008    2.1717e-009    
  1.6             0.00040729      -1.2914e-008    -9.323e-010    
  1.65            0.00040886      2.8781e-008     -1.3682e-009   
  1.7             0.00040995      1.2558e-008     6.638e-010     
  1.75            0.00041115      -2.5173e-008    1.3122e-009    
  1.8             0.00041236      -1.9537e-008    1.7842e-009    
  1.85            0.00041435      -1.0883e-008    -1.1154e-009   
  1.9             0.00041567      2.8306e-008     -2.0284e-009   
  1.95            0.00041642      1.2287e-008     8.655e-010     
  2               0.00041712      -2.6832e-008    2.5301e-009    
  2.05            0.00041878      -1.3203e-008    -7.264e-010    
  2.1             0.00042023      8.641e-009      -1.3665e-009   
  2.15            0.00042083      1.2173e-008     6.905e-010     
  2.2             0.00042159      -2.6092e-008    1.3093e-009    
  2.25            0.00042352      -1.0511e-008    -1.6023e-009   
  2.3             0.00042423      1.1409e-008     -1.4181e-009   
  2.35            0.00042546      1.7456e-008     -1.787e-009    
  2.4             0.0004262       1.3642e-008     -2.3221e-009   
  2.45            0.00042706      1.5076e-008     -1.5625e-009   
  2.5             0.00042816      1.2913e-008     -2.0735e-009   
  2.55            0.0004291       7.236e-009      -2.5328e-009   
  2.6             0.00042968      1.1264e-008     -1.634e-009    
  2.65            0.00043018      -1.731e-009     2.5807e-009    
  2.7             0.00043137      -2.6992e-008    -9.482e-010    
  2.75            0.00043219      -2.4229e-008    -2.7352e-009   
  2.8             0.00043194      -1.4022e-008    1.4801e-009    
  2.85            0.00043337      -4.2967e-008    3.375e-010     
  2.9             0.00043471      -3.6404e-008    -2.047e-009    
  2.95            0.00043521      -3.7765e-008    2.3674e-009    
  3               0.00043611      -7.1174e-008    -6.622e-010    
  3.05            0.00043718      -4.562e-008     -1.3754e-009   
  3.1             0.00043741      -7.7663e-008    2.8041e-009    
  3.15            0.00043856      -1.07875e-007   1.4693e-009    
  3.2             0.00043941      -1.3416e-007    -2.6641e-009   
  3.25            0.00043989      -1.3922e-007    1.0299e-009    
  3.3             0.00044075      -2.032e-007     2.2315e-009    
  3.35            0.00044171      -2.1979e-007    -2.265e-009    
  3.4             0.00044281      -2.3516e-007    6.061e-010     
  3.45            0.0004432       -3.1453e-007    1.3325e-009    
  3.5             0.00044486      -3.4699e-007    -2.7349e-009   
  3.55            0.00044503      -3.8566e-007    1.2125e-009    
  3.6             0.00044642      -4.7808e-007    1.8374e-009    
  3.65            0.00044773      -5.3869e-007    -2.4659e-009   
  3.7             0.00044879      -5.9921e-007    8.181e-010     
  3.75            0.0004489       -7.2879e-007    2.5976e-009    
  3.8             0.00045108      -8.1682e-007    -2.0549e-009   
  3.85            0.00045239      -9.112e-007     3.438e-010     
  3.9             0.00045264      -1.07354e-006   1.5163e-009    
  3.95            0.00045538      -1.1896e-006    -5.146e-010    
  4               0.00045634      -1.3401e-006    -1.4185e-009   
  4.05            0.0004592       -1.536e-006     2.7451e-009    
  4.1             0.00046029      -1.7584e-006    -1.1749e-009   
  4.15            0.00046415      -1.9452e-006    -1.9347e-009   
