! VERSION = 6.00
BEGIN_HEADER
 ICCAP_INPUTS
  VG         V  B GROUND SMU4 0.001 LIN        2    0          5          6    1         
  VS         V  E GROUND SMU2 0.1 CON        0
  VD         V  S GROUND SMU1 0.1 LIN        1    0          5          101  0.05      
  VB         V  C GROUND SMU3 0.1 LIN        3    0          -2.5       2    -2.5      
 ICCAP_OUTPUTS
  ID         I  S GROUND SMU1 B
  IB         I  C GROUND SMU3 B
  IG         I  B GROUND SMU4 B
END_HEADER

BEGIN_DB
 ICCAP_VAR VG         0              
 ICCAP_VAR VS         0              
 ICCAP_VAR VB         0              

 #VD              ID              IB              IG             
  0               -5.641e-010     1.0219e-008     -4.109e-010    
  0.05            1.9362e-009     1.1454e-008     -1.4642e-009   
  0.1             -1.3326e-009    1.0008e-008     -1.9562e-009   
  0.15            -2.3091e-009    -1.1416e-008    -6.671e-010    
  0.2             -1.5944e-009    -1.9102e-008    1.264e-009     
  0.25            -1.882e-010     -1.3438e-008    2.8785e-009    
  0.3             2.1758e-009     1.0173e-008     1.718e-010     
  0.35            2.2965e-009     1.033e-008      3.659e-010     
  0.4             2.377e-009      1.0742e-008     5.523e-010     
  0.45            1.5054e-009     2.3668e-008     -1.3268e-009   
  0.5             1.423e-010      1.1355e-008     -2.7215e-009   
  0.55            -1.3674e-009    6.43e-010       -1.9334e-009   
  0.6             -2.2994e-009    -1.1303e-008    -6.107e-010    
  0.65            -1.5623e-009    -2.025e-008     1.2697e-009    
  0.7             -1.353e-010     -1.251e-008     2.9054e-009    
  0.75            2.1451e-009     1.0134e-008     1.211e-010     
  0.8             2.2668e-009     1.0193e-008     3.051e-010     
  0.85            2.3599e-009     1.0661e-008     5.003e-010     
  0.9             1.4627e-009     2.4728e-008     -1.3358e-009   
  0.95            1.083e-010      1.1349e-008     -1.3061e-009   
  1               2.607e-010      1.2948e-008     -2.6562e-009   
  1.05            -1.2794e-009    7.59e-010       -2.002e-009    
  1.1             -2.3051e-009    -1.1296e-008    -7.624e-010    
  1.15            -1.6276e-009    -1.7143e-008    1.2528e-009    
  1.2             -2.597e-010     -1.4811e-008    2.8317e-009    
  1.25            2.2358e-009     1.0293e-008     2.516e-010     
  1.3             2.3402e-009     1.0503e-008     4.459e-010     
  1.35            2.4057e-009     1.0758e-008     6.382e-010     
  1.4             1.5825e-009     2.1118e-008     -1.3153e-009   
  1.45            2.231e-010      1.2174e-008     -2.6858e-009   
  1.5             -1.3033e-009    6.56e-010       -1.976e-009    
  1.55            -2.2986e-009    -1.1386e-008    -7.004e-010    
  1.6             -1.5976e-009    -1.8245e-008    1.2605e-009    
  1.65            -2.102e-010     -1.4078e-008    2.8587e-009    
  1.7             2.218e-009      1.0129e-008     2.059e-010     
  1.75            2.3292e-009     1.0393e-008     3.974e-010     
  1.8             2.4066e-009     1.0749e-008     5.888e-010     
  1.85            1.5575e-009     2.242e-008      -1.3233e-009   
  1.9             1.999e-010      1.1717e-008     -2.7074e-009   
  1.95            -1.3198e-009    6.77e-010       -1.9524e-009   
  2               -2.2822e-009    -1.1353e-008    -6.485e-010    
  2.05            -1.5576e-009    -1.9284e-008    1.2647e-009    
  2.1             -1.504e-010     -1.3168e-008    2.8846e-009    
  2.15            2.1987e-009     1.0089e-008     1.62e-010      
  2.2             2.321e-009      1.0266e-008     3.534e-010     
  2.25            2.4106e-009     1.0723e-008     5.438e-010     
  2.3             1.5413e-009     2.3356e-008     -1.3295e-009   
  2.35            1.85e-010       1.1496e-008     -2.7294e-009   
  2.4             -1.3284e-009    7.67e-010       -1.9281e-009   
  2.45            -2.2505e-009    -1.1183e-008    -5.977e-010    
  2.5             -1.5018e-009    -2.0158e-008    1.2719e-009    
  2.55            -7.17e-011      -1.2382e-008    2.9051e-009    
  2.6             2.2022e-009     1.0122e-008     1.201e-010     
  2.65            2.324e-009      1.0222e-008     3.034e-010     
  2.7             2.4271e-009     1.0482e-008     4.964e-010     
  2.75            1.5406e-009     2.4402e-008     -1.337e-009    
  2.8             1.903e-010      1.1096e-008     -1.306e-009    
  2.85            3.518e-010      1.2759e-008     -2.6448e-009   
  2.9             -2.1562e-009    8.73e-010       -1.0422e-009   
  2.95            -1.6563e-009    -1.281e-008     1.6387e-009    
  3               1.6449e-009     -9.164e-009     1.8458e-009    
  3.05            2.4536e-009     1.0333e-008     4.467e-010     
  3.1             1.5509e-009     2.515e-008      -1.3456e-009   
  3.15            2.154e-010      1.1189e-008     -1.3124e-009   
  3.2             3.729e-010      1.2433e-008     -2.6735e-009   
  3.25            -2.1083e-009    7.15e-010       -1.0029e-009   
  3.3             -1.5684e-009    -1.3076e-008    1.6862e-009    
  3.35            1.7757e-009     -9.205e-009     1.7995e-009    
  3.4             2.5064e-009     1.0385e-008     4.06e-010      
  3.45            2.5988e-009     1.0783e-008     5.961e-010     
  3.5             1.7685e-009     2.2031e-008     -1.3201e-009   
  3.55            4.28e-010       1.1821e-008     -2.6995e-009   
  3.6             -1.7051e-009    7.93e-010       8.94e-011      
  3.65            -1.8342e-009    -1.0746e-008    -8.01e-011     
  3.7             -1.9223e-009    -1.0754e-008    -2.974e-010    
  3.75            -1.9697e-009    -1.1041e-008    -5.164e-010    
  3.8             -1.1676e-009    -2.1755e-008    1.2842e-009    
  3.85            1.4855e-009     -1.1189e-008    2.3544e-009    
  3.9             2.4194e-009     1.0823e-008     -6.92e-011     
  3.95            2.5343e-009     1.0098e-008     1.059e-010     
  4               2.6836e-009     1.0183e-008     2.969e-010     
  4.05            2.8096e-009     1.0426e-008     4.874e-010     
  4.1             1.955e-009      2.4522e-008     -1.3386e-009   
  4.15            6.464e-010      1.0966e-008     -1.3069e-009   
  4.2             8.354e-010      1.2778e-008     -2.6457e-009   
  4.25            -1.411e-009     7.44e-010       2.12e-011      
  4.3             -1.5047e-009    -1.0735e-008    -1.686e-010    
  4.35            -1.5489e-009    -1.0947e-008    -3.841e-010    
  4.4             -4.559e-010     -1.1238e-008    1.4139e-009    
  4.45            1.8037e-009     -8.947e-009     2.894e-009     
  4.5             2.027e-009      2.7416e-008     -1.43e-009     
  4.55            7.488e-010      1.0681e-008     -1.3704e-009   
  4.6             9.644e-010      1.1251e-008     -1.3338e-009   
  4.65            1.1827e-009     1.0966e-008     -1.306e-009    
  4.7             1.4055e-009     1.2697e-008     -2.6438e-009   
  4.75            3.514e-010      6.86e-010       -2.4491e-009   
  4.8             5.268e-010      1.833e-009      -2.2121e-009   
  4.85            7.192e-010      2.851e-009      -1.9451e-009   
  4.9             9.234e-010      4.5e-009        -1.7096e-009   
  4.95            1.1562e-009     6.613e-009      -1.5356e-009   
  5               1.3786e-009     9.046e-009      -1.4339e-009   
END_DB

BEGIN_DB
 ICCAP_VAR VG         1              
 ICCAP_VAR VS         0              
 ICCAP_VAR VB         0              

 #VD              ID              IB              IG             
  0               -1.5145e-006    -4.899e-009     -2.115e-009    
  0.05            0.00010333      1.0699e-008     2.8004e-009    
  0.1             0.00018728      -1.1082e-008    -1.2626e-009   
  0.15            0.00025228      1.2246e-008     -2.4736e-009   
  0.2             0.00029976      9.852e-009      2.1138e-009    
  0.25            0.00033726      -1.0947e-008    -3.083e-010    
  0.3             0.00036904      2.2111e-008     -1.5747e-009   
  0.35            0.00039077      1.0576e-008     1.1773e-009    
  0.4             0.00041182      -1.3207e-008    2.6887e-009    
  0.45            0.00043153      -1.0915e-008    -5.555e-010    
  0.5             0.00045088      2.5035e-008     -1.4411e-009   
  0.55            0.00046231      1.0977e-008     1.3773e-009    
  0.6             0.00047831      -1.5242e-008    1.6196e-009    
  0.65            0.00049238      -1.1658e-008    -7.81e-011     
  0.7             0.00050837      1.9532e-008     -1.7992e-009   
  0.75            0.00052055      1.2253e-008     -9.55e-011     
  0.8             0.00053037      -1.7496e-008    2.272e-009     
  0.85            0.00054432      -1.1255e-008    -8.794e-010    
  0.9             0.0005571       2.8041e-008     -1.3587e-009   
  0.95            0.00056651      1.0296e-008     6.115e-010     
  1               0.00057549      -2.5281e-008    1.375e-009     
  1.05            0.00058707      -1.0811e-008    -4.307e-010    
  1.1             0.00059989      2.3202e-008     -1.5013e-009   
  1.15            0.0006099       1.0813e-008     1.815e-010     
  1.2             0.0006166       -2.0591e-008    1.7798e-009    
  1.25            0.00062628      -1.1827e-008    2.76e-011      
  1.3             0.00063923      1.7753e-008     -1.9583e-009   
  1.35            0.00064799      1.3493e-008     -2.024e-010    
  1.4             0.00065369      -1.6026e-008    2.4521e-009    
  1.45            0.00066511      -1.1036e-008    -7.744e-010    
  1.5             0.00067604      2.7034e-008     -1.3804e-009   
  1.55            0.00068306      1.0162e-008     4.975e-010     
  1.6             0.00068871      -2.4207e-008    1.4409e-009    
  1.65            0.00069797      -1.1522e-008    -2.964e-010    
  1.7             0.00070937      2.0912e-008     -1.5864e-009   
  1.75            0.00071752      1.5231e-008     -2.0227e-009   
  1.8             0.00072584      9.494e-009      -2.4924e-009   
  1.85            0.00073347      1.7485e-008     -1.6223e-009   
  1.9             0.00074152      1.1007e-008     -2.0728e-009   
  1.95            0.00074914      3.905e-009      -2.5368e-009   
  2               0.00075663      3.2e-010        -1.3121e-009   
  2.05            0.00076155      -1.3398e-008    2.9202e-009    
  2.1             0.00077223      -3.3377e-008    -1.7785e-009   
  2.15            0.00077817      -1.6481e-008    -8.5e-011      
  2.2             0.00078254      -5.5697e-008    2.2439e-009    
  2.25            0.00079182      -5.9187e-008    -2.2247e-009   
  2.3             0.00079921      -5.4191e-008    6.009e-010     
  2.35            0.00080317      -1.07559e-007   1.3795e-009    
  2.4             0.0008122       -1.11464e-007   -1.2626e-009   
  2.45            0.00081827      -1.3083e-007    2.6417e-009    
  2.5             0.00082702      -1.7239e-007    -2.0137e-009   
  2.55            0.00083451      -1.8913e-007    2.895e-010     
  2.6             0.00083747      -2.6548e-007    1.6289e-009    
  2.65            0.0008462       -3.0421e-007    -2.5825e-009   
  2.7             0.00085176      -3.4513e-007    9.693e-010     
  2.75            0.0008577       -4.5161e-007    1.271e-009     
  2.8             0.00086627      -5.1204e-007    -2.7845e-009   
  2.85            0.00086875      -5.8916e-007    1.6177e-009    
  2.9             0.0008768       -7.2176e-007    1.986e-010     
  2.95            0.00088751      -8.1732e-007    -2.2253e-009   
  3               0.000891        -9.6202e-007    2.2618e-009    
  3.05            0.00089968      -1.1199e-006    1.194e-010     
  3.1             0.0009028       -1.3334e-006    1.8834e-009    
  3.15            0.00091148      -1.5302e-006    -2.4269e-009   
  3.2             0.00091726      -1.7409e-006    8.125e-010     
  3.25            0.00092216      -2.0427e-006    1.3038e-009    
  3.3             0.00093109      -2.3179e-006    -2.8036e-009   
  3.35            0.00093367      -2.6274e-006    1.4438e-009    
  3.4             0.0009417       -3.0288e-006    1.5497e-009    
  3.45            0.00095038      -3.4409e-006    -2.6395e-009   
  3.5             0.00095534      -3.8791e-006    1.0306e-009    
  3.55            0.00096226      -4.4417e-006    1.261e-009     
  3.6             0.00097098      -4.9944e-006    -2.7638e-009   
  3.65            0.00097359      -5.608e-006     1.6979e-009    
  3.7             0.00098171      -6.3466e-006    1.31e-010      
  3.75            0.00099328      -7.1033e-006    -2.1057e-009   
  3.8             0.00099746      -7.9612e-006    2.3169e-009    
  3.85            0.00100507      -8.9427e-006    -6.173e-010    
  3.9             0.00101499      -9.9357e-006    -1.4236e-009   
  3.95            0.00101981      -1.10934e-005   2.8081e-009    
  4               0.00102389      -1.2348e-005    1.5129e-009    
  4.05            0.00103333      -1.3762e-005    2.816e-010     
  4.1             0.00104555      -1.5233e-005    -2.3503e-009   
  4.15            0.00105022      -1.683e-005     2.1904e-009    
  4.2             0.00105871      -1.863e-005     -4.198e-010    
  4.25            0.00107024      -2.0486e-005    -1.5054e-009   
  4.3             0.00107658      -2.2552e-005    2.6762e-009    
  4.35            0.00108746      -2.4839e-005    -1.1073e-009   
  4.4             0.00109739      -2.7132e-005    -1.3136e-009   
  4.45            0.00110397      -2.9761e-005    2.9219e-009    
  4.5             0.00111712      -3.2618e-005    -1.7683e-009   
  4.55            0.00112569      -3.5519e-005    -9.35e-011     
  4.6             0.00113259      -3.8725e-005    2.2506e-009    
  4.65            0.0011456       -4.2113e-005    -2.2369e-009   
  4.7             0.0011558       -4.5662e-005    2.245e-009     
  4.75            0.0011673       -4.9586e-005    -5.11e-010     
  4.8             0.0011822       -5.3579e-005    -1.4627e-009   
  4.85            0.0011915       -5.7903e-005    2.7384e-009    
  4.9             0.0012068       -6.2656e-005    -1.1789e-009   
  4.95            0.0012195       -6.732e-005     -1.3053e-009   
  5               0.0012303       -7.2568e-005    2.8961e-009    
END_DB

BEGIN_DB
 ICCAP_VAR VG         2              
 ICCAP_VAR VS         0              
 ICCAP_VAR VB         0              

 #VD              ID              IB              IG             
  0               -4.1352e-006    1.0227e-008     -6.942e-010    
  0.05            0.0003249       3.18e-010       2.374e-009     
  0.1             0.00063899      -1.1174e-008    -8.284e-010    
  0.15            0.00094146      2.7284e-008     -1.3622e-009   
  0.2             0.0012306       -1.4633e-008    -2.0279e-009   
  0.25            0.001501        1.0769e-008     8.555e-010     
  0.3             0.0017545       -2.6002e-008    1.2872e-009    
  0.35            0.0019894       -1.0916e-008    -7.253e-010    
  0.4             0.0022048       2.6573e-008     -1.3854e-009   
  0.45            0.0023972       1.0163e-008     4.498e-010     
  0.5             0.0025679       -2.3152e-008    1.4709e-009    
  0.55            0.0027207       -1.0908e-008    -2.517e-010    
  0.6             0.0028565       2.1277e-008     -1.6293e-009   
  0.65            0.0029686       1.0648e-008     1.1289e-009    
  0.7             0.0030675       -1.2246e-008    2.7354e-009    
  0.75            0.0031543       -1.0744e-008    -5.054e-010    
  0.8             0.0032306       2.4043e-008     -1.4585e-009   
  0.85            0.0032936       1.0288e-008     2.534e-010     
  0.9             0.0033449       -2.1117e-008    1.6844e-009    
  0.95            0.003393        -1.1538e-008    -3.53e-011     
  1               0.0034403       1.9153e-008     -1.8651e-009   
  1.05            0.0034777       1.2579e-008     -1.415e-010    
  1.1             0.003509        -1.7186e-008    2.3442e-009    
  1.15            0.003544        -1.1198e-008    -8.399e-010    
  1.2             0.0035754       2.7445e-008     -1.3568e-009   
  1.25            0.0036004       1.0229e-008     5.743e-010     
  1.3             0.0036226       -2.4541e-008    1.3857e-009    
  1.35            0.0036482       -1.0653e-008    -3.866e-010    
  1.4             0.003674        2.2749e-008     -1.5228e-009   
  1.45            0.0036953       1.0691e-008     1.531e-010     
  1.5             0.0037113       -2.0511e-008    1.8387e-009    
  1.55            0.0037301       -1.1849e-008    5.6e-011       
  1.6             0.0037543       1.7419e-008     -2.0043e-009   
  1.65            0.003769        1.0742e-008     8.708e-010     
  1.7             0.0037843       -2.5979e-008    1.2854e-009    
  1.75            0.0038037       -1.1164e-008    -7.399e-010    
  1.8             0.0038221       2.6182e-008     -1.3809e-009   
  1.85            0.0038361       9.512e-009      4.653e-010     
  1.9             0.0038469       -2.4548e-008    1.4562e-009    
  1.95            0.0038678       -1.2982e-008    -1.4116e-009   
  2               0.0038809       1.1469e-008     -2.2858e-009   
  2.05            0.0038946       6.794e-009      -2.6447e-009   
  2.1             0.003907        1.2504e-008     -1.8366e-009   
  2.15            0.0039206       4.183e-009      -2.3327e-009   
  2.2             0.003933        -2.931e-009     -2.6676e-009   
  2.25            0.0039387       -8.976e-009     1.8893e-009    
  2.3             0.0039512       -3.9886e-008    -5e-011        
  2.35            0.0039682       -2.0056e-008    -1.8428e-009   
  2.4             0.0039764       -4.4429e-008    2.4328e-009    
  2.45            0.0039887       -8.2733e-008    -8.267e-010    
  2.5             0.0040014       -6.7613e-008    -1.361e-009    
  2.55            0.0040112       -1.1781e-007    -1.4348e-009   
  2.6             0.0040187       -1.5162e-007    2.7654e-009    
  2.65            0.0040319       -2.1588e-007    -1.2142e-009   
  2.7             0.0040416       -2.3551e-007    -1.8558e-009   
  2.75            0.0040485       -3.17e-007      2.4312e-009    
  2.8             0.0040593       -4.1689e-007    -8.186e-010    
  2.85            0.0040709       -4.7494e-007    -1.3625e-009   
  2.9             0.0040765       -6.0945e-007    2.8999e-009    
  2.95            0.0040906       -7.6114e-007    -1.4558e-009   
  3               0.0040976       -8.9076e-007    -1.5681e-009   
  3.05            0.0041048       -1.0864e-006    2.6136e-009    
  3.1             0.0041115       -1.3305e-006    1.4736e-009    
  3.15            0.0041233       -1.5669e-006    -2.6935e-009   
  3.2             0.0041299       -1.8388e-006    1.1008e-009    
  3.25            0.0041399       -2.207e-006     1.2495e-009    
  3.3             0.0041507       -2.5701e-006    -2.7209e-009   
  3.35            0.0041547       -2.996e-006     1.7794e-009    
  3.4             0.0041654       -3.519e-006     5.32e-011      
  3.45            0.0041794       -4.0615e-006    -2.0044e-009   
  3.5             0.0041852       -4.7166e-006    2.3627e-009    
  3.55            0.0041951       -5.4696e-006    -7.04e-010     
  3.6             0.0042066       -6.2654e-006    -1.3885e-009   
  3.65            0.0042131       -7.2217e-006    2.8562e-009    
  3.7             0.004226        -8.2898e-006    -1.3515e-009   
  3.75            0.0042342       -9.4435e-006    -1.6742e-009   
  3.8             0.0042413       -1.07855e-005   2.5316e-009    
  3.85            0.0042528       -1.2266e-005    -2.4948e-009   
  3.9             0.0042592       -1.3918e-005    2.0828e-009    
  3.95            0.0042703       -1.5786e-005    -2.649e-010    
  4               0.0042849       -1.7813e-005    -1.614e-009    
  4.05            0.0042931       -2.0115e-005    2.5759e-009    
  4.1             0.0043056       -2.2656e-005    -9.94e-010     
  4.15            0.0043185       -2.5426e-005    -1.329e-009    
