! VERSION = 6.00
BEGIN_HEADER
 ICCAP_INPUTS
  VG         V  B GROUND SMU4 0.001 LIN        2    0          5          6    1         
  VS         V  E GROUND SMU2 0.1 CON        0
  VD         V  S GROUND SMU1 0.1 LIN        1    0          5          101  0.05      
  VB         V  C GROUND SMU3 0.1 LIN        3    0          -2.5       2    -2.5      
 ICCAP_OUTPUTS
  ID         I  S GROUND SMU1 B
  IB         I  C GROUND SMU3 B
  IG         I  B GROUND SMU4 B
END_HEADER

BEGIN_DB
 ICCAP_VAR VG         0              
 ICCAP_VAR VS         0              
 ICCAP_VAR VB         0              

 #VD              ID              IB              IG             
  0               -4.054e-010     -1.1342e-008    -8.07e-011     
  0.05            -2.1612e-009    -1.0822e-008    -3.004e-010    
  0.1             -2.2198e-009    -1.1063e-008    -5.144e-010    
  0.15            -2.2482e-009    -1.1394e-008    -7.121e-010    
  0.2             -1.5671e-009    -1.8031e-008    1.2383e-009    
  0.25            -2.136e-010     -1.4176e-008    2.8125e-009    
  0.3             2.1651e-009     1.019e-008      2.091e-010     
  0.35            2.2739e-009     1.0314e-008     3.999e-010     
  0.4             2.3397e-009     1.0774e-008     5.824e-010     
  0.45            1.5214e-009     2.2779e-008     -1.3046e-009   
  0.5             1.811e-010      1.1752e-008     -2.6716e-009   
  0.55            -1.3104e-009    7.31e-010       -1.9217e-009   
  0.6             -2.2416e-009    -1.1372e-008    -6.371e-010    
  0.65            -2.2363e-009    -1.1301e-008    -8.348e-010    
  0.7             -2.198e-009     -1.1035e-008    -9.869e-010    
  0.75            -1.6782e-009    -1.3166e-008    1.6893e-009    
  0.8             1.5966e-009     -9.254e-009     1.7719e-009    
  0.85            2.2623e-009     1.0291e-008     3.815e-010     
  0.9             2.3378e-009     1.0739e-008     5.652e-010     
  0.95            1.5062e-009     2.3351e-008     -1.306e-009    
  1               1.668e-010      1.1542e-008     -2.6802e-009   
  1.05            -1.3193e-009    6.18e-010       -1.9131e-009   
  1.1             -2.236e-009     -1.1338e-008    -6.19e-010     
  1.15            -1.5154e-009    -2.0338e-008    1.2499e-009    
  1.2             -1.287e-010     -1.2591e-008    2.8537e-009    
  1.25            2.1061e-009     1.0146e-008     1.205e-010     
  1.3             2.221e-009      1.0251e-008     3.067e-010     
  1.35            2.3124e-009     1.057e-008      4.924e-010     
  1.4             1.4417e-009     2.4884e-008     -1.3188e-009   
  1.45            1.105e-010      1.1002e-008     -2.7105e-009   
  1.5             -2.0193e-009    -1.0839e-008    -4.22e-011     
  1.55            -2.1389e-009    -1.086e-008     -2.45e-010     
  1.6             -2.2108e-009    -1.0993e-008    -4.579e-010    
  1.65            -2.2443e-009    -1.1381e-008    -6.634e-010    
  1.7             -1.5442e-009    -1.9135e-008    1.2456e-009    
  1.75            -1.73e-010      -1.3467e-008    2.837e-009     
  1.8             2.1372e-009     1.0227e-008     1.642e-010     
  1.85            2.2462e-009     1.0291e-008     3.526e-010     
  1.9             2.328e-009      1.0666e-008     5.409e-010     
  1.95            1.4786e-009     2.3928e-008     -1.3119e-009   
  2               1.44e-010       1.1374e-008     -2.6943e-009   
  2.05            -1.3351e-009    6.22e-010       -1.9e-009      
  2.1             -2.2327e-009    -1.1259e-008    -5.877e-010    
  2.15            -2.2421e-009    -1.1368e-008    -7.929e-010    
  2.2             -1.5944e-009    -1.6443e-008    2.04e-009      
  2.25            1.8875e-009     -8.944e-009     1.5414e-009    
  2.3             2.1281e-009     1.0118e-008     1.579e-010     
  2.35            2.241e-009      1.0322e-008     3.379e-010     
  2.4             2.3245e-009     1.0652e-008     5.235e-010     
  2.45            1.4738e-009     2.4128e-008     -1.3124e-009   
  2.5             1.397e-010      1.1384e-008     -2.6943e-009   
  2.55            -1.3444e-009    5.53e-010       -1.8945e-009   
  2.6             -2.235e-009     -1.1228e-008    -5.784e-010    
  2.65            -2.2424e-009    -1.1393e-008    -7.839e-010    
  2.7             -1.5906e-009    -1.6632e-008    2.0563e-009    
  2.75            1.8995e-009     -8.619e-009     1.5336e-009    
  2.8             2.127e-009      1.0197e-008     1.512e-010     
  2.85            2.2348e-009     1.0282e-008     3.326e-010     
  2.9             2.3214e-009     1.0631e-008     5.259e-010     
  2.95            1.4672e-009     2.4277e-008     -1.3145e-009   
  3               1.354e-010      1.1276e-008     -2.697e-009    
  3.05            -2.0429e-009    -1.0853e-008    -7.26e-011     
  3.1             -2.1509e-009    -1.0887e-008    -2.759e-010    
  3.15            -2.2161e-009    -1.1043e-008    -4.907e-010    
  3.2             -2.243e-009     -1.1448e-008    -6.971e-010    
  3.25            -1.5565e-009    -1.8415e-008    1.2417e-009    
  3.3             -2.022e-010     -1.3757e-008    2.8246e-009    
  3.35            2.1538e-009     1.0199e-008     1.959e-010     
  3.4             2.2634e-009     1.0348e-008     3.82e-010      
  3.45            2.3389e-009     1.0675e-008     5.696e-010     
  3.5             1.5053e-009     2.3157e-008     -1.3068e-009   
  3.55            1.717e-010      1.1543e-008     -2.6778e-009   
  3.6             -1.315e-009     6.8e-010        -1.9138e-009   
  3.65            -2.2362e-009    -1.1357e-008    -6.223e-010    
  3.7             -2.237e-009     -1.1302e-008    -8.185e-010    
  3.75            -1.6025e-009    -1.6027e-008    2.0021e-009    
  3.8             1.8543e-009     -9.135e-009     1.567e-009     
  3.85            2.1418e-009     1.0189e-008     1.813e-010     
  3.9             2.2563e-009     1.0281e-008     3.692e-010     
  3.95            2.3342e-009     1.0675e-008     5.539e-010     
  4               1.4933e-009     2.3551e-008     -1.3112e-009   
  4.05            1.538e-010      1.1724e-008     -2.6878e-009   
  4.1             -1.3266e-009    6.65e-010       -1.9059e-009   
  4.15            -2.2313e-009    -1.1241e-008    -6.003e-010    
  4.2             -2.2366e-009    -1.1294e-008    -7.961e-010    
  4.25            -1.595e-009     -1.6439e-008    2.0281e-009    
  4.3             1.8761e-009     -8.994e-009     1.5491e-009    
  4.35            2.1366e-009     1.0211e-008     1.639e-010     
  4.4             2.247e-009      1.0246e-008     3.458e-010     
  4.45            2.3324e-009     1.0695e-008     5.368e-010     
  4.5             1.4783e-009     2.4031e-008     -1.3135e-009   
  4.55            1.415e-010      1.1422e-008     -2.6959e-009   
  4.6             -2.0454e-009    -1.0909e-008    -7.9e-011      
  4.65            -2.1497e-009    -1.0843e-008    -2.909e-010    
  4.7             -2.2136e-009    -1.1067e-008    -5.043e-010    
  4.75            -2.2386e-009    -1.1376e-008    -7.082e-010    
  4.8             -1.5582e-009    -1.8357e-008    1.242e-009     
  4.85            -2.024e-010     -1.3976e-008    2.8242e-009    
  4.9             2.1649e-009     1.0334e-008     1.978e-010     
  4.95            2.266e-009      1.0326e-008     3.902e-010     
  5               2.3391e-009     1.0754e-008     5.705e-010     
END_DB

BEGIN_DB
 ICCAP_VAR VG         1              
 ICCAP_VAR VS         0              
 ICCAP_VAR VB         0              

 #VD              ID              IB              IG             
  0               -2.8772e-008    -1.8029e-008    -5.155e-010    
  0.05            2.0365e-006     1.1316e-008     2.0666e-009    
  0.1             3.6305e-006     -1.4222e-008    1.5076e-009    
  0.15            4.8637e-006     -1.0952e-008    -7.434e-010    
  0.2             5.8005e-006     1.8972e-008     -1.8386e-009   
  0.25            6.4971e-006     1.0262e-008     3.441e-010     
  0.3             7.0094e-006     -1.5292e-008    2.4976e-009    
  0.35            7.4714e-006     -1.1728e-008    -4.1e-012      
  0.4             7.925e-006      1.1301e-008     -2.6258e-009   
  0.45            8.2714e-006     1.5163e-008     -1.4655e-009   
  0.5             8.5745e-006     1.0448e-008     7.13e-010      
  0.55            8.8422e-006     -1.9939e-008    1.9154e-009    
  0.6             9.1421e-006     -1.084e-008     -4.149e-010    
  0.65            9.4587e-006     1.4523e-008     -2.2529e-009   
  0.7             9.7097e-006     1.119e-008      5.75e-011      
  0.75            9.8908e-006     -1.0804e-008    2.7851e-009    
  0.8             1.0136e-005     -1.3373e-008    2.591e-010     
  0.85            1.04366e-005    1.0918e-008     -1.3079e-009   
  0.9             1.06545e-005    1.0843e-008     1.443e-010     
  0.95            1.0804e-005     -1.2535e-008    2.7224e-009    
  1               1.10144e-005    -1.2634e-008    1.806e-010     
  1.05            1.1299e-005     2.1e-010        -1.7484e-009   
  1.1             1.1457e-005     1.0717e-008     9.028e-010     
  1.15            1.1635e-005     -2.6144e-008    1.286e-009     
  1.2             1.1843e-005     -1.0901e-008    -4.99e-010     
  1.25            1.2081e-005     2.2353e-008     -1.5248e-009   
  1.3             1.2203e-005     1.0461e-008     1.0863e-009    
  1.35            1.2391e-005     -2.4501e-008    1.2502e-009    
  1.4             1.2593e-005     -1.0894e-008    -7.394e-010    
  1.45            1.2808e-005     2.5222e-008     -1.4034e-009   
  1.5             1.2963e-005     1.0576e-008     2.194e-010     
  1.55            1.3071e-005     -2.0077e-008    1.9024e-009    
  1.6             1.3285e-005     -1.133e-008     -9.395e-010    
  1.65            1.3474e-005     2.7589e-008     -1.3449e-009   
  1.7             1.3612e-005     1.0215e-008     4.384e-010     
  1.75            1.3713e-005     -2.1591e-008    1.5975e-009    
  1.8             1.3866e-005     -1.1877e-008    2.84e-011      
  1.85            1.4107e-005     1.5899e-008     -2.1295e-009   
  1.9             1.4229e-005     1.028e-008      6.436e-010     
  1.95            1.4328e-005     -2.4231e-008    1.3962e-009    
  2               1.4567e-005     -1.1474e-008    -1.3369e-009   
  2.05            1.4714e-005     1.1341e-008     -2.483e-009    
  2.1             1.485e-005      1.8816e-008     -1.7795e-009   
  2.15            1.5001e-005     2.5227e-008     -1.3783e-009   
  2.2             1.5138e-005     1.9029e-008     -1.7028e-009   
  2.25            1.5299e-005     2.5334e-008     -1.3621e-009   
  2.3             1.5429e-005     1.8922e-008     -1.6378e-009   
  2.35            1.558e-005      1.1898e-008     -2.2732e-009   
  2.4             1.5643e-005     7.137e-009      2.093e-009     
  2.45            1.5771e-005     -1.4726e-008    -1.723e-010    
  2.5             1.5973e-005     1.4611e-008     -1.8323e-009   
  2.55            1.6111e-005     6.467e-009      -2.4616e-009   
  2.6             1.6234e-005     1.2977e-008     -1.7519e-009   
  2.65            1.6376e-005     4.617e-009      -2.3953e-009   
  2.7             1.6498e-005     1.086e-008      -1.6852e-009   
  2.75            1.6587e-005     -2.089e-009     2.3984e-009    
  2.8             1.671e-005      -2.427e-008     -6.695e-010    
  2.85            1.6888e-005     -7.097e-009     -1.348e-009    
  2.9             1.6964e-005     -1.0539e-008    2.803e-009     
  2.95            1.7133e-005     -3.2473e-008    -1.1921e-009   
  3               1.7279e-005     1.981e-009      -1.3003e-009   
  3.05            1.7337e-005     -2.3774e-008    2.8978e-009    
  3.1             1.7546e-005     -4.4802e-008    -1.4996e-009   
  3.15            1.765e-005      -1.8603e-008    -1.6204e-009   
  3.2             1.7736e-005     -3.479e-008     2.4352e-009    
  3.25            1.7856e-005     -6.1003e-008    -7.267e-010    
  3.3             1.8032e-005     -3.2015e-008    -1.4081e-009   
  3.35            1.8119e-005     -5.6646e-008    2.6685e-009    
  3.4             1.8273e-005     -8.4861e-008    -1.0118e-009   
  3.45            1.8397e-005     -5.4985e-008    -1.3306e-009   
  3.5             1.8467e-005     -8.6979e-008    2.8548e-009    
  3.55            1.8628e-005     -1.051e-007     -1.6976e-009   
  3.6             1.8747e-005     -1.095e-007     2.3857e-009    
  3.65            1.8879e-005     -1.4456e-007    -6.453e-010    
  3.7             1.9068e-005     -1.252e-007     -1.4423e-009   
  3.75            1.9155e-005     -1.5931e-007    2.6025e-009    
  3.8             1.9324e-005     -1.9777e-007    -9.473e-010    
  3.85            1.9486e-005     -1.7918e-007    -1.343e-009    
  3.9             1.9578e-005     -2.2271e-007    2.8239e-009    
  3.95            1.9768e-005     -2.6702e-007    -1.2277e-009   
  4               1.9908e-005     -2.5628e-007    -1.2931e-009   
  4.05            2.0006e-005     -3.0762e-007    2.8926e-009    
  4.1             2.0231e-005     -3.5699e-007    -1.5317e-009   
  4.15            2.0362e-005     -3.6076e-007    -1.582e-009    
  4.2             2.0479e-005     -4.0782e-007    2.4548e-009    
  4.25            2.0655e-005     -4.6876e-007    -7.77e-010     
  4.3             2.0853e-005     -4.7438e-007    -1.3938e-009   
  4.35            2.0982e-005     -5.3763e-007    2.6923e-009    
  4.4             2.1182e-005     -6.079e-007     -1.0504e-009   
  4.45            2.1388e-005     -6.1999e-007    -1.3217e-009   
  4.5             2.1502e-005     -6.9859e-007    2.8678e-009    
  4.55            2.1768e-005     -7.7771e-007    -1.3373e-009   
  4.6             2.1932e-005     -8.0365e-007    -1.8109e-009   
  4.65            2.2083e-005     -8.8731e-007    2.33e-009      
  4.7             2.228e-005      -9.8169e-007    -5.56e-010     
  4.75            2.2552e-005     -1.02202e-006   -1.4882e-009   
  4.8             2.2714e-005     -1.11692e-006   2.5425e-009    
  4.85            2.2929e-005     -1.2195e-006    2.553e-009     
  4.9             2.3175e-005     -1.3079e-006    -9.004e-010    
  4.95            2.3441e-005     -1.3637e-006    -1.3544e-009   
  5               2.3624e-005     -1.4815e-006    2.7927e-009    
END_DB

BEGIN_DB
 ICCAP_VAR VG         2              
 ICCAP_VAR VS         0              
 ICCAP_VAR VB         0              

 #VD              ID              IB              IG             
  0               -9.6573e-008    -9.412e-009     -1.3604e-009   
  0.05            7.3481e-006     -1.1335e-008    -1.297e-009    
  0.1             1.4404e-005     1.028e-008      -1.5775e-009   
  0.15            2.1114e-005     1.1794e-008     -6.33e-011     
  0.2             2.7433e-005     -1.6517e-008    2.3828e-009    
  0.25            3.3331e-005     -1.0878e-008    -6.53e-010     
  0.3             3.8789e-005     2.418e-008      -1.4359e-009   
  0.35            4.3741e-005     1.083e-008      1.441e-010     
  0.4             4.8163e-005     -1.929e-008     2.0303e-009    
  0.45            5.2169e-005     -1.1288e-008    -8.787e-010    
  0.5             5.5702e-005     2.6785e-008     -1.3623e-009   
  0.55            5.8762e-005     1.0202e-008     3.601e-010     
  0.6             6.1368e-005     -2.1054e-008    1.6928e-009    
  0.65            6.3659e-005     -1.2064e-008    1.018e-010     
  0.7             6.572e-005      1.4667e-008     -2.2295e-009   
  0.75            6.7364e-005     9.87e-009       2.1193e-009    
  0.8             6.8824e-005     -1.1132e-008    -2.108e-010    
  0.85            7.0175e-005     1.941e-008      -1.7892e-009   
  0.9             7.1285e-005     1.3874e-008     -2.168e-010    
  0.95            7.2195e-005     -1.4153e-008    2.6065e-009    
  1               7.3123e-005     -1.0839e-008    -4.64e-010     
  1.05            7.3985e-005     2.2108e-008     -1.549e-009    
  1.1             7.4638e-005     1.0561e-008     1.0643e-009    
  1.15            7.5303e-005     -2.5041e-008    1.2565e-009    
  1.2             7.5991e-005     -1.0948e-008    -7.049e-010    
  1.25            7.6626e-005     2.4806e-008     -1.4176e-009   
  1.3             7.7151e-005     1.067e-008      1.827e-010     
  1.35            7.7568e-005     -1.976e-008     1.9598e-009    
  1.4             7.8141e-005     -1.1379e-008    -9.131e-010    
  1.45            7.8638e-005     2.7288e-008     -1.3523e-009   
  1.5             7.9062e-005     1.023e-008      4.023e-010     
  1.55            7.9406e-005     -2.1328e-008    1.635e-009     
  1.6             7.9807e-005     -1.1936e-008    5.51e-011      
  1.65            8.0313e-005     1.5353e-008     -2.1712e-009   
  1.7             8.0632e-005     1.0347e-008     6.199e-010     
  1.75            8.0946e-005     -2.3744e-008    1.4176e-009    
  1.8             8.1422e-005     -1.1145e-008    -1.2978e-009   
  1.85            8.1746e-005     1.1545e-008     -2.5122e-009   
  1.9             8.2066e-005     1.023e-008      3.269e-010     
  1.95            8.2281e-005     -2.0883e-008    1.7269e-009    
  2               8.2696e-005     -1.1432e-008    -1.0349e-009   
  2.05            8.3024e-005     2.7683e-008     -1.3248e-009   
  2.1             8.3274e-005     1.0008e-008     5.457e-010     
  2.15            8.348e-005      -2.3312e-008    1.474e-009     
  2.2             8.3865e-005     -1.1784e-008    -1.2377e-009   
  2.25            8.4146e-005     1.0361e-008     -2.5737e-009   
  2.3             8.4404e-005     1.6777e-008     -1.9128e-009   
  2.35            8.4666e-005     2.3184e-008     -1.412e-009    
  2.4             8.4927e-005     1.6818e-008     -1.8341e-009   
  2.45            8.5183e-005     8.981e-009      -2.4672e-009   
  2.5             8.5414e-005     1.594e-008      -1.7516e-009   
  2.55            8.5669e-005     7.736e-009      -2.3998e-009   
  2.6             8.5902e-005     1.4236e-008     -1.6824e-009   
  2.65            8.614e-005      5.75e-009       -2.3287e-009   
  2.7             8.6372e-005     1.747e-009      -2.7071e-009   
  2.75            8.6589e-005     2.439e-009      -2.2491e-009   
  2.8             8.6757e-005     -1.928e-008     -2.7533e-009   
  2.85            8.7043e-005     -6.033e-009     -2.4759e-009   
  2.9             8.7119e-005     -1.0527e-008    1.9377e-009    
  2.95            8.7349e-005     -3.7612e-008    1.9e-012       
  3               8.766e-005      -2.8519e-008    -1.7173e-009   
  3.05            8.7826e-005     -2.7505e-008    2.3694e-009    
  3.1             8.8045e-005     -5.4483e-008    -6.202e-010    
  3.15            8.8317e-005     -2.7509e-008    -1.4509e-009   
  3.2             8.8441e-005     -5.2361e-008    2.5914e-009    
  3.25            8.8688e-005     -8.1461e-008    -9.288e-010    
  3.3             8.8938e-005     -5.3824e-008    -1.3484e-009   
  3.35            8.9067e-005     -8.6622e-008    2.8128e-009    
  3.4             8.9294e-005     -1.0865e-007    -1.5401e-009   
  3.45            8.9506e-005     -1.1597e-007    2.4847e-009    
  3.5             8.9724e-005     -1.5431e-007    -8.09e-010     
  3.55            8.9992e-005     -1.3754e-007    -1.382e-009    
  3.6             9.0115e-005     -1.7777e-007    2.7279e-009    
  3.65            9.0377e-005     -2.2338e-007    -1.0852e-009   
  3.7             9.0615e-005     -2.1303e-007    -1.3167e-009   
  3.75            9.0764e-005     -2.6673e-007    2.8808e-009    
  3.8             9.1093e-005     -3.1946e-007    -1.3752e-009   
  3.85            9.1307e-005     -3.2487e-007    -1.7583e-009   
  3.9             9.1453e-005     -3.816e-007     2.3565e-009    
  3.95            9.1709e-005     -4.5055e-007    -5.93e-010     
  4               9.2009e-005     -4.6937e-007    -1.4659e-009   
  4.05            9.2222e-005     -5.4402e-007    2.5721e-009    
  4.1             9.2497e-005     -6.2833e-007    -9.101e-010    
  4.15            9.2801e-005     -6.6072e-007    -1.3513e-009   
