! VERSION = 6.00
BEGIN_HEADER
 ICCAP_INPUTS
  VG         V  B GROUND SMU4 0.001 LIN        2    0          5          6    1         
  VS         V  E GROUND SMU2 0.1 CON        0
  VD         V  S GROUND SMU1 0.1 LIN        1    0          5          101  0.05      
  VB         V  C GROUND SMU3 0.1 LIN        3    0          -2.5       2    -2.5      
 ICCAP_OUTPUTS
  ID         I  S GROUND SMU1 B
  IB         I  C GROUND SMU3 B
  IG         I  B GROUND SMU4 B
END_HEADER

BEGIN_DB
 ICCAP_VAR VG         0              
 ICCAP_VAR VS         0              
 ICCAP_VAR VB         0              

 #VD              ID              IB              IG             
  0               7.447e-010      2.7092e-008     6.743e-010     
  0.05            -1.6153e-009    -1.437e-008     1.8561e-009    
  0.1             1.7238e-009     -9.084e-009     1.6423e-009    
  0.15            1.4871e-009     1.0155e-008     1.8355e-009    
  0.2             2.2651e-009     1.0989e-008     4.627e-010     
  0.25            1.4266e-009     2.4248e-008     -1.3451e-009   
  0.3             9.16e-011       1.172e-008      -2.7001e-009   
  0.35            -2.0052e-009    -1.1325e-008    -2.58e-011     
  0.4             -2.1076e-009    -1.1705e-008    -2.377e-010    
  0.45            -2.1683e-009    -1.1579e-008    -4.633e-010    
  0.5             -1.4184e-009    -2.1918e-008    1.29e-009      
  0.55            -4.1e-012       -1.1101e-008    2.8639e-009    
  0.6             1.5166e-009     -4.06e-010      1.8328e-009    
  0.65            2.2699e-009     1.0935e-008     4.571e-010     
  0.7             1.4233e-009     2.4493e-008     -1.3448e-009   
  0.75            1.014e-010      1.1586e-008     -2.7031e-009   
  0.8             -1.991e-009     -1.1299e-008    -1.51e-011     
  0.85            -2.0943e-009    -1.1692e-008    -2.291e-010    
  0.9             -2.1577e-009    -1.1585e-008    -4.541e-010    
  0.95            -1.3988e-009    -2.2055e-008    1.2916e-009    
  1               1.74e-011       -1.1266e-008    2.864e-009     
  1.05            1.5373e-009     -2.72e-010      1.8259e-009    
  1.1             2.2816e-009     1.0929e-008     4.478e-010     
  1.15            1.4454e-009     2.4576e-008     -1.3479e-009   
  1.2             1.166e-010      1.1605e-008     -2.7037e-009   
  1.25            -1.9573e-009    -1.1299e-008    -5.1e-012      
  1.3             -2.0537e-009    -1.1655e-008    -2.246e-010    
  1.35            -2.1148e-009    -1.159e-008     -4.493e-010    
  1.4             -1.3518e-009    -2.2102e-008    1.2947e-009    
  1.45            6.82e-011       -1.0988e-008    2.8653e-009    
  1.5             1.5937e-009     -3.16e-010      1.8188e-009    
  1.55            2.3391e-009     1.0999e-008     4.387e-010     
  1.6             1.5035e-009     2.4681e-008     -1.3479e-009   
  1.65            1.812e-010      1.1889e-008     -2.7031e-009   
  1.7             -1.8662e-009    -1.1389e-008    0              
  1.75            -1.8672e-009    -1.1771e-008    -2.231e-010    
  1.8             -1.9045e-009    -1.1516e-008    -4.452e-010    
  1.85            -1.2238e-009    -2.2089e-008    1.2946e-009    
  1.9             1.3424e-009     -1.0874e-008    2.2903e-009    
  1.95            2.1807e-009     1.1133e-008     -1.213e-010    
  2               2.2935e-009     1.0846e-008     5.06e-011      
  2.05            2.416e-009      1.1202e-008     2.48e-010      
  2.1             2.5342e-009     1.0911e-008     4.5e-010       
  2.15            1.8403e-009     2.4517e-008     -1.3482e-009   
  2.2             4.701e-010      1.1582e-008     -2.6995e-009   
  2.25            1.417e-009      -1.1317e-008    2.7733e-009    
  2.3             1.5326e-009     2.6937e-008     -1.4578e-009   
  2.35            2.853e-010      1.0402e-008     -1.3891e-009   
  2.4             4.725e-010      1.1643e-008     -1.3483e-009   
  2.45            6.702e-010      1.1524e-008     -2.7054e-009   
  2.5             -1.3304e-009    -1.1358e-008    1.19e-011      
  2.55            -1.3606e-009    -1.174e-008     -2.068e-010    
  2.6             -2.36e-010      -1.1605e-008    1.5168e-009    
  2.65            1.905e-009      -8.62e-009      2.7323e-009    
  2.7             2.0391e-009     2.6562e-008     -1.4904e-009   
  2.75            8.344e-010      9.836e-009      -1.4076e-009   
  2.8             1.3058e-009     1.1519e-008     -1.3614e-009   
  2.85            1.3753e-009     1.147e-008      -1.3257e-009   
  2.9             1.6572e-009     1.2433e-008     -2.663e-009    
  2.95            8.018e-010      4.1e-010        -2.5181e-009   
  3               1.0528e-009     1.239e-009      -2.3023e-009   
  3.05            1.3373e-009     2.466e-009      -2.0408e-009   
  3.1             1.6412e-009     3.891e-009      -1.783e-009    
  3.15            1.968e-009      5.941e-009      -1.5823e-009   
  3.2             2.3423e-009     8.224e-009      -1.4639e-009   
  3.25            2.7433e-009     1.0075e-008     -1.3968e-009   
  3.3             3.2214e-009     1.1579e-008     -1.3548e-009   
  3.35            3.6846e-009     1.1652e-008     -2.7061e-009   
  3.4             1.8007e-009     -1.0868e-008    -1.031e-009    
  3.45            3.3604e-009     -2.4767e-008    1.6099e-009    
  3.5             5.1113e-009     -8.817e-009     1.4269e-009    
  3.55            5.4597e-009     -8.896e-009     1.3336e-009    
  3.6             5.8588e-009     -9.056e-009     1.2843e-009    
  3.65            6.3304e-009     -1.2081e-008    2.8595e-009    
  3.7             9.2245e-009     1.0322e-008     9.999e-010     
  3.75            2.4577e-008     -1.1162e-008    -1.9252e-009   
  3.8             1.079e-008      2.4808e-008     1.9885e-009    
  3.85            1.0321e-008     -2.287e-008     2.764e-009     
  3.9             1.1042e-008     -1.9979e-008    2.6188e-009    
  3.95            3.8885e-008     -1.6606e-008    2.4227e-009    
  4               9.567e-009      -1.1448e-008    -1.3009e-009   
  4.05            1.4165e-008     1.7265e-008     -1.5672e-009   
  4.1             1.6198e-008     7.189e-009      2.4684e-009    
  4.15            1.5581e-008     -1.3224e-008    1.419e-010     
  4.2             1.742e-008      8.073e-009      -1.3722e-009   
  4.25            2.2405e-008     1.0008e-008     6.761e-010     
  4.3             2.295e-008      -1.5837e-008    2.5293e-009    
  4.35            2.1509e-008     -1.2134e-008    -1.2332e-009   
  4.4             2.7199e-008     1.8523e-008     -1.6282e-009   
  4.45            2.978e-008      1.3542e-008     -2.0589e-009   
  4.5             3.3123e-008     2.3251e-008     -1.4362e-009   
  4.55            3.6855e-008     7.164e-009      2.0161e-009    
  4.6             3.7923e-008     -2.4897e-008    2.0994e-009    
  4.65            3.9805e-008     -1.487e-008     -1.5219e-009   
  4.7             4.6e-008        5.147e-009      -1.3699e-009   
  4.75            5.1304e-008     7.306e-009      -2.5979e-009   
  4.8             5.7016e-008     1.3617e-008     -1.7883e-009   
  4.85            6.2115e-008     8.267e-009      -2.2589e-009   
  4.9             6.7489e-008     5.385e-009      -2.6139e-009   
  4.95            7.47e-008       1.0818e-008     -1.8254e-009   
  5               8.14e-008       5.455e-009      -2.2913e-009   
END_DB

BEGIN_DB
 ICCAP_VAR VG         1              
 ICCAP_VAR VS         0              
 ICCAP_VAR VB         0              

 #VD              ID              IB              IG             
  0               -5.5662e-008    -1.0913e-008    -2.977e-010    
  0.05            3.4845e-006     1.1839e-008     2.1018e-009    
  0.1             6.5608e-006     -1.3484e-008    2.881e-010     
  0.15            9.2466e-006     1.0581e-008     -1.3292e-009   
  0.2             1.1463e-005     1.0843e-008     -1.9735e-009   
  0.25            1.329e-005      1.0669e-008     1.311e-010     
  0.3             1.4711e-005     -1.86e-008      1.995e-009     
  0.35            1.5878e-005     -1.3472e-008    2.796e-010     
  0.4             1.6946e-005     1.2656e-008     -2.4668e-009   
  0.45            1.7774e-005     1.0736e-008     3.711e-010     
  0.5             1.845e-005      -2.012e-008     1.6505e-009    
  0.55            1.919e-005      -1.1115e-008    -1.0812e-009   
  0.6             1.9804e-005     2.7797e-008     -1.3337e-009   
  0.65            2.0339e-005     1.1089e-008     6.116e-010     
  0.7             2.0796e-005     -2.3603e-008    1.4271e-009    
  0.75            2.1342e-005     -1.1312e-008    -1.246e-010    
  0.8             2.1892e-005     1.7925e-008     -1.8648e-009   
  0.85            2.2358e-005     2.5238e-008     -1.4129e-009   
  0.9             2.2787e-005     1.0654e-008     2.11e-010      
  0.95            2.3145e-005     -1.9144e-008    1.8732e-009    
  1               2.3566e-005     -1.2842e-008    2.225e-010     
  1.05            2.4103e-005     1.3418e-008     -2.3763e-009   
  1.1             2.4393e-005     1.0252e-008     2.0054e-009    
  1.15            2.48e-005       -1.1418e-008    -5.52e-011     
  1.2             2.5237e-005     1.718e-008      -1.9495e-009   
  1.25            2.558e-005      1.1198e-008     7.71e-010      
  1.3             2.5875e-005     -2.524e-008     1.3416e-009    
  1.35            2.625e-005      -1.1208e-008    -3.199e-010    
  1.4             2.668e-005      1.9586e-008     -1.6602e-009   
  1.45            2.7006e-005     2.7158e-008     -1.3697e-009   
  1.5             2.7322e-005     1.0871e-008     3.921e-010     
  1.55            2.758e-005      -2.0421e-008    1.6306e-009    
  1.6             2.797e-005      -1.1027e-008    -1.0965e-009   
  1.65            2.8314e-005     2.7557e-008     -1.3325e-009   
  1.7             2.8561e-005     1.1048e-008     6.281e-010     
  1.75            2.879e-005      -2.3997e-008    1.4171e-009    
  1.8             2.9126e-005     -1.1486e-008    -1.388e-010    
  1.85            2.9503e-005     1.7817e-008     -1.8366e-009   
  1.9             2.9809e-005     2.5003e-008     -1.4084e-009   
  1.95            3.007e-005      1.0071e-008     2.295e-010     
  2               3.0278e-005     -1.9841e-008    1.8367e-009    
  2.05            3.0531e-005     -1.3799e-008    2.068e-010     
  2.1             3.094e-005      1.2251e-008     -2.3493e-009   
  2.15            3.1116e-005     8.392e-009      2.0279e-009    
  2.2             3.1386e-005     -1.4056e-008    -8.14e-011     
  2.25            3.1739e-005     1.4025e-008     -1.9179e-009   
  2.3             3.2022e-005     7.743e-009      -2.5176e-009   
  2.35            3.2274e-005     1.2798e-008     -1.8165e-009   
  2.4             3.2544e-005     5.871e-009      -2.453e-009    
  2.45            3.2781e-005     1.0293e-008     -1.741e-009    
  2.5             3.3042e-005     2.816e-009      -2.3776e-009   
  2.55            3.3259e-005     -1.9049e-008    -2.7191e-009   
  2.6             3.3559e-005     -4.101e-009     -2.5639e-009   
  2.65            3.3692e-005     -8.509e-009     1.8345e-009    
  2.7             3.3948e-005     -3.4778e-008    1.128e-010     
  2.75            3.429e-005      -2.4902e-008    -1.8313e-009   
  2.8             3.4495e-005     -2.1612e-008    2.3034e-009    
  2.85            3.4735e-005     -4.9231e-008    -5.137e-010    
  2.9             3.5055e-005     -2.1872e-008    -1.5193e-009   
  2.95            3.5243e-005     -4.306e-008     2.5064e-009    
  3               3.5504e-005     -7.1455e-008    -8.512e-010    
  3.05            3.5803e-005     -4.2472e-008    -1.388e-009    
  3.1             3.5985e-005     -7.0935e-008    2.7257e-009    
  3.15            3.6194e-005     -1.02396e-007   1.323e-009     
  3.2             3.6491e-005     -9.389e-008     2e-011         
  3.25            3.6719e-005     -1.4053e-007    1.9278e-009    
  3.3             3.7008e-005     -1.471e-007     -2.2247e-009   
  3.35            3.7288e-005     -1.4457e-007    5.117e-010     
  3.4             3.7458e-005     -1.9918e-007    1.5122e-009    
  3.45            3.7787e-005     -2.0845e-007    -2.5052e-009   
  3.5             3.8044e-005     -2.1448e-007    8.2e-010       
  3.55            3.8268e-005     -2.8016e-007    1.3299e-009    
  3.6             3.8602e-005     -2.9346e-007    -2.6718e-009   
  3.65            3.8821e-005     -3.1012e-007    1.0847e-009    
  3.7             3.9121e-005     -3.8237e-007    2.2103e-009    
  3.75            3.9461e-005     -4.1042e-007    -2.0838e-009   
  3.8             3.9784e-005     -4.3477e-007    3.139e-010     
  3.85            3.9994e-005     -5.1543e-007    1.7112e-009    
  3.9             4.0366e-005     -5.6017e-007    -2.3475e-009   
  3.95            4.069e-005      -5.9778e-007    6.511e-010     
  4               4.0961e-005     -6.9825e-007    1.4089e-009    
  4.05            4.1352e-005     -7.5123e-007    -2.5932e-009   
  4.1             4.168e-005      -8.0692e-007    9.344e-010     
  4.15            4.2018e-005     -9.2582e-007    1.2966e-009    
  4.2             4.2446e-005     -9.9343e-007    -2.7126e-009   
  4.25            4.274e-005      -1.06971e-006   1.2086e-009    
  4.3             4.3231e-005     -1.1576e-006    -1.7127e-009   
  4.35            4.3582e-005     -1.2714e-006    2.3679e-009    
  4.4             4.4005e-005     -1.4115e-006    -6.321e-010    
  4.45            4.4515e-005     -1.4983e-006    -1.462e-009    
  4.5             4.4902e-005     -1.6475e-006    2.5705e-009    
  4.55            4.5421e-005     -1.8065e-006    -9.372e-010    
  4.6             4.5953e-005     -1.9144e-006    -1.3679e-009   
  4.65            4.6365e-005     -2.0907e-006    2.776e-009     
  4.7             4.6983e-005     -2.2816e-006    -1.217e-009    
  4.75            4.754e-005      -2.4199e-006    -1.938e-009    
  4.8             4.8035e-005     -2.6262e-006    2.2507e-009    
  4.85            4.8638e-005     -2.8497e-006    -4.249e-010    
  4.9             4.9331e-005     -3.0273e-006    -1.5783e-009   
  4.95            4.9895e-005     -3.2602e-006    2.4505e-009    
  5               5.0621e-005     -3.5232e-006    -7.863e-010    
END_DB

BEGIN_DB
 ICCAP_VAR VG         2              
 ICCAP_VAR VS         0              
 ICCAP_VAR VB         0              

 #VD              ID              IB              IG             
  0               -1.3157e-007    -1.242e-008     1.1701e-009    
  0.05            8.525e-006      -8.872e-009     -1.6992e-009   
  0.1             1.6785e-005     2.0451e-008     -9.634e-010    
  0.15            2.473e-005      2.766e-008      -1.3628e-009   
  0.2             3.229e-005      1.1062e-008     4.683e-010     
  0.25            3.9358e-005     -2.2207e-008    1.5629e-009    
  0.3             4.5995e-005     -1.21e-008      1.25e-011      
  0.35            5.2137e-005     1.5964e-008     -2.0414e-009   
  0.4             5.7699e-005     1.0949e-008     6.974e-010     
  0.45            6.2702e-005     -2.5108e-008    1.3935e-009    
  0.5             6.7253e-005     -1.124e-008     -1.3728e-009   
  0.55            7.1256e-005     1.2775e-008     -2.4085e-009   
  0.6             7.4776e-005     1.0988e-008     4.004e-010     
  0.65            7.7821e-005     -2.1159e-008    1.6243e-009    
  0.7             8.0515e-005     -1.2422e-008    6.89e-011      
  0.75            8.3023e-005     1.4956e-008     -2.1213e-009   
  0.8             8.5008e-005     1.0966e-008     6.401e-010     
  0.85            8.6788e-005     -2.4544e-008    1.4302e-009    
  0.9             8.852e-005      -1.0992e-008    -1.3101e-009   
  0.95            9.0014e-005     1.2363e-008     -2.4782e-009   
  1               9.1233e-005     1.0858e-008     3.308e-010     
  1.05            9.2345e-005     -2.0266e-008    1.7054e-009    
  1.1             9.3495e-005     -1.2531e-008    1.17e-010      
  1.15            9.463e-005      1.4236e-008     -2.2021e-009   
  1.2             9.5467e-005     1.1127e-008     5.702e-010     
  1.25            9.6342e-005     -2.3872e-008    1.4768e-009    
  1.3             9.7311e-005     -1.088e-008     -1.2518e-009   
  1.35            9.8101e-005     1.1771e-008     -2.5386e-009   
  1.4             9.8834e-005     1.0664e-008     2.735e-010     
  1.45            9.9455e-005     -1.953e-008     1.7861e-009    
  1.5             0.000100143     -1.2704e-008    1.688e-010     
  1.55            0.000100901     1.3755e-008     -2.2907e-009   
  1.6             0.000101465     1.0111e-008     2.0684e-009    
  1.65            0.000102051     -1.1498e-008    -1.175e-010    
  1.7             0.000102713     1.8021e-008     -1.8628e-009   
  1.75            0.000103255     2.5503e-008     -1.4289e-009   
  1.8             0.000103715     1.0495e-008     1.2836e-009    
  1.85            0.000104291     -1.9206e-008    1.8859e-009    
  1.9             0.000104716     -2.5595e-008    1.3631e-009    
  1.95            0.000105381     -1.1466e-008    -3.045e-010    
  2               0.00010602      1.937e-008      -1.6815e-009   
  2.05            0.000106483     2.6416e-008     -1.3861e-009   
  2.1             0.000106922     1.0266e-008     3.719e-010     
  2.15            0.000107295     -2.1674e-008    1.6645e-009    
  2.2             0.000107851     -1.2443e-008    -1.0771e-009   
  2.25            0.000108293     9.751e-009      -2.6752e-009   
  2.3             0.000108704     8.824e-009      7.93e-011      
  2.35            0.000108999     -2.1509e-008    2.081e-009     
  2.4             0.000109478     -1.5875e-008    -8.372e-010    
  2.45            0.000109928     4.457e-009      -1.3417e-009   
  2.5             0.000110316     4.313e-009      -2.596e-009    
  2.55            0.000110698     7.469e-009      -1.9486e-009   
  2.6             0.000111101     9e-012          -2.5457e-009   
  2.65            0.000111404     -2.2109e-008    -2.7063e-009   
  2.7             0.000111792     -2.1996e-008    -2.7123e-009   
  2.75            0.000112027     -1.0802e-008    1.5374e-009    
  2.8             0.000112414     -4.2068e-008    1.5639e-009    
  2.85            0.00011287      -4.1388e-008    -2.4863e-009   
  2.9             0.000113196     -2.9159e-008    7.872e-010     
  2.95            0.00011363      -7.3386e-008    -3.099e-010    
  3               0.00011399      -4.378e-008     -1.684e-010    
  3.05            0.00011426      -8.3583e-008    2.3243e-009    
  3.1             0.00011466      -8.8917e-008    -2.1287e-009   
  3.15            0.00011502      -8.1815e-008    5.074e-010     
  3.2             0.00011529      -1.2086e-007    2.3571e-009    
  3.25            0.0001157       -1.3567e-007    -2.1047e-009   
  3.3             0.00011605      -1.3473e-007    4.711e-010     
  3.35            0.00011633      -1.9237e-007    1.4506e-009    
  3.4             0.00011676      -2.0112e-007    -2.6463e-009   
  3.45            0.00011703      -2.1158e-007    1.1074e-009    
  3.5             0.0001174       -2.741e-007     1.9849e-009    
  3.55            0.00011779      -2.9916e-007    -2.3119e-009   
  3.6             0.00011816      -3.1807e-007    7.334e-010     
  3.65            0.00011848      -3.9927e-007    1.3279e-009    
  3.7             0.00011892      -4.2907e-007    -2.7289e-009   
  3.75            0.00011921      -4.6706e-007    1.3474e-009    
  3.8             0.00011963      -5.542e-007     1.6249e-009    
  3.85            0.0001201       -6.1436e-007    -2.533e-009    
  3.9             0.00012048      -6.6949e-007    9.491e-010     
  3.95            0.00012088      -7.8789e-007    1.2739e-009    
  4               0.00012137      -8.5623e-007    -2.7243e-009   
  4.05            0.00012172      -9.4131e-007    1.6016e-009    
  4.1             0.00012223      -1.07404e-006   1.999e-010     
  4.15            0.0001227       -1.1894e-006    2.7627e-009    
