! VERSION = 6.00
BEGIN_HEADER
 ICCAP_INPUTS
  VG         V  B GROUND SMU4 0.001 LIN        2    0          5          6    1         
  VS         V  E GROUND SMU2 0.1 CON        0
  VD         V  S GROUND SMU1 0.1 LIN        1    0          5          101  0.05      
  VB         V  C GROUND SMU3 0.1 LIN        3    0          -2.5       2    -2.5      
 ICCAP_OUTPUTS
  ID         I  S GROUND SMU1 B
  IB         I  C GROUND SMU3 B
  IG         I  B GROUND SMU4 B
END_HEADER

BEGIN_DB
 ICCAP_VAR VG         0              
 ICCAP_VAR VS         0              
 ICCAP_VAR VB         0              

 #VD              ID              IB              IG             
  0               1.1334e-009     1.2754e-008     1.2077e-009    
  0.05            -6.303e-010     -1.8742e-008    2.5099e-009    
  0.1             2.2249e-009     -4.95e-009      1.2967e-009    
  0.15            1.2238e-009     2.9172e-008     -1.3737e-009   
  0.2             -2.1656e-009    1.0092e-008     -1.2332e-009   
  0.25            -1.8655e-009    -9.939e-009     2.814e-010     
  0.3             -9.129e-010     -2.0153e-008    1.8205e-009    
  0.35            1.7654e-009     -9.374e-009     1.6898e-009    
  0.4             1.468e-009      1.0407e-008     1.8466e-009    
  0.45            2.2984e-009     1.2859e-008     4.494e-010     
  0.5             2.3267e-009     1.1785e-008     6.347e-010     
  0.55            1.5379e-009     2.3207e-008     -1.3768e-009   
  0.6             1.571e-010      1.3785e-008     -2.6795e-009   
  0.65            -2.161e-009     -1.2557e-008    -9.98e-011     
  0.7             -2.231e-009     -1.3164e-008    -3.19e-010     
  0.75            -2.2458e-009    -1.3089e-008    -5.355e-010    
  0.8             -2.2393e-009    -1.2045e-008    -7.302e-010    
  0.85            -1.5944e-009    -1.9135e-008    1.319e-009     
  0.9             -1.928e-010     -1.5702e-008    2.8568e-009    
  0.95            1.5469e-009     2.2721e-008     -1.3777e-009   
  1               1.74e-010       1.4066e-008     -2.675e-009    
  1.05            -1.5683e-009    -2.0476e-008    2.3387e-009    
  1.1             2.1289e-009     -6.919e-009     1.4102e-009    
  1.15            1.3157e-009     2.9559e-008     -1.376e-009    
  1.2             -2.1062e-009    1.1337e-008     -1.3364e-009   
  1.25            -1.9532e-009    -1.0704e-008    -1.5113e-009   
  1.3             -1.3969e-009    -2.6616e-008    1.3218e-009    
  1.35            7.01e-011       -9.598e-009     2.862e-009     
  1.4             1.3136e-009     2.9558e-008     -1.3747e-009   
  1.45            -2.1064e-009    1.1454e-008     -1.3363e-009   
  1.5             -1.9468e-009    -1.0725e-008    -1.5096e-009   
  1.55            -1.3962e-009    -2.6552e-008    1.3229e-009    
  1.6             6.71e-011       -9.435e-009     2.8606e-009    
  1.65            1.7283e-009     -2e-011         1.7095e-009    
  1.7             1.4378e-009     1.0327e-008     1.8717e-009    
  1.75            2.3026e-009     1.2625e-008     4.84e-010      
  1.8             2.3245e-009     1.1811e-008     6.636e-010     
  1.85            2.3435e-009     1.0155e-008     8.227e-010     
  1.9             1.6842e-009     1.5767e-008     -1.8088e-009   
  1.95            -1.7223e-009    5.736e-009      -1.6936e-009   
  2               -2.1945e-009    -1.2939e-008    -2.023e-010    
  2.05            -2.2361e-009    -1.3172e-008    -4.21e-010     
  2.1             -2.2385e-009    -1.2705e-008    -6.218e-010    
  2.15            -2.2294e-009    -1.1127e-008    -8.078e-010    
  2.2             -1.6283e-009    -1.6117e-008    2.0897e-009    
  2.25            1.9652e-009     -8.07e-009      1.533e-009     
  2.3             1.4121e-009     2.7739e-008     -1.3855e-009   
  2.35            2.27e-011       1.2812e-008     -2.7147e-009   
  2.4             -1.4545e-009    -2.4938e-008    1.3312e-009    
  2.45            -1e-013         -1.1433e-008    2.8811e-009    
  2.5             1.3769e-009     2.8274e-008     -1.3851e-009   
  2.55            -1.22e-011      1.256e-008      -1.3795e-009   
  2.6             1.355e-010      1.3446e-008     -2.705e-009    
  2.65            -2.131e-009     -1.2405e-008    -7.21e-011     
  2.7             -2.2108e-009    -1.2881e-008    -2.855e-010    
  2.75            -2.236e-009     -1.2772e-008    -4.915e-010    
  2.8             -2.2401e-009    -1.2035e-008    -6.883e-010    
  2.85            -1.5738e-009    -1.9325e-008    1.3232e-009    
  2.9             -1.589e-010     -1.4673e-008    2.8787e-009    
  2.95            2.1693e-009     1.2076e-008     1.231e-010     
  3               2.2422e-009     1.2389e-008     3.126e-010     
  3.05            2.2962e-009     1.2248e-008     4.871e-010     
  3.1             1.4273e-009     2.6759e-008     -1.3878e-009   
  3.15            4.32e-011       1.2911e-008     -2.7232e-009   
  3.2             -1.4641e-009    -2.4127e-008    1.3318e-009    
  3.25            -9.4e-012       -1.1575e-008    2.8915e-009    
  3.3             1.3903e-009     2.7723e-008     -1.3868e-009   
  3.35            2.8e-012        1.2656e-008     -2.7238e-009   
  3.4             -1.4261e-009    -2.5097e-008    1.33e-009      
  3.45            2.47e-011       -1.0595e-008    2.8864e-009    
  3.5             1.3507e-009     2.8298e-008     -1.3853e-009   
  3.55            -4.13e-011      1.2656e-008     -1.3811e-009   
  3.6             1.06e-010       1.3365e-008     -2.7099e-009   
  3.65            -1.5141e-009    -2.2252e-008    2.431e-009     
  3.7             2.1789e-009     -5.363e-009     1.3236e-009    
  3.75            1.2433e-009     2.884e-008      -1.3867e-009   
  3.8             -2.1549e-009    1.1225e-008     -1.252e-009    
  3.85            -1.8918e-009    -1.0587e-008    2.602e-010     
  3.9             -9.299e-010     -2.1344e-008    1.7735e-009    
  3.95            1.7198e-009     -9.149e-009     1.6964e-009    
  4               1.4453e-009     9.812e-009      1.8605e-009    
  4.05            2.292e-009      1.2153e-008     4.688e-010     
  4.1             2.3309e-009     1.1308e-008     6.458e-010     
  4.15            2.3563e-009     9.979e-009      8.04e-010      
  4.2             1.6736e-009     1.6478e-008     -1.8277e-009   
  4.25            -1.7319e-009    5.413e-009      -1.6676e-009   
  4.3             -2.1758e-009    -1.275e-008     -1.78e-010     
  4.35            -2.2242e-009    -1.2827e-008    -3.811e-010    
  4.4             -2.2405e-009    -1.2647e-008    -5.897e-010    
  4.45            -2.2436e-009    -1.1857e-008    -7.821e-010    
  4.5             -2.2338e-009    -1.0526e-008    -9.303e-010    
  4.55            -1.689e-009     -1.3163e-008    1.8339e-009    
  4.6             1.7621e-009     -9.206e-009     1.6673e-009    
  4.65            1.4901e-009     1.044e-008      1.83e-009      
  4.7             2.2832e-009     1.2194e-008     4.382e-010     
  4.75            2.3251e-009     1.1978e-008     6.117e-010     
  4.8             2.3548e-009     1.0664e-008     7.785e-010     
  4.85            1.6493e-009     1.7522e-008     -1.8733e-009   
  4.9             -1.7722e-009    5.203e-009      -1.634e-009    
  4.95            -1.4925e-009    -2.324e-008     2.49e-009      
  5               2.2143e-009     -4.686e-009     1.2838e-009    
END_DB

BEGIN_DB
 ICCAP_VAR VG         1              
 ICCAP_VAR VS         0              
 ICCAP_VAR VB         0              

 #VD              ID              IB              IG             
  0               -1.2773e-007    2.895e-008      -1.3882e-009   
  0.05            8.9109e-006     -1.1164e-008    -2.7019e-009   
  0.1             1.4373e-005     9.867e-009      -2.7124e-009   
  0.15            1.7316e-005     9.801e-009      1.5998e-009    
  0.2             1.9439e-005     -1.2421e-008    1.4821e-009    
  0.25            2.0851e-005     -2.6886e-008    2.4615e-009    
  0.3             2.197e-005      -1.3072e-008    -6.482e-010    
  0.35            2.3012e-005     7.086e-009      -1.3886e-009   
  0.4             2.382e-005      2.3988e-008     -1.7867e-009   
  0.45            2.434e-005      1.1782e-008     8.844e-010     
  0.5             2.4891e-005     -2.667e-008     1.3371e-009    
  0.55            2.59e-005       -9.948e-009     -1.5589e-009   
  0.6             2.638e-005      1.7134e-008     -1.5546e-009   
  0.65            2.6664e-005     1.0206e-008     1.0496e-009    
  0.7             2.7198e-005     -2.6637e-008    2.4306e-009    
  0.75            2.7824e-005     -1.2995e-008    -6.669e-010    
  0.8             2.8502e-005     7.439e-009      -1.3897e-009   
  0.85            2.908e-005      2.3499e-008     -1.7638e-009   
  0.9             2.9317e-005     1.1657e-008     8.97e-010      
  0.95            2.9683e-005     -2.6776e-008    1.3363e-009    
  1               3.0576e-005     -1.0077e-008    -1.5747e-009   
  1.05            3.0969e-005     1.6436e-008     -1.5401e-009   
  1.1             3.1083e-005     1.007e-008      1.064e-009     
  1.15            3.1561e-005     -2.6426e-008    2.3946e-009    
  1.2             3.2103e-005     -1.2975e-008    -6.902e-010    
  1.25            3.2746e-005     7.554e-009      -1.3906e-009   
  1.3             3.3222e-005     2.2719e-008     -1.7397e-009   
  1.35            3.3368e-005     1.1465e-008     9.142e-010     
  1.4             3.3685e-005     -2.6927e-008    1.338e-009     
  1.45            3.4614e-005     -1.0248e-008    -1.5981e-009   
  1.5             3.4868e-005     1.6043e-008     -1.53e-009     
  1.55            3.491e-005      9.898e-009      1.0802e-009    
  1.6             3.5414e-005     -2.6191e-008    2.3668e-009    
  1.65            3.5899e-005     -1.295e-008     -7.137e-010    
  1.7             3.6549e-005     7.807e-009      -1.3902e-009   
  1.75            3.7006e-005     2.2066e-008     -1.7131e-009   
  1.8             3.7099e-005     1.1193e-008     9.301e-010     
  1.85            3.7404e-005     -2.726e-008     1.338e-009     
  1.9             3.8325e-005     -1.0553e-008    -1.61e-009     
  1.95            3.8591e-005     1.4927e-008     -1.5105e-009   
  2               3.8542e-005     9.043e-009      1.0994e-009    
  2.05            3.9e-005        -2.701e-008     2.3307e-009    
  2.1             3.9475e-005     -1.422e-008     -7.309e-010    
  2.15            4.0126e-005     6.232e-009      -1.3901e-009   
  2.2             4.0556e-005     1.9009e-008     -1.6873e-009   
  2.25            4.0963e-005     1.1816e-008     -2.4113e-009   
  2.3             4.1324e-005     1.4348e-008     -1.6342e-009   
  2.35            4.1741e-005     1.0187e-008     -2.3577e-009   
  2.4             4.208e-005      4.711e-009      -2.7143e-009   
  2.45            4.2482e-005     7.554e-009      -2.3052e-009   
  2.5             4.2864e-005     1.564e-009      -2.7095e-009   
  2.55            4.3225e-005     3.107e-009      -2.2443e-009   
  2.6             4.3404e-005     -1.984e-008     -2.7291e-009   
  2.65            4.3257e-005     -9.091e-009     1.4376e-009    
  2.7             4.3901e-005     -3.9408e-008    1.6726e-009    
  2.75            4.4455e-005     -3.7109e-008    -2.4395e-009   
  2.8             4.4869e-005     -2.0687e-008    6.775e-010     
  2.85            4.4994e-005     -6.3189e-008    1.3865e-009    
  2.9             4.5635e-005     -5.4957e-008    -2.6575e-009   
  2.95            4.5919e-005     -4.3065e-008    9.468e-010     
  3               4.6162e-005     -9.0464e-008    1.3375e-009    
  3.05            4.6792e-005     -8.0157e-008    -2.7222e-009   
  3.1             4.6797e-005     -7.5524e-008    1.1987e-009    
  3.15            4.7482e-005     -1.16726e-007   2.671e-009     
  3.2             4.7888e-005     -1.1274e-007    2.8397e-009    
  3.25            4.8648e-005     -1.4132e-007    -1.8339e-009   
  3.3             4.891e-005      -1.3863e-007    -1.581e-010    
  3.35            4.8852e-005     -1.8698e-007    2.5538e-009    
  3.4             4.9548e-005     -2.0434e-007    -2.0146e-009   
  3.45            5.0065e-005     -2.0827e-007    1.392e-010     
  3.5             5.0106e-005     -2.6728e-007    2.0445e-009    
  3.55            5.064e-005      -2.9175e-007    -2.243e-009    
  3.6             5.1326e-005     -3.0549e-007    4.569e-010     
  3.65            5.1421e-005     -3.7899e-007    1.5618e-009    
  3.7             5.2095e-005     -4.1361e-007    -2.5157e-009   
  3.75            5.2507e-005     -4.3886e-007    7.472e-010     
  3.8             5.2648e-005     -5.3279e-007    1.3558e-009    
  3.85            5.3345e-005     -5.7484e-007    -2.6872e-009   
  3.9             5.3632e-005     -6.1715e-007    1.0156e-009    
  3.95            5.4032e-005     -7.2979e-007    1.3366e-009    
  4               5.4745e-005     -7.8425e-007    -2.7227e-009   
  4.05            5.4711e-005     -8.475e-007     1.2656e-009    
  4.1             5.5451e-005     -9.73e-007      1.9661e-009    
  4.15            5.6046e-005     -1.05886e-006   -2.2777e-009   
  4.2             5.6542e-005     -1.13678e-006   4.942e-010     
  4.25            5.6865e-005     -1.2596e-006    2.4405e-009    
  4.3             5.7578e-005     -1.4017e-006    -2.0528e-009   
  4.35            5.822e-005      -1.5057e-006    2.081e-010     
  4.4             5.8349e-005     -1.6765e-006    1.938e-009     
  4.45            5.9091e-005     -1.825e-006     -2.2992e-009   
  4.5             5.9767e-005     -1.9552e-006    5.227e-010     
  4.55            5.9962e-005     -2.1647e-006    1.5042e-009    
  4.6             6.0915e-005     -2.3438e-006    -2.561e-009    
  4.65            6.1457e-005     -2.5027e-006    8.048e-010     
  4.7             6.1781e-005     -2.7615e-006    1.3423e-009    
  4.75            6.2782e-005     -2.9607e-006    -2.7002e-009   
  4.8             6.3114e-005     -3.1518e-006    1.0587e-009    
  4.85            6.3729e-005     -3.4617e-006    1.3336e-009    
  4.9             6.4695e-005     -3.6841e-006    -2.7244e-009   
  4.95            6.483e-005      -3.9175e-006    1.3229e-009    
  5               6.5826e-005     -4.2509e-006    1.8625e-009    
END_DB

BEGIN_DB
 ICCAP_VAR VG         2              
 ICCAP_VAR VS         0              
 ICCAP_VAR VB         0              

 #VD              ID              IB              IG             
  0               -4.3837e-007    -2.7044e-008    1.3293e-009    
  0.05            6.0942e-005     1.1842e-008     -2.6349e-009   
  0.1             0.00011983      1.1431e-008     2.808e-009     
  0.15            0.00017534      -1.2813e-008    3.482e-010     
  0.2             0.00022774      1.5377e-008     -2.451e-009    
  0.25            0.00027586      1.2553e-008     6.083e-010     
  0.3             0.00031966      -7.968e-009     1.3268e-009    
  0.35            0.00036         -1.1683e-008    -1.7536e-009   
  0.4             0.00039533      9.825e-009      -1.801e-010    
  0.45            0.00042606      -1.8447e-008    2.3695e-009    
  0.5             0.00045326      -1.2824e-008    -8.554e-010    
  0.55            0.00047677      2.8222e-008     -1.3765e-009   
  0.6             0.0004961       1.2601e-008     5.339e-010     
  0.65            0.00051212      -8.33e-009      1.3276e-009    
  0.7             0.0005262       -1.3166e-008    -6.269e-010    
  0.75            0.000538        8.248e-009      -1.3818e-009   
  0.8             0.00054624      1.1492e-008     1.6905e-009    
  0.85            0.00055489      -1.0061e-008    1.66e-010      
  0.9             0.00056264      1.6711e-008     -2.1881e-009   
  0.95            0.0005682       1.2534e-008     7.995e-010     
  1               0.00057284      -2.6536e-008    1.3249e-009    
  1.05            0.00057893      -1.046e-008     -1.7046e-009   
  1.1             0.00058257      1.0388e-008     -2.009e-010    
  1.15            0.00058566      -1.8363e-008    2.45e-009      
  1.2             0.00058954      -1.3099e-008    -8.198e-010    
  1.25            0.00059336      2.7282e-008     -1.3747e-009   
  1.3             0.00059475      9.696e-009      1.584e-009     
  1.35            0.00059829      -1.1028e-008    2.618e-010     
  1.4             0.00060195      1.6543e-008     -2.3431e-009   
  1.45            0.00060412      1.2739e-008     6.958e-010     
  1.5             0.00060611      -2.4916e-008    1.3303e-009    
  1.55            0.00060889      -1.2862e-008    -4.983e-010    
  1.6             0.00061169      7.479e-009      -1.3768e-009   
  1.65            0.00061356      1.2458e-008     4.873e-010     
  1.7             0.00061507      -8.973e-009     1.3218e-009    
  1.75            0.00061761      -1.3019e-008    -5.597e-010    
  1.8             0.00061996      8.198e-009      -1.375e-009    
  1.85            0.00062152      1.2416e-008     5.57e-010      
  1.9             0.00062289      -8.271e-009     1.3248e-009    
  1.95            0.0006261       -1.1714e-008    -1.7251e-009   
  2               0.00062735      9.855e-009      -1.877e-010    
  2.05            0.00062814      -1.8766e-008    2.4349e-009    
  2.1             0.00063041      -1.3608e-008    -8.205e-010    
  2.15            0.00063266      8.429e-009      -1.3761e-009   
  2.2             0.00063367      1.0777e-008     7.901e-010     
  2.25            0.0006348       -2.8415e-008    1.323e-009     
  2.3             0.00063771      -1.4874e-008    -1.7023e-009   
  2.35            0.00063881      1.3263e-008     -1.9033e-009   
  2.4             0.00064043      8.578e-009      -2.4302e-009   
  2.45            0.00064196      2.562e-009      -2.6775e-009   
  2.5             0.00064327      4.819e-009      -2.005e-009    
  2.55            0.0006442       -8.549e-009     2.4119e-009    
  2.6             0.00064561      -3.6145e-008    -7.332e-010    
  2.65            0.00064751      -4.221e-009     -1.3763e-009   
  2.7             0.00064805      -3.0306e-008    2.8175e-009    
  2.75            0.00065024      -5.8783e-008    -1.3478e-009   
  2.8             0.00065135      -4.0989e-008    -1.6838e-009   
  2.85            0.0006522       -6.9285e-008    2.5657e-009    
  2.9             0.00065351      -1.09528e-007   9.667e-010     
  2.95            0.00065525      -1.1345e-007    -1.3923e-009   
  3               0.00065585      -1.3671e-007    2.782e-009     
  3.05            0.00065785      -1.8658e-007    -1.2396e-009   
  3.1             0.00065915      -1.8821e-007    -1.8478e-009   
  3.15            0.00065988      -2.4694e-007    2.4873e-009    
  3.2             0.00066117      -3.1719e-007    -8.32e-010     
  3.25            0.00066294      -3.3294e-007    -1.3752e-009   
  3.3             0.00066344      -4.1729e-007    2.8458e-009    
  3.35            0.00066561      -5.0759e-007    -1.45e-009     
  3.4             0.00066656      -5.6316e-007    -1.5638e-009   
  3.45            0.00066715      -6.6721e-007    2.6304e-009    
  3.5             0.00066873      -7.94e-007      -1.0088e-009   
  3.55            0.0006702       -8.7415e-007    -1.3798e-009   
  3.6             0.00067076      -1.03492e-006   2.871e-009     
  3.65            0.00067224      -1.166e-006     -2.71e-011     
  3.7             0.000674        -1.3457e-006    -1.8556e-009   
  3.75            0.00067485      -1.5465e-006    2.4851e-009    
  3.8             0.00067627      -1.7811e-006    -8.309e-010    
  3.85            0.00067817      -1.9815e-006    -1.3731e-009   
  3.9             0.00067876      -2.2637e-006    2.8429e-009    
  3.95            0.00068117      -2.5751e-006    -1.4437e-009   
  4               0.00068229      -2.87e-006      -1.5695e-009   
  4.05            0.00068321      -3.2439e-006    2.6319e-009    
  4.1             0.00068497      -3.6625e-006    -1.0064e-009   
  4.15            0.00068702      -4.0603e-006    -1.3782e-009   
