! VERSION = 6.00
BEGIN_HEADER
 ICCAP_INPUTS
  VG         V  B GROUND SMU4 0.001 LIN        2    0          5          6    1         
  VS         V  E GROUND SMU2 0.1 CON        0
  VD         V  S GROUND SMU1 0.1 LIN        1    0          5          101  0.05      
  VB         V  C GROUND SMU3 0.1 LIN        3    0          -2.5       2    -2.5      
 ICCAP_OUTPUTS
  ID         I  S GROUND SMU1 B
  IB         I  C GROUND SMU3 B
  IG         I  B GROUND SMU4 B
END_HEADER

BEGIN_DB
 ICCAP_VAR VG         0              
 ICCAP_VAR VS         0              
 ICCAP_VAR VB         0              

 #VD              ID              IB              IG             
  0               -4.602e-010     -1.1503e-008    -3.32e-010     
  0.05            8.172e-010      2.0512e-008     -1.7978e-009   
  0.1             -1.6864e-009    5.468e-009      -1.6649e-009   
  0.15            -2.166e-009     -1.3078e-008    -2.007e-010    
  0.2             -2.2078e-009    -1.3032e-008    -4.19e-010     
  0.25            -2.2125e-009    -1.2256e-008    -6.224e-010    
  0.3             -2.2146e-009    -1.1301e-008    -8.161e-010    
  0.35            -1.619e-009     -1.5578e-008    2.0358e-009    
  0.4             1.9171e-009     -7.903e-009     1.5423e-009    
  0.45            1.422e-009      2.6675e-008     -1.3868e-009   
  0.5             6.42e-011       1.3369e-008     -2.7109e-009   
  0.55            -1.4577e-009    -2.3686e-008    2.505e-009     
  0.6             2.2232e-009     -4.436e-009     1.2751e-009    
  0.65            1.2061e-009     2.9552e-008     -1.3859e-009   
  0.7             -2.161e-009     1.0443e-008     -1.2174e-009   
  0.75            -1.866e-009     -1.026e-008     2.775e-010     
  0.8             -9.04e-010      -2.0887e-008    1.7802e-009    
  0.85            1.7097e-009     -8.997e-009     1.6837e-009    
  0.9             1.4317e-009     9.845e-009      1.8454e-009    
  0.95            2.2773e-009     1.2329e-008     4.803e-010     
  1               2.3099e-009     1.1467e-008     6.591e-010     
  1.05            2.3337e-009     9.92e-009       8.233e-010     
  1.1             1.6862e-009     1.5005e-008     -1.7672e-009   
  1.15            -1.6635e-009    5.729e-009      -1.6946e-009   
  1.2             -2.1829e-009    -1.335e-008     -2.379e-010    
  1.25            -2.2104e-009    -1.3185e-008    -4.629e-010    
  1.3             -2.2089e-009    -1.2083e-008    -6.584e-010    
  1.35            -2.205e-009     -1.065e-008     -8.502e-010    
  1.4             -1.6338e-009    -1.464e-008     1.9646e-009    
  1.45            1.876e-009      -8.466e-009     1.5809e-009    
  1.5             1.4549e-009     2.5887e-008     -1.3862e-009   
  1.55            9.48e-011       1.3825e-008     -2.7039e-009   
  1.6             -1.4857e-009    -2.305e-008     1.3325e-009    
  1.65            -5.07e-011      -1.3162e-008    2.875e-009     
  1.7             1.4472e-009     2.6395e-008     -1.3875e-009   
  1.75            8.12e-011       1.3683e-008     -2.7046e-009   
  1.8             -1.4731e-009    -2.3575e-008    2.4801e-009    
  1.85            2.2119e-009     -5.053e-009     1.3006e-009    
  1.9             1.2309e-009     2.9878e-008     -1.3818e-009   
  1.95            -2.1497e-009    1.058e-008      -1.2486e-009   
  2               -1.8808e-009    -1.0344e-008    2.587e-010     
  2.05            -2.0157e-009    -1.1855e-008    8.83e-011      
  2.1             -1.0549e-009    -2.5386e-008    1.4852e-009    
  2.15            2.3479e-009     -8.179e-009     9.398e-010     
  2.2             1.7832e-009     1.1741e-008     -1.5955e-009   
  2.25            -1.4978e-009    7.019e-009      -1.798e-009    
  2.3             -2.2067e-009    -1.3325e-008    -3.958e-010    
  2.35            -2.2085e-009    -1.2557e-008    -6.092e-010    
  2.4             -2.2055e-009    -1.1023e-008    -8.01e-010     
  2.45            -1.6096e-009    -1.5913e-008    2.0618e-009    
  2.5             1.941e-009      -7.879e-009     1.5348e-009    
  2.55            1.418e-009      2.7384e-008     -1.3859e-009   
  2.6             5.21e-011       1.3409e-008     -1.3712e-009   
  2.65            2.121e-010      1.4865e-008     -2.6807e-009   
  2.7             -2.1624e-009    -1.0044e-008    -1.2119e-009   
  2.75            -1.8528e-009    -1.0077e-008    2.879e-010     
  2.8             -9.01e-010      -2.0186e-008    1.7908e-009    
  2.85            1.7264e-009     -9.065e-009     1.6744e-009    
  2.9             1.4321e-009     9.693e-009      1.837e-009     
  2.95            2.2758e-009     1.246e-008      4.762e-010     
  3               2.3078e-009     1.112e-008      6.525e-010     
  3.05            1.5449e-009     2.1035e-008     -1.3754e-009   
  3.1             2.098e-010      1.48e-008       -2.6804e-009   
  3.15            -2.161e-009     -1.0053e-008    -1.2087e-009   
  3.2             -1.1329e-009    -2.6625e-008    1.4005e-009    
  3.25            2.3436e-009     -7.974e-009     1.0318e-009    
  3.3             1.8558e-009     9.931e-009      -1.4879e-009   
  3.35            -1.368e-009     8.051e-009      -1.8747e-009   
  3.4             -2.2095e-009    -1.2894e-008    -5.274e-010    
  3.45            -2.2049e-009    -1.1575e-008    -7.308e-010    
  3.5             -1.5729e-009    -1.8036e-008    2.1942e-009    
  3.55            2.0353e-009     -6.982e-009     1.4611e-009    
  3.6             1.364e-009      2.8874e-008     -1.383e-009    
  3.65            -1.02e-011      1.279e-008      -1.3818e-009   
  3.7             1.513e-010      1.4356e-008     -2.6919e-009   
  3.75            -2.1306e-009    -1.281e-008     -9.17e-011     
  3.8             -2.1964e-009    -1.3349e-008    -3.141e-010    
  3.85            -2.21e-009      -1.2957e-008    -5.308e-010    
  3.9             -2.2063e-009    -1.1915e-008    -7.315e-010    
  3.95            -1.5743e-009    -1.7941e-008    2.1885e-009    
  4               2.031e-009      -7.139e-009     1.4661e-009    
  4.05            1.3658e-009     2.8847e-008     -1.3835e-009   
  4.1             -1.5e-012       1.2853e-008     -1.3784e-009   
  4.15            1.519e-010      1.4355e-008     -2.6893e-009   
  4.2             -2.1285e-009    -1.2799e-008    -9.67e-011     
  4.25            -2.1976e-009    -1.3331e-008    -3.248e-010    
  4.3             -2.2083e-009    -1.2796e-008    -5.412e-010    
  4.35            -2.2036e-009    -1.1523e-008    -7.39e-010     
  4.4             -1.5818e-009    -1.7748e-008    2.1726e-009    
  4.45            2.0197e-009     -7.234e-009     1.473e-009     
  4.5             1.3751e-009     2.8632e-008     -1.3846e-009   
  4.55            3e-012          1.3006e-008     -1.3779e-009   
  4.6             1.639e-010      1.4373e-008     -2.6933e-009   
  4.65            -2.1335e-009    -1.2821e-008    -1.129e-010    
  4.7             -2.1976e-009    -1.3299e-008    -3.369e-010    
  4.75            -2.2104e-009    -1.2808e-008    -5.478e-010    
  4.8             -2.2048e-009    -1.1456e-008    -7.449e-010    
  4.85            -1.5825e-009    -1.7505e-008    2.1619e-009    
  4.9             2.0164e-009     -7.471e-009     1.4793e-009    
  4.95            1.3813e-009     2.8507e-008     -1.384e-009    
  5               8.6e-012        1.2958e-008     -1.3787e-009   
END_DB

BEGIN_DB
 ICCAP_VAR VG         1              
 ICCAP_VAR VS         0              
 ICCAP_VAR VB         0              

 #VD              ID              IB              IG             
  0               -1.6194e-007    2.8193e-008     -1.3906e-009   
  0.05            1.1435e-005     -1.0684e-008    2.2521e-009    
  0.1             1.9077e-005     -1.2947e-008    -7.625e-010    
  0.15            2.395e-005      8.161e-009      -1.3824e-009   
  0.2             2.65e-005       1.0783e-008     1.5441e-009    
  0.25            2.8705e-005     -1.3487e-008    1.5064e-009    
  0.3             3.0291e-005     -2.7186e-008    1.3286e-009    
  0.35            3.158e-005      -1.3163e-008    -6.114e-010    
  0.4             3.2843e-005     7.015e-009      -1.3769e-009   
  0.45            3.3837e-005     2.4558e-008     -1.8069e-009   
  0.5             3.4426e-005     1.1327e-008     8.696e-010     
  0.55            3.5089e-005     -2.654e-008     1.3277e-009    
  0.6             3.6396e-005     -1.072e-008     -1.5527e-009   
  0.65            3.7007e-005     1.7012e-008     -1.5406e-009   
  0.7             3.729e-005      9.818e-009      1.0565e-009    
  0.75            3.7969e-005     -2.672e-008     1.3268e-009    
  0.8             3.9094e-005     -1.164e-008     -1.7493e-009   
  0.85            3.9618e-005     1.1407e-008     -2.533e-010    
  0.9             3.9817e-005     -1.6258e-008    2.6564e-009    
  0.95            4.0516e-005     -2.2577e-008    1.997e-009     
  1               4.1222e-005     -1.2219e-008    -9.013e-010    
  1.05            4.2102e-005     2.7781e-008     -1.3753e-009   
  1.1             4.2658e-005     2.3548e-008     -1.7534e-009   
  1.15            4.2949e-005     1.118e-008      8.969e-010     
  1.2             4.3352e-005     -2.692e-008     1.3269e-009    
  1.25            4.4447e-005     -1.0995e-008    -1.5834e-009   
  1.3             4.4879e-005     1.6061e-008     -1.5069e-009   
  1.35            4.4921e-005     9.688e-009      1.0833e-009    
  1.4             4.5473e-005     -2.6366e-008    1.3229e-009    
  1.45            4.6496e-005     -1.176e-008     -1.7692e-009   
  1.5             4.6857e-005     1.0677e-008     -2.226e-010    
  1.55            4.6906e-005     -1.685e-008     2.6221e-009    
  1.6             4.768e-005      -1.3028e-008    -5.126e-010    
  1.65            4.8443e-005     2.0213e-008     -1.4934e-009   
  1.7             4.8427e-005     9.486e-009      1.096e-009     
  1.75            4.8975e-005     -2.6138e-008    1.3211e-009    
  1.8             4.96e-005       -1.3066e-008    -7.509e-010    
  1.85            5.0346e-005     7.786e-009      -1.3809e-009   
  1.9             5.0632e-005     1.2296e-008     4.74e-010      
  1.95            5.08e-005       -2.0051e-008    1.5217e-009    
  2               5.1294e-005     -2.7776e-008    1.3292e-009    
  2.05            5.2446e-005     -1.224e-008     -1.6646e-009   
  2.1             5.2725e-005     1.2231e-008     -1.4467e-009   
  2.15            5.3179e-005     1.5319e-008     -2.0261e-009   
  2.2             5.3385e-005     9.999e-009      7.383e-010     
  2.25            5.3503e-005     -2.8099e-008    1.3418e-009    
  2.3             5.461e-005      -1.3425e-008    -1.4099e-009   
  2.35            5.5063e-005     1.0011e-008     -2.4499e-009   
  2.4             5.5408e-005     1.2414e-008     -1.6644e-009   
  2.45            5.5887e-005     7.728e-009      -2.3756e-009   
  2.5             5.6352e-005     1.63e-009       -2.6968e-009   
  2.55            5.6754e-005     4.039e-009      -2.3005e-009   
  2.6             5.6955e-005     -1.9327e-008    -2.7115e-009   
  2.65            5.7638e-005     -3.921e-009     -2.5393e-009   
  2.7             5.7377e-005     -1.0495e-008    1.9107e-009    
  2.75            5.7913e-005     -3.6439e-008    3.65e-011      
  2.8             5.8792e-005     -2.8769e-008    -1.7241e-009   
  2.85            5.905e-005      -2.7703e-008    2.4297e-009    
  2.9             5.9495e-005     -5.7199e-008    -6.199e-010    
  2.95            6.0222e-005     -2.9486e-008    -1.4356e-009   
  3               6.0225e-005     -5.1754e-008    2.6278e-009    
  3.05            6.0775e-005     -8.3198e-008    -9.245e-010    
  3.1             6.1545e-005     -5.4305e-008    -1.3758e-009   
  3.15            6.1628e-005     -8.772e-008     1.1268e-009    
  3.2             6.215e-005      -1.1077e-007    -2.4301e-009   
  3.25            6.2315e-005     -1.1687e-007    2.0007e-009    
  3.3             6.2805e-005     -1.5834e-007    -4.73e-011     
  3.35            6.3736e-005     -1.5193e-007    -1.9873e-009   
  3.4             6.3824e-005     -1.8244e-007    2.2903e-009    
  3.45            6.4318e-005     -2.3282e-007    -4.263e-010    
  3.5             6.5111e-005     -2.3022e-007    -1.5619e-009   
  3.55            6.5125e-005     -2.7352e-007    2.5329e-009    
  3.6             6.5651e-005     -3.3476e-007    -7.744e-010    
  3.65            6.649e-005      -3.3526e-007    -1.3882e-009   
  3.7             6.6528e-005     -3.9765e-007    2.7062e-009    
  3.75            6.7181e-005     -4.7193e-007    -1.0481e-009   
  3.8             6.7932e-005     -4.8435e-007    -1.3829e-009   
  3.85            6.7966e-005     -5.7056e-007    2.8246e-009    
  3.9             6.903e-005      -6.5871e-007    -1.3263e-009   
  3.95            6.9435e-005     -6.9446e-007    -1.8249e-009   
  4               6.9569e-005     -7.9447e-007    2.3753e-009    
  4.05            7.0145e-005     -9.1112e-007    -5.442e-010    
  4.1             7.1048e-005     -9.7168e-007    -1.4751e-009   
  4.15            7.117e-005      -1.08822e-006   2.5937e-009    
  4.2             7.1781e-005     -1.2202e-006    1.5964e-009    
  4.25            7.242e-005      -1.3594e-006    -2.4739e-009   
  4.3             7.2923e-005     -1.4646e-006    7.109e-010     
  4.35            7.3133e-005     -1.6578e-006    1.3498e-009    
  4.4             7.4273e-005     -1.8043e-006    -2.6731e-009   
  4.45            7.4665e-005     -1.9454e-006    9.913e-010     
  4.5             7.5179e-005     -2.1838e-006    1.3294e-009    
  4.55            7.6219e-005     -2.3558e-006    -2.7096e-009   
  4.6             7.6291e-005     -2.5393e-006    1.2606e-009    
  4.65            7.7272e-005     -2.8132e-006    1.9554e-009    
  4.7             7.8195e-005     -3.0339e-006    -2.2813e-009   
  4.75            7.9044e-005     -3.2548e-006    5.034e-010     
  4.8             7.9367e-005     -3.5638e-006    1.4907e-009    
  4.85            8.0559e-005     -3.8554e-006    -2.5627e-009   
  4.9             8.1302e-005     -4.1196e-006    8.075e-010     
  4.95            8.1725e-005     -4.5109e-006    1.3298e-009    
  5               8.3105e-005     -4.8363e-006    -2.6964e-009   
END_DB

BEGIN_DB
 ICCAP_VAR VG         2              
 ICCAP_VAR VS         0              
 ICCAP_VAR VB         0              

 #VD              ID              IB              IG             
  0               -4.7292e-007    4.359e-009      -5.371e-010    
  0.05            6.7488e-005     -9.076e-009     -1.629e-009    
  0.1             0.00013305      1.2357e-008     2.7505e-009    
  0.15            0.0001951       -1.4871e-008    1.5517e-009    
  0.2             0.00025358      -2.7078e-008    1.3256e-009    
  0.25            0.00030783      -1.3052e-008    -8.336e-010    
  0.3             0.00035788      2.8249e-008     -1.3732e-009   
  0.35            0.00040222      1.1184e-008     1.6308e-009    
  0.4             0.00044268      -1.0148e-008    2.264e-010     
  0.45            0.00047904      1.7087e-008     -2.248e-009    
  0.5             0.00050987      1.2505e-008     7.485e-010     
  0.55            0.00053623      -2.6408e-008    1.3216e-009    
  0.6             0.00055923      -1.3179e-008    -5.922e-010    
  0.65            0.00057885      8.144e-009      -1.3744e-009   
  0.7             0.00059357      1.1149e-008     1.6461e-009    
  0.75            0.00060736      -9.934e-009     2.024e-010     
  0.8             0.00061976      1.7134e-008     -2.2081e-009   
  0.85            0.00062849      1.2681e-008     7.663e-010     
  0.9             0.00063595      -2.6721e-008    1.3218e-009    
  0.95            0.0006434       -1.3275e-008    -6.161e-010    
  1               0.00064982      8.133e-009      -1.3753e-009   
  1.05            0.00065467      1.2784e-008     6.145e-010     
  1.1             0.00065874      -7.824e-009     2.8368e-009    
  1.15            0.00066282      -9.695e-009     1.544e-010     
  1.2             0.00066796      1.7226e-008     -2.1177e-009   
  1.25            0.00067096      1.2405e-008     8.192e-010     
  1.3             0.00067365      -2.7245e-008    1.3229e-009    
  1.35            0.00067824      -1.08e-008      -1.7341e-009   
  1.4             0.00068093      1.8009e-008     -1.7677e-009   
  1.45            0.00068298      1.0491e-008     1.0078e-009    
  1.5             0.00068522      -2.6402e-008    2.2845e-009    
  1.55            0.00068826      -1.2995e-008    -8.901e-010    
  1.6             0.00069134      2.9314e-008     -1.3782e-009   
  1.65            0.00069271      1.2748e-008     6.359e-010     
  1.7             0.00069464      -7.765e-009     2.8412e-009    
  1.75            0.00069832      -9.963e-009     -1.5578e-009   
  1.8             0.00069974      1.3206e-008     -1.4376e-009   
  1.85            0.000702        2.8994e-008     -2.0378e-009   
  1.9             0.00070349      1.1994e-008     8.664e-010     
  1.95            0.00070473      -2.7514e-008    2.5425e-009    
  2               0.000707        -1.3611e-008    -7.383e-010    
  2.05            0.00070951      8.48e-009       -1.38e-009     
  2.1             0.00071065      1.2141e-008     7.176e-010     
  2.15            0.00071175      -2.709e-008     1.3206e-009    
  2.2             0.00071481      -1.1655e-008    -1.6402e-009   
  2.25            0.00071612      1.539e-008      -1.9458e-009   
  2.3             0.00071767      1.2102e-008     -2.4588e-009   
  2.35            0.00071921      1.7014e-008     -1.657e-009    
  2.4             0.00072071      1.1185e-008     -2.2087e-009   
  2.45            0.00072228      5.58e-009       -2.6016e-009   
  2.5             0.00072372      7.279e-009      -1.7045e-009   
  2.55            0.00072434      -5.555e-009     2.5452e-009    
  2.6             0.00072592      -3.2153e-008    -8.994e-010    
  2.65            0.00072787      4.058e-009      -1.3777e-009   
  2.7             0.00072825      -2.6732e-008    2.8381e-009    
  2.75            0.0007308       -5.1379e-008    -1.5379e-009   
  2.8             0.00073175      -3.8557e-008    -1.4467e-009   
  2.85            0.00073215      -5.6806e-008    2.6914e-009    
  2.9             0.00073405      -9.226e-008     -1.1122e-009   
  2.95            0.00073565      -7.2377e-008    -2.0284e-009   
  3               0.00073653      -1.3405e-007    -1.1297e-009   
  3.05            0.00073814      -1.225e-007     -1.9819e-009   
  3.1             0.00073876      -1.7326e-007    2.4167e-009    
  3.15            0.00074001      -2.3245e-007    -7.388e-010    
  3.2             0.00074181      -2.3535e-007    -1.3705e-009   
  3.25            0.0007422       -3.0376e-007    2.8025e-009    
  3.3             0.00074437      -3.7847e-007    -1.3635e-009   
  3.35            0.00074532      -4.1563e-007    -1.6043e-009   
  3.4             0.0007459       -5.0139e-007    2.595e-009     
  3.45            0.0007474       -6.0873e-007    -9.609e-010    
  3.5             0.00074908      -6.653e-007     -1.3782e-009   
  3.55            0.00074953      -8.0144e-007    2.8469e-009    
  3.6             0.00075202      -9.4337e-007    -1.6128e-009   
  3.65            0.00075283      -1.06367e-006   -1.4058e-009   
  3.7             0.00075375      -1.2234e-006    6.229e-010     
  3.75            0.0007543       -1.4394e-006    1.3322e-009    
  3.8             0.00075631      -1.6304e-006    -2.7102e-009   
  3.85            0.00075675      -1.8402e-006    1.2371e-009    
  3.9             0.00075857      -2.1278e-006    1.7788e-009    
  3.95            0.00076035      -2.3982e-006    -2.4951e-009   
  4               0.00076166      -2.6946e-006    8.47e-010      
  4.05            0.00076274      -3.0879e-006    1.3249e-009    
  4.1             0.00076501      -3.4605e-006    -2.7057e-009   
  4.15            0.00076512      -3.8788e-006    1.4728e-009    
