! VERSION = 6.00
BEGIN_HEADER
 ICCAP_INPUTS
  VG         V  B GROUND SMU4 0.001 LIN        2    0          5          6    1         
  VS         V  E GROUND SMU3 0.1 CON        0
  VD         V  S GROUND SMU2 0.1 LIN        1    0          5          101  0.05      
  VB         V  C GROUND SMU1 0.1 LIN        3    0          -2.5       2    -2.5      
 ICCAP_OUTPUTS
  ID         I  S GROUND SMU2 B
  IB         I  C GROUND SMU1 B
  IG         I  B GROUND SMU4 B
END_HEADER

BEGIN_DB
 ICCAP_VAR VG         0              
 ICCAP_VAR VS         0              
 ICCAP_VAR VB         0              

 #VD              ID              IB              IG             
  0               -1.5032e-009    -8.698e-009     1.117e-010     
  0.05            -8.44e-011      -1.1076e-008    2.9111e-009    
  0.1             3.2697e-009     1.3999e-008     -1.7408e-009   
  0.15            -4.3221e-009    -1.1927e-008    -4.048e-010    
  0.2             -9.278e-010     -1.7149e-008    2.6487e-009    
  0.25            3.8988e-009     9.919e-009      -1.571e-010    
  0.3             1.26e-011       1.1865e-008     -1.3745e-009   
  0.35            -2.9098e-009    -2.0199e-008    1.3129e-009    
  0.4             2.7277e-009     2.4666e-008     -1.3849e-009   
  0.45            -2.7686e-009    -2.2644e-008    1.3167e-009    
  0.5             2.5578e-009     2.6382e-008     -1.3868e-009   
  0.55            -2.6261e-009    -2.4111e-008    1.3181e-009    
  0.6             2.3858e-009     2.6815e-008     -1.3869e-009   
  0.65            -2.4611e-009    -2.4565e-008    1.3283e-009    
  0.7             4.5421e-009     9.355e-009      8.547e-010     
  0.75            -2.1482e-009    4.633e-009      -2.499e-009    
  0.8             -1.9694e-009    -2.2395e-008    1.522e-009     
  0.85            4.5204e-009     1.0963e-008     5.725e-010     
  0.9             -2.1632e-009    2.231e-009      -2.2159e-009   
  0.95            -1.5431e-009    -1.8684e-008    1.9996e-009    
  1               2.5873e-009     9.91e-009       1.8336e-009    
  1.05            2.644e-010      1.2844e-008     -2.7187e-009   
  1.1             -3.3049e-009    -1.0741e-008    1.6535e-009    
  1.15            4.4748e-009     1.1253e-008     4.692e-010     
  1.2             9.913e-010      1.7113e-008     -2.3364e-009   
  1.25            -2.5339e-009    -2.4449e-008    1.3211e-009    
  1.3             4.5355e-009     9.274e-009      8.944e-010     
  1.35            -2.1373e-009    5.018e-009      -2.5477e-009   
  1.4             -2.0552e-009    -2.2779e-008    1.4742e-009    
  1.45            4.5379e-009     1.1114e-008     6.186e-010     
  1.5             -2.1647e-009    2.535e-009      -2.2596e-009   
  1.55            -1.6094e-009    -1.9424e-008    1.9194e-009    
  1.6             2.9212e-009     2.0539e-008     -1.3735e-009   
  1.65            -2.9199e-009    -1.9653e-008    1.3108e-009    
  1.7             2.7455e-009     2.4217e-008     -1.3841e-009   
  1.75            -2.7972e-009    -2.246e-008     1.3169e-009    
  1.8             2.5868e-009     2.6268e-008     -1.3868e-009   
  1.85            -2.6402e-009    -2.3885e-008    1.3172e-009    
  1.9             2.409e-009      2.6922e-008     -1.3861e-009   
  1.95            -2.4788e-009    -2.4559e-008    1.3246e-009    
  2               4.5439e-009     9.343e-009      8.646e-010     
  2.05            -2.147e-009     4.826e-009      -2.5143e-009   
  2.1             -1.9985e-009    -2.2514e-008    1.5064e-009    
  2.15            4.526e-009      1.0947e-008     5.856e-010     
  2.2             -4.3581e-009    -1.1571e-008    -5.97e-010     
  2.25            4.4729e-009     1.1197e-008     4.782e-010     
  2.3             9.999e-010      1.7088e-008     -2.325e-009    
  2.35            -2.5443e-009    -2.4438e-008    1.3199e-009    
  2.4             4.5281e-009     9.06e-009       9.025e-010     
  2.45            -2.1371e-009    4.793e-009      -2.5559e-009   
  2.5             -2.0688e-009    -2.3006e-008    1.4566e-009    
  2.55            4.5396e-009     1.1105e-008     6.264e-010     
  2.6             -2.1658e-009    2.638e-009      -2.2698e-009   
  2.65            -1.6194e-009    -1.9337e-008    1.8951e-009    
  2.7             2.929e-009      2.0214e-008     -1.3716e-009   
  2.75            -2.9348e-009    -1.9396e-008    1.3086e-009    
  2.8             2.7689e-009     2.3856e-008     -1.3827e-009   
  2.85            -2.8095e-009    -2.2083e-008    1.3171e-009    
  2.9             2.6088e-009     2.615e-008      -1.3861e-009   
  2.95            -2.662e-009     -2.3814e-008    1.3177e-009    
  3               2.4449e-009     2.671e-008      -1.3854e-009   
  3.05            -2.5071e-009    -2.4537e-008    1.3204e-009    
  3.1             4.5447e-009     9.295e-009      8.784e-010     
  3.15            -2.1399e-009    4.75e-009       -2.5335e-009   
  3.2             -2.0286e-009    -2.2772e-008    1.4838e-009    
  3.25            4.5363e-009     1.1243e-008     6.035e-010     
  3.3             -2.1633e-009    2.547e-009      -2.2424e-009   
  3.35            -1.5857e-009    -1.9229e-008    1.9406e-009    
  3.4             2.5036e-009     9.763e-009      1.8637e-009    
  3.45            3.221e-010      1.3105e-008     -2.7069e-009   
  3.5             -3.3432e-009    -1.0225e-008    1.5957e-009    
  3.55            4.4919e-009     1.1141e-008     5.031e-010     
  3.6             1.0376e-009     1.7339e-008     -2.2831e-009   
  3.65            -2.5847e-009    -2.4194e-008    1.3196e-009    
  3.7             2.3476e-009     2.6726e-008     -1.3871e-009   
  3.75            -4.2778e-009    -9.818e-009     -9.58e-010     
  3.8             2.0351e-009     -7.232e-009     2.5712e-009    
  3.85            1.8721e-009     2.3711e-008     -1.4861e-009   
  3.9             -4.3596e-009    -1.1695e-008    -6.693e-010    
  3.95            2.0572e-009     -3.735e-009     2.3362e-009    
  4               1.454e-009      1.9553e-008     -1.8384e-009   
  4.05            -2.9634e-009    -1.8605e-008    1.3077e-009    
  4.1             2.8084e-009     2.3229e-008     -1.3811e-009   
  4.15            -2.8338e-009    -2.1615e-008    1.3165e-009    
  4.2             2.6397e-009     2.5839e-008     -1.3865e-009   
  4.25            -2.6968e-009    -2.3565e-008    1.3177e-009    
  4.3             2.4742e-009     2.6889e-008     -1.3863e-009   
  4.35            -2.5477e-009    -2.4404e-008    1.3204e-009    
  4.4             4.5288e-009     9.072e-009      8.989e-010     
  4.45            -2.1359e-009    4.896e-009      -2.551e-009    
  4.5             -2.43e-010      -1.259e-008     2.8947e-009    
  4.55            3.3925e-009     1.1937e-008     -1.6307e-009   
  4.6             -4.3471e-009    -1.1808e-008    -4.984e-010    
  4.65            -1.0745e-009    -1.7632e-008    2.5552e-009    
  4.7             2.3384e-009     2.6737e-008     -1.3861e-009   
  4.75            -2.4166e-009    -2.4648e-008    1.3349e-009    
  4.8             2.1655e-009     2.6086e-008     -1.4009e-009   
  4.85            -4.3225e-009    -1.037e-008     -8.648e-010    
  4.9             2.054e-009      -6.168e-009     2.4931e-009    
  4.95            1.7123e-009     2.2266e-008     -1.5802e-009   
  5               -4.3553e-009    -1.166e-008     -5.435e-010    
END_DB

BEGIN_DB
 ICCAP_VAR VG         1              
 ICCAP_VAR VS         0              
 ICCAP_VAR VB         0              

 #VD              ID              IB              IG             
  0               1.0772e-007     -7.83e-009      2.835e-009     
  0.05            5.0789e-006     8.427e-009      1.7012e-009    
  0.1             8.9944e-006     -7.805e-009     1.374e-009     
  0.15            1.1793e-005     -1.535e-008     4.962e-010     
  0.2             1.381e-005      2.1734e-008     -1.7402e-009   
  0.25            1.5225e-005     1.8687e-008     -1.5509e-009   
  0.3             1.6225e-005     2.1199e-008     -1.4447e-009   
  0.35            1.7028e-005     2.3623e-008     -1.3978e-009   
  0.4             1.7552e-005     1.1658e-008     5.206e-010     
  0.45            1.8139e-005     2.0881e-008     -1.7062e-009   
  0.5             1.8575e-005     1.8949e-008     -1.532e-009    
  0.55            1.9004e-005     2.1469e-008     -1.433e-009    
  0.6             1.9382e-005     1.248e-008      -2.6284e-009   
  0.65            1.973e-005      2.0641e-008     -1.7142e-009   
  0.7             2.0064e-005     1.9041e-008     -1.5388e-009   
  0.75            2.0404e-005     2.1421e-008     -1.437e-009    
  0.8             2.0718e-005     1.2544e-008     -2.6347e-009   
  0.85            2.1007e-005     2.1063e-008     -1.733e-009    
  0.9             2.1284e-005     1.8816e-008     -1.5442e-009   
  0.95            2.1587e-005     2.1375e-008     -1.4412e-009   
  1               2.183e-005      1.2616e-008     -2.6385e-009   
  1.05            2.2101e-005     2.1078e-008     -1.74e-009     
  1.1             2.2358e-005     1.8633e-008     -1.5511e-009   
  1.15            2.2615e-005     2.1246e-008     -1.4438e-009   
  1.2             2.2883e-005     1.223e-008      -2.6397e-009   
  1.25            2.3122e-005     2.1254e-008     -1.745e-009    
  1.3             2.3351e-005     1.8566e-008     -1.5589e-009   
  1.35            2.3541e-005     2.1196e-008     -1.4459e-009   
  1.4             2.3802e-005     1.2487e-008     -2.6452e-009   
  1.45            2.4036e-005     2.1597e-008     -1.7535e-009   
  1.5             2.4202e-005     1.8559e-008     -1.562e-009    
  1.55            2.4461e-005     2.1123e-008     -1.4524e-009   
  1.6             2.4676e-005     1.2425e-008     -2.654e-009    
  1.65            2.4891e-005     2.181e-008      -1.7692e-009   
  1.7             2.5082e-005     1.8293e-008     -1.5716e-009   
  1.75            2.5307e-005     2.0749e-008     -1.4551e-009   
  1.8             2.5504e-005     2.3358e-008     -1.4014e-009   
  1.85            2.5711e-005     1.2938e-008     -2.5213e-009   
  1.9             2.5909e-005     1.6692e-008     -1.5772e-009   
  1.95            2.6102e-005     2.0614e-008     -1.4568e-009   
  2               2.6299e-005     2.2892e-008     -1.4034e-009   
  2.05            2.6468e-005     1.2601e-008     -2.5258e-009   
  2.1             2.6656e-005     1.6495e-008     -1.5848e-009   
  2.15            2.6843e-005     1.992e-008      -1.4616e-009   
  2.2             2.7036e-005     1.1053e-008     -2.6643e-009   
  2.25            2.7215e-005     2.1233e-008     -1.7945e-009   
  2.3             2.7371e-005     1.629e-008      -1.5972e-009   
  2.35            2.7553e-005     1.8084e-008     -1.4621e-009   
  2.4             2.7738e-005     8.996e-009      -2.6721e-009   
  2.45            2.7916e-005     9.34e-009       -2.5435e-009   
  2.5             2.8077e-005     9.281e-009      -2.3535e-009   
  2.55            2.8253e-005     9.499e-009      -2.1173e-009   
  2.6             2.8426e-005     9.534e-009      -1.8674e-009   
  2.65            2.8595e-005     8.903e-009      -1.6456e-009   
  2.7             2.8648e-005     -1.9002e-008    -2.34e-009     
  2.75            2.8936e-005     2.608e-009      -2.1263e-009   
  2.8             2.9099e-005     1.716e-009      -1.877e-009    
  2.85            2.914e-005      -2.276e-008     -2.7846e-009   
  2.9             2.9448e-005     4.884e-009      -1.3923e-009   
  2.95            2.9495e-005     -1.3405e-008    6.491e-010     
  3               2.9601e-005     -3.0452e-008    2.2487e-009    
  3.05            2.9705e-005     -4.3882e-008    1.986e-010     
  3.1             3.001e-005      -4.3065e-008    -2.7753e-009   
  3.15            3.0277e-005     -1.8224e-008    -1.3945e-009   
  3.2             3.0341e-005     -4.1396e-008    7.56e-010      
  3.25            3.0368e-005     -6.216e-008     2.0325e-009    
  3.3             3.0546e-005     -7.8683e-008    8.79e-011      
  3.35            3.0843e-005     -8.2179e-008    -2.7564e-009   
  3.4             3.11e-005       -6.2633e-008    -1.3889e-009   
  3.45            3.1175e-005     -1.277e-007     -2.393e-010    
  3.5             3.128e-005      -1.116e-007     2.911e-009     
  3.55            3.1414e-005     -1.5762e-007    1.3251e-009    
  3.6             3.1694e-005     -1.6105e-007    -8.098e-010    
  3.65            3.1936e-005     -1.6785e-007    -1.9644e-009   
  3.7             3.214e-005      -1.8029e-007    -1.232e-010    
  3.75            3.2187e-005     -2.0906e-007    2.9213e-009    
  3.8             3.2319e-005     -2.6527e-007    1.323e-009     
  3.85            3.2607e-005     -2.7929e-007    -9.156e-010    
  3.9             3.287e-005      -2.9827e-007    -1.7808e-009   
  3.95            3.3063e-005     -3.2447e-007    -1e-013        
  4               3.3104e-005     -3.6923e-007    2.9146e-009    
  4.05            3.33e-005       -4.3852e-007    1.3101e-009    
  4.1             3.3618e-005     -4.6955e-007    -1.0184e-009   
  4.15            3.3866e-005     -5.0589e-007    -1.6174e-009   
  4.2             3.4095e-005     -5.5076e-007    1.25e-010      
  4.25            3.4221e-005     -6.1721e-007    2.8709e-009    
  4.3             3.4395e-005     -7.0506e-007    2.0156e-009    
  4.35            3.457e-005      -7.5942e-007    6.26e-011      
  4.4             3.4941e-005     -8.2776e-007    -2.7552e-009   
  4.45            3.5311e-005     -8.7013e-007    -1.388e-009    
  4.5             3.5387e-005     -9.7429e-007    8.885e-010     
  4.55            3.5528e-005     -1.07746e-006   1.7689e-009    
  4.6             3.5939e-005     -1.1798e-006    -3.808e-010    
  4.65            3.6174e-005     -1.2592e-006    2.8687e-009    
  4.7             3.6298e-005     -1.4098e-006    1.3386e-009    
  4.75            3.6771e-005     -1.5102e-006    -6.31e-010     
  4.8             3.715e-005      -1.626e-006     -2.225e-009    
  4.85            3.7484e-005     -1.7397e-006    -1.4394e-009   
  4.9             3.7758e-005     -1.882e-006     3.881e-010     
  4.95            3.7951e-005     -2.035e-006     2.6615e-009    
  5               3.824e-005      -2.2174e-006    1.5892e-009    
END_DB

BEGIN_DB
 ICCAP_VAR VG         2              
 ICCAP_VAR VS         0              
 ICCAP_VAR VB         0              

 #VD              ID              IB              IG             
  0               3.6345e-007     2.5176e-008     -1.3929e-009   
  0.05            2.2833e-005     1.2135e-008     -9.41e-011     
  0.1             4.5287e-005     -1.0067e-008    1e-012         
  0.15            6.6255e-005     -2.4426e-008    1.3295e-009    
  0.2             8.6144e-005     -1.1322e-008    -7.662e-010    
  0.25            0.000104659     1.139e-009      -2.0125e-009   
  0.3             0.00012163      2.3485e-008     1.5333e-009    
  0.35            0.00013726      -7.965e-009     1.3148e-009    
  0.4             0.00015145      -1.849e-008     1.8534e-009    
  0.45            0.00016398      -2.0683e-008    1.4745e-009    
  0.5             0.00017527      -1.1735e-008    -5.048e-010    
  0.55            0.00018506      1.107e-009      -2.1805e-009   
  0.6             0.00019362      1.7184e-008     -1.7847e-009   
  0.65            0.00020086      2.1076e-008     -1.4956e-009   
  0.7             0.00020707      1.2505e-008     -2.5753e-009   
  0.75            0.00021232      1.5566e-008     -1.5428e-009   
  0.8             0.00021669      1.2226e-008     -2.6383e-009   
  0.85            0.00022042      1.7221e-008     -1.606e-009    
  0.9             0.00022364      2.3373e-008     -1.4303e-009   
  0.95            0.00022646      2.6133e-008     -1.3961e-009   
  1               0.0002286       1.0831e-008     8.375e-010     
  1.05            0.00023055      -4.654e-009     1.6702e-009    
  1.1             0.00023236      -2.2498e-008    1.4029e-009    
  1.15            0.00023398      -2.4666e-008    1.3298e-009    
  1.2             0.00023582      -1.1318e-008    -9.012e-010    
  1.25            0.00023729      2.957e-009      -1.6443e-009   
  1.3             0.00023861      2.2819e-008     -1.4453e-009   
  1.35            0.00023984      2.5843e-008     -1.396e-009    
  1.4             0.00024071      1.0568e-008     7.933e-010     
  1.45            0.00024165      -3.981e-009     1.7425e-009    
  1.5             0.00024263      -2.1898e-008    1.4351e-009    
  1.55            0.00024355      -2.4351e-008    1.3339e-009    
  1.6             0.00024472      -1.1077e-008    -8.633e-010    
  1.65            0.00024575      2.789e-009      -1.6982e-009   
  1.7             0.00024661      2.1886e-008     -1.4653e-009   
  1.75            0.00024745      2.5593e-008     -1.3987e-009   
  1.8             0.00024806      1.0655e-008     7.523e-010     
  1.85            0.00024863      -3.236e-009     1.8155e-009    
  1.9             0.00024926      -2.1013e-008    1.4731e-009    
  1.95            0.00025014      -1.1834e-008    -5.106e-010    
  2               0.00025091      8.58e-010       -2.1738e-009   
  2.05            0.00025172      1.7169e-008     -1.775e-009    
  2.1             0.00025228      2.0961e-008     -1.489e-009    
  2.15            0.00025293      1.2126e-008     -2.5656e-009   
  2.2             0.00025352      1.4853e-008     -1.5369e-009   
  2.25            0.00025415      1.161e-008      -2.6279e-009   
  2.3             0.00025476      1.592e-008      -1.5977e-009   
  2.35            0.00025532      1.0225e-008     -2.6841e-009   
  2.4             0.00025584      1.0578e-008     -2.3965e-009   
  2.45            0.00025639      1.2297e-008     -1.9819e-009   
  2.5             0.00025689      1.431e-008      -1.6083e-009   
  2.55            0.00025742      6.341e-009      -2.6877e-009   
  2.6             0.00025787      5.505e-009      -2.4028e-009   
  2.65            0.00025836      5.397e-009      -1.9921e-009   
  2.7             0.0002587       -1.7544e-008    -2.7961e-009   
  2.75            0.00025917      -2.0679e-008    -2.7915e-009   
  2.8             0.00025971      -2.4747e-008    -2.7943e-009   
  2.85            0.0002603       7.23e-010       -1.3864e-009   
  2.9             0.00026047      -2.1442e-008    9.714e-010     
  2.95            0.00026082      -4.498e-008     1.4923e-009    
  3               0.00026136      -5.912e-008     -4.697e-010    
  3.05            0.00026196      -5.6101e-008    -2.2322e-009   
  3.1             0.00026251      -5.8595e-008    -1.753e-010    
  3.15            0.0002627       -8.0063e-008    2.929e-009     
  3.2             0.00026319      -1.2036e-007    3.804e-010     
  3.25            0.00026357      -1.1695e-007    2.4506e-009    
  3.3             0.00026385      -1.4692e-007    1.979e-010     
  3.35            0.00026459      -1.6332e-007    -2.7726e-009   
  3.4             0.00026518      -1.6248e-007    -1.3637e-009   
  3.45            0.00026517      -2.0906e-007    1.0939e-009    
  3.5             0.0002656       -2.6086e-007    1.3912e-009    
  3.55            0.00026619      -3.0493e-007    -6.169e-010    
  3.6             0.00026676      -3.3648e-007    -2.0285e-009   
  3.65            0.00026723      -3.7894e-007    -4.03e-011     
  3.7             0.00026753      -4.45e-007      2.8912e-009    
  3.75            0.0002679       -5.2822e-007    1.8539e-009    
  3.8             0.00026831      -5.9301e-007    -1.724e-010    
  3.85            0.00026901      -6.6267e-007    -2.5534e-009   
  3.9             0.00026964      -7.3772e-007    -1.5353e-009   
  3.95            0.00027013      -8.4275e-007    3.683e-010     
  4               0.00027042      -9.6732e-007    2.4886e-009    
  4.05            0.00027077      -1.10199e-006   2.191e-010     
  4.1             0.0002716       -1.2396e-006    -1.0753e-009   
  4.15            0.00027221      -1.3782e-006    -1.4729e-009   
