! VERSION = 6.00
BEGIN_HEADER
 ICCAP_INPUTS
  VG         V  B GROUND SMU4 0.001 LIN        1    0          5          101  0.05      
  VS         V  E GROUND SMU2 0.1 CON        0
  VB         V  C GROUND SMU3 0.1 LIN        3    0          -5         3    -2.5      
  VD         V  S GROUND SMU1 0.1 LIN        2    0.1        5          2    4.9       
 ICCAP_OUTPUTS
  IG         I  B GROUND SMU4 B
  ID         I  S GROUND SMU1 B
  IB         I  C GROUND SMU3 B
END_HEADER

BEGIN_DB
 ICCAP_VAR VS         0              
 ICCAP_VAR VB         0              
 ICCAP_VAR VD         0.1            

 #VG              IG              ID              IB             
  0               7.212e-010      7.758e-010      -1.213e-008    
  0.05            2.0907e-009     -1.5669e-009    -1.699e-008    
  0.1             1.4985e-009     1.9516e-009     -8.541e-009    
  0.15            9.51e-011       2.1668e-009     1.069e-008     
  0.2             2.953e-010      2.4508e-009     1.1139e-008    
  0.25            4.882e-010      3.1935e-009     1.1173e-008    
  0.3             -1.336e-009     4.7651e-009     2.4714e-008    
  0.35            2.2974e-009     1.1438e-008     9.151e-009     
  0.4             1.6101e-009     3.6197e-008     -6.386e-009    
  0.45            1.315e-009      1.02271e-007    -8.97e-009     
  0.5             -1.7687e-009    2.5643e-007     2.7005e-008    
  0.55            -6.428e-010     5.3805e-007     -1.1752e-008   
  0.6             1.8271e-009     9.6425e-007     -1.929e-008    
  0.65            2.6397e-009     1.5249e-006     2.0331e-008    
  0.7             6.295e-010      2.1866e-006     1.1168e-008    
  0.75            -1.6913e-009    2.8992e-006     2.0948e-008    
  0.8             -1.3956e-009    3.6288e-006     7.08e-009      
  0.85            -2.7134e-009    4.3581e-006     1.0862e-008    
  0.9             -2.488e-010     5.0633e-006     -1.1006e-008   
  0.95            -7.545e-010     5.7665e-006     -1.1804e-008   
  1               1.687e-009      6.4306e-006     -1.7111e-008   
  1.05            1.3331e-009     7.0477e-006     -9.075e-009    
  1.1             2.8619e-009     7.6725e-006     -8.711e-009    
  1.15            1.2464e-009     8.2785e-006     1.0543e-008    
  1.2             9.88e-011       8.8734e-006     1.0749e-008    
  1.25            5.594e-010      9.4324e-006     1.113e-008     
  1.3             -1.7772e-009    9.9772e-006     2.3167e-008    
  1.35            -1.42e-009      1.04931e-005    6.212e-009     
  1.4             -1.3259e-009    1.10082e-005    1.0429e-008    
  1.45            1.4851e-009     1.1478e-005     1.2113e-008    
  1.5             1.2863e-009     1.1962e-005     -8.668e-009    
  1.55            2.7938e-009     1.2424e-005     -1.0722e-008   
  1.6             1.4361e-009     1.2873e-005     1.1376e-008    
  1.65            2.97e-010       1.3328e-005     1.0517e-008    
  1.7             7.413e-010      1.3742e-005     1.1228e-008    
  1.75            -1.5764e-009    1.4165e-005     1.8354e-008    
  1.8             -1.369e-009     1.4567e-005     8.607e-009     
  1.85            -2.6868e-009    1.4967e-005     1.1099e-008    
  1.9             -2.3115e-009    1.5356e-005     3.06e-010      
  1.95            -1.7194e-009    1.5733e-005     2.8e-009       
  2               -1.4072e-009    1.6116e-005     6.675e-009     
  2.05            -1.3223e-009    1.6476e-005     1.074e-008     
  2.1             -2.4835e-009    1.6848e-005     1.2458e-008    
  2.15            -1.8891e-009    1.7187e-005     1.917e-009     
  2.2             -1.462e-009     1.7536e-005     5.419e-009     
  2.25            -1.343e-009     1.7877e-005     9.764e-009     
  2.3             -2.6004e-009    1.821e-005      1.163e-008     
  2.35            -2.0831e-009    1.8533e-005     7.32e-010      
  2.4             -1.5486e-009    1.886e-005      3.998e-009     
  2.45            -1.3686e-009    1.9177e-005     8.713e-009     
  2.5             -2.682e-009     1.9492e-005     1.1282e-008    
  2.55            -2.2845e-009    1.9794e-005     2.78e-010      
  2.6             -1.6839e-009    2.0102e-005     3.11e-009      
  2.65            -1.401e-009     2.0403e-005     6.889e-009     
  2.7             -2.7109e-009    2.0698e-005     1.0793e-008    
  2.75            -2.356e-010     2.0989e-005     -1.1097e-008   
  2.8             -7.476e-010     2.1278e-005     -1.1816e-008   
  2.85            1.7056e-009     2.1552e-005     -1.7196e-008   
  2.9             1.3357e-009     2.1837e-005     -9.207e-009    
  2.95            2.8714e-009     2.2112e-005     -8.695e-009    
  3               2.951e-010      2.2391e-005     1.0519e-008    
  3.05            7.44e-010       2.2657e-005     1.1139e-008    
  3.1             -1.573e-009     2.2915e-005     1.8064e-008    
  3.15            -1.3681e-009    2.3185e-005     8.518e-009     
  3.2             -2.6847e-009    2.3444e-005     1.1264e-008    
  3.25            -2.3025e-009    2.3692e-005     3.2e-010       
  3.3             1.3435e-009     2.3944e-005     -2.536e-008    
  3.35            2.8741e-009     2.4191e-005     -8.717e-009    
  3.4             1.2503e-009     2.4438e-005     1.0564e-008    
  3.45            9.14e-011       2.4684e-005     1.0898e-008    
  3.5             5.511e-010      2.492e-005      1.1213e-008    
  3.55            -1.7867e-009    2.5153e-005     2.334e-008     
  3.6             -1.4239e-009    2.5389e-005     6.082e-009     
  3.65            -1.3302e-009    2.5619e-005     1.0442e-008    
  3.7             -2.5378e-009    2.5849e-005     1.2159e-008    
  3.75            -1.9708e-009    2.607e-005      1.366e-009     
  3.8             -1.4914e-009    2.6293e-005     4.634e-009     
  3.85            -1.3512e-009    2.6513e-005     9.406e-009     
  3.9             -2.6439e-009    2.6737e-005     1.149e-008     
  3.95            -2.1664e-009    2.6939e-005     5.01e-010      
  4               -1.6063e-009    2.7158e-005     3.684e-009     
  4.05            -1.3806e-009    2.7366e-005     7.962e-009     
  4.1             -2.702e-009     2.757e-005      1.1294e-008    
  4.15            -2.3592e-009    2.7773e-005     2.09e-010      
  4.2             -1.7652e-009    2.7975e-005     2.41e-009      
  4.25            -1.4221e-009    2.8175e-005     6.331e-009     
  4.3             -1.3294e-009    2.8378e-005     1.046e-008     
  4.35            -2.5318e-009    2.8579e-005     1.2056e-008    
  4.4             -1.9467e-009    2.8764e-005     1.495e-009     
  4.45            -1.4854e-009    2.8959e-005     4.832e-009     
  4.5             -1.3519e-009    2.9144e-005     9.603e-009     
  4.55            -2.6402e-009    2.9336e-005     1.1296e-008    
  4.6             -2.1585e-009    2.9512e-005     4.37e-010      
  4.65            -1.5977e-009    2.9693e-005     3.655e-009     
  4.7             -1.3788e-009    2.9873e-005     7.923e-009     
  4.75            -2.7044e-009    3.0054e-005     1.1304e-008    
  4.8             -3.316e-010     3.0225e-005     -1.1156e-008   
  4.85            -8.211e-010     3.0398e-005     -1.1755e-008   
  4.9             -1.2051e-009    3.0568e-005     -1.0793e-008   
  4.95            3.19e-011       3.0729e-005     -1.1941e-008   
  5               -4.66e-010      3.0902e-005     -1.1606e-008   
END_DB

BEGIN_DB
 ICCAP_VAR VS         0              
 ICCAP_VAR VB         0              
 ICCAP_VAR VD         5              

 #VG              IG              ID              IB             
  0               7.238e-010      6.2921e-008     -1.6251e-008   
  0.05            1.0973e-009     1.3018e-007     -3.144e-008    
  0.1             1.5206e-009     2.7084e-007     -1.4155e-008   
  0.15            1.9495e-009     5.6434e-007     -4.296e-008    
  0.2             1.1463e-009     1.1162e-006     -1.1286e-007   
  0.25            1.6765e-009     2.0117e-006     -2.061e-007    
  0.3             1.3302e-009     3.3494e-006     -3.0979e-007   
  0.35            2.8701e-009     5.1198e-006     -4.5936e-007   
  0.4             2.532e-009      7.3307e-006     -6.3102e-007   
  0.45            1.8515e-009     9.8601e-006     -8.3555e-007   
  0.5             -1.7543e-009    1.2773e-005     -1.04705e-006  
  0.55            -2.275e-009     1.5801e-005     -1.2872e-006   
  0.6             -2.6284e-009    1.9073e-005     -1.5162e-006   
  0.65            -2.737e-009     2.2506e-005     -1.7477e-006   
  0.7             -2.5906e-009    2.6066e-005     -1.9721e-006   
  0.75            -2.0734e-009    2.9778e-005     -2.1985e-006   
  0.8             -1.5543e-009    3.3551e-005     -2.4159e-006   
  0.85            -1.3707e-009    3.7429e-005     -2.6296e-006   
  0.9             -2.689e-009     4.1379e-005     -2.835e-006    
  0.95            -2.2809e-009    4.5347e-005     -3.0466e-006   
  1               -1.6871e-009    4.9408e-005     -3.2389e-006   
  1.05            -1.4035e-009    5.3562e-005     -3.42e-006     
  1.1             -1.3238e-009    5.7673e-005     -3.5888e-006   
  1.15            -2.473e-009     6.1857e-005     -3.7551e-006   
  1.2             -1.8702e-009    6.5994e-005     -3.9188e-006   
  1.25            -1.4609e-009    7.0189e-005     -4.0609e-006   
  1.3             -1.3448e-009    7.4419e-005     -4.1919e-006   
  1.35            -2.6011e-009    7.864e-005      -4.3174e-006   
  1.4             -2.07e-009      8.2846e-005     -4.4466e-006   
  1.45            -1.5461e-009    8.7083e-005     -4.5541e-006   
  1.5             -1.3721e-009    9.1352e-005     -4.649e-006    
  1.55            -2.6873e-009    9.5602e-005     -4.7339e-006   
  1.6             -2.2718e-009    9.9831e-005     -4.8296e-006   
  1.65            -1.6849e-009    0.000104095     -4.9051e-006   
  1.7             -1.4056e-009    0.000108367     -4.9668e-006   
  1.75            -1.325e-009     0.000112617     -5.0283e-006   
  1.8             -1.4271e-009    0.00011692      -5.1016e-006   
  1.85            -1.335e-009     0.00012115      -5.1278e-006   
  1.9             -2.5384e-009    0.00012542      -5.1636e-006   
  1.95            -1.9702e-009    0.00012963      -5.2065e-006   
  2               -1.4953e-009    0.00013388      -5.2306e-006   
  2.05            -1.3565e-009    0.00013813      -5.2432e-006   
  2.1             -2.6516e-009    0.00014238      -5.2537e-006   
  2.15            -2.1777e-009    0.00014654      -5.273e-006    
  2.2             -1.6083e-009    0.00015079      -5.2733e-006   
  2.25            -1.3849e-009    0.000155        -5.2684e-006   
  2.3             -2.703e-009     0.00015919      -5.2603e-006   
  2.35            -2.3649e-009    0.00016337      -5.2592e-006   
  2.4             -1.7608e-009    0.00016755      -5.2424e-006   
  2.45            -1.4249e-009    0.00017175      -5.2193e-006   
  2.5             -1.3326e-009    0.00017594      -5.1924e-006   
  2.55            -2.532e-009     0.00018012      -5.1674e-006   
  2.6             -1.957e-009     0.00018423      -5.1466e-006   
  2.65            -1.489e-009     0.00018841      -5.1128e-006   
  2.7             -1.3538e-009    0.00019256      -5.072e-006    
  2.75            -2.6448e-009    0.00019676      -5.0295e-006   
  2.8             -2.1665e-009    0.00020087      -4.9996e-006   
  2.85            -1.5989e-009    0.000205        -4.9555e-006   
  2.9             -1.3794e-009    0.00020912      -4.9078e-006   
  2.95            -2.7026e-009    0.00021323      -4.8566e-006   
  3               -2.3572e-009    0.00021728      -4.8194e-006   
  3.05            -1.7529e-009    0.00022138      -4.7681e-006   
  3.1             -1.4198e-009    0.00022548      -4.7108e-006   
  3.15            -1.3301e-009    0.00022957      -4.6516e-006   
  3.2             -2.5273e-009    0.00023362      -4.5941e-006   
  3.25            -1.9469e-009    0.00023768      -4.549e-006    
  3.3             -1.4819e-009    0.00024173      -4.4882e-006   
  3.35            -1.3534e-009    0.00024575      -4.428e-006    
  3.4             -2.6375e-009    0.00024979      -4.3734e-006   
  3.45            -2.1555e-009    0.00025381      -4.3198e-006   
  3.5             -1.592e-009     0.00025782      -4.2571e-006   
  3.55            -1.3781e-009    0.00026186      -4.1946e-006   
  3.6             -2.7001e-009    0.00026586      -4.1287e-006   
  3.65            -2.3494e-009    0.00026981      -4.0814e-006   
  3.7             -1.7418e-009    0.00027378      -4.0148e-006   
  3.75            -1.418e-009     0.00027778      -3.9494e-006   
  3.8             -1.3288e-009    0.00028175      -3.8888e-006   
  3.85            -2.5187e-009    0.00028571      -3.8261e-006   
  3.9             -1.9373e-009    0.00028961      -3.7785e-006   
  3.95            -1.478e-009     0.00029354      -3.7162e-006   
  4               -1.3488e-009    0.0002974       -3.6512e-006   
  4.05            -2.6297e-009    0.00030143      -3.5896e-006   
  4.1             -2.1334e-009    0.00030528      -3.5443e-006   
  4.15            -1.5789e-009    0.00030918      -3.4808e-006   
  4.2             -1.3764e-009    0.00031311      -3.4228e-006   
  4.25            -2.6923e-009    0.00031699      -3.3571e-006   
  4.3             -2.3282e-009    0.00032082      -3.3109e-006   
  4.35            -1.73e-009      0.0003247       -3.2559e-006   
  4.4             -1.4133e-009    0.00032863      -3.1948e-006   
  4.45            -1.3251e-009    0.00033245      -3.1337e-006   
  4.5             -2.4987e-009    0.00033627      -3.0797e-006   
  4.55            -1.9104e-009    0.00034008      -3.0352e-006   
  4.6             -1.4721e-009    0.0003439       -2.9734e-006   
  4.65            -1.3447e-009    0.00034774      -2.9176e-006   
  4.7             -2.6162e-009    0.00035154      -2.8552e-006   
  4.75            -2.1109e-009    0.00035528      -2.8208e-006   
  4.8             -1.5663e-009    0.00035902      -2.7644e-006   
  4.85            -1.3683e-009    0.00036285      -2.7114e-006   
  4.9             -2.6866e-009    0.00036657      -2.6566e-006   
  4.95            -2.3108e-009    0.00037029      -2.616e-006    
  5               -1.7081e-009    0.00037401      -2.5687e-006   
END_DB

BEGIN_DB
 ICCAP_VAR VS         0              
 ICCAP_VAR VB         -2.5           
 ICCAP_VAR VD         0.1            

 #VG              IG              ID              IB             
  0               9.217e-010      8.885e-010      2.3751e-008    
  0.05            1.3091e-009     -1.3583e-009    -2.4395e-008   
  0.1             1.2746e-009     4.59e-011       -9.389e-009    
  0.15            2.8642e-009     -8.81e-011      -1.3094e-008   
  0.2             7.76e-011       2.0936e-009     1.0674e-008    
  0.25            2.651e-010      2.1904e-009     1.1245e-008    
  0.3             4.644e-010      2.2792e-009     1.108e-008     
  0.35            -1.3445e-009    1.448e-009      2.5403e-008    
  0.4             -2.7094e-009    1.611e-010      1.1536e-008    
  0.45            2.8e-012        -1.6968e-009    -1.1169e-008   
  0.5             1.7331e-009     2.465e-010      -1.1607e-008   
  0.55            1.5047e-009     4.6686e-009     -9.125e-009    
  0.6             -2.6745e-009    1.4769e-008     -1.1746e-008   
  0.65            -2.2322e-009    4.8695e-008     2.36e-010      
  0.7             9.295e-010      1.437e-007      -1.6753e-008   
  0.75            -2.134e-010     3.4889e-007     1.3723e-008    
  0.8             1.825e-010      7.0071e-007     1.0707e-008    
  0.85            -1.7767e-009    1.2064e-006     -1.2193e-008   
  0.9             -1.4277e-009    1.8394e-006     5.963e-009     
  0.95            -1.3325e-009    2.5501e-006     1.0707e-008    
  1               -2.5429e-009    3.2819e-006     1.1869e-008    
  1.05            -1.9744e-009    4.0213e-006     1.291e-009     
  1.1             -1.4969e-009    4.7381e-006     4.598e-009     
  1.15            -1.3543e-009    5.4285e-006     9.69e-009      
  1.2             -2.6532e-009    6.0848e-006     1.1523e-008    
  1.25            -2.1832e-009    6.709e-006      4.06e-010      
  1.3             -9.334e-010     7.3183e-006     -1.1329e-008   
  1.35            2.852e-010      7.8835e-006     -1.3511e-008   
  1.4             -1.005e-010     8.4415e-006     -1.1416e-008   
  1.45            -6.173e-010     8.9804e-006     -1.1765e-008   
  1.5             -1.0227e-009    9.5011e-006     -1.1376e-008   
  1.55            1.968e-010      9.9806e-006     -1.268e-008    
  1.6             -2.298e-010     1.04443e-005    -1.1253e-008   
  1.65            -7.403e-010     1.09143e-005    -1.1762e-008   
  1.7             -1.1292e-009    1.13663e-005    -1.084e-008    
  1.75            1.931e-009      1.18e-005       -1.7942e-008   
  1.8             8.003e-010      1.2224e-005     1.0972e-008    
  1.85            -1.5223e-009    1.2639e-005     1.659e-008     
  1.9             -1.3611e-009    1.304e-005      9.159e-009     
  1.95            -2.6678e-009    1.3435e-005     1.1607e-008    
  2               -2.2279e-009    1.381e-005      4.17e-010      
  2.05            -1.6377e-009    1.4184e-005     3.121e-009     
  2.1             -1.3906e-009    1.4547e-005     7.559e-009     
  2.15            -1.3132e-009    1.4911e-005     1.135e-008     
  2.2             -2.4233e-009    1.526e-005      1.3093e-008    
  2.25            -1.7983e-009    1.5597e-005     2.322e-009     
  2.3             -1.433e-009     1.5932e-005     5.946e-009     
  2.35            -1.3361e-009    1.6265e-005     1.0478e-008    
  2.4             -2.5648e-009    1.6589e-005     1.1822e-008    
  2.45            -2.0023e-009    1.69e-005       1.091e-009     
  2.5             -1.5103e-009    1.7212e-005     4.366e-009     
  2.55            -1.3562e-009    1.752e-005      9.42e-009      
  2.6             -2.665e-009     1.7827e-005     1.1352e-008    
  2.65            -2.2081e-009    1.8119e-005     3.81e-010      
  2.7             -1.6304e-009    1.8414e-005     3.207e-009     
  2.75            -1.3863e-009    1.8709e-005     7.521e-009     
  2.8             -1.3124e-009    1.8993e-005     1.1276e-008    
  2.85            -2.4189e-009    1.9272e-005     1.3263e-008    
  2.9             -1.7959e-009    1.9547e-005     2.213e-009     
  2.95            -1.4286e-009    1.9814e-005     5.976e-009     
  3               -1.3325e-009    2.0086e-005     1.0435e-008    
  3.05            -2.5556e-009    2.0348e-005     1.1873e-008    
  3.1             -1.9906e-009    2.0603e-005     1.173e-009     
  3.15            -1.5045e-009    2.0862e-005     4.533e-009     
  3.2             -1.3577e-009    2.1114e-005     9.269e-009     
  3.25            -2.6527e-009    2.1366e-005     1.1496e-008    
  3.3             -2.1975e-009    2.161e-005      3.51e-010      
  3.35            -1.6166e-009    2.1854e-005     3.454e-009     
  3.4             -1.3845e-009    2.21e-005       7.614e-009     
  3.45            -2.7044e-009    2.2331e-005     1.1487e-008    
  3.5             -3.012e-010     2.2563e-005     -1.1309e-008   
  3.55            -7.95e-010      2.2792e-005     -1.1646e-008   
  3.6             1.6358e-009     2.301e-005      -1.5945e-008   
  3.65            1.3271e-009     2.3249e-005     -9.01e-009     
  3.7             2.8631e-009     2.3467e-005     -8.797e-009    
  3.75            3.544e-010      2.3698e-005     1.0795e-008    
  3.8             -1.3202e-009    2.3914e-005     2.6881e-008    
  3.85            -2.4676e-009    2.413e-005      1.2702e-008    
  3.9             -1.8568e-009    2.4336e-005     1.871e-009     
  3.95            -1.4497e-009    2.4548e-005     5.602e-009     
  4               -1.3378e-009    2.4755e-005     1.0039e-008    
  4.05            -2.5946e-009    2.4965e-005     1.172e-008     
  4.1             -2.0694e-009    2.5167e-005     6.75e-010      
  4.15            -1.5404e-009    2.5368e-005     4.004e-009     
