! VERSION = 6.00
BEGIN_HEADER
 ICCAP_INPUTS
  VG         V  B GROUND SMU4 0.001 LIN        2    0          5          6    1         
  VS         V  E GROUND SMU2 0.1 CON        0
  VD         V  S GROUND SMU1 0.1 LIN        1    0          5          101  0.05      
  VB         V  C GROUND SMU3 0.1 LIN        3    0          -2.5       2    -2.5      
 ICCAP_OUTPUTS
  ID         I  S GROUND SMU1 B
  IB         I  C GROUND SMU3 B
  IG         I  B GROUND SMU4 B
END_HEADER

BEGIN_DB
 ICCAP_VAR VG         0              
 ICCAP_VAR VS         0              
 ICCAP_VAR VB         0              

 #VD              ID              IB              IG             
  0               6.265e-010      2.4922e-008     -2.6488e-009   
  0.05            -2.2164e-009    9.72e-010       -1.0424e-009   
  0.1             -1.7527e-009    -1.0763e-008    1.6058e-009    
  0.15            1.5563e-009     -8.648e-009     1.8122e-009    
  0.2             2.2904e-009     1.2729e-008     4.274e-010     
  0.25            2.3183e-009     1.2286e-008     6.21e-010      
  0.3             2.3353e-009     1.0509e-008     7.852e-010     
  0.35            1.6564e-009     1.739e-008      -1.8869e-009   
  0.4             -1.7936e-009    5.528e-009      -1.659e-009    
  0.45            -1.5188e-009    -2.3553e-008    2.4898e-009    
  0.5             2.2082e-009     -5.585e-009     1.3235e-009    
  0.55            1.2444e-009     2.9321e-008     -1.3777e-009   
  0.6             -2.157e-009     1.0767e-008     -1.2696e-009   
  0.65            -2.0234e-009    -1.1376e-008    -1.4439e-009   
  0.7             -1.3554e-009    -2.6857e-008    1.3233e-009    
  0.75            1.049e-010      -8.858e-009     1.3263e-009    
  0.8             -2.62e-011      -1.204e-008     2.869e-009     
  0.85            1.4265e-009     2.8109e-008     -1.3804e-009   
  0.9             3.54e-011       1.2809e-008     -1.3704e-009   
  0.95            1.934e-010      1.4311e-008     -2.6731e-009   
  1               -1.5911e-009    -1.9714e-008    2.2846e-009    
  1.05            2.0905e-009     -7.211e-009     1.438e-009     
  1.1             1.3476e-009     2.9257e-008     -1.3784e-009   
  1.15            -4.33e-011      1.2263e-008     -1.3797e-009   
  1.2             1.092e-010      1.3493e-008     -2.6969e-009   
  1.25            -1.5407e-009    -2.2895e-008    2.4498e-009    
  1.3             2.1865e-009     -5.796e-009     1.3424e-009    
  1.35            1.2665e-009     2.9477e-008     -1.3754e-009   
  1.4             -2.1439e-009    1.1095e-008     -1.2935e-009   
  1.45            -2.0029e-009    -1.0532e-008    -1.4702e-009   
  1.5             -1.3721e-009    -2.6665e-008    1.3231e-009    
  1.55            8.9e-011        -9.412e-009     2.8572e-009    
  1.6             1.2944e-009     2.94e-008       -1.3754e-009   
  1.65            -2.1271e-009    1.1494e-008     -1.3192e-009   
  1.7             -1.9684e-009    -1.0607e-008    -1.4993e-009   
  1.75            -1.4014e-009    -2.6406e-008    1.3248e-009    
  1.8             6.64e-011       -9.808e-009     2.8623e-009    
  1.85            1.3169e-009     2.937e-008      -1.3791e-009   
  1.9             -2.106e-009     1.1876e-008     -1.3507e-009   
  1.95            -1.9363e-009    -1.0834e-008    -1.5328e-009   
  2               -1.4232e-009    -2.6223e-008    1.3267e-009    
  2.05            4.68e-011       -1.02e-008      2.8658e-009    
  2.1             1.3387e-009     2.9267e-008     -1.3804e-009   
  2.15            -4.75e-011      1.2357e-008     -1.3836e-009   
  2.2             1.02e-010       1.3578e-008     -2.7023e-009   
  2.25            -1.5318e-009    -2.2885e-008    2.4463e-009    
  2.3             2.1925e-009     -5.736e-009     1.3387e-009    
  2.35            1.2619e-009     2.9345e-008     -1.3822e-009   
  2.4             -2.1542e-009    1.112e-008      -1.2833e-009   
  2.45            -1.9987e-009    -1.0535e-008    -1.4573e-009   
  2.5             -1.3647e-009    -2.6648e-008    1.3295e-009    
  2.55            9.36e-011       -9.324e-009     2.8545e-009    
  2.6             1.2865e-009     2.9386e-008     -1.3813e-009   
  2.65            -2.1354e-009    1.1387e-008     -1.3083e-009   
  2.7             -1.9849e-009    -1.1691e-008    -1.4884e-009   
  2.75            -1.3876e-009    -2.6647e-008    1.324e-009     
  2.8             7.63e-011       -9.684e-009     1.3269e-009    
  2.85            -5.7e-011       -1.2992e-008    2.8739e-009    
  2.9             1.4513e-009     2.7312e-008     -1.3835e-009   
  2.95            5.78e-011       1.3139e-008     -1.3678e-009   
  3               2.209e-010      1.4778e-008     -2.666e-009    
  3.05            -1.2753e-009    9.8e-010        -1.982e-009    
  3.1             -2.2473e-009    -1.2491e-008    -7.211e-010    
  3.15            -1.592e-009     -1.9831e-008    2.2944e-009    
  3.2             2.0947e-009     -6.871e-009     1.4393e-009    
  3.25            1.3428e-009     2.927e-008      -1.3771e-009   
  3.3             -4.34e-011      1.2269e-008     -1.3793e-009   
  3.35            9.92e-011       1.3505e-008     -2.693e-009    
  3.4             -1.532e-009     -2.3252e-008    1.3246e-009    
  3.45            -8.02e-011      -1.3253e-008    2.8682e-009    
  3.5             1.4668e-009     2.6625e-008     -1.3818e-009   
  3.55            7.56e-011       1.3292e-008     -1.3622e-009   
  3.6             2.456e-010      1.4943e-008     -2.6536e-009   
  3.65            -2.2206e-009    9.99e-010       -1.0259e-009   
  3.7             -1.7432e-009    -1.1081e-008    1.6484e-009    
  3.75            1.5925e-009     -8.905e-009     1.791e-009     
  3.8             2.2825e-009     1.2642e-008     4.002e-010     
  3.85            2.3158e-009     1.2133e-008     5.908e-010     
  3.9             2.3368e-009     1.0461e-008     7.606e-010     
  3.95            1.6325e-009     1.8494e-008     -1.3566e-009   
  4               2.902e-010      1.5668e-008     -2.6347e-009   
  4.05            -2.2125e-009    1.097e-009      -1.0698e-009   
  4.1             -1.7689e-009    -1.0372e-008    1.5806e-009    
  4.15            1.5192e-009     -8.622e-009     1.832e-009     
  4.2             2.2938e-009     1.2674e-008     4.514e-010     
  4.25            2.3248e-009     1.162e-008      6.332e-010     
  4.3             2.3371e-009     1.0258e-008     8.014e-010     
  4.35            1.6711e-009     1.7392e-008     -1.3392e-009   
  4.4             3.285e-010      1.6215e-008     -2.6155e-009   
  4.45            -2.2101e-009    1.04e-009       -1.1045e-009   
  4.5             -2.1458e-009    -1.0068e-008    -1.2658e-009   
  4.55            -2.0183e-009    -1.1425e-008    -1.4442e-009   
  4.6             -1.3487e-009    -2.6652e-008    1.3198e-009    
  4.65            1.014e-010      -8.973e-009     1.3242e-009    
  4.7             -2.66e-011      -1.1344e-008    1.3215e-009    
  4.75            -1.927e-010     -1.5141e-008    2.8611e-009    
  4.8             1.533e-009      2.3093e-008     -1.3728e-009   
  4.85            1.844e-010      1.3879e-008     -2.6796e-009   
  4.9             -1.5773e-009    -2.0708e-008    1.3208e-009    
  4.95            -1.618e-010     -1.4553e-008    2.8643e-009    
  5               1.5207e-009     2.4101e-008     -1.3761e-009   
END_DB

BEGIN_DB
 ICCAP_VAR VG         1              
 ICCAP_VAR VS         0              
 ICCAP_VAR VB         0              

 #VD              ID              IB              IG             
  0               -1.4376e-008    -1.3158e-008    -9.399e-010    
  0.05            1.0562e-006     4.733e-009      1.0919e-009    
  0.1             1.84e-006       -8.625e-009     1.3238e-009    
  0.15            2.418e-006      -1.0805e-008    -1.0758e-009   
  0.2             2.833e-006      7.047e-009      -1.3761e-009   
  0.25            3.1112e-006     1.1259e-008     9.343e-010     
  0.3             3.3115e-006     -1.8937e-008    1.5813e-009    
  0.35            3.4788e-006     -1.3258e-008    -6.81e-010     
  0.4             3.6311e-006     1.7633e-008     -2.046e-009    
  0.45            3.7412e-006     2.97e-008       -1.3815e-009   
  0.5             3.8418e-006     2.9731e-008     -1.3792e-009   
  0.55            3.932e-006      2.9603e-008     -1.3777e-009   
  0.6             4.0102e-006     2.9474e-008     -1.3755e-009   
  0.65            4.0846e-006     2.9208e-008     -1.3725e-009   
  0.7             4.1673e-006     2.8812e-008     -1.369e-009    
  0.75            4.2406e-006     2.8215e-008     -1.3641e-009   
  0.8             4.3034e-006     2.7812e-008     -1.3612e-009   
  0.85            4.3703e-006     2.7211e-008     -1.9177e-009   
  0.9             4.4253e-006     2.9418e-008     -1.3748e-009   
  0.95            4.4964e-006     2.899e-008      -1.3719e-009   
  1               4.5642e-006     2.8657e-008     -1.3686e-009   
  1.05            4.6242e-006     2.8125e-008     -1.9839e-009   
  1.1             4.672e-006      2.9608e-008     -1.3784e-009   
  1.15            4.7374e-006     2.9568e-008     -1.3768e-009   
  1.2             4.7985e-006     2.928e-008      -2.081e-009    
  1.25            4.865e-006      2.9776e-008     -1.3829e-009   
  1.3             4.9127e-006     2.9662e-008     -1.3822e-009   
  1.35            4.9707e-006     2.9789e-008     -1.3799e-009   
  1.4             5.0253e-006     2.9595e-008     -1.3769e-009   
  1.45            5.0808e-006     2.9385e-008     -2.1009e-009   
  1.5             5.0541e-006     1.0942e-008     1.7961e-009    
  1.55            5.1588e-006     -2.2135e-008    1.9615e-009    
  1.6             5.2146e-006     -2.5284e-008    2.1627e-009    
  1.65            5.2509e-006     -2.679e-008     1.3256e-009    
  1.7             5.3153e-006     -2.6439e-008    1.3227e-009    
  1.75            5.349e-006      -2.6231e-008    2.2745e-009    
  1.8             5.4054e-006     -2.7024e-008    1.3283e-009    
  1.85            5.4566e-006     -2.706e-008     1.3269e-009    
  1.9             5.5067e-006     -2.6831e-008    1.3252e-009    
  1.95            5.5683e-006     -2.687e-008     1.3256e-009    
  2               5.6115e-006     -2.6479e-008    2.3041e-009    
  2.05            5.6483e-006     -2.7204e-008    1.3285e-009    
  2.1             5.704e-006      -2.7245e-008    1.3267e-009    
  2.15            5.7465e-006     -2.7126e-008    1.3266e-009    
  2.2             5.7936e-006     -2.7082e-008    1.3244e-009    
  2.25            5.8542e-006     -2.6966e-008    2.33e-009      
  2.3             5.8971e-006     -2.7593e-008    1.328e-009     
  2.35            5.9426e-006     -2.7799e-008    1.3274e-009    
  2.4             5.9853e-006     -2.7877e-008    1.3277e-009    
  2.45            6.031e-006      -2.7988e-008    1.3261e-009    
  2.5             6.0702e-006     -2.8125e-008    1.3233e-009    
  2.55            6.1224e-006     -1.2947e-008    -1.543e-010    
  2.6             6.2189e-006     1.159e-008      -2.584e-009    
  2.65            6.272e-006      1.1166e-008     -2.5679e-009   
  2.7             6.3158e-006     1.0863e-008     -2.5545e-009   
  2.75            6.3489e-006     1.058e-008      -2.5349e-009   
  2.8             6.4029e-006     1e-008          -2.5098e-009   
  2.85            6.439e-006      9.592e-009      -2.4901e-009   
  2.9             6.4789e-006     9.136e-009      -2.464e-009    
  2.95            6.5359e-006     8.332e-009      -2.438e-009    
  3               6.5727e-006     7.276e-009      -2.4135e-009   
  3.05            6.6236e-006     6.039e-009      -2.3818e-009   
  3.1             6.6702e-006     4.833e-009      -2.3539e-009   
  3.15            6.712e-006      3.361e-009      -2.3219e-009   
  3.2             6.758e-006      1.416e-009      -2.2919e-009   
  3.25            6.8019e-006     -8.46e-010      -2.2591e-009   
  3.3             6.7549e-006     -9.135e-009     1.7021e-009    
  3.35            6.8534e-006     -4.8545e-008    2.1581e-009    
  3.4             6.9242e-006     -3.8619e-008    -1.8752e-009   
  3.45            6.9881e-006     -7.187e-009     -1.7437e-009   
  3.5             6.97e-006       -2.3199e-008    2.0082e-009    
  3.55            7.0244e-006     -5.3986e-008    1.5934e-009    
  3.6             7.0873e-006     -5.3525e-008    -2.0634e-009   
  3.65            7.1781e-006     -3.6937e-008    -2.767e-010    
  3.7             7.1672e-006     -6.3078e-008    2.8677e-009    
  3.75            7.2376e-006     -7.2763e-008    -1.0602e-009   
  3.8             7.3254e-006     -4.8638e-008    -1.4816e-009   
  3.85            7.3301e-006     -6.7724e-008    2.2218e-009    
  3.9             7.3832e-006     -9.6025e-008    -1.3352e-009   
  3.95            7.462e-006      -8.7119e-008    -1.3756e-009   
  4               7.4984e-006     -1.0041e-007    -9.65e-010     
  4.05            7.5272e-006     -1.1766e-007    2.2449e-009    
  4.1             7.6362e-006     -1.399e-007     -1.8362e-009   
  4.15            7.6955e-006     -1.1592e-007    -1.8553e-009   
  4.2             7.6844e-006     -1.4377e-007    1.9465e-009    
  4.25            7.7528e-006     -1.8803e-007    1.6876e-009    
  4.3             7.8341e-006     -1.9858e-007    -2.0268e-009   
  4.35            7.9275e-006     -1.9001e-007    -1.4709e-009   
  4.4             7.9421e-006     -2.13e-007      2.2368e-009    
  4.45            8.0036e-006     -2.5393e-007    2.091e-010     
  4.5             8.1173e-006     -2.5466e-007    -2.7078e-009   
  4.55            8.1353e-006     -2.7721e-007    1.084e-009     
  4.6             8.1975e-006     -3.3381e-007    1.4113e-009    
  4.65            8.2837e-006     -3.4722e-007    -2.2038e-009   
  4.7             8.392e-006      -3.5416e-007    -1.29e-010     
  4.75            8.3994e-006     -4.0075e-007    2.869e-009     
  4.8             8.5337e-006     -4.3277e-007    -1.2147e-009   
  4.85            8.6291e-006     -4.2825e-007    -1.3983e-009   
  4.9             8.6609e-006     -4.769e-007     2.3718e-009    
  4.95            8.7244e-006     -5.3264e-007    6.61e-011      
  5               8.8725e-006     -5.4849e-007    -2.6753e-009   
END_DB

BEGIN_DB
 ICCAP_VAR VG         2              
 ICCAP_VAR VS         0              
 ICCAP_VAR VB         0              

 #VD              ID              IB              IG             
  0               -6.6512e-008    1.2603e-008     1.3033e-009    
  0.05            5.4842e-006     1.2715e-008     2.8593e-009    
  0.1             1.07878e-005    -1.2379e-008    -9.519e-010    
  0.15            1.5819e-005     1.8183e-008     -7.872e-010    
  0.2             2.0553e-005     8.528e-009      -1.3781e-009   
  0.25            2.4945e-005     1.2299e-008     4.978e-010     
  0.3             2.8974e-005     -1.9677e-008    1.5454e-009    
  0.35            3.2697e-005     -9.998e-009     -1.1704e-009   
  0.4             3.6037e-005     2.9169e-008     -1.3745e-009   
  0.45            3.9001e-005     1.257e-008      6.922e-010     
  0.5             4.1611e-005     -8.252e-009     1.3244e-009    
  0.55            4.3935e-005     -1.27e-008      -4.978e-010    
  0.6             4.596e-005      1.9935e-008     -1.5479e-009   
  0.65            4.7633e-005     9.817e-009      1.0744e-009    
  0.7             4.906e-005      -2.6397e-008    1.3236e-009    
  0.75            5.0389e-005     -1.169e-008     -1.7699e-009   
  0.8             5.1438e-005     1.174e-008      -2.449e-010    
  0.85            5.2285e-005     -1.6074e-008    2.6879e-009    
  0.9             5.3083e-005     -2.3971e-008    2.0753e-009    
  0.95            5.3786e-005     -1.2737e-008    -8.939e-010    
  1               5.4405e-005     2.6304e-008     -1.3761e-009   
  1.05            5.4946e-005     2.5634e-008     -1.8626e-009   
  1.1             5.5359e-005     1.1728e-008     8.765e-010     
  1.15            5.5716e-005     -2.5588e-008    1.3256e-009    
  1.2             5.6126e-005     -2.0974e-008    1.8899e-009    
  1.25            5.6516e-005     -1.2135e-008    -9.753e-010    
  1.3             5.6872e-005     2.782e-008      -1.3786e-009   
  1.35            5.7217e-005     2.2054e-008     -1.7033e-009   
  1.4             5.7465e-005     1.1188e-008     9.665e-010     
  1.45            5.7683e-005     -2.6515e-008    2.6013e-009    
  1.5             5.7966e-005     -2.1416e-008    1.933e-009     
  1.55            5.8263e-005     -1.2537e-008    -9.628e-010    
  1.6             5.8566e-005     2.7491e-008     -1.3779e-009   
  1.65            5.8794e-005     2.2832e-008     -1.7358e-009   
  1.7             5.8987e-005     1.1477e-008     9.421e-010     
  1.75            5.9182e-005     -2.6303e-008    2.6282e-009    
  1.8             5.9388e-005     -2.2436e-008    1.9815e-009    
  1.85            5.9618e-005     -1.2613e-008    -9.385e-010    
  1.9             5.9889e-005     2.7222e-008     -1.3764e-009   
  1.95            6.0068e-005     2.3582e-008     -1.7704e-009   
  2               6.02e-005       1.165e-008      9.23e-010      
  2.05            6.0366e-005     -2.615e-008     1.325e-009     
  2.1             6.0521e-005     -1.9264e-008    1.7909e-009    
  2.15            6.0782e-005     -1.1819e-008    -1.0235e-009   
  2.2             6.0962e-005     2.8292e-008     -1.3803e-009   
  2.25            6.1142e-005     1.9599e-008     -1.6297e-009   
  2.3             6.1246e-005     1.0275e-008     1.0055e-009    
  2.35            6.1365e-005     -2.7308e-008    2.5266e-009    
  2.4             6.1569e-005     -1.3854e-008    -6.311e-010    
  2.45            6.1773e-005     6.366e-009      -1.3771e-009   
  2.5             6.1943e-005     2.4621e-008     -1.8794e-009   
  2.55            6.2029e-005     1.0179e-008     8.669e-010     
  2.6             6.2116e-005     -2.8215e-008    1.325e-009     
  2.65            6.2419e-005     -1.3027e-008    -1.5331e-009   
  2.7             6.2502e-005     1.1705e-008     -2.3567e-009   
  2.75            6.2673e-005     5.812e-009      -2.6954e-009   
  2.8             6.2799e-005     9.386e-009      -2.3032e-009   
  2.85            6.2954e-005     2.903e-009      -2.6886e-009   
  2.9             6.3061e-005     5.671e-009      -2.2452e-009   
  2.95            6.3177e-005     -1.7796e-008    -2.7178e-009   
  3               6.3357e-005     -2.368e-009     -2.508e-009    
  3.05            6.3434e-005     -8.182e-009     4.193e-010     
  3.1             6.3493e-005     -4.3573e-008    1.6361e-009    
  3.15            6.3711e-005     -3.7686e-008    -2.4951e-009   
  3.2             6.3833e-005     -2.1876e-008    7.271e-010     
  3.25            6.3891e-005     -6.4386e-008    1.3591e-009    
  3.3             6.4092e-005     -5.6456e-008    -2.7013e-009   
  3.35            6.4207e-005     -4.5298e-008    9.836e-010     
  3.4             6.4298e-005     -9.1891e-008    2.5743e-009    
  3.45            6.4476e-005     -8.6738e-008    -2.0213e-009   
  3.5             6.4655e-005     -7.6718e-008    1.433e-010     
  3.55            6.4755e-005     -1.17259e-007   2.5681e-009    
  3.6             6.4844e-005     -1.1453e-007    2.8691e-009    
  3.65            6.5065e-005     -1.425e-007     -1.6922e-009   
  3.7             6.5165e-005     -1.3684e-007    -1.4704e-009   
  3.75            6.5245e-005     -1.6297e-007    2.6316e-009    
  3.8             6.5407e-005     -2.0698e-007    -9.073e-010    
  3.85            6.5601e-005     -1.9361e-007    -1.3761e-009   
  3.9             6.5678e-005     -2.3965e-007    2.7897e-009    
  3.95            6.5878e-005     -2.9023e-007    -1.1572e-009   
  4               6.6045e-005     -2.8558e-007    -1.3773e-009   
  4.05            6.611e-005      -3.4796e-007    2.8613e-009    
  4.1             6.6367e-005     -4.0531e-007    -1.4403e-009   
  4.15            6.6522e-005     -4.1967e-007    -1.7423e-009   
