! VERSION = 6.00
BEGIN_HEADER
 ICCAP_INPUTS
  VG         V  B GROUND SMU4 0.001 LIN        1    0          5          101  0.05      
  VS         V  E GROUND SMU2 0.1 CON        0
  VB         V  C GROUND SMU3 0.1 LIN        3    0          -5         3    -2.5      
  VD         V  S GROUND SMU1 0.1 LIN        2    0.1        5          2    4.9       
 ICCAP_OUTPUTS
  IG         I  B GROUND SMU4 B
  ID         I  S GROUND SMU1 B
  IB         I  C GROUND SMU3 B
END_HEADER

BEGIN_DB
 ICCAP_VAR VS         0              
 ICCAP_VAR VB         0              
 ICCAP_VAR VD         0.1            

 #VG              IG              ID              IB             
  0               4.962e-010      5.706e-010      -1.0967e-008   
  0.05            1.52e-009       -1.7925e-009    -1.2108e-008   
  0.1             1.9217e-009     1.4451e-009     -8.801e-009    
  0.15            4.876e-010      2.3588e-009     1.0607e-008    
  0.2             -1.3467e-009    1.4597e-009     2.4978e-008    
  0.25            -1.3173e-009    7.95e-011       1.1308e-008    
  0.3             -2.6914e-009    2.299e-010      1.2513e-008    
  0.35            -9.753e-010     -2.174e-009     7.23e-010      
  0.4             1.7458e-009     -1.3647e-009    -1.3236e-008   
  0.45            2.6645e-009     2.3305e-009     -9.151e-009    
  0.5             2.947e-010      6.9986e-009     1.0446e-008    
  0.55            -2.0251e-009    1.6239e-008     -1.9234e-008   
  0.6             -1.5284e-009    6.0027e-008     3.998e-009     
  0.65            8.605e-010      1.9485e-007     -1.6712e-008   
  0.7             -1.5122e-009    5.8451e-007     1.5686e-008    
  0.75            -2.0089e-009    1.4586e-006     -1.1337e-008   
  0.8             2.282e-010      3.2683e-006     -1.2609e-008   
  0.85            -2.169e-010     6.431e-006      -1.1152e-008   
  0.9             -7.013e-010     1.11571e-005    -1.1141e-008   
  0.95            2.9265e-009     1.7221e-005     -1.1481e-008   
  1               2.1193e-009     2.4244e-005     9.333e-009     
  1.05            -1.956e-010     3.1961e-005     1.2909e-008    
  1.1             2.242e-010      3.9784e-005     1.0556e-008    
  1.15            6.639e-010      4.7555e-005     1.0518e-008    
  1.2             -1.6866e-009    5.5103e-005     2.0642e-008    
  1.25            -1.4066e-009    6.2362e-005     6.949e-009     
  1.3             -1.3258e-009    6.9308e-005     1.1282e-008    
  1.35            -2.5122e-009    7.5948e-005     1.1884e-008    
  1.4             -1.9316e-009    8.222e-005      1.63e-009      
  1.45            -1.4963e-009    8.8287e-005     4.528e-009     
  1.5             -1.3594e-009    9.4123e-005     9.699e-009     
  1.55            -2.6875e-009    9.9716e-005     1.1306e-008    
  1.6             -2.2376e-009    0.000105037     6.96e-010      
  1.65            -1.664e-009     0.000110218     2.914e-009     
  1.7             -1.7233e-009    0.00011534      1.0041e-008    
  1.75            -1.4154e-009    0.00012016      6.54e-009      
  1.8             -1.3288e-009    0.00012491      1.0922e-008    
  1.85            -2.5485e-009    0.00012943      1.175e-008     
  1.9             -1.9727e-009    0.00013379      1.394e-009     
  1.95            -1.5133e-009    0.00013807      4.181e-009     
  2               -1.3676e-009    0.00014225      9.317e-009     
  2.05            -2.7007e-009    0.0001463       1.1692e-008    
  2.1             -2.2738e-009    0.0001502       7.51e-010      
  2.15            -1.6952e-009    0.00015404      2.802e-009     
  2.2             -1.4128e-009    0.0001578       6.713e-009     
  2.25            -1.326e-009     0.0001615       1.0913e-008    
  2.3             -2.5286e-009    0.00016507      1.1781e-008    
  2.35            -1.9667e-009    0.00016851      1.446e-009     
  2.4             -1.5089e-009    0.00017194      4.458e-009     
  2.45            -1.3622e-009    0.00017532      9.315e-009     
  2.5             -2.6979e-009    0.00017858      1.1515e-008    
  2.55            -2.2577e-009    0.00018176      6.87e-010      
  2.6             -1.6843e-009    0.0001849       2.866e-009     
  2.65            -1.4099e-009    0.00018797      6.85e-009      
  2.7             -1.3221e-009    0.00019103      1.0967e-008    
  2.75            -2.5152e-009    0.00019399      1.1811e-008    
  2.8             -1.952e-009     0.00019685      1.601e-009     
  2.85            -1.5048e-009    0.00019973      4.4e-009       
  2.9             -1.3603e-009    0.00020253      9.521e-009     
  2.95            -2.6872e-009    0.00020526      1.128e-008     
  3               -2.2416e-009    0.00020793      7.83e-010      
  3.05            1.908e-010      0.00021038      -1.2612e-008   
  3.1             -2.392e-010     0.00021307      -1.1127e-008   
  3.15            -7.304e-010     0.00021561      -1.0992e-008   
  3.2             1.7677e-009     0.00021804      -1.7742e-008   
  3.25            1.3663e-009     0.00022056      -9.223e-009    
  3.3             2.9293e-009     0.00022294      -8.438e-009    
  3.35            2.6657e-009     0.00022534      -3.34e-010     
  3.4             2.5473e-009     0.00022763      9.456e-009     
  3.45            1.5074e-009     0.00022986      1.1423e-008    
  3.5             3.337e-010      0.00023219      1.0202e-008    
  3.55            7.717e-010      0.00023436      1.0581e-008    
  3.6             -1.585e-009     0.00023647      1.7916e-008    
  3.65            -1.3792e-009    0.00023865      8.439e-009     
  3.7             -2.7354e-009    0.00024072      1.1559e-008    
  3.75            -1.336e-009     0.00024281      -1.1555e-008   
  3.8             -7.91e-011      0.00024474      -1.1587e-008   
  3.85            -5.692e-010     0.00024674      -1.0873e-008   
  3.9             1.9822e-009     0.00024873      -2.0744e-008   
  3.95            1.4475e-009     0.00025062      -8.724e-009    
  4               1.2852e-009     0.00025243      -8.657e-009    
  4.05            2.8005e-009     0.00025431      -1.0947e-008   
  4.1             4.969e-010      0.00025616      1.0363e-008    
  4.15            -1.8795e-009    0.00025799      2.4473e-008    
  4.2             -1.4668e-009    0.00025967      5.082e-009     
  4.25            -1.3444e-009    0.0002614       9.918e-009     
  4.3             -2.64e-009      0.0002631       1.1307e-008    
  4.35            -2.1498e-009    0.00026475      7.59e-010      
  4.4             -1.6186e-009    0.0002664       3.452e-009     
  4.45            -1.3889e-009    0.00026803      7.678e-009     
  4.5             -2.7555e-009    0.00026962      1.1576e-008    
  4.55            -2.672e-010     0.00027109      -1.1056e-008   
  4.6             -7.533e-010     0.00027263      -1.1071e-008   
  4.65            1.7382e-009     0.00027404      -1.7289e-008   
  4.7             1.3575e-009     0.00027556      -9.23e-009     
  4.75            2.9248e-009     0.00027704      -8.553e-009    
  4.8             2.635e-009      0.00027846      -3.53e-010     
  4.85            2.5697e-009     0.00027986      9.482e-009     
  4.9             1.5348e-009     0.00028122      1.1374e-008    
  4.95            3.582e-010      0.00028259      1.0243e-008    
  5               -1.3164e-009    0.0002839       2.6262e-008    
END_DB

BEGIN_DB
 ICCAP_VAR VS         0              
 ICCAP_VAR VB         0              
 ICCAP_VAR VD         5              

 #VG              IG              ID              IB             
  0               -1.2261e-009    -1.0845e-009    1.1235e-008    
  0.05            -2.0362e-009    7.224e-010      2.1252e-008    
  0.1             -1.5379e-009    -1.8596e-009    4.308e-009     
  0.15            -1.65e-011      -2.0395e-009    -1.0697e-008   
  0.2             -2.046e-010     -2.0889e-009    -1.0873e-008   
  0.25            -4.034e-010     -1.8815e-009    -1.1041e-008   
  0.3             2.8451e-009     2.4378e-009     -1.1759e-008   
  0.35            9.64e-011       8.4538e-009     9.429e-009     
  0.4             2.9171e-009     2.6563e-008     1.9941e-008    
  0.45            2.7934e-009     9.7702e-008     -8.027e-009    
  0.5             2.8018e-009     3.3051e-007     -3.9327e-008   
  0.55            2.3608e-009     1.00019e-006    -8.1675e-008   
  0.6             2.4436e-009     2.6702e-006     -1.8988e-007   
  0.65            1.8003e-009     6.2149e-006     -4.7074e-007   
  0.7             -1.7564e-009    1.2986e-005     -9.2055e-007   
  0.75            -2.1811e-009    2.3238e-005     -1.6396e-006   
  0.8             -2.5685e-009    3.7835e-005     -2.5759e-006   
  0.85            -2.8002e-009    5.6625e-005     -3.7161e-006   
  0.9             -2.7207e-009    7.9091e-005     -5.0037e-006   
  0.95            -2.3713e-009    0.000104837     -6.3865e-006   
  1               -2.551e-009     0.00013307      -7.837e-006    
  1.05            -2.0407e-009    0.0001638       -9.2982e-006   
  1.1             -1.5519e-009    0.00019616      -1.07529e-005  
  1.15            1.2758e-009     0.00022995      -1.2236e-005   
  1.2             2.7712e-009     0.00026498      -1.3548e-005   
  1.25            2.245e-009      0.0003016       -1.4859e-005   
  1.3             1.6146e-009     0.00033883      -1.6125e-005   
  1.35            1.3241e-009     0.00037668      -1.7314e-005   
  1.4             2.9027e-009     0.00041518      -1.8415e-005   
  1.45            2.5455e-009     0.0004548       -1.9447e-005   
  1.5             1.9015e-009     0.00049445      -2.04e-005     
  1.55            1.4196e-009     0.00053453      -2.1293e-005   
  1.6             1.2768e-009     0.00057478      -2.2083e-005   
  1.65            2.7861e-009     0.00061546      -2.2808e-005   
  1.7             2.2443e-009     0.00065687      -2.3442e-005   
  1.75            1.6011e-009     0.00069809      -2.4022e-005   
  1.8             1.3189e-009     0.00073935      -2.4527e-005   
  1.85            2.9093e-009     0.00078076      -2.4957e-005   
  1.9             2.5558e-009     0.00082291      -2.5322e-005   
  1.95            1.8934e-009     0.00086467      -2.5628e-005   
  2               1.413e-009      0.00090655      -2.5885e-005   
  2.05            1.276e-009      0.0009483       -2.6068e-005   
  2.1             2.7878e-009     0.00099022      -2.6209e-005   
  2.15            2.236e-009      0.00103274      -2.6281e-005   
  2.2             1.5847e-009     0.0010749       -2.6324e-005   
  2.25            1.3207e-009     0.00111682      -2.6318e-005   
  2.3             -1.5718e-009    0.0011605       -2.6279e-005   
  2.35            -1.3746e-009    0.0012029       -2.6156e-005   
  2.4             -2.7402e-009    0.0012449       -2.602e-005    
  2.45            -2.3622e-009    0.001287        -2.5869e-005   
  2.5             -1.7788e-009    0.0013291       -2.5671e-005   
  2.55            -1.437e-009     0.0013714       -2.5442e-005   
  2.6             -1.3335e-009    0.0014135       -2.5182e-005   
  2.65            -2.5879e-009    0.0014556       -2.4903e-005   
  2.7             -2.0541e-009    0.0014972       -2.4619e-005   
  2.75            -1.5553e-009    0.0015391       -2.4294e-005   
  2.8             -1.3735e-009    0.001582        -2.3944e-005   
  2.85            -2.7285e-009    0.0016238       -2.3582e-005   
  2.9             -2.342e-009     0.0016652       -2.3224e-005   
  2.95            -1.764e-009     0.001707        -2.284e-005    
  3               -1.4339e-009    0.0017489       -2.2441e-005   
  3.05            -1.3292e-009    0.0017906       -2.2036e-005   
  3.1             -2.5747e-009    0.001832        -2.1625e-005   
  3.15            -2.0361e-009    0.0018732       -2.1215e-005   
  3.2             -1.5528e-009    0.0019145       -2.0791e-005   
  3.25            -1.3695e-009    0.0019562       -2.0364e-005   
  3.3             -2.7201e-009    0.0019974       -1.993e-005    
  3.35            -2.3313e-009    0.0020384       -1.9504e-005   
  3.4             -1.7513e-009    0.0020794       -1.907e-005    
  3.45            -1.4278e-009    0.0021204       -1.8631e-005   
  3.5             -1.33e-009      0.0021616       -1.8201e-005   
  3.55            -2.5759e-009    0.0022026       -1.7765e-005   
  3.6             -2.0247e-009    0.0022429       -1.7344e-005   
  3.65            -1.5376e-009    0.0022837       -1.6915e-005   
  3.7             -1.3666e-009    0.0023242       -1.6488e-005   
  3.75            -2.7155e-009    0.0023647       -1.6058e-005   
  3.8             -2.3122e-009    0.0024051       -1.5656e-005   
  3.85            -1.7318e-009    0.0024455       -1.5247e-005   
  3.9             -1.422e-009     0.0024857       -1.4835e-005   
  3.95            -1.3232e-009    0.0025261       -1.4437e-005   
  4               -2.5575e-009    0.0025661       -1.4043e-005   
  4.05            -2.0071e-009    0.0026058       -1.367e-005    
  4.1             -1.5251e-009    0.0026455       -1.3286e-005   
  4.15            -1.362e-009     0.0026856       -1.2912e-005   
  4.2             -2.704e-009     0.0027254       -1.2547e-005   
  4.25            -2.2867e-009    0.0027644       -1.22e-005     
  4.3             -1.7102e-009    0.0028042       -1.1847e-005   
  4.35            -1.4111e-009    0.0028435       -1.1502e-005   
  4.4             -1.3195e-009    0.0028829       -1.116e-005    
  4.45            -2.5388e-009    0.0029228       -1.0825e-005   
  4.5             -1.9766e-009    0.0029613       -1.051e-005    
  4.55            -1.5052e-009    0.0030005       -1.0199e-005   
  4.6             1.2889e-009     0.0030383       -9.9249e-006   
  4.65            2.7944e-009     0.0030769       -9.6203e-006   
  4.7             2.2436e-009     0.0031157       -9.3203e-006   
  4.75            1.614e-009      0.003154        -9.0404e-006   
  4.8             1.3329e-009     0.0031923       -8.7651e-006   
  4.85            2.9182e-009     0.0032307       -8.4914e-006   
  4.9             2.5533e-009     0.0032691       -8.2214e-006   
  4.95            1.8908e-009     0.0033072       -7.9631e-006   
  5               1.4262e-009     0.0033447       -7.7169e-006   
END_DB

BEGIN_DB
 ICCAP_VAR VS         0              
 ICCAP_VAR VB         -2.5           
 ICCAP_VAR VD         0.1            

 #VG              IG              ID              IB             
  0               -1.0846e-009    -9.99e-010      -2.0819e-008   
  0.05            -1.4859e-009    1.0699e-009     2.6901e-008    
  0.1             -1.9289e-009    -1.3485e-009    9.658e-009     
  0.15            -5.664e-010     -2.2837e-009    -1.1302e-008   
  0.2             1.2801e-009     -1.5142e-009    -2.0778e-008   
  0.25            2.9202e-009     -5.95e-011      -1.1784e-008   
  0.3             2.93e-011       2.1111e-009     1.0373e-008    
  0.35            2.022e-010      2.2127e-009     1.0505e-008    
  0.4             3.737e-010      2.312e-009      1.0366e-008    
  0.45            5.517e-010      2.3801e-009     1.0763e-008    
  0.5             -1.3325e-009    1.4954e-009     2.3441e-008    
  0.55            -2.739e-009     1.164e-010      1.1446e-008    
  0.6             -2.2e-011       -2.0781e-009    -1.0949e-008   
  0.65            -2.125e-010     -2.172e-009     -1.0975e-008   
  0.7             -4.087e-010     -2.2002e-009    -1.1103e-008   
  0.75            -6.063e-010     -2.0539e-009    -1.1378e-008   
  0.8             1.2734e-009     -5.373e-010     -1.9948e-008   
  0.85            2.9043e-009     4.0318e-009     -1.2388e-008   
  0.9             -8.76e-010      1.432e-008      -4.48e-010     
  0.95            1.5719e-009     6.2614e-008     -1.4752e-008   
  1               -9.123e-010     2.2102e-007     1.5064e-008    
  1.05            1.525e-009      6.7144e-007     -1.4182e-008   
  1.1             2.8443e-009     1.7714e-006     2.4626e-008    
  1.15            -1.951e-010     4.0385e-006     1.3018e-008    
  1.2             2.15e-010       7.7147e-006     1.0535e-008    
  1.25            -2.7361e-009    1.2875e-005     1.0379e-008    
  1.3             -8.082e-010     1.9376e-005     -1.1158e-008   
  1.35            1.6539e-009     2.6567e-005     -1.6123e-008   
  1.4             1.3321e-009     3.4284e-005     -9.133e-009    
  1.45            2.9158e-009     4.202e-005      -8.979e-009    
  1.5             1.2609e-009     4.963e-005      1.0761e-008    
  1.55            8.51e-011       5.72e-005       1.1031e-008    
  1.6             5.072e-010      6.4154e-005     1.0316e-008    
  1.65            -1.8663e-009    7.0879e-005     2.4327e-008    
  1.7             -1.4588e-009    7.7223e-005     5.328e-009     
  1.75            -1.3441e-009    8.3302e-005     9.907e-009     
  1.8             -2.636e-009     8.9112e-005     1.1314e-008    
  1.85            -2.1385e-009    9.459e-005      9.24e-010      
  1.9             -1.5991e-009    9.9888e-005     3.419e-009     
  1.95            -1.3837e-009    0.000105007     7.744e-009     
  2               -2.7482e-009    0.000109888     1.1447e-008    
  2.05            4.141e-010      0.0001147       -1.1363e-008   
  2.1             -1.3131e-009    0.00011928      2.5921e-008    
  2.15            -2.4412e-009    0.00012369      1.264e-008     
  2.2             -7.496e-010     0.00012784      -1.1117e-008   
  2.25            1.73e-009       0.00013188      -1.7313e-008   
  2.3             1.352e-009      0.00013592      -9.172e-009    
  2.35            2.9247e-009     0.0001398       -8.556e-009    
  2.4             2.6427e-009     0.00014364      -2.77e-010     
  2.45            2.007e-009      0.00014729      -2.622e-009    
  2.5             1.4661e-009     0.00015084      -8.294e-009    
  2.55            1.2908e-009     0.00015432      -8.807e-009    
  2.6             2.8361e-009     0.00015772      -1.0346e-008   
  2.65            4.7e-010        0.00016113      1.0278e-008    
  2.7             -1.9124e-009    0.00016439      2.4981e-008    
  2.75            -1.4699e-009    0.00016755      4.727e-009     
  2.8             -1.3462e-009    0.00017071      9.83e-009      
  2.85            -2.6554e-009    0.00017375      1.1229e-008    
  2.9             -2.1821e-009    0.00017665      9.04e-010      
  2.95            -1.6223e-009    0.00017957      3.125e-009     
  3               -1.3872e-009    0.0001824       7.428e-009     
  3.05            -2.757e-009     0.00018522      1.1272e-008    
  3.1             -2.474e-010     0.00018787      -1.1009e-008   
  3.15            -7.347e-010     0.00019055      -1.1032e-008   
  3.2             1.7416e-009     0.00019309      -1.7322e-008   
  3.25            1.3553e-009     0.00019569      -9.198e-009    
  3.3             2.9332e-009     0.00019821      -8.567e-009    
  3.35            2.6595e-009     0.0002007       -3.18e-010     
  3.4             6.672e-010      0.00020314      1.0377e-008    
  3.45            -1.6755e-009    0.0002055       2.0484e-008    
  3.5             -1.3943e-009    0.00020787      6.963e-009     
  3.55            -1.3139e-009    0.00021019      1.1085e-008    
  3.6             -2.5016e-009    0.00021242      1.2082e-008    
  3.65            -1.9065e-009    0.0002146       1.892e-009     
  3.7             -1.4769e-009    0.00021676      4.903e-009     
  3.75            -1.347e-009     0.00021889      9.584e-009     
  3.8             -2.6703e-009    0.00022099      1.1187e-008    
  3.85            -2.1985e-009    0.000223        8.99e-010      
  3.9             -1.6384e-009    0.00022504      3.136e-009     
  3.95            -1.387e-009     0.00022701      7.291e-009     
  4               -1.3103e-009    0.00022899      1.1124e-008    
  4.05            -2.4787e-009    0.00023092      1.2467e-008    
  4.1             -1.8745e-009    0.00023272      1.927e-009     
  4.15            -1.4647e-009    0.00023459      5.19e-009      
