! VERSION = 6.00
BEGIN_HEADER
 ICCAP_INPUTS
  VG         V  B GROUND SMU4 0.001 LIN        2    0          5          6    1         
  VS         V  E GROUND SMU2 0.1 CON        0
  VD         V  S GROUND SMU1 0.1 LIN        1    0          5          101  0.05      
  VB         V  C GROUND SMU3 0.1 LIN        3    0          -2.5       2    -2.5      
 ICCAP_OUTPUTS
  ID         I  S GROUND SMU1 B
  IB         I  C GROUND SMU3 B
  IG         I  B GROUND SMU4 B
END_HEADER

BEGIN_DB
 ICCAP_VAR VG         0              
 ICCAP_VAR VS         0              
 ICCAP_VAR VB         0              

 #VD              ID              IB              IG             
  0               8.208e-010      -1.1717e-008    8.085e-010     
  0.05            -1.5799e-009    -1.9812e-008    1.2611e-009    
  0.1             -1.45e-010      -1.2649e-008    2.906e-009     
  0.15            2.1264e-009     1.0273e-008     9.41e-011      
  0.2             2.2257e-009     1.0289e-008     2.545e-010     
  0.25            2.3166e-009     1.0513e-008     4.146e-010     
  0.3             2.3827e-009     1.0964e-008     5.819e-010     
  0.35            1.5228e-009     2.3366e-008     -1.3302e-009   
  0.4             1.392e-010      1.1374e-008     -2.7528e-009   
  0.45            -2.1037e-009    -1.0811e-008    -6.41e-011     
  0.5             -2.2055e-009    -1.0908e-008    -2.468e-010    
  0.55            -2.274e-009     -1.1054e-008    -4.378e-010    
  0.6             -2.3106e-009    -1.1447e-008    -6.154e-010    
  0.65            -2.3163e-009    -1.1354e-008    -7.98e-010     
  0.7             -1.6436e-009    -1.7018e-008    1.2493e-009    
  0.75            -2.593e-010     -1.4417e-008    2.846e-009     
  0.8             2.1999e-009     1.0361e-008     2.076e-010     
  0.85            2.2985e-009     1.0398e-008     3.777e-010     
  0.9             2.3675e-009     1.0744e-008     5.425e-010     
  0.95            2.4054e-009     1.0942e-008     7.069e-010     
  1               2.4073e-009     1.0636e-008     8.592e-010     
  1.05            1.7439e-009     1.5788e-008     -1.7608e-009   
  1.1             -1.6667e-009    6.592e-009      -1.7331e-009   
  1.15            -2.2017e-009    -1.0806e-008    -2.435e-010    
  1.2             -2.2752e-009    -1.1083e-008    -4.303e-010    
  1.25            -2.314e-009     -1.1465e-008    -6.114e-010    
  1.3             -2.3177e-009    -1.1409e-008    -8.007e-010    
  1.35            -1.6433e-009    -1.6915e-008    2.0993e-009    
  1.4             1.9674e-009     -8.157e-009     1.525e-009     
  1.45            2.1234e-009     1.025e-008      9.31e-011      
  1.5             2.223e-009      1.0364e-008     2.489e-010     
  1.55            2.3153e-009     1.0393e-008     4.169e-010     
  1.6             2.383e-009      1.0919e-008     5.783e-010     
  1.65            1.5184e-009     2.3438e-008     -1.3301e-009   
  1.7             1.348e-010      1.1511e-008     -1.3087e-009   
  1.75            2.674e-010      1.3257e-008     -2.6653e-009   
  1.8             -1.2892e-009    8.04e-010       -2.0036e-009   
  1.85            -2.3232e-009    -1.1547e-008    -7.172e-010    
  1.9             -2.3074e-009    -1.1343e-008    -8.861e-010    
  1.95            -2.2699e-009    -1.1006e-008    -1.0289e-009   
  2               -1.7398e-009    -1.3019e-008    1.6919e-009    
  2.05            1.6295e-009     -9.329e-009     1.7674e-009    
  2.1             1.4138e-009     1.0136e-008     1.9365e-009    
  2.15            2.3521e-009     1.0535e-008     5.001e-010     
  2.2             2.4004e-009     1.0951e-008     6.671e-010     
  2.25            2.4097e-009     1.0723e-008     8.215e-010     
  2.3             1.7138e-009     1.6814e-008     -1.8151e-009   
  2.35            -1.7189e-009    6.341e-009      -1.6945e-009   
  2.4             -2.1779e-009    -1.0766e-008    -1.921e-010    
  2.45            -2.2555e-009    -1.0958e-008    -3.814e-010    
  2.5             -2.306e-009     -1.128e-008     -5.671e-010    
  2.55            -2.3207e-009    -1.1484e-008    -7.52e-010     
  2.6             -1.6216e-009    -1.7882e-008    1.2524e-009    
  2.65            -2.191e-010     -1.3854e-008    2.8705e-009    
  2.7             2.1684e-009     1.0191e-008     1.656e-010     
  2.75            2.275e-009      1.034e-008      3.364e-010     
  2.8             2.3538e-009     1.0652e-008     4.931e-010     
  2.85            2.4009e-009     1.0856e-008     6.564e-010     
  2.9             1.5832e-009     2.1219e-008     -1.3188e-009   
  2.95            1.966e-010      1.2325e-008     -2.7193e-009   
  3               -1.3428e-009    6.9e-010        -1.9627e-009   
  3.05            -2.3098e-009    -1.1327e-008    -6.156e-010    
  3.1             -2.316e-009     -1.1407e-008    -8.027e-010    
  3.15            -1.6424e-009    -1.688e-008     1.2467e-009    
  3.2             -2.579e-010     -1.4457e-008    2.8463e-009    
  3.25            2.2065e-009     1.0265e-008     2.119e-010     
  3.3             2.3026e-009     1.0407e-008     3.754e-010     
  3.35            2.372e-009      1.078e-008      5.387e-010     
  3.4             2.4062e-009     1.0925e-008     7.06e-010      
  3.45            2.4064e-009     1.0512e-008     8.585e-010     
  3.5             1.7468e-009     1.5801e-008     -1.7625e-009   
  3.55            -1.6693e-009    6.547e-009      -1.7305e-009   
  3.6             -2.1996e-009    -1.0812e-008    -2.358e-010    
  3.65            -2.2706e-009    -1.0944e-008    -4.255e-010    
  3.7             -2.3116e-009    -1.1344e-008    -6.184e-010    
  3.75            -2.3184e-009    -1.1478e-008    -7.97e-010     
  3.8             -1.6409e-009    -1.6949e-008    1.2472e-009    
  3.85            -2.597e-010     -1.4406e-008    2.8497e-009    
  3.9             2.2012e-009     1.0339e-008     2.103e-010     
  3.95            2.2965e-009     1.0366e-008     3.77e-010      
  4               2.3662e-009     1.071e-008      5.39e-010      
  4.05            1.4856e-009     2.4416e-008     -1.3347e-009   
  4.1             1.055e-010      1.1482e-008     -1.3124e-009   
  4.15            2.347e-010      1.292e-008      -2.6893e-009   
  4.2             -1.3121e-009    6.09e-010       -1.9835e-009   
  4.25            -2.3139e-009    -1.1411e-008    -6.714e-010    
  4.3             -2.3108e-009    -1.1356e-008    -8.511e-010    
  4.35            -2.2808e-009    -1.1132e-008    -9.938e-010    
  4.4             -1.7239e-009    -1.3263e-008    1.7487e-009    
  4.45            1.6828e-009     -9.359e-009     1.7398e-009    
  4.5             1.454e-009      1.0176e-008     1.9053e-009    
  4.55            2.3384e-009     1.0584e-008     4.629e-010     
  4.6             2.3941e-009     1.0929e-008     6.319e-010     
  4.65            1.5582e-009     2.2179e-008     -1.3246e-009   
  4.7             1.722e-010      1.206e-008      -2.7325e-009   
  4.75            -1.3632e-009    5.19e-010       -1.9437e-009   
  4.8             -2.3039e-009    -1.1321e-008    -5.875e-010    
  4.85            -2.3172e-009    -1.1504e-008    -7.734e-010    
  4.9             -1.6294e-009    -1.7592e-008    1.251e-009     
  4.95            -2.32e-010      -1.4196e-008    2.8587e-009    
  5               2.1815e-009     1.0208e-008     1.837e-010     
END_DB

BEGIN_DB
 ICCAP_VAR VG         1              
 ICCAP_VAR VS         0              
 ICCAP_VAR VB         0              

 #VD              ID              IB              IG             
  0               -4.7724e-009    -2.523e-008     -2.7094e-009   
  0.05            4.0813e-007     1.4717e-008     -2.3956e-009   
  0.1             6.6425e-007     1.0354e-008     3.848e-010     
  0.15            7.9513e-007     -1.9112e-008    2.0559e-009    
  0.2             8.6305e-007     -1.0971e-008    -5.966e-010    
  0.25            9.0718e-007     2.0515e-008     -1.7134e-009   
  0.3             9.1918e-007     1.0545e-008     6.92e-010      
  0.35            9.253e-007      -2.2136e-008    1.6025e-009    
  0.4             9.3649e-007     -1.1372e-008    -9.162e-010    
  0.45            9.4998e-007     2.4807e-008     -1.462e-009    
  0.5             9.5313e-007     1.2396e-008     -1.033e-010    
  0.55            9.461e-007      -1.2067e-008    2.7671e-009    
  0.6             9.4891e-007     -1.1774e-008    -3.18e-011     
  0.65            9.6495e-007     1.2837e-008     -2.4219e-009   
  0.7             9.6494e-007     1.0786e-008     1.82e-010      
  0.75            9.5922e-007     -1.6438e-008    2.3894e-009    
  0.8             9.6089e-007     -1.0954e-008    -3.638e-010    
  0.85            9.7487e-007     1.7515e-008     -1.9827e-009   
  0.9             9.6673e-007     1.0206e-008     2.0839e-009    
  0.95            9.6653e-007     -1.2369e-008    1.162e-010     
  1               9.8168e-007     1.1539e-008     -2.5927e-009   
  1.05            9.8315e-007     1.1245e-008     3.82e-011      
  1.1             9.7331e-007     -1.4257e-008    2.6084e-009    
  1.15            9.7539e-007     -1.1247e-008    -1.892e-010    
  1.2             9.9023e-007     1.5074e-008     -2.2167e-009   
  1.25            9.8817e-007     1.044e-008      3.429e-010     
  1.3             9.8211e-007     -1.8284e-008    2.1382e-009    
  1.35            9.8454e-007     -1.0944e-008    -5.423e-010    
  1.4             9.9604e-007     1.9627e-008     -1.7859e-009   
  1.45            9.8823e-007     9.951e-009      2.21e-009      
  1.5             9.8635e-007     -1.1652e-008    -1.34e-011     
  1.55            1.00055e-006    1.2996e-008     -2.4259e-009   
  1.6             1.00044e-006    1.0753e-008     1.817e-010     
  1.65            9.9213e-007     -1.6208e-008    2.3896e-009    
  1.7             9.929e-007      -1.0922e-008    -3.652e-010    
  1.75            1.00532e-006    1.7539e-008     -1.9888e-009   
  1.8             9.963e-007      1.0346e-008     2.0825e-009    
  1.85            9.9471e-007     -1.2311e-008    1.172e-010     
  1.9             1.00895e-006    1.1581e-008     -2.5885e-009   
  1.95            1.0096e-006     1.1309e-008     4.01e-011      
  2               9.9916e-007     -1.4242e-008    2.6052e-009    
  2.05            1.00008e-006    -1.1284e-008    -1.91e-010     
  2.1             1.01342e-006    1.4989e-008     -2.2087e-009   
  2.15            1.01135e-006    1.0342e-008     3.441e-010     
  2.2             1.00431e-006    -1.8357e-008    2.1334e-009    
  2.25            1.00539e-006    -1.0947e-008    -5.481e-010    
  2.3             1.01677e-006    1.978e-008      -1.7733e-009   
  2.35            1.01153e-006    1.0338e-008     6.592e-010     
  2.4             1.00735e-006    -2.1745e-008    1.6494e-009    
  2.45            1.01149e-006    -1.1367e-008    -8.822e-010    
  2.5             1.02177e-006    2.4073e-008     -1.4856e-009   
  2.55            1.02087e-006    1.2593e-008     -1.414e-010    
  2.6             1.01022e-006    -1.1557e-008    2.8019e-009    
  2.65            1.01012e-006    -1.2023e-008    9.1e-012       
  2.7             1.02485e-006    1.2262e-008     -2.4696e-009   
  2.75            1.02416e-006    1.0512e-008     1.391e-010     
  2.8             1.01472e-006    -1.6266e-008    2.4571e-009    
  2.85            1.0149e-006     -1.1411e-008    -3.208e-010    
  2.9             1.02822e-006    1.6169e-008     -2.0546e-009   
  2.95            1.02449e-006    9.723e-009      4.545e-010     
  3               1.01875e-006    -2.0487e-008    1.9466e-009    
  3.05            1.02041e-006    -1.1783e-008    -6.776e-010    
  3.1             1.03161e-006    2.015e-008      -1.6497e-009   
  3.15            1.02479e-006    9.286e-009      7.661e-010     
  3.2             1.02119e-006    -2.4418e-008    1.5279e-009    
  3.25            1.02741e-006    -1.2934e-008    -9.749e-010    
  3.3             1.03254e-006    7.235e-009      -1.3624e-009   
  3.35            1.03616e-006    1.6534e-008     -1.8554e-009   
  3.4             1.03112e-006    7.849e-009      5.946e-010     
  3.45            1.02672e-006    -2.387e-008     1.7351e-009    
  3.5             1.03063e-006    -1.4303e-008    -8.224e-010    
  3.55            1.04166e-006    1.9473e-008     -1.5273e-009   
  3.6             1.04233e-006    8.371e-009      -2.445e-009    
  3.65            1.04315e-006    1.1626e-008     -2.0699e-009   
  3.7             1.04427e-006    1.5159e-008     -1.7067e-009   
  3.75            1.04503e-006    5.347e-009      -2.6428e-009   
  3.8             1.04818e-006    6.947e-009      -2.3492e-009   
  3.85            1.0492e-006     1.0006e-008     -1.964e-009    
  3.9             1.04837e-006    2.969e-009      -1.3061e-009   
  3.95            1.04176e-006    -2.673e-009     2.908e-009     
  4               1.04787e-006    -2.1712e-008    -1.0945e-009   
  4.05            1.05327e-006    -1.324e-009     -1.3392e-009   
  4.1             1.04773e-006    -4.61e-009      2.7916e-009    
  4.15            1.05146e-006    -2.5671e-008    -9.032e-010    
  4.2             1.05836e-006    -7.719e-009     -1.3813e-009   
  4.25            1.05452e-006    -9.743e-009     2.6269e-009    
  4.3             1.05623e-006    -3.0193e-008    -6.89e-010     
  4.35            1.05961e-006    -2.2933e-008    -2.6865e-009   
  4.4             1.05426e-006    -1.1762e-008    1.4891e-009    
  4.45            1.06317e-006    -4.6945e-008    2.0315e-009    
  4.5             1.06757e-006    -3.8321e-008    -2.0457e-009   
  4.55            1.07939e-006    -1.8698e-008    -5.06e-011     
  4.6             1.07104e-006    -4.6119e-008    2.7093e-009    
  4.65            1.08218e-006    -4.8146e-008    -1.7508e-009   
  4.7             1.09018e-006    -1.9336e-008    -1.6592e-009   
  4.75            1.08457e-006    -3.2604e-008    2.2874e-009    
  4.8             1.08533e-006    -5.7231e-008    -1.28e-010     
  4.85            1.10314e-006    -3.5229e-008    -2.2839e-009   
  4.9             1.09307e-006    -4.2023e-008    1.8839e-009    
  4.95            1.1067e-006     -7.1289e-008    -4.383e-010    
  5               1.1179e-006     -3.3197e-008    -1.348e-009    
END_DB

BEGIN_DB
 ICCAP_VAR VG         2              
 ICCAP_VAR VS         0              
 ICCAP_VAR VB         0              

 #VD              ID              IB              IG             
  0               -4.0328e-008    -1.9811e-008    -1.1879e-009   
  0.05            2.912e-006      5.84e-010       5.592e-010     
  0.1             5.6385e-006     -1.7884e-008    2.1892e-009    
  0.15            8.194e-006      -1.1182e-008    -2.15e-010     
  0.2             1.05974e-005    1.2088e-008     -2.4986e-009   
  0.25            1.281e-005      1.0354e-008     -2.7816e-009   
  0.3             1.486e-005      1.7985e-008     -1.5915e-009   
  0.35            1.6736e-005     1.187e-008      -4.63e-011     
  0.4             1.8411e-005     -1.6296e-008    2.3664e-009    
  0.45            1.9952e-005     -1.0915e-008    -6.654e-010    
  0.5             2.1337e-005     2.4856e-008     -1.4669e-009   
  0.55            2.2523e-005     1.0957e-008     1.338e-010     
  0.6             2.3515e-005     -1.9138e-008    2.0598e-009    
  0.65            2.4404e-005     -1.1178e-008    -8.655e-010    
  0.7             2.5137e-005     2.6868e-008     -1.3975e-009   
  0.75            2.57e-005       1.0444e-008     3.131e-010     
  0.8             2.6097e-005     -2.1065e-008    1.7722e-009    
  0.85            2.6473e-005     -1.1227e-008    -1.0326e-009   
  0.9             2.6742e-005     2.7807e-008     -1.3537e-009   
  0.95            2.6909e-005     1.0338e-008     5.09e-010      
  1               2.7008e-005     -2.2995e-008    1.5447e-009    
  1.05            2.7182e-005     -1.1194e-008    -1.2032e-009   
  1.1             2.7278e-005     2.6238e-008     -1.3219e-009   
  1.15            2.7312e-005     1.042e-008      6.929e-010     
  1.2             2.7344e-005     -2.5059e-008    1.3946e-009    
  1.25            2.7403e-005     -1.1148e-008    -2.299e-010    
  1.3             2.7508e-005     1.9552e-008     -1.8089e-009   
  1.35            2.751e-005      1.0733e-008     8.751e-010     
  1.4             2.7529e-005     -2.6106e-008    1.3144e-009    
  1.45            2.7581e-005     -1.0842e-008    -4.456e-010    
  1.5             2.7664e-005     2.228e-008      -1.6028e-009   
  1.55            2.7684e-005     1.1997e-008     -5.34e-011     
  1.6             2.7651e-005     -1.6323e-008    2.3876e-009    
  1.65            2.7718e-005     -1.0921e-008    -6.551e-010    
  1.7             2.7789e-005     2.4673e-008     -1.4713e-009   
  1.75            2.7797e-005     1.1009e-008     1.197e-010     
  1.8             2.7767e-005     -1.8782e-008    2.0851e-009    
  1.85            2.7826e-005     -1.1199e-008    -8.584e-010    
  1.9             2.7882e-005     2.6748e-008     -1.3982e-009   
  1.95            2.7811e-005     1.103e-008      1.3986e-009    
  2               2.7861e-005     -1.7949e-008    1.789e-009     
  2.05            2.7922e-005     -1.1162e-008    -1.017e-009    
  2.1             2.797e-005      2.8004e-008     -1.3556e-009   
  2.15            2.7973e-005     1.039e-008      4.889e-010     
  2.2             2.7941e-005     -2.2866e-008    1.5538e-009    
  2.25            2.7953e-005     -1.1807e-008    -1.82e-011     
  2.3             2.804e-005      1.6427e-008     -2.0915e-009   
  2.35            2.8031e-005     1.0398e-008     6.787e-010     
  2.4             2.8012e-005     -2.4914e-008    1.3985e-009    
  2.45            2.8038e-005     -1.1213e-008    -2.095e-010    
  2.5             2.8117e-005     1.9356e-008     -1.8276e-009   
  2.55            2.8083e-005     1.0683e-008     8.619e-010     
  2.6             2.8074e-005     -2.6172e-008    1.3185e-009    
  2.65            2.8108e-005     -1.0965e-008    -4.29e-010     
  2.7             2.818e-005      2.1711e-008     -1.613e-009    
  2.75            2.8184e-005     1.179e-008      -6.38e-011     
  2.8             2.8128e-005     -1.6498e-008    2.4063e-009    
  2.85            2.818e-005      -1.1375e-008    -6.383e-010    
  2.9             2.8242e-005     2.3801e-008     -1.4798e-009   
  2.95            2.825e-005      1.0219e-008     1.052e-010     
  3               2.8202e-005     -1.9692e-008    2.1073e-009    
  3.05            2.8253e-005     -1.251e-008     -8.424e-010    
  3.1             2.8292e-005     8.236e-009      -1.3451e-009   
  3.15            2.8287e-005     7.925e-009      5.429e-010     
  3.2             2.8252e-005     -2.6269e-008    1.4994e-009    
  3.25            2.8327e-005     -1.4948e-008    -1.2352e-009   
  3.3             2.8341e-005     6.707e-009      -2.6338e-009   
  3.35            2.8363e-005     1.1619e-008     -1.9814e-009   
  3.4             2.8376e-005     4.442e-009      -2.6006e-009   
  3.45            2.8379e-005     9.879e-009      -1.9268e-009   
  3.5             2.8392e-005     1.59e-009       -2.564e-009    
  3.55            2.8409e-005     6.858e-009      -1.869e-009    
  3.6             2.8377e-005     -4.324e-009     2.3379e-009    
  3.65            2.8384e-005     -2.7433e-008    -5.134e-010    
  3.7             2.8418e-005     -2.0258e-008    -2.6056e-009   
  3.75            2.8373e-005     -1.1474e-008    1.8368e-009    
  3.8             2.8403e-005     -3.8896e-008    1.119e-010     
  3.85            2.8486e-005     -2.9016e-008    -1.9077e-009   
  3.9             2.8467e-005     -2.6143e-008    2.3115e-009    
  3.95            2.8483e-005     -5.2167e-008    -4.599e-010    
  4               2.8548e-005     -2.4998e-008    -1.5867e-009   
  4.05            2.8523e-005     -4.5662e-008    2.4979e-009    
  4.1             2.8552e-005     -7.3329e-008    -7.865e-010    
  4.15            2.8608e-005     -4.5142e-008    -1.4199e-009   
