! VERSION = 6.00
BEGIN_HEADER
 ICCAP_INPUTS
  VG         V  B GROUND SMU4 0.001 LIN        1    0          5          101  0.05      
  VS         V  E GROUND SMU2 0.1 CON        0
  VB         V  C GROUND SMU3 0.1 LIN        3    0          -5         3    -2.5      
  VD         V  S GROUND SMU1 0.1 LIN        2    0.1        5          2    4.9       
 ICCAP_OUTPUTS
  IG         I  B GROUND SMU4 B
  ID         I  S GROUND SMU1 B
  IB         I  C GROUND SMU3 B
END_HEADER

BEGIN_DB
 ICCAP_VAR VS         0              
 ICCAP_VAR VB         0              
 ICCAP_VAR VD         0.1            

 #VG              IG              ID              IB             
  0               1.6134e-009     -5.22e-011      -2.3805e-008   
  0.05            1.8414e-009     1.5727e-009     -8.816e-009    
  0.1             4.334e-010      2.3212e-009     1.2632e-008    
  0.15            6.226e-010      2.3573e-009     1.2205e-008    
  0.2             7.923e-010      2.3754e-009     1.0623e-008    
  0.25            -1.9085e-009    1.6866e-009     1.7791e-008    
  0.3             -1.6738e-009    -1.8089e-009    5.637e-009     
  0.35            1.3325e-009     -1.5239e-009    -2.3561e-008   
  0.4             2.8913e-009     -2.4e-012       -1.285e-008    
  0.45            -1.3866e-009    1.6987e-009     2.6984e-008    
  0.5             -1.3735e-009    9.43e-010       1.2707e-008    
  0.55            -2.6788e-009    3.5544e-009     1.4493e-008    
  0.6             2.4782e-009     1.2306e-008     2.8184e-008    
  0.65            1.7125e-009     3.5513e-008     -5.296e-009    
  0.7             1.3404e-009     8.8748e-008     -9.06e-009     
  0.75            -1.8266e-009    1.8235e-007     2.6888e-008    
  0.8             -7.037e-010     3.248e-007      -1.2996e-008   
  0.85            -1.0894e-009    5.1213e-007     -1.0661e-008   
  0.9             1.995e-010      7.4594e-007     -1.0565e-008   
  0.95            1.413e-009      1.03988e-006    -2.1822e-008   
  1               2.8875e-009     1.3761e-006     2.6584e-008    
  1.05            2.8402e-009     1.7846e-006     6.9e-011       
  1.1             1.4648e-009     2.2393e-006     9.607e-009     
  1.15            -1.3797e-009    2.74e-006       2.8808e-008    
  1.2             -2.5541e-009    3.2282e-006     1.4092e-008    
  1.25            -1.9528e-009    3.7094e-006     1.366e-009     
  1.3             -1.4558e-009    4.1836e-006     5.502e-009     
  1.35            -1.3893e-009    4.6461e-006     8.898e-009     
  1.4             -2.6645e-009    5.0963e-006     1.2665e-008    
  1.45            -2.2299e-009    5.521e-006      1.073e-009     
  1.5             -1.5959e-009    5.9415e-006     4.149e-009     
  1.55            -1.3868e-009    6.3478e-006     7.747e-009     
  1.6             -1.3706e-009    6.7423e-006     1.1128e-008    
  1.65            -2.4728e-009    7.1263e-006     1.5019e-008    
  1.7             -1.8237e-009    7.4921e-006     2.251e-009     
  1.75            -1.417e-009     7.8535e-006     5.78e-009      
  1.8             -1.3877e-009    8.2066e-006     9.372e-009     
  1.85            -2.6192e-009    8.5522e-006     1.332e-008     
  1.9             -2.1058e-009    8.8828e-006     1.062e-009     
  1.95            -1.5153e-009    9.2091e-006     5.049e-009     
  2               -1.384e-009     9.5293e-006     8.337e-009     
  2.05            -2.695e-009     9.8467e-006     1.2185e-008    
  2.1             -1.441e-009     1.01498e-005    -9.419e-009    
  2.15            1.3302e-009     1.04442e-005    -2.6425e-008   
  2.2             2.8158e-009     1.0739e-005     -1.313e-008    
  2.25            2.5591e-009     1.10315e-005    9.065e-009     
  2.3             -1.8374e-009    1.13203e-005    2.5059e-008    
  2.35            1.333e-009      1.1596e-005     2.302e-009     
  2.4             2.859e-009      1.1871e-005     -1.107e-008    
  2.45            -1.6815e-009    1.2143e-005     2.1217e-008    
  2.5             -1.3882e-009    1.2411e-005     7.073e-009     
  2.55            -1.3755e-009    1.2672e-005     1.0706e-008    
  2.6             -2.5274e-009    1.2932e-005     1.4707e-008    
  2.65            -1.9095e-009    1.3179e-005     1.648e-009     
  2.7             -1.434e-009     1.3429e-005     5.502e-009     
  2.75            -1.3885e-009    1.3679e-005     9.041e-009     
  2.8             -2.652e-009     1.3923e-005     1.2745e-008    
  2.85            -2.1799e-009    1.4157e-005     1.024e-009     
  2.9             -1.5656e-009    1.4393e-005     4.42e-009      
  2.95            -1.3845e-009    1.4622e-005     7.92e-009      
  3               -2.7067e-009    1.4852e-005     1.154e-008     
  3.05            1.9772e-009     1.5069e-005     -2.2292e-008   
  3.1             1.3861e-009     1.5292e-005     -9.013e-009    
  3.15            1.3328e-009     1.5511e-005     -7.808e-009    
  3.2             2.8156e-009     1.5728e-005     -1.3307e-008   
  3.25            1.5365e-009     1.5936e-005     9.999e-009     
  3.3             -1.3726e-009    1.6154e-005     2.8405e-008    
  3.35            -2.4852e-009    1.6361e-005     1.5066e-008    
  3.4             -1.8339e-009    1.6559e-005     2.083e-009     
  3.45            -1.4169e-009    1.6758e-005     5.795e-009     
  3.5             -1.3882e-009    1.6963e-005     8.961e-009     
  3.55            -2.6312e-009    1.7157e-005     1.3237e-008    
  3.6             -2.1273e-009    1.7349e-005     1.261e-009     
  3.65            -1.5221e-009    1.7537e-005     4.986e-009     
  3.7             -1.3855e-009    1.7725e-005     8.105e-009     
  3.75            -2.7002e-009    1.7912e-005     1.2107e-008    
  3.8             1.9033e-009     1.8088e-005     -2.0959e-008   
  3.85            1.3679e-009     1.8271e-005     -9.175e-009    
  3.9             1.3317e-009     1.8448e-005     -8.023e-009    
  3.95            2.7954e-009     1.8625e-005     -1.4159e-008   
  4               2.5988e-009     1.8796e-005     8.896e-009     
  4.05            -1.7613e-009    1.8968e-005     2.3404e-008    
  4.1             -1.3967e-009    1.9135e-005     6.408e-009     
  4.15            -1.3846e-009    1.9303e-005     9.563e-009     
  4.2             -2.5875e-009    1.9469e-005     1.3701e-008    
  4.25            -2.0235e-009    1.9626e-005     1.094e-009     
  4.3             -1.4739e-009    1.9779e-005     5.166e-009     
  4.35            -1.3874e-009    1.9941e-005     8.808e-009     
  4.4             -2.6791e-009    2.0098e-005     1.2456e-008    
  4.45            -2.2855e-009    2.0251e-005     8.56e-010      
  4.5             -1.6283e-009    2.0402e-005     3.865e-009     
  4.55            -1.3853e-009    2.0551e-005     7.38e-009      
  4.6             -1.374e-009     2.0698e-005     1.0842e-008    
  4.65            -2.5135e-009    2.0847e-005     1.4859e-008    
  4.7             -1.876e-009     2.0981e-005     1.715e-009     
  4.75            -1.4261e-009    2.1125e-005     5.653e-009     
  4.8             -1.3882e-009    2.1263e-005     9.054e-009     
  4.85            -2.6462e-009    2.1404e-005     1.3082e-008    
  4.9             -2.1567e-009    2.1529e-005     1.039e-009     
  4.95            -1.5347e-009    2.1668e-005     4.469e-009     
  5               -1.3855e-009    2.1799e-005     7.978e-009     
END_DB

BEGIN_DB
 ICCAP_VAR VS         0              
 ICCAP_VAR VB         0              
 ICCAP_VAR VD         5              

 #VG              IG              ID              IB             
  0               -2.14e-010      1.365e-010      2.2227e-008    
  0.05            -4.313e-010     -2.2797e-009    -1.3165e-008   
  0.1             -6.457e-010     -2.2761e-009    -1.2576e-008   
  0.15            -8.365e-010     -2.2654e-009    -1.106e-008    
  0.2             2.0749e-009     -1.6677e-009    -1.5607e-008   
  0.25            1.5838e-009     1.9747e-009     -8.419e-009    
  0.3             -1.3989e-009    1.4913e-009     2.7521e-008    
  0.35            -2.7277e-009    1.861e-010      1.3289e-008    
  0.4             1.3404e-009     -9.725e-010     -2.4671e-008   
  0.45            2.8945e-009     2.199e-009      -1.2515e-008   
  0.5             -1.3987e-009    1.03891e-008    2.7222e-008    
  0.55            -8.955e-010     2.8861e-008     -3.033e-009    
  0.6             -1.2757e-009    9.0917e-008     -1.6934e-008   
  0.65            -2.7011e-009    2.2953e-007     -8.363e-009    
  0.7             -2.3107e-009    4.6641e-007     -3.4421e-008   
  0.75            -1.6364e-009    8.4319e-007     -5.743e-008    
  0.8             2.205e-010      1.3713e-006     -9.676e-008    
  0.85            -2.592e-010     2.0912e-006     -1.5314e-007   
  0.9             -7.708e-010     3.028e-006      -2.118e-007    
  0.95            -1.1501e-009    4.23e-006       -2.7806e-007   
  1               -1.5704e-009    5.69e-006       -3.5821e-007   
  1.05            -1.9203e-009    7.3572e-006     -4.4999e-007   
  1.1             -2.2116e-009    9.2518e-006     -5.4473e-007   
  1.15            -2.6169e-009    1.13514e-005    -6.4411e-007   
  1.2             2.1231e-009     1.3602e-005     -7.4747e-007   
  1.25            2.5024e-009     1.6026e-005     -8.2408e-007   
  1.3             2.7678e-009     1.8545e-005     -9.2045e-007   
  1.35            2.8863e-009     2.119e-005      -1.02063e-006  
  1.4             2.8475e-009     2.3969e-005     -1.11863e-006  
  1.45            3.958e-010      2.6768e-005     -1.1798e-006   
  1.5             -5e-013         2.9636e-005     -1.2946e-006   
  1.55            -5.432e-010     3.2628e-005     -1.3733e-006   
  1.6             -9.788e-010     3.564e-005      -1.4427e-006   
  1.65            -1.3745e-009    3.8765e-005     -1.5029e-006   
  1.7             -1.7837e-009    4.1883e-005     -1.5656e-006   
  1.75            -2.0591e-009    4.4966e-005     -1.6161e-006   
  1.8             -2.4388e-009    4.8151e-005     -1.6627e-006   
  1.85            -2.7282e-009    5.1379e-005     -1.7029e-006   
  1.9             -2.7378e-009    5.4625e-005     -1.7354e-006   
  1.95            -2.6397e-009    5.7891e-005     -1.7621e-006   
  2               -2.103e-009     6.121e-005      -1.7853e-006   
  2.05            -1.5017e-009    6.4529e-005     -1.8058e-006   
  2.1             -1.3933e-009    6.7878e-005     -1.8194e-006   
  2.15            -2.7084e-009    7.1242e-005     -1.8284e-006   
  2.2             -2.3626e-009    7.4574e-005     -1.8467e-006   
  2.25            -1.6851e-009    7.798e-005      -1.85e-006     
  2.3             -1.3938e-009    8.1365e-005     -1.8489e-006   
  2.35            -1.3892e-009    8.4796e-005     -1.8447e-006   
  2.4             -2.5738e-009    8.8221e-005     -1.8347e-006   
  2.45            -1.9428e-009    9.1628e-005     -1.8398e-006   
  2.5             -1.4435e-009    9.509e-005      -1.8218e-006   
  2.55            -1.3968e-009    9.8545e-005     -1.8051e-006   
  2.6             -2.6823e-009    0.000102012     -1.7884e-006   
  2.65            -2.2261e-009    0.000105441     -1.7825e-006   
  2.7             -1.5713e-009    0.000108933     -1.7584e-006   
  2.75            -1.392e-009     0.000112458     -1.7349e-006   
  2.8             -2.718e-009     0.00011599      -1.7293e-006   
  2.85            -2.4031e-009    0.00011945      -1.6968e-006   
  2.9             -1.7186e-009    0.00012295      -1.671e-006    
  2.95            -1.4023e-009    0.00012647      -1.6413e-006   
  3               -1.3929e-009    0.00012999      -1.6098e-006   
  3.05            -2.6088e-009    0.00013343      -1.5797e-006   
  3.1             -1.9984e-009    0.00013695      -1.5619e-006   
  3.15            -1.4566e-009    0.00014044      -1.5296e-006   
  3.2             -1.3988e-009    0.00014399      -1.4992e-006   
  3.25            -2.7039e-009    0.00014751      -1.4638e-006   
  3.3             -2.2789e-009    0.00015097      -1.4458e-006   
  3.35            -1.6119e-009    0.00015451      -1.4133e-006   
  3.4             -1.3932e-009    0.00015793      -1.3826e-006   
  3.45            -2.7323e-009    0.00016152      -1.3479e-006   
  3.5             -2.5138e-009    0.00016502      -1.3266e-006   
  3.55            -1.8573e-009    0.00016853      -1.2934e-006   
  3.6             -1.4223e-009    0.00017205      -1.2608e-006   
  3.65            -1.3982e-009    0.00017556      -1.2295e-006   
  3.7             -2.6646e-009    0.00017904      -1.1954e-006   
  3.75            -2.1382e-009    0.0001825       -1.179e-006    
  3.8             -1.5256e-009    0.00018607      -1.1446e-006   
  3.85            -1.3944e-009    0.00018953      -1.1146e-006   
  3.9             -2.7244e-009    0.00019311      -1.0873e-006   
  3.95            -2.403e-009     0.00019648      -1.0671e-006   
  4               -1.7232e-009    0.00019999      -1.0396e-006   
  4.05            -1.3983e-009    0.00020347      -1.01e-006     
  4.1             2.7738e-009     0.00020687      -9.8027e-007   
  4.15            2.8937e-009     0.00021041      -9.5935e-007   
  4.2             2.8434e-009     0.00021392      -9.4051e-007   
  4.25            2.2672e-009     0.00021732      -9.1569e-007   
  4.3             1.5289e-009     0.0002208       -8.9708e-007   
  4.35            1.3438e-009     0.00022425      -8.7526e-007   
  4.4             2.9031e-009     0.00022773      -8.548e-007    
  4.45            2.5728e-009     0.00023124      -8.2207e-007   
  4.5             1.7816e-009     0.00023467      -8.0317e-007   
  4.55            1.3623e-009     0.00023815      -7.8544e-007   
  4.6             1.3406e-009     0.00024156      -7.6408e-007   
  4.65            2.7955e-009     0.00024501      -7.4991e-007   
  4.7             2.115e-009      0.00024839      -7.1761e-007   
  4.75            1.4517e-009     0.00025187      -7.021e-007    
  4.8             1.3483e-009     0.00025524      -6.8377e-007   
  4.85            2.8891e-009     0.00025862      -6.682e-007    
  4.9             2.4452e-009     0.00026211      -6.391e-007    
  4.95            1.6514e-009     0.00026548      -6.2633e-007   
  5               1.3475e-009     0.00026881      -6.1068e-007   
END_DB

BEGIN_DB
 ICCAP_VAR VS         0              
 ICCAP_VAR VB         -2.5           
 ICCAP_VAR VD         0.1            

 #VG              IG              ID              IB             
  0               -6.885e-010     -7.742e-010     -2.7106e-008   
  0.05            -1.8626e-009    1.6955e-009     1.5817e-008    
  0.1             -1.6969e-009    -1.7841e-009    5.592e-009     
  0.15            -1.983e-010     -2.2356e-009    -1.2976e-008   
  0.2             -4.199e-010     -2.2805e-009    -1.3214e-008   
  0.25            -6.243e-010     -2.2772e-009    -1.2725e-008   
  0.3             -8.173e-010     -2.2693e-009    -1.1156e-008   
  0.35            2.1333e-009     -1.6564e-009    -1.6423e-008   
  0.4             1.5432e-009     2.0126e-009     -8.056e-009    
  0.45            -1.397e-009     1.4356e-009     2.8258e-008    
  0.5             -1.3866e-009    2.94e-011       1.2784e-008    
  0.55            -2.7117e-009    1.762e-010      1.4468e-008    
  0.6             -1.401e-010     -2.2161e-009    -1.2748e-008   
  0.65            -3.631e-010     -2.2707e-009    -1.3247e-008   
  0.7             -5.756e-010     -2.2768e-009    -1.284e-008    
  0.75            -7.767e-010     -2.2573e-009    -1.1495e-008   
  0.8             1.3284e-009     -1.577e-009     -1.7916e-008   
  0.85            2.8803e-009     2.68e-011       -1.6608e-008   
  0.9             2.093e-010      3.4869e-009     1.249e-008     
  0.95            4.037e-010      7.5088e-009     1.2699e-008    
  1               -1.9566e-009    1.761e-008      -1.8134e-008   
  1.05            -1.4509e-009    5.6118e-008     5.262e-009     
  1.1             -5.52e-011      1.3811e-007     -8.563e-009    
  1.15            -1.396e-009     2.6453e-007     2.5165e-008    
  1.2             -1.376e-009     4.3476e-007     1.0344e-008    
  1.25            -2.541e-009     6.5238e-007     1.4362e-008    
  1.3             -1.9414e-009    9.0549e-007     1.51e-009      
  1.35            -2.3775e-009    1.2304e-006     -1.8331e-008   
  1.4             2.2354e-009     1.6126e-006     -2.5335e-008   
  1.45            1.5015e-009     2.0513e-006     -7.794e-009    
  1.5             1.3354e-009     2.5207e-006     -8.084e-009    
  1.55            2.8795e-009     2.9995e-006     -1.0534e-008   
  1.6             -1.7383e-009    3.4955e-006     2.2535e-008    
  1.65            -1.4002e-009    3.964e-006      6.568e-009     
  1.7             -1.3812e-009    4.4236e-006     9.937e-009     
  1.75            -2.5767e-009    4.8654e-006     1.3807e-008    
  1.8             -1.9943e-009    5.2858e-006     1.253e-009     
  1.85            -1.4703e-009    5.6956e-006     5.125e-009     
  1.9             -1.3894e-009    6.0944e-006     8.767e-009     
  1.95            -2.6794e-009    6.4815e-006     1.2758e-008    
  2               -2.2801e-009    6.8489e-006     1.088e-009     
  2.05            -1.645e-009     7.2111e-006     3.655e-009     
  2.1             -1.3927e-009    7.5597e-006     7.409e-009     
  2.15            -2.7287e-009    7.9024e-006     1.0957e-008    
  2.2             2.1221e-009     8.228e-006      -2.3962e-008   
  2.25            1.4587e-009     8.5554e-006     -8.367e-009    
  2.3             2.8896e-009     8.8676e-006     -7.894e-009    
  2.35            2.8563e-009     9.1831e-006     9e-011         
  2.4             5.136e-010      9.4873e-006     1.2248e-008    
  2.45            9.24e-010       9.7781e-006     1.1306e-008    
  2.5             -1.4616e-009    1.00657e-005    1.36e-008      
  2.55            -1.3883e-009    1.03529e-005    9.011e-009     
  2.6             -2.6703e-009    1.06363e-005    1.2723e-008    
  2.65            -2.2227e-009    1.09039e-005    1.099e-009     
  2.7             -1.6001e-009    1.11736e-005    4.186e-009     
  2.75            1.3388e-009     1.1442e-005     7.715e-009     
  2.8             2.8725e-009     1.1698e-005     -1.075e-008    
  2.85            -1.7107e-009    1.1957e-005     2.1734e-008    
  2.9             -1.3985e-009    1.2205e-005     6.872e-009     
  2.95            -2.7292e-009    1.245e-005      1.0255e-008    
  3               2.2128e-009     1.2689e-005     -2.5033e-008   
  3.05            1.502e-009      1.2927e-005     -7.45e-009     
  3.1             1.3383e-009     1.3158e-005     -8.27e-009     
  3.15            2.8763e-009     1.339e-005      -1.0546e-008   
  3.2             -1.726e-009     1.3619e-005     2.2089e-008    
  3.25            -1.398e-009     1.3841e-005     6.755e-009     
  3.3             -1.3766e-009    1.406e-005      9.896e-009     
  3.35            -2.5661e-009    1.4277e-005     1.4004e-008    
  3.4             -1.9849e-009    1.4486e-005     1.203e-009     
  3.45            -1.4664e-009    1.4698e-005     5.367e-009     
  3.5             -1.3853e-009    1.4906e-005     8.634e-009     
  3.55            -2.6754e-009    1.511e-005      1.2503e-008    
  3.6             -2.2617e-009    1.5306e-005     9.68e-010      
  3.65            -1.6285e-009    1.5507e-005     3.953e-009     
  3.7             -1.3833e-009    1.5699e-005     7.366e-009     
  3.75            -2.7218e-009    1.5893e-005     1.0805e-008    
  3.8             2.1224e-009     1.6079e-005     -2.4118e-008   
  3.85            1.4469e-009     1.6265e-005     -8.4e-009      
  3.9             1.3376e-009     1.645e-005      -7.973e-009    
  3.95            2.8612e-009     1.6627e-005     -1.1636e-008   
  4               5.169e-010      1.6813e-005     1.2282e-008    
  4.05            9.256e-010      1.6987e-005     1.1263e-008    
  4.1             -1.4545e-009    1.7155e-005     1.3536e-008    
  4.15            -1.3866e-009    1.7332e-005     9e-009         
