! VERSION = 6.00
BEGIN_HEADER
 ICCAP_INPUTS
  VG         V  B GROUND SMU4 0.001 LIN        1    0          5          101  0.05      
  VS         V  E GROUND SMU3 0.1 CON        0
  VB         V  C GROUND SMU1 0.1 LIN        3    0          -5         3    -2.5      
  VD         V  S GROUND SMU2 0.1 LIN        2    0.1        5          2    4.9       
 ICCAP_OUTPUTS
  IG         I  B GROUND SMU4 B
  ID         I  S GROUND SMU2 B
  IB         I  C GROUND SMU1 B
END_HEADER

BEGIN_DB
 ICCAP_VAR VS         0              
 ICCAP_VAR VB         0              
 ICCAP_VAR VD         0.1            

 #VG              IG              ID              IB             
  0               2.327e-010      2.2946e-009     -1.2669e-008   
  0.05            -1.3438e-009    1.2532e-009     1.298e-008     
  0.1             1.3521e-009     -1.9723e-009    -1.2573e-008   
  0.15            -1.3581e-009    1.9104e-009     1.2522e-008    
  0.2             1.3624e-009     -1.8601e-009    -1.2537e-008   
  0.25            -1.3732e-009    1.7978e-009     1.2343e-008    
  0.3             1.3773e-009     -1.724e-009     -1.2483e-008   
  0.35            -1.3875e-009    1.7798e-009     1.2569e-008    
  0.4             1.3919e-009     -1.2871e-009    -1.2687e-008   
  0.45            -1.4063e-009    3.0214e-009     1.2693e-008    
  0.5             1.4041e-009     3.9839e-009     -1.286e-008    
  0.55            1.3417e-009     2.1632e-008     1.2955e-008    
  0.6             -1.4147e-009    6.9332e-008     1.3276e-008    
  0.65            8.609e-010      1.987e-007      -1.284e-008    
  0.7             -1.3408e-009    4.8512e-007     1.2409e-008    
  0.75            1.4098e-009     9.9811e-007     -1.3291e-008   
  0.8             -1.3797e-009    1.8423e-006     -1.3061e-008   
  0.85            1.33e-009       3.0211e-006     -1.2626e-008   
  0.9             -1.4127e-009    4.6127e-006     1.327e-008     
  0.95            1.3535e-009     6.4655e-006     -1.2571e-008   
  1               -1.4081e-009    8.5952e-006     1.2907e-008    
  1.05            1.3838e-009     1.07644e-005    -1.2902e-008   
  1.1             8.701e-010      1.3035e-005     -1.314e-008    
  1.15            -1.3376e-009    1.5237e-005     1.2438e-008    
  1.2             1.4088e-009     1.7305e-005     -1.3285e-008   
  1.25            -1.3663e-009    1.9375e-005     1.2535e-008    
  1.3             1.404e-009      2.1277e-005     -1.2498e-008   
  1.35            -1.3832e-009    2.3168e-005     1.2822e-008    
  1.4             1.3288e-009     2.4923e-005     -1.2658e-008   
  1.45            -1.4117e-009    2.6663e-005     1.3366e-008    
  1.5             1.3541e-009     2.8281e-005     -1.256e-008    
  1.55            -1.4068e-009    2.9887e-005     1.2878e-008    
  1.6             1.3843e-009     3.1395e-005     -1.2898e-008   
  1.65            -1.3334e-009    3.2895e-005     1.2508e-008    
  1.7             1.4104e-009     3.4303e-005     -1.3355e-008   
  1.75            -1.3594e-009    3.5716e-005     1.2554e-008    
  1.8             1.3257e-009     3.7041e-005     -1.2894e-008   
  1.85            -1.411e-009     3.8367e-005     1.3362e-008    
  1.9             1.3485e-009     3.9619e-005     -1.2481e-008   
  1.95            -1.4101e-009    4.0876e-005     1.3025e-008    
  2               1.3795e-009     4.2066e-005     -1.2802e-008   
  2.05            -1.3273e-009    4.3265e-005     1.2644e-008    
  2.1             1.4067e-009     4.4396e-005     -1.3434e-008   
  2.15            -1.3557e-009    4.5539e-005     1.2538e-008    
  2.2             1.4021e-009     4.662e-005      -1.2841e-008   
  2.25            -1.3864e-009    4.7714e-005     1.288e-008     
  2.3             1.3333e-009     4.8742e-005     -1.2578e-008   
  2.35            -1.413e-009     4.9795e-005     1.337e-008     
  2.4             1.3571e-009     5.0792e-005     -1.2631e-008   
  2.45            -1.3254e-009    5.1798e-005     1.282e-008     
  2.5             1.4027e-009     5.2753e-005     -1.3349e-008   
  2.55            -1.3501e-009    5.3726e-005     1.2417e-008    
  2.6             1.4068e-009     5.4647e-005     -1.2957e-008   
  2.65            -1.3838e-009    5.5585e-005     1.2834e-008    
  2.7             1.3284e-009     5.6472e-005     -1.2635e-008   
  2.75            -1.4103e-009    5.7389e-005     1.3369e-008    
  2.8             1.355e-009      5.8247e-005     -1.2637e-008   
  2.85            -1.4078e-009    5.912e-005      1.2975e-008    
  2.9             1.3846e-009     5.9949e-005     -1.2908e-008   
  2.95            -1.3334e-009    6.0801e-005     1.2518e-008    
  3               1.4081e-009     6.1607e-005     -1.3401e-008   
  3.05            -1.3595e-009    6.2424e-005     1.2436e-008    
  3.1             1.325e-009      6.3203e-005     -1.285e-008    
  3.15            -1.4081e-009    6.3992e-005     1.3357e-008    
  3.2             1.3492e-009     6.4749e-005     -1.2485e-008   
  3.25            -1.4125e-009    6.5518e-005     1.3065e-008    
  3.3             1.3768e-009     6.6249e-005     -1.2799e-008   
  3.35            -1.3272e-009    6.6998e-005     1.2605e-008    
  3.4             1.4056e-009     6.7703e-005     -1.3407e-008   
  3.45            -1.3562e-009    6.843e-005      1.2494e-008    
  3.5             1.4022e-009     6.9119e-005     -1.2914e-008   
  3.55            -1.3868e-009    6.9821e-005     1.2803e-008    
  3.6             1.3321e-009     7.049e-005      -1.2576e-008   
  3.65            -1.4118e-009    7.116e-005      1.3357e-008    
  3.7             1.3553e-009     7.1821e-005     -1.2535e-008   
  3.75            -1.4068e-009    7.2482e-005     1.2842e-008    
  3.8             1.3857e-009     7.3112e-005     -1.2915e-008   
  3.85            -1.3363e-009    7.376e-005      1.2569e-008    
  3.9             1.4097e-009     7.4371e-005     -1.3347e-008   
  3.95            -1.3621e-009    7.4987e-005     1.249e-008     
  4               1.3264e-009     7.5586e-005     -1.2827e-008   
  4.05            -1.4093e-009    7.6186e-005     1.3292e-008    
  4.1             1.3465e-009     7.6772e-005     -1.2472e-008   
  4.15            -1.4114e-009    7.7358e-005     1.3067e-008    
  4.2             1.3777e-009     7.7918e-005     -1.288e-008    
  4.25            -1.3264e-009    7.849e-005      1.2588e-008    
  4.3             1.4057e-009     7.9028e-005     -1.339e-008    
  4.35            -1.3539e-009    7.9588e-005     1.246e-008     
  4.4             1.4038e-009     8.0121e-005     -1.2934e-008   
  4.45            -1.3854e-009    8.0667e-005     1.283e-008     
  4.5             1.3297e-009     8.1184e-005     -1.2612e-008   
  4.55            -1.4116e-009    8.1702e-005     1.3402e-008    
  4.6             1.3542e-009     8.22e-005       -1.2618e-008   
  4.65            -1.4061e-009    8.2704e-005     1.2877e-008    
  4.7             1.3828e-009     8.3191e-005     -1.2948e-008   
  4.75            -1.3331e-009    8.368e-005      1.2547e-008    
  4.8             1.4089e-009     8.415e-005      -1.3317e-008   
  4.85            -1.3606e-009    8.4634e-005     1.2494e-008    
  4.9             1.3244e-009     8.5087e-005     -1.2883e-008   
  4.95            -1.4096e-009    8.5556e-005     1.3287e-008    
  5               1.3501e-009     8.5999e-005     -1.2504e-008   
END_DB

BEGIN_DB
 ICCAP_VAR VS         0              
 ICCAP_VAR VB         0              
 ICCAP_VAR VD         5              

 #VG              IG              ID              IB             
  0               -4.433e-010     -2.3878e-009    1.3107e-008    
  0.05            1.4093e-009     -1.542e-009     -1.2673e-008   
  0.1             -1.4156e-009    1.4964e-009     1.2807e-008    
  0.15            1.409e-009      -1.4599e-009    -1.2923e-008   
  0.2             -1.4135e-009    1.4426e-009     1.3109e-008    
  0.25            1.4065e-009     -1.3264e-009    -1.3152e-008   
  0.3             -1.4059e-009    1.6536e-009     1.321e-008     
  0.35            1.27e-009       2.9834e-009     -1.0642e-008   
  0.4             -1.3821e-009    6.4165e-009     1.2543e-008    
  0.45            -1.0975e-009    2.0066e-008     -1.4929e-008   
  0.5             1.4081e-009     7.4118e-008     -1.8009e-008   
  0.55            -1.0938e-009    2.4233e-007     -8.778e-009    
  0.6             1.4093e-009     6.565e-007      -5.9855e-008   
  0.65            -1.4174e-009    1.5554e-006     -1.0942e-007   
  0.7             -6.454e-010     3.166e-006      -2.2371e-007   
  0.75            1.4112e-009     5.7337e-006     -3.8861e-007   
  0.8             6.496e-010      9.4737e-006     -5.8489e-007   
  0.85            7.078e-010      1.4411e-005     -8.8856e-007   
  0.9             -1.3996e-009    2.0541e-005     -1.1968e-006   
  0.95            -5.855e-010     2.7646e-005     -1.572e-006    
  1               1.3246e-009     3.5638e-005     -1.951e-006    
  1.05            9.217e-010      4.4542e-005     -2.3178e-006   
  1.1             -1.3236e-009    5.4368e-005     -2.7156e-006   
  1.15            -9.274e-010     6.4522e-005     -3.1315e-006   
  1.2             1.3229e-009     7.5177e-005     -3.517e-006    
  1.25            9.268e-010      8.6422e-005     -3.8603e-006   
  1.3             -1.321e-009     9.8113e-005     -4.2058e-006   
  1.35            -9.299e-010     0.000110002     -4.5617e-006   
  1.4             -6.462e-010     0.00012226      -4.8755e-006   
  1.45            1.4121e-009     0.00013468      -5.166e-006    
  1.5             6.447e-010      0.00014745      -5.4059e-006   
  1.55            -1.4164e-009    0.00016052      -5.6489e-006   
  1.6             -6.494e-010     0.0001736       -5.8989e-006   
  1.65            1.4111e-009     0.00018679      -6.1008e-006   
  1.7             6.526e-010      0.00020032      -6.2545e-006   
  1.75            -1.4196e-009    0.00021403      -6.4093e-006   
  1.8             -6.521e-010     0.00022768      -6.5693e-006   
  1.85            1.4099e-009     0.00024138      -6.6884e-006   
  1.9             6.56e-010       0.0002554       -6.7602e-006   
  1.95            -1.4172e-009    0.00026951      -6.8366e-006   
  2               -6.572e-010     0.00028353      -6.9239e-006   
  2.05            1.4113e-009     0.00029753      -6.9698e-006   
  2.1             6.597e-010      0.00031182      -6.9747e-006   
  2.15            -1.4163e-009    0.00032623      -6.9877e-006   
  2.2             -6.614e-010     0.00034048      -7.0118e-006   
  2.25            1.4119e-009     0.00035471      -7.0026e-006   
  2.3             6.629e-010      0.00036918      -6.9552e-006   
  2.35            -1.4177e-009    0.00038373      -6.916e-006    
  2.4             -6.645e-010     0.00039816      -6.8919e-006   
  2.45            1.4133e-009     0.00041254      -6.8395e-006   
  2.5             6.685e-010      0.00042715      -6.7511e-006   
  2.55            -1.4162e-009    0.00044183      -6.6762e-006   
  2.6             -6.693e-010     0.00045636      -6.6165e-006   
  2.65            1.4105e-009     0.00047079      -6.5331e-006   
  2.7             6.711e-010      0.00048552      -6.4201e-006   
  2.75            -1.4174e-009    0.00050049      -6.3173e-006   
  2.8             -6.735e-010     0.00051505      -6.2343e-006   
  2.85            1.4106e-009     0.00052961      -6.1315e-006   
  2.9             6.746e-010      0.00054432      -5.9961e-006   
  2.95            -1.4141e-009    0.00055913      -5.8746e-006   
  3               -6.771e-010     0.00057373      -5.7795e-006   
  3.05            1.4112e-009     0.00058827      -5.6644e-006   
  3.1             6.78e-010       0.00060296      -5.5198e-006   
  3.15            -1.4144e-009    0.00061771      -5.3939e-006   
  3.2             -6.778e-010     0.00063239      -5.2914e-006   
  3.25            1.4091e-009     0.00064683      -5.1708e-006   
  3.3             6.798e-010      0.0006615       -5.0228e-006   
  3.35            -1.4165e-009    0.0006763       -4.8925e-006   
  3.4             -6.826e-010     0.00069094      -4.7902e-006   
  3.45            1.4094e-009     0.00070544      -4.6696e-006   
  3.5             6.824e-010      0.00072007      -4.5238e-006   
  3.55            -1.4138e-009    0.00073484      -4.3953e-006   
  3.6             -6.881e-010     0.00074936      -4.2948e-006   
  3.65            1.4073e-009     0.00076378      -4.1781e-006   
  3.7             6.877e-010      0.00077842      -4.0377e-006   
  3.75            -1.4139e-009    0.00079311      -3.9132e-006   
  3.8             -6.929e-010     0.00080758      -3.8196e-006   
  3.85            1.4071e-009     0.00082193      -3.7106e-006   
  3.9             6.916e-010      0.00083656      -3.576e-006    
  3.95            -1.4137e-009    0.00085122      -3.4627e-006   
  4               -6.952e-010     0.00086567      -3.3755e-006   
  4.05            1.4045e-009     0.00087987      -3.2722e-006   
  4.1             6.955e-010      0.00089438      -3.1463e-006   
  4.15            -1.4128e-009    0.00090899      -3.0386e-006   
  4.2             -6.985e-010     0.00092325      -2.9604e-006   
  4.25            1.4069e-009     0.00093753      -2.8692e-006   
  4.3             6.964e-010      0.00095194      -2.7537e-006   
  4.35            -1.4103e-009    0.00096637      -2.656e-006    
  4.4             -6.984e-010     0.0009808       -2.5845e-006   
  4.45            1.4062e-009     0.00099494      -2.5015e-006   
  4.5             7.021e-010      0.00100927      -2.3972e-006   
  4.55            -1.4081e-009    0.00102365      -2.3091e-006   
  4.6             -7.063e-010     0.00103774      -2.2492e-006   
  4.65            1.4025e-009     0.00105174      -2.1752e-006   
  4.7             7.064e-010      0.00106592      -2.0809e-006   
  4.75            -1.4055e-009    0.00108022      -1.9989e-006   
  4.8             -7.054e-010     0.0010942       -1.9478e-006   
  4.85            1.4017e-009     0.00110808      -1.8844e-006   
  4.9             7.094e-010      0.00112219      -1.7961e-006   
  4.95            -1.4055e-009    0.00113629      -1.7256e-006   
  5               -1.0993e-009    0.0011509       -1.678e-006    
END_DB

BEGIN_DB
 ICCAP_VAR VS         0              
 ICCAP_VAR VB         -2.5           
 ICCAP_VAR VD         0.1            

 #VG              IG              ID              IB             
  0               -5.447e-010     1.5604e-009     -1.7735e-008   
  0.05            -6.758e-010     -2.2416e-009    -1.7661e-008   
  0.1             1.4007e-009     -1.3632e-009    -2.4312e-008   
  0.15            -5.997e-010     -2.2873e-009    -1.96e-008     
  0.2             1.3486e-009     -1.2375e-009    -2.3896e-008   
  0.25            7.495e-010      2.1779e-009     -4.269e-009    
  0.3             -7.719e-010     -2.1578e-009    -1.7348e-008   
  0.35            1.402e-009      -1.5989e-009    -2.3621e-008   
  0.4             -7.009e-010     -2.2238e-009    -1.7611e-008   
  0.45            1.4061e-009     -1.4226e-009    -2.4117e-008   
  0.5             -6.299e-010     -2.2695e-009    -1.8517e-008   
  0.55            1.3386e-009     -1.2811e-009    -2.4104e-008   
  0.6             7.765e-010      2.1483e-009     -4.181e-009    
  0.65            -8.018e-010     -2.1188e-009    -1.7325e-008   
  0.7             1.3898e-009     -1.6455e-009    -2.3527e-008   
  0.75            -7.267e-010     -2.0606e-009    -1.7509e-008   
  0.8             1.4095e-009     -8.567e-010     -2.3932e-008   
  0.85            -7.683e-010     6.391e-010      -1.7325e-008   
  0.9             -1.3377e-009    1.1898e-008     -1.7391e-008   
  0.95            1.3569e-009     4.3638e-008     -1.2867e-008   
  1               1.2618e-009     1.3466e-007     -1.7614e-008   
  1.05            -8.624e-010     3.5327e-007     -1.7375e-008   
  1.1             1.3426e-009     8.0827e-007     -2.3346e-008   
  1.15            -1.4074e-009    1.5911e-006     -1.755e-008    
  1.2             -6.141e-010     2.7535e-006     -2.1497e-008   
  1.25            1.404e-009      4.2869e-006     -2.3975e-008   
  1.3             -6.899e-010     6.1803e-006     -1.8753e-008   
  1.35            1.4025e-009     8.2579e-006     -2.4149e-008   
  1.4             -7.732e-010     1.04734e-005    -1.7636e-008   
  1.45            1.0714e-009     1.2653e-005     -1.7535e-008   
  1.5             -7.401e-010     1.4826e-005     -1.7719e-008   
  1.55            1.3842e-009     1.6881e-005     -2.3791e-008   
  1.6             -8.26e-010      1.889e-005      -1.7421e-008   
  1.65            1.3542e-009     2.0768e-005     -2.3393e-008   
  1.7             8.234e-010      2.2591e-005     -4.281e-009    
  1.75            -5.748e-010     2.4329e-005     -2.2712e-008   
  1.8             1.3313e-009     2.598e-005      -2.3842e-008   
  1.85            8.957e-010      2.7562e-005     -4.179e-009    
  1.9             -6.317e-010     2.9092e-005     -2.1172e-008   
  1.95            1.4091e-009     3.0559e-005     -2.4138e-008   
  2               -7.076e-010     3.1985e-005     -1.8301e-008   
  2.05            1.3981e-009     3.3338e-005     -2.3926e-008   
  2.1             -7.896e-010     3.4683e-005     -1.756e-008    
  2.15            1.3709e-009     3.5955e-005     -2.348e-008    
  2.2             7.853e-010      3.7206e-005     -4.112e-009    
  2.25            -9.123e-010     3.8414e-005     -1.7352e-008   
  2.3             1.3291e-009     3.9589e-005     -2.3609e-008   
  2.35            9.075e-010      4.0747e-005     -4.263e-009    
  2.4             -6.346e-010     4.1864e-005     -2.0959e-008   
  2.45            1.4104e-009     4.295e-005      -2.4184e-008   
  2.5             -7.151e-010     4.4035e-005     -1.8167e-008   
  2.55            1.4004e-009     4.5066e-005     -2.3863e-008   
  2.6             -7.94e-010      4.61e-005       -1.7549e-008   
  2.65            1.3657e-009     4.7088e-005     -2.3438e-008   
  2.7             7.9e-010        4.808e-005      -4.112e-009    
  2.75            -9.211e-010     4.9052e-005     -1.7293e-008   
  2.8             1.3253e-009     4.9991e-005     -2.3523e-008   
  2.85            9.159e-010      5.0921e-005     -4.221e-009    
  2.9             -6.41e-010      5.1827e-005     -2.0846e-008   
  2.95            1.4092e-009     5.2708e-005     -2.419e-008    
  3               -7.182e-010     5.3589e-005     -1.7992e-008   
  3.05            1.3983e-009     5.4439e-005     -2.3852e-008   
  3.1             -8e-010         5.5294e-005     -1.7501e-008   
  3.15            1.3626e-009     5.6113e-005     -2.3421e-008   
  3.2             7.964e-010      5.6935e-005     -4.13e-009     
  3.25            -9.279e-010     5.7736e-005     -1.7341e-008   
  3.3             1.3242e-009     5.8521e-005     -2.3511e-008   
  3.35            9.198e-010      5.9299e-005     -4.277e-009    
  3.4             -6.474e-010     6.0063e-005     -2.0768e-008   
  3.45            1.4099e-009     6.0812e-005     -2.412e-008    
  3.5             -7.222e-010     6.155e-005      -1.7901e-008   
  3.55            1.3977e-009     6.2279e-005     -2.3766e-008   
  3.6             -8.054e-010     6.3002e-005     -1.7502e-008   
  3.65            1.3627e-009     6.3698e-005     -2.3471e-008   
  3.7             8e-010          6.4405e-005     -4.17e-009     
  3.75            -9.356e-010     6.5082e-005     -1.7317e-008   
  3.8             1.3227e-009     6.5751e-005     -2.3474e-008   
  3.85            9.282e-010      6.6417e-005     -4.246e-009    
  3.9             -6.494e-010     6.7074e-005     -2.0659e-008   
  3.95            1.4114e-009     6.7703e-005     -2.4167e-008   
  4               -7.268e-010     6.834e-005      -1.7907e-008   
  4.05            1.397e-009      6.8963e-005     -2.371e-008    
  4.1             -8.122e-010     6.9586e-005     -1.7479e-008   
  4.15            1.3574e-009     7.0177e-005     -2.3463e-008   
