! VERSION = 6.00
BEGIN_HEADER
 ICCAP_INPUTS
  VG         V  B GROUND SMU4 0.001 LIN        1    0          5          101  0.05      
  VS         V  E GROUND SMU2 0.1 CON        0
  VB         V  C GROUND SMU3 0.1 LIN        3    0          -5         3    -2.5      
  VD         V  S GROUND SMU1 0.1 LIN        2    0.1        5          2    4.9       
 ICCAP_OUTPUTS
  IG         I  B GROUND SMU4 B
  ID         I  S GROUND SMU1 B
  IB         I  C GROUND SMU3 B
END_HEADER

BEGIN_DB
 ICCAP_VAR VS         0              
 ICCAP_VAR VB         0              
 ICCAP_VAR VD         0.1            

 #VG              IG              ID              IB             
  0               2.8396e-009     -6.317e-010     -2.1589e-008   
  0.05            -2.0159e-009    1.6105e-009     2.026e-008     
  0.1             -1.5874e-009    -1.8904e-009    5.143e-009     
  0.15            1.3309e-009     -1.4712e-009    -2.5038e-008   
  0.2             2.8885e-009     8.2e-012        -1.0851e-008   
  0.25            -1.3823e-009    1.4031e-009     2.8245e-008    
  0.3             -1.3765e-009    2.7e-012        1.2358e-008    
  0.35            -2.6922e-009    1.656e-010      1.3645e-008    
  0.4             1.3249e-009     -1.4955e-009    -2.1047e-008   
  0.45            2.4673e-009     1.4135e-009     -1.428e-008    
  0.5             -1.3806e-009    2.2748e-009     2.7678e-008    
  0.55            -1.3721e-009    2.2742e-009     1.2685e-008    
  0.6             -2.678e-009     7.3816e-009     1.402e-008     
  0.65            2.674e-009      2.281e-008      2.8556e-008    
  0.7             2.0144e-009     6.3323e-008     -2.911e-009    
  0.75            -8.116e-010     1.5106e-007     1.4636e-008    
  0.8             -1.1836e-009    3.2012e-007     -1.0188e-008   
  0.85            1.074e-010      5.935e-007      -1.008e-008    
  0.9             1.3551e-009     1.02132e-006    -2.4038e-008   
  0.95            2.8798e-009     1.6375e-006     2.6304e-008    
  1               2.1398e-009     2.4689e-006     1.06e-008      
  1.05            9.792e-010      3.4983e-006     1.1048e-008    
  1.1             -2.268e-010     4.698e-006      1.1636e-008    
  1.15            -1.4486e-009    5.9718e-006     2.1895e-008    
  1.2             -1.3833e-009    7.2554e-006     8.999e-009     
  1.25            -2.6481e-009    8.542e-006      1.2709e-008    
  1.3             -2.194e-009     9.7638e-006     1.046e-009     
  1.35            -1.5774e-009    1.09582e-005    4.232e-009     
  1.4             1.4003e-009     1.2098e-005     1.11e-009      
  1.45            2.8803e-009     1.323e-005      -8.048e-009    
  1.5             2.7948e-009     1.4334e-005     -2.08e-010     
  1.55            2.552e-009      1.5378e-005     8.693e-009     
  1.6             -1.8131e-009    1.6409e-005     2.4473e-008    
  1.65            -1.4077e-009    1.7387e-005     6.037e-009     
  1.7             -1.379e-009     1.8339e-005     9.592e-009     
  1.75            -2.5999e-009    1.9273e-005     1.3375e-008    
  1.8             -2.0613e-009    2.0155e-005     1.03e-009      
  1.85            -1.5058e-009    2.1033e-005     4.725e-009     
  1.9             -1.3818e-009    2.1878e-005     8.473e-009     
  1.95            -2.6817e-009    2.2714e-005     1.2252e-008    
  2               1.8543e-009     2.3493e-005     -2.003e-008    
  2.05            1.3661e-009     2.4284e-005     -9.249e-009    
  2.1             2.8856e-009     2.5055e-005     -8.343e-009    
  2.15            -1.3723e-009    2.5838e-005     2.8443e-008    
  2.2             -2.5115e-009    2.6576e-005     1.4315e-008    
  2.25            -1.8996e-009    2.7288e-005     1.74e-009      
  2.3             -1.4354e-009    2.8e-005        5.389e-009     
  2.35            -1.3826e-009    2.8696e-005     9.092e-009     
  2.4             -2.6428e-009    2.9385e-005     1.2742e-008    
  2.45            -2.1775e-009    3.0044e-005     1.093e-009     
  2.5             -1.5659e-009    3.0707e-005     4.225e-009     
  2.55            -1.3818e-009    3.1356e-005     7.748e-009     
  2.6             -2.7078e-009    3.1995e-005     1.1498e-008    
  2.65            1.999e-009      3.2606e-005     -2.2498e-008   
  2.7             1.4021e-009     3.3215e-005     -8.79e-009     
  2.75            2.8829e-009     3.3835e-005     -8.102e-009    
  2.8             -1.3774e-009    3.4449e-005     2.8679e-008    
  2.85            -2.5767e-009    3.5037e-005     1.3456e-008    
  2.9             -2.0202e-009    3.5605e-005     1.165e-009     
  2.95            -1.484e-009     3.6172e-005     5.01e-009      
  3               -1.3816e-009    3.6735e-005     8.559e-009     
  3.05            -2.676e-009     3.7289e-005     1.2203e-008    
  3.1             -2.2779e-009    3.7817e-005     1.024e-009     
  3.15            -1.6523e-009    3.8359e-005     3.516e-009     
  3.2             -1.3846e-009    3.8883e-005     7.163e-009     
  3.25            -1.3673e-009    3.9401e-005     1.0572e-008    
  3.3             -2.5096e-009    3.9922e-005     1.4219e-008    
  3.35            -1.9016e-009    4.0411e-005     1.53e-009      
  3.4             -1.4362e-009    4.0908e-005     5.432e-009     
  3.45            -1.383e-009     4.1401e-005     9.008e-009     
  3.5             -2.6375e-009    4.1889e-005     1.2788e-008    
  3.55            -2.1764e-009    4.2351e-005     9.91e-010      
  3.6             -1.5636e-009    4.2819e-005     4.226e-009     
  3.65            -1.3797e-009    4.3283e-005     8.002e-009     
  3.7             -2.6994e-009    4.374e-005      1.1649e-008    
  3.75            1.9989e-009     4.4176e-005     -2.2285e-008   
  3.8             1.3981e-009     4.4616e-005     -8.782e-009    
  3.85            1.3309e-009     4.5056e-005     -8.116e-009    
  3.9             2.8116e-009     4.5486e-005     -1.3013e-008   
  3.95            1.519e-009      4.5901e-005     9.955e-009     
  4               -1.3653e-009    4.6339e-005     2.8117e-008    
  4.05            -2.479e-009     4.675e-005      1.4627e-008    
  4.1             -1.8548e-009    4.7139e-005     1.931e-009     
  4.15            -1.4203e-009    4.7539e-005     5.502e-009     
  4.2             -1.3797e-009    4.7939e-005     9.269e-009     
  4.25            -2.623e-009     4.8325e-005     1.3065e-008    
  4.3             -2.1274e-009    4.8694e-005     1.02e-009      
  4.35            -1.5397e-009    4.9074e-005     4.366e-009     
  4.4             -1.3797e-009    4.9451e-005     8.26e-009      
  4.45            -2.6929e-009    4.9814e-005     1.1771e-008    
  4.5             1.9366e-009     5.0162e-005     -2.147e-008    
  4.55            1.3867e-009     5.0517e-005     -9.08e-009     
  4.6             1.3293e-009     5.0866e-005     -7.943e-009    
  4.65            2.7956e-009     5.1215e-005     -1.3437e-008   
  4.7             2.5659e-009     5.1546e-005     8.99e-009      
  4.75            -1.798e-009     5.1877e-005     2.4089e-008    
  4.8             -1.4067e-009    5.2208e-005     6.066e-009     
  4.85            -1.3782e-009    5.2532e-005     9.595e-009     
  4.9             -2.5898e-009    5.2859e-005     1.3203e-008    
  4.95            -2.0537e-009    5.3161e-005     1.154e-009     
  5               -1.4951e-009    5.3461e-005     4.909e-009     
END_DB

BEGIN_DB
 ICCAP_VAR VS         0              
 ICCAP_VAR VB         0              
 ICCAP_VAR VD         5              

 #VG              IG              ID              IB             
  0               1.3314e-009     1.1863e-009     7.476e-009     
  0.05            2.877e-009      -4.08e-011      -1.2505e-008   
  0.1             -1.3861e-009    1.4486e-009     2.7601e-008    
  0.15            -2.7118e-009    4.32e-011       1.282e-008     
  0.2             1.3319e-009     -1.4867e-009    -2.4709e-008   
  0.25            2.8789e-009     1.1e-011        -1.1499e-008   
  0.3             -1.3834e-009    1.4799e-009     2.8267e-008    
  0.35            -1.3792e-009    2.777e-010      1.2529e-008    
  0.4             -2.6879e-009    1.2823e-009     1.3666e-008    
  0.45            -1.142e-010     2.0448e-009     -1.2829e-008   
  0.5             2.4433e-009     1.5355e-008     1.1661e-008    
  0.55            -1.8614e-009    4.8952e-008     1.4304e-008    
  0.6             -1.3904e-009    1.483e-007      -1.1427e-008   
  0.65            -2.6606e-009    3.6467e-007     -2.8819e-008   
  0.7             -2.2708e-009    8.0093e-007     -5.7647e-008   
  0.75            -7.013e-010     1.5366e-006     -1.1751e-007   
  0.8             -1.5473e-009    2.7144e-006     -1.6683e-007   
  0.85            -1.3784e-009    4.408e-006      -2.8833e-007   
  0.9             -2.6971e-009    6.7687e-006     -4.2891e-007   
  0.95            -2.4133e-009    9.7409e-006     -6.1687e-007   
  1               2.6412e-009     1.3288e-005     -8.2906e-007   
  1.05            2.844e-009      1.7466e-005     -1.02503e-006  
  1.1             1.2057e-009     2.2152e-005     -1.2634e-006   
  1.15            1.6305e-009     2.7208e-005     -1.5021e-006   
  1.2             2.0383e-009     3.2797e-005     -1.7403e-006   
  1.25            2.4138e-009     3.8709e-005     -1.9783e-006   
  1.3             2.7037e-009     4.4809e-005     -2.2149e-006   
  1.35            2.8682e-009     5.1162e-005     -2.4388e-006   
  1.4             2.8506e-009     5.7667e-005     -2.6531e-006   
  1.45            2.4709e-009     6.4543e-005     -2.8651e-006   
  1.5             1.7194e-009     7.1462e-005     -3.0616e-006   
  1.55            1.3394e-009     7.8376e-005     -3.2361e-006   
  1.6             2.884e-009      8.5531e-005     -3.3971e-006   
  1.65            2.7006e-009     9.3167e-005     -3.5506e-006   
  1.7             2.056e-009      0.000100554     -3.6893e-006   
  1.75            1.4318e-009     0.000108105     -3.8209e-006   
  1.8             1.4732e-009     0.00011555      -3.9189e-006   
  1.85            2.8676e-009     0.00012323      -4.0264e-006   
  1.9             2.8478e-009     0.00013106      -4.1041e-006   
  1.95            2.4446e-009     0.00013898      -4.1878e-006   
  2               1.6887e-009     0.00014689      -4.2567e-006   
  2.05            1.3365e-009     0.0001548       -4.3149e-006   
  2.1             2.8798e-009     0.00016248      -4.3512e-006   
  2.15            2.6827e-009     0.00017076      -4.3775e-006   
  2.2             2.0306e-009     0.00017854      -4.3969e-006   
  2.25            1.4167e-009     0.00018657      -4.4146e-006   
  2.3             2.8711e-009     0.00019458      -4.4186e-006   
  2.35            2.8293e-009     0.00020297      -4.4153e-006   
  2.4             2.3708e-009     0.00021086      -4.4018e-006   
  2.45            1.6163e-009     0.00021892      -4.3888e-006   
  2.5             1.3301e-009     0.00022704      -4.3701e-006   
  2.55            2.8786e-009     0.00023513      -4.3404e-006   
  2.6             2.6429e-009     0.00024347      -4.2977e-006   
  2.65            1.9411e-009     0.00025155      -4.2615e-006   
  2.7             1.3894e-009     0.00025977      -4.2223e-006   
  2.75            2.8803e-009     0.00026803      -4.1734e-006   
  2.8             2.8031e-009     0.00027624      -4.1134e-006   
  2.85            2.2929e-009     0.00028444      -4.0588e-006   
  2.9             1.5604e-009     0.00029261      -4.0044e-006   
  2.95            1.3286e-009     0.00030079      -3.9481e-006   
  3               2.8745e-009     0.00030892      -3.8828e-006   
  3.05            2.579e-009      0.00031729      -3.8128e-006   
  3.1             1.861e-009      0.00032543      -3.749e-006    
  3.15            1.3682e-009     0.00033364      -3.6857e-006   
  3.2             2.8838e-009     0.00034183      -3.6147e-006   
  3.25            2.7696e-009     0.00035015      -3.5372e-006   
  3.3             2.2121e-009     0.00035832      -3.467e-006    
  3.35            1.517e-009      0.00036649      -3.3998e-006   
  3.4             1.3304e-009     0.00037468      -3.3349e-006   
  3.45            2.8644e-009     0.00038282      -3.2591e-006   
  3.5             2.5246e-009     0.00039109      -3.1798e-006   
  3.55            1.7791e-009     0.00039925      -3.111e-006    
  3.6             1.3489e-009     0.00040743      -3.044e-006    
  3.65            2.8867e-009     0.00041555      -2.9722e-006   
  3.7             2.7344e-009     0.00042379      -2.893e-006    
  3.75            2.1375e-009     0.00043191      -2.8226e-006   
  3.8             1.4601e-009     0.00044003      -2.761e-006    
  3.85            1.3298e-009     0.00044813      -2.6933e-006   
  3.9             2.8529e-009     0.00045618      -2.6264e-006   
  3.95            2.4575e-009     0.0004644       -2.5499e-006   
  4               1.7027e-009     0.00047251      -2.4885e-006   
  4.05            1.3358e-009     0.00048056      -2.4308e-006   
  4.1             2.8836e-009     0.0004886       -2.365e-006    
  4.15            2.696e-009      0.0004968       -2.2924e-006   
  4.2             2.0449e-009     0.00050479      -2.2318e-006   
  4.25            1.428e-009      0.00051277      -2.1781e-006   
  4.3             2.8752e-009     0.00052082      -2.1188e-006   
  4.35            2.8344e-009     0.0005289       -2.0541e-006   
  4.4             2.3837e-009     0.00053697      -1.9983e-006   
  4.45            1.6346e-009     0.00054494      -1.9456e-006   
  4.5             1.3323e-009     0.00055291      -1.8973e-006   
  4.55            2.88e-009       0.00056078      -1.8434e-006   
  4.6             2.6589e-009     0.00056885      -1.7822e-006   
  4.65            1.9686e-009     0.00057676      -1.7333e-006   
  4.7             1.3974e-009     0.00058461      -1.6904e-006   
  4.75            2.8778e-009     0.00059251      -1.6439e-006   
  4.8             2.8158e-009     0.00060047      -1.5888e-006   
  4.85            2.3172e-009     0.0006083       -1.5442e-006   
  4.9             1.5706e-009     0.00061606      -1.5014e-006   
  4.95            1.3318e-009     0.00062392      -1.4614e-006   
  5               2.8761e-009     0.00063165      -1.4211e-006   
END_DB

BEGIN_DB
 ICCAP_VAR VS         0              
 ICCAP_VAR VB         -2.5           
 ICCAP_VAR VD         0.1            

 #VG              IG              ID              IB             
  0               1.6213e-009     1.9581e-009     3.847e-009     
  0.05            1.8181e-009     1.5828e-009     -8.681e-009    
  0.1             3.932e-010      2.2993e-009     1.2693e-008    
  0.15            5.777e-010      2.3355e-009     1.2403e-008    
  0.2             7.499e-010      2.354e-009      1.1069e-008    
  0.25            9.027e-010      2.3572e-009     9.639e-009     
  0.3             -1.717e-009     1.7635e-009     1.3738e-008    
  0.35            -1.755e-009     -1.6541e-009    6.737e-009     
  0.4             2.3376e-009     -1.5855e-009    -2.0424e-008   
  0.45            1.4125e-009     2.1368e-009     -6.737e-009    
  0.5             -1.3792e-009    1.3227e-009     2.9321e-008    
  0.55            -1.3365e-009    -2.1221e-009    1.1576e-008    
  0.6             -1.5078e-009    -1.969e-009     -1.1718e-008   
  0.65            1.3292e-009     -1.4019e-009    -2.6422e-008   
  0.7             1.3304e-009     8.21e-011       -9.437e-009    
  0.75            2.8797e-009     -3.26e-011      -1.2256e-008   
  0.8             -1.3845e-009    1.4855e-009     2.7548e-008    
  0.85            -2.7152e-009    1.883e-010      1.2762e-008    
  0.9             1.329e-009      -1.0295e-009    -2.4995e-008   
  0.95            2.8836e-009     2.4656e-009     -1.1292e-008   
  1               -1.3825e-009    7.7054e-009     2.8665e-008    
  1.05            2.1912e-009     2.3333e-008     2.274e-008     
  1.1             1.4977e-009     7.1406e-008     -7.427e-009    
  1.15            1.558e-010      1.8029e-007     7.728e-009     
  1.2             1.3796e-009     3.9309e-007     -2.2698e-008   
  1.25            1.3289e-009     7.4026e-007     -7.984e-009    
  1.3             2.7518e-009     1.2627e-006     2.2677e-008    
  1.35            6.46e-010       1.9884e-006     1.2513e-008    
  1.4             1.0309e-009     2.9111e-006     1.0474e-008    
  1.45            -1.835e-010     4.0415e-006     1.0586e-008    
  1.5             -1.4271e-009    5.2725e-006     2.2388e-008    
  1.55            -1.3794e-009    6.5529e-006     9.064e-009     
  1.6             -2.6414e-009    7.8363e-006     1.2821e-008    
  1.65            -2.1815e-009    9.0881e-006     1.166e-009     
  1.7             -1.5747e-009    1.03103e-005    4.045e-009     
  1.75            1.3289e-009     1.1438e-005     7.733e-009     
  1.8             2.8574e-009     1.257e-005      -1.0472e-008   
  1.85            -1.7196e-009    1.3689e-005     2.233e-008     
  1.9             -1.3888e-009    1.474e-005      6.625e-009     
  1.95            -1.3738e-009    1.575e-005      9.819e-009     
  2               -2.5725e-009    1.6728e-005     1.3439e-008    
  2.05            -2.0276e-009    1.7651e-005     1.006e-009     
  2.1             -1.4829e-009    1.8562e-005     5.01e-009      
  2.15            -1.3775e-009    1.9445e-005     8.595e-009     
  2.2             -2.683e-009     2.0307e-005     1.221e-008     
  2.25            1.8896e-009     2.1107e-005     -2.0605e-008   
  2.3             1.3694e-009     2.1916e-005     -9.231e-009    
  2.35            2.8868e-009     2.2704e-005     -8.032e-009    
  2.4             -1.3743e-009    2.3497e-005     2.9002e-008    
  2.45            -2.5566e-009    2.4243e-005     1.3783e-008    
  2.5             -1.9968e-009    2.4967e-005     1.166e-009     
  2.55            -1.4681e-009    2.5682e-005     5.168e-009     
  2.6             -1.3791e-009    2.6381e-005     8.604e-009     
  2.65            -2.6739e-009    2.7075e-005     1.218e-008     
  2.7             1.8496e-009     2.7717e-005     -1.9845e-008   
  2.75            1.3582e-009     2.8391e-005     -9.233e-009    
  2.8             2.885e-009      2.9038e-005     -8.351e-009    
  2.85            2.7707e-009     2.9677e-005     -3.47e-010     
  2.9             6.295e-010      3.0304e-005     1.2445e-008    
  2.95            1.0177e-009     3.0908e-005     1.0363e-008    
  3               -2.009e-010     3.15e-005       1.0933e-008    
  3.05            -1.4329e-009    3.2109e-005     2.2251e-008    
  3.1             -1.3772e-009    3.2679e-005     9.07e-009      
  3.15            -2.6499e-009    3.3252e-005     1.2741e-008    
  3.2             -2.2146e-009    3.3802e-005     1.027e-009     
  3.25            -1.5931e-009    3.4354e-005     4.008e-009     
  3.3             -1.375e-009     3.4896e-005     7.495e-009     
  3.35            -1.3628e-009    3.5428e-005     1.0873e-008    
  3.4             -2.4958e-009    3.5959e-005     1.4418e-008    
  3.45            -1.8943e-009    3.6461e-005     1.597e-009     
  3.5             -1.4269e-009    3.6969e-005     5.442e-009     
  3.55            -1.3791e-009    3.7468e-005     9.136e-009     
  3.6             -2.6482e-009    3.7965e-005     1.2681e-008    
  3.65            -2.2163e-009    3.8436e-005     9.95e-010      
  3.7             -1.6068e-009    3.8913e-005     3.909e-009     
  3.75            -1.3787e-009    3.9385e-005     7.48e-009      
  3.8             -1.3586e-009    3.9844e-005     1.0805e-008    
  3.85            -2.4948e-009    4.0309e-005     1.4401e-008    
  3.9             -1.8991e-009    4.0742e-005     1.632e-009     
  3.95            -1.4336e-009    4.1182e-005     5.299e-009     
  4               -1.3786e-009    4.1617e-005     9.142e-009     
  4.05            -2.6523e-009    4.205e-005      1.2554e-008    
  4.1             -2.218e-009     4.2459e-005     1.016e-009     
  4.15            -1.6096e-009    4.2875e-005     3.747e-009     
