! VERSION = 6.00
BEGIN_HEADER
 ICCAP_INPUTS
  VG         V  B GROUND SMU4 0.001 LIN        2    0          5          6    1         
  VS         V  E GROUND SMU2 0.1 CON        0
  VD         V  S GROUND SMU1 0.1 LIN        1    0          5          101  0.05      
  VB         V  C GROUND SMU3 0.1 LIN        3    0          -2.5       2    -2.5      
 ICCAP_OUTPUTS
  ID         I  S GROUND SMU1 B
  IB         I  C GROUND SMU3 B
  IG         I  B GROUND SMU4 B
END_HEADER

BEGIN_DB
 ICCAP_VAR VG         0              
 ICCAP_VAR VS         0              
 ICCAP_VAR VB         0              

 #VD              ID              IB              IG             
  0               -1.9101e-009    -3.211e-009     -1.7074e-009   
  0.05            -1.5944e-009    6.607e-009      -1.7424e-009   
  0.1             -2.1801e-009    -1.1072e-008    -2.958e-010    
  0.15            -2.2394e-009    -1.1299e-008    -5.09e-010     
  0.2             -2.2594e-009    -1.1642e-008    -7.15e-010     
  0.25            -1.5755e-009    -1.828e-008     1.2511e-009    
  0.3             -2.045e-010     -1.4064e-008    2.8298e-009    
  0.35            2.1716e-009     1.0265e-008     1.956e-010     
  0.4             2.2809e-009     1.0443e-008     3.723e-010     
  0.45            2.3484e-009     1.0903e-008     5.641e-010     
  0.5             1.4998e-009     2.3253e-008     -1.3206e-009   
  0.55            1.509e-010      1.151e-008      -2.6965e-009   
  0.6             -1.337e-009     5.76e-010       -1.921e-009    
  0.65            -2.2522e-009    -1.148e-008     -5.939e-010    
  0.7             -2.2566e-009    -1.1579e-008    -8.056e-010    
  0.75            -2.2249e-009    -1.1335e-008    -9.628e-010    
  0.8             -1.6782e-009    -1.3524e-008    1.7448e-009    
  0.85            1.6467e-009     -9.468e-009     1.7248e-009    
  0.9             1.4106e-009     9.755e-009      1.9137e-009    
  0.95            2.3321e-009     1.0747e-008     5.161e-010     
  1               1.4623e-009     2.4361e-008     -1.3286e-009   
  1.05            1.132e-010      1.1383e-008     -2.7198e-009   
  1.1             -2.0526e-009    -1.0929e-008    -4.56e-011     
  1.15            -2.1598e-009    -1.1009e-008    -2.442e-010    
  1.2             -2.2286e-009    -1.1168e-008    -4.574e-010    
  1.25            -2.2567e-009    -1.1565e-008    -6.674e-010    
  1.3             -1.5541e-009    -1.9244e-008    1.2554e-009    
  1.35            -1.636e-010     -1.3508e-008    2.8509e-009    
  1.4             2.1477e-009     1.0266e-008     1.499e-010     
  1.45            2.2573e-009     1.0354e-008     3.302e-010     
  1.5             2.3379e-009     1.0793e-008     5.253e-010     
  1.55            1.4695e-009     2.4246e-008     -1.3248e-009   
  1.6             1.183e-010      1.1454e-008     -2.717e-009    
  1.65            -2.0588e-009    -1.0943e-008    -5.09e-011     
  1.7             -2.1676e-009    -1.0981e-008    -2.595e-010    
  1.75            -2.2323e-009    -1.1305e-008    -4.726e-010    
  1.8             -2.2584e-009    -1.1644e-008    -6.85e-010     
  1.85            -1.5601e-009    -1.9081e-008    1.2545e-009    
  1.9             -1.768e-010     -1.3842e-008    2.8424e-009    
  1.95            2.1463e-009     1.0333e-008     1.585e-010     
  2               2.2652e-009     1.0338e-008     3.537e-010     
  2.05            2.3381e-009     1.0883e-008     5.371e-010     
  2.1             1.4783e-009     2.3814e-008     -1.3231e-009   
  2.15            1.289e-010      1.166e-008      -2.7086e-009   
  2.2             -2.0684e-009    -1.0961e-008    -6.96e-011     
  2.25            -2.1711e-009    -1.1064e-008    -2.719e-010    
  2.3             -2.2344e-009    -1.118e-008     -4.876e-010    
  2.35            -2.2589e-009    -1.1602e-008    -6.968e-010    
  2.4             -1.5685e-009    -1.8534e-008    1.2527e-009    
  2.45            -1.891e-010     -1.4044e-008    2.8352e-009    
  2.5             2.1619e-009     1.0295e-008     1.738e-010     
  2.55            2.2686e-009     1.0407e-008     3.592e-010     
  2.6             2.3429e-009     1.0746e-008     5.494e-010     
  2.65            1.4809e-009     2.3481e-008     -1.3209e-009   
  2.7             1.395e-010      1.1662e-008     -2.7031e-009   
  2.75            -1.3472e-009    4.81e-010       -1.911e-009    
  2.8             -2.248e-009     -1.1407e-008    -5.812e-010    
  2.85            -2.2559e-009    -1.1384e-008    -7.841e-010    
  2.9             -1.6044e-009    -1.6775e-008    2.0577e-009    
  2.95            1.913e-009      -8.426e-009     1.5245e-009    
  3               2.1325e-009     1.021e-008      1.286e-010     
  3.05            2.2453e-009     1.0389e-008     3.117e-010     
  3.1             2.3289e-009     1.0651e-008     4.979e-010     
  3.15            1.4463e-009     2.4669e-008     -1.3283e-009   
  3.2             1.033e-010      1.1292e-008     -1.3002e-009   
  3.25            2.49e-010       1.3207e-008     -2.633e-009    
  3.3             -1.2585e-009    7.99e-010       -1.98e-009     
  3.35            -2.2604e-009    -1.154e-008     -7.298e-010    
  3.4             -1.5829e-009    -1.7885e-008    1.2477e-009    
  3.45            -2.266e-010     -1.4522e-008    2.8192e-009    
  3.5             2.1836e-009     1.0315e-008     2.107e-010     
  3.55            2.2884e-009     1.0423e-008     3.927e-010     
  3.6             2.354e-009      1.0851e-008     5.853e-010     
  3.65            1.5146e-009     2.2649e-008     -1.316e-009    
  3.7             1.668e-010      1.1904e-008     -2.683e-009    
  3.75            -1.3208e-009    5.45e-010       -1.9312e-009   
  3.8             -2.2541e-009    -1.1512e-008    -6.178e-010    
  3.85            -1.5309e-009    -2.0155e-008    1.2606e-009    
  3.9             -1.24e-010      -1.2945e-008    2.866e-009     
  3.95            2.1227e-009     1.0238e-008     1.122e-010     
  4               2.2348e-009     1.0363e-008     2.977e-010     
  4.05            2.3206e-009     1.0651e-008     4.82e-010      
  4.1             2.3721e-009     1.082e-008      6.659e-010     
  4.15            1.5823e-009     2.0349e-008     -1.3046e-009   
  4.2             2.397e-010      1.2839e-008     -2.64e-009     
  4.25            -1.2654e-009    5.71e-010       -1.9744e-009   
  4.3             -1.7059e-009    -1.2894e-008    1.6513e-009    
  4.35            1.5643e-009     -9.275e-009     1.7917e-009    
  4.4             2.2874e-009     1.0524e-008     3.964e-010     
  4.45            2.3576e-009     1.0831e-008     5.849e-010     
  4.5             1.5183e-009     2.2597e-008     -1.3138e-009   
  4.55            1.678e-010      1.1862e-008     -2.6834e-009   
  4.6             -1.3179e-009    6.33e-010       -1.9295e-009   
  4.65            -2.2556e-009    -1.1476e-008    -6.283e-010    
  4.7             -2.2525e-009    -1.155e-008     -8.29e-010     
  4.75            -1.6183e-009    -1.5966e-008    1.9897e-009    
  4.8             1.8515e-009     -8.975e-009     1.5749e-009    
  4.85            2.1614e-009     1.0201e-008     1.722e-010     
  4.9             2.2741e-009     1.0432e-008     3.66e-010      
  4.95            2.35e-009       1.0765e-008     5.461e-010     
  5               1.4906e-009     2.3538e-008     -1.3197e-009   
END_DB

BEGIN_DB
 ICCAP_VAR VG         1              
 ICCAP_VAR VS         0              
 ICCAP_VAR VB         0              

 #VD              ID              IB              IG             
  0               -4.5174e-007    -1.1829e-008    1.1721e-009    
  0.05            4.9424e-005     1.0087e-008     -2.6353e-009   
  0.1             8.3122e-005     2.4345e-008     -1.8528e-009   
  0.15            0.000103441     1.083e-008      8.367e-010     
  0.2             0.00011167      -2.397e-008     -9.673e-010    
  0.25            0.00012272      2.7691e-008     -1.3267e-009   
  0.3             0.00012773      1.0507e-008     7.188e-010     
  0.35            0.00013392      -2.5894e-008    1.3122e-009    
  0.4             0.00013799      -1.1034e-008    -5.545e-010    
  0.45            0.00014286      2.4716e-008     -1.4276e-009   
  0.5             0.0001465       1.0125e-008     2.94e-010      
  0.55            0.00015009      -2.1855e-008    1.6016e-009    
  0.6             0.00015333      -1.1322e-008    -1.2482e-009   
  0.65            0.00015684      1.1872e-008     -2.459e-009    
  0.7             0.00015943      9.968e-009      2.0851e-009    
  0.75            0.00016363      -1.1007e-008    -2.962e-010    
  0.8             0.00016715      2.1811e-008     -1.5794e-009   
  0.85            0.00016974      1.0589e-008     1.1551e-009    
  0.9             0.0001724       -1.3394e-008    2.6702e-009    
  0.95            0.00017638      -1.104e-008     -5.401e-010    
  1               0.00017924      2.4392e-008     -1.433e-009    
  1.05            0.00018115      1.0873e-008     1.3606e-009    
  1.1             0.00018539      -1.595e-008     1.6142e-009    
  1.15            0.00018724      -1.1675e-008    -7.09e-011     
  1.2             0.00018948      1.9793e-008     -1.7967e-009   
  1.25            0.00019207      1.2136e-008     -1.075e-010    
  1.3             0.00019412      -1.7897e-008    2.2582e-009    
  1.35            0.00019687      -1.1524e-008    -8.698e-010    
  1.4             0.00019992      2.7719e-008     -1.3448e-009   
  1.45            0.00020203      1.0306e-008     6.038e-010     
  1.5             0.00020515      -2.4931e-008    1.357e-009     
  1.55            0.00020749      -1.1013e-008    -4.215e-010    
  1.6             0.00021023      2.2843e-008     -1.4903e-009   
  1.65            0.00021255      1.04e-008       1.751e-010     
  1.7             0.00021427      -2.1088e-008    1.765e-009     
  1.75            0.00021731      -1.2287e-008    2.83e-011      
  1.8             0.00021884      1.7559e-008     -1.9394e-009   
  1.85            0.00022102      2.5046e-008     -1.3824e-009   
  1.9             0.00022228      8.865e-009      4.255e-010     
  1.95            0.00022501      -2.4973e-008    1.4707e-009    
  2               0.00022732      -1.4123e-008    -1.3787e-009   
  2.05            0.00022977      1.024e-008      -2.3087e-009   
  2.1             0.00023226      5.817e-009      -2.6398e-009   
  2.15            0.00023354      1.1875e-008     -1.8639e-009   
  2.2             0.0002354       4.34e-009       -2.3502e-009   
  2.25            0.00023756      -9.46e-010      -2.6598e-009   
  2.3             0.00023943      2.674e-009      -1.9062e-009   
  2.35            0.00023986      -1.0569e-008    2.3894e-009    
  2.4             0.00024347      -3.6475e-008    -7.624e-010    
  2.45            0.00024647      -4.574e-009     -1.3699e-009   
  2.5             0.00024724      -3.1875e-008    2.8616e-009    
  2.55            0.00025059      -5.9726e-008    -1.4004e-009   
  2.6             0.00025327      -4.0167e-008    -1.6035e-009   
  2.65            0.0002528       -6.3299e-008    2.5526e-009    
  2.7             0.0002562       -9.8034e-008    -9.873e-010    
  2.75            0.0002588       -7.603e-008     -1.3239e-009   
  2.8             0.00025657      -1.1238e-007    2.152e-009     
  2.85            0.00026166      -1.5733e-007    -3.94e-010     
  2.9             0.00026406      -1.5082e-007    -1.5044e-009   
  2.95            0.00026428      -1.9632e-007    2.6501e-009    
  3               0.00026766      -2.5037e-007    -1.0855e-009   
  3.05            0.00027027      -2.5246e-007    -1.3086e-009   
  3.1             0.00027041      -3.2265e-007    2.8906e-009    
  3.15            0.00027375      -3.8965e-007    -1.7456e-009   
  3.2             0.0002759       -4.2438e-007    -1.126e-010    
  3.25            0.00027707      -5.2269e-007    2.2688e-009    
  3.3             0.00027916      -5.8874e-007    -2.1882e-009   
  3.35            0.00028183      -6.5485e-007    5.627e-010     
  3.4             0.00028389      -7.8943e-007    1.3765e-009    
  3.45            0.0002854       -8.7937e-007    -2.7286e-009   
  3.5             0.0002872       -9.8013e-007    1.1929e-009    
  3.55            0.00029106      -1.15047e-006   1.8624e-009    
  3.6             0.00027275      -1.2069e-006    -2.626e-010    
  3.65            0.00028767      -1.4013e-006    -1.5971e-009   
  3.7             0.00029381      -1.6206e-006    2.5614e-009    
  3.75            0.0002981       -1.86e-006      -9.917e-010    
  3.8             0.0003005       -2.0547e-006    -1.3231e-009   
  3.85            0.0003022       -2.3414e-006    2.9059e-009    
  3.9             0.00030571      -2.6484e-006    -1.6517e-009   
  3.95            0.00030914      -2.9392e-006    -2.091e-010    
  4               0.0003111       -3.334e-006     2.4355e-009    
  4.05            0.00031353      -3.7025e-006    -2.1088e-009   
  4.1             0.0003159       -4.0979e-006    4.519e-010     
  4.15            0.00031799      -4.5967e-006    1.4497e-009    
  4.2             0.00031989      -5.0727e-006    -2.6817e-009   
  4.25            0.00032215      -5.5849e-006    1.1017e-009    
  4.3             0.00032601      -6.2241e-006    2.0281e-009    
  4.35            0.0003272       -6.8395e-006    -2.3111e-009   
  4.4             0.00033037      -7.5066e-006    7.051e-010     
  4.45            0.00033386      -8.312e-006     1.3151e-009    
  4.5             0.00033605      -9.0932e-006    -2.7643e-009   
  4.55            0.00033965      -9.9409e-006    1.3301e-009    
  4.6             0.00034452      -1.09413e-005   1.6517e-009    
  4.65            0.00033767      -1.1565e-005    2.438e-010     
  4.7             0.0003464       -1.2869e-005    -2.2858e-009   
  4.75            0.00035206      -1.4063e-005    2.2065e-009    
  4.8             0.00035738      -1.537e-005     -4.631e-010    
  4.85            0.00036032      -1.6654e-005    -1.4681e-009   
  4.9             0.00036248      -1.8005e-005    2.7007e-009    
  4.95            0.00036722      -1.9512e-005    -1.1474e-009   
  5               0.00037209      -2.1041e-005    -1.3021e-009   
END_DB

BEGIN_DB
 ICCAP_VAR VG         2              
 ICCAP_VAR VS         0              
 ICCAP_VAR VB         0              

 #VD              ID              IB              IG             
  0               -3.4936e-006    1.2186e-008     5.08e-010      
  0.05            0.00027353      -1.1589e-008    -2.7642e-009   
  0.1             0.00053875      1.3713e-008     -2.155e-010    
  0.15            0.00079418      -1.6231e-008    2.4485e-009    
  0.2             0.00103647      -1.118e-008     -7.524e-010    
  0.25            0.0012594       1.0753e-008     -1.1488e-009   
  0.3             0.0014767       1.1187e-008     -2.5637e-009   
  0.35            0.001676        1.0112e-008     4.064e-010     
  0.4             0.0018607       -2.287e-008     1.4891e-009    
  0.45            0.0020224       -1.127e-008     -2.046e-010    
  0.5             0.0021724       2.1011e-008     -1.6617e-009   
  0.55            0.0022989       1.0472e-008     1.0868e-009    
  0.6             0.0024147       -2.2392e-008    2.0652e-009    
  0.65            0.0025055       -1.1635e-008    -9.705e-010    
  0.7             0.0025899       2.7664e-008     -1.3275e-009   
  0.75            0.0026511       1.0469e-008     7.206e-010     
  0.8             0.0027122       -2.5885e-008    1.3108e-009    
  0.85            0.0027528       -1.1034e-008    -5.542e-010    
  0.9             0.0027957       2.4595e-008     -1.4304e-009   
  0.95            0.002821        1.0309e-008     3.038e-010     
  1               0.002849        -2.1648e-008    1.5996e-009    
  1.05            0.00287         -1.1244e-008    -1.243e-009    
  1.1             0.0028876       1.2122e-008     -2.462e-009    
  1.15            0.0029049       9.945e-009      2.0763e-009    
  1.2             0.0029263       -1.1107e-008    -2.93e-010     
  1.25            0.0029421       2.193e-008      -1.5773e-009   
  1.3             0.002955        1.0508e-008     1.1488e-009    
  1.35            0.0029708       -2.0776e-008    1.9321e-009    
  1.4             0.0029848       -1.1416e-008    -1.0348e-009   
  1.45            0.0030009       2.7226e-008     -1.3151e-009   
  1.5             0.0030118       1.3273e-008     -1.873e-010    
  1.55            0.0030215       -1.6817e-008    2.4042e-009    
  1.6             0.0030347       -1.131e-008     -7.869e-010    
  1.65            0.0030458       2.6915e-008     -1.3658e-009   
  1.7             0.0030561       1.0287e-008     5.079e-010     
  1.75            0.0030654       -2.3988e-008    1.4149e-009    
  1.8             0.0030739       -1.1071e-008    -3.069e-010    
  1.85            0.0030811       2.2082e-008     -1.5625e-009   
  1.9             0.0030885       1.0652e-008     9.36e-011      
  1.95            0.0030966       -2.0613e-008    1.9106e-009    
  2               0.0031049       -1.2007e-008    -1.0524e-009   
  2.05            0.0031134       1.0178e-008     -2.6343e-009   
  2.1             0.003122        1.7535e-008     -1.8612e-009   
  2.15            0.003129        1.1106e-008     -2.3483e-009   
  2.2             0.0031381       1.8975e-008     -1.5214e-009   
  2.25            0.003144        1.3025e-008     -1.911e-009    
  2.3             0.0031513       5.38e-009       -2.3954e-009   
  2.35            0.0031578       2.94e-010       -2.6748e-009   
  2.4             0.0031661       2.269e-009      -1.9619e-009   
  2.45            0.0031693       -1.2336e-008    2.3641e-009    
  2.5             0.0031776       -4.0534e-008    -7.174e-010    
  2.55            0.0031861       -1.3155e-008    -1.3784e-009   
  2.6             0.003187        -4.5152e-008    2.8542e-009    
  2.65            0.0031966       -8.0447e-008    -1.3661e-009   
  2.7             0.0032019       -7.0145e-008    -1.6522e-009   
  2.75            0.0032032       -1.1265e-007    1.2623e-009    
  2.8             0.0032103       -1.5139e-007    -2.7507e-009   
  2.85            0.0032157       -1.7427e-007    1.604e-009     
  2.9             0.0032231       -2.4564e-007    2.049e-010     
  2.95            0.0032291       -2.741e-007     -2.2198e-009   
  3               0.0032337       -3.4834e-007    2.2409e-009    
  3.05            0.0032396       -4.4926e-007    -5.171e-010    
  3.1             0.0032447       -5.1014e-007    -1.4444e-009   
  3.15            0.0032481       -6.388e-007     2.7473e-009    
  3.2             0.0032577       -7.914e-007     -1.1905e-009   
  3.25            0.0032619       -9.1159e-007    -1.8701e-009   
  3.3             0.0032629       -1.10919e-006   2.4093e-009    
  3.35            0.0032446       -1.3372e-006    -2.0071e-009   
  3.4             0.0032646       -1.5674e-006    2.3396e-009    
  3.45            0.0032765       -1.8632e-006    -6.726e-010    
  3.5             0.0032848       -2.1489e-006    -1.3914e-009   
  3.55            0.0032886       -2.5341e-006    2.8346e-009    
  3.6             0.0032963       -2.9748e-006    -1.3219e-009   
  3.65            0.0033021       -3.4224e-006    -1.6959e-009   
  3.7             0.0033054       -3.9845e-006    2.5052e-009    
  3.75            0.0033135       -4.6248e-006    -9.14e-010     
  3.8             0.00332         -5.2865e-006    -1.337e-009    
  3.85            0.003322        -6.1043e-006    2.9103e-009    
  3.9             0.0033313       -7.0149e-006    -1.5692e-009   
  3.95            0.0033379       -7.9946e-006    -1.4783e-009   
  4               0.0033413       -9.1367e-006    2.695e-009     
  4.05            0.00335         -1.04168e-005   -1.1302e-009   
  4.1             0.0033494       -1.1794e-005    -1.3249e-009   
  4.15            0.003358        -1.3394e-005    2.9154e-009    
