! VERSION = 6.00
BEGIN_HEADER
 ICCAP_INPUTS
  VG         V  B GROUND SMU4 0.001 LIN        2    0          5          6    1         
  VS         V  E GROUND SMU2 0.1 CON        0
  VD         V  S GROUND SMU1 0.1 LIN        1    0          5          101  0.05      
  VB         V  C GROUND SMU3 0.1 LIN        3    0          -2.5       2    -2.5      
 ICCAP_OUTPUTS
  ID         I  S GROUND SMU1 B
  IB         I  C GROUND SMU3 B
  IG         I  B GROUND SMU4 B
END_HEADER

BEGIN_DB
 ICCAP_VAR VG         0              
 ICCAP_VAR VS         0              
 ICCAP_VAR VB         0              

 #VD              ID              IB              IG             
  0               4.542e-010      1.7226e-008     3.011e-010     
  0.05            -9.02e-010      -1.9634e-008    1.8565e-009    
  0.1             1.7715e-009     -9.264e-009     1.6851e-009    
  0.15            1.4566e-009     1.0096e-008     1.8648e-009    
  0.2             2.2992e-009     1.2654e-008     5.003e-010     
  0.25            1.4562e-009     2.7116e-008     -1.3794e-009   
  0.3             8.33e-011       1.312e-008      -2.6872e-009   
  0.35            -1.5227e-009    -2.3297e-008    1.3227e-009    
  0.4             -1.011e-010     -1.3561e-008    2.8552e-009    
  0.45            1.4914e-009     2.5737e-008     -1.378e-009    
  0.5             1.132e-010      1.3692e-008     -2.6821e-009   
  0.55            -1.5486e-009    -2.1665e-008    1.3215e-009    
  0.6             -1.424e-010     -1.4481e-008    2.8504e-009    
  0.65            1.5268e-009     2.4143e-008     -1.3735e-009   
  0.7             1.614e-010      1.4024e-008     -2.6731e-009   
  0.75            -2.1797e-009    -1.2671e-008    -1.496e-010    
  0.8             -2.243e-009     -1.3218e-008    -3.877e-010    
  0.85            -2.2448e-009    -1.2797e-008    -6.204e-010    
  0.9             -2.2274e-009    -1.1126e-008    -8.323e-010    
  0.95            -1.6445e-009    -1.6044e-008    2.0501e-009    
  1               1.9116e-009     -8.692e-009     1.5959e-009    
  1.05            1.5968e-009     1.0841e-008     1.7855e-009    
  1.1             2.2796e-009     1.2609e-008     3.997e-010     
  1.15            2.3125e-009     1.1998e-008     6.077e-010     
  1.2             2.3293e-009     1.0224e-008     7.937e-010     
  1.25            1.6752e-009     1.6963e-008     -1.8561e-009   
  1.3             -1.7323e-009    5.702e-009      -1.6964e-009   
  1.35            -2.212e-009     -1.2919e-008    -2.37e-010     
  1.4             -2.2469e-009    -1.3191e-008    -4.862e-010    
  1.45            -2.2372e-009    -1.2231e-008    -7.059e-010    
  1.5             -1.5876e-009    -1.9686e-008    2.2737e-009    
  1.55            2.0671e-009     -7.294e-009     1.4631e-009    
  1.6             1.3814e-009     2.9065e-008     -1.3783e-009   
  1.65            3.4e-012        1.2709e-008     -1.3724e-009   
  1.7             1.692e-010      1.4064e-008     -2.6717e-009   
  1.75            -2.1821e-009    -1.2695e-008    -1.609e-010    
  1.8             -2.2445e-009    -1.3113e-008    -4.023e-010    
  1.85            -2.2438e-009    -1.2694e-008    -6.266e-010    
  1.9             -2.2307e-009    -1.1097e-008    -8.303e-010    
  1.95            -1.6477e-009    -1.592e-008     2.0361e-009    
  2               1.8989e-009     -8.71e-009      1.5935e-009    
  2.05            1.5902e-009     1.095e-008      1.7817e-009    
  2.1             2.2761e-009     1.2674e-008     4.007e-010     
  2.15            2.3124e-009     1.1925e-008     6.122e-010     
  2.2             2.3309e-009     1.0215e-008     7.964e-010     
  2.25            1.6792e-009     1.6861e-008     -1.8534e-009   
  2.3             -1.7386e-009    5.726e-009      -1.6953e-009   
  2.35            -2.2124e-009    -1.2904e-008    -2.455e-010    
  2.4             -2.248e-009     -1.3232e-008    -4.793e-010    
  2.45            -2.2422e-009    -1.2218e-008    -7.069e-010    
  2.5             -2.2199e-009    -1.0569e-008    -8.888e-010    
  2.55            -1.6761e-009    -1.4348e-008    1.9165e-009    
  2.6             1.8118e-009     -9.198e-009     1.6631e-009    
  2.65            1.4878e-009     1.037e-008      1.8458e-009    
  2.7             2.2958e-009     1.2542e-008     4.767e-010     
  2.75            2.3224e-009     1.1246e-008     6.762e-010     
  2.8             2.3339e-009     9.916e-009      8.536e-010     
  2.85            1.7285e-009     1.4999e-008     -1.75e-009     
  2.9             -1.6512e-009    6.498e-009      -1.7521e-009   
  2.95            -1.5871e-009    -1.9762e-008    2.2763e-009    
  3               2.0686e-009     -7.186e-009     1.4622e-009    
  3.05            1.3739e-009     2.9085e-008     -1.3759e-009   
  3.1             1.3e-012        1.2739e-008     -1.3719e-009   
  3.15            1.648e-010      1.3851e-008     -2.6759e-009   
  3.2             -1.5783e-009    -2.0366e-008    2.3083e-009    
  3.25            2.0875e-009     -6.952e-009     1.4425e-009    
  3.3             1.3628e-009     2.899e-008      -1.3755e-009   
  3.35            -1.64e-011      1.236e-008      -1.3734e-009   
  3.4             1.455e-010      1.3822e-008     -2.6745e-009   
  3.45            -1.5686e-009    -2.1032e-008    2.3435e-009    
  3.5             2.1008e-009     -6.747e-009     1.4257e-009    
  3.55            1.3448e-009     2.9018e-008     -1.376e-009    
  3.6             -3.15e-011      1.227e-008      -1.3749e-009   
  3.65            1.343e-010      1.3626e-008     -2.6804e-009   
  3.7             -1.5631e-009    -2.1602e-008    2.3679e-009    
  3.75            2.1122e-009     -6.771e-009     1.4095e-009    
  3.8             1.3338e-009     2.9101e-008     -1.3746e-009   
  3.85            -4.18e-011      1.2184e-008     -1.3758e-009   
  3.9             1.198e-010      1.3554e-008     -2.6781e-009   
  3.95            -1.5498e-009    -2.197e-008     1.3192e-009    
  4               -1.377e-010     -1.4509e-008    2.8497e-009    
  4.05            1.5209e-009     2.4297e-008     -1.3738e-009   
  4.1             1.565e-010      1.3903e-008     -2.6688e-009   
  4.15            -1.5764e-009    -2.07e-008      2.3215e-009    
  4.2             2.0881e-009     -7.07e-009      1.4425e-009    
  4.25            1.3562e-009     2.9064e-008     -1.376e-009    
  4.3             -1.48e-011      1.2456e-008     -2.7026e-009   
  4.35            -1.4354e-009    -2.5807e-008    2.6151e-009    
  4.4             2.2594e-009     -3.825e-009     1.2335e-009    
  4.45            2.0223e-009     1.0291e-008     -1.712e-010    
  4.5             9.552e-010      2.2902e-008     -1.5772e-009   
  4.55            -1.4777e-009    7.823e-009      -1.8472e-009   
  4.6             -2.2482e-009    -1.3131e-008    -4.892e-010    
  4.65            -2.2397e-009    -1.2087e-008    -7.123e-010    
  4.7             -2.2213e-009    -1.049e-008     -8.907e-010    
  4.75            -1.6735e-009    -1.4228e-008    1.9017e-009    
  4.8             1.8058e-009     -9.118e-009     1.6627e-009    
  4.85            1.4841e-009     1.0891e-008     1.8452e-009    
  4.9             2.2961e-009     1.2729e-008     4.707e-010     
  4.95            2.3242e-009     1.1736e-008     6.715e-010     
  5               2.3322e-009     9.958e-009      8.511e-010     
END_DB

BEGIN_DB
 ICCAP_VAR VG         1              
 ICCAP_VAR VS         0              
 ICCAP_VAR VB         0              

 #VD              ID              IB              IG             
  0               -1.2003e-008    6.514e-009      1.3665e-009    
  0.05            1.1753e-006     2.4279e-008     2.7593e-009    
  0.1             2.0304e-006     -1.0433e-008    2.047e-010     
  0.15            2.6614e-006     1.0839e-008     -1.3654e-009   
  0.2             3.059e-006      2.8146e-008     -1.3611e-009   
  0.25            3.3913e-006     2.7413e-008     -1.3554e-009   
  0.3             3.6111e-006     2.6696e-008     -1.8923e-009   
  0.35            3.7608e-006     2.8522e-008     -1.3676e-009   
  0.4             3.8586e-006     2.8101e-008     -1.362e-009    
  0.45            4.0148e-006     2.7532e-008     -1.947e-009    
  0.5             4.1062e-006     2.9043e-008     -1.3684e-009   
  0.55            4.1335e-006     2.8636e-008     -2.043e-009    
  0.6             4.2724e-006     2.9249e-008     -1.3731e-009   
  0.65            4.3506e-006     2.9153e-008     -1.3704e-009   
  0.7             4.424e-006      2.8874e-008     -1.3669e-009   
  0.75            4.4361e-006     2.8789e-008     -2.0517e-009   
  0.8             4.5637e-006     2.9315e-008     -2.2055e-009   
  0.85            4.6243e-006     2.9104e-008     -1.3777e-009   
  0.9             4.5759e-006     9.384e-009      1.1349e-009    
  0.95            4.6837e-006     -8.329e-009     2.8296e-009    
  1               4.7779e-006     -1.2612e-008    -9.194e-010    
  1.05            4.8094e-006     1.8781e-008     -1.635e-009    
  1.1             4.8148e-006     9.981e-009      2.0804e-009    
  1.15            4.9433e-006     -1.2999e-008    1.4771e-009    
  1.2             5.0122e-006     -1.3132e-008    -7.775e-010    
  1.25            5.0976e-006     1.8168e-008     -1.8631e-009   
  1.3             5.031e-006      1.1173e-008     1.9272e-009    
  1.35            5.1143e-006     -1.6786e-008    1.6823e-009    
  1.4             5.2256e-006     -1.3044e-008    -5.545e-010    
  1.45            5.3137e-006     1.7154e-008     -2.1162e-009   
  1.5             5.3715e-006     2.9217e-008     -1.3819e-009   
  1.55            5.4222e-006     2.939e-008      -1.382e-009    
  1.6             5.4706e-006     2.9217e-008     -1.3779e-009   
  1.65            5.4731e-006     2.92e-008       -1.3754e-009   
  1.7             5.568e-006      2.8834e-008     -2.08e-009     
  1.75            5.6326e-006     2.9183e-008     -1.3781e-009   
  1.8             5.6156e-006     2.9246e-008     -1.3764e-009   
  1.85            5.7246e-006     2.9079e-008     -2.126e-009    
  1.9             5.7744e-006     2.9199e-008     -1.3802e-009   
  1.95            5.8195e-006     2.9164e-008     -1.3797e-009   
  2               5.8668e-006     2.9185e-008     -1.379e-009    
  2.05            5.919e-006      2.907e-008      -1.3768e-009   
  2.1             5.9021e-006     2.8831e-008     -2.0892e-009   
  2.15            5.957e-006      2.9017e-008     -1.3793e-009   
  2.2             6.0578e-006     2.895e-008      -1.3764e-009   
  2.25            6.0599e-006     2.8791e-008     -1.3762e-009   
  2.3             6.0976e-006     2.8377e-008     -1.3729e-009   
  2.35            6.1357e-006     2.8013e-008     -2.0428e-009   
  2.4             6.2074e-006     2.8441e-008     -1.3781e-009   
  2.45            6.2509e-006     1.6624e-008     -1.9443e-009   
  2.5             6.3416e-006     2.779e-008      -2.1057e-009   
  2.55            6.3171e-006     1.5912e-008     -2.0464e-009   
  2.6             6.3966e-006     1.5485e-008     -1.9988e-009   
  2.65            6.4172e-006     1.5455e-008     -1.9578e-009   
  2.7             6.5131e-006     1.4966e-008     -1.8971e-009   
  2.75            6.5027e-006     1.4527e-008     -1.8605e-009   
  2.8             6.5432e-006     1.3889e-008     -1.8092e-009   
  2.85            6.5994e-006     1.3337e-008     -1.765e-009    
  2.9             6.7008e-006     1.2642e-008     -1.7203e-009   
  2.95            6.7375e-006     1.1565e-008     -1.6764e-009   
  3               6.787e-006      1.0586e-008     -1.6372e-009   
  3.05            6.8255e-006     1.98e-009       -2.686e-009    
  3.1             6.825e-006      -1.9803e-008    -2.2356e-009   
  3.15            6.8839e-006     5.951e-009      -1.6831e-009   
  3.2             6.9221e-006     -2.0238e-008    -2.7144e-009   
  3.25            6.9867e-006     8.41e-010       -1.9736e-009   
  3.3             6.9646e-006     -7.744e-009     1.8641e-009    
  3.35            7.0614e-006     -4.1076e-008    1.8084e-009    
  3.4             7.0866e-006     -3.6169e-008    -1.9775e-009   
  3.45            7.1857e-006     -1.2469e-008    -1.5118e-009   
  3.5             7.1852e-006     -2.281e-008     2.1844e-009    
  3.55            7.2223e-006     -4.7586e-008    2.589e-010     
  3.6             7.3313e-006     -3.1486e-008    -1.3733e-009   
  3.65            7.3264e-006     -3.7046e-008    2.6925e-009    
  3.7             7.3767e-006     -6.5275e-008    -5.119e-010    
  3.75            7.4654e-006     -4.1932e-008    -2.2389e-009   
  3.8             7.437e-006      -5.5443e-008    1.7038e-009    
  3.85            7.5303e-006     -9.8129e-008    2.1122e-009    
  3.9             7.6057e-006     -9.4058e-008    -1.8849e-009   
  3.95            7.6741e-006     -6.9529e-008    -1.7074e-009   
  4               7.67e-006       -1.247e-007     2.8568e-009    
  4.05            7.7472e-006     -1.2362e-007    -1.0816e-009   
  4.1             7.8398e-006     -1.0341e-007    -1.4593e-009   
  4.15            7.8462e-006     -1.2766e-007    2.2543e-009    
  4.2             7.8936e-006     -1.6203e-007    1.923e-010     
  4.25            8.0063e-006     -1.5671e-007    -2.6899e-009   
  4.3             8.0071e-006     -1.7366e-007    1.1096e-009    
  4.35            8.0783e-006     -2.2395e-007    1.3825e-009    
  4.4             8.1413e-006     -2.2901e-007    -2.2366e-009   
  4.45            8.2454e-006     -2.3008e-007    -8.08e-011     
  4.5             8.2456e-006     -2.7115e-007    2.8521e-009    
  4.55            8.3711e-006     -2.9408e-007    -1.2764e-009   
  4.6             8.4609e-006     -2.8196e-007    -1.3843e-009   
  4.65            8.4917e-006     -3.2465e-007    2.4265e-009    
  4.7             8.5525e-006     -3.7307e-007    -5.7e-012      
  4.75            8.6852e-006     -3.7918e-007    -2.6389e-009   
  4.8             8.6745e-006     -4.1274e-007    1.2983e-009    
  4.85            8.7814e-006     -4.8218e-007    1.3234e-009    
  4.9             8.8784e-006     -4.9877e-007    -2.4368e-009   
  4.95            8.9815e-006     -5.1339e-007    1.349e-010     
  5               9.0163e-006     -5.7657e-007    2.7664e-009    
END_DB

BEGIN_DB
 ICCAP_VAR VG         2              
 ICCAP_VAR VS         0              
 ICCAP_VAR VB         0              

 #VD              ID              IB              IG             
  0               -7.4835e-008    -2.6236e-008    -7.135e-010    
  0.05            5.8686e-006     8.94e-009       1.5982e-009    
  0.1             1.1557e-005     -1.8971e-008    1.9339e-009    
  0.15            1.6939e-005     -1.8857e-008    1.7017e-009    
  0.2             2.2008e-005     -1.0909e-008    -1.073e-009    
  0.25            2.6708e-005     2.8538e-008     -1.3768e-009   
  0.3             3.1009e-005     1.2426e-008     5.932e-010     
  0.35            3.4901e-005     -9.128e-009     1.3263e-009    
  0.4             3.8414e-005     -2.1951e-008    1.9423e-009    
  0.45            4.1544e-005     -1.2032e-008    -9.587e-010    
  0.5             4.4301e-005     2.7437e-008     -1.3762e-009   
  0.55            4.6659e-005     2.2315e-008     -1.71e-009     
  0.6             4.87e-005       2.6288e-008     -1.3773e-009   
  0.65            5.0426e-005     2.4828e-008     -1.8045e-009   
  0.7             5.1829e-005     1.1389e-008     9.058e-010     
  0.75            5.302e-005      -2.5804e-008    1.3236e-009    
  0.8             5.4081e-005     -1.2583e-008    -4.932e-010    
  0.85            5.4992e-005     2.0142e-008     -1.5428e-009   
  0.9             5.5677e-005     9.637e-009      1.086e-009     
  0.95            5.6294e-005     -2.595e-008     2.3726e-009    
  1               5.6891e-005     -1.3118e-008    -7.492e-010    
  1.05            5.742e-005      8.542e-009      -1.3775e-009   
  1.1             5.7859e-005     2.1889e-008     -1.6944e-009   
  1.15            5.8201e-005     1.1129e-008     9.702e-010     
  1.2             5.8536e-005     -2.6358e-008    2.5653e-009    
  1.25            5.888e-005      -2.0696e-008    1.8837e-009    
  1.3             5.9241e-005     -1.2041e-008    -9.854e-010    
  1.35            5.9567e-005     2.7697e-008     -1.3768e-009   
  1.4             5.9833e-005     2.1169e-008     -1.6689e-009   
  1.45            6.004e-005      1.0797e-008     9.884e-010     
  1.5             6.0261e-005     -2.6325e-008    2.5465e-009    
  1.55            6.0511e-005     -2.0116e-008    1.8497e-009    
  1.6             6.0782e-005     -1.155e-008     -1.0015e-009   
  1.65            6.1039e-005     2.8017e-008     -1.3768e-009   
  1.7             6.1109e-005     1.0548e-008     1.5706e-009    
  1.75            6.1348e-005     -1.4068e-008    1.5297e-009    
  1.8             6.1572e-005     -2.6263e-008    1.3225e-009    
  1.85            6.179e-005      -1.292e-008     -6.375e-010    
  1.9             6.2026e-005     7.592e-009      -1.3784e-009   
  1.95            6.2221e-005     2.5302e-008     -1.8386e-009   
  2               6.2323e-005     1.159e-008      8.848e-010     
  2.05            6.2455e-005     -2.564e-008     1.322e-009     
  2.1             6.2674e-005     -1.2667e-008    -4.705e-010    
  2.15            6.2883e-005     1.9666e-008     -1.559e-009    
  2.2             6.297e-005      9.665e-009      1.0688e-009    
  2.25            6.3099e-005     -2.6487e-008    1.3181e-009    
  2.3             6.3371e-005     -1.197e-008     -1.7725e-009   
  2.35            6.3503e-005     1.1117e-008     -2.336e-010    
  2.4             6.3538e-005     -1.7257e-008    2.6553e-009    
  2.45            6.375e-005      -1.3618e-008    -4.931e-010    
  2.5             6.3947e-005     1.8697e-008     -1.542e-009    
  2.55            6.3999e-005     7.83e-009       1.0915e-009    
  2.6             6.4132e-005     -2.8503e-008    1.3158e-009    
  2.65            6.4383e-005     -1.4834e-008    -1.7894e-009   
  2.7             6.4481e-005     1.3966e-008     -1.9285e-009   
  2.75            6.4628e-005     8.458e-009      -2.5464e-009   
  2.8             6.4748e-005     1.1925e-008     -1.8369e-009   
  2.85            6.4891e-005     6.176e-009      -2.4894e-009   
  2.9             6.5014e-005     8.619e-009      -1.7443e-009   
  2.95            6.5068e-005     -3.718e-009     2.4506e-009    
  3               6.5211e-005     -2.8207e-008    -6.531e-010    
  3.05            6.5382e-005     3.408e-009      -1.4377e-009   
  3.1             6.5443e-005     -1.3833e-008    2.6563e-009    
  3.15            6.5588e-005     -3.8894e-008    -9.51e-010     
  3.2             6.5758e-005     -4.311e-009     -1.3741e-009   
  3.25            6.5808e-005     -2.9084e-008    2.8048e-009    
  3.3             6.5998e-005     -5.4004e-008    -1.2241e-009   
  3.35            6.6129e-005     -2.3187e-008    -2.0563e-009   
  3.4             6.6189e-005     -5.0753e-008    2.2813e-009    
  3.45            6.6328e-005     -8.2605e-008    -4.173e-010    
  3.5             6.6495e-005     -6.2208e-008    -1.6036e-009   
  3.55            6.6565e-005     -8.535e-008     2.5235e-009    
  3.6             6.6701e-005     -9.838e-008     -1.916e-010    
  3.65            6.6784e-005     -1.4487e-007    1.8902e-009    
  3.7             6.6987e-005     -1.5065e-007    -2.3405e-009   
  3.75            6.7113e-005     -1.4957e-007    5.835e-010     
  3.8             6.717e-005      -2.0481e-007    1.4392e-009    
  3.85            6.7385e-005     -2.1836e-007    -2.6197e-009   
  3.9             6.7497e-005     -2.2542e-007    8.787e-010     
  3.95            6.7619e-005     -2.9354e-007    1.3186e-009    
  4               6.784e-005      -3.0999e-007    -2.7225e-009   
  4.05            6.7908e-005     -3.3094e-007    1.1372e-009    
  4.1             6.8092e-005     -4.078e-007     2.2649e-009    
  4.15            6.8249e-005     -4.3711e-007    -2.1532e-009   
