! VERSION = 6.00
BEGIN_HEADER
 ICCAP_INPUTS
  VG         V  B GROUND SMU4 0.001 LIN        1    0          5          101  0.05      
  VS         V  E GROUND SMU2 0.1 CON        0
  VB         V  C GROUND SMU3 0.1 LIN        3    0          -5         3    -2.5      
  VD         V  S GROUND SMU1 0.1 LIN        2    0.1        5          2    4.9       
 ICCAP_OUTPUTS
  IG         I  B GROUND SMU4 B
  ID         I  S GROUND SMU1 B
  IB         I  C GROUND SMU3 B
END_HEADER

BEGIN_DB
 ICCAP_VAR VS         0              
 ICCAP_VAR VB         0              
 ICCAP_VAR VD         0.1            

 #VG              IG              ID              IB             
  0               -1.4545e-009    -1.562e-009     -6.859e-009    
  0.05            -1.0495e-009    -2.1787e-009    1.0061e-008    
  0.1             1.5672e-009     -1.72e-009      -1.2394e-008   
  0.15            1.8592e-009     1.4814e-009     -8.798e-009    
  0.2             4.013e-010      2.3135e-009     1.0453e-008    
  0.25            -1.3317e-009    1.4285e-009     2.5459e-008    
  0.3             -2.7334e-009    9.51e-011       1.1288e-008    
  0.35            1.95e-011       -1.9797e-009    -1.1034e-008   
  0.4             -1.281e-010     -2.0222e-009    -1.0903e-008   
  0.45            -3.388e-010     -1.812e-009     -1.108e-008    
  0.5             2.8452e-009     2.3756e-009     -1.1407e-008   
  0.55            9.3e-011        7.5907e-009     1.0196e-008    
  0.6             -2.1945e-009    1.8788e-008     -2.2763e-008   
  0.65            -1.6146e-009    7.0295e-008     3.305e-009     
  0.7             1.2419e-009     2.2995e-007     -2.11e-008     
  0.75            5.18e-011       7.1209e-007     1.1041e-008    
  0.8             -1.3914e-009    1.8215e-006     -1.091e-008    
  0.85            -1.306e-009     4.0474e-006     1.1122e-008    
  0.9             -2.476e-009     7.6998e-006     1.2166e-008    
  0.95            1.3578e-009     1.2486e-005     1.134e-009     
  1               2.9003e-009     1.8486e-005     -8.488e-009    
  1.05            2.6551e-009     2.5168e-005     -1.44e-010     
  1.1             6.425e-010      3.2149e-005     1.033e-008     
  1.15            -1.6589e-009    3.925e-005      2.0489e-008    
  1.2             -1.3811e-009    4.6069e-005     7.484e-009     
  1.25            -2.7417e-009    5.2637e-005     1.1173e-008    
  1.3             -2.207e-010     5.875e-005      -1.1099e-008   
  1.35            -7.493e-010     6.4821e-005     -1.1152e-008   
  1.4             1.6732e-009     7.038e-005      -1.6899e-008   
  1.45            1.3159e-009     7.5881e-005     -8.967e-009    
  1.5             2.8807e-009     8.1039e-005     -8.692e-009    
  1.55            1.2769e-009     8.599e-005      1.0883e-008    
  1.6             8.61e-011       9.0892e-005     1.1116e-008    
  1.65            5.308e-010      9.54e-005       1.0299e-008    
  1.7             -1.7675e-009    9.9794e-005     2.2925e-008    
  1.75            -1.4121e-009    0.000104023     6.362e-009     
  1.8             -1.3136e-009    0.00010809      1.0715e-008    
  1.85            -2.5278e-009    0.000112024     1.1584e-008    
  1.9             -2.7515e-009    0.00011587      -1.1529e-008   
  1.95            -1.2318e-009    0.00011958      -1.1552e-008   
  2               2.54e-011       0.00012299      -1.1859e-008   
  2.05            -4.531e-010     0.00012649      -1.0909e-008   
  2.1             2.0297e-009     0.00012979      -2.2065e-008   
  2.15            1.4494e-009     0.00013302      -8.096e-009    
  2.2             1.271e-009      0.00013617      -8.771e-009    
  2.25            2.7824e-009     0.00013923      -1.0911e-008   
  2.3             4.763e-010      0.00014228      1.0328e-008    
  2.35            -1.83e-009      0.0001452       2.4047e-008    
  2.4             -1.4343e-009    0.00014801      5.758e-009     
  2.45            -1.3233e-009    0.00015077      1.0338e-008    
  2.5             -2.5691e-009    0.00015348      1.1177e-008    
  2.55            -2.0189e-009    0.00015608      1.245e-009     
  2.6             -1.5211e-009    0.00015863      4.028e-009     
  2.65            -1.351e-009     0.00016114      9.209e-009     
  2.7             -2.6751e-009    0.0001636       1.152e-008     
  2.75            -2.2416e-009    0.00016595      9.36e-010      
  2.8             -1.657e-009     0.00016837      3.1e-009       
  2.85            -1.3851e-009    0.00017061      7.16e-009      
  2.9             -2.7429e-009    0.00017288      1.1333e-008    
  2.95            -2.03e-010      0.00017497      -1.1115e-008   
  3               -7.31e-010      0.00017716      -1.1036e-008   
  3.05            1.6922e-009     0.00017918      -1.7037e-008   
  3.1             1.3243e-009     0.00018124      -9.04e-009     
  3.15            2.8815e-009     0.00018328      -8.619e-009    
  3.2             2.5561e-009     0.00018527      -5.78e-010     
  3.25            1.8887e-009     0.00018719      -3.121e-009    
  3.3             1.3987e-009     0.00018909      -8.8e-009      
  3.35            1.2574e-009     0.00019093      -8.635e-009    
  3.4             2.7247e-009     0.00019276      -1.2195e-008   
  3.45            5.403e-010      0.00019455      1.0322e-008    
  3.5             -1.7379e-009    0.00019629      2.2415e-008    
  3.55            -1.4055e-009    0.00019799      6.399e-009     
  3.6             -1.3101e-009    0.0001997       1.091e-008     
  3.65            -2.507e-009     0.00020137      1.1737e-008    
  3.7             -1.9261e-009    0.00020291      1.686e-009     
  3.75            -1.4768e-009    0.00020452      4.565e-009     
  3.8             -1.3394e-009    0.00020608      9.769e-009     
  3.85            -2.6361e-009    0.0002076       1.1372e-008    
  3.9             -2.1398e-009    0.00020907      8.43e-010      
  3.95            -1.5868e-009    0.00021052      3.488e-009     
  4               -1.3712e-009    0.00021193      8.03e-009      
  4.05            -2.7179e-009    0.00021336      1.1486e-008    
  4.1             -2.654e-010     0.00021468      -1.105e-008    
  4.15            -8.004e-010     0.00021608      -1.1144e-008   
  4.2             1.6075e-009     0.00021731      -1.5729e-008   
  4.25            1.3065e-009     0.00021869      -8.915e-009    
  4.3             2.8642e-009     0.00021996      -9.106e-009    
  4.35            3.029e-010      0.0002213       1.03e-008      
  4.4             7.905e-010      0.00022248      1.0702e-008    
  4.45            -1.5306e-009    0.00022362      1.7109e-008    
  4.5             -1.3494e-009    0.0002249       9.163e-009     
  4.55            -2.6825e-009    0.00022607      1.1477e-008    
  4.6             -2.2426e-009    0.00022718      9.09e-010      
  4.65            -1.6588e-009    0.0002283       3.022e-009     
  4.7             -1.388e-009     0.00022941      7.341e-009     
  4.75            -2.7463e-009    0.00023054      1.1273e-008    
  4.8             -1.2519e-009    0.00023152      -1.1492e-008   
  4.85            3.1e-012        0.00023249      -1.1825e-008   
  4.9             -4.523e-010     0.0002336       -1.0975e-008   
  4.95            2.0066e-009     0.00023457      -2.1872e-008   
  5               1.4424e-009     0.0002355       -8.294e-009    
END_DB

BEGIN_DB
 ICCAP_VAR VS         0              
 ICCAP_VAR VB         0              
 ICCAP_VAR VD         5              

 #VG              IG              ID              IB             
  0               1.1969e-009     1.0737e-009     1.1278e-008    
  0.05            2.456e-009      -5.008e-010     -1.9052e-008   
  0.1             1.2658e-009     2.171e-009      -4.015e-009    
  0.15            -1.185e-010     2.0026e-009     1.1126e-008    
  0.2             1.4e-011        2.0886e-009     1.0458e-008    
  0.25            1.792e-010      2.2164e-009     1.0268e-008    
  0.3             3.556e-010      2.4097e-009     1.037e-008     
  0.35            -1.3473e-009    1.8906e-009     2.5885e-008    
  0.4             -1.3106e-009    2.1804e-009     1.1223e-008    
  0.45            -2.6853e-009    8.9782e-009     1.1049e-008    
  0.5             2.8309e-009     3.5072e-008     7.46e-009      
  0.55            2.5513e-009     1.3172e-007     -2.2529e-008   
  0.6             1.9099e-009     4.7274e-007     -4.0513e-008   
  0.65            -8.299e-010     1.5283e-006     -1.13118e-007  
  0.7             2.5855e-009     4.1042e-006     -2.9836e-007   
  0.75            1.9433e-009     9.3397e-006     -6.5401e-007   
  0.8             -2.7135e-009    1.8161e-005     -1.2016e-006   
  0.85            -2.3376e-009    3.078e-005      -1.9907e-006   
  0.9             -1.7458e-009    4.7009e-005     -2.9247e-006   
  0.95            -1.4177e-009    6.6582e-005     -3.9799e-006   
  1               -1.3195e-009    8.8929e-005     -5.1074e-006   
  1.05            1.0038e-009     0.00011345      -6.2928e-006   
  1.1             9.291e-010      0.00013998      -7.4695e-006   
  1.15            1.3184e-009     0.00016847      -8.6739e-006   
  1.2             1.7497e-009     0.0001983       -9.8281e-006   
  1.25            2.1576e-009     0.00022989      -1.09477e-005  
  1.3             -1.646e-009     0.00026255      -1.204e-005    
  1.35            -1.3898e-009    0.00029573      -1.3039e-005   
  1.4             -2.7439e-009    0.00032939      -1.3973e-005   
  1.45            -2.4286e-009    0.0003637       -1.4874e-005   
  1.5             -1.838e-009     0.00039882      -1.568e-005    
  1.55            -1.4453e-009    0.00043432      -1.6422e-005   
  1.6             -1.3289e-009    0.00047009      -1.7084e-005   
  1.65            -2.5994e-009    0.00050652      -1.7692e-005   
  1.7             -2.0656e-009    0.00054285      -1.8245e-005   
  1.75            -1.5468e-009    0.00057971      -1.872e-005    
  1.8             -1.3632e-009    0.00061688      -1.9122e-005   
  1.85            -2.7031e-009    0.00065413      -1.9475e-005   
  1.9             -2.297e-009     0.00069147      -1.9786e-005   
  1.95            -1.7107e-009    0.00072915      -2.0023e-005   
  2               -1.4045e-009    0.00076698      -2.0204e-005   
  2.05            -1.3124e-009    0.00080491      -2.0337e-005   
  2.1             -2.5037e-009    0.00084296      -2.0426e-005   
  2.15            -1.915e-009     0.00088072      -2.0482e-005   
  2.2             -1.4791e-009    0.00091887      -2.0476e-005   
  2.25            -1.3417e-009    0.0009572       -2.0437e-005   
  2.3             -2.6389e-009    0.00099541      -2.0362e-005   
  2.35            -2.1506e-009    0.00103356      -2.0268e-005   
  2.4             -1.595e-009     0.00107189      -2.0125e-005   
  2.45            -1.3731e-009    0.0011103       -1.9955e-005   
  2.5             1.8605e-009     0.0011486       -1.9756e-005   
  2.55            1.3793e-009     0.0011868       -1.9569e-005   
  2.6             2.9121e-009     0.0012251       -1.9324e-005   
  2.65            2.6837e-009     0.0012639       -1.9058e-005   
  2.7             2.0996e-009     0.0013022       -1.8786e-005   
  2.75            1.5032e-009     0.0013405       -1.8496e-005   
  2.8             1.2851e-009     0.0013792       -1.8183e-005   
  2.85            2.817e-009      0.0014174       -1.7861e-005   
  2.9             2.3498e-009     0.0014561       -1.7519e-005   
  2.95            1.6814e-009     0.0014944       -1.7181e-005   
  3               1.3292e-009     0.0015327       -1.6836e-005   
  3.05            2.8922e-009     0.0015712       -1.6487e-005   
  3.1             2.563e-009      0.0016094       -1.612e-005    
  3.15            1.9235e-009     0.0016476       -1.5755e-005   
  3.2             1.4139e-009     0.0016857       -1.5391e-005   
  3.25            1.2622e-009     0.0017236       -1.5026e-005   
  3.3             2.7492e-009     0.0017615       -1.4652e-005   
  3.35            2.178e-009      0.0017999       -1.4273e-005   
  3.4             1.549e-009      0.0018377       -1.3906e-005   
  3.45            1.2946e-009     0.001876        -1.3544e-005   
  3.5             2.8508e-009     0.0019133       -1.3179e-005   
  3.55            2.4167e-009     0.0019515       -1.2804e-005   
  3.6             1.7516e-009     0.0019891       -1.2445e-005   
  3.65            1.3496e-009     0.002027        -1.2099e-005   
  3.7             2.9044e-009     0.0020643       -1.1745e-005   
  3.75            2.6287e-009     0.0021025       -1.1391e-005   
  3.8             2.0049e-009     0.0021398       -1.1051e-005   
  3.85            1.4503e-009     0.002177        -1.0717e-005   
  3.9             1.2745e-009     0.0022142       -1.039e-005    
  3.95            2.7897e-009     0.0022514       -1.0071e-005   
  4               -1.9187e-009    0.0022897       -9.7312e-006   
  4.05            -1.4682e-009    0.0023266       -9.4285e-006   
  4.1             -1.3364e-009    0.0023642       -9.1253e-006   
  4.15            -2.6287e-009    0.0024012       -8.8247e-006   
  4.2             -2.1295e-009    0.002438        -8.5511e-006   
  4.25            -1.5838e-009    0.0024747       -8.2635e-006   
  4.3             -1.3695e-009    0.0025115       -7.9822e-006   
  4.35            -2.7228e-009    0.0025484       -7.7107e-006   
  4.4             -2.3543e-009    0.0025848       -7.4626e-006   
  4.45            -1.7577e-009    0.002622        -7.2005e-006   
  4.5             -1.4162e-009    0.0026586       -6.9527e-006   
  4.55            -1.3147e-009    0.0026955       -6.7084e-006   
  4.6             -2.5429e-009    0.0027321       -6.4766e-006   
  4.65            -1.9809e-009    0.0027679       -6.2608e-006   
  4.7             -1.5033e-009    0.0028038       -6.0367e-006   
  4.75            -1.3461e-009    0.0028402       -5.8197e-006   
  4.8             -2.6651e-009    0.0028764       -5.6095e-006   
  4.85            -2.2099e-009    0.002912        -5.4201e-006   
  4.9             -1.638e-009     0.0029482       -5.226e-006    
  4.95            -1.3808e-009    0.002984        -5.0343e-006   
  5               -2.736e-009     0.0030195       -4.8475e-006   
END_DB

BEGIN_DB
 ICCAP_VAR VS         0              
 ICCAP_VAR VB         -2.5           
 ICCAP_VAR VD         0.1            

 #VG              IG              ID              IB             
  0               1.139e-009      1.0472e-009     1.3221e-008    
  0.05            1.932e-009      -8.08e-010      -2.2389e-008   
  0.1             1.5938e-009     1.8002e-009     -8.863e-009    
  0.15            1.7734e-009     1.5579e-009     1.0079e-008    
  0.2             1.9613e-009     1.3653e-009     9.461e-009     
  0.25            5.443e-010      2.3485e-009     1.0531e-008    
  0.3             -1.3165e-009    1.5003e-009     2.2662e-008    
  0.35            -2.7061e-009    1.343e-010      1.1565e-008    
  0.4             -1.9064e-009    -1.3213e-009    5.46e-010      
  0.45            -5.562e-010     -2.2409e-009    -1.1231e-008   
  0.5             1.259e-009      -1.4761e-009    -2.0168e-008   
  0.55            2.8759e-009     -5.12e-011      -1.2218e-008   
  0.6             1.0632e-009     2.3099e-009     1.1e-008       
  0.65            -1.5032e-009    1.8829e-009     1.2327e-008    
  0.7             -1.886e-009     -1.3366e-009    9.535e-009     
  0.75            -5.203e-010     -2.2105e-009    -1.1017e-008   
  0.8             1.2671e-009     -1.3388e-009    -2.0912e-008   
  0.85            2.3591e-009     1.636e-009      -1.1872e-008   
  0.9             -7.85e-011      4.2632e-009     1.1056e-008    
  0.95            2.9043e-009     1.0528e-008     -1.1658e-008   
  1               2.8004e-009     3.8364e-008     4.98e-010      
  1.05            1.6144e-009     1.3709e-007     4.158e-009     
  1.1             1.3125e-009     4.5765e-007     -8.942e-009    
  1.15            2.8869e-009     1.3484e-006     2.755e-008     
  1.2             2.556e-009      3.2261e-006     -5.77e-010     
  1.25            1.8882e-009     6.5256e-006     -3.049e-009    
  1.3             1.7841e-009     1.1231e-005     -2.1205e-008   
  1.35            6.177e-010      1.7328e-005     1.041e-008     
  1.4             -1.6775e-009    2.4091e-005     2.096e-008     
  1.45            -1.3912e-009    3.1138e-005     6.904e-009     
  1.5             -1.3073e-009    3.8182e-005     1.1102e-008    
  1.55            -2.4754e-009    4.5097e-005     1.2223e-008    
  1.6             -1.8801e-009    5.1657e-005     1.967e-009     
  1.65            -1.4562e-009    5.7981e-005     4.996e-009     
  1.7             -1.335e-009     6.3992e-005     9.906e-009     
  1.75            -2.6246e-009    6.9699e-005     1.1324e-008    
  1.8             -2.1158e-009    7.5094e-005     1.071e-009     
  1.85            -1.5713e-009    8.0231e-005     3.632e-009     
  1.9             -1.3673e-009    8.5151e-005     8.126e-009     
  1.95            -2.7207e-009    8.982e-005      1.1517e-008    
  2               -2.3519e-009    9.425e-005      5.75e-010      
  2.05            -1.7456e-009    9.8533e-005     2.587e-009     
  2.1             -1.4124e-009    0.000102648     6.091e-009     
  2.15            -1.3185e-009    0.000106576     1.0561e-008    
  2.2             -2.5481e-009    0.00011041      1.1673e-008    
  2.25            2.9106e-009     0.00011413      1.303e-009     
  2.3             2.7243e-009     0.00011766      -3.7e-011      
  2.35            5.491e-010      0.00012109      1.0347e-008    
  2.4             -1.7565e-009    0.00012446      2.2956e-008    
  2.45            -1.4063e-009    0.00012768      6.435e-009     
  2.5             -1.3136e-009    0.00013078      1.0714e-008    
  2.55            -2.5393e-009    0.00013382      1.1634e-008    
  2.6             -1.9779e-009    0.00013674      1.531e-009     
  2.65            -1.4939e-009    0.00013958      4.387e-009     
  2.7             -1.3423e-009    0.00014238      9.466e-009     
  2.75            -2.6639e-009    0.00014506      1.1327e-008    
  2.8             -2.2219e-009    0.00014772      9.12e-010      
  2.85            1.652e-010      0.00015016      -1.243e-008    
  2.9             -2.189e-010     0.00015275      -1.1009e-008   
  2.95            -7.466e-010     0.00015523      -1.1096e-008   
  3               1.6854e-009     0.00015751      -1.7176e-008   
  3.05            1.3209e-009     0.00015988      -9.019e-009    
  3.1             2.8855e-009     0.00016218      -8.649e-009    
  3.15            2.458e-010      0.00016443      1.0266e-008    
  3.2             7.223e-010      0.00016663      1.0557e-008    
  3.25            1.1278e-009     0.00016869      1.0866e-008    
  3.3             -5.06e-011      0.00017079      1.1711e-008    
  3.35            3.294e-010      0.00017284      1.0158e-008    
  3.4             8.111e-010      0.00017482      1.0736e-008    
  3.45            -1.5185e-009    0.00017673      1.7002e-008    
  3.5             -1.3419e-009    0.00017869      9.224e-009     
  3.55            -2.6731e-009    0.00018056      1.1387e-008    
  3.6             -2.2519e-009    0.0001824       8.66e-010      
  3.65            -1.6617e-009    0.00018415      3.108e-009     
  3.7             -1.3832e-009    0.00018595      7.104e-009     
  3.75            -1.3008e-009    0.00018765      1.1064e-008    
  3.8             -2.4717e-009    0.00018933      1.2358e-008    
  3.85            -1.8721e-009    0.00019096      2.039e-009     
  3.9             -1.448e-009     0.00019257      5.236e-009     
  3.95            -1.3267e-009    0.00019412      9.984e-009     
  4               -2.6131e-009    0.00019569      1.1376e-008    
  4.05            -2.1143e-009    0.00019718      8.9e-010       
  4.1             -1.5638e-009    0.00019867      3.689e-009     
  4.15            -1.3587e-009    0.00020012      8.299e-009     
