! VERSION = 6.00
BEGIN_HEADER
 ICCAP_INPUTS
  VG         V  B GROUND SMU4 0.001 LIN        2    0          5          6    1         
  VS         V  E GROUND SMU2 0.1 CON        0
  VD         V  S GROUND SMU1 0.1 LIN        1    0          5          101  0.05      
  VB         V  C GROUND SMU3 0.1 LIN        3    0          -2.5       2    -2.5      
 ICCAP_OUTPUTS
  ID         I  S GROUND SMU1 B
  IB         I  C GROUND SMU3 B
  IG         I  B GROUND SMU4 B
END_HEADER

BEGIN_DB
 ICCAP_VAR VG         0              
 ICCAP_VAR VS         0              
 ICCAP_VAR VB         0              

 #VD              ID              IB              IG             
  0               2.382e-010      1.0608e-008     -5.44e-011     
  0.05            -2.162e-009     -1.0807e-008    -2.626e-010    
  0.1             -2.2338e-009    -1.1086e-008    -4.673e-010    
  0.15            -2.2629e-009    -1.1446e-008    -6.692e-010    
  0.2             -1.5486e-009    -1.8943e-008    1.2567e-009    
  0.25            -1.614e-010     -1.3421e-008    2.8626e-009    
  0.3             2.1756e-009     1.0113e-008     1.556e-010     
  0.35            2.2844e-009     1.0317e-008     3.417e-010     
  0.4             2.3675e-009     1.057e-008      5.293e-010     
  0.45            1.4954e-009     2.4025e-008     -1.328e-009    
  0.5             1.458e-010      1.1268e-008     -1.3009e-009   
  0.55            2.96e-010       1.3172e-008     -2.6297e-009   
  0.6             -2.2063e-009    6.52e-010       -1.052e-009    
  0.65            -1.718e-009     -1.2578e-008    1.6075e-009    
  0.7             1.5424e-009     -9.123e-009     1.8321e-009    
  0.75            2.3288e-009     1.0365e-008     4.434e-010     
  0.8             1.4245e-009     2.5804e-008     -1.3437e-009   
  0.85            7.6e-011        1.1358e-008     -1.3133e-009   
  0.9             2.144e-010      1.2002e-008     -2.6839e-009   
  0.95            -1.2902e-009    6.27e-010       -1.9486e-009   
  1               -2.2583e-009    -1.1302e-008    -6.615e-010    
  1.05            -1.5427e-009    -1.9156e-008    1.2602e-009    
  1.1             -1.483e-010     -1.3225e-008    2.8694e-009    
  1.15            2.1642e-009     1.0108e-008     1.45e-010      
  1.2             2.2787e-009     1.0308e-008     3.257e-010     
  1.25            2.3632e-009     1.0571e-008     5.113e-010     
  1.3             1.4826e-009     2.4361e-008     -1.3316e-009   
  1.35            1.319e-010      1.1246e-008     -1.3032e-009   
  1.4             2.803e-010      1.292e-008      -2.6442e-009   
  1.45            -1.2478e-009    6.57e-010       -1.9814e-009   
  1.5             -2.2661e-009    -1.1382e-008    -7.392e-010    
  1.55            -1.5764e-009    -1.7609e-008    1.2499e-009    
  1.6             -2.12e-010      -1.4246e-008    2.8302e-009    
  1.65            2.2063e-009     1.0207e-008     2.107e-010     
  1.7             2.3112e-009     1.0373e-008     3.956e-010     
  1.75            2.3829e-009     1.0652e-008     5.747e-010     
  1.8             1.5343e-009     2.2888e-008     -1.3194e-009   
  1.85            1.847e-010      1.177e-008      -2.7041e-009   
  1.9             -1.3202e-009    5.8e-010        -1.9233e-009   
  1.95            -2.2524e-009    -1.1233e-008    -6.107e-010    
  2               -2.258e-009     -1.1376e-008    -8.114e-010    
  2.05            -1.6032e-009    -1.6286e-008    2.0277e-009    
  2.1             1.9065e-009     -8.675e-009     1.5503e-009    
  2.15            2.1692e-009     1.0167e-008     1.494e-010     
  2.2             2.2815e-009     1.0286e-008     3.349e-010     
  2.25            2.3621e-009     1.0583e-008     5.203e-010     
  2.3             1.4885e-009     2.437e-008      -1.3289e-009   
  2.35            1.337e-010      1.132e-008      -1.3017e-009   
  2.4             2.859e-010      1.2971e-008     -2.6393e-009   
  2.45            -1.2449e-009    7.22e-010       -1.9842e-009   
  2.5             -2.2576e-009    -1.1263e-008    -7.481e-010    
  2.55            -1.5811e-009    -1.7491e-008    1.2482e-009    
  2.6             -2.218e-010     -1.4239e-008    2.8313e-009    
  2.65            2.2106e-009     1.0228e-008     2.135e-010     
  2.7             2.3127e-009     1.0375e-008     3.976e-010     
  2.75            2.3838e-009     1.0811e-008     5.861e-010     
  2.8             1.5435e-009     2.2483e-008     -1.32e-009     
  2.85            1.886e-010      1.1645e-008     -2.7048e-009   
  2.9             -1.3135e-009    5.1e-010        -1.927e-009    
  2.95            -2.252e-009     -1.13e-008      -6.243e-010    
  3               -1.5206e-009    -1.9939e-008    1.2635e-009    
  3.05            -1.105e-010     -1.2731e-008    2.8818e-009    
  3.1             2.1423e-009     1.0279e-008     1.105e-010     
  3.15            2.2518e-009     1.0247e-008     2.916e-010     
  3.2             2.3451e-009     1.0486e-008     4.764e-010     
  3.25            1.4584e-009     2.4829e-008     -1.3369e-009   
  3.3             1.126e-010      1.1237e-008     -1.3059e-009   
  3.35            2.571e-010      1.2643e-008     -2.6537e-009   
  3.4             -1.2658e-009    6.62e-010       -1.969e-009    
  3.45            -2.261e-009     -1.1269e-008    -7.162e-010    
  3.5             -1.5633e-009    -1.8036e-008    1.2532e-009    
  3.55            -1.933e-010     -1.3631e-008    2.8478e-009    
  3.6             2.1904e-009     1.0286e-008     1.904e-010     
  3.65            2.3006e-009     1.0304e-008     3.717e-010     
  3.7             2.3775e-009     1.0726e-008     5.607e-010     
  3.75            1.5192e-009     2.2957e-008     -1.3233e-009   
  3.8             1.719e-010      1.1591e-008     -2.7117e-009   
  3.85            -2.0682e-009    -1.0952e-008    -1.002e-010    
  3.9             -2.1678e-009    -1.0855e-008    -3.059e-010    
  3.95            -2.2301e-009    -1.1057e-008    -5.037e-010    
  4               -2.2606e-009    -1.1297e-008    -7.132e-010    
  4.05            -1.5635e-009    -1.8092e-008    1.2522e-009    
  4.1             -1.919e-010     -1.3808e-008    2.8435e-009    
  4.15            2.1916e-009     1.0262e-008     1.893e-010     
  4.2             2.302e-009      1.0257e-008     3.723e-010     
  4.25            2.3808e-009     1.0621e-008     5.601e-010     
  4.3             1.518e-009      2.3029e-008     -1.3225e-009   
  4.35            1.68e-010       1.1463e-008     -2.7151e-009   
  4.4             -1.3316e-009    6.1e-010        -1.9112e-009   
  4.45            -2.2464e-009    -1.1122e-008    -5.881e-010    
  4.5             -2.257e-009     -1.1393e-008    -7.879e-010    
  4.55            -1.5896e-009    -1.6539e-008    2.0557e-009    
  4.6             1.939e-009      -8.504e-009     1.523e-009     
  4.65            2.1564e-009     1.0223e-008     1.32e-010      
  4.7             2.2656e-009     1.0207e-008     3.066e-010     
  4.75            2.3568e-009     1.0496e-008     4.895e-010     
  4.8             1.4693e-009     2.4556e-008     -1.3345e-009   
  4.85            1.225e-010      1.1326e-008     -1.3048e-009   
  4.9             2.665e-010      1.2471e-008     -2.6535e-009   
  4.95            -1.26e-009      6.65e-010       -1.9702e-009   
  5               -2.2595e-009    -1.134e-008     -7.117e-010    
END_DB

BEGIN_DB
 ICCAP_VAR VG         1              
 ICCAP_VAR VS         0              
 ICCAP_VAR VB         0              

 #VD              ID              IB              IG             
  0               -1.4922e-009    1.0182e-008     -1.3922e-009   
  0.05            2.0708e-008     1.0455e-008     2.8052e-009    
  0.1             3.0545e-008     -1.1375e-008    -1.0132e-009   
  0.15            4.1437e-008     1.7189e-008     -1.9551e-009   
  0.2             4.7282e-008     1.2209e-008     -1.064e-010    
  0.25            4.828e-008      -9.203e-009     1.3073e-009    
  0.3             4.5702e-008     -1.1095e-008    -7.415e-010    
  0.35            4.8035e-008     1.278e-008      -2.3746e-009   
  0.4             4.9746e-008     1.6971e-008     -1.5446e-009   
  0.45            5.0007e-008     1.0494e-008     2.343e-010     
  0.5             4.9159e-008     -8.955e-009     2.9018e-009    
  0.55            4.5906e-008     -1.1294e-008    -8.503e-010    
  0.6             4.8337e-008     1.4362e-008     -2.2423e-009   
  0.65            4.9947e-008     1.4768e-008     -1.4761e-009   
  0.7             5.0219e-008     1.0191e-008     3.397e-010     
  0.75            4.9213e-008     -9.724e-009     2.8593e-009    
  0.8             4.5952e-008     -1.1419e-008    -9.409e-010    
  0.85            4.8479e-008     1.6048e-008     -2.0846e-009   
  0.9             5.0056e-008     1.3123e-008     -1.854e-010    
  0.95            4.9416e-008     -9.447e-009     1.3343e-009    
  1               4.627e-008      -1.099e-008     -6.373e-010    
  1.05            4.8224e-008     1.1859e-008     -2.4795e-009   
  1.1             4.9798e-008     1.9219e-008     -1.625e-009    
  1.15            5.0169e-008     1.0827e-008     1.472e-010     
  1.2             4.9206e-008     -8.787e-009     1.2591e-009    
  1.25            4.5993e-008     -1.1412e-008    -9.864e-010    
  1.3             4.8634e-008     1.6779e-008     -1.9971e-009   
  1.35            5.0202e-008     1.2519e-008     -1.315e-010    
  1.4             4.9388e-008     -9.082e-009     1.3148e-009    
  1.45            4.629e-008      -1.1039e-008    -7.068e-010    
  1.5             4.8326e-008     1.2498e-008     -2.4106e-009   
  1.55            4.9978e-008     1.7729e-008     -1.5699e-009   
  1.6             5.0208e-008     1.0638e-008     1.984e-010     
  1.65            4.9355e-008     -8.998e-009     2.9099e-009    
  1.7             4.6156e-008     -1.1207e-008    -8.216e-010    
  1.75            4.8498e-008     1.3888e-008     -2.2732e-009   
  1.8             5.0122e-008     1.539e-008      -1.4966e-009   
  1.85            5.0351e-008     1.0226e-008     3.09e-010      
  1.9             4.9386e-008     -9.428e-009     2.8707e-009    
  1.95            4.6136e-008     -1.1455e-008    -9.134e-010    
  2               4.8586e-008     1.5649e-008     -2.1307e-009   
  2.05            5.017e-008      1.3526e-008     -2.134e-010    
  2.1             4.9553e-008     -9.485e-009     1.3436e-009    
  2.15            4.6436e-008     -1.0938e-008    -6.122e-010    
  2.2             4.8325e-008     1.1605e-008     -2.5113e-009   
  2.25            4.9888e-008     2.0096e-008     -1.658e-009    
  2.3             5.0279e-008     1.09e-008       1.174e-010     
  2.35            4.9327e-008     -8.968e-009     1.2622e-009    
  2.4             4.6098e-008     -1.1402e-008    -9.621e-010    
  2.45            4.8725e-008     1.6224e-008     -2.0436e-009   
  2.5             5.0306e-008     1.2917e-008     -1.647e-010    
  2.55            4.9545e-008     -9.247e-009     1.3259e-009    
  2.6             4.6382e-008     -1.1079e-008    -6.698e-010    
  2.65            4.8414e-008     1.1938e-008     -2.4447e-009   
  2.7             5.0058e-008     1.852e-008      -1.5965e-009   
  2.75            5.0288e-008     1.0675e-008     1.732e-010     
  2.8             4.9367e-008     -8.91e-009      1.2529e-009    
  2.85            4.61e-008       -1.1449e-008    -1.0132e-009   
  2.9             4.8836e-008     1.7326e-008     -1.9582e-009   
  2.95            5.034e-008      1.2173e-008     -1.084e-010    
  3               4.9556e-008     -9.105e-009     1.3083e-009    
  3.05            4.6367e-008     -1.105e-008     -7.428e-010    
  3.1             4.8541e-008     1.2919e-008     -2.3839e-009   
  3.15            5.0147e-008     1.713e-008      -1.5482e-009   
  3.2             5.0445e-008     1.0391e-008     2.269e-010     
  3.25            4.9564e-008     -8.892e-009     2.905e-009     
  3.3             4.6377e-008     -1.1405e-008    -8.47e-010     
  3.35            4.872e-008      1.4181e-008     -2.2468e-009   
  3.4             5.0335e-008     1.4947e-008     -1.4813e-009   
  3.45            5.0626e-008     1.0077e-008     3.341e-010     
  3.5             4.96e-008       -9.981e-009     2.8616e-009    
  3.55            4.6376e-008     -1.1623e-008    -9.379e-010    
  3.6             4.8907e-008     1.581e-008      -2.0901e-009   
  3.65            5.0497e-008     1.3095e-008     -1.873e-010    
  3.7             4.9864e-008     -9.563e-009     1.3357e-009    
  3.75            4.6737e-008     -1.12e-008      -6.341e-010    
  3.8             4.8732e-008     1.1495e-008     -2.4817e-009   
  3.85            5.0331e-008     1.9063e-008     -1.6298e-009   
  3.9             5.077e-008      1.0468e-008     1.384e-010     
  3.95            4.9792e-008     -9.109e-009     1.2576e-009    
  4               4.6616e-008     -1.1924e-008    -9.837e-010    
  4.05            4.9354e-008     1.6223e-008     -2.0138e-009   
  4.1             5.0933e-008     1.2088e-008     -1.396e-010    
  4.15            5.0232e-008     -9.951e-009     1.3179e-009    
  4.2             4.7076e-008     -1.1688e-008    -7.045e-010    
  4.25            4.9272e-008     1.1539e-008     -2.4206e-009   
  4.3             5.0975e-008     1.6998e-008     -1.5762e-009   
  4.35            4.9761e-008     1.5694e-008     -2.0029e-009   
  4.4             5.0313e-008     2.4866e-008     -1.4088e-009   
  4.45            5.1589e-008     8.825e-009      2.0708e-009    
  4.5             4.8735e-008     -2.3076e-008    2.0565e-009    
  4.55            4.7177e-008     -1.3534e-008    -1.5643e-009   
  4.6             5.0665e-008     2.3984e-008     -1.4248e-009   
  4.65            5.0656e-008     1.9226e-008     -1.6689e-009   
  4.7             5.0397e-008     1.3717e-008     -2.1335e-009   
  4.75            5.2128e-008     1.1999e-008     -2.172e-010    
  4.8             5.1623e-008     -1.1265e-008    1.3485e-009    
  4.85            4.8682e-008     -1.3022e-008    -6.036e-010    
  4.9             5.0706e-008     9.307e-009      -2.5089e-009   
  4.95            5.1593e-008     1.8412e-008     -1.664e-009    
  5               5.1383e-008     1.2837e-008     -2.1313e-009   
END_DB

BEGIN_DB
 ICCAP_VAR VG         2              
 ICCAP_VAR VS         0              
 ICCAP_VAR VB         0              

 #VD              ID              IB              IG             
  0               -5.231e-010     2.878e-009      1.6143e-009    
  0.05            1.2173e-007     -1.1326e-008    2.517e-009     
  0.1             2.317e-007      -1.1144e-008    -2.553e-010    
  0.15            3.3942e-007     1.6104e-008     -2.1115e-009   
  0.2             4.4046e-007     9.959e-009      4.089e-010     
  0.25            5.3027e-007     -1.952e-008     2.0125e-009    
  0.3             6.1341e-007     -1.1032e-008    -6.338e-010    
  0.35            6.9435e-007     2.0606e-008     -1.6622e-009   
  0.4             7.6729e-007     1.0409e-008     7.476e-010     
  0.45            8.2876e-007     -2.2487e-008    1.5352e-009    
  0.5             8.8501e-007     -1.1447e-008    -9.621e-010    
  0.55            9.3938e-007     2.4806e-008     -1.4195e-009   
  0.6             9.849e-007      1.0444e-008     1.0459e-009    
  0.65            1.01939e-006    -2.5931e-008    1.3247e-009    
  0.7             1.05034e-006    -1.1207e-008    -1.2631e-009   
  0.75            1.07933e-006    2.7916e-008     -1.3399e-009   
  0.8             1.09866e-006    1.0601e-008     1.3462e-009    
  0.85            1.10996e-006    -2.413e-008     1.2563e-009    
  0.9             1.11961e-006    -1.0921e-008    -4.914e-010    
  0.95            1.12999e-006    1.9007e-008     -1.8269e-009   
  1               1.13505e-006    1.0144e-008     6.133e-010     
  1.05            1.13404e-006    -2.123e-008     1.6981e-009    
  1.1             1.13484e-006    -1.1416e-008    -8.473e-010    
  1.15            1.13929e-006    2.3034e-008     -1.4852e-009   
  1.2             1.14048e-006    1.278e-008      -1.656e-010    
  1.25            1.13791e-006    -1.1031e-008    2.7974e-009    
  1.3             1.13644e-006    -1.1826e-008    2.33e-011      
  1.35            1.1396e-006     1.2334e-008     2.8922e-009    
  1.4             1.138e-006      -1.6334e-008    1.6474e-009    
  1.45            1.1385e-006     -1.1058e-008    -6.207e-010    
  1.5             1.1418e-006     1.6809e-008     -2.0086e-009   
  1.55            1.1433e-006     1.0412e-008     2.176e-010     
  1.6             1.1405e-006     -1.3759e-008    2.6588e-009    
  1.65            1.14e-006       -1.2158e-008    -1.5452e-009   
  1.7             1.1435e-006     2.7773e-008     -1.3357e-009   
  1.75            1.1432e-006     1.0472e-008     1.142e-009     
  1.8             1.1407e-006     -2.4655e-008    1.3844e-009    
  1.85            1.1397e-006     -1.1518e-008    -9.153e-010    
  1.9             1.1434e-006     2.078e-008      -1.6305e-009   
  1.95            1.1432e-006     1.0004e-008     2.086e-009     
  2               1.1401e-006     -1.3996e-008    1.5162e-009    
  2.05            1.14e-006       -1.1146e-008    -7.607e-010    
  2.1             1.1439e-006     1.8697e-008     -1.8416e-009   
  2.15            1.1451e-006     1.0237e-008     3.431e-010     
  2.2             1.1414e-006     -1.526e-008     2.5166e-009    
  2.25            1.1403e-006     -1.1869e-008    -3.1e-012      
  2.3             1.1433e-006     1.1268e-008     -2.6539e-009   
  2.35            1.144e-006      1.0535e-008     1.2529e-009    
  2.4             1.1416e-006     -2.5778e-008    1.3316e-009    
  2.45            1.1411e-006     -1.1379e-008    -1.0205e-009   
  2.5             1.1446e-006     2.2432e-008     -1.5244e-009   
  2.55            1.1454e-006     1.0199e-008     6.355e-010     
  2.6             1.142e-006      -1.9075e-008    2.0553e-009    
  2.65            1.1408e-006     -1.1063e-008    -3.21e-010     
  2.7             1.1442e-006     1.3179e-008     -2.3816e-009   
  2.75            1.1461e-006     1.149e-008      -3.7e-011      
  2.8             1.1427e-006     -9.708e-009     2.8567e-009    
  2.85            1.1424e-006     -1.1332e-008    -1.2819e-009   
  2.9             1.1454e-006     2.6131e-008     -1.3887e-009   
  2.95            1.1461e-006     1.3038e-008     -1.873e-010    
  3               1.1431e-006     -8.729e-009     1.2529e-009    
  3.05            1.1415e-006     -1.1296e-008    -2.145e-010    
  3.1             1.1452e-006     1.1823e-008     -2.4858e-009   
  3.15            1.1468e-006     1.2101e-008     -1.126e-010    
  3.2             1.1434e-006     -8.894e-009     2.8908e-009    
  3.25            1.1418e-006     -1.6057e-008    1.6443e-009    
  3.3             1.1421e-006     -1.1088e-008    -6.296e-010    
  3.35            1.1453e-006     1.6915e-008     -1.9982e-009   
  3.4             1.1468e-006     1.0293e-008     2.237e-010     
  3.45            1.1437e-006     -1.4122e-008    2.6488e-009    
  3.5             1.1424e-006     -1.239e-008     1.016e-010     
  3.55            1.1454e-006     1.1107e-008     -2.7159e-009   
  3.6             1.1464e-006     1.7341e-008     -1.5606e-009   
  3.65            1.147e-006      9.773e-009      5.927e-010     
  3.7             1.144e-006      -1.887e-008     2.1262e-009    
  3.75            1.1434e-006     -1.1751e-008    -2.676e-010    
  3.8             1.1463e-006     1.1737e-008     -2.4307e-009   
  3.85            1.1471e-006     2.5777e-008     -1.3824e-009   
  3.9             1.1476e-006     1.1912e-008     -1.563e-010    
  3.95            1.1455e-006     -9.537e-009     2.9052e-009    
  4               1.1447e-006     -1.2479e-008    -1.147e-009    
  4.05            1.1478e-006     2.3048e-008     -1.442e-009    
  4.1             1.1488e-006     8.974e-009      7.852e-010     
  4.15            1.1459e-006     -2.2418e-008    1.8206e-009    
