! VERSION = 6.00
BEGIN_HEADER
 ICCAP_INPUTS
  VG         V  B GROUND SMU4 0.001 LIN        2    0          5          6    1         
  VS         V  E GROUND SMU2 0.1 CON        0
  VD         V  S GROUND SMU1 0.1 LIN        1    0          5          101  0.05      
  VB         V  C GROUND SMU3 0.1 LIN        3    0          -2.5       2    -2.5      
 ICCAP_OUTPUTS
  ID         I  S GROUND SMU1 B
  IB         I  C GROUND SMU3 B
  IG         I  B GROUND SMU4 B
END_HEADER

BEGIN_DB
 ICCAP_VAR VG         0              
 ICCAP_VAR VS         0              
 ICCAP_VAR VB         0              

 #VD              ID              IB              IG             
  0               -2.2248e-009    -1.1519e-008    1.4064e-009    
  0.05            1.6774e-007     -1.2341e-008    2.5495e-009    
  0.1             3.176e-007      -1.1785e-008    -6.437e-010    
  0.15            5.2514e-007     2.0009e-008     -1.6384e-009   
  0.2             7.8792e-007     1.1183e-008     7.659e-010     
  0.25            1.1502e-006     1.0569e-008     1.4213e-009    
  0.3             1.6459e-006     -1.1804e-008    -8.332e-010    
  0.35            2.2988e-006     1.9114e-008     -1.7237e-009   
  0.4             3.0515e-006     1.0472e-008     1.9857e-009    
  0.45            4.0357e-006     -1.5402e-008    1.5867e-009    
  0.5             5.219e-006      -1.1746e-008    -6.577e-010    
  0.55            6.6679e-006     1.7505e-008     -1.9429e-009   
  0.6             8.2796e-006     1.0529e-008     2.556e-010     
  0.65            1.0051e-005     -1.4612e-008    2.5803e-009    
  0.7             1.2173e-005     -1.0913e-008    2.809e-009     
  0.75            1.448e-005      -1.1344e-008    -1.206e-010    
  0.8             1.7192e-005     1.8245e-008     -1.8716e-009   
  0.85            1.9973e-005     1.4873e-008     -1.471e-009    
  0.9             2.2812e-005     1.0337e-008     1.1611e-009    
  0.95            2.613e-005      -2.2761e-008    2.1026e-009    
  1               2.9625e-005     -1.1731e-008    -8.319e-010    
  1.05            3.3387e-005     2.6243e-008     -1.3881e-009   
  1.1             3.7121e-005     1.0476e-008     2.979e-010     
  1.15            4.0927e-005     -1.9611e-008    1.7567e-009    
  1.2             4.502e-005      -1.2379e-008    1.577e-010     
  1.25            4.9672e-005     1.4092e-008     -2.3011e-009   
  1.3             5.3787e-005     1.013e-008      2.0589e-009    
  1.35            5.8386e-005     -1.1259e-008    -1.281e-010    
  1.4             6.334e-005      1.8187e-008     -1.8676e-009   
  1.45            6.816e-005      2.5088e-008     -1.4119e-009   
  1.5             7.2582e-005     1.0551e-008     1.2903e-009    
  1.55            7.7714e-005     -2.0156e-008    1.885e-009     
  1.6             8.2711e-005     -1.3456e-008    2.232e-010     
  1.65            8.8303e-005     1.2491e-008     -2.3951e-009   
  1.7             9.308e-005      8.997e-009      1.9926e-009    
  1.75            9.8445e-005     -1.3212e-008    -4.05e-011     
  1.8             0.000104229     1.4811e-008     -1.9806e-009   
  1.85            0.000109663     8.126e-009      -2.5623e-009   
  1.9             0.00011509      1.3055e-008     -1.5455e-009   
  1.95            0.00012067      1.0765e-008     -1.9518e-009   
  2               0.00012635      3.975e-009      -2.4181e-009   
  2.05            0.00013196      -3.53e-010      -2.6752e-009   
  2.1             0.0001376       1.231e-009      -2.007e-009    
  2.15            0.00014299      -9.707e-009     2.3075e-009    
  2.2             0.00014875      -3.7327e-008    -6.737e-010    
  2.25            0.00015489      -6.528e-009     -1.3949e-009   
  2.3             0.00016041      -3.2761e-008    2.7714e-009    
  2.35            0.00016657      -6.2271e-008    -1.3104e-009   
  2.4             0.00017243      -4.2165e-008    -1.6868e-009   
  2.45            0.00017807      -6.8758e-008    2.4671e-009    
  2.5             0.00018406      -1.06974e-007   9.216e-010     
  2.55            0.00018978      -1.3189e-007    2.2833e-009    
  2.6             0.00019611      -1.4941e-007    -2.1459e-009   
  2.65            0.00020228      -1.5603e-007    5.428e-010     
  2.7             0.00020801      -2.2448e-007    1.3899e-009    
  2.75            0.00021448      -2.4594e-007    -2.6661e-009   
  2.8             0.00022026      -2.7144e-007    1.168e-009     
  2.85            0.00022664      -3.5299e-007    1.8866e-009    
  2.9             0.00023308      -4.0166e-007    -2.36e-009     
  2.95            0.00023932      -4.4749e-007    7.895e-010     
  3               0.00024537      -5.6319e-007    1.297e-009     
  3.05            0.00025214      -6.3149e-007    -2.7215e-009   
  3.1             0.00025811      -7.1429e-007    1.4056e-009    
  3.15            0.00026478      -8.5588e-007    1.5541e-009    
  3.2             0.00027176      -9.8024e-007    -2.5622e-009   
  3.25            0.00027824      -1.10889e-006   9.913e-010     
  3.3             0.00028532      -1.2758e-006    2.4357e-009    
  3.35            0.00029225      -1.4881e-006    -2.0658e-009   
  3.4             0.00029931      -1.6815e-006    4.32e-010      
  3.45            0.00030594      -1.9547e-006    1.4654e-009    
  3.5             0.00031346      -2.2118e-006    -2.62e-009     
  3.55            0.00032046      -2.494e-006     1.0671e-009    
  3.6             0.00032805      -2.8713e-006    2.0693e-009    
  3.65            0.00033582      -3.2342e-006    -2.2631e-009   
  3.7             0.00034357      -3.6316e-006    6.808e-010     
  3.75            0.00035119      -4.1407e-006    1.3269e-009    
  3.8             0.00035967      -4.6441e-006    -2.7058e-009   
  3.85            0.00036742      -5.1951e-006    1.2901e-009    
  3.9             0.00037609      -5.8661e-006    1.6873e-009    
  3.95            0.00038505      -6.5607e-006    -2.4779e-009   
  4               0.00039388      -7.308e-006     8.993e-010     
  4.05            0.00040283      -8.2097e-006    1.2741e-009    
  4.1             0.00041264      -9.1226e-006    -2.7229e-009   
  4.15            0.0004217       -1.01223e-005   1.5305e-009    
  4.2             0.00043201      -1.12786e-005   2.716e-010     
  4.25            0.00044263      -1.2486e-005    7.856e-010     
  4.3             0.0004537       -1.3824e-005    -1.3462e-009   
  4.35            0.00046428      -1.5275e-005    2.8537e-009    
  4.4             0.00047637      -1.6906e-005    -1.5372e-009   
  4.45            0.00048785      -1.8601e-005    -1.4932e-009   
  4.5             0.00049982      -2.0493e-005    2.634e-009     
  4.55            0.00051285      -2.257e-005     -1.0933e-009   
  4.6             0.00052619      -2.4719e-005    -1.9866e-009   
  4.65            0.00053943      -2.7143e-005    2.3177e-009    
  4.7             0.00055377      -2.9786e-005    -6.903e-010    
  4.75            0.00056911      -3.253e-005     -1.3908e-009   
  4.8             0.00058417      -3.5586e-005    2.7786e-009    
  4.85            0.00060091      -3.8914e-005    -1.3243e-009   
  4.9             0.00061767      -4.2385e-005    -1.675e-009    
  4.95            0.00063506      -4.6215e-005    2.4753e-009    
  5               0.00065384      -5.0382e-005    -9.166e-010    
END_DB

BEGIN_DB
 ICCAP_VAR VG         1              
 ICCAP_VAR VS         0              
 ICCAP_VAR VB         0              

 #VD              ID              IB              IG             
  0               -1.0228e-006    -1.0948e-008    -5.419e-010    
  0.05            6.7518e-005     1.1221e-008     -2.6825e-009   
  0.1             0.00013104      2.6984e-008     1.3811e-009    
  0.15            0.00019006      -1.5346e-008    1.5836e-009    
  0.2             0.00024433      -1.0775e-008    -1.2542e-009   
  0.25            0.00029248      2.2685e-008     -1.7664e-009   
  0.3             0.00033488      1.2029e-008     -1.016e-010    
  0.35            0.00037141      -1.7351e-008    2.2109e-009    
  0.4             0.00040399      -1.1794e-008    -8.767e-010    
  0.45            0.00043235      2.8024e-008     -1.3492e-009   
  0.5             0.00045675      1.1042e-008     6.189e-010     
  0.55            0.00047812      -2.5174e-008    1.3494e-009    
  0.6             0.00049849      -1.1297e-008    -4.307e-010    
  0.65            0.00051765      2.3184e-008     -1.4818e-009   
  0.7             0.00053335      1.0653e-008     1.2644e-009    
  0.75            0.00054975      -1.7522e-008    1.7344e-009    
  0.8             0.00056481      -1.1858e-008    3.53e-011      
  0.85            0.00058034      1.794e-008      -1.9166e-009   
  0.9             0.0005942       2.638e-008      -1.3856e-009   
  0.95            0.00060714      1.0904e-008     4.441e-010     
  1               0.00061898      -2.3209e-008    1.457e-009     
  1.05            0.00063294      -1.1266e-008    -1.3803e-009   
  1.1             0.00064449      1.9027e-008     -1.6167e-009   
  1.15            0.00065515      1.0369e-008     1.1063e-009    
  1.2             0.00066674      -2.1508e-008    1.9982e-009    
  1.25            0.00067724      -1.2678e-008    1.845e-010     
  1.3             0.00068961      1.5314e-008     -2.1647e-009   
  1.35            0.00069944      1.1207e-008     7.503e-010     
  1.4             0.00070906      -2.6088e-008    1.3082e-009    
  1.45            0.0007197       -1.1891e-008    -5.763e-010    
  1.5             0.00073039      2.4915e-008     -1.4219e-009   
  1.55            0.00073978      1.0373e-008     3.247e-010     
  1.6             0.00074824      -2.185e-008     1.569e-009     
  1.65            0.0007592       -1.1592e-008    -1.2636e-009   
  1.7             0.00076857      1.1928e-008     -2.4124e-009   
  1.75            0.00077647      7.608e-009      2.0804e-009    
  1.8             0.00078575      -1.3727e-008    -3.085e-010    
  1.85            0.00079559      1.7453e-008     -1.5506e-009   
  1.9             0.00080448      1.1141e-008     -1.9624e-009   
  1.95            0.00081332      4.253e-009      -2.4303e-009   
  2               0.00082122      -2.2262e-008    -2.1671e-009   
  2.05            0.00083045      -3.981e-009     -2.3621e-009   
  2.1             0.00083766      -1.4368e-008    2.1239e-009    
  2.15            0.00084631      -4.3695e-008    -3.707e-010    
  2.2             0.00085554      -2.1038e-008    -1.5206e-009   
  2.25            0.00086296      -4.9423e-008    2.6103e-009    
  2.3             0.00087169      -8.5188e-008    -1.0695e-009   
  2.35            0.00088033      -6.8098e-008    -1.3159e-009   
  2.4             0.00088702      -1.3959e-007    1.7741e-009    
  2.45            0.00089584      -1.6031e-007    -2.4286e-009   
  2.5             0.00090368      -1.7696e-007    8.47e-010      
  2.55            0.00091109      -2.585e-007     1.2854e-009    
  2.6             0.00092001      -2.9039e-007    -2.7241e-009   
  2.65            0.00092647      -3.3533e-007    1.4836e-009    
  2.7             0.00093498      -4.3313e-007    1.478e-009     
  2.75            0.00094364      -5.1161e-007    -2.6062e-009   
  2.8             0.00095106      -5.9212e-007    1.0584e-009    
  2.85            0.00095918      -7.3892e-007    2.0967e-009    
  2.9             0.0009675       -8.5678e-007    -2.2456e-009   
  2.95            0.0009755       -9.8714e-007    6.633e-010     
  3               0.00098413      -1.1567e-006    -2.2593e-009   
  3.05            0.00099101      -1.3581e-006    2.1882e-009    
  3.1             0.00099909      -1.6055e-006    -4.669e-010    
  3.15            0.00100815      -1.8283e-006    -1.4647e-009   
  3.2             0.00101542      -2.1326e-006    2.6703e-009    
  3.25            0.00102435      -2.4806e-006    -1.1443e-009   
  3.3             0.0010327       -2.8141e-006    -1.3047e-009   
  3.35            0.00104032      -3.2584e-006    2.8462e-009    
  3.4             0.00104984      -3.7433e-006    -1.7856e-009   
  3.45            0.00105809      -4.2485e-006    -5.59e-011     
  3.5             0.00106586      -4.8693e-006    2.1327e-009    
  3.55            0.00107552      -5.5239e-006    -2.2237e-009   
  3.6             0.00108462      -6.2397e-006    6.388e-010     
  3.65            0.00109308      -7.0979e-006    1.3463e-009    
  3.7             0.00110344      -7.9953e-006    -2.6964e-009   
  3.75            0.0011121       -8.9866e-006    1.2526e-009    
  3.8             0.00112254      -1.01387e-005   1.7486e-009    
  3.85            0.0011337       -1.13621e-005   1.0647e-009    
  3.9             0.0011448       -1.2705e-005    -1.6454e-009   
  3.95            0.0011552       -1.419e-005     2.488e-009     
  4               0.0011667       -1.5857e-005    -9.283e-010    
  4.05            0.0011792       -1.7613e-005    -1.3382e-009   
  4.1             0.0011904       -1.9604e-005    2.8653e-009    
  4.15            0.001204        -2.1782e-005    -1.5775e-009   
  4.2             0.0012164       -2.4092e-005    -1.4661e-009   
  4.25            0.0012295       -2.6644e-005    2.6697e-009    
  4.3             0.0012443       -2.9444e-005    -1.142e-009    
  4.35            0.0012591       -3.2386e-005    -1.305e-009    
  4.4             0.0012737       -3.5676e-005    2.8479e-009    
  4.45            0.0012907       -3.9223e-005    -1.7854e-009   
  4.5             0.0013068       -4.2984e-005    -5.37e-011     
  4.55            0.0013235       -4.7117e-005    2.1352e-009    
  4.6             0.0013426       -5.1516e-005    -2.2202e-009   
  4.65            0.0013618       -5.6217e-005    6.379e-010     
  4.7             0.001381        -6.1375e-005    1.343e-009     
  4.75            0.001403        -6.6833e-005    -2.6924e-009   
  4.8             0.0014242       -7.2653e-005    1.2514e-009    
  4.85            0.0014478       -7.9007e-005    1.7531e-009    
  4.9             0.0014727       -8.5728e-005    -2.4431e-009   
  4.95            0.0014982       -9.2879e-005    8.605e-010     
  5               0.0015246       -0.000100667    1.2832e-009    
END_DB

BEGIN_DB
 ICCAP_VAR VG         2              
 ICCAP_VAR VS         0              
 ICCAP_VAR VB         0              

 #VD              ID              IB              IG             
  0               -1.7904e-006    -1.1673e-008    7.72e-010      
  0.05            0.00011801      -2.5593e-008    -1.1339e-009   
  0.1             0.00023376      1.1722e-008     -2.5559e-009   
  0.15            0.0003464       1.0785e-008     4.034e-010     
  0.2             0.00045552      -2.2781e-008    1.4847e-009    
  0.25            0.00056026      -1.1101e-008    -1.874e-010    
  0.3             0.00066033      1.959e-008      -1.6455e-009   
  0.35            0.00075445      1.0213e-008     1.0825e-009    
  0.4             0.00084289      -2.193e-008     2.0463e-009    
  0.45            0.00092478      -1.2751e-008    1.998e-010     
  0.5             0.00100133      1.4981e-008     -2.1897e-009   
  0.55            0.00107035      1.1155e-008     7.276e-010     
  0.6             0.00113305      -2.5935e-008    1.317e-009     
  0.65            0.0011909       8.954e-009      2.8623e-009    
  0.7             0.0012422       -1.1641e-008    -4.04e-011     
  0.75            0.0012892       1.869e-008      -1.7967e-009   
  0.8             0.0013311       2.7374e-008     -1.3693e-009   
  0.85            0.0013685       1.119e-008      5.299e-010     
  0.9             0.0014014       -2.4455e-008    1.3942e-009    
  0.95            0.0014324       -1.1079e-008    -3.304e-010    
  1               0.0014612       2.1869e-008     -1.5369e-009   
  1.05            0.0014856       1.0282e-008     1.1883e-009    
  1.1             0.0015093       -1.9334e-008    1.8535e-009    
  1.15            0.001531        -1.2176e-008    1.001e-010     
  1.2             0.0015527       1.664e-008      -2.0253e-009   
  1.25            0.0015716       2.552e-008      -1.4088e-009   
  1.3             0.0015893       1.0741e-008     3.632e-010     
  1.35            0.0016052       -2.2137e-008    1.525e-009     
  1.4             0.0016225       -1.0948e-008    -1.3088e-009   
  1.45            0.0016376       2.0862e-008     -1.6904e-009   
  1.5             0.0016512       1.0429e-008     1.0462e-009    
  1.55            0.0016653       -2.2912e-008    2.1067e-009    
  1.6             0.0016782       -1.3144e-008    2.376e-010     
  1.65            0.001692        1.4341e-008     -2.2483e-009   
  1.7             0.0017038       1.0829e-008     6.822e-010     
  1.75            0.0017144       -2.6207e-008    1.3277e-009    
  1.8             0.0017268       -1.2436e-008    -5.074e-010    
  1.85            0.0017389       2.3124e-008     -1.4455e-009   
  1.9             0.0017494       1.7162e-008     -1.7294e-009   
  1.95            0.00176         1.1882e-008     -2.2068e-009   
  2               0.0017701       7.46e-009       -2.5916e-009   
  2.05            0.00178         1.2798e-008     -1.7661e-009   
  2.1             0.0017899       5.864e-009      -2.2492e-009   
  2.15            0.0017994       -7.4e-010       -2.6125e-009   
  2.2             0.0018073       -6.647e-009     1.8961e-009    
  2.25            0.0018166       -3.5147e-008    -6.07e-011     
  2.3             0.001827        -2.7692e-008    -1.5089e-009   
  2.35            0.0018349       -3.6099e-008    2.5999e-009    
  2.4             0.0018443       -6.9284e-008    -1.0633e-009   
  2.45            0.001853        -4.9768e-008    -1.3181e-009   
  2.5             0.0018607       -9.502e-008     1.2418e-009    
  2.55            0.0018693       -1.2969e-007    -2.6459e-009   
  2.6             0.0018764       -1.5405e-007    1.8265e-009    
  2.65            0.0018848       -2.1966e-007    2.7e-012       
  2.7             0.0018944       -2.4258e-007    -1.8541e-009   
  2.75            0.0019016       -3.1538e-007    2.3782e-009    
  2.8             0.0019098       -4.1281e-007    -7.874e-010    
  2.85            0.0019184       -4.6543e-007    -1.3707e-009   
  2.9             0.0019255       -5.9344e-007    2.8183e-009    
  2.95            0.0019349       -7.3888e-007    -1.4252e-009   
  3               0.001942        -8.5932e-007    -1.5687e-009   
  3.05            0.0019493       -1.04405e-006   2.5475e-009    
  3.1             0.0019572       -1.2621e-006    2.6487e-009    
  3.15            0.0019657       -1.4995e-006    -1.9638e-009   
  3.2             0.0019738       -1.749e-006     2.493e-010     
  3.25            0.0019804       -2.0894e-006    1.6394e-009    
  3.3             0.0019895       -2.4367e-006    -2.5101e-009   
  3.35            0.0019974       -2.8266e-006    9.293e-010     
  3.4             0.0020053       -3.3276e-006    1.2724e-009    
  3.45            0.0020143       -3.8374e-006    -2.7156e-009   
  3.5             0.0020216       -4.4208e-006    1.5827e-009    
  3.55            0.0020308       -5.1242e-006    2.198e-010     
  3.6             0.0020411       -5.8633e-006    -2.2153e-009   
  3.65            0.0020489       -6.7325e-006    2.2122e-009    
  3.7             0.0020585       -7.7192e-006    -4.952e-010    
  3.75            0.0020689       -8.7729e-006    -1.4473e-009   
  3.8             0.0020777       -1.00035e-005   2.6822e-009    
  3.85            0.0020888       -1.13735e-005   -1.1718e-009   
  3.9             0.0020979       -1.2866e-005    2.6852e-009    
  3.95            0.0021097       -1.4557e-005    -1.1734e-009   
  4               0.0021209       -1.6379e-005    -1.8645e-009   
  4.05            0.002132        -1.8451e-005    2.3768e-009    
  4.1             0.0021442       -2.0735e-005    -7.835e-010    
  4.15            0.0021575       -2.3202e-005    -1.372e-009    
