! VERSION = 6.00
BEGIN_HEADER
 ICCAP_INPUTS
  VG         V  B GROUND SMU4 0.001 LIN        1    0          5          101  0.05      
  VS         V  E GROUND SMU2 0.1 CON        0
  VB         V  C GROUND SMU3 0.1 LIN        3    0          -5         3    -2.5      
  VD         V  S GROUND SMU1 0.1 LIN        2    0.1        5          2    4.9       
 ICCAP_OUTPUTS
  IG         I  B GROUND SMU4 B
  ID         I  S GROUND SMU1 B
  IB         I  C GROUND SMU3 B
END_HEADER

BEGIN_DB
 ICCAP_VAR VS         0              
 ICCAP_VAR VB         0              
 ICCAP_VAR VD         0.1            

 #VG              IG              ID              IB             
  0               1.9734e-009     2.1657e-009     1.847e-009     
  0.05            1.578e-009      1.8781e-009     -9.166e-009    
  0.1             1.616e-010      2.1694e-009     1.0257e-008    
  0.15            3.401e-010      2.2895e-009     1.0264e-008    
  0.2             5.065e-010      2.4121e-009     1.0579e-008    
  0.25            -1.334e-009     1.6741e-009     2.4584e-008    
  0.3             -1.3069e-009    9.159e-010      1.12e-008      
  0.35            -2.6673e-009    3.2547e-009     1.2472e-008    
  0.4             2.7493e-009     1.1149e-008     -9.533e-009    
  0.45            5.888e-010      3.596e-008      1.0331e-008    
  0.5             -1.7746e-009    1.04553e-007    2.2602e-008    
  0.55            1.1003e-009     2.761e-007      -1.9847e-008   
  0.6             -6.58e-011      7.2897e-007     1.1859e-008    
  0.65            -1.4913e-009    1.6779e-006     -1.1064e-008   
  0.7             -1.348e-009     3.605e-006      9.502e-009     
  0.75            -2.6764e-009    6.8863e-006     1.1317e-008    
  0.8             2.9216e-009     1.1621e-005     -1.124e-008    
  0.85            2.8438e-009     1.7834e-005     4.84e-010      
  0.9             4.432e-010      2.5349e-005     1.0268e-008    
  0.95            -1.3059e-009    3.3484e-005     2.5723e-008    
  1               -2.4172e-009    4.1892e-005     1.2697e-008    
  1.05            -1.8243e-009    5.0265e-005     2.016e-009     
  1.1             -1.4502e-009    5.8583e-005     5.483e-009     
  1.15            -1.3362e-009    6.6698e-005     1.0195e-008    
  1.2             -2.6231e-009    7.4384e-005     1.1206e-008    
  1.25            -2.109e-009     8.163e-005      9.07e-010      
  1.3             -1.5818e-009    8.8595e-005     3.4e-009       
  1.35            -1.377e-009     9.5261e-005     8.194e-009     
  1.4             -1.2998e-009    0.000101596     1.1567e-008    
  1.45            -2.403e-009     0.000107674     1.2918e-008    
  1.5             -1.7987e-009    0.0001134       2.241e-009     
  1.55            -1.3869e-009    0.00011916      3.579e-009     
  1.6             -1.3075e-009    0.0001245       1.1337e-008    
  1.65            -2.4368e-009    0.00012971      1.2586e-008    
  1.7             -1.8497e-009    0.00013466      2.129e-009     
  1.75            -1.4561e-009    0.00013951      5.394e-009     
  1.8             -1.338e-009     0.00014417      1.0319e-008    
  1.85            -2.6327e-009    0.00014873      1.1302e-008    
  1.9             -2.1303e-009    0.00015308      8.54e-010      
  1.95            -1.6001e-009    0.00015738      3.425e-009     
  2               -1.3806e-009    0.00016156      8.058e-009     
  2.05            -1.3026e-009    0.00016561      1.1625e-008    
  2.1             -2.4132e-009    0.00016961      1.2634e-008    
  2.15            -1.8241e-009    0.00017335      2.307e-009     
  2.2             -1.4492e-009    0.00017712      5.397e-009     
  2.25            -1.3358e-009    0.0001808       1.0201e-008    
  2.3             -2.6158e-009    0.00018439      1.116e-008     
  2.35            -2.1096e-009    0.00018782      8.7e-010       
  2.4             -1.5841e-009    0.00019127      3.35e-009      
  2.45            -1.3758e-009    0.00019463      8.204e-009     
  2.5             -1.3025e-009    0.00019786      1.1495e-008    
  2.55            -2.4034e-009    0.00020115      1.2745e-008    
  2.6             -1.812e-009     0.00020421      2.081e-009     
  2.65            -1.4419e-009    0.0002073       5.777e-009     
  2.7             -1.3316e-009    0.00021034      1.0378e-008    
  2.75            -2.6117e-009    0.00021333      1.1113e-008    
  2.8             -2.094e-009     0.00021625      8.02e-010      
  2.85            -1.5774e-009    0.00021909      3.566e-009     
  2.9             -1.3758e-009    0.00022192      8.472e-009     
  2.95            -1.3001e-009    0.00022463      1.1428e-008    
  3               -2.3841e-009    0.00022737      1.2839e-008    
  3.05            -1.7945e-009    0.00022997      2.223e-009     
  3.1             -1.4382e-009    0.00023256      5.846e-009     
  3.15            -1.33e-009      0.00023511      1.0485e-008    
  3.2             -2.5998e-009    0.00023765      1.1202e-008    
  3.25            -2.0804e-009    0.00024008      8.2e-010       
  3.3             -1.5683e-009    0.00024248      3.578e-009     
  3.35            -1.3731e-009    0.00024489      8.415e-009     
  3.4             -1.2972e-009    0.00024721      1.1587e-008    
  3.45            -2.3735e-009    0.00024956      1.3043e-008    
  3.5             -8.176e-010     0.00025177      -1.0974e-008   
  3.55            1.6608e-009     0.00025393      -1.6311e-008   
  3.6             1.3336e-009     0.00025613      -9.394e-009    
  3.65            2.9152e-009     0.00025828      -8.804e-009    
  3.7             1.2481e-009     0.0002604       1.0565e-008    
  3.75            9.01e-011       0.00026252      1.1198e-008    
  3.8             5.085e-010      0.00026458      1.0266e-008    
  3.85            -1.294e-009     0.00026661      2.4295e-008    
  3.9             -2.3336e-009    0.00026861      1.3426e-008    
  3.95            -1.7438e-009    0.0002705       2.63e-009      
  4               -1.425e-009     0.00027242      6.165e-009     
  4.05            -1.3224e-009    0.00027432      1.0729e-008    
  4.1             -2.5598e-009    0.0002762       1.1342e-008    
  4.15            -2.0251e-009    0.00027794      1.145e-009     
  4.2             -1.5372e-009    0.00027977      4.097e-009     
  4.25            -1.3642e-009    0.00028155      9.122e-009     
  4.3             -2.7097e-009    0.00028323      1.149e-008     
  4.35            -2.3034e-009    0.00028491      7.15e-010      
  4.4             -1.7411e-009    0.00028661      2.415e-009     
  4.45            -1.4202e-009    0.00028829      6.361e-009     
  4.5             -1.3189e-009    0.0002899       1.0891e-008    
  4.55            -2.5499e-009    0.00029155      1.1261e-008    
  4.6             -2.0107e-009    0.00029308      1.15e-009      
  4.65            -1.5299e-009    0.0002946       3.944e-009     
  4.7             -1.3594e-009    0.00029617      8.996e-009     
  4.75            -2.7035e-009    0.00029764      1.1422e-008    
  4.8             -2.2959e-009    0.00029909      7.23e-010      
  4.85            -8.538e-010     0.00030058      -1.1127e-008   
  4.9             -1.2256e-009    0.00030198      -1.1111e-008   
  4.95            1.58e-011       0.00030328      -1.1953e-008   
  5               -4.443e-010     0.00030473      -1.0775e-008   
END_DB

BEGIN_DB
 ICCAP_VAR VS         0              
 ICCAP_VAR VB         0              
 ICCAP_VAR VD         5              

 #VG              IG              ID              IB             
  0               -4.663e-010     6.51e-010       -2.3016e-008   
  0.05            -1.5282e-009    2.7363e-009     1.2236e-008    
  0.1             -1.4294e-009    2.943e-009      9.125e-009     
  0.15            1.2758e-009     1.0982e-008     -1.162e-009    
  0.2             2.7735e-009     4.2636e-008     -1.537e-008    
  0.25            2.4904e-009     1.3991e-007     -2.4532e-008   
  0.3             1.8487e-009     4.2219e-007     -4.325e-008    
  0.35            2.7673e-009     1.1933e-006     -9.091e-008    
  0.4             2.9278e-009     3.0258e-006     -2.5587e-007   
  0.45            2.7328e-009     6.8412e-006     -5.7394e-007   
  0.5             -2.5944e-009    1.3982e-005     -1.11077e-006  
  0.55            -1.7438e-009    2.4972e-005     -1.9789e-006   
  0.6             -2.0031e-009    4.0229e-005     -3.1058e-006   
  0.65            -2.3125e-009    5.9951e-005     -4.4902e-006   
  0.7             -2.6709e-009    8.3698e-005     -6.0756e-006   
  0.75            2.3621e-009     0.00011096      -7.8038e-006   
  0.8             -1.5194e-009    0.00014156      -9.5365e-006   
  0.85            1.2779e-009     0.0001732       -1.1492e-005   
  0.9             2.7854e-009     0.00020756      -1.3268e-005   
  0.95            2.2435e-009     0.00024406      -1.5094e-005   
  1               1.6163e-009     0.00028161      -1.6901e-005   
  1.05            1.3239e-009     0.00032017      -1.8633e-005   
  1.1             2.9035e-009     0.00035963      -2.0296e-005   
  1.15            2.5571e-009     0.00040125      -2.1905e-005   
  1.2             1.8876e-009     0.00044239      -2.3412e-005   
  1.25            1.414e-009      0.00048409      -2.4841e-005   
  1.3             1.275e-009      0.0005262       -2.6154e-005   
  1.35            2.792e-009      0.00056877      -2.7395e-005   
  1.4             2.2534e-009     0.00061209      -2.8517e-005   
  1.45            1.5982e-009     0.00065532      -2.9577e-005   
  1.5             1.3199e-009     0.00069872      -3.0537e-005   
  1.55            2.9028e-009     0.00074207      -3.1397e-005   
  1.6             2.5523e-009     0.00078649      -3.2173e-005   
  1.65            1.8836e-009     0.00083028      -3.2873e-005   
  1.7             1.4091e-009     0.0008743       -3.3496e-005   
  1.75            1.2759e-009     0.00091834      -3.4019e-005   
  1.8             2.7908e-009     0.00096241      -3.4483e-005   
  1.85            2.2423e-009     0.00100709      -3.4859e-005   
  1.9             1.5926e-009     0.00105132      -3.5178e-005   
  1.95            1.3153e-009     0.00109541      -3.5429e-005   
  2               2.9031e-009     0.00113954      -3.5603e-005   
  2.05            -1.7808e-009    0.0011859       -3.5733e-005   
  2.1             -1.43e-009      0.0012303       -3.5792e-005   
  2.15            -1.3309e-009    0.0012743       -3.5797e-005   
  2.2             -2.5966e-009    0.0013186       -3.5758e-005   
  2.25            -2.0685e-009    0.0013625       -3.5685e-005   
  2.3             -1.5544e-009    0.0014068       -3.5549e-005   
  2.35            -1.3703e-009    0.001451        -3.537e-005    
  2.4             -2.7295e-009    0.0014951       -3.5156e-005   
  2.45            -2.3503e-009    0.0015385       -3.4923e-005   
  2.5             -1.7656e-009    0.0015825       -3.4634e-005   
  2.55            -1.4271e-009    0.0016263       -3.4315e-005   
  2.6             -1.3275e-009    0.0016702       -3.3975e-005   
  2.65            -2.5874e-009    0.0017139       -3.3606e-005   
  2.7             -2.0558e-009    0.0017572       -3.3224e-005   
  2.75            -1.5494e-009    0.001801        -3.2812e-005   
  2.8             -1.3665e-009    0.001845        -3.2362e-005   
  2.85            -2.7216e-009    0.0018882       -3.1908e-005   
  2.9             -2.3347e-009    0.0019312       -3.1456e-005   
  2.95            -1.7556e-009    0.0019747       -3.0972e-005   
  3               -1.4244e-009    0.0020176       -3.0479e-005   
  3.05            -1.3249e-009    0.0020607       -2.997e-005    
  3.1             -2.5702e-009    0.0021038       -2.9461e-005   
  3.15            -2.0361e-009    0.0021461       -2.8954e-005   
  3.2             -1.5447e-009    0.0021887       -2.8425e-005   
  3.25            -1.3664e-009    0.0022315       -2.7887e-005   
  3.3             -2.7116e-009    0.0022741       -2.7357e-005   
  3.35            -2.3174e-009    0.0023162       -2.6829e-005   
  3.4             -1.7511e-009    0.0023584       -2.6286e-005   
  3.45            -1.4237e-009    0.0024006       -2.5741e-005   
  3.5             -1.3233e-009    0.002443        -2.5203e-005   
  3.55            -2.5606e-009    0.002485        -2.466e-005    
  3.6             -2.0284e-009    0.0025266       -2.4134e-005   
  3.65            -1.5408e-009    0.0025684       -2.3604e-005   
  3.7             -1.3604e-009    0.0026101       -2.3073e-005   
  3.75            -2.7062e-009    0.0026515       -2.2544e-005   
  3.8             -2.3161e-009    0.0026929       -2.2035e-005   
  3.85            -1.7396e-009    0.0027342       -2.1522e-005   
  3.9             -1.4209e-009    0.0027758       -2.101e-005    
  3.95            -1.3211e-009    0.0028169       -2.0513e-005   
  4               -2.553e-009     0.002858        -2.0024e-005   
  4.05            -2.0231e-009    0.0028986       -1.9543e-005   
  4.1             -1.5321e-009    0.0029394       -1.9059e-005   
  4.15            -1.3559e-009    0.0029804       -1.8582e-005   
  4.2             -2.6955e-009    0.0030208       -1.8118e-005   
  4.25            -2.3018e-009    0.0030612       -1.7666e-005   
  4.3             -1.73e-009      0.0031016       -1.7214e-005   
  4.35            -1.4114e-009    0.0031418       -1.6773e-005   
  4.4             -1.31e-009      0.0031819       -1.6336e-005   
  4.45            -2.5401e-009    0.0032226       -1.5903e-005   
  4.5             -2.0092e-009    0.0032622       -1.5488e-005   
  4.55            -1.5202e-009    0.0033022       -1.5088e-005   
  4.6             -1.3452e-009    0.0033419       -1.4674e-005   
  4.65            -2.6877e-009    0.0033815       -1.4287e-005   
  4.7             -2.2811e-009    0.0034206       -1.3914e-005   
  4.75            -1.7107e-009    0.00346         -1.3545e-005   
  4.8             -1.3964e-009    0.0034991       -1.3171e-005   
  4.85            -1.2951e-009    0.0035381       -1.2815e-005   
  4.9             -2.5216e-009    0.0035773       -1.2463e-005   
  4.95            -1.9861e-009    0.0036158       -1.2125e-005   
  5               -1.5028e-009    0.0036546       -1.179e-005    
END_DB

BEGIN_DB
 ICCAP_VAR VS         0              
 ICCAP_VAR VB         -2.5           
 ICCAP_VAR VD         0.1            

 #VG              IG              ID              IB             
  0               -2.1856e-009    -2.1581e-009    1.3658e-008    
  0.05            -6.957e-010     -2.2914e-009    -1.1421e-008   
  0.1             1.2547e-009     -1.5752e-009    -1.8969e-008   
  0.15            2.8594e-009     -1.65e-010      -1.2902e-008   
  0.2             1.286e-010      2.1381e-009     1.0075e-008    
  0.25            2.942e-010      2.2463e-009     1.0137e-008    
  0.3             4.624e-010      2.3385e-009     1.0403e-008    
  0.35            -1.3403e-009    1.4205e-009     2.5296e-008    
  0.4             -1.3096e-009    6.25e-011       1.0905e-008    
  0.45            -2.6747e-009    1.94e-010       1.1633e-008    
  0.5             -1.9342e-009    -1.2973e-009    7.02e-010      
  0.55            -6.027e-010     -2.0794e-009    -1.1257e-008   
  0.6             1.3298e-009     -5.017e-010     -1.1501e-008   
  0.65            1.2808e-009     3.3926e-009     -8.921e-009    
  0.7             2.7358e-009     1.3973e-008     2.7186e-008    
  0.75            5.594e-010      4.8998e-008     1.0222e-008    
  0.8             2.8048e-009     1.56e-007       -1.1402e-008   
  0.85            4.622e-010      4.6498e-007     1.0096e-008    
  0.9             -1.3803e-009    1.2263e-006     -1.0814e-008   
  0.95            -1.3004e-009    2.8299e-006     1.1406e-008    
  1               -2.4139e-009    5.7426e-006     1.2463e-008    
  1.05            -1.859e-009     1.01324e-005    1.885e-009     
  1.1             1.2751e-009     1.5938e-005     3.181e-009     
  1.15            2.7971e-009     2.3089e-005     -1.0627e-008   
  1.2             4.946e-010      3.1216e-005     1.0167e-008    
  1.25            -1.9111e-009    3.9617e-005     2.4937e-008    
  1.3             -1.4769e-009    4.8044e-005     4.904e-009     
  1.35            -1.337e-009     5.6236e-005     1.0128e-008    
  1.4             -2.6326e-009    6.4194e-005     1.0971e-008    
  1.45            -2.1877e-009    7.1673e-005     8.15e-010      
  1.5             -1.6566e-009    7.889e-005      3.196e-009     
  1.55            -1.3914e-009    8.5717e-005     7.288e-009     
  1.6             -1.3032e-009    9.2156e-005     1.1348e-008    
  1.65            -2.4614e-009    9.8353e-005     1.1835e-008    
  1.7             -1.9084e-009    0.000104194     1.554e-009     
  1.75            -1.4853e-009    0.000109837     5.218e-009     
  1.8             -1.5237e-009    0.0001153       1.1512e-008    
  1.85            -1.349e-009     0.0001205       9.655e-009     
  1.9             -2.6633e-009    0.00012545      1.1296e-008    
  1.95            -2.2553e-009    0.0001302       6.57e-010      
  2               -8.787e-010     0.0001348       -1.1339e-008   
  2.05            -1.2483e-009    0.00013932      -1.1163e-008   
  2.1             -6e-012         0.00014345      -1.1888e-008   
  2.15            -4.676e-010     0.0001477       -1.0713e-008   
  2.2             -9.069e-010     0.00015182      -1.1461e-008   
  2.25            -1.2859e-009    0.00015581      -1.106e-008    
  2.3             -3.32e-011      0.00015951      -1.177e-008    
  2.35            -5.102e-010     0.0001633       -1.0822e-008   
  2.4             -9.448e-010     0.00016698      -1.1383e-008   
  2.45            3.029e-010      0.00017037      -1.4239e-008   
  2.5             -6.29e-011      0.00017391      -1.1606e-008   
  2.55            -5.488e-010     0.00017733      -1.0708e-008   
  2.6             -9.688e-010     0.00018066      -1.1443e-008   
  2.65            2.764e-010      0.00018375      -1.3853e-008   
  2.7             -1.068e-010     0.00018696      -1.1455e-008   
  2.75            -5.896e-010     0.0001901       -1.0764e-008   
  2.8             -1.0038e-009    0.00019322      -1.1408e-008   
  2.85            2.426e-010      0.00019602      -1.351e-008    
  2.9             -1.403e-010     0.00019899      -1.1311e-008   
  2.95            -6.221e-010     0.00020186      -1.0821e-008   
  3               -1.0239e-009    0.00020465      -1.1404e-008   
  3.05            2.277e-010      0.00020725      -1.3179e-008   
  3.1             -1.815e-010     0.00021003      -1.118e-008    
  3.15            -6.7e-010       0.0002127       -1.0854e-008   
  3.2             1.8736e-009     0.0002152       -1.9342e-008   
  3.25            1.3994e-009     0.00021775      -9.504e-009    
  3.3             1.2678e-009     0.00022025      -8.781e-009    
  3.35            2.7408e-009     0.00022272      -1.1664e-008   
  3.4             5.736e-010      0.00022511      1.013e-008     
  3.45            -1.8049e-009    0.00022744      2.3392e-008    
  3.5             -1.4332e-009    0.0002298       5.998e-009     
  3.55            -1.3231e-009    0.00023208      1.0528e-008    
  3.6             -2.5758e-009    0.00023431      1.101e-008     
  3.65            -2.0763e-009    0.00023647      8.03e-010      
  3.7             -1.5741e-009    0.00023862      3.702e-009     
  3.75            -1.3644e-009    0.00024077      8.571e-009     
  3.8             -2.7125e-009    0.00024281      1.152e-008     
  3.85            -3.347e-010     0.00024483      -1.0806e-008   
  3.9             -8.031e-010     0.00024689      -1.1033e-008   
  3.95            -1.1686e-009    0.0002489       -1.1204e-008   
  4               7.32e-011       0.00025071      -1.2153e-008   
  4.05            -3.674e-010     0.00025274      -1.0698e-008   
  4.1             -8.363e-010     0.00025462      -1.1102e-008   
  4.15            -1.206e-009     0.00025649      -1.1136e-008   
