! VERSION = 6.00
BEGIN_HEADER
 ICCAP_INPUTS
  VG         V  B GROUND SMU4 0.001 LIN        2    0          5          6    1         
  VS         V  E GROUND SMU2 0.1 CON        0
  VD         V  S GROUND SMU1 0.1 LIN        1    0          5          101  0.05      
  VB         V  C GROUND SMU3 0.1 LIN        3    0          -2.5       2    -2.5      
 ICCAP_OUTPUTS
  ID         I  S GROUND SMU1 B
  IB         I  C GROUND SMU3 B
  IG         I  B GROUND SMU4 B
END_HEADER

BEGIN_DB
 ICCAP_VAR VG         0              
 ICCAP_VAR VS         0              
 ICCAP_VAR VB         0              

 #VD              ID              IB              IG             
  0               -1.4643e-009    1.1202e-008     -1.3868e-009   
  0.05            -2.0579e-009    1.1248e-008     -1.318e-009    
  0.1             -1.8801e-009    -1.138e-008     1.67e-010      
  0.15            -2.0241e-009    -1.1017e-008    2.9e-012       
  0.2             -2.1259e-009    -1.1781e-008    -2.163e-010    
  0.25            -2.1842e-009    -1.1782e-008    -4.462e-010    
  0.3             -1.4051e-009    -2.3161e-008    1.2994e-009    
  0.35            4.58e-011       -1.092e-008     2.883e-009     
  0.4             1.5886e-009     -2.03e-010      1.8276e-009    
  0.45            2.3206e-009     1.1205e-008     4.273e-010     
  0.5             1.4736e-009     2.6011e-008     -1.3593e-009   
  0.55            1.193e-010      1.1937e-008     -1.3292e-009   
  0.6             2.944e-010      1.3127e-008     -2.6611e-009   
  0.65            -2.1187e-009    4.63e-010       -1.0021e-009   
  0.7             -2.046e-009     -1.1189e-008    -1.1751e-009   
  0.75            -1.6582e-009    -1.2107e-008    3.106e-010     
  0.8             -1.7621e-009    -1.1331e-008    1.401e-010     
  0.85            -1.8676e-009    -1.1753e-008    -3.53e-011     
  0.9             -1.9215e-009    -1.1822e-008    -2.665e-010    
  0.95            -1.9332e-009    -1.1944e-008    -5.049e-010    
  1               -1.1644e-009    -2.2648e-008    1.2935e-009    
  1.05            1.4881e-009     -1.2026e-008    2.318e-009     
  1.1             2.7478e-009     1.0204e-008     1.0101e-009    
  1.15            2.3272e-009     1.2751e-008     -1.5509e-009   
  1.2             2.145e-010      9.592e-009      -1.4385e-009   
  1.25            4.341e-010      1.0736e-008     -1.3829e-009   
  1.3             6.921e-010      1.1271e-008     -1.3493e-009   
  1.35            9.549e-010      1.1557e-008     -2.7212e-009   
  1.4             -5.582e-010     -1.1189e-008    2.2234e-009    
  1.45            2.2429e-009     -7.796e-009     2.4201e-009    
  1.5             3.5792e-009     1.0915e-008     1.1481e-009    
  1.55            3.4617e-009     1.131e-008      -2.556e-010    
  1.6             2.6861e-009     2.2876e-008     -1.6965e-009   
  1.65            1.6251e-009     7.377e-009      -1.5151e-009   
  1.7             2.0428e-009     9.436e-009      -1.4233e-009   
  1.75            2.5174e-009     1.0503e-008     -1.375e-009    
  1.8             3.0408e-009     1.1101e-008     -1.3439e-009   
  1.85            3.6222e-009     1.1502e-008     -2.7142e-009   
  1.9             1.7912e-009     -1.1604e-008    -1.12e-009     
  1.95            2.4221e-009     -1.2195e-008    -1.2938e-009   
  2               3.1626e-009     -1.1974e-008    2.063e-010     
  2.05            3.6893e-009     -1.1936e-008    2.43e-011      
  2.1             4.343e-009      -1.2476e-008    -2.065e-010    
  2.15            5.0662e-009     -1.2567e-008    -4.382e-010    
  2.2             6.0057e-009     -1.2123e-008    -6.727e-010    
  2.25            7.6361e-009     -2.0474e-008    1.2776e-009    
  2.3             1.1572e-008     1.086e-008      2.3218e-009    
  2.35            1.1752e-008     -1.5548e-008    2.3229e-009    
  2.4             9.917e-009      -1.2275e-008    -1.4268e-009   
  2.45            1.4937e-008     2.1445e-008     -1.5081e-009   
  2.5             1.6621e-008     1.6512e-008     -1.8595e-009   
  2.55            2.1227e-008     1.0009e-008     1.5567e-009    
  2.6             2.0186e-008     -2.5848e-008    1.3733e-009    
  2.65            2.0778e-008     -1.3139e-008    -5.898e-010    
  2.7             2.56e-008       1.0965e-008     -2.5518e-009   
  2.75            3.0355e-008     1.9676e-008     -1.7053e-009   
  2.8             3.2639e-008     1.3628e-008     -2.1801e-009   
  2.85            3.7068e-008     2.2227e-008     -1.4568e-009   
  2.9             4.1897e-008     7.695e-009      1.9945e-009    
  2.95            4.3968e-008     -2.5839e-008    2.2149e-009    
  3               4.7627e-008     -1.3546e-008    -1.4924e-009   
  3.05            5.5451e-008     6.342e-009      -1.3818e-009   
  3.1             6.4317e-008     9.084e-009      6.527e-010     
  3.15            6.9843e-008     -1.7136e-008    2.6258e-009    
  3.2             7.5445e-008     -1.3375e-008    -1.2031e-009   
  3.25            8.8379e-008     1.6284e-008     -1.7012e-009   
  3.3             9.7657e-008     1.2388e-008     -2.1732e-009   
  3.35            1.08015e-007    8.582e-009      -2.5755e-009   
  3.4             1.191e-007      -2.9936e-008    1.8682e-009    
  3.45            1.3058e-007     -1.7926e-008    3.534e-010     
  3.5             1.4805e-007     6.373e-009      -2.697e-009    
  3.55            1.6547e-007     7.547e-009      -2.4841e-009   
  3.6             1.8294e-007     9.889e-009      -2.1218e-009   
  3.65            2.0312e-007     1.2383e-008     -1.7414e-009   
  3.7             2.2392e-007     4.567e-009      -2.6229e-009   
  3.75            2.4775e-007     5.921e-009      -2.3488e-009   
  3.8             2.7418e-007     7.962e-009      -1.9429e-009   
  3.85            3.0136e-007     1.098e-009      -2.7028e-009   
  3.9             3.3332e-007     6.23e-010       -2.5215e-009   
  3.95            3.6779e-007     2.222e-009      -2.1706e-009   
  4               3.9681e-007     -2.1966e-008    -2.7362e-009   
  4.05            4.3696e-007     -2.2909e-008    -2.7461e-009   
  4.1             4.7796e-007     -9.357e-009     1.1538e-009    
  4.15            5.3064e-007     -4.9218e-008    1.3036e-009    
  4.2             5.802e-007      -3.5348e-008    -2.6474e-009   
  4.25            6.3976e-007     -1.838e-008     7.614e-010     
  4.3             7.0074e-007     -5.6376e-008    1.5287e-009    
  4.35            7.6645e-007     -4.9252e-008    -2.2985e-009   
  4.4             8.4962e-007     -3.4392e-008    3.013e-010     
  4.45            9.249e-007      -6.9804e-008    2.1684e-009    
  4.5             1.01028e-006    -6.9403e-008    -1.9677e-009   
  4.55            1.12036e-006    -5.5829e-008    -1.708e-010    
  4.6             1.2066e-006     -6.3996e-008    2.346e-009     
  4.65            1.3203e-006     -1.01724e-007   -1.271e-009    
  4.7             1.4391e-006     -9.528e-008     2.8155e-009    
  4.75            1.5781e-006     -1.2913e-007    -8.795e-010    
  4.8             1.7453e-006     -1.1566e-007    -1.6988e-009   
  4.85            1.8641e-006     -1.4351e-007    2.0517e-009    
  4.9             2.0453e-006     -1.9009e-007    1.5587e-009    
  4.95            2.233e-006      -2.0907e-007    -2.0682e-009   
  5               2.458e-006      -2.1308e-007    -2.54e-010     
END_DB

BEGIN_DB
 ICCAP_VAR VG         1              
 ICCAP_VAR VS         0              
 ICCAP_VAR VB         0              

 #VD              ID              IB              IG             
  0               -2.0127e-007    1.428e-008      -1.2554e-009   
  0.05            1.2505e-005     5.62e-010       1.4273e-009    
  0.1             2.3493e-005     -1.1669e-008    -1.705e-010    
  0.15            3.2937e-005     1.7251e-008     -1.8517e-009   
  0.2             4.0739e-005     2.529e-008      -1.4201e-009   
  0.25            4.6831e-005     1.0673e-008     1.3412e-009    
  0.3             5.1997e-005     -1.9032e-008    1.8496e-009    
  0.35            5.6191e-005     -2.5375e-008    1.3478e-009    
  0.4             6.0051e-005     -1.1559e-008    -1.4977e-009   
  0.45            6.3036e-005     1.9531e-008     -1.655e-009    
  0.5             6.5609e-005     1.031e-008      1.0014e-009    
  0.55            6.805e-005      -2.5941e-008    1.2944e-009    
  0.6             7.042e-005      -1.1832e-008    -6.41e-010     
  0.65            7.2728e-005     2.3352e-008     -1.481e-009    
  0.7             7.4679e-005     1.086e-008      9.83e-011      
  0.75            7.6334e-005     -1.7546e-008    2.0909e-009    
  0.8             7.8289e-005     -1.1815e-008    -8.622e-010    
  0.85            8.0182e-005     2.6523e-008     -1.3985e-009   
  0.9             8.1419e-005     1.1033e-008     1.4192e-009    
  0.95            8.3157e-005     -1.7408e-008    1.7329e-009    
  1               8.4682e-005     -1.2454e-008    1.542e-010     
  1.05            8.6541e-005     1.4449e-008     -2.2716e-009   
  1.1             8.789e-005      1.1415e-008     5.828e-010     
  1.15            8.9096e-005     -2.2769e-008    1.4795e-009    
  1.2             9.0555e-005     -1.147e-008     -6.92e-011     
  1.25            9.2182e-005     1.6575e-008     -1.9472e-009   
  1.3             9.3365e-005     1.123e-008      8e-010         
  1.35            9.4503e-005     -2.5373e-008    1.3522e-009    
  1.4             9.6201e-005     -1.1488e-008    -1.4835e-009   
  1.45            9.7331e-005     1.9859e-008     -1.666e-009    
  1.5             9.8355e-005     1.0478e-008     9.866e-010     
  1.55            9.9524e-005     -2.6101e-008    1.2969e-009    
  1.6             0.000100821     -1.1901e-008    -6.241e-010    
  1.65            0.000102213     2.3167e-008     -1.4873e-009   
  1.7             0.000103344     1.6335e-008     -1.9835e-009   
  1.75            0.000104331     1.0947e-008     7.754e-010     
  1.8             0.000105272     -2.5745e-008    1.3587e-009    
  1.85            0.000106812     -1.2307e-008    -1.4657e-009   
  1.9             0.000107782     1.9209e-008     -1.6859e-009   
  1.95            0.000108927     1.2111e-008     -2.3243e-009   
  2               0.00010968      6.409e-009      2.0807e-009    
  2.05            0.000110742     -1.4907e-008    -1.22e-010     
  2.1             0.000112064     1.3029e-008     -1.8703e-009   
  2.15            0.000113145     5.918e-009      -2.4995e-009   
  2.2             0.00011379      1.0001e-008     2.8768e-009    
  2.25            0.00011525      -2.2272e-008    -1.7785e-009   
  2.3             0.00011607      -2.0523e-008    -2.7376e-009   
  2.35            0.00011725      -5.415e-009     -2.4957e-009   
  2.4             0.00011813      -1.1209e-008    5.03e-010      
  2.45            0.00011884      -5.1761e-008    1.4318e-009    
  2.5             0.00012003      -4.2796e-008    -2.653e-009    
  2.55            0.00012079      -3.209e-008     1.1461e-009    
  2.6             0.00012185      -7.2094e-008    1.966e-009     
  2.65            0.00012296      -7.2046e-008    -2.3497e-009   
  2.7             0.0001239       -6.2775e-008    7.755e-010     
  2.75            0.00012472      -1.14546e-007   1.3211e-009    
  2.8             0.00012584      -1.1125e-007    -1.1672e-009   
  2.85            0.00012673      -1.2485e-007    2.1723e-009    
  2.9             0.00012783      -1.5445e-007    -2.2169e-009   
  2.95            0.00012884      -1.5763e-007    6.147e-010     
  3               0.00012957      -2.2179e-007    1.3686e-009    
  3.05            0.00013075      -2.3581e-007    -2.7044e-009   
  3.1             0.00013146      -2.5293e-007    1.2485e-009    
  3.15            0.00013258      -3.22e-007      1.7783e-009    
  3.2             0.00013374      -3.5864e-007    -2.4548e-009   
  3.25            0.00013471      -3.8863e-007    8.668e-010     
  3.3             0.00013562      -4.8382e-007    1.2996e-009    
  3.35            0.00013685      -5.2731e-007    -2.7379e-009   
  3.4             0.0001375       -5.818e-007     1.5079e-009    
  3.45            0.00013873      -6.8649e-007    3.187e-010     
  3.5             0.00014021      -7.4843e-007    -2.3561e-009   
  3.55            0.00014098      -8.5031e-007    2.1612e-009    
  3.6             0.00014209      -9.819e-007     -4.044e-010    
  3.65            0.00014353      -1.06825e-006   -1.5077e-009   
  3.7             0.00014471      -1.1993e-006    -1.4027e-009   
  3.75            0.00014561      -1.3618e-006    2.7768e-009    
  3.8             0.00014716      -1.5454e-006    -1.3651e-009   
  3.85            0.00014827      -1.6879e-006    -1.6627e-009   
  3.9             0.0001494       -1.8942e-006    2.4957e-009    
  3.95            0.0001508       -2.131e-006     -9.631e-010    
  4               0.00015232      -2.3195e-006    -1.3521e-009   
  4.05            0.00015349      -2.5943e-006    2.8531e-009    
  4.1             0.0001553       -2.8903e-006    -1.6196e-009   
  4.15            0.00015661      -3.1579e-006    -2.786e-010    
  4.2             0.00015784      -3.5072e-006    2.4925e-009    
  4.25            0.0001597       -3.8504e-006    -2.078e-009    
  4.3             0.00016139      -4.1997e-006    4.378e-010     
  4.35            0.00016282      -4.6325e-006    1.4897e-009    
  4.4             0.00016484      -5.0514e-006    -2.6105e-009   
  4.45            0.00016654      -5.4893e-006    1.0855e-009    
  4.5             0.00016848      -6.0206e-006    2.0867e-009    
  4.55            0.00017063      -6.5278e-006    -2.2844e-009   
  4.6             0.00017276      -7.062e-006     7.096e-010     
  4.65            0.00017467      -7.7029e-006    1.3434e-009    
  4.7             0.0001772       -8.3182e-006    -2.6969e-009   
  4.75            0.00017918      -8.966e-006     1.3276e-009    
  4.8             0.00018175      -9.7187e-006    1.6831e-009    
  4.85            0.00018452      -1.04718e-005   -2.5098e-009   
  4.9             0.00018714      -1.12511e-005   9.379e-010     
  4.95            0.00018982      -1.2054e-005    -1.9375e-009   
  5               0.00019284      -1.2947e-005    1.887e-010     
END_DB

BEGIN_DB
 ICCAP_VAR VG         2              
 ICCAP_VAR VS         0              
 ICCAP_VAR VB         0              

 #VD              ID              IB              IG             
  0               -4.0467e-007    -3.86e-009      3.373e-010     
  0.05            3.0792e-005     2.7868e-008     -1.4892e-009   
  0.1             6.057e-005      1.962e-008      -1.656e-009    
  0.15            8.9185e-005     2.7497e-008     -1.3777e-009   
  0.2             0.00011639      1.1229e-008     2.5885e-009    
  0.25            0.00014179      -1.9838e-008    1.8696e-009    
  0.3             0.00016542      -1.2225e-008    1.109e-010     
  0.35            0.00018734      1.6324e-008     -2.0468e-009   
  0.4             0.00020713      2.5512e-008     -1.4212e-009   
  0.45            0.0002249       1.0987e-008     3.666e-010     
  0.5             0.00024063      -2.2039e-008    1.5317e-009    
  0.55            0.00025494      -1.1138e-008    -1.3264e-009   
  0.6             0.00026722      2.058e-008      -1.6958e-009   
  0.65            0.00027777      1.03e-008       1.0701e-009    
  0.7             0.00028713      -1.2453e-008    2.7701e-009    
  0.75            0.00029541      -1.1593e-008    -4.28e-010     
  0.8             0.00030282      2.3135e-008     -1.4979e-009   
  0.85            0.00030874      1.0567e-008     1.2809e-009    
  0.9             0.0003144       -1.7327e-008    1.738e-009     
  0.95            0.00031937      -1.1911e-008    4.27e-011      
  1               0.00032424      1.7518e-008     -1.9086e-009   
  1.05            0.0003284       2.6521e-008     -1.3965e-009   
  1.1             0.00033208      1.1179e-008     4.697e-010     
  1.15            0.0003353       -2.3527e-008    1.4568e-009    
  1.2             0.00033867      -1.1299e-008    -2.556e-010    
  1.25            0.00034205      2.0591e-008     -1.603e-009    
  1.3             0.00034452      1.0103e-008     1.1512e-009    
  1.35            0.00034737      -2.0645e-008    1.9597e-009    
  1.4             0.00034993      -1.2489e-008    1.582e-010     
  1.45            0.00035285      1.509e-008      -2.1144e-009   
  1.5             0.0003552       2.454e-008      -1.4421e-009   
  1.55            0.00035741      1.1532e-008     3.477e-010     
  1.6             0.00035928      -2.0692e-008    1.5844e-009    
  1.65            0.00036188      -1.0592e-008    -1.2865e-009   
  1.7             0.00036387      2.1879e-008     -1.7557e-009   
  1.75            0.00036559      9.75e-009       1.0354e-009    
  1.8             0.0003675       -2.3699e-008    2.1869e-009    
  1.85            0.00036928      -2.4928e-008    1.3821e-009    
  1.9             0.00037124      -1.2324e-008    -4.249e-010    
  1.95            0.0003733       2.1748e-008     -1.5086e-009   
  2               0.00037499      1.6477e-008     -1.8523e-009   
  2.05            0.00037671      2.5581e-008     -1.3892e-009   
  2.1             0.00037824      9.101e-009      5.307e-010     
  2.15            0.0003795       -2.6916e-008    1.4249e-009    
  2.2             0.00038159      -1.5522e-008    -1.4661e-009   
  2.25            0.00038304      8.962e-009      -2.1954e-009   
  2.3             0.00038456      3.974e-009      -2.5871e-009   
  2.35            0.00038595      7.621e-009      -1.7555e-009   
  2.4             0.00038718      -5.223e-009     2.4489e-009    
  2.45            0.00038863      -2.9626e-008    -8.937e-010    
  2.5             0.00039021      4.757e-009      -1.3658e-009   
  2.55            0.00039128      -2.3542e-008    2.8456e-009    
  2.6             0.00039303      -4.8914e-008    -1.5436e-009   
  2.65            0.00039415      -3.1462e-008    -1.5093e-009   
  2.7             0.00039535      -4.8714e-008    2.6297e-009    
  2.75            0.00039683      -8.1944e-008    -1.1197e-009   
  2.8             0.00039818      -6.1119e-008    -1.3256e-009   
  2.85            0.00039925      -1.0881e-007    -8.583e-010    
  2.9             0.0004003       -1.3622e-007    1.3152e-009    
  2.95            0.00040183      -1.5905e-007    -2.7202e-009   
  3               0.00040269      -1.7107e-007    1.4194e-009    
  3.05            0.00040408      -2.3032e-007    1.5685e-009    
  3.1             0.00040557      -2.6283e-007    -2.5753e-009   
  3.15            0.00040663      -2.8879e-007    1.0148e-009    
  3.2             0.00040785      -3.7392e-007    2.2117e-009    
  3.25            0.0004093       -4.1813e-007    -2.2091e-009   
  3.3             0.00041064      -4.6314e-007    6.11e-010      
  3.35            0.00041159      -5.7398e-007    1.3758e-009    
  3.4             0.00041315      -6.4153e-007    -2.6985e-009   
  3.45            0.00041413      -7.1927e-007    1.2441e-009    
  3.5             0.00041556      -8.556e-007     1.7847e-009    
  3.55            0.00041706      -9.6674e-007    -2.4439e-009   
  3.6             0.00041834      -1.08276e-006   8.677e-010     
  3.65            0.00041959      -1.2487e-006    1.7026e-009    
  3.7             0.00042118      -1.4245e-006    -2.4891e-009   
  3.75            0.00042252      -1.595e-006     9.089e-010     
  3.8             0.00042383      -1.8443e-006    1.2917e-009    
  3.85            0.00042558      -2.0582e-006    -2.7301e-009   
  3.9             0.00042672      -2.3017e-006    1.5573e-009    
  3.95            0.00042841      -2.6138e-006    2.606e-010     
  4               0.00043055      -2.9049e-006    -2.2878e-009   
  4.05            0.00043193      -3.2595e-006    2.2006e-009    
  4.1             0.00043371      -3.6698e-006    -4.651e-010    
  4.15            0.00043582      -4.0565e-006    -1.4779e-009   
