! VERSION = 6.00
BEGIN_HEADER
 ICCAP_INPUTS
  VG         V  B GROUND SMU4 0.001 LIN        2    0          5          6    1         
  VS         V  E GROUND SMU2 0.1 CON        0
  VD         V  S GROUND SMU1 0.1 LIN        1    0          5          101  0.05      
  VB         V  C GROUND SMU3 0.1 LIN        3    0          -2.5       2    -2.5      
 ICCAP_OUTPUTS
  ID         I  S GROUND SMU1 B
  IB         I  C GROUND SMU3 B
  IG         I  B GROUND SMU4 B
END_HEADER

BEGIN_DB
 ICCAP_VAR VG         0              
 ICCAP_VAR VS         0              
 ICCAP_VAR VB         0              

 #VD              ID              IB              IG             
  0               1.8364e-009     -1.1048e-008    1.5687e-009    
  0.05            1.5015e-009     -9.221e-009     1.8696e-009    
  0.1             2.3305e-009     1.0503e-008     4.584e-010     
  0.15            2.3951e-009     1.0794e-008     6.371e-010     
  0.2             1.5593e-009     2.135e-008      -1.3194e-009   
  0.25            1.993e-010      1.2067e-008     -2.6982e-009   
  0.3             -1.3216e-009    6.91e-010       -1.9509e-009   
  0.35            -2.2831e-009    -1.1368e-008    -6.351e-010    
  0.4             -1.5515e-009    -1.9814e-008    1.2727e-009    
  0.45            -1.274e-010     -1.2744e-008    2.8986e-009    
  0.5             2.129e-009      1.0429e-008     1.021e-010     
  0.55            2.2363e-009     1.0387e-008     2.735e-010     
  0.6             2.3282e-009     1.058e-008      4.507e-010     
  0.65            1.4169e-009     2.5661e-008     -1.3488e-009   
  0.7             5.15e-011       1.126e-008      -1.3185e-009   
  0.75            1.937e-010      1.1853e-008     -2.7062e-009   
  0.8             -1.3264e-009    6.93e-010       -1.9461e-009   
  0.85            -2.283e-009     -1.1254e-008    -6.243e-010    
  0.9             -2.2897e-009    -1.1205e-008    -8.149e-010    
  0.95            -1.6315e-009    -1.6162e-008    2.0457e-009    
  1               1.9129e-009     -8.495e-009     1.5402e-009    
  1.05            2.1517e-009     1.0414e-008     1.377e-010     
  1.1             2.2549e-009     1.0417e-008     3.067e-010     
  1.15            2.3421e-009     1.0626e-008     4.826e-010     
  1.2             1.4444e-009     2.5071e-008     -1.3439e-009   
  1.25            8.91e-011       1.1401e-008     -1.3136e-009   
  1.3             2.241e-010      1.2455e-008     -2.6872e-009   
  1.35            -1.3059e-009    6.9e-010        -1.9615e-009   
  1.4             -2.2855e-009    -1.1441e-008    -6.642e-010    
  1.45            -1.5652e-009    -1.9165e-008    1.2682e-009    
  1.5             -1.485e-010     -1.3044e-008    2.8924e-009    
  1.55            2.1448e-009     1.0346e-008     1.231e-010     
  1.6             2.2518e-009     1.0421e-008     2.955e-010     
  1.65            2.3442e-009     1.0609e-008     4.739e-010     
  1.7             2.4044e-009     1.0805e-008     6.478e-010     
  1.75            1.5826e-009     2.1032e-008     -1.3181e-009   
  1.8             2.138e-010      1.2144e-008     -2.689e-009    
  1.85            -1.3094e-009    6.37e-010       -1.9572e-009   
  1.9             -2.2814e-009    -1.1359e-008    -6.487e-010    
  1.95            -2.284e-009     -1.1139e-008    -8.378e-010    
  2               -2.25e-009      -1.1027e-008    -9.857e-010    
  2.05            -1.7035e-009    -1.3074e-008    1.7377e-009    
  2.1             1.6694e-009     -9.44e-009      1.7447e-009    
  2.15            1.4363e-009     9.664e-009      1.9216e-009    
  2.2             2.3652e-009     1.0574e-008     5.151e-010     
  2.25            1.4748e-009     2.4298e-008     -1.3387e-009   
  2.3             1.123e-010      1.1511e-008     -1.3107e-009   
  2.35            2.58e-010       1.2651e-008     -2.6669e-009   
  2.4             -1.2779e-009    7.21e-010       -1.978e-009    
  2.45            -2.2798e-009    -1.1245e-008    -6.983e-010    
  2.5             -1.5723e-009    -1.8464e-008    1.2632e-009    
  2.55            -1.716e-010     -1.3579e-008    2.8806e-009    
  2.6             2.1735e-009     1.0379e-008     1.565e-010     
  2.65            2.2808e-009     1.0391e-008     3.323e-010     
  2.7             2.367e-009      1.0505e-008     5.101e-010     
  2.75            1.4736e-009     2.4315e-008     -1.3399e-009   
  2.8             1.231e-010      1.1466e-008     -1.3098e-009   
  2.85            2.591e-010      1.2602e-008     -2.6713e-009   
  2.9             -1.273e-009     8.07e-010       -1.9757e-009   
  2.95            -2.2707e-009    -1.1247e-008    -6.907e-010    
  3               -1.5524e-009    -1.8556e-008    1.2652e-009    
  3.05            -1.534e-010     -1.3181e-008    2.8801e-009    
  3.1             2.1824e-009     1.0423e-008     1.492e-010     
  3.15            2.2897e-009     1.0396e-008     3.218e-010     
  3.2             2.3769e-009     1.0459e-008     4.927e-010     
  3.25            1.4822e-009     2.4563e-008     -1.3431e-009   
  3.3             1.331e-010      1.1326e-008     -1.3117e-009   
  3.35            2.668e-010      1.2301e-008     -2.6758e-009   
  3.4             -2.2236e-009    7.12e-010       -9.873e-010    
  3.45            -1.6694e-009    -1.3128e-008    1.7193e-009    
  3.5             1.6925e-009     -9.495e-009     1.7502e-009    
  3.55            1.471e-009      9.678e-009      1.9292e-009    
  3.6             2.4027e-009     1.0574e-008     5.139e-010     
  3.65            1.5199e-009     2.4106e-008     -1.3386e-009   
  3.7             1.64e-010       1.137e-008      -1.3085e-009   
  3.75            3.115e-010      1.2726e-008     -2.6651e-009   
  3.8             -2.1941e-009    7.63e-010       -1.01e-009     
  3.85            -1.6538e-009    -1.3012e-008    1.6954e-009    
  3.9             1.6842e-009     -9.355e-009     1.7713e-009    
  3.95            2.3581e-009     1.0341e-008     3.659e-010     
  4               2.4397e-009     1.056e-008      5.375e-010     
  4.05            1.567e-009      2.3524e-008     -1.3362e-009   
  4.1             2.12e-010       1.1545e-008     -1.3043e-009   
  4.15            3.63e-010       1.2794e-008     -2.6475e-009   
  4.2             -2.1491e-009    8.27e-010       -1.0306e-009   
  4.25            -1.6291e-009    -1.2838e-008    1.6659e-009    
  4.3             1.6991e-009     -9.235e-009     1.7938e-009    
  4.35            2.407e-009      1.0352e-008     3.855e-010     
  4.4             2.4956e-009     1.0576e-008     5.597e-010     
  4.45            1.635e-009      2.306e-008      -1.3291e-009   
  4.5             2.842e-010      1.1572e-008     -2.7337e-009   
  4.55            -1.9372e-009    -1.1009e-008    -7.09e-011     
  4.6             -2.0266e-009    -1.099e-008     -2.701e-010    
  4.65            -2.0892e-009    -1.106e-008     -4.652e-010    
  4.7             -2.1157e-009    -1.1331e-008    -6.667e-010    
  4.75            -1.3808e-009    -1.8968e-008    1.2675e-009    
  4.8             3.81e-011       -1.2913e-008    2.8902e-009    
  4.85            2.3431e-009     1.0344e-008     1.289e-010     
  4.9             2.4619e-009     1.0376e-008     3.009e-010     
  4.95            2.5721e-009     1.0522e-008     4.775e-010     
  5               1.6872e-009     2.4814e-008     -1.3448e-009   
END_DB

BEGIN_DB
 ICCAP_VAR VG         1              
 ICCAP_VAR VS         0              
 ICCAP_VAR VB         0              

 #VD              ID              IB              IG             
  0               -2.9883e-007    1.4596e-008     -1.2747e-009   
  0.05            2.3608e-005     -1.1105e-008    2.8797e-009    
  0.1             4.2107e-005     -1.1685e-008    -7.73e-011     
  0.15            5.6496e-005     1.7611e-008     -1.9712e-009   
  0.2             6.6797e-005     1.0526e-008     7.535e-010     
  0.25            7.4632e-005     -2.523e-008     1.3642e-009    
  0.3             8.113e-005      -1.1044e-008    -3.02e-010     
  0.35            8.6776e-005     2.0559e-008     -1.7149e-009   
  0.4             9.1243e-005     1.3046e-008     -1.623e-010    
  0.45            9.4773e-005     -1.4938e-008    2.541e-009     
  0.5             9.8796e-005     -1.0846e-008    -5.324e-010    
  0.55            0.000102859     2.3332e-008     -1.529e-009    
  0.6             0.000105383     1.0491e-008     1.1092e-009    
  0.65            0.000108587     -2.373e-008     1.2616e-009    
  0.7             0.000111883     -1.0931e-008    -7.507e-010    
  0.75            0.00011461      2.5614e-008     2.7933e-009    
  0.8             0.00011803      -1.1166e-008    -1.2537e-009   
  0.85            0.00012077      1.1995e-008     -2.4578e-009   
  0.9             0.00012246      1.0057e-008     2.0898e-009    
  0.95            0.00012516      -1.0998e-008    -2.823e-010    
  1               0.00012834      2.2254e-008     -1.5978e-009   
  1.05            0.00012983      1.0516e-008     1.1424e-009    
  1.1             0.00013223      -1.2798e-008    2.695e-009     
  1.15            0.00013488      -1.0824e-008    -5.139e-010    
  1.2             0.00013786      2.4612e-008     -1.4608e-009   
  1.25            0.00013902      1.0691e-008     1.3293e-009    
  1.3             0.00014174      -1.6284e-008    1.6814e-009    
  1.35            0.00014387      -1.1849e-008    -2.5e-011      
  1.4             0.00014691      1.8881e-008     -1.8692e-009   
  1.45            0.00014872      1.3003e-008     -1.531e-010    
  1.5             0.00015001      -1.6598e-008    2.3574e-009    
  1.55            0.00015264      -1.1044e-008    -8.174e-010    
  1.6             0.00015528      2.722e-008      -1.3702e-009   
  1.65            0.00015688      1.0169e-008     5.302e-010     
  1.7             0.00015813      -2.4823e-008    1.4205e-009    
  1.75            0.0001603       -1.1382e-008    -3.29e-010     
  1.8             0.00016284      2.2057e-008     -1.5695e-009   
  1.85            0.00016493      1.615e-008      -1.9804e-009   
  1.9             0.00016675      2.4647e-008     -1.4074e-009   
  1.95            0.00016871      1.9336e-008     -1.6158e-009   
  2               0.00017045      1.3058e-008     -2.0602e-009   
  2.05            0.00017244      7.072e-009      -2.5104e-009   
  2.1             0.00017417      1.4977e-008     -1.6706e-009   
  2.15            0.00017586      7.247e-009      -2.1334e-009   
  2.2             0.00017773      1.76e-010       -2.5607e-009   
  2.25            0.00017919      -2.0034e-008    -2.7863e-009   
  2.3             0.0001808       -1.9512e-008    -2.6167e-009   
  2.35            0.00018179      -1.25e-008      1.9165e-009    
  2.4             0.00018364      -4.1379e-008    -7.77e-011     
  2.45            0.00018635      -1.7472e-008    -1.7993e-009   
  2.5             0.00018745      -3.7079e-008    2.4468e-009    
  2.55            0.0001895       -6.7875e-008    -8.431e-010    
  2.6             0.00019147      -4.1635e-008    -1.363e-009    
  2.65            0.00019237      -7.7192e-008    2.9079e-009    
  2.7             0.00019429      -1.04899e-007   -1.3133e-009   
  2.75            0.00019642      -1.164e-007     -2.7033e-009   
  2.8             0.00019683      -1.3161e-007    1.7999e-009    
  2.85            0.00019858      -1.8122e-007    2.81e-011      
  2.9             0.00020117      -1.8125e-007    -1.9468e-009   
  2.95            0.00020217      -2.2351e-007    2.3761e-009    
  3               0.00020409      -2.8332e-007    -7.222e-010    
  3.05            0.00020595      -2.8956e-007    -1.3921e-009   
  3.1             0.00020702      -3.5848e-007    2.8563e-009    
  3.15            0.00020931      -4.3522e-007    -1.3571e-009   
  3.2             0.00021079      -4.6716e-007    -1.6684e-009   
  3.25            0.00021194      -5.5008e-007    2.5183e-009    
  3.3             0.00021378      -6.5236e-007    -9.359e-010    
  3.35            0.00021571      -7.0247e-007    -1.343e-009    
  3.4             0.0002167       -8.2671e-007    2.9312e-009    
  3.45            0.00021929      -9.5948e-007    -1.5774e-009   
  3.5             0.00022051      -1.05712e-006   -1.486e-009    
  3.55            0.00022206      -1.1941e-006    -1.5048e-009   
  3.6             0.00022335      -1.3594e-006    2.6698e-009    
  3.65            0.0002256       -1.5541e-006    -1.1006e-009   
  3.7             0.00022745      -1.6997e-006    -1.3102e-009   
  3.75            0.00022849      -1.9323e-006    2.9202e-009    
  3.8             0.00023106      -2.1863e-006    -1.7545e-009   
  3.85            0.00023253      -2.4108e-006    -1.09e-010     
  3.9             0.0002335       -2.7164e-006    2.2747e-009    
  3.95            0.00023595      -3.0181e-006    -2.1856e-009   
  4               0.00023789      -3.3227e-006    5.555e-010     
  4.05            0.00023912      -3.7241e-006    1.4054e-009    
  4.1             0.00024164      -4.0951e-006    -2.7258e-009   
  4.15            0.00024303      -4.4915e-006    1.1767e-009    
  4.2             0.00024532      -4.9875e-006    1.93e-009      
  4.25            0.00024782      -5.4663e-006    -2.3783e-009   
  4.3             0.00024978      -5.963e-006     7.78e-010      
  4.35            0.00025154      -6.5803e-006    1.3132e-009    
  4.4             0.00025443      -7.1629e-006    -2.7928e-009   
  4.45            0.00025574      -7.7765e-006    1.3829e-009    
  4.5             0.00025843      -8.5076e-006    1.6071e-009    
  4.55            0.00026139      -9.2377e-006    -2.5826e-009   
  4.6             0.00026349      -9.982e-006     9.726e-010     
  4.65            0.00026603      -1.08793e-005   1.2669e-009    
  4.7             0.00026845      -1.1688e-005    2.0211e-009    
  4.75            0.00027174      -1.2632e-005    -2.3208e-009   
  4.8             0.00027441      -1.3586e-005    7.176e-010     
  4.85            0.00027672      -1.4702e-005    1.3315e-009    
  4.9             0.00028029      -1.5778e-005    -2.777e-009    
  4.95            0.00028239      -1.6884e-005    1.329e-009     
  5               0.00028591      -1.8164e-005    1.6871e-009    
END_DB

BEGIN_DB
 ICCAP_VAR VG         2              
 ICCAP_VAR VS         0              
 ICCAP_VAR VB         0              

 #VD              ID              IB              IG             
  0               -1.1771e-006    -2.5214e-008    -1.033e-009    
  0.05            8.5188e-005     1.0389e-008     -2.7922e-009   
  0.1             0.00016727      1.027e-008      2.5125e-009    
  0.15            0.00024555      -1.1336e-008    -9.28e-010     
  0.2             0.00031963      2.7892e-008     -1.3452e-009   
  0.25            0.00038843      1.0316e-008     6.601e-010     
  0.3             0.00045184      -2.5455e-008    1.3507e-009    
  0.35            0.00050986      -1.0776e-008    -4.783e-010    
  0.4             0.0005624       2.4194e-008     -1.4732e-009   
  0.45            0.00060806      1.0681e-008     1.2985e-009    
  0.5             0.00064897      -1.7006e-008    1.7304e-009    
  0.55            0.00068448      -1.1864e-008    2.9e-012       
  0.6             0.00071585      1.8105e-008     -1.9124e-009   
  0.65            0.00074163      1.0857e-008     9.088e-010     
  0.7             0.00076391      -2.5486e-008    1.2791e-009    
  0.75            0.00078357      -1.0923e-008    -7.81e-010     
  0.8             0.00080056      2.7102e-008     -1.3758e-009   
  0.85            0.00081472      1.0305e-008     4.923e-010     
  0.9             0.00082639      -2.406e-008     1.4392e-009    
  0.95            0.00083749      -1.097e-008     -2.884e-010    
  1               0.00084844      2.1914e-008     -1.5885e-009   
  1.05            0.00085621      1.0514e-008     1.1471e-009    
  1.1             0.00086466      -2.0654e-008    1.9822e-009    
  1.15            0.00087293      -1.1465e-008    -1.0214e-009   
  1.2             0.00088016      2.7168e-008     -1.3253e-009   
  1.25            0.00088603      1.0503e-008     7.647e-010     
  1.3             0.0008917       -2.6007e-008    1.3136e-009    
  1.35            0.00089771      -1.0938e-008    -6.018e-010    
  1.4             0.00090413      2.5508e-008     -1.4242e-009   
  1.45            0.00090922      1.0241e-008     3.321e-010     
  1.5             0.00091295      -2.2018e-008    1.5934e-009    
  1.55            0.00091912      -1.1156e-008    -1.2718e-009   
  1.6             0.0009238       1.2265e-008     -2.4527e-009   
  1.65            0.00092696      9.842e-009      2.1084e-009    
  1.7             0.00093142      -1.0922e-008    -3.039e-010    
  1.75            0.00093662      2.1987e-008     -1.5792e-009   
  1.8             0.00093941      1.0371e-008     1.1613e-009    
  1.85            0.00094361      -2.0505e-008    1.9563e-009    
  1.9             0.00094811      -1.1852e-008    -1.0322e-009   
  1.95            0.00095214      1.0822e-008     -2.6794e-009   
  2               0.00095558      1.6948e-008     -1.9048e-009   
  2.05            0.0009592       2.4986e-008     -1.3859e-009   
  2.1             0.00096225      1.9821e-008     -1.5652e-009   
  2.15            0.00096565      1.3466e-008     -1.9822e-009   
  2.2             0.0009691       6.718e-009      -2.4674e-009   
  2.25            0.00097216      4.162e-009      -2.734e-009    
  2.3             0.00097536      5.752e-009      -2.0673e-009   
  2.35            0.00097741      -4.752e-009     2.3224e-009    
  2.4             0.00098041      -3.0179e-008    -6.357e-010    
  2.45            0.00098416      3.3e-011        -1.4115e-009   
  2.5             0.00098615      -2.5839e-008    2.8119e-009    
  2.55            0.00098973      -5.5205e-008    -1.2747e-009   
  2.6             0.00099232      -3.46e-008      -1.7544e-009   
  2.65            0.0009943       -6.3295e-008    2.4631e-009    
  2.7             0.00099701      -1.01958e-007   9.973e-010     
  2.75            0.00100057      -1.2531e-007    -1.5712e-009   
  2.8             0.00100254      -1.2515e-007    -1.4828e-009   
  2.85            0.0010046       -1.6436e-007    2.6899e-009    
  2.9             0.00100773      -2.2119e-007    -1.1269e-009   
  2.95            0.00101035      -2.2879e-007    -1.3071e-009   
  3               0.00101185      -3.0381e-007    2.9067e-009    
  3.05            0.00101533      -3.7796e-007    -1.7712e-009   
  3.1             0.00101715      -4.2344e-007    -8.89e-011     
  3.15            0.00101856      -5.3304e-007    2.2481e-009    
  3.2             0.00102175      -6.1674e-007    -2.2096e-009   
  3.25            0.00102424      -7.0235e-007    5.784e-010     
  3.3             0.00102569      -8.5732e-007    1.3883e-009    
  3.35            0.00102884      -9.7609e-007    -2.7438e-009   
  3.4             0.00103036      -1.11377e-006   1.2007e-009    
  3.45            0.00103294      -1.3088e-006    1.3833e-009    
  3.5             0.00103611      -1.5031e-006    -2.7385e-009   
  3.55            0.00103765      -1.7098e-006    1.1958e-009    
  3.6             0.00104047      -1.9922e-006    1.8872e-009    
  3.65            0.00104342      -2.261e-006     -2.3983e-009   
  3.7             0.00104577      -2.5577e-006    7.962e-010     
  3.75            0.00104777      -2.9437e-006    1.305e-009     
  3.8             0.00105114      -3.3178e-006    -2.7902e-009   
  3.85            0.00105246      -3.7399e-006    1.411e-009     
  3.9             0.00105571      -4.2516e-006    1.5806e-009    
  3.95            0.00105913      -4.7828e-006    -2.6015e-009   
  4               0.00106141      -5.3596e-006    9.945e-010     
  4.05            0.0010644       -6.0561e-006    1.2656e-009    
  4.1             0.00106808      -6.7619e-006    -2.7679e-009   
  4.15            0.00106982      -7.5482e-006    1.6345e-009    
