! VERSION = 6.00
BEGIN_HEADER
 ICCAP_INPUTS
  VG         V  B GROUND SMU4 0.001 LIN        2    0          5          6    1         
  VS         V  E GROUND SMU2 0.1 CON        0
  VD         V  S GROUND SMU1 0.1 LIN        1    0          5          101  0.05      
  VB         V  C GROUND SMU3 0.1 LIN        3    0          -2.5       2    -2.5      
 ICCAP_OUTPUTS
  ID         I  S GROUND SMU1 B
  IB         I  C GROUND SMU3 B
  IG         I  B GROUND SMU4 B
END_HEADER

BEGIN_DB
 ICCAP_VAR VG         0              
 ICCAP_VAR VS         0              
 ICCAP_VAR VB         0              

 #VD              ID              IB              IG             
  0               2.3077e-009     -1.3265e-008    2.3045e-009    
  0.05            2.0871e-009     -5.947e-009     1.3741e-009    
  0.1             2.0444e-009     1.0752e-008     -2.06e-011     
  0.15            2.1436e-009     1.1176e-008     1.586e-010     
  0.2             2.2414e-009     1.1015e-008     3.576e-010     
  0.25            1.3557e-009     2.6378e-008     -1.3701e-009   
  0.3             1.1e-011        1.1481e-008     -1.3344e-009   
  0.35            1.514e-010      1.2255e-008     -2.6838e-009   
  0.4             -1.3266e-009    3.78e-010       -1.9089e-009   
  0.45            -1.6513e-009    -1.3653e-008    1.7622e-009    
  0.5             1.6746e-009     -9.143e-009     1.7186e-009    
  0.55            2.23e-009       1.1122e-008     3.261e-010     
  0.6             1.34e-009       2.6782e-008     -1.3764e-009   
  0.65            -1.02e-011      1.1552e-008     -1.3399e-009   
  0.7             1.417e-010      1.2143e-008     -2.694e-009    
  0.75            -1.3364e-009    2.96e-010       -1.8928e-009   
  0.8             -2.1973e-009    -1.1704e-008    -5.878e-010    
  0.85            -1.4793e-009    -2.0244e-008    1.2792e-009    
  0.9             -7e-011         -1.3244e-008    2.8586e-009    
  0.95            2.141e-009      1.0937e-008     9.25e-011      
  1               2.2468e-009     1.1155e-008     2.901e-010     
  1.05            2.3409e-009     1.1153e-008     4.925e-010     
  1.1             1.5124e-009     2.455e-008      -1.3474e-009   
  1.15            1.642e-010      1.1719e-008     -2.7057e-009   
  1.2             -2.1407e-009    2.31e-010       -8.746e-010    
  1.25            -2.1014e-009    -1.0941e-008    -1.0365e-009   
  1.3             -1.5994e-009    -1.259e-008     1.6064e-009    
  1.35            1.6428e-009     -8.891e-009     1.8398e-009    
  1.4             2.4321e-009     1.1091e-008     4.472e-010     
  1.45            1.6118e-009     2.5349e-008     -1.3534e-009   
  1.5             2.978e-010      1.1734e-008     -2.7125e-009   
  1.55            -1.2732e-009    -1.0972e-008    1.2732e-009    
  1.6             1.4175e-009     -1.4202e-008    2.4118e-009    
  1.65            2.6353e-009     1.0978e-008     1.1218e-009    
  1.7             1.5259e-009     2.7238e-008     -1.4611e-009   
  1.75            2.65e-010       1.0159e-008     -1.396e-009    
  1.8             5.005e-010      1.1494e-008     -1.3585e-009   
  1.85            7.475e-010      1.1593e-008     -1.3299e-009   
  1.9             1.0191e-009     1.2834e-008     -2.6636e-009   
  1.95            -9.804e-010     5.35e-010       9.48e-011      
  2               2.733e-010      -1.1388e-008    1.8817e-009    
  2.05            2.4014e-009     -9.161e-009     2.5508e-009    
  2.1             3.7018e-009     1.1188e-008     2.377e-010     
  2.15            4.0721e-009     1.1186e-008     4.392e-010     
  2.2             3.5406e-009     2.5443e-008     -1.3563e-009   
  2.25            2.5688e-009     1.1653e-008     -2.717e-009    
  2.3             6.743e-010      -1.09e-008      -1.0478e-009   
  2.35            2.321e-009      -2.4572e-008    1.5893e-009    
  2.4             4.2263e-009     -8.76e-009      1.4162e-009    
  2.45            4.7433e-009     -8.773e-009     1.3325e-009    
  2.5             5.2923e-009     -8.828e-009     1.2917e-009    
  2.55            6.3181e-009     -1.1544e-008    2.8726e-009    
  2.6             7.8088e-009     -3.47e-010      2.8147e-009    
  2.65            1.0184e-008     1.1254e-008     1.971e-010     
  2.7             1.0432e-008     -1.1724e-008    1.6156e-009    
  2.75            1.2526e-008     -1.1356e-008    2.846e-009     
  2.8             1.1388e-008     -2.2864e-008    2.103e-009     
  2.85            1.3116e-008     -1.2319e-008    1.334e-010     
  2.9             1.5291e-008     9.036e-009      -1.3732e-009   
  2.95            2.0796e-008     1.1072e-008     6.882e-010     
  3               2.1987e-008     -1.5167e-008    2.547e-009     
  3.05            2.22e-008       -1.0941e-008    -1.2451e-009   
  3.1             2.829e-008      1.9872e-008     -1.6308e-009   
  3.15            3.3176e-008     1.0708e-008     1.23e-010      
  3.2             3.627e-008      -8.678e-009     2.8748e-009    
  3.25            3.7873e-008     -1.2107e-008    -7.693e-010    
  3.3             4.5898e-008     1.3434e-008     -2.3455e-009   
  3.35            5.3766e-008     9.766e-009      1.1829e-009    
  3.4             5.7836e-008     -2.0466e-008    1.6795e-009    
  3.45            6.3194e-008     -1.2076e-008    -1.267e-010    
  3.5             7.2864e-008     1.0137e-008     -1.3273e-009   
  3.55            8.3324e-008     2.5685e-008     -1.3878e-009   
  3.6             9.2957e-008     9.829e-009      6.186e-010     
  3.65            1.02285e-007    -1.6191e-008    2.6249e-009    
  3.7             1.1571e-007     -1.0551e-008    2.431e-010     
  3.75            1.2653e-007     -1.9483e-008    2.2294e-009    
  3.8             1.3819e-007     -1.3037e-008    -1.9357e-009   
  3.85            1.578e-007      1.5039e-008     -1.8316e-009   
  3.9             1.7571e-007     7.446e-009      -2.6663e-009   
  3.95            1.931e-007      8.334e-009      -2.4317e-009   
  4               2.1347e-007     1.0491e-008     -2.0503e-009   
  4.05            2.3583e-007     1.264e-008      -1.6778e-009   
  4.1             2.5926e-007     3.909e-009      -2.5806e-009   
  4.15            2.8561e-007     4.536e-009      -2.2751e-009   
  4.2             3.1419e-007     6.943e-009      -1.8739e-009   
  4.25            3.44e-007       -1.397e-009     -2.6777e-009   
  4.3             3.7869e-007     -2.365e-009     -2.4647e-009   
  4.35            4.0697e-007     -6.678e-009     1.706e-009     
  4.4             4.483e-007      -3.6486e-008    1.6579e-009    
  4.45            4.8879e-007     -3.393e-008     -2.1824e-009   
  4.5             5.4184e-007     -1.6868e-008    1.727e-010     
  4.55            5.8702e-007     -4.8419e-008    2.3431e-009    
  4.6             6.3887e-007     -5.0344e-008    -1.8995e-009   
  4.65            7.0685e-007     -2.8907e-008    -2.375e-010    
  4.7             7.607e-007      -5.9528e-008    2.8194e-009    
  4.75            8.3527e-007     -6.8189e-008    -1.5677e-009   
  4.8             9.167e-007      -4.0325e-008    -1.8324e-009   
  4.85            9.8322e-007     -6.3792e-008    2.1432e-009    
  4.9             1.0751e-006     -9.6654e-008    -1.573e-010    
  4.95            1.1619e-006     -1.0504e-007    2.8687e-009    
  5               1.2707e-006     -1.2098e-007    -1.1641e-009   
END_DB

BEGIN_DB
 ICCAP_VAR VG         1              
 ICCAP_VAR VS         0              
 ICCAP_VAR VB         0              

 #VD              ID              IB              IG             
  0               -1.273e-007     1.085e-008      -1.1554e-009   
  0.05            7.7938e-006     1.0357e-008     1.6698e-009    
  0.1             1.4571e-005     -2.0276e-008    9.276e-010     
  0.15            2.0217e-005     -2.6076e-008    1.3041e-009    
  0.2             2.4874e-005     -1.1746e-008    -5.223e-010    
  0.25            2.8677e-005     2.2643e-008     -1.5196e-009   
  0.3             3.158e-005      1.023e-008      1.1134e-009    
  0.35            3.4116e-005     -2.3639e-008    2.2025e-009    
  0.4             3.6296e-005     -1.1612e-008    -7.793e-010    
  0.45            3.8242e-005     2.5806e-008     -1.4201e-009   
  0.5             3.9667e-005     1.0462e-008     1.3146e-009    
  0.55            4.1246e-005     -1.9023e-008    1.8565e-009    
  0.6             4.2604e-005     -1.2837e-008    2.078e-010     
  0.65            4.4129e-005     1.3575e-008     -2.3661e-009   
  0.7             4.5191e-005     1.0198e-008     2.0332e-009    
  0.75            4.637e-005      -1.1514e-008    -7.27e-011     
  0.8             4.7672e-005     1.7694e-008     -1.9301e-009   
  0.85            4.8668e-005     1.1103e-008     7.894e-010     
  0.9             4.9608e-005     -2.5477e-008    1.3483e-009    
  0.95            5.0676e-005     -1.124e-008     -3.401e-010    
  1               5.1804e-005     1.9844e-008     -1.658e-009    
  1.05            5.2611e-005     1.0927e-008     9.771e-010     
  1.1             5.352e-005      -2.5814e-008    1.292e-009     
  1.15            5.4481e-005     -1.175e-008     -5.927e-010    
  1.2             5.5501e-005     2.3751e-008     -1.4863e-009   
  1.25            5.6322e-005     1.1088e-008     6.59e-011      
  1.3             5.6973e-005     -1.8164e-008    2.1057e-009    
  1.35            5.7948e-005     -1.1825e-008    -8.318e-010    
  1.4             5.8874e-005     2.6426e-008     -1.4011e-009   
  1.45            5.9626e-005     1.0503e-008     2.923e-010     
  1.5             6.0241e-005     -1.9616e-008    1.759e-009     
  1.55            6.1175e-005     -1.1673e-008    -1.0175e-009   
  1.6             6.2004e-005     2.7794e-008     -1.3548e-009   
  1.65            6.2667e-005     1.1024e-008     5.358e-010     
  1.7             6.3253e-005     -2.3014e-008    1.502e-009     
  1.75            6.4225e-005     -1.0958e-008    -1.2176e-009   
  1.8             6.4963e-005     1.1088e-008     -2.5915e-009   
  1.85            6.5648e-005     1.6719e-008     -1.9301e-009   
  1.9             6.637e-005      2.3994e-008     -1.4445e-009   
  1.95            6.7045e-005     1.6922e-008     -1.8499e-009   
  2               6.7773e-005     1.0929e-008     -2.4736e-009   
  2.05            6.8432e-005     1.6352e-008     -1.7707e-009   
  2.1             6.9117e-005     9.988e-009      -2.4042e-009   
  2.15            6.9777e-005     1.498e-008      -1.6953e-009   
  2.2             7.0471e-005     8.109e-009      -2.3301e-009   
  2.25            7.1122e-005     4.228e-009      -2.7062e-009   
  2.3             7.1804e-005     5.04e-009       -2.2439e-009   
  2.35            7.2443e-005     -2.92e-010      -2.6854e-009   
  2.4             7.3081e-005     2.77e-010       -2.1532e-009   
  2.45            7.3561e-005     -8.099e-009     2.1631e-009    
  2.5             7.4203e-005     -3.3831e-008    -2.589e-010    
  2.55            7.5e-005        -2.2859e-008    -1.4979e-009   
  2.6             7.5527e-005     -2.5907e-008    2.5457e-009    
  2.65            7.6214e-005     -5.232e-008     -8.779e-010    
  2.7             7.6947e-005     -2.1409e-008    -1.3882e-009   
  2.75            7.7427e-005     -4.9326e-008    2.7581e-009    
  2.8             7.8228e-005     -7.9225e-008    -1.1583e-009   
  2.85            7.8895e-005     -5.4319e-008    -1.3323e-009   
  2.9             7.9406e-005     -8.664e-008     -2.38e-010     
  2.95            7.9908e-005     -1.2555e-007    2.606e-009     
  3               8.0761e-005     -1.4034e-007    -1.9264e-009   
  3.05            8.1451e-005     -1.3863e-007    4.12e-011      
  3.1             8.1889e-005     -1.9111e-007    2.1525e-009    
  3.15            8.2693e-005     -2.1031e-007    -2.1252e-009   
  3.2             8.3408e-005     -2.1884e-007    3.589e-010     
  3.25            8.3883e-005     -2.836e-007     1.6738e-009    
  3.3             8.4681e-005     -3.0992e-007    -2.3988e-009   
  3.35            8.536e-005      -3.3188e-007    6.904e-010     
  3.4             8.5914e-005     -4.152e-007     1.3976e-009    
  3.45            8.6757e-005     -4.503e-007     -2.6289e-009   
  3.5             8.7382e-005     -4.8972e-007    9.702e-010     
  3.55            8.8077e-005     -5.9159e-007    1.2963e-009    
  3.6             8.8935e-005     -6.4357e-007    -2.7314e-009   
  3.65            8.9464e-005     -7.0501e-007    1.2474e-009    
  3.7             9.0337e-005     -8.2353e-007    1.9481e-009    
  3.75            9.121e-005      -9.0828e-007    -2.2242e-009   
  3.8             9.2051e-005     -9.9203e-007    4.959e-010     
  3.85            9.2684e-005     -1.14164e-006   1.5325e-009    
  3.9             9.3558e-005     -1.2424e-006    2.0389e-009    
  3.95            9.452e-005      -1.3904e-006    -2.1705e-009   
  4               9.5473e-005     -1.5175e-006    4.226e-010     
  4.05            9.6188e-005     -1.7099e-006    1.6018e-009    
  4.1             9.7274e-005     -1.877e-006     -2.4529e-009   
  4.15            9.8248e-005     -2.0448e-006    7.476e-010     
  4.2             9.9124e-005     -2.2875e-006    1.3678e-009    
  4.25            0.000100332     -2.4913e-006    -2.6577e-009   
  4.3             0.000101287     -2.7074e-006    1.0199e-009    
  4.35            0.000102418     -3.004e-006     1.2856e-009    
  4.4             0.000103701     -3.2527e-006    -2.7393e-009   
  4.45            0.000104678     -3.5274e-006    1.306e-009     
  4.5             0.000106037     -3.8741e-006    1.8646e-009    
  4.55            0.000107441     -4.1954e-006    -2.278e-009    
  4.6             0.000108823     -4.525e-006     5.553e-010     
  4.65            0.000110018     -4.941e-006     1.4859e-009    
  4.7             0.00011168      -5.3333e-006    -2.5537e-009   
  4.75            0.000113155     -5.7365e-006    8.56e-010      
  4.8             0.00011494      -6.2366e-006    -2.0745e-009   
  4.85            0.00011641      -6.6627e-006    2.2938e-009    
  4.9             0.0001182       -7.2055e-006    -6.194e-010    
  4.95            0.0001202       -7.7101e-006    -1.4239e-009   
  5               0.00012191      -8.3037e-006    2.7534e-009    
END_DB

BEGIN_DB
 ICCAP_VAR VG         2              
 ICCAP_VAR VS         0              
 ICCAP_VAR VB         0              

 #VD              ID              IB              IG             
  0               -2.9792e-007    2.3385e-008     -1.3302e-009   
  0.05            2.0305e-005     -2.5885e-008    1.3381e-009    
  0.1             3.9952e-005     -1.8072e-008    1.8102e-009    
  0.15            5.8733e-005     -1.2706e-008    1.858e-010     
  0.2             7.6698e-005     1.3663e-008     -2.323e-009    
  0.25            9.3355e-005     1.0232e-008     2.0572e-009    
  0.3             0.000108915     -1.1551e-008    -1.037e-010    
  0.35            0.00012336      1.1342e-008     -1.5511e-009   
  0.4             0.0001363       1.1083e-008     9.71e-011      
  0.45            0.00014777      -1.917e-008     1.8542e-009    
  0.5             0.0001581       -2.6084e-008    1.3168e-009    
  0.55            0.00016739      -1.1783e-008    -6.286e-010    
  0.6             0.00017545      2.5709e-008     -1.4233e-009   
  0.65            0.00018245      1.0861e-008     3.59e-010      
  0.7             0.00018834      -2.2352e-008    1.5414e-009    
  0.75            0.0001937       -1.1495e-008    -1.501e-010    
  0.8             0.0001984       1.9444e-008     -1.7024e-009   
  0.85            0.00020233      1.0129e-008     1.0439e-009    
  0.9             0.00020588      -1.1853e-008    2.7601e-009    
  0.95            0.00020924      -1.1347e-008    -4.028e-010    
  1               0.00021238      2.306e-008      -1.5084e-009   
  1.05            0.00021475      1.0305e-008     1.2462e-009    
  1.1             0.00021722      -1.7773e-008    1.7746e-009    
  1.15            0.00021948      -1.2145e-008    5.65e-011      
  1.2             0.00022161      1.7461e-008     -1.945e-009    
  1.25            0.00022374      2.611e-008      -1.4034e-009   
  1.3             0.00022542      1.0934e-008     4.264e-010     
  1.35            0.00022705      -2.3226e-008    1.4844e-009    
  1.4             0.00022898      -1.1243e-008    -2.109e-010    
  1.45            0.0002309       2.0258e-008     -1.6363e-009   
  1.5             0.00023218      9.9e-009        1.1035e-009    
  1.55            0.00023353      -1.2999e-008    2.7101e-009    
  1.6             0.00023508      -1.1485e-008    -4.778e-010    
  1.65            0.00023648      2.407e-008      -1.4773e-009   
  1.7             0.00023757      1.0638e-008     1.3058e-009    
  1.75            0.00023906      -1.6605e-008    1.6919e-009    
  1.8             0.00024064      -1.0635e-008    -1.1825e-009   
  1.85            0.00024177      1.1986e-008     -2.5035e-009   
  1.9             0.00024259      1.0007e-008     2.0274e-009    
  1.95            0.00024381      -1.1697e-008    -2.131e-010    
  2               0.00024527      1.972e-008      -1.6391e-009   
  2.05            0.00024606      9.181e-009      1.1031e-009    
  2.1             0.00024727      -2.2737e-008    2.0211e-009    
  2.15            0.00024837      -1.3836e-008    -9.843e-010    
  2.2             0.00024957      8.382e-009      -2.6668e-009   
  2.25            0.00025066      1.3214e-008     -1.9429e-009   
  2.3             0.00025168      7.375e-009      -2.4e-009      
  2.35            0.00025255      3.922e-009      -2.6799e-009   
  2.4             0.00025342      7.013e-009      -1.9836e-009   
  2.45            0.00025441      -3.171e-009     2.3337e-009    
  2.5             0.0002554       -2.7979e-008    -6.995e-010    
  2.55            0.00025624      -2.8247e-008    -2.7072e-009   
  2.6             0.0002568       -1.5893e-008    1.2477e-009    
  2.65            0.0002579       -5.0643e-008    1.7735e-009    
  2.7             0.00025888      -4.896e-008     -2.4517e-009   
  2.75            0.00025981      -3.9002e-008    8.624e-010     
  2.8             0.0002606       -8.6644e-008    1.2935e-009    
  2.85            0.00026149      -7.9303e-008    -2.7394e-009   
  2.9             0.00026221      -7.7506e-008    1.4958e-009    
  2.95            0.0002633       -1.3198e-007    2.8586e-009    
  3               0.00026431      -1.3904e-007    -1.7739e-009   
  3.05            0.00026503      -1.3842e-007    -7.81e-011     
  3.1             0.0002657       -1.9514e-007    2.1754e-009    
  3.15            0.00026672      -2.1736e-007    -2.2158e-009   
  3.2             0.00026748      -2.323e-007     6.259e-010     
  3.25            0.00026828      -3.0837e-007    1.3695e-009    
  3.3             0.00026928      -3.3628e-007    -2.7032e-009   
  3.35            0.00026999      -3.699e-007     1.2411e-009    
  3.4             0.00027076      -4.5599e-007    1.7896e-009    
  3.45            0.00027185      -5.1152e-007    -2.4468e-009   
  3.5             0.00027271      -5.6563e-007    8.592e-010     
  3.55            0.00027352      -6.8476e-007    1.2962e-009    
  3.6             0.00027463      -7.5721e-007    -2.7366e-009   
  3.65            0.00027518      -8.4423e-007    1.4876e-009    
  3.7             0.00027634      -9.8352e-007    2.948e-010     
  3.75            0.00027759      -1.08472e-006   -2.3345e-009   
  3.8             0.0002784       -1.2255e-006    -1.696e-010    
  3.85            0.00027929      -1.4124e-006    2.335e-009     
  3.9             0.0002805       -1.5823e-006    -2.134e-009    
  3.95            0.00028151      -1.7537e-006    5.102e-010     
  4               0.0002824       -1.9997e-006    1.4261e-009    
  4.05            0.00028376      -2.2185e-006    -2.6679e-009   
  4.1             0.00028485      -2.4585e-006    1.143e-009     
  4.15            0.00028611      -2.7723e-006    1.9356e-009    
