! VERSION = 6.00
BEGIN_HEADER
 ICCAP_INPUTS
  VG         V  B GROUND SMU4 0.001 LIN        2    0          5          6    1         
  VS         V  E GROUND SMU2 0.1 CON        0
  VD         V  S GROUND SMU1 0.1 LIN        1    0          5          101  0.05      
  VB         V  C GROUND SMU3 0.1 LIN        3    0          -2.5       2    -2.5      
 ICCAP_OUTPUTS
  ID         I  S GROUND SMU1 B
  IB         I  C GROUND SMU3 B
  IG         I  B GROUND SMU4 B
END_HEADER

BEGIN_DB
 ICCAP_VAR VG         0              
 ICCAP_VAR VS         0              
 ICCAP_VAR VB         0              

 #VD              ID              IB              IG             
  0               -2.2192e-009    1.5101e-008     -2.3175e-009   
  0.05            -2.0749e-009    2.804e-009      -1.3301e-009   
  0.1             -1.906e-009     -1.1649e-008    1.494e-010     
  0.15            -2.0365e-009    -1.1016e-008    -1.61e-011     
  0.2             -2.1566e-009    -1.0962e-008    -1.987e-010    
  0.25            -2.2309e-009    -1.1005e-008    -4.053e-010    
  0.3             -2.2755e-009    -1.1429e-008    -6.061e-010    
  0.35            -2.2794e-009    -1.1384e-008    -8.041e-010    
  0.4             -1.6182e-009    -1.6542e-008    2.0475e-009    
  0.45            1.916e-009      -8.847e-009     1.5468e-009    
  0.5             2.1373e-009     1.0212e-008     1.363e-010     
  0.55            2.2458e-009     1.0232e-008     3.155e-010     
  0.6             2.332e-009      1.0487e-008     4.98e-010      
  0.65            1.4576e-009     2.4949e-008     -1.3345e-009   
  0.7             9.59e-011       1.1278e-008     -1.3064e-009   
  0.75            2.374e-010      1.2579e-008     -2.6696e-009   
  0.8             -1.284e-009     6.18e-010       -1.967e-009    
  0.85            -2.2813e-009    -1.1471e-008    -7.02e-010     
  0.9             -1.5766e-009    -1.871e-008     1.2523e-009    
  0.95            -1.937e-010     -1.3897e-008    2.8634e-009    
  1               2.1561e-009     1.0284e-008     1.632e-010     
  1.05            2.2645e-009     1.0314e-008     3.42e-010      
  1.1             2.3424e-009     1.0634e-008     5.294e-010     
  1.15            1.4739e-009     2.4281e-008     -1.3295e-009   
  1.2             1.129e-010      1.1232e-008     -1.3022e-009   
  1.25            2.607e-010      1.3073e-008     -2.649e-009    
  1.3             -1.2677e-009    6.84e-010       -1.9839e-009   
  1.35            -2.2836e-009    -1.1414e-008    -7.368e-010    
  1.4             -1.5915e-009    -1.7919e-008    1.2496e-009    
  1.45            -2.229e-010     -1.4145e-008    2.8469e-009    
  1.5             2.175e-009      1.0199e-008     1.919e-010     
  1.55            2.2823e-009     1.0248e-008     3.786e-010     
  1.6             2.3549e-009     1.0658e-008     5.586e-010     
  1.65            1.5031e-009     2.3545e-008     -1.3252e-009   
  1.7             1.424e-010      1.1558e-008     -2.726e-009    
  1.75            -1.3685e-009    4.05e-010       -1.9068e-009   
  1.8             -2.2705e-009    -1.1205e-008    -5.736e-010    
  1.85            -2.2801e-009    -1.1344e-008    -7.725e-010    
  1.9             -1.6066e-009    -1.7313e-008    1.246e-009     
  1.95            -2.527e-010     -1.4736e-008    2.8305e-009    
  2               2.1977e-009     1.0301e-008     2.242e-010     
  2.05            2.295e-009      1.0338e-008     4.122e-010     
  2.1             2.361e-009      1.0677e-008     5.87e-010      
  2.15            1.529e-009      2.2649e-008     -1.3201e-009   
  2.2             1.632e-010      1.1604e-008     -2.7135e-009   
  2.25            -1.3423e-009    5.37e-010       -1.9227e-009   
  2.3             -2.2746e-009    -1.1307e-008    -6.042e-010    
  2.35            -2.2812e-009    -1.1287e-008    -8.028e-010    
  2.4             -1.6194e-009    -1.6583e-008    2.0514e-009    
  2.45            1.9099e-009     -8.821e-009     1.5435e-009    
  2.5             2.1355e-009     1.0212e-008     1.339e-010     
  2.55            2.2454e-009     1.019e-008      3.087e-010     
  2.6             2.331e-009      1.0535e-008     4.887e-010     
  2.65            1.4529e-009     2.5109e-008     -1.3349e-009   
  2.7             9.04e-011       1.1241e-008     -1.3063e-009   
  2.75            2.301e-010      1.267e-008      -2.6673e-009   
  2.8             -1.289e-009     7.19e-010       -1.9658e-009   
  2.85            -2.2814e-009    -1.1408e-008    -6.92e-010     
  2.9             -1.5746e-009    -1.8837e-008    1.2559e-009    
  2.95            -1.846e-010     -1.3581e-008    2.8659e-009    
  3               2.1545e-009     1.0202e-008     1.593e-010     
  3.05            2.2624e-009     1.0307e-008     3.415e-010     
  3.1             2.3432e-009     1.0528e-008     5.146e-010     
  3.15            1.467e-009      2.4488e-008     -1.33e-009     
  3.2             1.102e-010      1.1386e-008     -1.3025e-009   
  3.25            2.544e-010      1.297e-008      -2.657e-009    
  3.3             -1.2743e-009    6.33e-010       -1.9779e-009   
  3.35            -2.2788e-009    -1.1441e-008    -7.225e-010    
  3.4             -1.5858e-009    -1.825e-008     1.2528e-009    
  3.45            -2.092e-010     -1.4057e-008    2.856e-009     
  3.5             2.1642e-009     1.0309e-008     1.82e-010      
  3.55            2.2711e-009     1.0281e-008     3.597e-010     
  3.6             2.3466e-009     1.0551e-008     5.354e-010     
  3.65            1.4845e-009     2.3959e-008     -1.3274e-009   
  3.7             1.224e-010      1.1291e-008     -1.3003e-009   
  3.75            2.695e-010      1.305e-008      -2.644e-009    
  3.8             -1.2652e-009    6.03e-010       -1.9871e-009   
  3.85            -2.2825e-009    -1.1465e-008    -7.41e-010     
  3.9             -1.5914e-009    -1.7698e-008    1.2509e-009    
  3.95            -2.192e-010     -1.4246e-008    2.8488e-009    
  4               2.1743e-009     1.031e-008      1.916e-010     
  4.05            2.2801e-009     1.0341e-008     3.765e-010     
  4.1             2.3523e-009     1.0586e-008     5.51e-010      
  4.15            1.4972e-009     2.3637e-008     -1.3248e-009   
  4.2             1.367e-010      1.1356e-008     -2.7302e-009   
  4.25            -1.3687e-009    3.51e-010       -1.9017e-009   
  4.3             -2.2659e-009    -1.126e-008     -5.611e-010    
  4.35            -2.2785e-009    -1.1396e-008    -7.614e-010    
  4.4             -1.6001e-009    -1.7359e-008    1.2472e-009    
  4.45            -2.377e-010     -1.4451e-008    2.8367e-009    
  4.5             2.1889e-009     1.0169e-008     2.157e-010     
  4.55            2.2895e-009     1.0232e-008     3.983e-010     
  4.6             2.3631e-009     1.062e-008      5.722e-010     
  4.65            1.5154e-009     2.3164e-008     -1.3213e-009   
  4.7             1.506e-010      1.1496e-008     -2.7231e-009   
  4.75            -1.3546e-009    5.04e-010       -1.9142e-009   
  4.8             -2.2662e-009    -1.1161e-008    -5.818e-010    
  4.85            -2.2804e-009    -1.1446e-008    -7.764e-010    
  4.9             -1.6077e-009    -1.7075e-008    1.2444e-009    
  4.95            -2.556e-010     -1.4796e-008    2.8225e-009    
  5               2.1946e-009     1.0235e-008     2.311e-010     
END_DB

BEGIN_DB
 ICCAP_VAR VG         1              
 ICCAP_VAR VS         0              
 ICCAP_VAR VB         0              

 #VD              ID              IB              IG             
  0               9.847e-010      -1.1254e-008    1.2894e-009    
  0.05            1.5417e-008     -1.1344e-008    -2.602e-009    
  0.1             2.7888e-008     2.2856e-008     -1.7673e-009   
  0.15            3.4028e-008     2.757e-008      -1.3571e-009   
  0.2             3.9228e-008     1.0293e-008     6.899e-010     
  0.25            3.8931e-008     -1.5004e-008    2.574e-009     
  0.3             3.61e-008       -1.1322e-008    -1.2522e-009   
  0.35            3.936e-008      2.0866e-008     -1.6539e-009   
  0.4             4.0711e-008     1.0762e-008     1.214e-010     
  0.45            3.9837e-008     -8.867e-009     1.2553e-009    
  0.5             3.6575e-008     -1.1493e-008    -9.712e-010    
  0.55            3.9145e-008     1.6784e-008     -2.0575e-009   
  0.6             4.072e-008      1.2758e-008     -1.595e-010    
  0.65            4.0096e-008     -9.162e-009     1.3178e-009    
  0.7             3.6874e-008     -1.1009e-008    -6.741e-010    
  0.75            3.8824e-008     1.2471e-008     -2.4649e-009   
  0.8             4.0469e-008     1.8839e-008     -1.6076e-009   
  0.85            4.0785e-008     1.0572e-008     1.639e-010     
  0.9             3.9898e-008     -8.71e-009      1.2505e-009    
  0.95            3.6614e-008     -1.1471e-008    -1.0084e-009   
  1               3.9253e-008     1.7397e-008     -2.0029e-009   
  1.05            4.0761e-008     1.226e-008      -1.218e-010    
  1.1             4.0108e-008     -9.272e-009     1.307e-009     
  1.15            3.6857e-008     -1.1072e-008    -7.248e-010    
  1.2             3.8896e-008     1.2804e-008     -2.4239e-009   
  1.25            4.0589e-008     1.7794e-008     -1.5701e-009   
  1.3             4.0807e-008     1.0463e-008     2.09e-010      
  1.35            3.9999e-008     -8.756e-009     2.9093e-009    
  1.4             3.6768e-008     -1.1289e-008    -8.279e-010    
  1.45            3.9036e-008     1.436e-008      -2.304e-009    
  1.5             4.0635e-008     1.5648e-008     -1.4975e-009   
  1.55            4.0945e-008     1.0205e-008     3.088e-010     
  1.6             4.0068e-008     -9.262e-009     2.8746e-009    
  1.65            3.6703e-008     -1.141e-008     -9.075e-010    
  1.7             3.9103e-008     1.5721e-008     -2.1642e-009   
  1.75            4.2305e-008     1.0525e-008     1.3365e-009    
  1.8             3.8974e-008     -2.265e-008     1.5311e-009    
  1.85            3.739e-008      -1.1085e-008    -3.063e-010    
  1.9             3.8613e-008     1.1366e-008     -2.7128e-009   
  1.95            4.1682e-008     1.0522e-008     8.28e-010      
  2               3.9494e-008     -1.7014e-008    2.3725e-009    
  2.05            3.8052e-008     -1.3434e-008    2.532e-010     
  2.1             3.8298e-008     7.042e-009      -1.3939e-009   
  2.15            4.0997e-008     1.0044e-008     2.0985e-009    
  2.2             3.8039e-008     -2.2032e-008    2.0531e-009    
  2.25            3.7997e-008     -1.2135e-008    7.65e-011      
  2.3             3.8368e-008     9.36e-009       -1.3486e-009   
  2.35            4.1596e-008     1.0291e-008     7.244e-010     
  2.4             3.9676e-008     -1.5583e-008    2.532e-009     
  2.45            3.6354e-008     -1.1318e-008    -1.279e-009    
  2.5             3.9546e-008     2.1338e-008     -1.6208e-009   
  2.55            3.9958e-008     2.796e-008      -1.3322e-009   
  2.6             4.1681e-008     1.0558e-008     8.112e-010     
  2.65            3.9563e-008     -1.671e-008     2.3981e-009    
  2.7             3.8026e-008     -1.3574e-008    2.66e-010      
  2.75            3.8322e-008     6.882e-009      -1.3983e-009   
  2.8             4.1078e-008     9.991e-009      2.0837e-009    
  2.85            3.8046e-008     -2.2548e-008    2.0809e-009    
  2.9             3.8031e-008     -1.2167e-008    8.89e-011      
  2.95            3.8385e-008     9.237e-009      -1.3488e-009   
  3               4.1595e-008     1.0351e-008     7.064e-010     
  3.05            3.9755e-008     -1.5456e-008    2.5576e-009    
  3.1             3.6442e-008     -1.1335e-008    -1.267e-009    
  3.15            3.962e-008      2.1056e-008     -1.6349e-009   
  3.2             4.0898e-008     1.0566e-008     1.413e-010     
  3.25            4.0027e-008     -8.815e-009     1.2541e-009    
  3.3             3.6766e-008     -1.1562e-008    -9.83e-010     
  3.35            3.934e-008      1.6939e-008     -2.0434e-009   
  3.4             4.0949e-008     1.254e-008      -1.428e-010    
  3.45            4.0256e-008     -9.299e-009     1.311e-009     
  3.5             3.7041e-008     -1.1099e-008    -6.946e-010    
  3.55            3.9027e-008     1.2397e-008     -2.4553e-009   
  3.6             4.0748e-008     1.8446e-008     -1.5979e-009   
  3.65            3.9459e-008     1.6671e-008     -2.054e-009    
  3.7             4.104e-008      1.252e-008      -1.519e-010    
  3.75            4.0387e-008     -9.482e-009     1.3135e-009    
  3.8             3.7178e-008     -1.1183e-008    -6.855e-010    
  3.85            3.9162e-008     1.2045e-008     -2.4625e-009   
  3.9             4.0863e-008     1.8589e-008     -1.605e-009    
  3.95            4.0355e-008     2.755e-008      -1.3298e-009   
  4               4.2115e-008     1.0193e-008     8.315e-010     
  4.05            3.9917e-008     -1.7435e-008    2.3769e-009    
  4.1             3.8509e-008     -1.3947e-008    2.503e-010     
  4.15            3.8848e-008     6.671e-009      -1.3921e-009   
  4.2             4.1577e-008     9.397e-009      2.1035e-009    
  4.25            3.8667e-008     -2.2873e-008    2.0421e-009    
  4.3             3.8704e-008     -1.2805e-008    6.86e-011      
  4.35            3.9155e-008     8.739e-009      -1.3473e-009   
  4.4             4.2433e-008     9.566e-009      7.267e-010     
  4.45            4.0582e-008     -1.6467e-008    2.5275e-009    
  4.5             3.7373e-008     -1.2238e-008    -1.2884e-009   
  4.55            4.0638e-008     2.0252e-008     -1.621e-009    
  4.6             4.0377e-008     1.5355e-008     -2.0817e-009   
  4.65            4.0951e-008     2.3788e-008     -1.4192e-009   
  4.7             4.0904e-008     1.9327e-008     -1.6737e-009   
  4.75            4.0603e-008     1.4303e-008     -2.1633e-009   
  4.8             4.1251e-008     2.2657e-008     -1.4406e-009   
  4.85            4.1257e-008     1.8276e-008     -1.7396e-009   
  4.9             4.0959e-008     1.3038e-008     -2.2392e-009   
  4.95            4.2716e-008     1.2766e-008     -1.4702e-009   
  5               4.1571e-008     1.7264e-008     -1.8115e-009   
END_DB

BEGIN_DB
 ICCAP_VAR VG         2              
 ICCAP_VAR VS         0              
 ICCAP_VAR VB         0              

 #VD              ID              IB              IG             
  0               -2.6911e-009    -1.4592e-008    -2.636e-010    
  0.05            9.8102e-008     1.1992e-008     2.4773e-009    
  0.1             1.8653e-007     1.4245e-008     -2.4063e-009   
  0.15            2.7496e-007     1.0038e-008     4.227e-010     
  0.2             3.5266e-007     -1.9709e-008    2.0047e-009    
  0.25            4.2444e-007     -1.1e-008       -6.337e-010    
  0.3             4.9555e-007     2.0963e-008     -1.6644e-009   
  0.35            5.6021e-007     1.0336e-008     7.542e-010     
  0.4             6.1468e-007     -2.2414e-008    1.5342e-009    
  0.45            6.6474e-007     -1.159e-008     -9.598e-010    
  0.5             7.1432e-007     2.5046e-008     -1.4252e-009   
  0.55            7.5638e-007     1.1568e-008     -5.12e-011     
  0.6             7.9017e-007     -1.3255e-008    2.7004e-009    
  0.65            8.1872e-007     -1.1661e-008    -8.49e-011     
  0.7             8.4652e-007     1.4168e-008     -2.3187e-009   
  0.75            8.6845e-007     1.0251e-008     2.663e-010     
  0.8             8.8138e-007     -1.7665e-008    2.2554e-009    
  0.85            8.9124e-007     -1.0904e-008    -4.657e-010    
  0.9             9.0218e-007     1.901e-008      -1.8483e-009   
  0.95            9.0837e-007     1.0191e-008     6.001e-010     
  1               9.0803e-007     -2.0939e-008    1.7274e-009    
  1.05            9.0875e-007     -1.1262e-008    -8.311e-010    
  1.1             9.1303e-007     2.2862e-008     -1.5056e-009   
  1.15            9.1419e-007     1.069e-008      9.167e-010     
  1.2             9.1128e-007     -2.4663e-008    1.3926e-009    
  1.25            9.1058e-007     -1.2053e-008    5.54e-011      
  1.3             9.1354e-007     1.207e-008      -2.5e-009      
  1.35            9.1525e-007     1.0779e-008     1.144e-010     
  1.4             9.1254e-007     -1.5762e-008    2.4923e-009    
  1.45            9.1102e-007     -1.1016e-008    -2.931e-010    
  1.5             9.1429e-007     1.6688e-008     -2.0734e-009   
  1.55            9.1563e-007     1.0131e-008     4.462e-010     
  1.6             9.1261e-007     -1.99e-008      1.9612e-009    
  1.65            9.1148e-007     -1.1072e-008    -6.619e-010    
  1.7             9.1485e-007     2.112e-008      -1.6404e-009   
  1.75            9.1591e-007     1.0472e-008     7.722e-010     
  1.8             9.1264e-007     -2.2774e-008    1.5091e-009    
  1.85            9.1197e-007     -1.1564e-008    -9.829e-010    
  1.9             9.1532e-007     2.5365e-008     -1.4152e-009   
  1.95            9.1585e-007     1.05e-008       1.0674e-009    
  2               9.1271e-007     -2.6007e-008    1.3151e-009    
  2.05            9.1242e-007     -1.1336e-008    -1.2843e-009   
  2.1             9.1587e-007     2.8061e-008     -1.3359e-009   
  2.15            9.1584e-007     1.0773e-008     1.3692e-009    
  2.2             9.1263e-007     -2.4044e-008    1.2559e-009    
  2.25            9.1208e-007     -1.0886e-008    -4.967e-010    
  2.3             9.1544e-007     1.9383e-008     -1.8251e-009   
  2.35            9.1651e-007     1.0197e-008     6.258e-010     
  2.4             9.1332e-007     -2.127e-008     1.6904e-009    
  2.45            9.1229e-007     -1.1392e-008    -8.553e-010    
  2.5             9.1592e-007     2.3287e-008     -1.4899e-009   
  2.55            9.1667e-007     1.2718e-008     -1.595e-010    
  2.6             9.1422e-007     -1.1148e-008    2.8052e-009    
  2.65            9.125e-007      -1.2015e-008    3.15e-011      
  2.7             9.153e-007      1.2315e-008     -2.4726e-009   
  2.75            9.1698e-007     1.0743e-008     1.403e-010     
  2.8             9.1426e-007     -1.6168e-008    2.4501e-009    
  2.85            9.1264e-007     -1.0987e-008    -3.229e-010    
  2.9             9.1587e-007     1.7037e-008     -2.0281e-009   
  2.95            9.1618e-007     1.0238e-008     2.0431e-009    
  3               9.1271e-007     -1.2425e-008    1.421e-010     
  3.05            9.156e-007      1.1178e-008     -2.5877e-009   
  3.1             9.1719e-007     1.1073e-008     2.32e-011      
  3.15            9.144e-007      -1.4412e-008    2.6101e-009    
  3.2             9.1279e-007     -1.139e-008     -1.774e-010    
  3.25            9.1591e-007     1.5302e-008     -2.2068e-009   
  3.3             9.1739e-007     9.974e-009      3.517e-010     
  3.35            9.1432e-007     -1.8823e-008    2.1276e-009    
  3.4             9.1307e-007     -1.1175e-008    -5.633e-010    
  3.45            9.1641e-007     1.9795e-008     -1.743e-009    
  3.5             9.1746e-007     1.0085e-008     6.859e-010     
  3.55            9.1428e-007     -2.1988e-008    1.6161e-009    
  3.6             9.1342e-007     -1.174e-008     -9.045e-010    
  3.65            9.1689e-007     2.3629e-008     -1.4556e-009   
  3.7             9.1787e-007     1.1703e-008     -1.075e-010    
  3.75            9.1534e-007     -1.2863e-008    2.761e-009     
  3.8             9.1378e-007     -1.2402e-008    -2.23e-011     
  3.85            9.1671e-007     1.2277e-008     -2.4017e-009   
  3.9             9.1703e-007     1.6276e-008     -2.0177e-009   
  3.95            9.1754e-007     9.363e-009      2.0497e-009    
  4               9.142e-007      -1.341e-008     1.372e-010     
  4.05            9.1722e-007     1.0048e-008     -2.5793e-009   
  4.1             9.1763e-007     1.2973e-008     -2.2665e-009   
  4.15            9.1802e-007     1.7194e-008     -1.8625e-009   
