! VERSION = 6.00
BEGIN_HEADER
 ICCAP_INPUTS
  VG         V  B GROUND SMU4 0.001 LIN        1    0          5          101  0.05      
  VS         V  E GROUND SMU2 0.1 CON        0
  VB         V  C GROUND SMU3 0.1 LIN        3    0          -5         3    -2.5      
  VD         V  S GROUND SMU1 0.1 LIN        2    0.1        5          2    4.9       
 ICCAP_OUTPUTS
  IG         I  B GROUND SMU4 B
  ID         I  S GROUND SMU1 B
  IB         I  C GROUND SMU3 B
END_HEADER

BEGIN_DB
 ICCAP_VAR VS         0              
 ICCAP_VAR VB         0              
 ICCAP_VAR VD         0.1            

 #VG              IG              ID              IB             
  0               1.3122e-009     1.3866e-009     -1.1028e-008   
  0.05            1.2717e-009     9.81e-011       -9.107e-009    
  0.1             2.897e-009      -3.87e-011      -1.1496e-008   
  0.15            3.99e-011       2.1151e-009     1.0227e-008    
  0.2             2.366e-010      2.2336e-009     1.0381e-008    
  0.25            4.38e-010       2.3381e-009     1.0553e-008    
  0.3             -1.3412e-009    1.4395e-009     2.5426e-008    
  0.35            -2.7446e-009    1.078e-010      1.1257e-008    
  0.4             1.34e-011       -1.8625e-009    -1.0839e-008   
  0.45            -1.99e-010      -1.4742e-009    -1.0917e-008   
  0.5             -4.267e-010     3.896e-010      -1.1188e-008   
  0.55            2.6387e-009     1.0676e-008     1.0454e-008    
  0.6             1.9801e-009     3.3417e-008     -2.719e-009    
  0.65            1.4219e-009     1.02111e-007    -8.697e-009    
  0.7             -1.5784e-009    2.9338e-007     2.42e-008      
  0.75            -3.75e-010      7.3132e-007     -1.0791e-008   
  0.8             1.2746e-009     1.6485e-006     1.0569e-008    
  0.85            2.7738e-009     3.3205e-006     -1.1374e-008   
  0.9             5.571e-010      5.8985e-006     1.0389e-008    
  0.95            -1.7661e-009    9.3517e-006     2.2904e-008    
  1               2.0576e-009     1.3286e-005     5.025e-009     
  1.05            1.4457e-009     1.7678e-005     -8.576e-009    
  1.1             1.2763e-009     2.2197e-005     -8.756e-009    
  1.15            2.7882e-009     2.6775e-005     -1.128e-008    
  1.2             1.4985e-009     3.1159e-005     1.139e-008     
  1.25            3.429e-010      3.5579e-005     1.0159e-008    
  1.3             8.023e-010      3.962e-005      1.0817e-008    
  1.35            -1.5197e-009    4.358e-005      1.6521e-008    
  1.4             -1.351e-009     4.7376e-005     9.229e-009     
  1.45            -2.6657e-009    5.0942e-005     1.1139e-008    
  1.5             -2.1974e-009    5.4372e-005     7.09e-010      
  1.55            -1.6099e-009    5.7713e-005     3.27e-009      
  1.6             -1.3765e-009    6.0946e-005     7.836e-009     
  1.65            -2.7243e-009    6.4062e-005     1.1387e-008    
  1.7             -3.343e-010     6.6983e-005     -1.0893e-008   
  1.75            -8.368e-010     6.9931e-005     -1.1286e-008   
  1.8             1.5797e-009     7.2691e-005     -1.5241e-008   
  1.85            1.3019e-009     7.5463e-005     -9.006e-009    
  1.9             2.8631e-009     7.8126e-005     -9.391e-009    
  1.95            4.104e-010      8.078e-005      1.0169e-008    
  2               -1.3094e-009    8.332e-005      2.5998e-008    
  2.05            -2.3988e-009    8.5804e-005     1.325e-008     
  2.1             -8.167e-010     8.8156e-005     -1.1194e-008   
  2.15            1.6026e-009     9.0414e-005     -1.5638e-008   
  2.2             1.3065e-009     9.2754e-005     -8.967e-009    
  2.25            2.8709e-009     9.5003e-005     -9.303e-009    
  2.3             3.855e-010      9.7234e-005     1.0203e-008    
  2.35            8.371e-010      9.9361e-005     1.0971e-008    
  2.4             -1.4954e-009    0.000101454     1.5541e-008    
  2.45            -1.3448e-009    0.000103546     9.622e-009     
  2.5             -2.6475e-009    0.000105587     1.1139e-008    
  2.55            -2.1514e-009    0.000107531     8.86e-010      
  2.6             -1.5777e-009    0.000109467     3.461e-009     
  2.65            -1.3671e-009    0.000111381     8.233e-009     
  2.7             -2.713e-009     0.000113254     1.1268e-008    
  2.75            -1.4876e-009    0.0001152       1.802e-009     
  2.8             -1.3429e-009    0.00011701      9.703e-009     
  2.85            -2.6365e-009    0.00011881      1.11e-008      
  2.9             -2.127e-009     0.00012051      9.06e-010      
  2.95            -1.5678e-009    0.00012223      3.526e-009     
  3               -1.3647e-009    0.00012393      8.408e-009     
  3.05            -2.7106e-009    0.00012556      1.1254e-008    
  3.1             -2.3018e-009    0.00012718      7.04e-010      
  3.15            -1.6889e-009    0.00012878      2.861e-009     
  3.2             -1.395e-009     0.00013033      6.826e-009     
  3.25            -1.3146e-009    0.00013189      1.0875e-008    
  3.3             -2.4637e-009    0.0001334       1.2344e-008    
  3.35            -1.8442e-009    0.00013486      2.056e-009     
  3.4             -1.439e-009     0.00013633      5.338e-009     
  3.45            -1.3317e-009    0.00013776      9.997e-009     
  3.5             -2.5796e-009    0.00013919      1.1362e-008    
  3.55            -2.015e-009     0.00014053      1.186e-009     
  3.6             -1.5081e-009    0.00014192      4.475e-009     
  3.65            -1.3513e-009    0.00014327      9.125e-009     
  3.7             -2.6681e-009    0.00014462      1.1212e-008    
  3.75            -2.1974e-009    0.00014589      8.75e-010      
  3.8             -1.611e-009     0.00014721      3.26e-009      
  3.85            -1.3733e-009    0.00014847      7.803e-009     
  3.9             -2.7235e-009    0.00014971      1.1219e-008    
  3.95            -3.31e-010      0.00015085      -1.091e-008    
  4               -8.296e-010     0.00015209      -1.1321e-008   
  4.05            1.5819e-009     0.00015319      -1.5249e-008   
  4.1             1.3044e-009     0.00015444      -8.973e-009    
  4.15            2.8634e-009     0.00015554      -9.439e-009    
  4.2             4.007e-010      0.00015672      1.0216e-008    
  4.25            -1.3057e-009    0.00015782      2.6137e-008    
  4.3             -2.4066e-009    0.00015894      1.3079e-008    
  4.35            -8.093e-010     0.00015994      -1.1202e-008   
  4.4             1.6178e-009     0.00016092      -1.5713e-008   
  4.45            1.3113e-009     0.00016178      -8.999e-009    
  4.5             2.8757e-009     0.00016281      -9.25e-009     
  4.55            3.838e-010      0.00016388      1.014e-008     
  4.6             -1.3101e-009    0.00016489      2.6459e-008    
  4.65            -2.4295e-009    0.00016586      1.2788e-008    
  4.7             -1.8027e-009    0.00016677      2.16e-009      
  4.75            -1.4236e-009    0.00016771      5.677e-009     
  4.8             -1.3251e-009    0.00016861      1.0204e-008    
  4.85            -2.5501e-009    0.00016953      1.144e-008     
  4.9             -1.9662e-009    0.00017041      1.407e-009     
  4.95            -1.4861e-009    0.00017128      4.521e-009     
  5               -1.3436e-009    0.00017216      9.397e-009     
END_DB

BEGIN_DB
 ICCAP_VAR VS         0              
 ICCAP_VAR VB         0              
 ICCAP_VAR VD         5              

 #VG              IG              ID              IB             
  0               -1.306e-009     -1.1673e-009    -8.592e-009    
  0.05            -2.6169e-009    2.808e-010      1.3632e-008    
  0.1             -2.0094e-009    -1.2377e-009    8.48e-010      
  0.15            1.5799e-009     -1.7263e-009    -1.2289e-008   
  0.2             1.8822e-009     1.5697e-009     -9.021e-009    
  0.25            4.722e-010      2.707e-009      1.0564e-008    
  0.3             -1.3377e-009    3.0344e-009     2.4593e-008    
  0.35            -2.7412e-009    6.4214e-009     1.0595e-008    
  0.4             2.5133e-009     2.3752e-008     1.0205e-008    
  0.45            -1.5988e-009    7.8627e-008     1.4909e-008    
  0.5             -1.9881e-009    2.307e-007      -1.2035e-008   
  0.55            -1.4903e-009    6.0772e-007     -4.6133e-008   
  0.6             1.278e-009      1.4794e-006     -1.0639e-007   
  0.65            2.7692e-009     3.2772e-006     -2.6242e-007   
  0.7             2.1797e-009     6.6676e-006     -4.8741e-007   
  0.75            -2.0142e-009    1.2397e-005     -8.5251e-007   
  0.8             -2.1679e-009    2.0319e-005     -1.3794e-006   
  0.85            -2.572e-009     3.0809e-005     -2.0113e-006   
  0.9             -2.7894e-009    4.3597e-005     -2.7359e-006   
  0.95            -2.6989e-009    5.8312e-005     -3.518e-006    
  1               -2.3052e-009    7.47e-005       -4.3325e-006   
  1.05            -1.6921e-009    9.2435e-005     -5.1699e-006   
  1.1             -1.3991e-009    0.000111297     -6.0008e-006   
  1.15            -2.3986e-009    0.00013131      -6.8451e-006   
  1.2             -2.7382e-009    0.00015188      -7.6507e-006   
  1.25            -2.7673e-009    0.0001733       -8.4195e-006   
  1.3             -2.5108e-009    0.00019522      -9.1474e-006   
  1.35            -1.9288e-009    0.00021771      -9.8438e-006   
  1.4             -1.4712e-009    0.00024051      -1.04953e-005  
  1.45            -1.3447e-009    0.00026381      -1.10945e-005  
  1.5             1.5884e-009     0.00028657      -1.1684e-005   
  1.55            1.3042e-009     0.00031034      -1.2187e-005   
  1.6             2.8615e-009     0.00033416      -1.2669e-005   
  1.65            2.4335e-009     0.00035863      -1.3098e-005   
  1.7             1.727e-009      0.00038297      -1.3498e-005   
  1.75            1.342e-009      0.0004074       -1.3858e-005   
  1.8             2.9104e-009     0.00043194      -1.4168e-005   
  1.85            2.5939e-009     0.00045688      -1.4435e-005   
  1.9             1.9163e-009     0.00048172      -1.4678e-005   
  1.95            1.4027e-009     0.00050665      -1.4889e-005   
  2               1.2712e-009     0.00053154      -1.5049e-005   
  2.05            2.7327e-009     0.00055647      -1.5189e-005   
  2.1             2.1081e-009     0.00058185      -1.5291e-005   
  2.15            1.485e-009      0.00060689      -1.5367e-005   
  2.2             1.2906e-009     0.00063214      -1.5417e-005   
  2.25            2.8237e-009     0.00065718      -1.5432e-005   
  2.3             2.3016e-009     0.0006827       -1.5422e-005   
  2.35            1.6182e-009     0.00070793      -1.5397e-005   
  2.4             1.3171e-009     0.00073313      -1.5345e-005   
  2.45            2.8826e-009     0.00075798      -1.5275e-005   
  2.5             2.4862e-009     0.0007838       -1.5185e-005   
  2.55            1.7782e-009     0.00080908      -1.508e-005    
  2.6             1.356e-009      0.00083393      -1.4955e-005   
  2.65            2.9157e-009     0.00085934      -1.4816e-005   
  2.7             2.63e-009       0.00088486      -1.4659e-005   
  2.75            1.9726e-009     0.00090985      -1.4491e-005   
  2.8             1.4257e-009     0.00093543      -1.4319e-005   
  2.85            1.2752e-009     0.00096038      -1.4129e-005   
  2.9             2.7652e-009     0.00098554      -1.3936e-005   
  2.95            2.1725e-009     0.00101085      -1.372e-005    
  3               1.5236e-009     0.00103594      -1.3513e-005   
  3.05            1.2953e-009     0.0010611       -1.3294e-005   
  3.1             2.8423e-009     0.00108589      -1.3074e-005   
  3.15            2.3566e-009     0.00111114      -1.2838e-005   
  3.2             1.6581e-009     0.00113606      -1.2607e-005   
  3.25            -1.3431e-009    0.001162        -1.2388e-005   
  3.3             -2.6294e-009    0.0011873       -1.2117e-005   
  3.35            -2.1012e-009    0.0012117       -1.1881e-005   
  3.4             -1.5539e-009    0.0012366       -1.1634e-005   
  3.45            -1.364e-009     0.0012617       -1.1392e-005   
  3.5             -2.7021e-009    0.0012862       -1.1141e-005   
  3.55            -2.2781e-009    0.0013108       -1.0912e-005   
  3.6             -1.6708e-009    0.0013353       -1.0659e-005   
  3.65            -1.3898e-009    0.0013601       -1.0415e-005   
  3.7             -1.3144e-009    0.0013848       -1.0171e-005   
  3.75            2.528e-010      0.0014082       -9.9603e-006   
  3.8             -2.005e-010     0.001433        -9.7198e-006   
  3.85            -7.137e-010     0.0014577       -9.4837e-006   
  3.9             -1.1204e-009    0.0014823       -9.2464e-006   
  3.95            -1.5558e-009    0.0015069       -9.0138e-006   
  4               -1.9146e-009    0.0015308       -8.7882e-006   
  4.05            -2.1951e-009    0.0015547       -8.5618e-006   
  4.1             -2.6015e-009    0.0015788       -8.3392e-006   
  4.15            -2.787e-009     0.0016029       -8.1229e-006   
  4.2             -2.6822e-009    0.0016268       -7.9023e-006   
  4.25            -2.2469e-009    0.001651        -7.6897e-006   
  4.3             -1.6407e-009    0.0016753       -7.4826e-006   
  4.35            -1.3818e-009    0.0016992       -7.28e-006     
  4.4             -2.7397e-009    0.0017231       -7.0752e-006   
  4.45            -2.3959e-009    0.001747        -6.888e-006    
  4.5             -1.779e-009     0.0017707       -6.6982e-006   
  4.55            -1.4166e-009    0.0017945       -6.5033e-006   
  4.6             -1.3238e-009    0.0018179       -6.3189e-006   
  4.65            -2.5368e-009    0.0018415       -6.1326e-006   
  4.7             -1.9442e-009    0.0018649       -5.9684e-006   
  4.75            -1.4667e-009    0.001888        -5.7958e-006   
  4.8             -1.3377e-009    0.0019114       -5.6171e-006   
  4.85            -2.6327e-009    0.0019347       -5.4522e-006   
  4.9             -2.1156e-009    0.0019579       -5.3026e-006   
  4.95            -1.5524e-009    0.0019809       -5.1458e-006   
  5               -1.3557e-009    0.0020039       -4.992e-006    
END_DB

BEGIN_DB
 ICCAP_VAR VS         0              
 ICCAP_VAR VB         -2.5           
 ICCAP_VAR VD         0.1            

 #VG              IG              ID              IB             
  0               -1.2415e-009    -1.0933e-009    -1.3569e-008   
  0.05            -2.0482e-009    6.97e-010       2.0543e-008    
  0.1             -1.5275e-009    -1.8611e-009    4.215e-009     
  0.15            -2.91e-011      -2.0746e-009    -1.0951e-008   
  0.2             -2.478e-010     -2.1863e-009    -1.1022e-008   
  0.25            -4.64e-010      -2.2527e-009    -1.1201e-008   
  0.3             1.2882e-009     -1.457e-009     -2.264e-008    
  0.35            2.9107e-009     -1.51e-011      -1.1e-008      
  0.4             1.8583e-009     1.5169e-009     -3.93e-010     
  0.45            4.541e-010      2.3399e-009     1.0495e-008    
  0.5             -1.3432e-009    1.4431e-009     2.5174e-008    
  0.55            -1.3136e-009    7.08e-011       1.1185e-008    
  0.6             -2.6589e-009    2.343e-010      1.2972e-008    
  0.65            -1.9827e-009    -1.2662e-009    8.63e-010      
  0.7             -7.205e-010     -2.256e-009     -1.1753e-008   
  0.75            2.134e-009      -1.4771e-009    -1.7498e-008   
  0.8             2.493e-009      1.5965e-009     -8.031e-009    
  0.85            9.89e-011       4.2526e-009     1.0243e-008    
  0.9             2.92e-010       1.07453e-008    1.0382e-008    
  0.95            -2.1273e-009    3.1669e-008     -2.1823e-008   
  1               1.2538e-009     1.125e-007      -2.0754e-008   
  1.05            9.93e-011       3.4244e-007     1.096e-008     
  1.1             5.493e-010      8.8892e-007     1.0389e-008    
  1.15            -1.9956e-009    2.0603e-006     -1.2683e-008   
  1.2             -1.498e-009     4.0505e-006     4.417e-009     
  1.25            -1.3495e-009    6.9854e-006     9.559e-009     
  1.3             -2.6638e-009    1.07143e-005    1.1203e-008    
  1.35            1.5148e-009     1.4836e-005     6.71e-010      
  1.4             1.2908e-009     1.9339e-005     -8.703e-009    
  1.45            2.8301e-009     2.3892e-005     -1.0344e-008   
  1.5             1.4362e-009     2.8341e-005     1.119e-008     
  1.55            2.796e-010      3.2818e-005     1.0242e-008    
  1.6             7.339e-010      3.6911e-005     1.0644e-008    
  1.65            -1.5899e-009    4.0906e-005     1.8578e-008    
  1.7             -1.3713e-009    4.4712e-005     8.579e-009     
  1.75            -2.7177e-009    4.8266e-005     1.1357e-008    
  1.8             -2.3194e-009    5.1692e-005     6.22e-010      
  1.85            -1.7109e-009    5.5015e-005     2.652e-009     
  1.9             -1.4014e-009    5.821e-005      6.81e-009      
  1.95            -1.3163e-009    6.1278e-005     1.1108e-008    
  2               -2.4883e-009    6.4245e-005     1.2047e-008    
  2.05            -1.8817e-009    6.7067e-005     1.809e-009     
  2.1             -1.4499e-009    6.9829e-005     5.315e-009     
  2.15            -1.3359e-009    7.2506e-005     1.0112e-008    
  2.2             -2.6091e-009    7.511e-005      1.1124e-008    
  2.25            -2.075e-009     7.76e-005       8.91e-010      
  2.3             -1.5379e-009    8.0056e-005     4.116e-009     
  2.35            -1.3581e-009    8.2432e-005     9.133e-009     
  2.4             -2.6906e-009    8.4759e-005     1.142e-008     
  2.45            -2.2576e-009    8.6987e-005     7.63e-010      
  2.5             -1.6555e-009    8.9211e-005     2.967e-009     
  2.55            -1.3847e-009    9.1372e-005     7.492e-009     
  2.6             -1.3111e-009    9.3469e-005     1.1293e-008    
  2.65            -2.4364e-009    9.5559e-005     1.29e-008      
  2.7             -1.8141e-009    9.7532e-005     2.163e-009     
  2.75            -1.4275e-009    9.9502e-005     5.906e-009     
  2.8             -1.3258e-009    0.000101469     1.0549e-008    
  2.85            -2.5614e-009    0.000103365     1.1399e-008    
  2.9             -1.9911e-009    0.000105187     1.32e-009      
  2.95            -1.4952e-009    0.000107        4.485e-009     
  3               -1.3466e-009    0.000108779     9.489e-009     
  3.05            -2.6593e-009    0.000110528     1.1285e-008    
  3.1             -2.1814e-009    0.000112214     7.98e-010      
  3.15            1.383e-010      0.000113825     -1.2085e-008   
  3.2             -2.0898e-009    0.00011565      -1.1659e-008   
  3.25            7.06e-011       0.0001172       -1.1711e-008   
  3.3             -4.144e-010     0.00011888      -1.0826e-008   
  3.35            2.1665e-009     0.00012041      -2.3683e-008   
  3.4             1.508e-009      0.00012192      -7.531e-009    
  3.45            1.2934e-009     0.00012343      -8.836e-009    
  3.5             2.834e-009      0.00012493      -1.0083e-008   
  3.55            1.4405e-009     0.00012637      1.1179e-008    
  3.6             2.717e-010      0.00012785      1.0272e-008    
  3.65            7.277e-010      0.00012925      1.0606e-008    
  3.7             -1.5865e-009    0.00013059      1.8664e-008    
  3.75            -1.3654e-009    0.00013199      8.375e-009     
  3.8             -2.713e-009     0.00013334      1.1317e-008    
  3.85            -2.328e-009     0.00013464      5.74e-010      
  3.9             -1.7174e-009    0.00013593      2.741e-009     
  3.95            -1.3982e-009    0.00013718      6.669e-009     
  4               -1.3143e-009    0.00013842      1.0824e-008    
  4.05            -2.4901e-009    0.0001397       1.2128e-008    
  4.1             -1.8861e-009    0.00014087      1.914e-009     
  4.15            -1.4497e-009    0.00014204      5.244e-009     
