! VERSION = 6.00
BEGIN_HEADER
 ICCAP_INPUTS
  VG         V  B GROUND SMU4 0.001 LIN        1    0          5          101  0.05      
  VS         V  E GROUND SMU3 0.1 CON        0
  VB         V  C GROUND SMU1 0.1 LIN        3    0          -5         3    -2.5      
  VD         V  S GROUND SMU2 0.1 LIN        2    0.1        5          2    4.9       
 ICCAP_OUTPUTS
  IG         I  B GROUND SMU4 B
  ID         I  S GROUND SMU2 B
  IB         I  C GROUND SMU1 B
END_HEADER

BEGIN_DB
 ICCAP_VAR VS         0              
 ICCAP_VAR VB         0              
 ICCAP_VAR VD         0.1            

 #VG              IG              ID              IB             
  0               -5.152e-010     -2.3716e-009    1.2955e-008    
  0.05            1.4106e-009     -1.4339e-009    -1.2991e-008   
  0.1             -1.4117e-009    1.3798e-009     1.3003e-008    
  0.15            1.319e-009      -1.3403e-009    -1.3161e-008   
  0.2             -1.349e-009     1.232e-009      1.2888e-008    
  0.25            1.3558e-009     -1.9091e-009    -1.2689e-008   
  0.3             -1.369e-009     1.8944e-009     1.2475e-008    
  0.35            1.3775e-009     -1.589e-009     -1.2434e-008   
  0.4             -1.3936e-009    2.4711e-009     1.2385e-008    
  0.45            1.3617e-009     2.4195e-009     -1.2451e-008   
  0.5             1.3317e-009     1.2549e-008     1.2868e-008    
  0.55            -1.4158e-009    3.9611e-008     1.3125e-008    
  0.6             3.884e-010      1.1984e-007     -1.2961e-008   
  0.65            -1.3326e-009    3.1205e-007     1.2612e-008    
  0.7             1.411e-009      6.9039e-007     -1.3278e-008   
  0.75            -1.4152e-009    1.3649e-006     -1.3144e-008   
  0.8             1.3731e-009     2.3226e-006     -1.2546e-008   
  0.85            -1.322e-009     3.5921e-006     1.2645e-008    
  0.9             1.4083e-009     5.1006e-006     -1.3258e-008   
  0.95            -1.3588e-009    6.8385e-006     1.248e-008     
  1               1.3187e-009     8.6238e-006     -1.2831e-008   
  1.05            -1.4135e-009    1.04693e-005    1.3044e-008    
  1.1             -1.0063e-009    1.2244e-005     1.2401e-008    
  1.15            1.3833e-009     1.3881e-005     -1.3517e-008   
  1.2             -1.33e-009      1.5451e-005     1.2636e-008    
  1.25            1.4108e-009     1.6872e-005     -1.3295e-008   
  1.3             -1.3643e-009    1.8227e-005     1.2368e-008    
  1.35            1.4067e-009     1.9442e-005     -1.2568e-008   
  1.4             -1.3853e-009    2.0615e-005     1.2585e-008    
  1.45            1.3261e-009     2.1676e-005     -1.2621e-008   
  1.5             -1.4172e-009    2.2674e-005     1.3169e-008    
  1.55            1.3592e-009     2.3596e-005     -1.2458e-008   
  1.6             -1.4165e-009    2.4485e-005     1.2667e-008    
  1.65            1.3823e-009     2.5304e-005     -1.2646e-008   
  1.7             -1.3275e-009    2.6097e-005     1.2637e-008    
  1.75            1.4131e-009     2.683e-005      -1.3289e-008   
  1.8             -1.364e-009     2.7552e-005     1.2308e-008    
  1.85            1.3214e-009     2.822e-005      -1.2819e-008   
  1.9             -1.4176e-009    2.8859e-005     1.312e-008     
  1.95            1.3595e-009     2.9454e-005     -1.2472e-008   
  2               -1.3232e-009    3.0056e-005     1.2797e-008    
  2.05            1.409e-009      3.0612e-005     -1.3261e-008   
  2.1             -1.3575e-009    3.1137e-005     1.2382e-008    
  2.15            1.4006e-009     3.1643e-005     -1.2921e-008   
  2.2             -1.3984e-009    3.2161e-005     1.2755e-008    
  2.25            1.3356e-009     3.263e-005      -1.242e-008    
  2.3             -1.4173e-009    3.3089e-005     1.3132e-008    
  2.35            1.3722e-009     3.35e-005       -1.2464e-008   
  2.4             -1.3199e-009    3.3979e-005     1.2605e-008    
  2.45            1.408e-009      3.4358e-005     -1.3091e-008   
  2.5             -1.355e-009     3.4798e-005     1.2407e-008    
  2.55            1.4033e-009     3.5177e-005     -1.2916e-008   
  2.6             -1.394e-009     3.5551e-005     1.2644e-008    
  2.65            1.3306e-009     3.5926e-005     -1.2484e-008   
  2.7             -1.417e-009     3.6258e-005     1.3185e-008    
  2.75            1.3684e-009     3.66e-005       -1.2369e-008   
  2.8             -1.4088e-009    3.6934e-005     1.2575e-008    
  2.85            1.3888e-009     3.7264e-005     -1.2691e-008   
  2.9             -1.3343e-009    3.7539e-005     1.2561e-008    
  2.95            1.4119e-009     3.7844e-005     -1.327e-008    
  3               -1.3717e-009    3.8182e-005     1.2331e-008    
  3.05            1.3124e-009     3.843e-005      -1.2585e-008   
  3.1             -1.4091e-009    3.8735e-005     1.2965e-008    
  3.15            1.3476e-009     3.9003e-005     -1.2358e-008   
  3.2             -1.4138e-009    3.9282e-005     1.2979e-008    
  3.25            1.3835e-009     3.9507e-005     -1.2588e-008   
  3.3             -1.331e-009     3.9765e-005     1.2541e-008    
  3.35            1.411e-009      4.0048e-005     -1.3282e-008   
  3.4             -1.3658e-009    4.0277e-005     1.2321e-008    
  3.45            1.4098e-009     4.0492e-005     -1.2582e-008   
  3.5             -1.3881e-009    4.0745e-005     1.2613e-008    
  3.55            1.327e-009      4.096e-005      -1.266e-008    
  3.6             -1.4188e-009    4.1169e-005     1.3159e-008    
  3.65            1.3628e-009     4.1343e-005     -1.2418e-008   
  3.7             -1.325e-009     4.158e-005      1.2796e-008    
  3.75            1.413e-009      4.177e-005      -1.3255e-008   
  3.8             -1.3615e-009    4.1971e-005     1.2373e-008    
  3.85            1.3188e-009     4.2148e-005     -1.2864e-008   
  3.9             -1.4161e-009    4.234e-005      1.3132e-008    
  3.95            1.3521e-009     4.2513e-005     -1.2498e-008   
  4               -1.4085e-009    4.2685e-005     1.2925e-008    
  4.05            1.3903e-009     4.2854e-005     -1.2734e-008   
  4.1             -1.3368e-009    4.3021e-005     1.252e-008     
  4.15            1.4128e-009     4.3164e-005     -1.3233e-008   
  4.2             -1.3725e-009    4.3349e-005     1.238e-008     
  4.25            1.3117e-009     4.3484e-005     -1.257e-008    
  4.3             -1.4103e-009    4.3672e-005     1.3059e-008    
  4.35            1.3496e-009     4.3784e-005     -1.2498e-008   
  4.4             -1.4121e-009    4.395e-005      1.3002e-008    
  4.45            1.3854e-009     4.4097e-005     -1.2741e-008   
  4.5             -1.3326e-009    4.4252e-005     1.2632e-008    
  4.55            1.4126e-009     4.4376e-005     -1.3252e-008   
  4.6             -1.3662e-009    4.4506e-005     1.2416e-008    
  4.65            1.407e-009      4.4639e-005     -1.2447e-008   
  4.7             -1.3875e-009    4.4777e-005     1.2707e-008    
  4.75            1.3288e-009     4.4889e-005     -1.2737e-008   
  4.8             -1.4174e-009    4.4992e-005     1.3194e-008    
  4.85            1.3612e-009     4.5125e-005     -1.2562e-008   
  4.9             -1.3255e-009    4.5223e-005     1.2813e-008    
  4.95            1.4105e-009     4.5359e-005     -1.3281e-008   
  5               -1.3611e-009    4.5457e-005     1.2394e-008    
END_DB

BEGIN_DB
 ICCAP_VAR VS         0              
 ICCAP_VAR VB         0              
 ICCAP_VAR VD         5              

 #VG              IG              ID              IB             
  0               1.142e-010      -1.8693e-009    -5.09e-009     
  0.05            1.3829e-009     -1.7607e-009    -1.2398e-008   
  0.1             -1.3984e-009    1.689e-009      1.2436e-008    
  0.15            1.4031e-009     -1.6231e-009    -1.2545e-008   
  0.2             -1.4147e-009    1.6156e-009     1.2532e-008    
  0.25            1.4114e-009     -1.3272e-009    -1.2736e-008   
  0.3             -1.4171e-009    2.2571e-009     1.2775e-008    
  0.35            1.4042e-009     2.7681e-009     -1.3277e-008   
  0.4             1.3213e-009     1.3369e-008     1.1329e-008    
  0.45            -1.4162e-009    4.4564e-008     -1.9e-010      
  0.5             -1.3388e-009    1.5185e-007     -1.4307e-008   
  0.55            -8.691e-010     4.1438e-007     -3.885e-008    
  0.6             1.3413e-009     1.02965e-006    -8.9306e-008   
  0.65            -1.3704e-009    2.2287e-006     -1.5718e-007   
  0.7             -7.791e-010     4.2633e-006     -3.0079e-007   
  0.75            1.3671e-009     7.2295e-006     -4.9425e-007   
  0.8             -1.3757e-009    1.1425e-005     -7.2525e-007   
  0.85            1.3459e-009     1.6679e-005     -1.01981e-006  
  0.9             -1.3992e-009    2.3154e-005     -1.3328e-006   
  0.95            -7.171e-010     3.0517e-005     -1.708e-006    
  1               1.3998e-009     3.8739e-005     -2.0745e-006   
  1.05            7.121e-010      4.7827e-005     -2.4068e-006   
  1.1             -1.4059e-009    5.7793e-005     -2.7513e-006   
  1.15            -6.994e-010     6.801e-005      -3.0992e-006   
  1.2             1.4033e-009     7.8663e-005     -3.3989e-006   
  1.25            6.946e-010      8.9855e-005     -3.6382e-006   
  1.3             -1.4119e-009    0.000101465     -3.871e-006    
  1.35            -6.855e-010     0.000113245     -4.097e-006    
  1.4             -6.883e-010     0.00012537      -4.2627e-006   
  1.45            1.4062e-009     0.00013754      -4.3997e-006   
  1.5             6.832e-010      0.00015011      -4.4784e-006   
  1.55            -1.4139e-009    0.000163        -4.5454e-006   
  1.6             -6.771e-010     0.00017576      -4.6119e-006   
  1.65            1.4091e-009     0.00018867      -4.6333e-006   
  1.7             6.695e-010      0.00020188      -4.6011e-006   
  1.75            -1.4142e-009    0.00021527      -4.5714e-006   
  1.8             -6.621e-010     0.00022861      -4.5422e-006   
  1.85            1.4121e-009     0.00024201      -4.478e-006    
  1.9             6.546e-010      0.00025572      -4.3706e-006   
  1.95            -1.4152e-009    0.00026952      -4.2666e-006   
  2               -6.474e-010     0.00028316      -4.1786e-006   
  2.05            1.4111e-009     0.00029689      -4.0552e-006   
  2.1             6.433e-010      0.00031087      -3.9002e-006   
  2.15            -1.4164e-009    0.00032493      -3.7544e-006   
  2.2             -6.341e-010     0.00033893      -3.637e-006    
  2.25            1.4099e-009     0.0003529       -3.4953e-006   
  2.3             6.29e-010       0.00036715      -3.3293e-006   
  2.35            -1.4134e-009    0.00038143      -3.171e-006    
  2.4             -6.201e-010     0.00039564      -3.0474e-006   
  2.45            1.405e-009      0.0004098       -2.9e-006      
  2.5             6.118e-010      0.00042418      -2.7307e-006   
  2.55            -1.4107e-009    0.00043862      -2.5847e-006   
  2.6             -6.064e-010     0.00045302      -2.4646e-006   
  2.65            1.4008e-009     0.00046734      -2.3307e-006   
  2.7             5.987e-010      0.00048187      -2.1729e-006   
  2.75            -1.4058e-009    0.00049657      -2.0426e-006   
  2.8             -5.948e-010     0.00051106      -1.9375e-006   
  2.85            1.326e-009      0.00052555      -1.8227e-006   
  2.9             9.161e-010      0.00054008      -1.688e-006    
  2.95            -1.3265e-009    0.00055483      -1.575e-006    
  3               -9.116e-010     0.00056934      -1.4827e-006   
  3.05            1.3305e-009     0.00058372      -1.3921e-006   
  3.1             8.942e-010      0.00059844      -1.2796e-006   
  3.15            -1.3324e-009    0.00061316      -1.1822e-006   
  3.2             -8.914e-010     0.00062773      -1.1152e-006   
  3.25            1.3341e-009     0.00064208      -1.0405e-006   
  3.3             1.3549e-009     0.00065676      -9.6858e-007   
  3.35            8.1e-010        0.0006714       -8.7842e-007   
  3.4             -1.3588e-009    0.00068631      -8.0625e-007   
  3.45            -8.011e-010     0.00070079      -7.6136e-007   
  3.5             1.3615e-009     0.00071513      -7.0828e-007   
  3.55            7.926e-010      0.0007299       -6.354e-007    
  3.6             -1.3659e-009    0.00074456      -5.7868e-007   
  3.65            -7.862e-010     0.0007591       -5.505e-007    
  3.7             1.3638e-009     0.00077351      -5.1369e-007   
  3.75            7.793e-010      0.00078804      -4.5622e-007   
  3.8             -1.3697e-009    0.00080282      -4.1216e-007   
  3.85            -7.726e-010     0.00081718      -3.9342e-007   
  3.9             1.3703e-009     0.00083159      -3.7402e-007   
  3.95            7.638e-010      0.00084611      -3.2245e-007   
  4               -1.376e-009     0.00086078      -2.9143e-007   
  4.05            -7.555e-010     0.00087506      -2.8543e-007   
  4.1             1.3756e-009     0.00088922      -2.6449e-007   
  4.15            7.49e-010       0.00090373      -2.2389e-007   
  4.2             -1.3823e-009    0.00091825      -1.9591e-007   
  4.25            -7.435e-010     0.00093245      -1.9791e-007   
  4.3             1.3809e-009     0.00094649      -1.8633e-007   
  4.35            7.369e-010      0.00096084      -1.4902e-007   
  4.4             -1.3883e-009    0.00097534      -1.2902e-007   
  4.45            -7.291e-010     0.00098945      -1.3438e-007   
  4.5             1.3871e-009     0.00100338      -1.2808e-007   
  4.55            7.236e-010      0.00101759      -9.651e-008    
  4.6             -7.022e-010     0.00103175      -1.02471e-007  
  4.65            1.3973e-009     0.00104545      -9.5175e-008   
  4.7             6.969e-010      0.00105957      -6.761e-008    
  4.75            -1.4051e-009    0.00107372      -5.6076e-008   
  4.8             -6.929e-010     0.00108741      -6.9157e-008   
  4.85            1.4011e-009     0.00110107      -6.8778e-008   
  4.9             6.862e-010      0.00111492      -4.0073e-008   
  4.95            -1.409e-009     0.00112868      -3.0063e-008   
  5               -1.4039e-009    0.0011431       -4.1158e-008   
END_DB

BEGIN_DB
 ICCAP_VAR VS         0              
 ICCAP_VAR VB         -2.5           
 ICCAP_VAR VD         0.1            

 #VG              IG              ID              IB             
  0               3.048e-010      -9.638e-010     -2.421e-008    
  0.05            -6.124e-010     -2.2837e-009    -1.9171e-008   
  0.1             1.353e-009      -1.2496e-009    -2.4137e-008   
  0.15            7.575e-010      2.1772e-009     -4.3e-009      
  0.2             -7.779e-010     -2.1534e-009    -1.7497e-008   
  0.25            1.3938e-009     -1.6103e-009    -2.3557e-008   
  0.3             -7.012e-010     -2.2287e-009    -1.7647e-008   
  0.35            1.3996e-009     -1.4221e-009    -2.4295e-008   
  0.4             -6.311e-010     -2.278e-009     -1.829e-008    
  0.45            1.3475e-009     -1.2824e-009    -2.4432e-008   
  0.5             7.785e-010      2.1556e-009     -4.233e-009    
  0.55            -7.978e-010     -2.1263e-009    -1.7589e-008   
  0.6             1.3852e-009     -1.6668e-009    -2.3548e-008   
  0.65            -7.228e-010     -2.1946e-009    -1.7566e-008   
  0.7             1.4005e-009     -1.395e-009     -2.4124e-008   
  0.75            -6.514e-010     -1.9201e-009    -1.7943e-008   
  0.8             1.3691e-009     2.371e-009      -1.7517e-008   
  0.85            7.856e-010      8.5269e-009     -4.204e-009    
  0.9             1.295e-010      2.4145e-008     -1.7711e-008   
  0.95            -8.688e-010     7.5348e-008     -1.7559e-008   
  1               -1.3869e-009    2.1819e-007     -1.8064e-008   
  1.05            -7.2e-010       5.2308e-007     -1.7927e-008   
  1.1             1.3848e-009     1.09567e-006    -2.4073e-008   
  1.15            -1.3623e-009    1.9931e-006     -2.1903e-008   
  1.2             -7.901e-010     3.199e-006      -1.7663e-008   
  1.25            1.3635e-009     4.6687e-006     -2.3565e-008   
  1.3             7.836e-010      6.3682e-006     -4.185e-009    
  1.35            -9.086e-010     8.2005e-006     -1.7605e-008   
  1.4             1.3392e-009     1.00199e-005    -2.3598e-008   
  1.45            7.634e-010      1.1824e-005     -9.281e-009    
  1.5             1.3497e-009     1.3496e-005     -1.3314e-008   
  1.55            8.528e-010      1.5073e-005     -4.241e-009    
  1.6             -1.011e-009     1.654e-005      -1.722e-008    
  1.65            1.3979e-009     1.7875e-005     -2.3556e-008   
  1.7             -7.162e-010     1.9129e-005     -1.8118e-008   
  1.75            1.3882e-009     2.0266e-005     -2.4137e-008   
  1.8             -7.961e-010     2.1341e-005     -1.7618e-008   
  1.85            1.3649e-009     2.2333e-005     -2.3481e-008   
  1.9             7.943e-010      2.327e-005      -4.26e-009     
  1.95            -9.186e-010     2.4152e-005     -1.756e-008    
  2               1.338e-009      2.4944e-005     -2.354e-008    
  2.05            9.09e-010       2.5729e-005     -4.178e-009    
  2.1             -6.395e-010     2.6455e-005     -2.0896e-008   
  2.15            1.4004e-009     2.7187e-005     -2.4599e-008   
  2.2             -7.17e-010      2.7853e-005     -1.8021e-008   
  2.25            1.3866e-009     2.8484e-005     -2.4163e-008   
  2.3             -7.954e-010     2.9095e-005     -1.7605e-008   
  2.35            1.3642e-009     2.9659e-005     -2.3517e-008   
  2.4             7.875e-010      3.0235e-005     -4.276e-009    
  2.45            -9.183e-010     3.076e-005      -1.7611e-008   
  2.5             1.3385e-009     3.1273e-005     -2.3597e-008   
  2.55            9.077e-010      3.1762e-005     -4.265e-009    
  2.6             -6.374e-010     3.2226e-005     -2.1031e-008   
  2.65            1.3974e-009     3.268e-005      -2.4568e-008   
  2.7             -7.162e-010     3.3116e-005     -1.8061e-008   
  2.75            1.3859e-009     3.3539e-005     -2.4176e-008   
  2.8             -7.942e-010     3.3959e-005     -1.7643e-008   
  2.85            1.3635e-009     3.4365e-005     -2.3525e-008   
  2.9             7.927e-010      3.4728e-005     -4.241e-009    
  2.95            -9.166e-010     3.5137e-005     -1.7627e-008   
  3               1.3368e-009     3.5497e-005     -2.3587e-008   
  3.05            9.107e-010      3.5855e-005     -4.2e-009      
  3.1             -6.41e-010      3.6188e-005     -2.0935e-008   
  3.15            1.3988e-009     3.6515e-005     -2.4504e-008   
  3.2             -7.152e-010     3.6789e-005     -1.8073e-008   
  3.25            1.3879e-009     3.7137e-005     -2.4202e-008   
  3.3             -7.926e-010     3.7453e-005     -1.7603e-008   
  3.35            1.3659e-009     3.772e-005      -2.3557e-008   
  3.4             7.904e-010      3.8019e-005     -4.249e-009    
  3.45            -9.144e-010     3.8231e-005     -1.764e-008    
  3.5             1.3372e-009     3.8425e-005     -2.3603e-008   
  3.55            9.054e-010      3.8786e-005     -4.219e-009    
  3.6             -6.374e-010     3.8968e-005     -2.1013e-008   
  3.65            1.3987e-009     3.9253e-005     -2.4609e-008   
  3.7             -7.141e-010     3.9479e-005     -1.8119e-008   
  3.75            1.3869e-009     3.9741e-005     -2.4173e-008   
  3.8             -7.915e-010     3.9958e-005     -1.7622e-008   
  3.85            1.3635e-009     4.0183e-005     -2.3542e-008   
  3.9             7.887e-010      4.0412e-005     -4.203e-009    
  3.95            -9.171e-010     4.0607e-005     -1.7581e-008   
  4               1.3387e-009     4.0798e-005     -2.3529e-008   
  4.05            9.031e-010      4.1001e-005     -4.158e-009    
  4.1             -6.372e-010     4.1221e-005     -2.0949e-008   
  4.15            1.4003e-009     4.1448e-005     -2.4576e-008   
