! VERSION = 6.00
BEGIN_HEADER
 ICCAP_INPUTS
  VG         V  B GROUND SMU4 0.001 LIN        2    0          5          6    1         
  VS         V  E GROUND SMU2 0.1 CON        0
  VD         V  S GROUND SMU1 0.1 LIN        1    0          5          101  0.05      
  VB         V  C GROUND SMU3 0.1 LIN        3    0          -2.5       2    -2.5      
 ICCAP_OUTPUTS
  ID         I  S GROUND SMU1 B
  IB         I  C GROUND SMU3 B
  IG         I  B GROUND SMU4 B
END_HEADER

BEGIN_DB
 ICCAP_VAR VG         0              
 ICCAP_VAR VS         0              
 ICCAP_VAR VB         0              

 #VD              ID              IB              IG             
  0               -1.1441e-009    -9.575e-009     -1.2879e-009   
  0.05            3.88e-010       1.5474e-008     -2.4882e-009   
  0.1             -2.1624e-009    1.64e-009       -1.168e-009    
  0.15            -1.8099e-009    -1.2149e-008    3.234e-010     
  0.2             -1.9166e-009    -1.1596e-008    1.627e-010     
  0.25            -2.0483e-009    -1.1027e-008    -6e-013        
  0.3             -2.164e-009     -1.0902e-008    -1.855e-010    
  0.35            -2.2437e-009    -1.1023e-008    -3.908e-010    
  0.4             -2.291e-009     -1.1384e-008    -5.871e-010    
  0.45            -1.5244e-009    -2.0376e-008    1.2709e-009    
  0.5             -9.01e-011      -1.2052e-008    2.8978e-009    
  0.55            2.3389e-009     1.0767e-008     1.0542e-009    
  0.6             1.8919e-009     1.2463e-008     -1.5358e-009   
  0.65            -1.4046e-009    9.171e-009      -1.8916e-009   
  0.7             -2.2805e-009    -1.1116e-008    -5.137e-010    
  0.75            -1.4755e-009    -2.17e-008      1.284e-009     
  0.8             -3.17e-011      -1.077e-008     2.9219e-009    
  0.85            1.5392e-009     -3.71e-010      1.8465e-009    
  0.9             2.3303e-009     1.036e-008      4.11e-010      
  0.95            1.4015e-009     2.5555e-008     -1.3531e-009   
  1               3.14e-011       1.1162e-008     -1.3216e-009   
  1.05            1.717e-010      1.1609e-008     -2.7038e-009   
  1.1             -1.3424e-009    5.72e-010       -1.9347e-009   
  1.15            -2.2965e-009    -1.1388e-008    -5.972e-010    
  1.2             -1.5307e-009    -2.0152e-008    1.2703e-009    
  1.25            -9.82e-011      -1.2093e-008    2.8948e-009    
  1.3             2.3339e-009     1.0764e-008     1.0632e-009    
  1.35            2.2239e-009     1.1298e-008     1.2156e-009    
  1.4             1.9849e-009     1.1262e-008     -1.998e-010    
  1.45            2.064e-009      1.058e-008      -3.49e-011     
  1.5             2.1594e-009     1.0244e-008     1.353e-010     
  1.55            2.2713e-009     1.0338e-008     3.09e-010      
  1.6             2.3607e-009     1.06e-008       4.909e-010     
  1.65            1.4585e-009     2.4295e-008     -1.34e-009     
  1.7             8.84e-011       1.0919e-008     -2.7495e-009   
  1.75            -2.0438e-009    -1.1018e-008    -2.2e-012      
  1.8             -2.164e-009     -1.082e-008     -1.923e-010    
  1.85            -2.2453e-009    -1.1038e-008    -3.918e-010    
  1.9             -2.2916e-009    -1.1388e-008    -5.919e-010    
  1.95            -1.5278e-009    -2.0323e-008    1.2688e-009    
  2               -8.83e-011      -1.2118e-008    2.8847e-009    
  2.05            2.1151e-009     1.0269e-008     6.21e-011      
  2.1             2.2268e-009     1.0276e-008     2.363e-010     
  2.15            2.3274e-009     1.036e-008      4.095e-010     
  2.2             1.3931e-009     2.5633e-008     -1.3515e-009   
  2.25            1.72e-011       1.1242e-008     -1.3198e-009   
  2.3             1.637e-010      1.1464e-008     -2.6907e-009   
  2.35            -1.3518e-009    6.72e-010       -1.9313e-009   
  2.4             -2.2939e-009    -1.1466e-008    -5.96e-010     
  2.45            -2.2921e-009    -1.1715e-008    -7.944e-010    
  2.5             -1.6197e-009    -1.6811e-008    2.0703e-009    
  2.55            1.9162e-009     -8.277e-009     1.5336e-009    
  2.6             2.1439e-009     1.0117e-008     1.017e-010     
  2.65            2.2548e-009     1.0248e-008     2.774e-010     
  2.7             2.3473e-009     1.0447e-008     4.65e-010      
  2.75            1.437e-009      2.5019e-008     -1.3411e-009   
  2.8             5.35e-011       1.1088e-008     -1.3111e-009   
  2.85            2.005e-010      1.2121e-008     -2.6595e-009   
  2.9             -1.3176e-009    6.87e-010       -1.9598e-009   
  2.95            -2.2978e-009    -1.159e-008     -6.532e-010    
  3               -1.5582e-009    -1.934e-008     1.2574e-009    
  3.05            -1.348e-010     -1.2718e-008    2.8544e-009    
  3.1             2.1447e-009     1.0004e-008     1.027e-010     
  3.15            2.2579e-009     1.0304e-008     2.872e-010     
  3.2             2.3485e-009     1.0522e-008     4.67e-010      
  3.25            1.4398e-009     2.4924e-008     -1.3394e-009   
  3.3             5.42e-011       1.1003e-008     -1.3082e-009   
  3.35            2.073e-010      1.2211e-008     -2.6532e-009   
  3.4             -1.3149e-009    6.92e-010       -1.9559e-009   
  3.45            -2.2919e-009    -1.1572e-008    -6.534e-010    
  3.5             -2.2735e-009    -1.1572e-008    -8.422e-010    
  3.55            -2.227e-009     -1.1205e-008    -9.865e-010    
  3.6             -1.705e-009     -1.3359e-008    1.7249e-009    
  3.65            1.6448e-009     -9.271e-009     1.7646e-009    
  3.7             2.2879e-009     1.0281e-008     3.401e-010     
  3.75            2.3666e-009     1.0735e-008     5.247e-010     
  3.8             1.4773e-009     2.4154e-008     -1.329e-009    
  3.85            9.19e-011       1.1079e-008     -2.7123e-009   
  3.9             -2.0642e-009    -1.0699e-008    -1.14e-011     
  3.95            -2.1778e-009    -1.0831e-008    -2.19e-010     
  4               -2.2503e-009    -1.0938e-008    -4.241e-010    
  4.05            -2.2858e-009    -1.1551e-008    -6.256e-010    
  4.1             -1.5451e-009    -2.0028e-008    1.2617e-009    
  4.15            -1.044e-010     -1.2658e-008    2.8544e-009    
  4.2             2.1336e-009     1.0122e-008     7.49e-011      
  4.25            2.2469e-009     1.0261e-008     2.655e-010     
  4.3             2.3368e-009     1.0553e-008     4.379e-010     
  4.35            1.4163e-009     2.5457e-008     -1.3418e-009   
  4.4             3.11e-011       1.1135e-008     -1.3123e-009   
  4.45            1.759e-010      1.1887e-008     -2.6663e-009   
  4.5             -1.3311e-009    6.3e-010        -1.9423e-009   
  4.55            -2.2876e-009    -1.1519e-008    -6.295e-010    
  4.6             -1.5441e-009    -2.0011e-008    1.2596e-009    
  4.65            -1.114e-010     -1.2362e-008    2.8547e-009    
  4.7             2.1339e-009     1.0148e-008     7.61e-011      
  4.75            2.2454e-009     1.026e-008      2.591e-010     
  4.8             2.3387e-009     1.0606e-008     4.425e-010     
  4.85            2.3936e-009     1.11e-008       6.265e-010     
  4.9             1.5648e-009     2.1919e-008     -1.3138e-009   
  4.95            1.809e-010      1.1952e-008     -2.6545e-009   
  5               -1.3309e-009    6.12e-010       -1.9403e-009   
END_DB

BEGIN_DB
 ICCAP_VAR VG         1              
 ICCAP_VAR VS         0              
 ICCAP_VAR VB         0              

 #VD              ID              IB              IG             
  0               -2.0699e-007    2.628e-008      -1.4719e-009   
  0.05            1.4445e-005     -1.1824e-008    2.5673e-009    
  0.1             2.4459e-005     -1.0849e-008    -4.605e-010    
  0.15            3.1356e-005     2.2859e-008     -1.5707e-009   
  0.2             3.5577e-005     1.0731e-008     1.0669e-009    
  0.25            3.8913e-005     -2.4314e-008    1.2652e-009    
  0.3             4.1603e-005     -1.1008e-008    -6.898e-010    
  0.35            4.3983e-005     2.4719e-008     -1.4464e-009   
  0.4             4.5798e-005     1.0828e-008     1.546e-010     
  0.45            4.7093e-005     -2.0112e-008    2.0035e-009    
  0.5             4.8948e-005     -1.1541e-008    -8.914e-010    
  0.55            5.0629e-005     2.631e-008      -1.3786e-009   
  0.6             5.1273e-005     1.1084e-008     1.4348e-009    
  0.65            5.2854e-005     -1.6794e-008    1.7199e-009    
  0.7             5.405e-005      -1.2262e-008    1.258e-010     
  0.75            5.5917e-005     1.4679e-008     -2.2399e-009   
  0.8             5.6577e-005     9.035e-009      2.1432e-009    
  0.85            5.7732e-005     -1.1163e-008    -1.787e-010    
  0.9             5.939e-005      1.9967e-008     -1.832e-009    
  0.95            6.04e-005       1.441e-008      -2.634e-010    
  1               6.0977e-005     -1.3569e-008    2.6295e-009    
  1.05            6.2263e-005     -1.081e-008     -4.112e-010    
  1.1             6.3722e-005     2.2247e-008     -1.612e-009    
  1.15            6.4668e-005     1.2021e-008     -8.11e-011     
  1.2             6.5151e-005     -1.6614e-008    2.384e-009     
  1.25            6.6456e-005     -1.0946e-008    -6.447e-010    
  1.3             6.78e-005       2.427e-008      -1.4681e-009   
  1.35            6.8732e-005     1.0986e-008     1.137e-010     
  1.4             6.9157e-005     -1.9404e-008    2.0766e-009    
  1.45            7.0431e-005     -1.1322e-008    -8.506e-010    
  1.5             7.1663e-005     2.5999e-008     -1.3916e-009   
  1.55            7.1705e-005     1.0936e-008     1.3902e-009    
  1.6             7.2864e-005     -1.7784e-008    1.7804e-009    
  1.65            7.3672e-005     -1.254e-008     1.658e-010     
  1.7             7.5271e-005     1.3844e-008     -2.2986e-009   
  1.75            7.5533e-005     8.907e-009      2.1029e-009    
  1.8             7.6405e-005     -1.1631e-008    -1.301e-010    
  1.85            7.7865e-005     1.8682e-008     -1.8906e-009   
  1.9             7.8767e-005     2.4252e-008     -1.4287e-009   
  1.95            7.9561e-005     1.8817e-008     -1.8256e-009   
  2               8.0461e-005     2.4091e-008     -1.4107e-009   
  2.05            8.1216e-005     1.8463e-008     -1.765e-009    
  2.1             8.2162e-005     9.963e-009      -2.3942e-009   
  2.15            8.2874e-005     1.7306e-008     -1.7091e-009   
  2.2             8.3743e-005     8.55e-009       -2.3356e-009   
  2.25            8.4496e-005     1.5382e-008     -1.6584e-009   
  2.3             8.5345e-005     6.094e-009      -2.2757e-009   
  2.35            8.612e-005      1.43e-009       -2.7073e-009   
  2.4             8.6945e-005     1.971e-009      -2.2112e-009   
  2.45            8.7384e-005     -2.1046e-008    -2.7853e-009   
  2.5             8.8223e-005     -2.0414e-008    -2.5667e-009   
  2.55            8.8357e-005     -1.367e-008     1.8364e-009    
  2.6             8.9294e-005     -4.1965e-008    1.328e-010     
  2.65            9.0641e-005     -3.4363e-008    -1.8894e-009   
  2.7             9.1081e-005     -3.3348e-008    2.3158e-009    
  2.75            9.1838e-005     -6.2496e-008    -4.496e-010    
  2.8             9.3087e-005     -3.8605e-008    -1.5745e-009   
  2.85            9.3413e-005     -6.3026e-008    2.5107e-009    
  2.9             9.4361e-005     -9.6863e-008    -8.008e-010    
  2.95            9.5428e-005     -7.4471e-008    -1.4085e-009   
  3               9.6271e-005     -1.2921e-007    -1.6224e-009   
  3.05            9.6812e-005     -1.1946e-007    -1.538e-009    
  3.1             9.7215e-005     -1.4812e-007    2.5421e-009    
  3.15            9.822e-005      -1.942e-007     -8.445e-010    
  3.2             9.9263e-005     -1.8372e-007    -1.3941e-009   
  3.25            9.9498e-005     -2.3236e-007    2.7774e-009    
  3.3             0.000100666     -2.8901e-007    -1.0975e-009   
  3.35            0.000101628     -2.8863e-007    -1.3318e-009   
  3.4             0.000101812     -3.5401e-007    2.9212e-009    
  3.45            0.000103197     -4.2297e-007    -1.3787e-009   
  3.5             0.000103863     -4.4262e-007    -1.7692e-009   
  3.55            0.000104198     -5.1656e-007    2.3871e-009    
  3.6             0.000105062     -6.0762e-007    -5.773e-010    
  3.65            0.000106316     -6.4686e-007    -1.4968e-009   
  3.7             0.000106672     -7.4586e-007    2.5917e-009    
  3.75            0.00010764      -8.6194e-007    -6.006e-010    
  3.8             0.00010861      -9.5378e-007    -2.4761e-009   
  3.85            0.00010898      -1.05294e-006   2.0593e-009    
  3.9             0.00010966      -1.1957e-006    2.694e-009     
  3.95            0.00011126      -1.3353e-006    -1.9693e-009   
  4               0.00011232      -1.4585e-006    1.844e-010     
  4.05            0.00011254      -1.6534e-006    1.7445e-009    
  4.1             0.00011385      -1.8219e-006    -2.4998e-009   
  4.15            0.00011461      -1.9843e-006    8.81e-010      
  4.2             0.00011538      -2.2391e-006    1.2831e-009    
  4.25            0.00011685      -2.4421e-006    -2.7991e-009   
  4.3             0.00011708      -2.6523e-006    1.5045e-009    
  4.35            0.00011841      -2.9448e-006    3.118e-010     
  4.4             0.00012033      -3.2006e-006    -2.3349e-009   
  4.45            0.00012074      -3.4874e-006    2.1762e-009    
  4.5             0.00012192      -3.8336e-006    -3.756e-010    
  4.55            0.00012367      -4.1333e-006    -1.5219e-009   
  4.6             0.00012436      -4.5049e-006    2.6588e-009    
  4.65            0.00012593      -4.9287e-006    -1.0676e-009   
  4.7             0.00012732      -5.2699e-006    -1.3167e-009   
  4.75            0.00012791      -5.7306e-006    2.9041e-009    
  4.8             0.00012991      -6.2371e-006    -1.7188e-009   
  4.85            0.00013088      -6.6829e-006    -1.585e-010    
  4.9             0.00013162      -7.2289e-006    2.3159e-009    
  4.95            0.00013354      -7.7876e-006    -2.1666e-009   
  5               0.00013508      -8.3222e-006    5.095e-010     
END_DB

BEGIN_DB
 ICCAP_VAR VG         2              
 ICCAP_VAR VS         0              
 ICCAP_VAR VB         0              

 #VD              ID              IB              IG             
  0               -5.1592e-007    1.0885e-008     -1.2105e-009   
  0.05            7.4556e-005     7.77e-010       1.4778e-009    
  0.1             0.00014602      -1.0736e-008    -2.396e-009    
  0.15            0.00021371      1.0767e-008     7.733e-010     
  0.2             0.00027725      -2.609e-008     1.304e-009     
  0.25            0.0003366       -1.188e-008     -1.6945e-009   
  0.3             0.00039044      1.2684e-008     -1.995e-010    
  0.35            0.00043904      -1.6905e-008    2.3829e-009    
  0.4             0.00048301      -1.1186e-008    -7.952e-010    
  0.45            0.00052184      2.7118e-008     -1.3693e-009   
  0.5             0.00055436      1.1243e-008     1.5921e-009    
  0.55            0.00058343      -1.2701e-008    2.618e-010     
  0.6             0.00060887      1.4843e-008     -2.2646e-009   
  0.65            0.0006291       1.0514e-008     6.815e-010     
  0.7             0.00064607      -2.5505e-008    1.3309e-009    
  0.75            0.00066204      -1.1998e-008    -1.6121e-009   
  0.8             0.00067397      1.4089e-008     -1.4576e-009   
  0.85            0.00068469      1.0431e-008     2.212e-010     
  0.9             0.00069295      -2.1245e-008    1.6915e-009    
  0.95            0.00070077      -1.1584e-008    1.6e-011       
  1               0.00070901      1.9022e-008     -1.8916e-009   
  1.05            0.000715        1.2912e-008     -2.001e-010    
  1.1             0.00071972      -1.6833e-008    2.3846e-009    
  1.15            0.0007257       -1.1141e-008    -7.875e-010    
  1.2             0.00073104      2.7006e-008     -1.3696e-009   
  1.25            0.00073375      1.1254e-008     1.582e-009     
  1.3             0.0007384       -1.2744e-008    2.61e-010      
  1.35            0.00074372      1.4711e-008     -2.2767e-009   
  1.4             0.00074688      1.0489e-008     6.72e-010      
  1.45            0.00074976      -2.5447e-008    1.3292e-009    
  1.5             0.00075469      -1.201e-008     -1.6042e-009   
  1.55            0.00075722      1.4263e-008     -1.4597e-009   
  1.6             0.00076068      1.0357e-008     2.183e-010     
  1.65            0.00076255      -2.1153e-008    1.701e-009     
  1.7             0.00076524      -1.1575e-008    1.69e-011      
  1.75            0.00076946      1.8862e-008     -1.8951e-009   
  1.8             0.00077193      1.2771e-008     -2.038e-010    
  1.85            0.0007735       -1.6929e-008    2.385e-009     
  1.9             0.00077692      -1.1396e-008    -7.887e-010    
  1.95            0.00077982      2.6574e-008     -1.3708e-009   
  2               0.00078045      1.0644e-008     1.5726e-009    
  2.05            0.0007833       -1.3566e-008    2.694e-010     
  2.1             0.00078682      1.3373e-008     -2.2762e-009   
  2.15            0.00078824      8.494e-009      6.711e-010     
  2.2             0.00078992      -2.8334e-008    1.3341e-009    
  2.25            0.00079355      -1.6066e-008    -1.5986e-009   
  2.3             0.00079524      1.1613e-008     -1.9965e-009   
  2.35            0.00079733      4.014e-009      -2.4719e-009   
  2.4             0.00079924      4.14e-010       -2.7266e-009   
  2.45            0.00080115      1.623e-009      -2.0796e-009   
  2.5             0.0008022       -1.1065e-008    2.3242e-009    
  2.55            0.00080412      -3.706e-008     -6.041e-010    
  2.6             0.00080678      -8.494e-009     -1.4127e-009   
  2.65            0.0008079       -3.4772e-008    2.8111e-009    
  2.7             0.00081045      -6.6617e-008    -1.2551e-009   
  2.75            0.00081205      -4.6777e-008    -1.7773e-009   
  2.8             0.00081307      -7.7788e-008    2.4681e-009    
  2.85            0.00081491      -1.022e-007     -1.5e-012      
  2.9             0.00081722      -1.1243e-007    -1.8499e-009   
  2.95            0.00081797      -1.5146e-007    2.4381e-009    
  3               0.00082002      -2.0589e-007    -7.922e-010    
  3.05            0.00082208      -2.072e-007     -1.369e-009    
  3.1             0.00082284      -2.7311e-007    2.893e-009     
  3.15            0.00082549      -3.4476e-007    -1.4177e-009   
  3.2             0.00082659      -3.7648e-007    -1.6031e-009   
  3.25            0.00082778      -4.5668e-007    2.5846e-009    
  3.3             0.00082972      -5.5773e-007    -9.885e-010    
  3.35            0.00083174      -6.1091e-007    -1.3321e-009   
  3.4             0.00083234      -7.3794e-007    2.9255e-009    
  3.45            0.000835        -8.7388e-007    -1.6281e-009   
  3.5             0.00083605      -9.8294e-007    -2.624e-010    
  3.55            0.00083741      -1.158e-006     -2.4218e-009   
  3.6             0.00083888      -1.3095e-006    7.938e-010     
  3.65            0.00084003      -1.5396e-006    1.2999e-009    
  3.7             0.00084249      -1.7374e-006    -2.7989e-009   
  3.75            0.00084303      -1.9641e-006    1.4168e-009    
  3.8             0.00084518      -2.2639e-006    1.5748e-009    
  3.85            0.00084759      -2.5581e-006    -2.6123e-009   
  3.9             0.00084896      -2.8771e-006    9.884e-010     
  3.95            0.00085074      -3.2921e-006    1.2644e-009    
  4               0.00085316      -3.689e-006     -2.7659e-009   
  4.05            0.0008539       -4.1386e-006    1.6268e-009    
  4.1             0.00085624      -4.6756e-006    2.233e-010     
  4.15            0.00085976      -5.2162e-006    -2.2112e-009   
