! VERSION = 6.00
BEGIN_HEADER
 ICCAP_INPUTS
  VG         V  B GROUND SMU4 0.001 LIN        2    0          5          6    1         
  VS         V  E GROUND SMU2 0.1 CON        0
  VD         V  S GROUND SMU1 0.1 LIN        1    0          5          101  0.05      
  VB         V  C GROUND SMU3 0.1 LIN        3    0          -2.5       2    -2.5      
 ICCAP_OUTPUTS
  ID         I  S GROUND SMU1 B
  IB         I  C GROUND SMU3 B
  IG         I  B GROUND SMU4 B
END_HEADER

BEGIN_DB
 ICCAP_VAR VG         0              
 ICCAP_VAR VS         0              
 ICCAP_VAR VB         0              

 #VD              ID              IB              IG             
  0               9.932e-010      2.1189e-008     1.0495e-009    
  0.05            -1.1627e-009    -2.6035e-008    1.4222e-009    
  0.1             1.3364e-009     -8.764e-009     2.0463e-009    
  0.15            1.842e-009      1.358e-008      -1.6151e-009   
  0.2             -1.4812e-009    8.061e-009      -1.8282e-009   
  0.25            -2.237e-009     -1.0969e-008    -4.324e-010    
  0.3             -2.2811e-009    -1.1457e-008    -6.321e-010    
  0.35            -1.5374e-009    -1.9888e-008    1.267e-009     
  0.4             -1.281e-010     -1.2664e-008    2.8925e-009    
  0.45            2.1594e-009     1.0083e-008     1.24e-010      
  0.5             2.2731e-009     1.028e-008      3.041e-010     
  0.55            2.3668e-009     1.0594e-008     4.887e-010     
  0.6             1.4772e-009     2.4965e-008     -1.3384e-009   
  0.65            1.163e-010      1.1302e-008     -1.3096e-009   
  0.7             2.619e-010      1.261e-008      -2.6647e-009   
  0.75            -1.2704e-009    6.91e-010       -1.9796e-009   
  0.8             -2.2835e-009    -1.1274e-008    -7.254e-010    
  0.85            -1.5845e-009    -1.8086e-008    1.2547e-009    
  0.9             -2.039e-010     -1.3991e-008    2.8522e-009    
  0.95            2.2119e-009     1.0217e-008     1.963e-010     
  1               2.3207e-009     1.0387e-008     3.906e-010     
  1.05            2.3961e-009     1.072e-008      5.756e-010     
  1.1             1.5387e-009     2.2991e-008     -1.3259e-009   
  1.15            1.779e-010      1.1715e-008     -2.7184e-009   
  1.2             -1.3353e-009    5.72e-010       -1.9295e-009   
  1.25            -2.2743e-009    -1.1292e-008    -6.131e-010    
  1.3             -1.5264e-009    -2.0328e-008    1.2689e-009    
  1.35            -1.045e-010     -1.2402e-008    2.8985e-009    
  1.4             2.1492e-009     1.0225e-008     1.08e-010      
  1.45            2.265e-009      1.023e-008      2.896e-010     
  1.5             2.3564e-009     1.0494e-008     4.691e-010     
  1.55            1.4575e-009     2.5204e-008     -1.3401e-009   
  1.6             9.97e-011       1.1199e-008     -1.3124e-009   
  1.65            2.44e-010       1.2359e-008     -2.677e-009    
  1.7             -1.282e-009     7.63e-010       -1.972e-009    
  1.75            -2.2821e-009    -1.1359e-008    -7.053e-010    
  1.8             -1.573e-009     -1.8276e-008    1.2571e-009    
  1.85            -1.93e-010      -1.3688e-008    2.8631e-009    
  1.9             2.1966e-009     1.0186e-008     1.816e-010     
  1.95            2.3091e-009     1.0278e-008     3.663e-010     
  2               2.3914e-009     1.0654e-008     5.519e-010     
  2.05            1.5237e-009     2.336e-008      -1.328e-009    
  2.1             1.624e-010      1.1478e-008     -2.7267e-009   
  2.15            -1.3507e-009    5.83e-010       -1.9168e-009   
  2.2             -2.2673e-009    -1.1233e-008    -5.905e-010    
  2.25            -1.514e-009     -2.0725e-008    1.2714e-009    
  2.3             -8.87e-011      -1.2096e-008    2.9072e-009    
  2.35            2.1349e-009     1.0241e-008     8.72e-011      
  2.4             2.2533e-009     1.0305e-008     2.667e-010     
  2.45            2.3493e-009     1.045e-008      4.512e-010     
  2.5             2.4141e-009     1.0723e-008     6.373e-010     
  2.55            1.59e-009       2.1027e-008     -1.3153e-009   
  2.6             2.339e-010      1.2179e-008     -2.6876e-009   
  2.65            -1.2895e-009    7.23e-010       -1.9615e-009   
  2.7             -2.2809e-009    -1.1393e-008    -6.916e-010    
  2.75            -1.5657e-009    -1.8639e-008    1.2593e-009    
  2.8             -1.744e-010     -1.3419e-008    2.8709e-009    
  2.85            2.1896e-009     1.0193e-008     1.692e-010     
  2.9             2.3008e-009     1.0332e-008     3.524e-010     
  2.95            2.3836e-009     1.0683e-008     5.397e-010     
  3               1.509e-009      2.3529e-008     -1.3304e-009   
  3.05            1.538e-010      1.1447e-008     -2.7354e-009   
  3.1             -2.076e-009     -1.0884e-008    -7.77e-011     
  3.15            -2.1851e-009    -1.0893e-008    -2.896e-010    
  3.2             -2.2519e-009    -1.1047e-008    -4.973e-010    
  3.25            -2.2816e-009    -1.1302e-008    -7.023e-010    
  3.3             -1.5714e-009    -1.8386e-008    1.2582e-009    
  3.35            -1.874e-010     -1.3626e-008    2.8646e-009    
  3.4             2.1962e-009     1.0227e-008     1.814e-010     
  3.45            2.3055e-009     1.0253e-008     3.685e-010     
  3.5             2.3915e-009     1.0723e-008     5.546e-010     
  3.55            1.5208e-009     2.3341e-008     -1.3292e-009   
  3.6             1.619e-010      1.1385e-008     -2.735e-009    
  3.65            -1.3472e-009    5.44e-010       -1.9165e-009   
  3.7             -2.2686e-009    -1.1253e-008    -5.905e-010    
  3.75            -1.513e-009     -2.0621e-008    1.2724e-009    
  3.8             -9.31e-011      -1.2189e-008    2.9081e-009    
  3.85            2.1337e-009     1.0287e-008     8.42e-011      
  3.9             2.2483e-009     1.0199e-008     2.685e-010     
  3.95            2.3476e-009     1.0434e-008     4.482e-010     
  4               2.4157e-009     1.0699e-008     6.336e-010     
  4.05            1.5887e-009     2.1164e-008     -1.3166e-009   
  4.1             2.296e-010      1.2122e-008     -2.6863e-009   
  4.15            -1.2933e-009    5.46e-010       -1.9607e-009   
  4.2             -2.2797e-009    -1.1372e-008    -6.832e-010    
  4.25            -1.5622e-009    -1.8802e-008    1.2601e-009    
  4.3             -1.697e-010     -1.3425e-008    2.8724e-009    
  4.35            2.1845e-009     1.0237e-008     1.626e-010     
  4.4             2.2971e-009     1.0328e-008     3.47e-010      
  4.45            2.3851e-009     1.0571e-008     5.335e-010     
  4.5             1.5083e-009     2.3637e-008     -1.3314e-009   
  4.55            1.538e-010      1.1426e-008     -1.3027e-009   
  4.6             3.048e-010      1.3228e-008     -2.6329e-009   
  4.65            -1.2482e-009    7.16e-010       -2.0062e-009   
  4.7             -2.2806e-009    -1.1339e-008    -7.703e-010    
  4.75            -1.6015e-009    -1.6826e-008    1.2489e-009    
  4.8             -2.475e-010     -1.4477e-008    2.8271e-009    
  4.85            2.239e-009      1.0296e-008     2.466e-010     
  4.9             2.3415e-009     1.0394e-008     4.316e-010     
  4.95            1.4285e-009     2.5715e-008     -1.3501e-009   
  5               7.67e-011       1.1144e-008     -1.3161e-009   
END_DB

BEGIN_DB
 ICCAP_VAR VG         1              
 ICCAP_VAR VS         0              
 ICCAP_VAR VB         0              

 #VD              ID              IB              IG             
  0               -1.3627e-008    -8.84e-009      -1.3323e-009   
  0.05            9.551e-007      -1.2125e-008    2.6821e-009    
  0.1             1.6351e-006     1.2488e-008     2.0118e-009    
  0.15            2.1599e-006     -1.1022e-008    -3.433e-010    
  0.2             2.5016e-006     1.305e-008      -2.3407e-009   
  0.25            2.7105e-006     1.1552e-008     -1.08e-011     
  0.3             2.8535e-006     -1.0001e-008    2.842e-009     
  0.35            2.9604e-006     -1.1303e-008    -1.3026e-009   
  0.4             3.0657e-006     2.6216e-008     -1.3946e-009   
  0.45            3.1308e-006     1.3139e-008     -1.607e-010    
  0.5             3.1931e-006     -8.858e-009     1.2492e-009    
  0.55            3.2873e-006     -1.1217e-008    -2.419e-010    
  0.6             3.356e-006      1.1829e-008     -2.4439e-009   
  0.65            3.4349e-006     1.2265e-008     -8.53e-011     
  0.7             3.4805e-006     -9.097e-009     2.8905e-009    
  0.75            3.5222e-006     -1.1221e-008    -1.2219e-009   
  0.8             3.5767e-006     2.5456e-008     -1.4229e-009   
  0.85            3.6248e-006     1.0618e-008     8.62e-010      
  0.9             3.6904e-006     -2.1641e-008    1.7264e-009    
  0.95            3.7132e-006     -1.0836e-008    -5.759e-010    
  1               3.7397e-006     1.6451e-008     -2.0661e-009   
  1.05            3.7939e-006     1.0655e-008     1.84e-010      
  1.1             3.8419e-006     -1.2912e-008    2.6865e-009    
  1.15            3.8828e-006     -1.1879e-008    -1.514e-009    
  1.2             3.9471e-006     2.7164e-008     -1.346e-009    
  1.25            3.9747e-006     1.0442e-008     1.1093e-009    
  1.3             4.0222e-006     -2.4185e-008    1.4243e-009    
  1.35            4.0618e-006     -1.1424e-008    -8.86e-010     
  1.4             4.1245e-006     2.1174e-008     -1.6945e-009   
  1.45            4.1567e-006     1.019e-008      2.0635e-009    
  1.5             4.1967e-006     -1.4935e-008    1.5751e-009    
  1.55            4.2251e-006     -1.0993e-008    -7.228e-010    
  1.6             4.2646e-006     1.8634e-008     -1.8998e-009   
  1.65            4.3302e-006     1.0165e-008     3.141e-010     
  1.7             4.3865e-006     -1.4791e-008    2.5449e-009    
  1.75            4.4413e-006     -1.2154e-008    2.38e-011      
  1.8             4.4697e-006     1.1348e-008     -2.6665e-009   
  1.85            4.5266e-006     1.6137e-008     -1.5209e-009   
  1.9             4.5329e-006     1.0146e-008     6.794e-010     
  1.95            4.5635e-006     -1.9967e-008    2.0031e-009    
  2               4.6161e-006     -1.1027e-008    -3.671e-010    
  2.05            4.6732e-006     1.3503e-008     -2.3221e-009   
  2.1             4.7029e-006     2.6662e-008     -1.3694e-009   
  2.15            4.7032e-006     2.6792e-008     -1.363e-009    
  2.2             4.7131e-006     2.6711e-008     -1.358e-009    
  2.25            4.7525e-006     1.0248e-008     1.0556e-009    
  2.3             4.7907e-006     -2.4089e-008    1.4705e-009    
  2.35            4.8256e-006     -1.1664e-008    -8.347e-010    
  2.4             4.8627e-006     1.9599e-008     -1.7652e-009   
  2.45            4.8707e-006     1.9835e-008     -1.7336e-009   
  2.5             4.9157e-006     2.0069e-008     -1.701e-009    
  2.55            4.9334e-006     9.124e-009      2.0549e-009    
  2.6             5.0176e-006     -1.6254e-008    1.581e-009     
  2.65            5.0811e-006     -1.2484e-008    -7.139e-010    
  2.7             5.1332e-006     1.6714e-008     -1.9076e-009   
  2.75            5.1585e-006     1.6709e-008     -1.8694e-009   
  2.8             5.1712e-006     1.6567e-008     -1.8331e-009   
  2.85            5.1799e-006     1.6571e-008     -1.7966e-009   
  2.9             5.2222e-006     1.6465e-008     -1.7601e-009   
  2.95            5.2704e-006     1.6063e-008     -1.7302e-009   
  3               5.3119e-006     1.5586e-008     -1.6981e-009   
  3.05            5.3388e-006     1.5299e-008     -1.6692e-009   
  3.1             5.3703e-006     1.4638e-008     -1.6369e-009   
  3.15            5.4225e-006     3.528e-009      -2.7203e-009   
  3.2             5.4547e-006     2.153e-009      -2.704e-009    
  3.25            5.4851e-006     7.64e-010       -2.6874e-009   
  3.3             5.4963e-006     -8.76e-010      -2.6676e-009   
  3.35            5.5645e-006     -2.824e-009     -2.654e-009    
  3.4             5.6102e-006     -4.963e-009     -2.632e-009    
  3.45            5.611e-006      -2.017e-008     -2.6883e-009   
  3.5             5.6564e-006     -1.0008e-008    1.1779e-009    
  3.55            5.7043e-006     -4.8333e-008    1.3782e-009    
  3.6             5.7565e-006     -3.6137e-008    -2.2729e-009   
  3.65            5.7989e-006     -1.875e-008     2.85e-011      
  3.7             5.8106e-006     -4.4322e-008    2.8153e-009    
  3.75            5.8665e-006     -4.9694e-008    -1.3468e-009   
  3.8             5.9062e-006     -1.6428e-008    -1.3802e-009   
  3.85            5.9347e-006     -3.9251e-008    2.4338e-009    
  3.9             5.9636e-006     -6.5407e-008    -1.141e-010    
  3.95            6.005e-006      -4.93e-008      -2.5543e-009   
  4               6.0454e-006     -5.6305e-008    1.3607e-009    
  4.05            6.0511e-006     -1.00193e-007   1.3051e-009    
  4.1             6.129e-006      -9.1728e-008    -2.4603e-009   
  4.15            6.1862e-006     -8.1927e-008    2.219e-010     
  4.2             5.1821e-006     -1.00055e-007   6.525e-010     
  4.25            5.8552e-006     -1.2741e-007    6.789e-010     
  4.3             6.0738e-006     -1.4025e-007    2.0165e-009    
  4.35            6.2249e-006     -1.4615e-007    -1.9082e-009   
  4.4             6.3197e-006     -1.285e-007     -1.6733e-009   
  4.45            6.3949e-006     -1.5349e-007    2.0783e-009    
  4.5             6.457e-006      -1.943e-007     1.5508e-009    
  4.55            6.5117e-006     -2.0639e-007    -2.0986e-009   
  4.6             6.5415e-006     -2.0072e-007    -1.702e-010    
  4.65            6.5812e-006     -2.4256e-007    1.2515e-009    
  4.7             6.6855e-006     -2.6214e-007    -2.6725e-009   
  4.75            6.7742e-006     -2.6657e-007    4.934e-010     
  4.8             6.8347e-006     -3.188e-007     2.3e-009       
  4.85            6.9462e-006     -3.4043e-007    -1.7859e-009   
  4.9             7.0313e-006     -3.3016e-007    -1.2983e-009   
  4.95            7.0758e-006     -3.7368e-007    2.7814e-009    
  5               7.1489e-006     -4.2373e-007    -6.451e-010    
END_DB

BEGIN_DB
 ICCAP_VAR VG         2              
 ICCAP_VAR VS         0              
 ICCAP_VAR VB         0              

 #VD              ID              IB              IG             
  0               -6.9232e-008    1.0271e-008     6.714e-010     
  0.05            5.5855e-006     -8.778e-009     -1.695e-009    
  0.1             1.09569e-005    1.1065e-008     -2.64e-009     
  0.15            1.5977e-005     1.0011e-008     -2.6329e-009   
  0.2             2.0827e-005     2.4812e-008     -1.3025e-009   
  0.25            2.5242e-005     1.2716e-008     -1.569e-010    
  0.3             2.9388e-005     -1.5224e-008    2.5469e-009    
  0.35            3.3134e-005     -1.0923e-008    -5.457e-010    
  0.4             3.654e-005      2.2891e-008     -1.5149e-009   
  0.45            3.948e-005      1.0495e-008     1.1237e-009    
  0.5             4.2162e-005     -2.4129e-008    1.258e-009     
  0.55            4.4398e-005     -1.1228e-008    -7.842e-010    
  0.6             4.6427e-005     2.5374e-008     -1.4099e-009   
  0.65            4.8047e-005     1.053e-008      1.3207e-009    
  0.7             4.9487e-005     -1.9608e-008    1.8794e-009    
  0.75            5.0598e-005     -1.1429e-008    -9.745e-010    
  0.8             5.1643e-005     2.7595e-008     -1.3567e-009   
  0.85            5.2355e-005     1.0098e-008     4.578e-010     
  0.9             5.3093e-005     -2.1913e-008    1.5802e-009    
  0.95            5.3523e-005     -1.1815e-008    1.23e-011      
  1               5.3942e-005     1.6101e-008     -2.1222e-009   
  1.05            5.4349e-005     1.0304e-008     6.766e-010     
  1.1             5.4665e-005     -2.4369e-008    1.3978e-009    
  1.15            5.5076e-005     -1.1192e-008    -2.1e-010      
  1.2             5.5393e-005     1.9363e-008     -1.8148e-009   
  1.25            5.5685e-005     1.0681e-008     8.719e-010     
  1.3             5.5919e-005     -2.6089e-008    1.3101e-009    
  1.35            5.6201e-005     -1.0858e-008    -4.556e-010    
  1.4             5.6485e-005     2.1955e-008     -1.577e-009    
  1.45            5.6726e-005     1.1488e-008     -3.85e-011     
  1.5             5.6877e-005     -1.6917e-008    2.3612e-009    
  1.55            5.7099e-005     -1.1008e-008    -6.943e-010    
  1.6             5.727e-005      2.4499e-008     -1.4393e-009   
  1.65            5.7502e-005     1.0495e-008     1.606e-010     
  1.7             5.7803e-005     -1.956e-008     2.004e-009     
  1.75            5.7995e-005     -1.1512e-008    -9.021e-010    
  1.8             5.8218e-005     2.6903e-008     -1.3729e-009   
  1.85            5.8332e-005     1.0018e-008     3.78e-010      
  1.9             5.8406e-005     -2.117e-008     1.6843e-009    
  1.95            5.8599e-005     -1.1494e-008    -1.0859e-009   
  2               5.8795e-005     2.7627e-008     -1.3331e-009   
  2.05            5.8934e-005     1.0141e-008     5.942e-010     
  2.1             5.9014e-005     -2.3547e-008    1.4574e-009    
  2.15            5.9326e-005     -1.129e-008     -1.2808e-009   
  2.2             5.9398e-005     1.1146e-008     -2.5715e-009   
  2.25            5.9547e-005     9.935e-009      2.879e-010     
  2.3             5.9615e-005     -2.1018e-008    1.8011e-009    
  2.35            5.9797e-005     -1.1878e-008    -1.0107e-009   
  2.4             6.0042e-005     2.7221e-008     -1.3469e-009   
  2.45            6.0053e-005     9.29e-009       5.109e-010     
  2.5             6.0235e-005     -2.3636e-008    1.5308e-009    
  2.55            6.0441e-005     -1.2697e-008    -1.2028e-009   
  2.6             6.0485e-005     9.107e-009      -2.6385e-009   
  2.65            6.0797e-005     1.4691e-008     -2.0153e-009   
  2.7             6.0873e-005     8.267e-009      -2.5993e-009   
  2.75            6.0862e-005     1.4079e-008     -1.9299e-009   
  2.8             6.0873e-005     6.7e-009        -2.5552e-009   
  2.85            6.1008e-005     1.3069e-008     -1.8512e-009   
  2.9             6.1152e-005     4.558e-009      -2.4967e-009   
  2.95            6.1274e-005     1.0784e-008     -1.7734e-009   
  3               6.1443e-005     1.668e-009      -2.4292e-009   
  3.05            6.1447e-005     -1.8833e-008    -2.7934e-009   
  3.1             6.1624e-005     -4.545e-009     -2.6175e-009   
  3.15            6.1736e-005     -7.378e-009     1.8303e-009    
  3.2             6.1874e-005     -3.4362e-008    1.228e-010     
  3.25            6.1906e-005     -2.4577e-008    -1.9052e-009   
  3.3             6.1921e-005     -2.1589e-008    2.3087e-009    
  3.35            6.211e-005      -4.7111e-008    -4.8e-010      
  3.4             6.2211e-005     -2.0357e-008    -1.5568e-009   
  3.45            6.233e-005      -4.0669e-008    2.5209e-009    
  3.5             6.2542e-005     -6.8698e-008    -8.225e-010    
  3.55            6.2574e-005     -4.0321e-008    -1.3964e-009   
  3.6             6.2658e-005     -6.8248e-008    2.7598e-009    
  3.65            6.2789e-005     -9.985e-008     -1.0925e-009   
  3.7             6.2856e-005     -7.3684e-008    -1.3311e-009   
  3.75            6.2957e-005     -1.2811e-007    -1.8952e-009   
  3.8             6.2977e-005     -1.2129e-007    -4.39e-011     
  3.85            6.3188e-005     -1.688e-007     2.3603e-009    
  3.9             6.3395e-005     -1.8252e-007    -2.0717e-009   
  3.95            6.3596e-005     -1.8581e-007    2.538e-010     
  4               6.3803e-005     -2.4257e-007    1.8503e-009    
  4.05            6.3953e-005     -2.6079e-007    -2.318e-009    
  4.1             6.415e-005      -2.7368e-007    5.748e-010     
  4.15            6.4227e-005     -3.4337e-007    1.468e-009     
