! VERSION = 6.00
BEGIN_HEADER
 ICCAP_INPUTS
  VG         V  B GROUND SMU4 0.001 LIN        1    0          5          101  0.05      
  VS         V  E GROUND SMU2 0.1 CON        0
  VB         V  C GROUND SMU3 0.1 LIN        3    0          -5         3    -2.5      
  VD         V  S GROUND SMU1 0.1 LIN        2    0.1        5          2    4.9       
 ICCAP_OUTPUTS
  IG         I  B GROUND SMU4 B
  ID         I  S GROUND SMU1 B
  IB         I  C GROUND SMU3 B
END_HEADER

BEGIN_DB
 ICCAP_VAR VS         0              
 ICCAP_VAR VB         0              
 ICCAP_VAR VD         0.1            

 #VG              IG              ID              IB             
  0               9.896e-010      9.225e-010      1.1754e-008    
  0.05            1.3442e-009     -1.2627e-009    -2.5701e-008   
  0.1             1.1599e-009     2.2743e-009     -8.613e-009    
  0.15            -2.349e-010     1.942e-009      1.1535e-008    
  0.2             -8.23e-011      2.0378e-009     1.0764e-008    
  0.25            7.03e-011       2.1969e-009     1.0242e-008    
  0.3             2.369e-010      2.5718e-009     1.0359e-008    
  0.35            4.158e-010      3.6038e-009     1.0449e-008    
  0.4             5.918e-010      7.0786e-009     1.0749e-008    
  0.45            -2.1625e-009    1.4638e-008     -2.1823e-008   
  0.5             -1.6089e-009    4.4563e-008     3.399e-009     
  0.55            -1.3714e-009    1.07986e-007    8.141e-009     
  0.6             1.6312e-009     2.188e-007      -2.484e-008    
  0.65            2.0496e-009     4.0987e-007     1.028e-008     
  0.7             8.875e-010      7.3349e-007     1.0871e-008    
  0.75            -1.4362e-009    1.2836e-006     -1.0822e-008   
  0.8             -1.3228e-009    2.1071e-006     1.0366e-008    
  0.85            -2.5935e-009    3.2231e-006     1.1182e-008    
  0.9             -2.1027e-009    4.5667e-006     8.82e-010      
  0.95            -1.5686e-009    6.0837e-006     3.711e-009     
  1               -1.3642e-009    7.6674e-006     8.535e-009     
  1.05            -2.708e-009     9.289e-006      1.135e-008     
  1.1             -3.403e-010     1.08551e-005    -1.085e-008    
  1.15            2.8681e-009     1.2453e-005     -1.1184e-008   
  1.2             -4.34e-011      1.3971e-005     1.174e-008     
  1.25            3.727e-010      1.5435e-005     1.0183e-008    
  1.3             7.941e-010      1.6817e-005     1.066e-008     
  1.35            -1.5537e-009    1.8173e-005     1.7466e-008    
  1.4             -1.3551e-009    1.9482e-005     8.924e-009     
  1.45            -2.6917e-009    2.0729e-005     1.1341e-008    
  1.5             -2.3308e-009    2.1924e-005     4.9e-010       
  1.55            -1.7467e-009    2.3089e-005     2.676e-009     
  1.6             -1.4123e-009    2.4211e-005     6.419e-009     
  1.65            -1.3146e-009    2.5307e-005     1.0736e-008    
  1.7             -2.5572e-009    2.6365e-005     1.1218e-008    
  1.75            -2.03e-009      2.7373e-005     9.73e-010      
  1.8             -1.529e-009     2.8376e-005     4.255e-009     
  1.85            -1.3523e-009    2.9349e-005     9.187e-009     
  1.9             -2.6865e-009    3.0298e-005     1.1522e-008    
  1.95            -2.3161e-009    3.1215e-005     6.21e-010      
  2               -8.53e-010      3.211e-005      -1.1216e-008   
  2.05            1.6092e-009     3.2967e-005     -1.5718e-008   
  2.1             1.3077e-009     3.384e-005      -9.131e-009    
  2.15            2.8688e-009     3.4678e-005     -8.924e-009    
  2.2             1.2827e-009     3.5507e-005     1.0461e-008    
  2.25            1.289e-010      3.6342e-005     1.093e-008     
  2.3             5.571e-010      3.7124e-005     1.0264e-008    
  2.35            -1.8224e-009    3.7903e-005     2.3984e-008    
  2.4             -1.4312e-009    3.8664e-005     5.889e-009     
  2.45            -1.3216e-009    3.9428e-005     1.0314e-008    
  2.5             -2.5892e-009    4.0168e-005     1.115e-008     
  2.55            -2.0877e-009    4.0875e-005     8.13e-010      
  2.6             -1.5684e-009    4.1592e-005     3.977e-009     
  2.65            -1.3578e-009    4.2296e-005     8.623e-009     
  2.7             -2.7062e-009    4.2977e-005     1.1383e-008    
  2.75            -3.412e-010     4.3642e-005     -1.084e-008    
  2.8             -8.149e-010     4.433e-005      -1.1147e-008   
  2.85            1.6592e-009     4.4964e-005     -1.65e-008     
  2.9             1.3199e-009     4.5624e-005     -9.179e-009    
  2.95            2.8817e-009     4.6253e-005     -8.586e-009    
  3               1.2478e-009     4.6884e-005     1.0463e-008    
  3.05            8.96e-011       4.7515e-005     1.1019e-008    
  3.1             5.176e-010      4.8121e-005     1.03e-008      
  3.15            -1.8726e-009    4.8716e-005     1.8806e-008    
  3.2             -1.4481e-009    4.9307e-005     5.491e-009     
  3.25            -1.3288e-009    4.9893e-005     1.0112e-008    
  3.3             -2.6148e-009    5.0465e-005     1.1326e-008    
  3.35            -2.1416e-009    5.1022e-005     7.24e-010      
  3.4             -1.5968e-009    5.1573e-005     3.566e-009     
  3.45            -1.3691e-009    5.2124e-005     8.043e-009     
  3.5             -1.295e-009     5.267e-005      1.1376e-008    
  3.55            -2.4209e-009    5.322e-005      1.2791e-008    
  3.6             -7.773e-010     5.372e-005      -1.1017e-008   
  3.65            1.715e-009      5.4212e-005     -1.7263e-008   
  3.7             1.3348e-009     5.4733e-005     -9.367e-009    
  3.75            2.8913e-009     5.5235e-005     -8.418e-009    
  3.8             2.6246e-009     5.5752e-005     -3.87e-010     
  3.85            2.0046e-009     5.623e-005      -2.816e-009    
  3.9             1.452e-009      5.6715e-005     -8.785e-009    
  3.95            1.276e-009      5.7188e-005     -8.765e-009    
  4               2.8053e-009     5.7662e-005     -1.0512e-008   
  4.05            4.834e-010      5.8134e-005     1.0345e-008    
  4.1             -1.9079e-009    5.8598e-005     1.8163e-008    
  4.15            -1.4637e-009    5.9043e-005     5.095e-009     
  4.2             -1.3302e-009    5.948e-005      9.982e-009     
  4.25            -2.634e-009     5.9926e-005     1.1292e-008    
  4.3             -2.1825e-009    6.0351e-005     8.07e-010      
  4.35            -1.6208e-009    6.0778e-005     3.216e-009     
  4.4             -1.374e-009     6.1202e-005     7.736e-009     
  4.45            -1.2957e-009    6.162e-005      1.1402e-008    
  4.5             -2.4475e-009    6.2042e-005     1.2404e-008    
  4.55            -7.512e-010     6.243e-005      -1.0969e-008   
  4.6             1.7435e-009     6.2799e-005     -1.7877e-008   
  4.65            1.3457e-009     6.3219e-005     -9.336e-009    
  4.7             1.2502e-009     6.3602e-005     -8.455e-009    
  4.75            2.668e-009      6.3997e-005     -1.3606e-008   
  4.8             6.674e-010      6.4372e-005     1.0411e-008    
  4.85            -1.6853e-009    6.4725e-005     2.1165e-008    
  4.9             -1.3885e-009    6.511e-005      7.122e-009     
  4.95            -1.3018e-009    6.5471e-005     1.1247e-008    
  5               -2.4895e-009    6.5841e-005     1.1765e-008    
END_DB

BEGIN_DB
 ICCAP_VAR VS         0              
 ICCAP_VAR VB         0              
 ICCAP_VAR VD         5              

 #VG              IG              ID              IB             
  0               -9.755e-010     -8.616e-010     -2.3474e-008   
  0.05            -1.3631e-009    1.4743e-009     2.7411e-008    
  0.1             -1.3274e-009    5.904e-010      1.13e-008      
  0.15            -1.2982e-009    2.4834e-009     1.0856e-008    
  0.2             -2.6496e-009    8.95e-009       1.1664e-008    
  0.25            2.4425e-009     3.0295e-008     9.175e-009     
  0.3             -1.6861e-009    9.4855e-008     1.2847e-008    
  0.35            -1.4043e-009    2.6719e-007     -2.1305e-008   
  0.4             -1.31e-009      6.5337e-007     -4.1237e-008   
  0.45            4.89e-010       1.4036e-006     -1.1131e-007   
  0.5             1.317e-010      2.7294e-006     -2.2769e-007   
  0.55            -3.048e-010     4.8648e-006     -3.8697e-007   
  0.6             -7.858e-010     7.9082e-006     -6.0813e-007   
  0.65            2.5642e-009     1.181e-005      -8.827e-007    
  0.7             1.0106e-009     1.6531e-005     -1.178e-006    
  0.75            1.2811e-009     2.1873e-005     -1.5749e-006   
  0.8             2.8129e-009     2.7834e-005     -1.9153e-006   
  0.85            2.3697e-009     3.4384e-005     -2.2878e-006   
  0.9             1.6991e-009     4.1294e-005     -2.6769e-006   
  0.95            1.3327e-009     4.853e-005      -3.0688e-006   
  1               2.8852e-009     5.6036e-005     -3.4427e-006   
  1.05            2.6153e-009     6.3922e-005     -3.8024e-006   
  1.1             1.9919e-009     7.189e-005      -4.1598e-006   
  1.15            1.4408e-009     8.0196e-005     -4.5123e-006   
  1.2             1.2723e-009     8.8496e-005     -4.8367e-006   
  1.25            2.7911e-009     9.6927e-005     -5.1452e-006   
  1.3             2.3068e-009     0.000105572     -5.4283e-006   
  1.35            -2.6183e-009    0.00011445      -5.7073e-006   
  1.4             -2.1641e-009    0.00012322      -5.9654e-006   
  1.45            -1.6161e-009    0.00013208      -6.2016e-006   
  1.5             -1.374e-009     0.00014094      -6.4177e-006   
  1.55            -1.2953e-009    0.0001499       -6.6137e-006   
  1.6             -2.4263e-009    0.00015889      -6.8018e-006   
  1.65            -1.8418e-009    0.00016787      -6.9841e-006   
  1.7             -1.4415e-009    0.00017685      -7.1353e-006   
  1.75            -1.3274e-009    0.00018602      -7.266e-006    
  1.8             -2.6018e-009    0.00019516      -7.3878e-006   
  1.85            -2.1124e-009    0.00020421      -7.5039e-006   
  1.9             -1.5772e-009    0.00021337      -7.5971e-006   
  1.95            -1.3619e-009    0.00022254      -7.6681e-006   
  2               -2.7008e-009    0.00023172      -7.7294e-006   
  2.05            -2.3684e-009    0.00024083      -7.7957e-006   
  2.1             -1.7893e-009    0.00025001      -7.8368e-006   
  2.15            -1.4259e-009    0.00025921      -7.8612e-006   
  2.2             -1.318e-009     0.00026842      -7.8733e-006   
  2.25            -2.5704e-009    0.00027761      -7.8822e-006   
  2.3             -2.0537e-009    0.00028674      -7.8935e-006   
  2.35            -1.5426e-009    0.00029595      -7.8799e-006   
  2.4             -1.3555e-009    0.00030517      -7.8575e-006   
  2.45            -2.6897e-009    0.00031436      -7.8252e-006   
  2.5             -2.3213e-009    0.00032347      -7.8008e-006   
  2.55            -1.7417e-009    0.00033266      -7.7558e-006   
  2.6             -1.4082e-009    0.00034184      -7.7073e-006   
  2.65            -1.3103e-009    0.00035102      -7.6451e-006   
  2.7             -2.5366e-009    0.00036016      -7.5838e-006   
  2.75            -1.9985e-009    0.00036926      -7.5298e-006   
  2.8             -1.513e-009     0.00037852      -7.4569e-006   
  2.85            -1.3464e-009    0.00038768      -7.3778e-006   
  2.9             -2.6689e-009    0.00039679      -7.2952e-006   
  2.95            -2.2741e-009    0.00040581      -7.2226e-006   
  3               -1.6898e-009    0.00041492      -7.1336e-006   
  3.05            -1.3936e-009    0.00042398      -7.0437e-006   
  3.1             -1.3032e-009    0.00043305      -6.9448e-006   
  3.15            -2.4969e-009    0.00044211      -6.8474e-006   
  3.2             -1.942e-009     0.00045106      -6.7635e-006   
  3.25            -1.4863e-009    0.00046008      -6.6623e-006   
  3.3             -1.3361e-009    0.00046905      -6.5553e-006   
  3.35            -2.6421e-009    0.00047808      -6.4525e-006   
  3.4             -2.2129e-009    0.00048697      -6.3596e-006   
  3.45            -1.6417e-009    0.00049591      -6.2554e-006   
  3.5             -1.3792e-009    0.00050489      -6.1488e-006   
  3.55            -1.3003e-009    0.00051381      -6.0354e-006   
  3.6             -2.4598e-009    0.00052269      -5.9341e-006   
  3.65            -1.8782e-009    0.00053152      -5.8374e-006   
  3.7             -1.4599e-009    0.00054037      -5.7297e-006   
  3.75            -1.3315e-009    0.00054921      -5.6236e-006   
  3.8             -2.6177e-009    0.00055808      -5.5152e-006   
  3.85            -2.1499e-009    0.00056678      -5.4218e-006   
  3.9             -1.6012e-009    0.00057557      -5.3137e-006   
  3.95            -1.3656e-009    0.00058434      -5.2065e-006   
  4               -1.2945e-009    0.00059307      -5.1077e-006   
  4.05            -2.4104e-009    0.00060178      -5.0067e-006   
  4.1             -1.815e-009     0.00061043      -4.9106e-006   
  4.15            -1.4313e-009    0.00061917      -4.8139e-006   
  4.2             -1.3216e-009    0.00062786      -4.7076e-006   
  4.25            -2.5863e-009    0.00063652      -4.608e-006    
  4.3             -2.0854e-009    0.00064504      -4.5226e-006   
  4.35            -1.5579e-009    0.00065366      -4.4274e-006   
  4.4             -1.3565e-009    0.00066222      -4.3276e-006   
  4.45            -2.6951e-009    0.00067092      -4.2297e-006   
  4.5             -2.3389e-009    0.00067939      -4.1497e-006   
  4.55            -1.7663e-009    0.00068795      -4.0611e-006   
  4.6             -1.408e-009     0.00069643      -3.9634e-006   
  4.65            -1.3106e-009    0.00070492      -3.8785e-006   
  4.7             -2.5471e-009    0.00071329      -3.7867e-006   
  4.75            -2.0173e-009    0.00072162      -3.7126e-006   
  4.8             -1.5179e-009    0.00073008      -3.6283e-006   
  4.85            -1.3424e-009    0.00073843      -3.5388e-006   
  4.9             -2.6686e-009    0.00074682      -3.4519e-006   
  4.95            -2.2785e-009    0.00075508      -3.3868e-006   
  5               -1.6934e-009    0.00076343      -3.3047e-006   
END_DB

BEGIN_DB
 ICCAP_VAR VS         0              
 ICCAP_VAR VB         -2.5           
 ICCAP_VAR VD         0.1            

 #VG              IG              ID              IB             
  0               1.2259e-009     1.1146e-009     1.1535e-008    
  0.05            2.7086e-009     -3.749e-010     -1.6026e-008   
  0.1             3.577e-010      2.2646e-009     1.0307e-008    
  0.15            5.344e-010      2.3444e-009     1.0643e-008    
  0.2             -1.3231e-009    1.4742e-009     2.3909e-008    
  0.25            -2.7127e-009    1.247e-010      1.1344e-008    
  0.3             -4.06e-011      -2.0356e-009    -1.1044e-008   
  0.35            -2.368e-010     -2.1423e-009    -1.0887e-008   
  0.4             -4.371e-010     -2.2134e-009    -1.0922e-008   
  0.45            -6.28e-010      -2.2512e-009    -1.1302e-008   
  0.5             1.2589e-009     -1.493e-009     -1.9904e-008   
  0.55            2.8704e-009     -1.6e-012       -1.2263e-008   
  0.6             9.79e-011       2.5709e-009     1.0329e-008    
  0.65            2.698e-010      4.0339e-009     1.0355e-008    
  0.7             4.472e-010      8.9694e-009     1.0476e-008    
  0.75            -1.9852e-009    2.2077e-008     -1.906e-008    
  0.8             -1.5074e-009    6.163e-008      4.391e-009     
  0.85            1.4602e-009     1.5158e-007     -2.3336e-008   
  0.9             3.163e-010      3.1453e-007     1.0367e-008    
  0.95            7.422e-010      5.9823e-007     1.0551e-008    
  1               -1.5956e-009    1.09411e-006    1.871e-008     
  1.05            -2.6872e-009    1.8415e-006     -2.2547e-008   
  1.1             -7.818e-010     2.8977e-006     -1.0971e-008   
  1.15            1.71e-009       4.2005e-006     -1.7031e-008   
  1.2             1.3354e-009     5.6786e-006     -9.391e-009    
  1.25            2.8961e-009     7.2293e-006     -8.766e-009    
  1.3             2.5967e-009     8.8239e-006     -5.63e-010     
  1.35            1.972e-009      1.0405e-005     -2.992e-009    
  1.4             -1.3274e-009    1.1984e-005     -5.654e-009    
  1.45            -2.5849e-009    1.3461e-005     1.1109e-008    
  1.5             -2.0931e-009    1.4877e-005     8.54e-010      
  1.55            -1.5653e-009    1.6235e-005     3.499e-009     
  1.6             -1.3642e-009    1.7548e-005     8.62e-009      
  1.65            -2.7067e-009    1.8798e-005     1.1606e-008    
  1.7             -2.343e-009     1.9991e-005     5.76e-010      
  1.75            -1.7727e-009    2.115e-005      2.447e-009     
  1.8             -1.4246e-009    2.2266e-005     6.051e-009     
  1.85            -1.318e-009     2.3344e-005     1.0801e-008    
  1.9             -2.5518e-009    2.4384e-005     1.1197e-008    
  1.95            -2.034e-009     2.5379e-005     1.044e-009     
  2               -1.5397e-009    2.6354e-005     4.062e-009     
  2.05            -1.3568e-009    2.7299e-005     9.008e-009     
  2.1             -2.6854e-009    2.8221e-005     1.1466e-008    
  2.15            -2.296e-009     2.9106e-005     7.13e-010      
  2.2             -1.7312e-009    2.9979e-005     2.407e-009     
  2.25            -1.4113e-009    3.0827e-005     6.521e-009     
  2.3             -1.3097e-009    3.1661e-005     1.1012e-008    
  2.35            -2.5165e-009    3.2475e-005     1.1374e-008    
  2.4             -1.9758e-009    3.3262e-005     1.244e-009     
  2.45            -1.5117e-009    3.4037e-005     4.16e-009      
  2.5             -1.3487e-009    3.4799e-005     9.511e-009     
  2.55            -2.666e-009     3.5551e-005     1.1566e-008    
  2.6             -2.2481e-009    3.6266e-005     6.87e-010      
  2.65            -1.684e-009     3.6972e-005     2.675e-009     
  2.7             -1.3979e-009    3.7689e-005     6.935e-009     
  2.75            -1.3045e-009    3.8377e-005     1.1205e-008    
  2.8             -2.482e-009     3.9072e-005     1.1685e-008    
  2.85            -1.9236e-009    3.9729e-005     1.666e-009     
  2.9             -1.4863e-009    4.0383e-005     4.773e-009     
  2.95            -1.3387e-009    4.1028e-005     9.766e-009     
  3               -2.6419e-009    4.1668e-005     1.1226e-008    
  3.05            -2.1966e-009    4.2266e-005     8.23e-010      
  3.1             -1.6459e-009    4.2888e-005     3.098e-009     
  3.15            -1.3817e-009    4.35e-005       7.476e-009     
  3.2             -1.2978e-009    4.4083e-005     1.1415e-008    
  3.25            -2.4475e-009    4.4682e-005     1.2002e-008    
  3.3             -1.8787e-009    4.5231e-005     1.733e-009     
  3.35            -1.4626e-009    4.5817e-005     5.004e-009     
  3.4             -1.3304e-009    4.6363e-005     1.0219e-008    
  3.45            -2.6175e-009    4.6918e-005     1.11e-008      
  3.5             -2.1454e-009    4.7452e-005     7.5e-010       
  3.55            -1.607e-009     4.7995e-005     3.287e-009     
  3.6             -1.3729e-009    4.8514e-005     8.054e-009     
  3.65            -1.2919e-009    4.9028e-005     1.1582e-008    
  3.7             -2.4033e-009    4.9556e-005     1.2593e-008    
  3.75            -1.8331e-009    5.0044e-005     2.156e-009     
  3.8             -1.4457e-009    5.0538e-005     5.54e-009      
  3.85            -1.3229e-009    5.1041e-005     1.03e-008      
  3.9             -2.5835e-009    5.1521e-005     1.1244e-008    
  3.95            -2.0928e-009    5.1984e-005     8.88e-010      
  4               -1.5776e-009    5.246e-005      3.57e-009      
  4.05            -1.3629e-009    5.2924e-005     8.445e-009     
  4.1             -2.7029e-009    5.3373e-005     1.1692e-008    
  4.15            -3.37e-010      5.3812e-005     -1.103e-008    
