! VERSION = 6.00
BEGIN_HEADER
 ICCAP_INPUTS
  VG         V  B GROUND SMU4 0.001 LIN        2    0          5          6    1         
  VS         V  E GROUND SMU2 0.1 CON        0
  VD         V  S GROUND SMU1 0.1 LIN        1    0          5          101  0.05      
  VB         V  C GROUND SMU3 0.1 LIN        3    0          -2.5       2    -2.5      
 ICCAP_OUTPUTS
  ID         I  S GROUND SMU1 B
  IB         I  C GROUND SMU3 B
  IG         I  B GROUND SMU4 B
END_HEADER

BEGIN_DB
 ICCAP_VAR VG         0              
 ICCAP_VAR VS         0              
 ICCAP_VAR VB         0              

 #VD              ID              IB              IG             
  0               -6.323e-010     -2.119e-008     2.8521e-009    
  0.05            2.2702e-009     1.2626e-008     2.94e-010      
  0.1             2.3224e-009     1.2539e-008     4.806e-010     
  0.15            2.353e-009      1.1228e-008     6.837e-010     
  0.2             1.5955e-009     2.083e-008      -1.3847e-009   
  0.25            2.292e-010      1.5006e-008     -2.6916e-009   
  0.3             -1.276e-009     1.009e-009      -2.0022e-009   
  0.35            -2.2651e-009    -1.225e-008     -7.53e-010     
  0.4             -2.2563e-009    -1.0328e-008    -9.17e-010     
  0.45            -1.7082e-009    -1.2952e-008    1.8629e-009    
  0.5             1.8017e-009     -9.047e-009     1.6878e-009    
  0.55            1.477e-009      1.0572e-008     1.8693e-009    
  0.6             2.3218e-009     1.2717e-008     4.811e-010     
  0.65            2.3523e-009     1.1701e-008     6.704e-010     
  0.7             2.3687e-009     9.877e-009      8.454e-010     
  0.75            1.7324e-009     1.4898e-008     -1.78e-009     
  0.8             -1.7042e-009    6.119e-009      -1.74e-009     
  0.85            -2.2522e-009    -1.3203e-008    -2.821e-010    
  0.9             -2.2762e-009    -1.3317e-008    -5.062e-010    
  0.95            -2.2698e-009    -1.2355e-008    -7.216e-010    
  1               -2.2578e-009    -1.0581e-008    -8.997e-010    
  1.05            -1.6982e-009    -1.3519e-008    1.9036e-009    
  1.1             1.8279e-009     -9.007e-009     1.6666e-009    
  1.15            1.5199e-009     1.0663e-008     1.8398e-009    
  1.2             2.3179e-009     1.2738e-008     4.57e-010      
  1.25            2.3505e-009     1.1959e-008     6.43e-010      
  1.3             2.3676e-009     1.0176e-008     8.186e-010     
  1.35            1.7057e-009     1.565e-008      -1.8259e-009   
  1.4             -1.7366e-009    5.885e-009      -1.7192e-009   
  1.45            -1.5747e-009    -2.1653e-008    2.4176e-009    
  1.5             2.1846e-009     -6.121e-009     1.398e-009     
  1.55            1.3198e-009     2.964e-008      -1.3941e-009   
  1.6             -2.1452e-009    1.1851e-008     -1.3562e-009   
  1.65            -1.9566e-009    -1.0777e-008    -1.5438e-009   
  1.7             -1.4429e-009    -2.6073e-008    1.3386e-009    
  1.75            2.86e-011       -1.0397e-008    2.889e-009     
  1.8             1.3796e-009     2.911e-008      -1.3978e-009   
  1.85            -2.66e-011      1.2649e-008     -1.3975e-009   
  1.9             1.348e-010      1.407e-008      -2.7161e-009   
  1.95            -1.5789e-009    -2.1113e-008    2.389e-009     
  2               2.1636e-009     -6.264e-009     1.409e-009     
  2.05            1.3288e-009     2.9619e-008     -1.3946e-009   
  2.1             -7.45e-011      1.181e-008      -1.4009e-009   
  2.15            8.28e-011       1.3645e-008     -2.7204e-009   
  2.2             -1.5385e-009    -2.3035e-008    2.4844e-009    
  2.25            2.2274e-009     -5.756e-009     1.3506e-009    
  2.3             2.1149e-009     1.1027e-008     -7.73e-011     
  2.35            1.034e-009      2.552e-008      -1.4901e-009   
  2.4             -1.3856e-009    8.249e-009      -1.9205e-009   
  2.45            -2.2661e-009    -1.3236e-008    -5.819e-010    
  2.5             -1.5415e-009    -2.3051e-008    2.4845e-009    
  2.55            2.2281e-009     -5.535e-009     1.3525e-009    
  2.6             2.118e-009      1.0993e-008     -7.52e-011     
  2.65            1.0347e-009     2.5664e-008     -1.4913e-009   
  2.7             -1.3828e-009    8.432e-009      -1.9211e-009   
  2.75            -2.2689e-009    -1.3207e-008    -5.813e-010    
  2.8             -1.5415e-009    -2.2873e-008    2.4709e-009    
  2.85            2.2161e-009     -5.537e-009     1.3522e-009    
  2.9             1.9758e-009     1.0007e-008     1.5398e-009    
  2.95            1.4372e-009     2.7839e-008     -1.4024e-009   
  3               4.18e-011       1.329e-008      -2.7317e-009   
  3.05            -2.2514e-009    -9.688e-009     -1.0736e-009   
  3.1             -1.7892e-009    -1.0316e-008    1.5715e-009    
  3.15            1.5008e-009     -8.506e-009     1.8553e-009    
  3.2             2.3153e-009     1.2712e-008     4.751e-010     
  3.25            1.4384e-009     2.7898e-008     -1.4022e-009   
  3.3             4.73e-011       1.329e-008      -2.7292e-009   
  3.35            -2.2492e-009    -9.618e-009     -1.0756e-009   
  3.4             -1.7931e-009    -1.0249e-008    1.567e-009     
  3.45            1.5015e-009     -8.247e-009     1.8557e-009    
  3.5             2.3143e-009     1.2793e-008     4.721e-010     
  3.55            1.4391e-009     2.7866e-008     -1.4021e-009   
  3.6             3.98e-011       1.3369e-008     -2.7289e-009   
  3.65            -2.2505e-009    -9.695e-009     -1.0765e-009   
  3.7             -2.2084e-009    -9.613e-009     -1.247e-009    
  3.75            -2.0752e-009    -1.0716e-008    -1.421e-009    
  3.8             -1.3523e-009    -2.7131e-008    1.3436e-009    
  3.85            1.259e-010      -9.134e-009     2.869e-009     
  3.9             1.8164e-009     1.59e-010       1.67e-009      
  3.95            1.5023e-009     9.455e-009      1.841e-009     
  4               2.3134e-009     1.2808e-008     4.603e-010     
  4.05            2.3447e-009     1.1768e-008     6.506e-010     
  4.1             1.5705e-009     2.168e-008      -1.3923e-009   
  4.15            1.997e-010      1.4657e-008     -2.7039e-009   
  4.2             -2.2223e-009    -1.3037e-008    -1.909e-010    
  4.25            -2.2698e-009    -1.3247e-008    -4.224e-010    
  4.3             -2.2674e-009    -1.2646e-008    -6.388e-010    
  4.35            -2.2601e-009    -1.0714e-008    -8.394e-010    
  4.4             -1.6696e-009    -1.5295e-008    2.0465e-009    
  4.45            1.9364e-009     -8.444e-009     1.5951e-009    
  4.5             1.4767e-009     2.6587e-008     -1.4023e-009   
  4.55            8.53e-011       1.3782e-008     -1.3796e-009   
  4.6             2.555e-010      1.5302e-008     -2.6936e-009   
  4.65            -2.254e-009     9.83e-010       -1.0523e-009   
  4.7             -1.7806e-009    -1.0513e-008    1.5989e-009    
  4.75            1.5294e-009     -8.449e-009     1.8425e-009    
  4.8             2.3124e-009     1.2712e-008     4.592e-010     
  4.85            2.3449e-009     1.1404e-008     6.488e-010     
  4.9             1.566e-009      2.2126e-008     -1.3935e-009   
  4.95            1.967e-010      1.4773e-008     -2.7123e-009   
  5               -2.2167e-009    -9.737e-009     -1.2248e-009   
END_DB

BEGIN_DB
 ICCAP_VAR VG         1              
 ICCAP_VAR VS         0              
 ICCAP_VAR VB         0              

 #VD              ID              IB              IG             
  0               -1.2042e-008    1.7679e-008     -1.0281e-009   
  0.05            7.9796e-007     4.835e-009      1.5841e-009    
  0.1             1.373e-006      2.3944e-008     2.7966e-009    
  0.15            1.7646e-006     -1.0136e-008    2.029e-010     
  0.2             2.0525e-006     1.0648e-008     -1.3829e-009   
  0.25            2.2389e-006     2.8286e-008     -1.3792e-009   
  0.3             2.367e-006      2.7553e-008     -1.3736e-009   
  0.35            2.4581e-006     2.6635e-008     -1.368e-009    
  0.4             2.5374e-006     2.5528e-008     -1.8523e-009   
  0.45            2.5993e-006     2.8416e-008     -1.3804e-009   
  0.5             2.6558e-006     2.7763e-008     -1.3771e-009   
  0.55            2.7042e-006     2.6959e-008     -1.3689e-009   
  0.6             2.7561e-006     2.5979e-008     -1.8652e-009   
  0.65            2.7988e-006     2.866e-008      -1.3834e-009   
  0.7             2.8472e-006     2.8124e-008     -1.3768e-009   
  0.75            2.8853e-006     2.7381e-008     -1.3729e-009   
  0.8             2.9268e-006     2.6476e-008     -1.366e-009    
  0.85            2.9679e-006     2.5666e-008     -1.8398e-009   
  0.9             3.0072e-006     2.8265e-008     -1.3798e-009   
  0.95            3.0501e-006     2.7799e-008     -1.3733e-009   
  1               3.0863e-006     2.7003e-008     -1.3674e-009   
  1.05            3.1199e-006     2.6021e-008     -1.8732e-009   
  1.1             3.1622e-006     2.8665e-008     -1.3792e-009   
  1.15            3.1931e-006     2.8075e-008     -1.374e-009    
  1.2             3.2373e-006     2.732e-008      -1.3684e-009   
  1.25            3.2711e-006     2.6526e-008     -1.8925e-009   
  1.3             3.303e-006      2.8888e-008     -1.379e-009    
  1.35            3.3373e-006     2.8336e-008     -1.3758e-009   
  1.4             3.3676e-006     2.7626e-008     -1.3703e-009   
  1.45            3.4016e-006     2.6977e-008     -1.3637e-009   
  1.5             3.436e-006      2.5779e-008     -1.865e-009    
  1.55            3.4672e-006     2.8579e-008     -1.3766e-009   
  1.6             3.499e-006      2.7954e-008     -1.369e-009    
  1.65            3.528e-006      2.7066e-008     -1.3662e-009   
  1.7             3.5605e-006     2.6391e-008     -1.8845e-009   
  1.75            3.5964e-006     2.8628e-008     -1.3761e-009   
  1.8             3.6227e-006     2.8137e-008     -1.3715e-009   
  1.85            3.652e-006      2.7465e-008     -1.3655e-009   
  1.9             3.6832e-006     2.6621e-008     -1.9066e-009   
  1.95            3.7141e-006     2.8523e-008     -1.3764e-009   
  2               3.7437e-006     2.8135e-008     -1.3719e-009   
  2.05            3.7754e-006     2.7351e-008     -1.3668e-009   
  2.1             3.8006e-006     2.6556e-008     -1.3611e-009   
  2.15            3.8317e-006     2.5651e-008     -1.8748e-009   
  2.2             3.8782e-006     2.7924e-008     -1.3713e-009   
  2.25            3.9102e-006     2.7376e-008     -1.3674e-009   
  2.3             3.9354e-006     2.671e-008      -1.3619e-009   
  2.35            3.9647e-006     2.5569e-008     -1.889e-009    
  2.4             3.9921e-006     2.7635e-008     -1.374e-009    
  2.45            4.0216e-006     2.7077e-008     -1.9973e-009   
  2.5             4.0525e-006     1.7035e-008     -1.949e-009    
  2.55            4.077e-006      1.7028e-008     -1.9118e-009   
  2.6             4.1014e-006     1.6962e-008     -1.8654e-009   
  2.65            4.1381e-006     1.6724e-008     -1.8198e-009   
  2.7             4.1598e-006     1.649e-008      -1.7782e-009   
  2.75            4.1908e-006     1.6313e-008     -1.7353e-009   
  2.8             4.1783e-006     7.733e-009      2.0536e-009    
  2.85            4.2044e-006     -1.8474e-008    1.5674e-009    
  2.9             4.2512e-006     -1.4844e-008    -2.1104e-009   
  2.95            4.2961e-006     1.278e-008      -1.9847e-009   
  3               4.3173e-006     1.2001e-008     -1.9384e-009   
  3.05            4.3545e-006     1.1378e-008     -1.8923e-009   
  3.1             4.3814e-006     1.0536e-008     -1.8487e-009   
  3.15            4.404e-006      9.629e-009      -1.8006e-009   
  3.2             4.4338e-006     8.365e-009      -1.7568e-009   
  3.25            4.4655e-006     7.049e-009      -1.7115e-009   
  3.3             4.4686e-006     -1.9679e-008    -2.7579e-009   
  3.35            4.52e-006       2.191e-009      -2.0133e-009   
  3.4             4.5441e-006     2.69e-010       -1.964e-009    
  3.45            4.5194e-006     -8.358e-009     1.9038e-009    
  3.5             4.5642e-006     -4.1356e-008    1.7921e-009    
  3.55            4.6116e-006     -3.6567e-008    -2.0196e-009   
  3.6             4.6498e-006     -1.2381e-008    -1.528e-009    
  3.65            4.6614e-006     -2.2197e-008    2.2266e-009    
  3.7             4.6707e-006     -4.6698e-008    2.426e-010     
  3.75            4.7431e-006     -2.9539e-008    -1.3775e-009   
  3.8             4.7467e-006     -3.4554e-008    2.7389e-009    
  3.85            4.7788e-006     -6.1768e-008    -5.278e-010    
  3.9             4.8338e-006     -3.753e-008     -2.2316e-009   
  3.95            4.8065e-006     -4.8841e-008    1.7342e-009    
  4               4.8715e-006     -9.0495e-008    2.1075e-009    
  4.05            4.9326e-006     -8.54e-008      -1.9197e-009   
  4.1             4.9685e-006     -5.9063e-008    -1.7118e-009   
  4.15            4.9612e-006     -7.7927e-008    2.0719e-009    
  4.2             5.0044e-006     -1.10875e-007   2.8709e-009    
  4.25            5.0698e-006     -1.0661e-007    2.8738e-009    
  4.3             5.1319e-006     -1.2716e-007    -1.301e-009    
  4.35            5.1741e-006     -1.0197e-007    -1.3974e-009   
  4.4             5.1886e-006     -1.3086e-007    2.4683e-009    
  4.45            5.2091e-006     -1.6329e-007    -2.31e-011     
  4.5             5.2716e-006     -1.5303e-007    -2.6493e-009   
  4.55            5.255e-006      -1.701e-007     1.3217e-009    
  4.6             5.3097e-006     -2.2082e-007    1.3359e-009    
  4.65            5.3709e-006     -2.1975e-007    -2.4783e-009   
  4.7             5.4342e-006     -2.1601e-007    1.587e-010     
  4.75            5.4322e-006     -2.5915e-007    2.7718e-009    
  4.8             5.5389e-006     -2.7366e-007    -1.5111e-009   
  4.85            5.5855e-006     -2.5409e-007    -1.3898e-009   
  4.9             5.6023e-006     -2.9543e-007    2.6153e-009    
  4.95            5.6487e-006     -3.4005e-007    -2.903e-010    
  5               5.7379e-006     -3.376e-007     -2.4766e-009   
END_DB

BEGIN_DB
 ICCAP_VAR VG         2              
 ICCAP_VAR VS         0              
 ICCAP_VAR VB         0              

 #VD              ID              IB              IG             
  0               -5.9042e-008    3.851e-009      1.7494e-009    
  0.05            4.8105e-006     2.6985e-008     2.8358e-009    
  0.1             9.4562e-006     -1.1973e-008    2.828e-010     
  0.15            1.3869e-005     9.098e-009      3.114e-010     
  0.2             1.8053e-005     1.3844e-008     -2.5542e-009   
  0.25            2.1917e-005     2.8037e-008     -2.0213e-009   
  0.3             2.5478e-005     1.2567e-008     7.959e-010     
  0.35            2.8721e-005     -2.4408e-008    1.3431e-009    
  0.4             3.1675e-005     -2.3104e-008    2.0446e-009    
  0.45            3.4324e-005     -1.2917e-008    -9.253e-010    
  0.5             3.6683e-005     2.6888e-008     -1.3845e-009   
  0.55            3.8718e-005     2.4052e-008     -1.7943e-009   
  0.6             4.0444e-005     1.1741e-008     9.271e-010     
  0.65            4.1926e-005     -2.6042e-008    1.332e-009     
  0.7             4.3227e-005     -1.2658e-008    -5.243e-010    
  0.75            4.4353e-005     2.0365e-008     -1.5288e-009   
  0.8             4.5202e-005     9.535e-009      1.1159e-009    
  0.85            4.5971e-005     -2.6159e-008    1.329e-009     
  0.9             4.6653e-005     -1.3023e-008    -7.748e-010    
  0.95            4.7249e-005     8.38e-009       -1.3895e-009   
  1               4.7621e-005     1.0296e-008     1.5669e-009    
  1.05            4.8086e-005     -1.4209e-008    1.5384e-009    
  1.1             4.8481e-005     -2.6749e-008    1.3358e-009    
  1.15            4.8864e-005     -1.2989e-008    -6.146e-010    
  1.2             4.9217e-005     7.243e-009      -1.3863e-009   
  1.25            4.9523e-005     2.5759e-008     -1.8686e-009   
  1.3             4.9755e-005     1.1709e-008     8.824e-010     
  1.35            4.9973e-005     -2.5723e-008    1.333e-009     
  1.4             5.0263e-005     -1.2442e-008    -4.614e-010    
  1.45            5.0545e-005     1.9455e-008     -1.5743e-009   
  1.5             5.0704e-005     9.823e-009      1.0686e-009    
  1.55            5.0901e-005     -2.6758e-008    1.3357e-009    
  1.6             5.1212e-005     -1.1691e-008    -1.7825e-009   
  1.65            5.139e-005      1.1331e-008     -2.436e-010    
  1.7             5.1485e-005     -1.6603e-008    2.7023e-009    
  1.75            5.1703e-005     -2.3471e-008    2.0495e-009    
  1.8             5.192e-005      -1.2814e-008    -9.186e-010    
  1.85            5.2145e-005     2.6994e-008     -1.3889e-009   
  1.9             5.2298e-005     2.4267e-008     -1.7963e-009   
  1.95            5.2428e-005     1.1769e-008     9.215e-010     
  2               5.2559e-005     -2.638e-008     1.3349e-009    
  2.05            5.2726e-005     -1.8917e-008    1.7696e-009    
  2.1             5.2927e-005     -1.1689e-008    -1.0408e-009   
  2.15            5.3121e-005     2.8969e-008     -1.3933e-009   
  2.2             5.3228e-005     1.241e-008      5.555e-010     
  2.25            5.3318e-005     -9.345e-009     1.3402e-009    
  2.3             5.3484e-005     -2.3458e-008    2.0363e-009    
  2.35            5.3659e-005     -1.3335e-008    -9.261e-010    
  2.4             5.3832e-005     8.512e-009      -1.3889e-009   
  2.45            5.3937e-005     1.1648e-008     6.675e-010     
  2.5             5.4017e-005     -9.714e-009     1.3347e-009    
  2.55            5.427e-005      -1.1638e-008    -1.6078e-009   
  2.6             5.4352e-005     1.4427e-008     -1.5506e-009   
  2.65            5.4423e-005     6.535e-009      1.0867e-009    
  2.7             5.4537e-005     -3.0734e-008    1.3347e-009    
  2.75            5.478e-005      -1.7033e-008    -1.7994e-009   
  2.8             5.4869e-005     1.1419e-008     -1.9414e-009   
  2.85            5.4993e-005     5.634e-009      -2.5936e-009   
  2.9             5.5161e-005     8.224e-009      -1.8539e-009   
  2.95            5.5241e-005     -3.461e-009     2.4225e-009    
  3               5.5287e-005     -2.8083e-008    -5.787e-010    
  3.05            5.5507e-005     -1.1292e-008    -1.3881e-009   
  3.1             5.5565e-005     -1.2273e-008    2.7921e-009    
  3.15            5.5716e-005     -3.6142e-008    -1.1193e-009   
  3.2             5.5845e-005     -9.05e-010      -1.3918e-009   
  3.25            5.5887e-005     -3.0065e-008    2.8817e-009    
  3.3             5.6086e-005     -5.1373e-008    -1.4258e-009   
  3.35            5.6172e-005     -2.5494e-008    -1.7688e-009   
  3.4             5.6228e-005     -4.7724e-008    2.4619e-009    
  3.45            5.6341e-005     -7.843e-008     -6.398e-010    
  3.5             5.6514e-005     -5.3159e-008    -1.4476e-009   
  3.55            5.6554e-005     -7.7453e-008    2.6803e-009    
  3.6             5.6675e-005     -1.10356e-007   9.435e-010     
  3.65            5.6797e-005     -1.2291e-007    -2.0389e-009   
  3.7             5.693e-005      -1.1627e-007    1.497e-010     
  3.75            5.6985e-005     -1.6234e-007    2.0493e-009    
  3.8             5.7121e-005     -1.7229e-007    -2.285e-009    
  3.85            5.7263e-005     -1.7117e-007    4.911e-010     
  3.9             5.7323e-005     -2.2625e-007    1.5327e-009    
  3.95            5.7502e-005     -2.4106e-007    -2.5805e-009   
  4               5.7656e-005     -2.4805e-007    8.02e-010      
  4.05            5.7719e-005     -3.1692e-007    1.3467e-009    
  4.1             5.7927e-005     -3.3346e-007    -2.7299e-009   
  4.15            5.8023e-005     -3.5276e-007    1.0779e-009    
