! VERSION = 6.00
BEGIN_HEADER
 ICCAP_INPUTS
  VG         V  B GROUND SMU4 0.001 LIN        1    0          5          101  0.05      
  VS         V  E GROUND SMU2 0.1 CON        0
  VB         V  C GROUND SMU3 0.1 LIN        3    0          -5         3    -2.5      
  VD         V  S GROUND SMU1 0.1 LIN        2    0.1        5          2    4.9       
 ICCAP_OUTPUTS
  IG         I  B GROUND SMU4 B
  ID         I  S GROUND SMU1 B
  IB         I  C GROUND SMU3 B
END_HEADER

BEGIN_DB
 ICCAP_VAR VS         0              
 ICCAP_VAR VB         0              
 ICCAP_VAR VD         0.1            

 #VG              IG              ID              IB             
  0               -1.1165e-009    -1.073e-009     -1.7944e-008   
  0.05            -1.7633e-009    8.454e-010      2.1179e-008    
  0.1             -1.7007e-009    -1.6488e-009    5.811e-009     
  0.15            -2.553e-010     -2.1821e-009    -1.3024e-008   
  0.2             -4.799e-010     -2.2161e-009    -1.2817e-008   
  0.25            -6.889e-010     -2.2219e-009    -1.2028e-008   
  0.3             -8.741e-010     -2.2074e-009    -1.0651e-008   
  0.35            1.9152e-009     -1.6118e-009    -1.4297e-008   
  0.4             1.6216e-009     1.9432e-009     -8.831e-009    
  0.45            1.798e-009      2.0244e-009     1.021e-008     
  0.5             4.116e-010      4.153e-009      1.2337e-008    
  0.55            6.058e-010      9.2739e-009     1.1553e-008    
  0.6             -1.5807e-009    2.449e-008      -1.2375e-008   
  0.65            -1.3793e-009    8.6852e-008     7.335e-009     
  0.7             1.8096e-009     2.6882e-007     -2.6514e-008   
  0.75            6.844e-010      7.7795e-007     1.2233e-008    
  0.8             -1.3627e-009    1.964e-006      -1.194e-008    
  0.85            -2.4929e-009    4.2403e-006     1.4162e-008    
  0.9             -1.8582e-009    7.8351e-006     1.788e-009     
  0.95            1.3748e-009     1.2773e-005     1.268e-009     
  1               2.8724e-009     1.8974e-005     -8.633e-009    
  1.05            -1.364e-009     2.6191e-005     2.7992e-008    
  1.1             -2.4949e-009    3.3669e-005     1.4083e-008    
  1.15            -1.871e-009     4.0995e-005     1.783e-009     
  1.2             -1.4274e-009    4.8226e-005     5.036e-009     
  1.25            -1.377e-009     5.524e-005      9.133e-009     
  1.3             -2.6227e-009    6.1969e-005     1.313e-008     
  1.35            -2.1055e-009    6.836e-005      1.387e-009     
  1.4             -1.526e-009     7.4553e-005     4.182e-009     
  1.45            -1.3796e-009    8.0503e-005     8.08e-009      
  1.5             -2.6914e-009    8.6218e-005     1.2348e-008    
  1.55            1.8704e-009     9.1513e-005     -2.0356e-008   
  1.6             1.3644e-009     9.6808e-005     -9.023e-009    
  1.65            2.8687e-009     0.000101896     -8.498e-009    
  1.7             -1.3604e-009    0.000107035     2.7853e-008    
  1.75            -2.4822e-009    0.000111843     1.4251e-008    
  1.8             -1.4302e-009    0.00011661      2.055e-009     
  1.85            -1.3765e-009    0.00012111      9.074e-009     
  1.9             -2.6133e-009    0.00012554      1.322e-008     
  1.95            -2.0806e-009    0.00012976      1.268e-009     
  2               -1.5117e-009    0.00013399      4.472e-009     
  2.05            -1.3795e-009    0.00013806      7.96e-009      
  2.1             -2.6878e-009    0.00014205      1.2622e-008    
  2.15            -4.274e-010     0.00014585      -1.2568e-008   
  2.2             -8.953e-010     0.00014965      -1.2324e-008   
  2.25            1.505e-009      0.00015325      -1.3817e-008   
  2.3             1.3255e-009     0.00015692      -8.294e-009    
  2.35            2.8503e-009     0.00016049      -1.0819e-008   
  2.4             4.49e-010       0.00016406      1.2252e-008    
  2.45            8.772e-010      0.00016743      1.1439e-008    
  2.5             -1.4592e-009    0.00017077      1.4157e-008    
  2.55            -1.3772e-009    0.00017409      8.916e-009     
  2.6             -2.6494e-009    0.00017735      1.3057e-008    
  2.65            -2.1746e-009    0.00018043      1.254e-009     
  2.7             -1.5667e-009    0.00018353      3.89e-009      
  2.75            -1.3784e-009    0.00018662      7.443e-009     
  2.8             -2.7019e-009    0.00018958      1.1947e-008    
  2.85            1.9461e-009     0.00019247      -2.1737e-008   
  2.9             1.3895e-009     0.00019533      -8.639e-009    
  2.95            1.3225e-009     0.00019812      -8.237e-009    
  3               2.7838e-009     0.00020088      -1.3364e-008   
  3.05            2.5371e-009     0.00020363      9.147e-009     
  3.1             -1.769e-009     0.00020632      2.3479e-008    
  3.15            -1.3982e-009    0.00020896      5.619e-009     
  3.2             -2.723e-009     0.00021154      9.873e-009     
  3.25            2.2323e-009     0.00021402      -2.5085e-008   
  3.3             1.5187e-009     0.00021651      -6.744e-009    
  3.35            2.8356e-009     0.00021893      -8.388e-009    
  3.4             2.8554e-009     0.00022138      4.65e-010      
  3.45            -1.7017e-009    0.00022376      2.2064e-008    
  3.5             -1.3875e-009    0.00022606      6.261e-009     
  3.55            -1.3646e-009    0.00022837      1.0365e-008    
  3.6             -2.5244e-009    0.00023067      1.3911e-008    
  3.65            -1.8991e-009    0.00023277      1.554e-009     
  3.7             -1.4437e-009    0.00023496      4.88e-009      
  3.75            -1.3791e-009    0.00023711      8.999e-009     
  3.8             -2.6391e-009    0.00023923      1.295e-008     
  3.85            -2.1442e-009    0.0002412       1.26e-009      
  3.9             -1.5478e-009    0.00024324      4.147e-009     
  3.95            -1.3776e-009    0.00024526      7.734e-009     
  4               -2.6938e-009    0.00024718      1.2027e-008    
  4.05            1.9177e-009     0.00024908      -2.1163e-008   
  4.1             1.3825e-009     0.00025095      -8.757e-009    
  4.15            1.3175e-009     0.00025281      -8.318e-009    
  4.2             2.7741e-009     0.00025466      -1.3757e-008   
  4.25            1.5307e-009     0.00025643      9.706e-009     
  4.3             -1.9159e-009    0.00025828      2.6583e-008    
  4.35            -1.4397e-009    0.00025998      5.038e-009     
  4.4             -1.3749e-009    0.00026171      8.828e-009     
  4.45            -2.6412e-009    0.0002634       1.3148e-008    
  4.5             -2.1462e-009    0.00026502      1.365e-009     
  4.55            -1.5563e-009    0.00026663      4.215e-009     
  4.6             -1.3744e-009    0.00026826      7.561e-009     
  4.65            -2.7002e-009    0.00026979      1.1938e-008    
  4.7             1.9288e-009     0.00027132      -2.1348e-008   
  4.75            1.3865e-009     0.0002728       -8.686e-009    
  4.8             2.8735e-009     0.00027426      -8.166e-009    
  4.85            2.7774e-009     0.00027574      -2.17e-010     
  4.9             1.5315e-009     0.00027714      1.0452e-008    
  4.95            -1.9288e-009    0.00027863      2.6751e-008    
  5               -1.4418e-009    0.00027999      4.914e-009     
END_DB

BEGIN_DB
 ICCAP_VAR VS         0              
 ICCAP_VAR VB         0              
 ICCAP_VAR VD         5              

 #VG              IG              ID              IB             
  0               1.3369e-009     1.5001e-009     -1.313e-008    
  0.05            1.1487e-009     2.3039e-009     -8.426e-009    
  0.1             1.3074e-009     2.1861e-009     9.536e-009     
  0.15            -1.3702e-009    1.2446e-009     2.9163e-008    
  0.2             -1.2565e-009    -2.1098e-009    1.0745e-008    
  0.25            1.367e-009      -1.1515e-009    -2.5995e-008   
  0.3             2.0597e-009     1.3665e-009     -8.095e-009    
  0.35            6.926e-010      2.7875e-009     1.1283e-008    
  0.4             -1.3539e-009    3.544e-009      2.0454e-008    
  0.45            -2.6377e-009    8.2707e-009     1.4343e-008    
  0.5             2.7945e-009     3.0841e-008     9.817e-009     
  0.55            -2.675e-010     1.1223e-007     7.87e-010      
  0.6             -7.87e-010      3.9333e-007     -4.4362e-008   
  0.65            1.1633e-009     1.2268e-006     -8.2369e-008   
  0.7             1.9176e-009     3.263e-006      -2.5793e-007   
  0.75            1.3663e-009     7.4397e-006     -5.3291e-007   
  0.8             -1.5633e-009    1.5095e-005     -9.9862e-007   
  0.85            -2.3765e-009    2.6127e-005     -1.7117e-006   
  0.9             -2.6955e-009    4.1429e-005     -2.604e-006    
  0.95            -2.7164e-009    6.0482e-005     -3.6534e-006   
  1               -2.5897e-009    8.2864e-005     -4.8081e-006   
  1.05            -2.0905e-009    0.00010835      -6.046e-006    
  1.1             -2.7166e-009    0.0001366       -7.3314e-006   
  1.15            -2.5971e-009    0.00016644      -8.6085e-006   
  1.2             -2.1143e-009    0.00019816      -9.8697e-006   
  1.25            -1.5184e-009    0.00023127      -1.10883e-005  
  1.3             1.3158e-009     0.00026466      -1.2297e-005   
  1.35            2.8246e-009     0.00029978      -1.336e-005    
  1.4             2.4005e-009     0.00033622      -1.4412e-005   
  1.45            1.642e-009      0.00037309      -1.5411e-005   
  1.5             1.3188e-009     0.00041068      -1.634e-005    
  1.55            2.856e-009      0.00044835      -1.7187e-005   
  1.6             2.6036e-009     0.00048751      -1.7961e-005   
  1.65            1.8874e-009     0.00052629      -1.8677e-005   
  1.7             1.3572e-009     0.00056559      -1.9329e-005   
  1.75            2.8631e-009     0.00060522      -1.9897e-005   
  1.8             2.7475e-009     0.00064555      -2.0404e-005   
  1.85            2.1543e-009     0.00068556      -2.0848e-005   
  1.9             1.4689e-009     0.0007258       -2.1238e-005   
  1.95            2.8483e-009     0.00076622      -2.1561e-005   
  2               2.8224e-009     0.0008073       -2.1823e-005   
  2.05            2.4097e-009     0.00084798      -2.2037e-005   
  2.1             1.6461e-009     0.00088875      -2.2205e-005   
  2.15            1.316e-009      0.00092967      -2.2323e-005   
  2.2             2.8549e-009     0.00097035      -2.239e-005    
  2.25            2.6038e-009     0.00101217      -2.2408e-005   
  2.3             1.8896e-009     0.00105304      -2.2392e-005   
  2.35            1.365e-009      0.00109405      -2.2349e-005   
  2.4             2.8629e-009     0.00113527      -2.2259e-005   
  2.45            -1.3675e-009    0.0011779       -2.2141e-005   
  2.5             -2.6817e-009    0.0012195       -2.197e-005    
  2.55            -2.3982e-009    0.0012603       -2.1799e-005   
  2.6             -1.7542e-009    0.0013018       -2.1592e-005   
  2.65            -1.3909e-009    0.0013431       -2.1362e-005   
  2.7             -2.7048e-009    0.0013844       -2.111e-005    
  2.75            -2.5359e-009    0.0014256       -2.0845e-005   
  2.8             -1.9778e-009    0.001467        -2.0554e-005   
  2.85            -1.4485e-009    0.0015082       -2.0249e-005   
  2.9             -1.3697e-009    0.0015495       -1.9929e-005   
  2.95            -2.6316e-009    0.0015903       -1.9601e-005   
  3               -2.2012e-009    0.0016311       -1.9271e-005   
  3.05            -1.5719e-009    0.0016724       -1.8922e-005   
  3.1             -1.3655e-009    0.0017133       -1.8563e-005   
  3.15            -2.6805e-009    0.0017542       -1.8193e-005   
  3.2             -2.3967e-009    0.0017941       -1.784e-005    
  3.25            -1.7562e-009    0.0018353       -1.7468e-005   
  3.3             -1.3866e-009    0.0018759       -1.7094e-005   
  3.35            -1.3647e-009    0.0019167       -1.6712e-005   
  3.4             -2.5467e-009    0.0019572       -1.6334e-005   
  3.45            -1.9801e-009    0.0019975       -1.5966e-005   
  3.5             -1.4497e-009    0.0020375       -1.5583e-005   
  3.55            -1.3665e-009    0.002078        -1.5207e-005   
  3.6             -2.6326e-009    0.0021184       -1.4831e-005   
  3.65            -2.2095e-009    0.0021581       -1.4468e-005   
  3.7             -1.57e-009      0.0021983       -1.4102e-005   
  3.75            -1.3628e-009    0.0022383       -1.3737e-005   
  3.8             -2.6791e-009    0.0022783       -1.3375e-005   
  3.85            -2.3933e-009    0.0023177       -1.3026e-005   
  3.9             -1.7558e-009    0.0023576       -1.2678e-005   
  3.95            -1.3833e-009    0.0023973       -1.2328e-005   
  4               -1.3626e-009    0.002437        -1.1986e-005   
  4.05            -2.5411e-009    0.0024766       -1.1647e-005   
  4.1             -1.9778e-009    0.0025156       -1.1328e-005   
  4.15            -1.446e-009     0.0025549       -1.1001e-005   
  4.2             -1.3648e-009    0.002594        -1.0684e-005   
  4.25            -2.6305e-009    0.0026333       -1.0372e-005   
  4.3             -2.2039e-009    0.0026718       -1.0079e-005   
  4.35            1.4759e-009     0.0027099       -9.8116e-006   
  4.4             1.321e-009      0.0027494       -9.51e-006     
  4.45            2.8236e-009     0.0027878       -9.2313e-006   
  4.5             2.3974e-009     0.0028269       -8.9473e-006   
  4.55            1.6338e-009     0.0028653       -8.679e-006    
  4.6             1.3231e-009     0.0029037       -8.4255e-006   
  4.65            2.8621e-009     0.0029418       -8.1653e-006   
  4.7             2.5924e-009     0.0029802       -7.9103e-006   
  4.75            1.8811e-009     0.0030184       -7.6711e-006   
  4.8             1.3592e-009     0.0030562       -7.4366e-006   
  4.85            1.3202e-009     0.0030938       -7.2051e-006   
  4.9             2.7551e-009     0.0031316       -6.984e-006    
  4.95            2.1467e-009     0.0031697       -6.7557e-006   
  5               1.4667e-009     0.0032074       -6.5493e-006   
END_DB

BEGIN_DB
 ICCAP_VAR VS         0              
 ICCAP_VAR VB         -2.5           
 ICCAP_VAR VD         0.1            

 #VG              IG              ID              IB             
  0               -3.308e-010     -4.878e-010     -2.0399e-008   
  0.05            -1.8275e-009    8.219e-010      2.0048e-008    
  0.1             -1.6878e-009    -1.7157e-009    5.782e-009     
  0.15            -2.166e-010     -2.187e-009     -1.293e-008    
  0.2             -4.515e-010     -2.2243e-009    -1.3203e-008   
  0.25            -6.689e-010     -2.2241e-009    -1.2568e-008   
  0.3             -8.591e-010     -2.2026e-009    -1.0851e-008   
  0.35            1.9688e-009     -1.6436e-009    -1.5026e-008   
  0.4             1.6188e-009     1.8593e-009     -8.919e-009    
  0.45            1.7926e-009     1.5584e-009     1.0731e-008    
  0.5             4.087e-010      2.283e-009      1.2729e-008    
  0.55            6.156e-010      2.3163e-009     1.1982e-008    
  0.6             7.888e-010      2.3319e-009     1.0289e-008    
  0.65            -1.8494e-009    1.6709e-009     1.7093e-008    
  0.7             -1.674e-009     -1.7292e-009    5.665e-009     
  0.75            1.3178e-009     -1.4911e-009    -2.2792e-008   
  0.8             2.8505e-009     1.41e-011       -1.3668e-008   
  0.85            -1.3704e-009    1.9365e-009     2.5533e-008    
  0.9             -2.6761e-009    2.0933e-009     1.339e-008     
  0.95            1.3163e-009     6.6157e-009     -2.2073e-008   
  1               -1.3647e-009    3.2405e-008     -1.2944e-008   
  1.05            7.95e-011       1.2511e-007     -8.067e-009    
  1.1             -1.3669e-009    4.1348e-007     2.7609e-008    
  1.15            -2.7084e-009    1.1557e-006     -2.5871e-008   
  1.2             2.3539e-009     2.7696e-006     -2.6505e-008   
  1.25            1.5646e-009     5.6867e-006     -6.371e-009    
  1.3             1.3163e-009     1.01344e-005    -8.69e-009     
  1.35            -2.559e-010     1.6178e-005     -8.216e-009    
  1.4             -1.4441e-009    2.3052e-005     2.1417e-008    
  1.45            -1.3708e-009    3.0416e-005     8.945e-009     
  1.5             -2.6295e-009    3.7969e-005     1.2832e-008    
  1.55            -2.1695e-009    4.5325e-005     1.112e-009     
  1.6             -1.5481e-009    5.2493e-005     4.432e-009     
  1.65            -1.3678e-009    5.9333e-005     8.16e-009      
  1.7             -2.6731e-009    6.5925e-005     1.1699e-008    
  1.75            1.9132e-009     7.1965e-005     -2.1785e-008   
  1.8             1.3594e-009     7.794e-005      -9.121e-009    
  1.85            2.8655e-009     8.3614e-005     -8.308e-009    
  1.9             -1.3597e-009    8.9258e-005     2.873e-008     
  1.95            -2.4957e-009    9.4522e-005     1.4227e-008    
  2               -1.8699e-009    9.9538e-005     1.64e-009      
  2.05            -1.4145e-009    0.000104407     5.416e-009     
  2.1             -1.3704e-009    0.000109131     9.271e-009     
  2.15            -2.5982e-009    0.000113699     1.2944e-008    
  2.2             -2.7315e-009    0.00011817      -1.1598e-008   
  2.25            -9.76e-010      0.00012245      -1.2072e-008   
  2.3             2.86e-010       0.00012647      -1.2037e-008   
  2.35            1.4724e-009     0.00013058      -2.0673e-008   
  2.4             2.8538e-009     0.0001345       -8.05e-009     
  2.45            2.8208e-009     0.00013838      1.43e-010      
  2.5             -1.6352e-009    0.00014214      2.0438e-008    
  2.55            -1.3703e-009    0.00014581      7.449e-009     
  2.6             -2.6874e-009    0.00014937      1.0988e-008    
  2.65            2.0406e-009     0.00015279      -2.33e-008     
  2.7             1.4103e-009     0.00015617      -8.717e-009    
  2.75            1.3197e-009     0.00015954      -8.091e-009    
  2.8             2.7932e-009     0.0001628       -1.2708e-008   
  2.85            1.505e-009      0.00016593      1.0009e-008    
  2.9             -2.0008e-009    0.00016919      2.7948e-008    
  2.95            -1.4537e-009    0.00017219      4.974e-009     
  3               -1.3683e-009    0.00017518      8.722e-009     
  3.05            -2.6332e-009    0.00017814      1.2668e-008    
  3.1             -2.1929e-009    0.00018096      1.139e-009     
  3.15            -1.5656e-009    0.00018376      3.958e-009     
  3.2             -1.3665e-009    0.00018656      7.866e-009     
  3.25            -2.6788e-009    0.00018923      1.1534e-008    
  3.3             1.9471e-009     0.00019184      -2.2083e-008   
  3.35            1.3772e-009     0.00019442      -9.19e-009     
  3.4             2.8653e-009     0.00019698      -8.294e-009    
  3.45            2.7527e-009     0.00019951      -2.43e-010     
  3.5             2.5664e-009     0.00020194      9.011e-009     
  3.55            -1.7371e-009    0.0002044       2.3202e-008    
  3.6             -1.3827e-009    0.00020674      6.458e-009     
  3.65            -1.36e-009      0.00020912      1.0233e-008    
  3.7             -2.5197e-009    0.00021143      1.3943e-008    
  3.75            -1.9281e-009    0.00021363      1.47e-009      
  3.8             -1.4338e-009    0.00021585      4.982e-009     
  3.85            -1.367e-009     0.000218        8.971e-009     
  3.9             -2.6182e-009    0.00022017      1.2768e-008    
  3.95            -2.1499e-009    0.0002222       1.17e-009      
  4               -1.54e-009      0.00022428      4.288e-009     
  4.05            -1.3669e-009    0.0002263       8.249e-009     
  4.1             -2.6661e-009    0.0002283       1.1816e-008    
  4.15            1.8955e-009     0.00023019      -2.1199e-008   
