! VERSION = 6.00
BEGIN_HEADER
 ICCAP_INPUTS
  VG         V  B GROUND SMU4 0.001 LIN        1    0          5          101  0.05      
  VS         V  E GROUND SMU2 0.1 CON        0
  VB         V  C GROUND SMU3 0.1 LIN        3    0          -5         3    -2.5      
  VD         V  S GROUND SMU1 0.1 LIN        2    0.1        5          2    4.9       
 ICCAP_OUTPUTS
  IG         I  B GROUND SMU4 B
  ID         I  S GROUND SMU1 B
  IB         I  C GROUND SMU3 B
END_HEADER

BEGIN_DB
 ICCAP_VAR VS         0              
 ICCAP_VAR VB         0              
 ICCAP_VAR VD         0.1            

 #VG              IG              ID              IB             
  0               6.796e-010      7.578e-010      2.8137e-008    
  0.05            1.9339e-009     -1.6515e-009    -1.5161e-008   
  0.1             1.6478e-009     1.8285e-009     -9.595e-009    
  0.15            1.8329e-009     1.5745e-009     1.0389e-008    
  0.2             4.254e-010      2.3484e-009     1.022e-008     
  0.25            6.167e-010      2.4255e-009     1.0742e-008    
  0.3             -1.315e-009     1.638e-009      2.2585e-008    
  0.35            -2.7053e-009    4.287e-010      1.2019e-008    
  0.4             8.7e-011        -1.1489e-009    4.49e-010      
  0.45            1.9462e-009     2.0305e-009     -1.0847e-008   
  0.5             2.8488e-009     1.1478e-008     1.9403e-008    
  0.55            -1.415e-010     4.1497e-008     1.2682e-008    
  0.6             2.8353e-009     1.3694e-007     -1.1294e-008   
  0.65            -1.586e-010     4.8968e-007     1.2933e-008    
  0.7             -1.5402e-009    1.5048e-006     -1.1424e-008   
  0.75            -1.3574e-009    4.3173e-006     9.254e-009     
  0.8             -2.7121e-009    1.08005e-005    1.1325e-008    
  0.85            2.439e-009      2.2577e-005     -1.1791e-008   
  0.9             1.3738e-009     4.1376e-005     1.0771e-008    
  0.95            2.206e-010      6.8625e-005     1.0447e-008    
  1               6.652e-010      0.000100302     1.0162e-008    
  1.05            1.6119e-009     0.00013498      2.3423e-008    
  1.1             4.621e-010      0.00017325      1.0091e-008    
  1.15            -1.3039e-009    0.00021114      2.6036e-008    
  1.2             -2.3963e-009    0.00024738      1.335e-008     
  1.25            -1.7618e-009    0.00028208      2.437e-009     
  1.3             -1.414e-009     0.00031569      6.665e-009     
  1.35            -1.3191e-009    0.00034766      1.0878e-008    
  1.4             -2.5528e-009    0.00037797      1.1565e-008    
  1.45            -1.9648e-009    0.00040709      1.413e-009     
  1.5             -1.4903e-009    0.00043533      4.853e-009     
  1.55            -1.3418e-009    0.00046206      9.974e-009     
  1.6             -2.6667e-009    0.000488        1.1057e-008    
  1.65            -2.1826e-009    0.00051245      5.2e-010       
  1.7             -9.725e-010     0.0005365       -1.1573e-008   
  1.75            2.625e-010      0.00055893      -1.3713e-008   
  1.8             -1.533e-010     0.00058136      -1.1417e-008   
  1.85            -6.544e-010     0.00060344      -1.1045e-008   
  1.9             -1.0688e-009    0.00062467      -1.1494e-008   
  1.95            -1.4876e-009    0.00064521      -1.1798e-008   
  2               -2.756e-010     0.00066441      -1.1075e-008   
  2.05            -7.711e-010     0.00068387      -1.1119e-008   
  2.1             1.7088e-009     0.00070216      -1.7533e-008   
  2.15            1.3285e-009     0.00072046      -9.379e-009    
  2.2             2.9156e-009     0.00073823      -8.929e-009    
  2.25            1.2829e-009     0.00075546      1.0613e-008    
  2.3             1.271e-010      0.00077298      1.0812e-008    
  2.35            5.707e-010      0.00078936      1.0091e-008    
  2.4             -1.8014e-009    0.00080564      2.3661e-008    
  2.45            -1.4212e-009    0.00082156      6.436e-009     
  2.5             -1.3234e-009    0.00083712      1.0718e-008    
  2.55            -2.5677e-009    0.00085241      1.1532e-008    
  2.6             -1.9953e-009    0.00086692      1.249e-009     
  2.65            -1.4991e-009    0.00088155      4.623e-009     
  2.7             -1.3433e-009    0.0008958       9.852e-009     
  2.75            -2.6781e-009    0.00090985      1.1271e-008    
  2.8             -2.2126e-009    0.00092352      4.44e-010      
  2.85            -1.6193e-009    0.00093694      3.468e-009     
  2.9             -1.3762e-009    0.00095012      8.226e-009     
  2.95            -1.3018e-009    0.00096303      1.152e-008     
  3               -2.4212e-009    0.00097589      1.3132e-008    
  3.05            -8.296e-010     0.00098792      -1.1269e-008   
  3.1             -1.2125e-009    0.00100022      -1.133e-008    
  3.15            1.73e-011       0.00101169      -1.2104e-008   
  3.2             -4.619e-010     0.0010238       -1.093e-008    
  3.25            -9.2e-010       0.00103544      -1.1599e-008   
  3.3             1.5129e-009     0.00104612      -1.4501e-008   
  3.35            1.2862e-009     0.00105769      -8.982e-009    
  3.4             2.8484e-009     0.00106866      -1.0459e-008   
  3.45            4.805e-010      0.00107962      1.0096e-008    
  3.5             -1.2999e-009    0.00109028      2.5487e-008    
  3.55            -2.3757e-009    0.00110074      1.3803e-008    
  3.6             -8.618e-010     0.00111061      -1.1448e-008   
  3.65            -1.2483e-009    0.00112078      -1.1485e-008   
  3.7             -1.12e-011      0.00113009      -1.1953e-008   
  3.75            2.3541e-009     0.0011407       -1.0938e-008   
  3.8             -1.3175e-009    0.0011505       2.7521e-008    
  3.85            -2.5211e-009    0.0011598       1.2036e-008    
  3.9             -1.9252e-009    0.0011688       1.572e-009     
  3.95            -1.4676e-009    0.001178        5.438e-009     
  4               -1.3349e-009    0.0011869       9.99e-009      
  4.05            -2.6449e-009    0.0011957       1.1051e-008    
  4.1             -2.1428e-009    0.0012038       6.04e-010      
  4.15            -1.571e-009     0.0012125       3.684e-009     
  4.2             -1.3629e-009    0.0012209       8.681e-009     
  4.25            -2.7273e-009    0.0012288       1.1343e-008    
  4.3             -2.3421e-009    0.0012371       2.79e-010      
  4.35            -8.71e-010      0.0012449       -1.1435e-008   
  4.4             -1.2556e-009    0.0012528       -1.136e-008    
  4.45            -2.51e-011      0.00126         -1.1908e-008   
  4.5             -5.122e-010     0.0012678       -1.0989e-008   
  4.55            -9.541e-010     0.001275        -1.1449e-008   
  4.6             2.802e-010      0.0012818       -1.3951e-008   
  4.65            -1.172e-010     0.0012893       -1.1453e-008   
  4.7             -6.278e-010     0.0012965       -1.1055e-008   
  4.75            -1.0487e-009    0.0013034       -1.1472e-008   
  4.8             1.945e-010      0.0013094       -1.3006e-008   
  4.85            -2.417e-010     0.0013165       -1.1206e-008   
  4.9             -7.421e-010     0.0013233       -1.1168e-008   
  4.95            1.743e-009      0.0013293       -1.8141e-008   
  5               1.3404e-009     0.001336        -9.426e-009    
END_DB

BEGIN_DB
 ICCAP_VAR VS         0              
 ICCAP_VAR VB         0              
 ICCAP_VAR VD         5              

 #VG              IG              ID              IB             
  0               -7.524e-010     -8.08e-010      1.1498e-008    
  0.05            -1.3052e-009    1.6412e-009     1.9397e-008    
  0.1             -2.6574e-009    2.94e-010       1.326e-008     
  0.15            -1.0492e-009    -2.1999e-009    6.3e-010       
  0.2             1.6237e-009     -1.6566e-009    -1.2953e-008   
  0.25            1.8512e-009     1.7717e-009     -9.343e-009    
  0.3             4.272e-010      3.1607e-009     1.0132e-008    
  0.35            -1.345e-009     4.9854e-009     2.6109e-008    
  0.4             -8.652e-010     1.1871e-008     -1.608e-009    
  0.45            -1.2555e-009    5.6809e-008     -1.6362e-008   
  0.5             -2.6965e-009    2.3861e-007     -9.98e-009     
  0.55            -2.2364e-009    8.5765e-007     -7.0267e-008   
  0.6             -1.6967e-009    2.8941e-006     -2.3109e-007   
  0.65            -1.3997e-009    8.5821e-006     -6.3013e-007   
  0.7             -2.6276e-009    2.1683e-005     -1.51e-006     
  0.75            -2.1083e-009    4.7826e-005     -3.267e-006    
  0.8             -1.5571e-009    9.1421e-005     -5.9855e-006   
  0.85            -2.7467e-009    0.0001543       -9.705e-006    
  0.9             1.2538e-009     0.00023606      -1.4249e-005   
  0.95            2.6801e-009     0.00033728      -1.9637e-005   
  1               2.0079e-009     0.00045552      -2.5405e-005   
  1.05            1.4436e-009     0.00058643      -3.1548e-005   
  1.1             1.2743e-009     0.00072859      -3.77e-005     
  1.15            2.8135e-009     0.0008826       -4.3973e-005   
  1.2             2.2793e-009     0.00104431      -5.0013e-005   
  1.25            -1.3046e-009    0.0012163       -5.6123e-005   
  1.3             -2.4346e-009    0.0013891       -6.1619e-005   
  1.35            -1.8068e-009    0.0015655       -6.6956e-005   
  1.4             -1.4291e-009    0.0017466       -7.1932e-005   
  1.45            -1.3271e-009    0.0019318       -7.6562e-005   
  1.5             -2.5925e-009    0.0021199       -8.09e-005     
  1.55            -2.0253e-009    0.0023085       -8.4901e-005   
  1.6             -1.5135e-009    0.0025006       -8.8528e-005   
  1.65            -1.3526e-009    0.0026949       -9.1765e-005   
  1.7             -2.7014e-009    0.0028907       -9.4734e-005   
  1.75            -2.2483e-009    0.0030857       -9.7386e-005   
  1.8             -1.6565e-009    0.0032838       -9.9694e-005   
  1.85            -1.3839e-009    0.0034825       -0.000101661   
  1.9             -1.3067e-009    0.0036827       -0.000103356   
  1.95            -2.4675e-009    0.0038826       -0.000104785   
  2               -1.8413e-009    0.004082        -0.000105953   
  2.05            -1.439e-009     0.0042828       -0.000106833   
  2.1             -1.3297e-009    0.0044843       -0.00010747    
  2.15            -2.6131e-009    0.0046858       -0.000107888   
  2.2             -2.063e-009     0.0048861       -0.000108105   
  2.25            -1.5305e-009    0.0050879       -0.000108097   
  2.3             -1.3549e-009    0.0052903       -0.000107886   
  2.35            -2.7157e-009    0.0054923       -0.000107501   
  2.4             -2.2907e-009    0.0056924       -0.00010698    
  2.45            -1.68e-009      0.0058943       -0.000106279   
  2.5             -1.3906e-009    0.0060961       -0.000105432   
  2.55            -1.3107e-009    0.0062975       -0.000104445   
  2.6             -2.4974e-009    0.0064989       -0.000103351   
  2.65            -1.8811e-009    0.0066986       -0.000102153   
  2.7             -1.4496e-009    0.0068997       -0.000100844   
  2.75            -1.3331e-009    0.0071003       -9.9439e-005   
  2.8             -2.6269e-009    0.0073036       -9.7937e-005   
  2.85            -2.1016e-009    0.0075024       -9.6388e-005   
  2.9             -1.5542e-009    0.0077017       -9.4772e-005   
  2.95            -1.3608e-009    0.0079018       -9.3093e-005   
  3               -2.7283e-009    0.0081009       -9.1369e-005   
  3.05            -2.3161e-009    0.0082979       -8.9619e-005   
  3.1             -1.7104e-009    0.0084962       -8.7818e-005   
  3.15            -1.4007e-009    0.0086942       -8.5975e-005   
  3.2             -1.3118e-009    0.0088919       -8.4122e-005   
  3.25            -2.5124e-009    0.0090889       -8.2254e-005   
  3.3             -1.915e-009     0.0092842       -8.0375e-005   
  3.35            -1.4614e-009    0.0094809       -7.848e-005    
  3.4             -1.3357e-009    0.0096767       -7.6583e-005   
  3.45            -2.6517e-009    0.0098725       -7.4687e-005   
  3.5             -2.1329e-009    0.0100658       -7.2808e-005   
  3.55            -1.5707e-009    0.0102603       -7.0919e-005   
  3.6             -1.3641e-009    0.0104549       -6.9049e-005   
  3.65            -2.7346e-009    0.0106483       -6.7188e-005   
  3.7             -2.3478e-009    0.0108399       -6.5365e-005   
  3.75            -1.7325e-009    0.0110328       -6.3543e-005   
  3.8             -1.4039e-009    0.0112253       -6.1756e-005   
  3.85            2.7517e-009     0.01142         -5.9986e-005   
  3.9             2.1569e-009     0.011612        -5.8295e-005   
  3.95            1.519e-009      0.0118          -5.658e-005    
  4               1.2968e-009     0.011989        -5.4904e-005   
  4.05            2.8754e-009     0.012178        -5.3253e-005   
  4.1             2.404e-009      0.012371        -5.1627e-005   
  4.15            1.7054e-009     0.012558        -5.0026e-005   
  4.2             1.3381e-009     0.012746        -4.8469e-005   
  4.25            1.2577e-009     0.012933        -4.6954e-005   
  4.3             2.6412e-009     0.013119        -4.545e-005    
  4.35            1.9378e-009     0.013308        -4.4001e-005   
  4.4             1.4158e-009     0.013492        -4.257e-005    
  4.45            1.2782e-009     0.01368         -4.1168e-005   
  4.5             2.7891e-009     0.013866        -3.9816e-005   
  4.55            2.198e-009      0.014052        -3.8491e-005   
  4.6             1.5404e-009     0.014235        -3.7207e-005   
  4.65            1.3112e-009     0.014417        -3.5965e-005   
  4.7             2.8846e-009     0.014599        -3.4755e-005   
  4.75            2.4453e-009     0.014784        -3.3568e-005   
  4.8             1.7363e-009     0.014964        -3.2421e-005   
  4.85            1.3592e-009     0.015144        -3.1309e-005   
  4.9             1.2751e-009     0.015325        -3.0229e-005   
  4.95            2.6646e-009     0.015504        -2.9169e-005   
  5               1.981e-009      0.015687        -2.8144e-005   
END_DB

BEGIN_DB
 ICCAP_VAR VS         0              
 ICCAP_VAR VB         -2.5           
 ICCAP_VAR VD         0.1            

 #VG              IG              ID              IB             
  0               8.382e-010      8.886e-010      1.0496e-008    
  0.05            1.2656e-009     -1.5091e-009    -2.044e-008    
  0.1             2.9071e-009     -9.62e-011      -1.2855e-008   
  0.15            1.199e-010      2.1726e-009     1.0136e-008    
  0.2             3.036e-010      2.288e-009      1.0219e-008    
  0.25            4.938e-010      2.3781e-009     1.04e-008      
  0.3             -1.3356e-009    1.4941e-009     2.536e-008     
  0.35            -1.3062e-009    1.426e-010      1.1234e-008    
  0.4             -2.6766e-009    2.91e-010       1.2796e-008    
  0.45            -1.0292e-009    -2.2085e-009    6.01e-010      
  0.5             1.6506e-009     -1.6956e-009    -1.3061e-008   
  0.55            1.8339e-009     1.6014e-009     -9.433e-009    
  0.6             4.203e-010      2.3488e-009     1.0265e-008    
  0.65            -1.3499e-009    1.4489e-009     2.6653e-008    
  0.7             -1.3154e-009    1.211e-010      1.1185e-008    
  0.75            -2.7146e-009    3.943e-010      1.1868e-008    
  0.8             9.71e-011       -1.1889e-009    5.02e-010      
  0.85            -7.02e-011      1.1193e-009     -1.1031e-008   
  0.9             2.5629e-009     1.4514e-008     1.3207e-008    
  0.95            4.636e-010      5.7161e-008     1.0093e-008    
  1               2.9148e-009     2.0944e-007     -1.1224e-008   
  1.05            1.2723e-009     7.3097e-007     1.0479e-008    
  1.1             -1.4114e-009    2.4198e-006     -1.0939e-008   
  1.15            -1.3167e-009    6.8241e-006     1.097e-008     
  1.2             1.2811e-009     1.5671e-005     3.147e-009     
  1.25            2.8274e-009     3.1292e-005     -1.1191e-008   
  1.3             5.293e-010      5.5134e-005     1.0173e-008    
  1.35            -1.854e-009     8.5352e-005     2.4548e-008    
  1.4             -1.5736e-009    0.00012002      7.74e-010      
  1.45            -1.3644e-009    0.00015684      8.779e-009     
  1.5             -2.7303e-009    0.00019426      1.1447e-008    
  1.55            -2.3237e-009    0.00023051      3.88e-010      
  1.6             -1.7146e-009    0.00026602      2.623e-009     
  1.65            -1.4021e-009    0.00029969      6.933e-009     
  1.7             -1.3141e-009    0.00033189      1.0962e-008    
  1.75            -2.5189e-009    0.00036259      1.187e-008     
  1.8             -1.9077e-009    0.00039147      1.765e-009     
  1.85            -1.4646e-009    0.00041925      5.323e-009     
  1.9             -1.3401e-009    0.00044579      9.937e-009     
  1.95            -2.6451e-009    0.00047125      1.1192e-008    
  2               -2.1237e-009    0.00049535      6.53e-010      
  2.05            -1.5634e-009    0.00051867      3.947e-009     
  2.1             -1.3637e-009    0.00054127      8.693e-009     
  2.15            -2.7279e-009    0.00056292      1.1466e-008    
  2.2             -2.3308e-009    0.00058365      4.3e-010       
  2.25            -1.7165e-009    0.00060401      2.654e-009     
  2.3             -1.4005e-009    0.00062362      6.939e-009     
  2.35            -1.3145e-009    0.00064267      1.0899e-008    
  2.4             -2.5222e-009    0.00066126      1.2035e-008    
  2.45            -1.908e-009     0.00067898      1.695e-009     
  2.5             -1.4633e-009    0.00069646      5.308e-009     
  2.55            -1.3378e-009    0.00071344      9.857e-009     
  2.6             -2.6432e-009    0.00073013      1.1354e-008    
  2.65            -2.1279e-009    0.00074607      6.18e-010      
  2.7             -1.5673e-009    0.00076186      3.736e-009     
  2.75            -1.3647e-009    0.00077725      8.815e-009     
  2.8             -2.7325e-009    0.00079246      1.1449e-008    
  2.85            -2.3385e-009    0.00080707      4.46e-010      
  2.9             -1.7181e-009    0.00082146      2.781e-009     
  2.95            -1.4035e-009    0.0008355       6.961e-009     
  3               -1.3117e-009    0.00084933      1.0897e-008    
  3.05            -2.5224e-009    0.0008629       1.194e-008     
  3.1             -1.9156e-009    0.00087581      1.68e-009      
  3.15            -1.4632e-009    0.00088873      5.303e-009     
  3.2             -1.3375e-009    0.0009014       9.943e-009     
  3.25            -2.6475e-009    0.00091393      1.1188e-008    
  3.3             -2.1315e-009    0.00092585      7.19e-010      
  3.35            -1.5693e-009    0.00093786      3.742e-009     
  3.4             -1.365e-009     0.00094957      8.799e-009     
  3.45            -2.7291e-009    0.00096102      1.1429e-008    
  3.5             -2.3419e-009    0.00097218      3.59e-010      
  3.55            -1.7251e-009    0.00098321      2.548e-009     
  3.6             -1.403e-009     0.00099416      6.778e-009     
  3.65            -1.3139e-009    0.0010049       1.0951e-008    
  3.7             -2.5291e-009    0.00101545      1.1962e-008    
  3.75            -1.926e-009     0.00102542      1.605e-009     
  3.8             -1.4678e-009    0.0010355       5.092e-009     
  3.85            -1.3372e-009    0.00104545      1.0046e-008    
  3.9             -2.6547e-009    0.00105535      1.1347e-008    
  3.95            -2.1463e-009    0.00106469      6.62e-010      
  4               -1.5759e-009    0.00107407      3.824e-009     
  4.05            -1.3653e-009    0.00108338      8.381e-009     
  4.1             -2.7337e-009    0.0010924       1.15e-008      
  4.15            -2.3558e-009    0.00110125      3.78e-010      
