! VERSION = 6.00
BEGIN_HEADER
 ICCAP_INPUTS
  VG         V  B GROUND SMU4 0.001 LIN        2    0          5          6    1         
  VS         V  E GROUND SMU2 0.1 CON        0
  VD         V  S GROUND SMU1 0.1 LIN        1    0          5          101  0.05      
  VB         V  C GROUND SMU3 0.1 LIN        3    0          -2.5       2    -2.5      
 ICCAP_OUTPUTS
  ID         I  S GROUND SMU1 B
  IB         I  C GROUND SMU3 B
  IG         I  B GROUND SMU4 B
END_HEADER

BEGIN_DB
 ICCAP_VAR VG         0              
 ICCAP_VAR VS         0              
 ICCAP_VAR VB         0              

 #VD              ID              IB              IG             
  0               2.3272e-009     -1.4029e-008    2.2728e-009    
  0.05            2.059e-009      -5.944e-009     1.3994e-009    
  0.1             2.0564e-009     1.0476e-008     -1.94e-011     
  0.15            2.1633e-009     1.0316e-008     1.337e-010     
  0.2             2.2702e-009     1.0347e-008     3.183e-010     
  0.25            2.3396e-009     1.0837e-008     5.17e-010      
  0.3             1.5021e-009     2.3418e-008     -1.3196e-009   
  0.35            1.26e-010       1.1708e-008     -2.7007e-009   
  0.4             -1.3217e-009    5.51e-010       -1.8935e-009   
  0.45            -2.254e-009     -1.1387e-008    -5.626e-010    
  0.5             -2.2535e-009    -1.1702e-008    -7.879e-010    
  0.55            -1.5831e-009    -1.616e-008     2.0058e-009    
  0.6             1.8589e-009     -8.354e-009     1.5677e-009    
  0.65            2.1557e-009     1.0275e-008     1.19e-010      
  0.7             2.2665e-009     1.0305e-008     3.023e-010     
  0.75            2.3406e-009     1.0793e-008     4.994e-010     
  0.8             1.4927e-009     2.3606e-008     -1.3195e-009   
  0.85            1.167e-010      1.1626e-008     -2.7094e-009   
  0.9             -1.3294e-009    6.41e-010       -1.8907e-009   
  0.95            -2.2505e-009    -1.1354e-008    -5.328e-010    
  1               -2.255e-009     -1.1677e-008    -7.781e-010    
  1.05            -1.5807e-009    -1.639e-008     2.0197e-009    
  1.1             1.869e-009      -8.128e-009     1.5593e-009    
  1.15            2.1441e-009     1.021e-008      1.076e-010     
  1.2             2.2607e-009     1.0301e-008     2.854e-010     
  1.25            2.3345e-009     1.069e-008      4.782e-010     
  1.3             1.485e-009      2.3874e-008     -1.3203e-009   
  1.35            1.182e-010      1.1504e-008     -2.7086e-009   
  1.4             -1.3371e-009    5.84e-010       -1.8876e-009   
  1.45            -2.2492e-009    -1.1383e-008    -5.14e-010     
  1.5             -1.4753e-009    -2.0981e-008    1.2552e-009    
  1.55            -5.91e-011      -1.2354e-008    2.8682e-009    
  1.6             2.3003e-009     1.0948e-008     1.069e-009     
  1.65            1.8883e-009     1.2044e-008     -1.4906e-009   
  1.7             -1.3304e-009    9.741e-009      -1.8889e-009   
  1.75            -2.2482e-009    -1.1323e-008    -5.157e-010    
  1.8             -2.2512e-009    -1.1688e-008    -7.584e-010    
  1.85            -1.5806e-009    -1.6609e-008    2.0268e-009    
  1.9             1.8781e-009     -8.377e-009     1.5542e-009    
  1.95            2.1428e-009     1.0181e-008     1.13e-010      
  2               2.2556e-009     1.0259e-008     2.767e-010     
  2.05            2.3344e-009     1.0712e-008     4.629e-010     
  2.1             1.4771e-009     2.406e-008      -1.3227e-009   
  2.15            1.334e-010      1.1511e-008     -2.713e-009    
  2.2             -1.3424e-009    5.55e-010       -1.8842e-009   
  2.25            -2.2477e-009    -1.1365e-008    -5.003e-010    
  2.3             -1.4712e-009    -2.1172e-008    1.2563e-009    
  2.35            -6.54e-011      -1.22e-008      2.869e-009     
  2.4             2.3017e-009     1.086e-008      1.0619e-009    
  2.45            1.8825e-009     1.2009e-008     -1.4976e-009   
  2.5             -1.3395e-009    9.685e-009      -1.8873e-009   
  2.55            -2.2474e-009    -1.1283e-008    -5.024e-010    
  2.6             -1.4713e-009    -2.0899e-008    1.2551e-009    
  2.65            -6.4e-011       -1.223e-008     2.8687e-009    
  2.7             2.3003e-009     1.0836e-008     1.0642e-009    
  2.75            1.8842e-009     1.2071e-008     -1.4901e-009   
  2.8             -1.3337e-009    9.709e-009      -1.8901e-009   
  2.85            -2.2486e-009    -1.1354e-008    -5.018e-010    
  2.9             -1.4734e-009    -2.0853e-008    1.2558e-009    
  2.95            -6.15e-011      -1.2338e-008    2.8652e-009    
  3               2.1016e-009     1.0291e-008     7.37e-011      
  3.05            2.2216e-009     1.0291e-008     2.107e-010     
  3.1             2.313e-009      1.0455e-008     3.912e-010     
  3.15            1.4259e-009     2.5533e-008     -1.3309e-009   
  3.2             8.93e-011       1.1245e-008     -2.7414e-009   
  3.25            -2.1663e-009    -9.508e-009     -2.058e-010    
  3.3             -2.2381e-009    -1.1233e-008    -4.137e-010    
  3.35            -2.2576e-009    -1.1662e-008    -6.49e-010     
  3.4             -1.54e-009      -1.8224e-008    2.1691e-009    
  3.45            1.9789e-009     -7.06e-009      1.4727e-009    
  3.5             2.0937e-009     1.0253e-008     4.64e-011      
  3.55            2.2056e-009     1.0283e-008     1.909e-010     
  3.6             2.3044e-009     1.0505e-008     3.772e-010     
  3.65            1.415e-009      2.5966e-008     -1.3363e-009   
  3.7             6.75e-011       1.1209e-008     -1.3057e-009   
  3.75            1.731e-010      1.2462e-008     -2.6646e-009   
  3.8             -1.2735e-009    7.45e-010       -1.9419e-009   
  3.85            -2.2558e-009    -1.162e-008     -6.314e-010    
  3.9             -1.53e-009      -1.8951e-008    2.201e-009     
  3.95            2.0006e-009     -6.777e-009     1.4544e-009    
  4               2.0856e-009     1.033e-008      2.8e-011       
  4.05            2.1962e-009     1.037e-008      1.739e-010     
  4.1             2.297e-009      1.0379e-008     3.629e-010     
  4.15            1.3943e-009     2.6143e-008     -1.3404e-009   
  4.2             5.08e-011       1.1326e-008     -1.3096e-009   
  4.25            1.567e-010      1.2044e-008     -2.6785e-009   
  4.3             -1.2864e-009    8.53e-010       -1.9282e-009   
  4.35            -2.2566e-009    -1.1559e-008    -6.04e-010     
  4.4             -2.2438e-009    -1.1523e-008    -8.373e-010    
  4.45            -1.6041e-009    -1.5397e-008    1.9403e-009    
  4.5             1.8101e-009     -8.921e-009     1.6168e-009    
  4.55            2.1795e-009     1.0275e-008     1.579e-010     
  4.6             2.2892e-009     1.0458e-008     3.385e-010     
  4.65            2.3528e-009     1.0888e-008     5.389e-010     
  4.7             1.526e-009      2.2874e-008     -1.3145e-009   
  4.75            1.4e-010        1.1847e-008     -2.6874e-009   
  4.8             -1.302e-009     7.04e-010       -1.9125e-009   
  4.85            -2.2521e-009    -1.1428e-008    -5.738e-010    
  4.9             -1.5005e-009    -2.0032e-008    1.249e-009     
  4.95            -7.94e-011      -1.3169e-008    2.8502e-009    
  5               2.131e-009      1.0302e-008     8.63e-011      
END_DB

BEGIN_DB
 ICCAP_VAR VG         1              
 ICCAP_VAR VS         0              
 ICCAP_VAR VB         0              

 #VD              ID              IB              IG             
  0               -1.8031e-007    -1.1136e-008    9.87e-010      
  0.05            1.1005e-005     -8.634e-009     -1.6051e-009   
  0.1             1.8212e-005     1.189e-008      -7.72e-011     
  0.15            2.2465e-005     -1.6957e-008    2.3946e-009    
  0.2             2.5518e-005     -9.883e-009     -2.0239e-009   
  0.25            2.7582e-005     1.0575e-008     1.611e-010     
  0.3             2.8824e-005     -2.0563e-008    1.9049e-009    
  0.35            3.0258e-005     -1.1677e-008    -9.252e-010    
  0.4             3.1589e-005     2.7512e-008     -1.3543e-009   
  0.45            3.2342e-005     1.0216e-008     3.647e-010     
  0.5             3.3039e-005     -2.201e-008     1.6045e-009    
  0.55            3.3846e-005     -1.1804e-008    6.59e-011      
  0.6             3.5161e-005     1.6275e-008     -2.1533e-009   
  0.65            3.5525e-005     9.554e-009      2.1868e-009    
  0.7             3.629e-005      -1.1015e-008    -2.04e-010     
  0.75            3.7374e-005     2.0495e-008     -1.7297e-009   
  0.8             3.798e-005      1.3152e-008     -1.692e-010    
  0.85            3.8292e-005     -1.5224e-008    2.5516e-009    
  0.9             3.9178e-005     -1.0991e-008    -4.451e-010    
  0.95            4.0126e-005     2.257e-008      -1.5271e-009   
  1               4.0308e-005     1.0881e-008     1.1025e-009    
  1.05            4.1023e-005     -2.4595e-008    1.2486e-009    
  1.1             4.1788e-005     -1.1091e-008    -7.014e-010    
  1.15            4.265e-005      2.5079e-008     -1.4129e-009   
  1.2             4.318e-005      1.065e-008      1.471e-010     
  1.25            4.3432e-005     -2.0578e-008    1.9271e-009    
  1.3             4.4268e-005     -1.1681e-008    -9.198e-010    
  1.35            4.5034e-005     2.7408e-008     -1.3556e-009   
  1.4             4.5458e-005     1.0221e-008     3.518e-010     
  1.45            4.5697e-005     -2.1995e-008    1.6197e-009    
  1.5             4.6642e-005     -1.1575e-008    -1.0961e-009   
  1.55            4.7305e-005     2.7694e-008     -1.3224e-009   
  1.6             4.7579e-005     1.0324e-008     5.7e-010       
  1.65            4.7866e-005     -2.4018e-008    1.4187e-009    
  1.7             4.8916e-005     -1.1509e-008    -1.2798e-009   
  1.75            4.945e-005      1.1438e-008     -2.5287e-009   
  1.8             4.985e-005      1.0117e-008     2.493e-010     
  1.85            5.0024e-005     -2.138e-008     1.7469e-009    
  1.9             5.0867e-005     -1.2137e-008    -1.0081e-009   
  1.95            5.1521e-005     2.761e-008      -1.337e-009    
  2               5.1801e-005     9.594e-009      4.625e-010     
  2.05            5.2011e-005     -2.3911e-008    1.4992e-009    
  2.1             5.3009e-005     -1.307e-008     -1.195e-009    
  2.15            5.3534e-005     9.377e-009      -2.6081e-009   
  2.2             5.4034e-005     1.5136e-008     -1.9722e-009   
  2.25            5.4496e-005     7.949e-009      -2.5664e-009   
  2.3             5.4961e-005     1.4145e-008     -1.8974e-009   
  2.35            5.5447e-005     6.039e-009      -2.5202e-009   
  2.4             5.5913e-005     1.2309e-008     -1.826e-009    
  2.45            5.6423e-005     3.318e-009      -2.4678e-009   
  2.5             5.6852e-005     9.179e-009      -1.7575e-009   
  2.55            5.6959e-005     -3.956e-009     2.3834e-009    
  2.6             5.7486e-005     -2.7551e-008    -5.261e-010    
  2.65            5.8093e-005     -2.0403e-008    -2.5022e-009   
  2.7             5.8088e-005     -1.3362e-008    1.9167e-009    
  2.75            5.8631e-005     -4.0591e-008    4.79e-011      
  2.8             5.9522e-005     -3.197e-008     -1.7675e-009   
  2.85            5.9719e-005     -3.1024e-008    2.3688e-009    
  2.9             6.0223e-005     -5.8774e-008    -5.027e-010    
  2.95            6.1004e-005     -3.2516e-008    -1.4835e-009   
  3               6.1079e-005     -5.775e-008     2.5776e-009    
  3.05            6.1714e-005     -8.7602e-008    -8.758e-010    
  3.1             6.2339e-005     -6.0469e-008    -1.3669e-009   
  3.15            6.2476e-005     -1.16524e-007   2.17e-011      
  3.2             6.3148e-005     -1.2885e-007    -9.986e-010    
  3.25            6.3767e-005     -1.0562e-007    -1.3401e-009   
  3.3             6.3838e-005     -1.4593e-007    2.8653e-009    
  3.35            6.4702e-005     -1.8768e-007    -1.2677e-009   
  3.4             6.5134e-005     -1.7462e-007    -1.8895e-009   
  3.45            6.5209e-005     -2.1805e-007    2.3115e-009    
  3.5             6.572e-005      -2.6973e-007    -4.074e-010    
  3.55            6.6581e-005     -2.6972e-007    -1.5393e-009   
  3.6             6.6716e-005     -3.2169e-007    2.5146e-009    
  3.65            6.7289e-005     -3.849e-007     -7.873e-010    
  3.7             6.8063e-005     -3.9179e-007    -1.3856e-009   
  3.75            6.8178e-005     -4.6319e-007    2.75e-009      
  3.8             6.8916e-005     -5.413e-007     -1.0679e-009   
  3.85            6.9585e-005     -5.6054e-007    -1.3265e-009   
  3.9             6.966e-005      -6.5142e-007    2.89e-009      
  3.95            7.0648e-005     -7.495e-007     -1.3503e-009   
  4               7.1082e-005     -7.9369e-007    -1.7704e-009   
  4.05            7.1258e-005     -8.9858e-007    2.3693e-009    
  4.1             7.1857e-005     -1.02115e-006   -5.106e-010    
  4.15            7.2825e-005     -1.09068e-006   -1.4823e-009   
  4.2             7.3103e-005     -1.2231e-006    4.521e-010     
  4.25            7.3311e-005     -1.3858e-006    1.4949e-009    
  4.3             7.4222e-005     -1.5097e-006    -2.5629e-009   
  4.35            7.4727e-005     -1.6346e-006    8.13e-010      
  4.4             7.5165e-005     -1.8407e-006    1.3099e-009    
  4.45            7.6164e-005     -1.992e-006     -2.7534e-009   
  4.5             7.6476e-005     -2.1509e-006    1.0978e-009    
  4.55            7.7231e-005     -2.3979e-006    1.2504e-009    
  4.6             7.8192e-005     -2.589e-006     -2.7828e-009   
  4.65            7.8319e-005     -2.7868e-006    1.3805e-009    
  4.7             7.9317e-005     -3.0732e-006    1.7672e-009    
  4.75            8.0331e-005     -3.3203e-006    -2.3532e-009   
  4.8             8.1134e-005     -3.5649e-006    5.625e-010     
  4.85            8.1561e-005     -3.9025e-006    1.4211e-009    
  4.9             8.2748e-005     -4.1967e-006    -2.6361e-009   
  4.95            8.3401e-005     -4.4895e-006    9.03e-010      
  5               8.408e-005      -4.9041e-006    1.2903e-009    
END_DB

BEGIN_DB
 ICCAP_VAR VG         2              
 ICCAP_VAR VS         0              
 ICCAP_VAR VB         0              

 #VD              ID              IB              IG             
  0               -5.1762e-007    -8.513e-009     2.8357e-009    
  0.05            5.5861e-005     1.1049e-008     -2.402e-009    
  0.1             0.000109402     1.0397e-008     6.089e-010     
  0.15            0.00016064      -1.322e-008     4.02e-011      
  0.2             0.00020939      1.8015e-008     -1.9462e-009   
  0.25            0.00025473      1.3707e-008     -1.992e-010    
  0.3             0.00029681      -1.6532e-008    2.4406e-009    
  0.35            0.00033587      -9.349e-009     -2.0941e-009   
  0.4             0.00037129      1.0249e-008     3.699e-010     
  0.45            0.00040303      -2.3221e-008    1.458e-009     
  0.5             0.00043171      -1.1576e-008    -1.3479e-009   
  0.55            0.0004559       1.9678e-008     -1.6277e-009   
  0.6             0.00047658      1.0904e-008     1.1049e-009    
  0.65            0.00049416      -2.2126e-008    2.0415e-009    
  0.7             0.00050904      -1.2588e-008    1.885e-010     
  0.75            0.00052269      1.5655e-008     -2.2085e-009   
  0.8             0.00053242      1.0467e-008     6.718e-010     
  0.85            0.000541        -2.603e-008     1.3059e-009    
  0.9             0.00054889      -1.0945e-008    -4.623e-010    
  0.95            0.00055577      2.4558e-008     -1.4291e-009   
  1               0.00056087      1.0364e-008     2.161e-010     
  1.05            0.0005652       -2.1882e-008    1.6265e-009    
  1.1             0.00057037      -1.1561e-008    -2.04e-011     
  1.15            0.00057534      1.9694e-008     -1.8186e-009   
  1.2             0.00057873      1.2372e-008     -1.128e-010    
  1.25            0.00058139      -1.8003e-008    2.2956e-009    
  1.3             0.00058519      -1.1287e-008    -8.156e-010    
  1.35            0.00058859      2.7761e-008     -1.3524e-009   
  1.4             0.00059101      1.034e-008      4.962e-010     
  1.45            0.00059284      -2.4876e-008    1.3723e-009    
  1.5             0.00059541      -1.0989e-008    -2.875e-010    
  1.55            0.00059851      2.2716e-008     -1.5223e-009   
  1.6             0.00060007      1.0904e-008     1.221e-009     
  1.65            0.00060273      -1.93e-008      1.8407e-009    
  1.7             0.00060479      -1.2052e-008    8.8e-011       
  1.75            0.00060771      1.7464e-008     -2.0296e-009   
  1.8             0.00060909      1.0853e-008     8.174e-010     
  1.85            0.00061073      -2.6478e-008    1.2774e-009    
  1.9             0.00061315      -1.1075e-008    -6.123e-010    
  1.95            0.00061554      2.6105e-008     -1.3857e-009   
  2               0.00061698      1.0084e-008     3.411e-010     
  2.05            0.00061794      -2.3231e-008    1.4803e-009    
  2.1             0.00062078      -1.1921e-008    -1.3237e-009   
  2.15            0.00062242      1.3132e-008     -2.3396e-009   
  2.2             0.00062305      8.611e-009      2.1743e-009    
  2.25            0.00062453      -1.2489e-008    -3.179e-010    
  2.3             0.00062709      2.0787e-008     -1.5003e-009   
  2.35            0.00062745      7.561e-009      1.2434e-009    
  2.4             0.00062907      -2.3246e-008    1.8035e-009    
  2.45            0.00063177      -1.7951e-008    -1.0925e-009   
  2.5             0.0006331       2.537e-009      -2.6003e-009   
  2.55            0.00063356      -1.104e-009     1.9463e-009    
  2.6             0.00063515      -2.711e-008     -5.17e-011     
  2.65            0.00063769      -2.6e-008       -2.7081e-009   
  2.7             0.00063818      -1.5346e-008    1.7417e-009    
  2.75            0.00063979      -4.5965e-008    8.19e-011      
  2.8             0.00064248      -2.5425e-008    -2.0292e-009   
  2.85            0.00064275      -4.466e-008     2.3307e-009    
  2.9             0.00064376      -7.7922e-008    -5.902e-010    
  2.95            0.00064586      -5.6876e-008    -1.3926e-009   
  3               0.0006464       -1.12802e-007   2.8935e-009    
  3.05            0.00064696      -1.4914e-007    9.83e-011      
  3.1             0.00064765      -1.6917e-007    1.8339e-009    
  3.15            0.00064928      -1.8711e-007    -2.4333e-009   
  3.2             0.00065061      -2.0246e-007    8.003e-010     
  3.25            0.00065064      -2.7896e-007    1.2807e-009    
  3.3             0.00065244      -3.0448e-007    -2.7836e-009   
  3.35            0.00065283      -3.4127e-007    1.4449e-009    
  3.4             0.00065423      -4.2762e-007    1.5312e-009    
  3.45            0.00065591      -4.8881e-007    -2.6333e-009   
  3.5             0.00065659      -5.503e-007     1.0226e-009    
  3.55            0.00065767      -6.7478e-007    2.2025e-009    
  3.6             0.00065932      -7.6138e-007    -2.2229e-009   
  3.65            0.00066055      -8.5738e-007    5.351e-010     
  3.7             0.00066111      -1.02059e-006   1.3548e-009    
  3.75            0.00066272      -1.1326e-006    2.5385e-009    
  3.8             0.00066483      -1.3193e-006    -9.421e-010    
  3.85            0.00066642      -1.463e-006     -1.3286e-009   
  3.9             0.00066693      -1.6912e-006    2.8997e-009    
  3.95            0.00066906      -1.9366e-006    -1.5758e-009   
  4               0.00066997      -2.1642e-006    -1.453e-009    
  4.05            0.0006707       -2.463e-006     2.724e-009     
  4.1             0.00067294      -2.7942e-006    -1.142e-009    
  4.15            0.00067434      -3.1092e-006    -1.9088e-009   
