! VERSION = 6.00
BEGIN_HEADER
 ICCAP_INPUTS
  VG         V  B GROUND SMU4 0.001 LIN        1    0          5          101  0.05      
  VS         V  E GROUND SMU2 0.1 CON        0
  VB         V  C GROUND SMU3 0.1 LIN        3    0          -5         3    -2.5      
  VD         V  S GROUND SMU1 0.1 LIN        2    0.1        5          2    4.9       
 ICCAP_OUTPUTS
  IG         I  B GROUND SMU4 B
  ID         I  S GROUND SMU1 B
  IB         I  C GROUND SMU3 B
END_HEADER

BEGIN_DB
 ICCAP_VAR VS         0              
 ICCAP_VAR VB         0              
 ICCAP_VAR VD         0.1            

 #VG              IG              ID              IB             
  0               1.01493e-007    1.6448e-009     5.138e-009     
  0.05            2.6297e-005     1.6803e-009     -8.461e-009    
  0.1             5.2577e-005     9.75e-010       2.3755e-008    
  0.15            7.8803e-005     1.9754e-009     -7.305e-009    
  0.2             0.000105032     -1.8064e-009    -9.876e-009    
  0.25            0.00013132      1.8266e-009     1.1205e-008    
  0.3             0.00015753      -3.588e-010     -1.8529e-008   
  0.35            0.00018371      -1.2959e-009    8.46e-010      
  0.4             0.00020998      1.0827e-009     2.673e-008     
  0.45            0.0002361       1.5661e-009     -8.366e-009    
  0.5             0.00026226      -9.734e-010     -2.1646e-008   
  0.55            0.00028845      -1.7842e-009    5.347e-009     
  0.6             0.0003146       7.717e-010      1.9379e-008    
  0.65            0.00034073      2.1568e-009     -5.872e-009    
  0.7             0.00036687      -1.7924e-009    -1.0288e-008   
  0.75            0.00039294      3.924e-010      1.7417e-008    
  0.8             0.00041906      1.6048e-009     1.9916e-008    
  0.85            0.0004451       -6.42e-011      -1.3511e-008   
  0.9             0.00047113      -2.2511e-009    -1.0346e-008   
  0.95            0.00049721      1.4628e-009     2.6543e-008    
  1               0.0005232       8.95e-011       -9.503e-009    
  1.05            0.00054918      -2.2715e-009    -1.1968e-008   
  1.1             0.00057549      1.3025e-009     2.9086e-008    
  1.15            0.00060146      2.3439e-009     -8.083e-009    
  1.2             0.00062735      -1.6424e-009    -1.6157e-008   
  1.25            0.00065318      1.029e-010      1.3843e-008    
  1.3             0.00067905      1.3743e-009     2.8815e-008    
  1.35            0.00070487      2.3137e-009     -8.365e-009    
  1.4             0.00073061      -1.6859e-009    -1.392e-008    
  1.45            0.00075639      1.805e-010      1.4832e-008    
  1.5             0.00078208      1.4431e-009     2.7516e-008    
  1.55            0.00080768      1.112e-010      -9.197e-009    
  1.6             0.0008333       -2.277e-009     -1.2159e-008   
  1.65            0.00085888      1.274e-009      2.9196e-008    
  1.7             0.00088438      2.348e-009      -7.93e-009     
  1.75            0.00090985      -1.6317e-009    -1.6949e-008   
  1.8             0.00093524      8.34e-011       1.3766e-008    
  1.85            0.00096058      1.3525e-009     2.8916e-008    
  1.9             0.00098596      2.3231e-009     -8.32e-009     
  1.95            0.00099996      -1.9741e-009    1.022e-008     
  2               0.00099997      1.8753e-009     -1.1597e-008   
  2.05            0.00099996      -2.2394e-009    -8.06e-009     
  2.1             0.00099997      1.5085e-009     -2.5412e-008   
  2.15            0.00099995      -1.2893e-009    2.7535e-008    
  2.2             0.00099997      -1.3819e-009    -8.634e-009    
  2.25            0.00099997      1.3204e-009     -2.6845e-008   
  2.3             0.00099996      2.3585e-009     7.905e-009     
  2.35            0.00099995      -1.5424e-009    2.858e-008     
  2.4             0.00099996      1.35e-009       -1.1629e-008   
  2.45            0.00099996      -2.2387e-009    9.596e-009     
  2.5             0.00099995      1.5027e-009     -2.5399e-008   
  2.55            0.00099998      -1.3322e-009    1.1028e-008    
  2.6             0.00099997      2.3585e-009     -1.016e-008    
  2.65            0.00099996      -1.543e-009     2.8451e-008    
  2.7             0.00099996      1.3407e-009     -1.1556e-008   
  2.75            0.00099997      -2.2371e-009    9.568e-009     
  2.8             0.00099995      1.5092e-009     -2.5352e-008   
  2.85            0.00099995      -1.3286e-009    1.0938e-008    
  2.9             0.00099995      2.3585e-009     -1.0163e-008   
  2.95            0.00099996      -1.5495e-009    2.831e-008     
  3               0.00099997      1.3377e-009     -1.1504e-008   
  3.05            0.00099995      -2.2378e-009    9.549e-009     
  3.1             0.00099995      1.5109e-009     -2.524e-008    
  3.15            0.00099995      -1.3232e-009    1.0854e-008    
  3.2             0.00099996      2.3569e-009     -1.0142e-008   
  3.25            0.00099996      -1.5516e-009    2.8196e-008    
  3.3             0.00099998      1.3319e-009     -1.1504e-008   
  3.35            0.00099996      -2.2382e-009    9.491e-009     
  3.4             0.00099998      1.5109e-009     -2.5246e-008   
  3.45            0.00099995      -1.317e-009     1.0867e-008    
  3.5             0.00099996      2.3558e-009     -1.0101e-008   
  3.55            0.00099997      -1.5556e-009    2.8125e-008    
  3.6             0.00099995      2.3663e-009     -1.139e-008    
  3.65            0.00099997      -2.2369e-009    9.473e-009     
  3.7             0.00099996      1.5125e-009     -2.5132e-008   
  3.75            0.00099996      -1.3173e-009    1.0857e-008    
  3.8             0.00099996      2.3572e-009     -1.0133e-008   
  3.85            0.00099996      -1.557e-009     2.8158e-008    
  3.9             0.00099996      2.3698e-009     -1.1325e-008   
  3.95            0.00099998      -2.2335e-009    9.515e-009     
  4               0.00099996      1.5173e-009     -2.4982e-008   
  4.05            0.00099997      -1.3138e-009    1.0786e-008    
  4.1             0.00099996      2.3557e-009     -1.0044e-008   
  4.15            0.00099995      -1.5618e-009    2.8203e-008    
  4.2             0.00099997      2.3681e-009     -1.1263e-008   
  4.25            0.00099997      -2.2319e-009    9.528e-009     
  4.3             0.00099996      1.5199e-009     -2.4986e-008   
  4.35            0.00099996      -1.3111e-009    1.077e-008     
  4.4             0.00099997      2.3531e-009     -1.0107e-008   
  4.45            0.00099994      -1.5642e-009    2.8111e-008    
  4.5             0.00099993      2.3686e-009     -1.1378e-008   
  4.55            0.00099997      -2.2277e-009    9.463e-009     
  4.6             0.00099995      1.5245e-009     -2.4859e-008   
  4.65            0.00099996      -1.3075e-009    1.0689e-008    
  4.7             0.00099994      2.3538e-009     -1.0076e-008   
  4.75            0.00099997      -1.5644e-009    2.7955e-008    
  4.8             0.00099997      2.3639e-009     -1.1187e-008   
  4.85            0.00099995      -2.2305e-009    9.531e-009     
  4.9             0.00099996      1.5293e-009     -2.4717e-008   
  4.95            0.00099996      -1.3066e-009    1.0701e-008    
  5               0.00099997      2.3527e-009     -1.0031e-008   
END_DB

BEGIN_DB
 ICCAP_VAR VS         0              
 ICCAP_VAR VB         0              
 ICCAP_VAR VD         5              

 #VG              IG              ID              IB             
  0               1.03688e-007    -6.847e-010     -2.4337e-008   
  0.05            2.6332e-005     1.6063e-009     1.9522e-008    
  0.1             5.2568e-005     2.078e-010      1.529e-008     
  0.15            7.8787e-005     1.656e-009      -1.67e-010     
  0.2             0.000105028     -8.433e-010     -1.9227e-008   
  0.25            0.00013132      7.288e-010      1.9242e-008    
  0.3             0.00015759      2.2061e-009     -4.932e-009    
  0.35            0.00018372      -1.7576e-009    -1.1096e-008   
  0.4             0.00020995      3.351e-010      1.6908e-008    
  0.45            0.00023613      1.5583e-009     2.2403e-008    
  0.5             0.00026231      -1.8e-012       -1.1831e-008   
  0.55            0.00028846      -2.2553e-009    -1.0841e-008   
  0.6             0.00031464      1.4105e-009     2.7966e-008    
  0.65            0.00034077      2.2899e-009     -8.815e-009    
  0.7             0.00036688      -1.705e-009     -1.2865e-008   
  0.75            0.00039294      2.172e-010      1.5457e-008    
  0.8             0.00041904      1.4707e-009     2.6468e-008    
  0.85            0.00044514      8.22e-011       -9.592e-009    
  0.9             0.00047115      -1.8956e-009    -9.931e-009    
  0.95            0.00049718      5.318e-010      1.8102e-008    
  1               0.00052323      2.3552e-009     9.308e-009     
  1.05            0.00054916      -1.2884e-009    -2.6767e-008   
  1.1             0.00057555      -2.2358e-009    8.778e-009     
  1.15            0.00060149      1.5638e-009     2.1327e-008    
  1.2             0.00062737      -1.97e-011      -1.2362e-008   
  1.25            0.00065326      -2.2546e-009    -1.0655e-008   
  1.3             0.00067909      1.4203e-009     2.7746e-008    
  1.35            0.00070494      1.345e-010      -9.004e-009    
  1.4             0.00073066      -1.8503e-009    -9.869e-009    
  1.45            0.00075637      4.735e-010      1.7857e-008    
  1.5             0.00078207      2.2296e-009     9.406e-009     
  1.55            0.00080771      -1.7357e-009    -1.1858e-008   
  1.6             0.00083332      2.879e-010      1.623e-008     
  1.65            0.00085887      1.5223e-009     2.4009e-008    
  1.7             0.00088437      3.07e-011       -1.0874e-008   
  1.75            0.00090986      -1.3042e-009    -2.6773e-008   
  1.8             0.00093532      -2.2336e-009    8.799e-009     
  1.85            0.0009606       1.5749e-009     2.0734e-008    
  1.9             0.00098597      -3.4e-011       -1.278e-008    
  1.95            0.00099997      -1.7674e-009    -6.536e-009    
  2               0.00099996      1.6231e-009     -1.3228e-008   
  2.05            0.00099997      -1.2487e-009    1.0208e-008    
  2.1             0.00099994      1.3357e-009     -2.6877e-008   
  2.15            0.00099996      2.3556e-009     8.078e-009     
  2.2             0.00099995      -2.1706e-009    9.17e-009      
  2.25            0.00099997      2.1803e-009     -1.251e-008    
  2.3             0.00099996      -1.5516e-009    -8.357e-009    
  2.35            0.00099997      2.3061e-009     8.906e-009     
  2.4             0.00099995      -1.6435e-009    2.4145e-008    
  2.45            0.00099997      2.3549e-009     -1.0315e-008   
  2.5             0.00099996      -1.5419e-009    2.8486e-008    
  2.55            0.00099996      2.368e-009      -9.932e-009    
  2.6             0.00099995      -2.2345e-009    9.753e-009     
  2.65            0.00099997      2.312e-009      -9.749e-009    
  2.7             0.00099996      -1.7883e-009    -6.28e-009     
  2.75            0.00099996      1.6514e-009     -1.3193e-008   
  2.8             0.00099996      -1.3395e-009    2.8231e-008    
  2.85            0.00099996      -1.3342e-009    -8.41e-009     
  2.9             0.00099998      2.3577e-009     -1.0349e-008   
  2.95            0.00099995      -1.536e-009     2.8764e-008    
  3               0.00099996      2.3634e-009     -9.963e-009    
  3.05            0.00099995      -2.2379e-009    9.758e-009     
  3.1             0.00099998      1.4877e-009     -2.5745e-008   
  3.15            0.00099995      -1.2679e-009    2.7293e-008    
  3.2             0.00099994      1.3548e-009     -2.6723e-008   
  3.25            0.00099996      2.3493e-009     8.246e-009     
  3.3             0.00099995      -1.5608e-009    2.7911e-008    
  3.35            0.00099995      2.3649e-009     -1.1306e-008   
  3.4             0.00099996      -2.2335e-009    9.545e-009     
  3.45            0.00099998      1.5184e-009     -2.5148e-008   
  3.5             0.00099996      -1.2983e-009    2.7806e-008    
  3.55            0.00099997      -1.3769e-009    -8.556e-009    
  3.6             0.00099997      2.3594e-009     -1.0653e-008   
  3.65            0.00099997      -1.5085e-009    2.8858e-008    
  3.7             0.00099995      1.1829e-009     -1.0388e-008   
  3.75            0.00099996      -1.3739e-009    2.8924e-008    
  3.8             0.00099997      -2.2389e-009    -8.102e-009    
  3.85            0.00099996      1.4919e-009     -2.5538e-008   
  3.9             0.00099997      -1.3425e-009    1.1266e-008    
  3.95            0.00099997      2.3589e-009     -1.0356e-008   
  4               0.00099996      -1.5312e-009    2.8709e-008    
  4.05            0.00099995      2.3678e-009     -9.979e-009    
  4.1             0.00099995      -2.2386e-009    9.769e-009     
  4.15            0.00099998      1.4778e-009     -2.5711e-008   
  4.2             0.00099997      -1.3537e-009    1.138e-008     
  4.25            0.00099996      2.364e-009      -1.048e-008    
  4.3             0.00099995      -1.5183e-009    2.8786e-008    
  4.35            0.00099995      2.3665e-009     -1.0213e-008   
  4.4             0.00099995      -2.2429e-009    9.863e-009     
  4.45            0.00099995      2.3271e-009     -9.765e-009    
  4.5             0.00099996      -1.8378e-009    -6.049e-009    
  4.55            0.00099996      1.7145e-009     -1.317e-008    
  4.6             0.00099997      -2.2534e-009    9.618e-009     
  4.65            0.00099995      2.3531e-009     -1.0111e-008   
  4.7             0.00099996      -1.5602e-009    2.8011e-008    
  4.75            0.00099996      2.3648e-009     -9.929e-009    
  4.8             0.00099995      -2.2348e-009    9.597e-009     
  4.85            0.00099996      1.5121e-009     -2.519e-008    
  4.9             0.00099996      -1.2929e-009    9.648e-009     
  4.95            0.00099999      1.3757e-009     -2.6747e-008   
  5               0.00099995      -1.498e-009     1.2393e-008    
END_DB

BEGIN_DB
 ICCAP_VAR VS         0              
 ICCAP_VAR VB         -2.5           
 ICCAP_VAR VD         0.1            

 #VG              IG              ID              IB             
  0               1.08321e-007    8.977e-010      2.0131e-008    
  0.05            2.6176e-005     1.5607e-009     -8.528e-009    
  0.1             5.2335e-005     1.0367e-009     2.561e-008     
  0.15            7.8426e-005     1.8757e-009     -8.33e-009     
  0.2             0.000104544     -1.8627e-009    -1.005e-008    
  0.25            0.0001307       1.8776e-009     1.0363e-008    
  0.3             0.00015681      -4.205e-010     -1.8697e-008   
  0.35            0.00018283      -1.2719e-009    1.366e-009     
  0.4             0.00020895      1.1241e-009     2.6962e-008    
  0.45            0.00023497      1.5034e-009     -8.249e-009    
  0.5             0.00026105      -1.0128e-009    -2.293e-008    
  0.55            0.00028708      -1.7219e-009    5.272e-009     
  0.6             0.00031317      8.071e-010      2.0403e-008    
  0.65            0.00033917      2.0955e-009     -6.245e-009    
  0.7             0.00036516      -1.8192e-009    -1.0223e-008   
  0.75            0.00039115      4.27e-010       1.7639e-008    
  0.8             0.0004171       2.2584e-009     9.142e-009     
  0.85            0.00044307      -1.7136e-009    -1.3188e-008   
  0.9             0.00046897      2.35e-010       1.5315e-008    
  0.95            0.00049491      1.4795e-009     2.609e-008     
  1               0.00052083      6.94e-011       -9.7e-009      
  1.05            0.00054668      -1.9015e-009    -1.0042e-008   
  1.1             0.0005729       5.384e-010      1.8231e-008    
  1.15            0.00059879      2.3245e-009     1.2548e-008    
  1.2             0.00062452      -1.093e-009     -2.4778e-008   
  1.25            0.00065034      -1.5711e-009    7.003e-009     
  1.3             0.00067608      8.905e-010      2.1863e-008    
  1.35            0.00070178      1.9738e-009     -7.263e-009    
  1.4             0.00072748      -7.871e-010     -1.9327e-008   
  1.45            0.00075308      -2.0698e-009    3.673e-009     
  1.5             0.00077863      1.8274e-009     1.1827e-008    
  1.55            0.00080415      -3.432e-010     -1.8066e-008   
  1.6             0.00082965      -2.2299e-009    -1.2489e-008   
  1.65            0.00085514      -1.5569e-009    6.998e-009     
  1.7             0.00088053      9.045e-010      2.2173e-008    
  1.75            0.00090587      1.9447e-009     -7.815e-009    
  1.8             0.00093123      -1.9133e-009    -1.0257e-008   
  1.85            0.00095643      5.436e-010      1.8363e-008    
  1.9             0.00098168      2.3281e-009     1.2586e-008    
  1.95            0.00099995      2.347e-009      8.391e-009     
  2               0.00099996      -1.5519e-009    2.8113e-008    
  2.05            0.00099996      1.3559e-009     -1.1701e-008   
  2.1             0.00099996      -2.2306e-009    9.882e-009     
  2.15            0.00099996      1.4947e-009     -2.5317e-008   
  2.2             0.00099997      -1.2692e-009    1.0185e-008    
  2.25            0.00099996      1.3513e-009     -2.6335e-008   
  2.3             0.00099996      2.3456e-009     8.462e-009     
  2.35            0.00099996      -1.9498e-009    -4.683e-009    
  2.4             0.00099997      1.8791e-009     -1.0279e-008   
  2.45            0.00099995      -2.2306e-009    -8.188e-009    
  2.5             0.00099996      1.5042e-009     -2.5183e-008   
  2.55            0.00099996      -1.3483e-009    1.0936e-008    
  2.6             0.00099996      1.3588e-009     -2.6437e-008   
  2.65            0.00099995      2.3437e-009     8.472e-009     
  2.7             0.00099996      -1.9436e-009    -4.747e-009    
  2.75            0.00099996      1.8688e-009     -1.1471e-008   
  2.8             0.00099995      -2.2288e-009    -8.08e-009     
  2.85            0.00099995      1.5095e-009     -2.522e-008    
  2.9             0.00099995      -1.3418e-009    1.0843e-008    
  2.95            0.00099993      1.3695e-009     -2.639e-008    
  3               0.00099995      -1.5291e-009    1.2162e-008    
  3.05            0.00099995      1.3795e-009     -1.1857e-008   
  3.1             0.00099996      -2.2356e-009    9.964e-009     
  3.15            0.00099996      1.4844e-009     -2.5587e-008   
  3.2             0.00099997      -1.2546e-009    1.0302e-008    
  3.25            0.00099997      1.337e-009      -2.6309e-008   
  3.3             0.00099995      2.3492e-009     8.22e-009      
  3.35            0.00099995      -1.5424e-009    2.8197e-008    
  3.4             0.00099996      1.3737e-009     -1.1488e-008   
  3.45            0.00099997      -2.237e-009     9.609e-009     
  3.5             0.00099994      1.4839e-009     -2.5605e-008   
  3.55            0.00099996      -1.37e-009      1.1229e-008    
  3.6             0.00099995      1.3411e-009     -2.6435e-008   
  3.65            0.00099997      2.3474e-009     8.305e-009     
  3.7             0.00099997      -1.546e-009     2.8307e-008    
  3.75            0.00099996      1.3622e-009     -1.1525e-008   
  3.8             0.00099995      -2.235e-009     9.617e-009     
  3.85            0.00099995      1.4889e-009     -2.5494e-008   
  3.9             0.00099995      -1.3655e-009    1.1118e-008    
  3.95            0.00099996      1.3428e-009     -2.6356e-008   
  4               0.00099997      2.3475e-009     8.311e-009     
  4.05            0.00099996      -1.5479e-009    2.8379e-008    
  4.1             0.00099997      1.3614e-009     -1.1762e-008   
  4.15            0.00099997      -2.2341e-009    9.913e-009     
