! VERSION = 6.00
BEGIN_HEADER
 ICCAP_INPUTS
  VG         V  B GROUND SMU4 0.001 LIN        1    0          5          101  0.05      
  VS         V  E GROUND SMU2 0.1 CON        0
  VB         V  C GROUND SMU3 0.1 LIN        3    0          -5         3    -2.5      
  VD         V  S GROUND SMU1 0.1 LIN        2    0.1        5          2    4.9       
 ICCAP_OUTPUTS
  IG         I  B GROUND SMU4 B
  ID         I  S GROUND SMU1 B
  IB         I  C GROUND SMU3 B
END_HEADER

BEGIN_DB
 ICCAP_VAR VS         0              
 ICCAP_VAR VB         0              
 ICCAP_VAR VD         0.1            

 #VG              IG              ID              IB             
  0               1.0431e-009     1.0036e-009     1.8428e-008    
  0.05            1.8077e-009     1.5743e-009     -8.708e-009    
  0.1             3.816e-010      2.3013e-009     1.2642e-008    
  0.15            5.67e-010       2.3296e-009     1.2276e-008    
  0.2             -1.3825e-009    1.4983e-009     2.5283e-008    
  0.25            -2.7017e-009    9.8e-011        1.3684e-008    
  0.3             2.4365e-009     -1.4752e-009    -2.3153e-008   
  0.35            1.3355e-009     2.3028e-009     -5.058e-009    
  0.4             -1.3733e-009    1.7694e-009     2.8626e-008    
  0.45            -1.3748e-009    1.8462e-009     1.0492e-008    
  0.5             -2.7387e-009    7.1318e-009     1.2533e-008    
  0.55            2.6704e-009     2.3662e-008     1.1334e-008    
  0.6             2.6594e-009     6.9081e-008     7.333e-009     
  0.65            1.5865e-009     1.773e-007      5.129e-009     
  0.7             1.3111e-009     4.3867e-007     -8.446e-009    
  0.75            -1.885e-009     1.1098e-006     -9.134e-009    
  0.8             -8.255e-010     2.5931e-006     -1.3048e-008   
  0.85            1.6221e-009     5.5868e-006     -1.6543e-008   
  0.9             1.3127e-009     1.05224e-005    -8.536e-009    
  0.95            -1.4598e-009    1.778e-005      -7.757e-009    
  1               -1.3808e-009    2.6511e-005     8.647e-009     
  1.05            -2.6732e-009    3.6355e-005     1.2643e-008    
  1.1             -2.2862e-009    4.6721e-005     1.03e-009      
  1.15            -1.6497e-009    5.7146e-005     3.687e-009     
  1.2             -1.3793e-009    6.7268e-005     6.715e-009     
  1.25            -1.3744e-009    7.7072e-005     1.0103e-008    
  1.3             -2.5357e-009    8.6407e-005     1.4525e-008    
  1.35            -1.9509e-009    9.5215e-005     1.701e-009     
  1.4             -1.4477e-009    0.00010365      5.063e-009     
  1.45            -1.3809e-009    0.000111746     8.545e-009     
  1.5             -1.3745e-009    0.00011964      7.058e-009     
  1.55            -2.5361e-009    0.00012703      1.4694e-008    
  1.6             -1.9398e-009    0.00013404      1.674e-009     
  1.65            -1.4433e-009    0.00014086      5.027e-009     
  1.7             -1.38e-009      0.00014741      8.675e-009     
  1.75            -2.6673e-009    0.00015377      1.2685e-008    
  1.8             -2.2613e-009    0.00015981      1.244e-009     
  1.85            -1.6336e-009    0.00016575      3.725e-009     
  1.9             -1.3769e-009    0.00017148      7.129e-009     
  1.95            -1.3719e-009    0.00017708      1.0376e-008    
  2               -2.5184e-009    0.00018252      1.4775e-008    
  2.05            -1.9218e-009    0.00018769      1.625e-009     
  2.1             -1.4358e-009    0.00019276      5.067e-009     
  2.15            -1.3799e-009    0.00019773      8.814e-009     
  2.2             -2.658e-009     0.00020262      1.279e-008     
  2.25            -2.2355e-009    0.00020727      1.281e-009     
  2.3             -1.6122e-009    0.0002119       4.022e-009     
  2.35            -1.378e-009     0.0002164       7.18e-009      
  2.4             -2.7176e-009    0.00022078      1.0575e-008    
  2.45            2.1082e-009     0.000225        -2.4665e-008   
  2.5             1.4366e-009     0.00022917      -7.63e-009     
  2.55            2.8609e-009     0.00023326      -7.822e-009    
  2.6             2.1153e-009     0.00023727      1.0546e-008    
  2.65            9.572e-010      0.00024125      1.1662e-008    
  2.7             -2.84e-010      0.00024504      1.2564e-008    
  2.75            -1.4761e-009    0.00024901      2.1469e-008    
  2.8             -1.3787e-009    0.00025267      8.627e-009     
  2.85            -2.6767e-009    0.00025633      1.2403e-008    
  2.9             -2.2999e-009    0.0002598       1.212e-009     
  2.95            -1.6746e-009    0.0002633       3.372e-009     
  3               -1.388e-009     0.00026671      6.54e-009      
  3.05            -2.7292e-009    0.00027008      1.023e-008     
  3.1             2.1882e-009     0.0002733       -2.515e-008    
  3.15            1.4811e-009     0.00027648      -7.018e-009    
  3.2             2.8654e-009     0.00027966      -8.057e-009    
  3.25            2.0762e-009     0.00028275      1.066e-008     
  3.3             9.138e-010      0.00028585      1.2071e-008    
  3.35            -1.4519e-009    0.00028873      1.3669e-008    
  3.4             -1.381e-009     0.00029179      8.855e-009     
  3.45            -2.6545e-009    0.0002947       1.2615e-008    
  3.5             -2.2307e-009    0.00029749      1.299e-009     
  3.55            -1.6119e-009    0.0003003       3.885e-009     
  3.6             -1.381e-009     0.00030307      7.357e-009     
  3.65            -2.7175e-009    0.00030571      1.0833e-008    
  3.7             2.1039e-009     0.00030834      -2.4393e-008   
  3.75            1.4465e-009     0.0003109       -7.661e-009    
  3.8             2.8705e-009     0.00031345      -7.92e-009     
  3.85            2.1172e-009     0.00031594      1.0624e-008    
  3.9             9.549e-010      0.00031848      1.1756e-008    
  3.95            -2.848e-010     0.00032081      1.2578e-008    
  4               -1.471e-009     0.00032334      2.1271e-008    
  4.05            -1.3753e-009    0.00032565      8.659e-009     
  4.1             -2.6748e-009    0.00032794      1.2537e-008    
  4.15            -1.4413e-009    0.0003302       -9.336e-009    
  4.2             2.3982e-009     0.00033241      -2.6432e-008   
  4.25            1.6383e-009     0.0003346       -5.412e-009    
  4.3             1.3149e-009     0.00033673      -8.636e-009    
  4.35            2.8658e-009     0.00033884      -8.508e-009    
  4.4             -1.9453e-009    0.00034104      2.7399e-008    
  4.45            -1.4409e-009    0.00034305      5.429e-009     
  4.5             -1.3788e-009    0.000345        8.726e-009     
  4.55            -2.6602e-009    0.00034706      1.2725e-008    
  4.6             -2.2418e-009    0.00034894      1.197e-009     
  4.65            -1.6118e-009    0.00035089      4.035e-009     
  4.7             -1.3754e-009    0.0003527       7.174e-009     
  4.75            -2.7138e-009    0.00035459      1.0532e-008    
  4.8             2.1047e-009     0.0003564       -2.4592e-008   
  4.85            1.4327e-009     0.00035815      -7.456e-009    
  4.9             1.3148e-009     0.00035987      -7.801e-009    
  4.95            2.8267e-009     0.00036166      -1.0962e-008   
  5               -1.6845e-009    0.00036333      2.1564e-008    
END_DB

BEGIN_DB
 ICCAP_VAR VS         0              
 ICCAP_VAR VB         0              
 ICCAP_VAR VD         5              

 #VG              IG              ID              IB             
  0               -6.655e-010     -7.212e-010     -2.5944e-008   
  0.05            -1.7422e-009    1.7425e-009     1.4518e-008    
  0.1             -1.726e-009     -1.663e-009     5.879e-009     
  0.15            -2.506e-010     -2.2446e-009    -1.3064e-008   
  0.2             -4.675e-010     -2.256e-009     -1.3158e-008   
  0.25            -6.674e-010     -2.1837e-009    -1.2653e-008   
  0.3             1.3105e-009     -1.0289e-009    -1.1096e-008   
  0.35            2.8681e-009     2.3165e-009     -9.618e-009    
  0.4             1.9505e-009     6.8637e-009     9.172e-009     
  0.45            2.323e-009      2.1616e-008     2.422e-008     
  0.5             1.5835e-009     7.4405e-008     -1.1922e-008   
  0.55            2.2623e-009     2.3875e-007     -2.5855e-008   
  0.6             1.5277e-009     6.9368e-007     -5.9201e-008   
  0.65            2.8622e-009     1.9282e-006     -1.1803e-007   
  0.7             2.6403e-009     4.8841e-006     -3.4042e-007   
  0.75            1.3325e-009     1.0885e-005     -7.7658e-007   
  0.8             -1.6495e-009    2.1863e-005     -1.3595e-006   
  0.85            -1.3778e-009    3.8057e-005     -2.357e-006    
  0.9             -1.3712e-009    5.9982e-005     -3.5611e-006   
  0.95            -2.5213e-009    8.7185e-005     -4.9707e-006   
  1               -2.2416e-009    0.00011865      -6.5631e-006   
  1.05            -1.6254e-009    0.00015451      -8.2119e-006   
  1.1             -1.3795e-009    0.00019424      -9.9222e-006   
  1.15            1.9671e-009     0.00023533      -1.1652e-005   
  1.2             1.3813e-009     0.00027944      -1.3255e-005   
  1.25            2.8711e-009     0.00032534      -1.4854e-005   
  1.3             2.787e-009      0.00037369      -1.6408e-005   
  1.35            2.3048e-009     0.00042268      -1.7882e-005   
  1.4             1.578e-009      0.00047295      -1.928e-005    
  1.45            2.8503e-009     0.00052418      -2.0588e-005   
  1.5             2.853e-009      0.00057695      -2.1793e-005   
  1.55            2.6011e-009     0.00062988      -2.2907e-005   
  1.6             1.9114e-009     0.00068307      -2.3929e-005   
  1.65            1.3741e-009     0.00073716      -2.4871e-005   
  1.7             2.8697e-009     0.00079146      -2.5698e-005   
  1.75            2.7778e-009     0.00084706      -2.6443e-005   
  1.8             2.2816e-009     0.0009021       -2.7103e-005   
  1.85            1.5568e-009     0.0009575       -2.7686e-005   
  1.9             1.3123e-009     0.00101337      -2.8182e-005   
  1.95            2.8543e-009     0.00106891      -2.8592e-005   
  2               2.5771e-009     0.00112587      -2.8933e-005   
  2.05            -1.756e-009     0.0011841       -2.9221e-005   
  2.1             -1.3927e-009    0.0012405       -2.9406e-005   
  2.15            -1.3777e-009    0.0012973       -2.954e-005    
  2.2             -2.5857e-009    0.0013538       -2.9614e-005   
  2.25            -2.0553e-009    0.0014103       -2.9645e-005   
  2.3             -1.4945e-009    0.001467        -2.961e-005    
  2.35            -1.3784e-009    0.0015239       -2.9521e-005   
  2.4             -2.6847e-009    0.001581        -2.9393e-005   
  2.45            -2.3469e-009    0.001637        -2.9231e-005   
  2.5             -1.7187e-009    0.0016942       -2.9021e-005   
  2.55            -1.391e-009     0.0017507       -2.8767e-005   
  2.6             -1.3786e-009    0.001808        -2.8482e-005   
  2.65            -2.574e-009     0.0018647       -2.8163e-005   
  2.7             -2.0279e-009    0.0019212       -2.7831e-005   
  2.75            -1.4867e-009    0.0019786       -2.7462e-005   
  2.8             -1.3782e-009    0.0020357       -2.7066e-005   
  2.85            -2.6821e-009    0.0020923       -2.6648e-005   
  2.9             -2.3359e-009    0.0021479       -2.6225e-005   
  2.95            -1.7015e-009    0.0022046       -2.5777e-005   
  3               -1.3846e-009    0.0022611       -2.5314e-005   
  3.05            -2.7323e-009    0.0023177       -2.4835e-005   
  3.1             -2.5563e-009    0.0023731       -2.4365e-005   
  3.15            -2.0193e-009    0.0024295       -2.3867e-005   
  3.2             -1.4744e-009    0.0024858       -2.3363e-005   
  3.25            -1.379e-009     0.0025421       -2.285e-005    
  3.3             -2.6758e-009    0.0025978       -2.2342e-005   
  3.35            -2.3126e-009    0.002653        -2.1835e-005   
  3.4             -1.6836e-009    0.0027089       -2.1321e-005   
  3.45            -1.3848e-009    0.0027646       -2.0805e-005   
  3.5             -1.3739e-009    0.0028203       -2.0287e-005   
  3.55            -2.5559e-009    0.0028758       -1.9774e-005   
  3.6             -1.9949e-009    0.0029304       -1.9264e-005   
  3.65            -1.4752e-009    0.0029856       -1.8757e-005   
  3.7             -1.3805e-009    0.0030409       -1.8254e-005   
  3.75            -2.6739e-009    0.0030959       -1.7754e-005   
  3.8             -2.3008e-009    0.0031499       -1.7267e-005   
  3.85            -1.6718e-009    0.0032051       -1.678e-005    
  3.9             -1.3852e-009    0.0032598       -1.6298e-005   
  3.95            -1.3709e-009    0.0033145       -1.5826e-005   
  4               -2.5452e-009    0.0033688       -1.536e-005    
  4.05            -1.9793e-009    0.0034227       -1.4909e-005   
  4.1             -1.4643e-009    0.0034768       -1.446e-005    
  4.15            -1.3804e-009    0.003531        -1.4021e-005   
  4.2             -2.6711e-009    0.0035852       -1.3586e-005   
  4.25            -2.2836e-009    0.0036383       -1.3171e-005   
  4.3             -1.6627e-009    0.0036918       -1.2756e-005   
  4.35            -1.3825e-009    0.0037455       -1.235e-005    
  4.4             -2.7279e-009    0.0037999       -1.1945e-005   
  4.45            -2.5221e-009    0.0038524       -1.1566e-005   
  4.5             -1.9648e-009    0.0039058       -1.1193e-005   
  4.55            -1.4591e-009    0.0039589       -1.0821e-005   
  4.6             -1.3781e-009    0.0040117       -1.0459e-005   
  4.65            -2.6613e-009    0.0040648       -1.0108e-005   
  4.7             2.2526e-009     0.0041155       -9.8136e-006   
  4.75            1.5311e-009     0.0041677       -9.4769e-006   
  4.8             1.3207e-009     0.0042199       -9.1596e-006   
  4.85            2.8534e-009     0.0042717       -8.8455e-006   
  4.9             2.5394e-009     0.0043242       -8.5326e-006   
  4.95            1.8396e-009     0.004376        -8.2395e-006   
  5               1.3602e-009     0.0044275       -7.9566e-006   
END_DB

BEGIN_DB
 ICCAP_VAR VS         0              
 ICCAP_VAR VB         -2.5           
 ICCAP_VAR VD         0.1            

 #VG              IG              ID              IB             
  0               -1.0578e-009    -9.916e-010     -1.942e-008    
  0.05            -1.9398e-009    -1.343e-009     8.834e-009     
  0.1             -5.873e-010     -2.2747e-009    -1.285e-008    
  0.15            -7.843e-010     -2.2591e-009    -1.1757e-008   
  0.2             2.1414e-009     -1.6222e-009    -1.7342e-008   
  0.25            1.514e-009      1.9842e-009     -7.219e-009    
  0.3             -1.3819e-009    1.393e-009      2.8232e-008    
  0.35            -2.7319e-009    -2.05e-011      1.2523e-008    
  0.4             2.6097e-009     -1.4131e-009    -2.5535e-008   
  0.45            1.2149e-009     2.2643e-009     -3.168e-009    
  0.5             1.371e-009      2.1269e-009     9.523e-009     
  0.55            -1.381e-009     1.278e-009      2.8656e-008    
  0.6             -1.2767e-009    -2.1272e-009    1.1321e-008    
  0.65            2.516e-010      -1.9328e-009    -1.0673e-008   
  0.7             1.7364e-009     -9.189e-010     -2.1774e-008   
  0.75            1.7357e-009     1.809e-009      -8.864e-009    
  0.8             1.9018e-009     1.9878e-009     1.0442e-008    
  0.85            4.828e-010      4.7055e-009     1.2534e-008    
  0.9             2.7772e-009     1.0732e-008     -1.3222e-008   
  0.95            1.5061e-009     3.5305e-008     8.944e-009     
  1               -2.0581e-009    9.724e-008      2.8449e-008    
  1.05            9.622e-010      2.4718e-007     -1.9173e-008   
  1.1             -2.721e-010     6.5795e-007     1.2303e-008    
  1.15            -2.7353e-009    1.6523e-006     -2.6239e-008   
  1.2             2.2839e-009     3.8276e-006     -2.5883e-008   
  1.25            1.5459e-009     7.8295e-006     -6.218e-009    
  1.3             -1.7245e-009    1.4155e-005     -8.855e-009    
  1.35            -1.3926e-009    2.2276e-005     6.217e-009     
  1.4             -1.3755e-009    3.1839e-005     9.92e-009      
  1.45            -2.5656e-009    4.2094e-005     1.3893e-008    
  1.5             -2.0207e-009    5.2467e-005     1.687e-009     
  1.55            -1.4822e-009    6.2756e-005     4.962e-009     
  1.6             -1.3768e-009    7.2643e-005     8.624e-009     
  1.65            -2.6843e-009    8.2083e-005     1.2243e-008    
  1.7             1.8485e-009     9.0737e-005     -2.0596e-008   
  1.75            1.348e-009      9.9268e-005     -8.64e-009     
  1.8             2.8746e-009     0.000107284     -7.97e-009     
  1.85            1.3161e-009     0.00011509      9.057e-009     
  1.9             2.8633e-009     0.00012238      -8.759e-009    
  1.95            -1.9309e-009    0.00012957      2.6837e-008    
  2               -1.4365e-009    0.00013623      5.121e-009     
  2.05            -1.3794e-009    0.00014263      8.865e-009     
  2.1             -2.6503e-009    0.00014886      1.2617e-008    
  2.15            -2.2284e-009    0.0001547       1.319e-009     
  2.2             -1.6027e-009    0.00016045      4.058e-009     
  2.25            -1.3763e-009    0.00016598      7.36e-009      
  2.3             -2.7138e-009    0.00017135      1.066e-008     
  2.35            2.104e-009      0.00017644      -2.4489e-008   
  2.4             1.4302e-009     0.00018145      -7.537e-009    
  2.45            1.3167e-009     0.00018632      -7.717e-009    
  2.5             2.8267e-009     0.00019108      -1.0976e-008   
  2.55            -1.6842e-009    0.00019582      2.1535e-008    
  2.6             -1.3795e-009    0.00020034      6.598e-009     
  2.65            -1.3726e-009    0.00020475      1.0016e-008    
  2.7             -2.5513e-009    0.00020906      1.4248e-008    
  2.75            -1.9928e-009    0.00021321      1.572e-009     
  2.8             -1.4612e-009    0.00021732      4.972e-009     
  2.85            -1.3765e-009    0.00022128      8.535e-009     
  2.9             -2.6763e-009    0.00022519      1.2324e-008    
  2.95            1.8195e-009     0.00022887      -1.9896e-008   
  3               1.3391e-009     0.00023259      -8.71e-009     
  3.05            2.8687e-009     0.00023626      -8.073e-009    
  3.1             2.7472e-009     0.00023983      -4.01e-010     
  3.15            1.569e-009      0.00024323      1.0184e-008    
  3.2             -1.9668e-009    0.00024684      2.7672e-008    
  3.25            -1.4439e-009    0.00025014      5.083e-009     
  3.3             -1.3785e-009    0.00025343      8.665e-009     
  3.35            -2.6635e-009    0.00025667      1.2466e-008    
  3.4             -2.2653e-009    0.00025976      1.123e-009     
  3.45            -1.6355e-009    0.00026288      3.683e-009     
  3.5             -1.3736e-009    0.00026588      6.829e-009     
  3.55            -2.7159e-009    0.00026891      1.0273e-008    
  3.6             2.1689e-009     0.00027178      -2.5379e-008   
  3.65            1.4686e-009     0.00027459      -7.037e-009    
  3.7             2.8702e-009     0.00027742      -7.903e-009    
  3.75            2.0918e-009     0.00028019      1.0703e-008    
  3.8             9.327e-010      0.00028292      1.1558e-008    
  3.85            -1.4319e-009    0.00028555      1.3176e-008    
  3.9             -1.3746e-009    0.00028827      8.642e-009     
  3.95            -2.6553e-009    0.00029089      1.2697e-008    
  4               -2.2278e-009    0.00029334      1.184e-009     
  4.05            -1.5928e-009    0.00029584      3.985e-009     
  4.1             -1.3672e-009    0.00029827      7.023e-009     
  4.15            -2.7045e-009    0.0003007       1.0379e-008    
