! VERSION = 6.00
BEGIN_HEADER
 ICCAP_INPUTS
  VG         V  B GROUND SMU4 0.001 LIN        2    0          5          6    1         
  VS         V  E GROUND SMU2 0.1 CON        0
  VD         V  S GROUND SMU1 0.1 LIN        1    0          5          101  0.05      
  VB         V  C GROUND SMU3 0.1 LIN        3    0          -2.5       2    -2.5      
 ICCAP_OUTPUTS
  ID         I  S GROUND SMU1 B
  IB         I  C GROUND SMU3 B
  IG         I  B GROUND SMU4 B
END_HEADER

BEGIN_DB
 ICCAP_VAR VG         0              
 ICCAP_VAR VS         0              
 ICCAP_VAR VB         0              

 #VD              ID              IB              IG             
  0               -2.2679e-009    1.76e-010       -2.4869e-009   
  0.05            -2.1535e-009    1.527e-009      -1.1724e-009   
  0.1             -1.8094e-009    -1.2092e-008    2.751e-010     
  0.15            -1.9263e-009    -1.1494e-008    1.112e-010     
  0.2             -2.0609e-009    -1.078e-008     -5.9e-011      
  0.25            -2.1765e-009    -1.0802e-008    -2.671e-010    
  0.3             -2.2506e-009    -1.091e-008     -4.815e-010    
  0.35            -2.2887e-009    -1.1337e-008    -6.942e-010    
  0.4             -1.5794e-009    -1.8516e-008    1.2501e-009    
  0.45            -2.051e-010     -1.3419e-008    2.8457e-009    
  0.5             2.1729e-009     1.0105e-008     1.854e-010     
  0.55            2.2913e-009     1.0239e-008     3.786e-010     
  0.6             2.3726e-009     1.0605e-008     5.625e-010     
  0.65            1.5184e-009     2.2911e-008     -1.3196e-009   
  0.7             1.643e-010      1.1205e-008     -2.702e-009    
  0.75            -1.3477e-009    6.02e-010       -1.9336e-009   
  0.8             -2.2794e-009    -1.1153e-008    -6.19e-010     
  0.85            -1.5488e-009    -1.9918e-008    1.2635e-009    
  0.9             -1.378e-010     -1.2522e-008    2.874e-009     
  0.95            2.1307e-009     1.0115e-008     1.28e-010      
  1               2.2498e-009     1.022e-008      3.112e-010     
  1.05            2.3477e-009     1.047e-008      5.009e-010     
  1.1             1.467e-009      2.4236e-008     -1.3294e-009   
  1.15            1.185e-010      1.0983e-008     -1.2968e-009   
  1.2             2.676e-010      1.2797e-008     -2.6201e-009   
  1.25            -1.269e-009     7.48e-010       -1.9928e-009   
  1.3             -2.2888e-009    -1.1393e-008    -7.594e-010    
  1.35            -1.6087e-009    -1.7204e-008    1.2435e-009    
  1.4             -2.577e-010     -1.4469e-008    2.8055e-009    
  1.45            2.2125e-009     1.0229e-008     2.457e-010     
  1.5             2.3197e-009     1.031e-008      4.394e-010     
  1.55            1.4132e-009     2.5421e-008     -1.3418e-009   
  1.6             7.22e-011       1.1055e-008     -1.3056e-009   
  1.65            2.146e-010      1.1896e-008     -2.662e-009    
  1.7             -1.3076e-009    6.3e-010        -1.962e-009    
  1.75            -2.2836e-009    -1.1285e-008    -6.909e-010    
  1.8             -1.5785e-009    -1.8626e-008    1.2513e-009    
  1.85            -1.978e-010     -1.3361e-008    2.8438e-009    
  1.9             2.171e-009      1.0202e-008     1.868e-010     
  1.95            2.2886e-009     1.0172e-008     3.768e-010     
  2               2.3722e-009     1.0618e-008     5.652e-010     
  2.05            1.5159e-009     2.2904e-008     -1.3185e-009   
  2.1             1.656e-010      1.1154e-008     -2.6977e-009   
  2.15            -1.345e-009     6.49e-010       -1.9277e-009   
  2.2             -2.278e-009     -1.1256e-008    -6.25e-010     
  2.25            -2.2809e-009    -1.127e-008     -8.189e-010    
  2.3             -2.235e-009     -1.1064e-008    -9.84e-010     
  2.35            -1.7e-009       -1.345e-008     1.7319e-009    
  2.4             1.6303e-009     -9.511e-009     1.7686e-009    
  2.45            2.2893e-009     1.0241e-008     3.736e-010     
  2.5             2.3728e-009     1.0668e-008     5.675e-010     
  2.55            1.5227e-009     2.3156e-008     -1.3174e-009   
  2.6             1.619e-010      1.1285e-008     -2.6959e-009   
  2.65            -1.3474e-009    5.35e-010       -1.9301e-009   
  2.7             -2.2757e-009    -1.1258e-008    -6.192e-010    
  2.75            -1.5408e-009    -1.9883e-008    1.2608e-009    
  2.8             -1.337e-010     -1.2391e-008    2.8712e-009    
  2.85            2.1311e-009     1.0099e-008     1.234e-010     
  2.9             2.2524e-009     1.0216e-008     3.11e-010      
  2.95            2.3503e-009     1.054e-008      5.008e-010     
  3               1.4671e-009     2.4359e-008     -1.329e-009    
  3.05            1.216e-010      1.1007e-008     -1.298e-009    
  3.1             2.708e-010      1.2605e-008     -2.6205e-009   
  3.15            -1.2678e-009    5.84e-010       -1.9883e-009   
  3.2             -2.2787e-009    -1.1281e-008    -7.533e-010    
  3.25            -1.6024e-009    -1.7448e-008    1.2432e-009    
  3.3             -2.454e-010     -1.4294e-008    2.8011e-009    
  3.35            2.2178e-009     1.009e-008      2.384e-010     
  3.4             2.3232e-009     1.0387e-008     4.29e-010      
  3.45            1.4228e-009     2.545e-008      -1.3405e-009   
  3.5             7.69e-011       1.1064e-008     -1.3077e-009   
  3.55            2.219e-010      1.1929e-008     -2.6637e-009   
  3.6             -1.2988e-009    5.63e-010       -1.9574e-009   
  3.65            -2.2749e-009    -1.1307e-008    -6.793e-010    
  3.7             -1.5651e-009    -1.8755e-008    1.2525e-009    
  3.75            -1.785e-010     -1.3291e-008    2.8438e-009    
  3.8             2.1815e-009     1.0131e-008     1.769e-010     
  3.85            2.296e-009      1.0182e-008     3.663e-010     
  3.9             2.3829e-009     1.0718e-008     5.591e-010     
  3.95            1.5282e-009     2.3263e-008     -1.3206e-009   
  4               1.745e-010      1.1085e-008     -2.6993e-009   
  4.05            -1.3397e-009    5.1e-010        -1.9249e-009   
  4.1             -2.2572e-009    -1.12e-008      -6.044e-010    
  4.15            -2.259e-009     -1.137e-008     -8.093e-010    
  4.2             -2.2162e-009    -1.1221e-008    -9.701e-010    
  4.25            -1.6724e-009    -1.3634e-008    1.7514e-009    
  4.3             1.6839e-009     -9.413e-009     1.7562e-009    
  4.35            2.3043e-009     1.0158e-008     3.514e-010     
  4.4             2.3966e-009     1.0661e-008     5.467e-010     
  4.45            1.5358e-009     2.3319e-008     -1.3208e-009   
  4.5             1.889e-010      1.1203e-008     -2.7038e-009   
  4.55            -1.3282e-009    5.39e-010       -1.9217e-009   
  4.6             -2.236e-009     -1.12e-008      -5.964e-010    
  4.65            -2.2385e-009    -1.139e-008     -8.026e-010    
  4.7             -1.5803e-009    -1.6543e-008    2.0514e-009    
  4.75            1.9433e-009     -8.898e-009     1.5514e-009    
  4.8             2.2035e-009     1.0117e-008     1.621e-010     
  4.85            2.3238e-009     1.0235e-008     3.458e-010     
  4.9             2.4186e-009     1.0559e-008     5.397e-010     
  4.95            1.5562e-009     2.3506e-008     -1.3218e-009   
  5               2.167e-010      1.1212e-008     -2.7069e-009   
END_DB

BEGIN_DB
 ICCAP_VAR VG         1              
 ICCAP_VAR VS         0              
 ICCAP_VAR VB         0              

 #VD              ID              IB              IG             
  0               -1.7409e-007    -1.8031e-008    2.4817e-009    
  0.05            1.3819e-005     1.0574e-008     -2.7901e-009   
  0.1             2.4513e-005     1.0694e-008     1.3246e-009    
  0.15            3.274e-005      -1.9187e-008    1.8651e-009    
  0.2             3.9072e-005     -1.1278e-008    -9.708e-010    
  0.25            4.3871e-005     2.7768e-008     -1.3526e-009   
  0.3             4.7578e-005     1.0268e-008     4.665e-010     
  0.35            5.0442e-005     -2.2045e-008    1.5765e-009    
  0.4             5.3169e-005     -1.1843e-008    6.7e-012       
  0.45            5.6021e-005     1.6056e-008     -2.0989e-009   
  0.5             5.8023e-005     1.0276e-008     6.738e-010     
  0.55            5.9933e-005     -2.4456e-008    1.4003e-009    
  0.6             6.2418e-005     -1.1221e-008    -1.3663e-009   
  0.65            6.4297e-005     1.1789e-008     -2.479e-009    
  0.7             6.5943e-005     1.0178e-008     3.821e-010     
  0.75            6.7379e-005     -2.1474e-008    1.6796e-009    
  0.8             6.9421e-005     -1.1336e-008    -1.0858e-009   
  0.85            7.1192e-005     2.775e-008      -1.3316e-009   
  0.9             7.2642e-005     1.0193e-008     5.905e-010     
  0.95            7.3869e-005     -2.3729e-008    1.4569e-009    
  1               7.5917e-005     -1.1122e-008    -1.2843e-009   
  1.05            7.7452e-005     1.1366e-008     -2.5613e-009   
  1.1             7.8775e-005     1.0455e-008     2.99e-010      
  1.15            7.9808e-005     -2.0575e-008    1.7936e-009    
  1.2             8.1187e-005     -1.2499e-008    1.608e-010     
  1.25            8.3116e-005     1.3642e-008     -2.3332e-009   
  1.3             8.3987e-005     1.0168e-008     2.0818e-009    
  1.35            8.5333e-005     -1.1441e-008    -1.354e-010    
  1.4             8.7154e-005     1.819e-008      -1.8983e-009   
  1.45            8.8106e-005     1.062e-008      8.147e-010     
  1.5             8.9161e-005     -2.5752e-008    1.3307e-009    
  1.55            9.0525e-005     -1.0891e-008    -3.852e-010    
  1.6             9.2165e-005     2.1182e-008     -1.6363e-009   
  1.65            9.3242e-005     1.2118e-008     -9.59e-011     
  1.7             9.399e-005      -1.627e-008     2.4487e-009    
  1.75            9.552e-005      -1.113e-008     -6.221e-010    
  1.8             9.7016e-005     2.3597e-008     -1.4725e-009   
  1.85            9.8166e-005     1.6554e-008     -1.9804e-009   
  1.9             9.893e-005      9.679e-009      7.602e-010     
  1.95            9.9841e-005     -2.6571e-008    1.3539e-009    
  2               0.000101585     -1.3171e-008    -1.4509e-009   
  2.05            0.000102601     1.0316e-008     -2.3878e-009   
  2.1             0.00010369      1.724e-008      -1.6699e-009   
  2.15            0.000104836     9.169e-009      -2.3167e-009   
  2.2             0.000105865     1.5478e-008     -1.6085e-009   
  2.25            0.000106887     6.715e-009      -2.2431e-009   
  2.3             0.000107996     1.65e-009       -2.7058e-009   
  2.35            0.000108958     2.903e-009      -2.1609e-009   
  2.4             0.000109727     -1.9885e-008    -2.775e-009    
  2.45            0.000110145     -8.319e-009     1.478e-009     
  2.5             0.000111415     -4.056e-008     1.6403e-009    
  2.55            0.000112614     -3.9279e-008    -2.4491e-009   
  2.6             0.000113648     -2.6468e-008    7.177e-010     
  2.65            0.00011497      -6.9576e-008    -2.3153e-009   
  2.7             0.00011544      -4.3832e-008    2.1991e-009    
  2.75            0.00011651      -7.48e-008      -4.487e-010    
  2.8             0.0001179       -5.2407e-008    -1.4887e-009   
  2.85            0.00011845      -8.1597e-008    2.6832e-009    
  2.9             0.00011944      -1.2903e-007    2.7597e-009    
  2.95            0.00012058      -1.3497e-007    -1.9456e-009   
  3               0.00012168      -1.3323e-007    1.721e-010     
  3.05            0.00012193      -1.881e-007     1.7889e-009    
  3.1             0.00012322      -2.0255e-007    -2.459e-009    
  3.15            0.00012406      -2.129e-007     8.498e-010     
  3.2             0.00012467      -2.8357e-007    1.2873e-009    
  3.25            0.00012612      -3.0053e-007    -2.7913e-009   
  3.3             0.00012643      -3.2579e-007    1.4815e-009    
  3.35            0.00012769      -3.991e-007     3.073e-010     
  3.4             0.00012923      -4.2534e-007    -2.3788e-009   
  3.45            0.00012967      -4.8699e-007    2.1551e-009    
  3.5             0.00013062      -5.7501e-007    -3.856e-010    
  3.55            0.00013205      -6.1365e-007    -1.5208e-009   
  3.6             0.00013267      -7.1034e-007    2.6391e-009    
  3.65            0.00013398      -8.2164e-007    -1.077e-009    
  3.7             0.00013501      -8.8112e-007    -1.3117e-009   
  3.75            0.00013555      -1.01607e-006   2.9175e-009    
  3.8             0.0001362       -1.1324e-006    1.3011e-009    
  3.85            0.0001374       -1.2974e-006    1.701e-009     
  3.9             0.00013875      -1.4343e-006    -2.5119e-009   
  3.95            0.00013976      -1.5732e-006    9.081e-010     
  4               0.0001406       -1.7904e-006    1.2754e-009    
  4.05            0.00014203      -1.9613e-006    -2.7842e-009   
  4.1             0.00014262      -2.1492e-006    1.5482e-009    
  4.15            0.0001439       -2.4021e-006    2.57e-010      
  4.2             0.00014572      -2.6235e-006    -2.3046e-009   
  4.25            0.00014652      -2.8865e-006    2.2079e-009    
  4.3             0.00014776      -3.1996e-006    -4.585e-010    
  4.35            0.00014946      -3.4719e-006    -1.4831e-009   
  4.4             0.00015051      -3.8195e-006    2.6914e-009    
  4.45            0.00015205      -4.2065e-006    -1.1301e-009   
  4.5             0.00015345      -4.5368e-006    -1.3042e-009   
  4.55            0.00015454      -4.9799e-006    2.899e-009     
  4.6             0.00015639      -5.4471e-006    -1.7837e-009   
  4.65            0.00015776      -5.8885e-006    -7.27e-011     
  4.7             0.00015872      -6.4171e-006    2.2096e-009    
  4.75            0.00016067      -6.9578e-006    -2.2221e-009   
  4.8             0.00016237      -7.4897e-006    6.105e-010     
  4.85            0.00016355      -8.1478e-006    1.3687e-009    
  4.9             0.0001658       -8.7645e-006    -2.7491e-009   
  4.95            0.00016715      -9.4089e-006    1.2313e-009    
  5               0.00016904      -1.0165e-005    1.8262e-009    
END_DB

BEGIN_DB
 ICCAP_VAR VG         2              
 ICCAP_VAR VS         0              
 ICCAP_VAR VB         0              

 #VD              ID              IB              IG             
  0               -4.2938e-007    1.9876e-008     -1.2965e-009   
  0.05            4.9918e-005     4.99e-010       1.5382e-009    
  0.1             9.7925e-005     -1.1695e-008    -3.24e-011     
  0.15            0.00014406      1.0724e-008     -1.6377e-009   
  0.2             0.00018754      1.0493e-008     1.1048e-009    
  0.25            0.00022821      -1.2028e-008    2.749e-009     
  0.3             0.00026602      -1.0855e-008    -4.797e-010    
  0.35            0.00030079      2.3808e-008     -1.4678e-009   
  0.4             0.00033166      1.0715e-008     1.303e-009     
  0.45            0.00035959      -1.687e-008     1.7125e-009    
  0.5             0.00038433      -1.1704e-008    -1.38e-011     
  0.55            0.00040644      1.862e-008      -1.8937e-009   
  0.6             0.00042525      1.3026e-008     -1.672e-010    
  0.65            0.00044097      -1.6685e-008    2.3768e-009    
  0.7             0.00045523      -1.1053e-008    -8.109e-010    
  0.75            0.00046744      2.7441e-008     -1.3641e-009   
  0.8             0.00047699      1.1658e-008     1.6019e-009    
  0.85            0.00048618      -1.2645e-008    2.026e-010     
  0.9             0.00049462      1.4799e-008     -2.2289e-009   
  0.95            0.00050111      1.0394e-008     7.171e-010     
  1               0.00050687      -2.5897e-008    1.323e-009     
  1.05            0.00051288      -1.0915e-008    -5.563e-010    
  1.1             0.00051837      2.4709e-008     -1.4356e-009   
  1.15            0.00052207      1.0853e-008     1.3696e-009    
  1.2             0.0005265       -1.551e-008     1.624e-009     
  1.25            0.0005306       -1.15e-008      -7.97e-011     
  1.3             0.00053513      1.9572e-008     -1.8035e-009   
  1.35            0.00053859      1.2272e-008     -1.033e-010    
  1.4             0.00054146      -1.7608e-008    2.2702e-009    
  1.45            0.00054507      -1.1263e-008    -8.745e-010    
  1.5             0.00054857      2.7853e-008     -1.3492e-009   
  1.55            0.00055129      1.0324e-008     5.984e-010     
  1.6             0.00055361      -2.492e-008     1.3696e-009    
  1.65            0.00055646      -1.084e-008     -4.218e-010    
  1.7             0.00055973      2.3186e-008     -1.4943e-009   
  1.75            0.00056234      1.0612e-008     1.786e-010     
  1.8             0.00056402      -2.0697e-008    1.7765e-009    
  1.85            0.00056628      -1.2048e-008    2.55e-011      
  1.9             0.00056943      1.7562e-008     -1.9586e-009   
  1.95            0.00057167      2.5639e-008     -1.3892e-009   
  2               0.00057375      9.57e-009       4.323e-010     
  2.05            0.00057504      -2.4018e-008    1.4846e-009    
  2.1             0.00057815      -1.2767e-008    -1.3719e-009   
  2.15            0.00057996      1.154e-008      -2.3275e-009   
  2.2             0.00058165      7.272e-009      6.432e-010     
  2.25            0.00058299      -2.9354e-008    1.3503e-009    
  2.3             0.00058595      -1.8001e-008    -1.5853e-009   
  2.35            0.0005875       8.652e-009      -2.022e-009    
  2.4             0.00058927      1.221e-009      -2.4905e-009   
  2.45            0.00059061      -1.9474e-008    -2.7862e-009   
  2.5             0.00059232      -1.8988e-008    -2.5428e-009   
  2.55            0.00059356      -1.3524e-008    2.0193e-009    
  2.6             0.00059532      -4.2064e-008    -2.112e-010    
  2.65            0.00059752      -1.8447e-008    -1.6655e-009   
  2.7             0.00059862      -4.0244e-008    2.5159e-009    
  2.75            0.00060037      -7.263e-008     -9.42e-010     
  2.8             0.00060233      -4.7719e-008    -1.3359e-009   
  2.85            0.00060309      -8.775e-008     2.922e-009     
  2.9             0.00060469      -1.0164e-007    -2.4012e-009   
  2.95            0.000606        -1.2678e-007    2.1398e-009    
  3               0.00060746      -1.7515e-007    -3.642e-010    
  3.05            0.00060952      -1.7394e-007    -1.5345e-009   
  3.1             0.00061048      -2.2615e-007    2.6221e-009    
  3.15            0.00061233      -2.8803e-007    -1.0622e-009   
  3.2             0.00061373      -2.994e-007     -1.3138e-009   
  3.25            0.0006148       -3.7948e-007    2.9175e-009    
  3.3             0.00061689      -4.6012e-007    -1.7225e-009   
  3.35            0.00061802      -5.0924e-007    -1.383e-010    
  3.4             0.00061868      -6.2279e-007    2.3396e-009    
  3.45            0.00062062      -7.1077e-007    -2.1609e-009   
  3.5             0.00062213      -7.9845e-007    5.348e-010     
  3.55            0.00062311      -9.541e-007     1.4086e-009    
  3.6             0.000625        -1.07417e-006   -2.7183e-009   
  3.65            0.00062645      -1.2418e-006    -3.759e-010    
  3.7             0.00062738      -1.4068e-006    2.6884e-009    
  3.75            0.00062959      -1.5992e-006    -1.9884e-009   
  3.8             0.0006313       -1.793e-006     2.646e-010     
  3.85            0.00063208      -2.0658e-006    1.6671e-009    
  3.9             0.00063411      -2.3233e-006    -2.541e-009    
  3.95            0.00063559      -2.603e-006     9.321e-010     
  4               0.00063716      -2.9726e-006    1.2709e-009    
  4.05            0.00063928      -3.3194e-006    -2.7736e-009   
  4.1             0.00064023      -3.7092e-006    1.5741e-009    
  4.15            0.00064233      -4.1846e-006    2.247e-010     
