! VERSION = 6.00
BEGIN_HEADER
 ICCAP_INPUTS
  VG         V  B GROUND SMU4 0.001 LIN        1    0          5          101  0.05      
  VS         V  E GROUND SMU2 0.1 CON        0
  VB         V  C GROUND SMU3 0.1 LIN        3    0          -5         3    -2.5      
  VD         V  S GROUND SMU1 0.1 LIN        2    0.1        5          2    4.9       
 ICCAP_OUTPUTS
  IG         I  B GROUND SMU4 B
  ID         I  S GROUND SMU1 B
  IB         I  C GROUND SMU3 B
END_HEADER

BEGIN_DB
 ICCAP_VAR VS         0              
 ICCAP_VAR VB         0              
 ICCAP_VAR VD         0.1            

 #VG              IG              ID              IB             
  0               -1.3815e-009    -1.2875e-009    -8.915e-009    
  0.05            -1.3849e-009    -4.24e-011      1.1999e-008    
  0.1             -2.6972e-009    1.074e-010      1.3288e-008    
  0.15            1.3284e-009     -1.545e-009     -2.2381e-008   
  0.2             2.8725e-009     -1.065e-010     -1.3781e-008   
  0.25            -1.3853e-009    1.5067e-009     2.5231e-008    
  0.3             -2.6969e-009    1.309e-010      1.3473e-008    
  0.35            2.4085e-009     -1.4896e-009    -2.2085e-008   
  0.4             2.4545e-009     1.3796e-009     -6.144e-009    
  0.45            -1.3846e-009    2.3749e-009     2.861e-008     
  0.5             -2.7126e-009    3.6255e-009     1.278e-008     
  0.55            2.4314e-009     1.2433e-008     9.662e-009     
  0.6             1.623e-009      3.8562e-008     -6.082e-009    
  0.65            1.3246e-009     1.0173e-007     -8.805e-009    
  0.7             -1.8613e-009    2.3189e-007     2.7874e-008    
  0.75            -7.761e-010     4.8197e-007     -1.3055e-008   
  0.8             1.7138e-009     9.8218e-007     -1.7867e-008   
  0.85            2.7607e-009     1.9891e-006     2.0052e-008    
  0.9             7.262e-010      3.9102e-006     1.2666e-008    
  0.95            1.1125e-009     6.9337e-006     9.809e-009     
  1               1.525e-009      1.10877e-005    9.263e-009     
  1.05            -1.5944e-009    1.6597e-005     2.8768e-008    
  1.1             2.1722e-009     2.2369e-005     -2.5034e-008   
  1.15            1.4579e-009     2.8595e-005     -7.789e-009    
  1.2             1.3274e-009     3.4858e-005     -8.018e-009    
  1.25            2.8437e-009     4.1048e-005     -1.1249e-008   
  1.3             4.959e-010      4.7244e-005     1.2348e-008    
  1.35            9.202e-010      5.3062e-005     1.1343e-008    
  1.4             -1.4489e-009    5.8732e-005     1.3292e-008    
  1.45            -1.3828e-009    6.4174e-005     8.737e-009     
  1.5             -2.6376e-009    6.9375e-005     1.2595e-008    
  1.55            -2.1738e-009    7.4288e-005     1.089e-009     
  1.6             -1.5529e-009    7.9094e-005     4.211e-009     
  1.65            -1.3811e-009    8.3703e-005     8.024e-009     
  1.7             -2.7029e-009    8.8162e-005     1.1924e-008    
  1.75            1.9352e-009     9.2298e-005     -2.1603e-008   
  1.8             1.3788e-009     9.6458e-005     -9.009e-009    
  1.85            2.8863e-009     0.000100447     -8.343e-009    
  1.9             2.7735e-009     0.0001044       -3.04e-010     
  1.95            -1.5361e-009    0.000108177     1.6893e-008    
  2               -1.3822e-009    0.000111876     8.384e-009     
  2.05            -3.51e-011      0.00011549      1.4152e-008    
  2.1             -1.384e-009     0.00011906      2.6213e-008    
  2.15            -2.7127e-009    0.00012239      1.1376e-008    
  2.2             2.0198e-009     0.0001256       -2.2858e-008   
  2.25            1.4045e-009     0.00012883      -8.609e-009    
  2.3             2.8861e-009     0.00013191      -8.014e-009    
  2.35            2.8008e-009     0.000135        -2.17e-010     
  2.4             5.927e-010      0.00013801      1.2396e-008    
  2.45            9.872e-010      0.00014091      1.0851e-008    
  2.5             -2.212e-010     0.00014376      1.1461e-008    
  2.55            -1.441e-009     0.00014661      2.2309e-008    
  2.6             -1.3834e-009    0.00014932      9.174e-009     
  2.65            -2.6347e-009    0.00015203      1.3032e-008    
  2.7             -2.144e-009     0.00015462      1.194e-009     
  2.75            -1.5407e-009    0.00015722      4.584e-009     
  2.8             -1.3827e-009    0.00015973      8.147e-009     
  2.85            -2.6938e-009    0.00016222      1.1857e-008    
  2.9             1.9155e-009     0.00016455      -2.1281e-008   
  2.95            1.3742e-009     0.0001669       -9.106e-009    
  3               2.8854e-009     0.00016922      -8.161e-009    
  3.05            -1.3731e-009    0.00017154      2.8667e-008    
  3.1             -2.5246e-009    0.00017382      1.4101e-008    
  3.15            -1.9209e-009    0.00017593      1.635e-009     
  3.2             -1.4366e-009    0.00017807      5.247e-009     
  3.25            -1.3833e-009    0.00018018      8.857e-009     
  3.3             -2.6329e-009    0.00018224      1.2806e-008    
  3.35            -2.1561e-009    0.00018423      1.237e-009     
  3.4             -1.551e-009     0.00018628      4.224e-009     
  3.45            -1.3838e-009    0.00018823      7.957e-009     
  3.5             -2.6923e-009    0.00019014      1.1658e-008    
  3.55            1.9305e-009     0.00019196      -2.1339e-008   
  3.6             1.3796e-009     0.0001938       -9.063e-009    
  3.65            2.8842e-009     0.00019562      -8.317e-009    
  3.7             -2.1169e-009    0.00019748      2.8652e-008    
  3.75            -1.5159e-009    0.00019916      4.684e-009     
  3.8             -1.3835e-009    0.00020087      8.247e-009     
  3.85            -2.6836e-009    0.00020253      1.1942e-008    
  3.9             1.8642e-009     0.00020411      -2.0226e-008   
  3.95            1.3603e-009     0.00020577      -9.199e-009    
  4               2.891e-009      0.00020734      -8.384e-009    
  4.05            -1.3697e-009    0.00020898      2.8379e-008    
  4.1             -2.4959e-009    0.00021052      1.4335e-008    
  4.15            -1.8783e-009    0.00021194      1.872e-009     
  4.2             -1.4274e-009    0.00021346      5.259e-009     
  4.25            -1.3807e-009    0.00021491      8.998e-009     
  4.3             -2.6197e-009    0.00021634      1.2949e-008    
  4.35            -2.117e-009     0.0002177       1.057e-009     
  4.4             -1.5269e-009    0.00021907      4.496e-009     
  4.45            -1.3801e-009    0.00022044      8.087e-009     
  4.5             -2.6871e-009    0.00022178      1.1907e-008    
  4.55            1.8828e-009     0.00022301      -2.0915e-008   
  4.6             1.3609e-009     0.00022434      -9.27e-009     
  4.65            1.3255e-009     0.00022556      -8.069e-009    
  4.7             2.7693e-009     0.00022677      -1.4463e-008   
  4.75            6.572e-010      0.00022803      1.2511e-008    
  4.8             1.0462e-009     0.0002292       1.0073e-008    
  4.85            -1.595e-010     0.00023025      1.0043e-008    
  4.9             -1.4045e-009    0.00023147      2.3256e-008    
  4.95            -1.3803e-009    0.00023257      9.337e-009     
  5               -2.5946e-009    0.00023371      1.3223e-008    
END_DB

BEGIN_DB
 ICCAP_VAR VS         0              
 ICCAP_VAR VB         0              
 ICCAP_VAR VD         5              

 #VG              IG              ID              IB             
  0               -1.3845e-009    -1.2229e-009    -8.417e-009    
  0.05            -2.7045e-009    7.07e-011       1.2977e-008    
  0.1             2.4825e-009     -1.518e-009     -2.3358e-008   
  0.15            1.3187e-009     2.2053e-009     -5.037e-009    
  0.2             -1.02e-010      2.094e-009      1.0826e-008    
  0.25            -1.5279e-009    1.0527e-009     2.4649e-008    
  0.3             -9.799e-010     -2.0453e-009    8.398e-009     
  0.35            1.7316e-009     -9.748e-010     -1.2291e-008   
  0.4             1.4771e-009     3.4694e-009     -9.527e-009    
  0.45            1.7907e-009     1.4528e-008     5.591e-009     
  0.5             -1.6096e-009    4.2887e-008     1.6052e-008    
  0.55            -1.7249e-009    1.2711e-007     -4.965e-009    
  0.6             -2.7408e-009    3.2346e-007     -3.1174e-008   
  0.65            -2.6493e-009    7.7567e-007     -5.9339e-008   
  0.7             1.2003e-009     1.7331e-006     -1.1468e-007   
  0.75            2.0114e-009     3.7623e-006     -2.9261e-007   
  0.8             1.3988e-009     7.6831e-006     -5.5469e-007   
  0.85            -1.626e-009     1.4674e-005     -9.9202e-007   
  0.9             -2.459e-009     2.4585e-005     -1.652e-006    
  0.95            -2.7323e-009    3.811e-005      -2.4666e-006   
  1               -2.7272e-009    5.4718e-005     -3.4059e-006   
  1.05            -2.5649e-009    7.4291e-005     -4.4465e-006   
  1.1             -2.0128e-009    9.6835e-005     -5.5749e-006   
  1.15            -2.7087e-009    0.00012112      -6.7156e-006   
  1.2             -2.4749e-009    0.00014731      -7.8682e-006   
  1.25            -1.8598e-009    0.00017523      -9.0015e-006   
  1.3             -1.4188e-009    0.00020432      -1.01e-005     
  1.35            -1.3816e-009    0.00023476      -1.11492e-005  
  1.4             1.6084e-009     0.00026514      -1.2176e-005   
  1.45            1.3255e-009     0.00029733      -1.3095e-005   
  1.5             2.8715e-009     0.00032983      -1.3974e-005   
  1.55            2.5712e-009     0.00036384      -1.4788e-005   
  1.6             1.8233e-009     0.0003976       -1.5547e-005   
  1.65            1.3531e-009     0.000432        -1.6241e-005   
  1.7             2.8848e-009     0.0004668       -1.6849e-005   
  1.75            2.7357e-009     0.00050236      -1.7396e-005   
  1.8             2.1149e-009     0.00053789      -1.7883e-005   
  1.85            1.4507e-009     0.00057367      -1.8315e-005   
  1.9             1.3273e-009     0.00060955      -1.8671e-005   
  1.95            2.8421e-009     0.00064565      -1.8974e-005   
  2               2.3893e-009     0.00068259      -1.9216e-005   
  2.05            1.6243e-009     0.00071908      -1.9416e-005   
  2.1             1.3278e-009     0.00075587      -1.9565e-005   
  2.15            2.8788e-009     0.00079246      -1.9658e-005   
  2.2             2.6026e-009     0.00083004      -1.9705e-005   
  2.25            1.8845e-009     0.00086693      -1.9719e-005   
  2.3             1.3649e-009     0.00090395      -1.9693e-005   
  2.35            1.3238e-009     0.00094108      -1.9625e-005   
  2.4             2.7659e-009     0.00097831      -1.9536e-005   
  2.45            2.1652e-009     0.00101605      -1.9394e-005   
  2.5             1.4721e-009     0.00105346      -1.924e-005    
  2.55            1.3254e-009     0.00109078      -1.905e-005    
  2.6             2.8482e-009     0.00112784      -1.8842e-005   
  2.65            -2.0118e-009    0.0011672       -1.8616e-005   
  2.7             -1.4587e-009    0.0012048       -1.8338e-005   
  2.75            -1.3818e-009    0.001243        -1.8068e-005   
  2.8             -2.6555e-009    0.0012806       -1.7781e-005   
  2.85            -2.2261e-009    0.0013178       -1.7496e-005   
  2.9             -1.5926e-009    0.0013554       -1.7184e-005   
  2.95            -1.3764e-009    0.0013931       -1.686e-005    
  3               -2.7011e-009    0.0014305       -1.6527e-005   
  3.05            -2.4316e-009    0.0014678       -1.6209e-005   
  3.1             -1.8024e-009    0.0015055       -1.5865e-005   
  3.15            -1.4033e-009    0.0015432       -1.5521e-005   
  3.2             -1.3789e-009    0.0015805       -1.5167e-005   
  3.25            -2.5892e-009    0.0016179       -1.4814e-005   
  3.3             -2.0424e-009    0.0016552       -1.4477e-005   
  3.35            -1.4798e-009    0.0016924       -1.4125e-005   
  3.4             -1.3773e-009    0.0017296       -1.3768e-005   
  3.45            -2.6696e-009    0.001767        -1.3411e-005   
  3.5             -2.266e-009     0.0018038       -1.3075e-005   
  3.55            -1.6264e-009    0.0018411       -1.2726e-005   
  3.6             -1.3767e-009    0.0018783       -1.2377e-005   
  3.65            -2.7086e-009    0.0019156       -1.2032e-005   
  3.7             -2.4552e-009    0.0019521       -1.1711e-005   
  3.75            -1.8327e-009    0.0019895       -1.138e-005    
  3.8             -1.4141e-009    0.0020265       -1.105e-005    
  3.85            -1.3752e-009    0.0020635       -1.0733e-005   
  3.9             -2.6014e-009    0.0021003       -1.0413e-005   
  3.95            -2.0819e-009    0.0021367       -1.0115e-005   
  4               1.4101e-009     0.0021725       -9.8409e-006   
  4.05            1.3269e-009     0.0022092       -9.5387e-006   
  4.1             2.8077e-009     0.0022455       -9.2517e-006   
  4.15            2.2685e-009     0.0022824       -8.9624e-006   
  4.2             1.5411e-009     0.0023186       -8.6894e-006   
  4.25            1.3325e-009     0.0023551       -8.4227e-006   
  4.3             2.868e-009      0.0023909       -8.1597e-006   
  4.35            2.5269e-009     0.0024278       -7.8991e-006   
  4.4             1.7773e-009     0.0024644       -7.6507e-006   
  4.45            1.3493e-009     0.0025005       -7.4139e-006   
  4.5             2.8878e-009     0.0025366       -7.1775e-006   
  4.55            2.7079e-009     0.0025726       -6.9391e-006   
  4.6             2.0565e-009     0.0026083       -6.7189e-006   
  4.65            1.4282e-009     0.0026439       -6.5077e-006   
  4.7             1.3354e-009     0.0026796       -6.2985e-006   
  4.75            2.8297e-009     0.0027145       -6.0894e-006   
  4.8             2.3433e-009     0.0027506       -5.8842e-006   
  4.85            1.5976e-009     0.0027864       -5.6961e-006   
  4.9             1.3373e-009     0.0028215       -5.5102e-006   
  4.95            2.8841e-009     0.0028567       -5.3314e-006   
  5               2.5739e-009     0.0028929       -5.1477e-006   
END_DB

BEGIN_DB
 ICCAP_VAR VS         0              
 ICCAP_VAR VB         -2.5           
 ICCAP_VAR VD         0.1            

 #VG              IG              ID              IB             
  0               1.1278e-009     1.1161e-009     -9.724e-009    
  0.05            2.1611e-009     -8.011e-010     -1.9144e-008   
  0.1             1.5202e-009     1.9977e-009     -7.95e-009     
  0.15            9.43e-011       2.172e-009      1.1849e-008    
  0.2             3.001e-010      2.2602e-009     1.2307e-008    
  0.25            4.939e-010      2.3173e-009     1.2688e-008    
  0.3             -1.3868e-009    1.45e-009       2.7048e-008    
  0.35            -2.7132e-009    4.88e-011       1.2739e-008    
  0.4             2.5194e-009     -1.4951e-009    -2.4002e-008   
  0.45            1.3039e-009     2.2168e-009     -4.94e-009     
  0.5             -1.3865e-009    1.2295e-009     2.8467e-008    
  0.55            -1.245e-009     -2.161e-009     1.0656e-008    
  0.6             2.868e-010      -1.9041e-009    -1.0371e-008   
  0.65            1.7781e-009     -9.428e-010     -2.1111e-008   
  0.7             1.7334e-009     1.7168e-009     -9.157e-009    
  0.75            -2.0784e-009    1.6254e-009     2.1485e-008    
  0.8             -5.792e-010     -2.061e-009     4.666e-009     
  0.85            2.4523e-009     -6.385e-010     -2.2837e-008   
  0.9             2.1184e-009     4.2581e-009     -5.303e-009    
  0.95            -1.7159e-009    1.1145e-008     -8.392e-009    
  1               -5.522e-010     4.4306e-008     -1.282e-008    
  1.05            -2.585e-009     1.2596e-007     1.0537e-008    
  1.1             1.7584e-009     2.9236e-007     -1.8547e-008   
  1.15            1.3448e-009     6.1487e-007     -9.136e-009    
  1.2             2.8855e-009     1.282e-006      2.8215e-008    
  1.25            1.1889e-009     2.6065e-006     9.453e-009     
  1.3             -1.3821e-009    5.0677e-006     2.7092e-008    
  1.35            -2.6854e-009    8.7196e-006     1.2226e-008    
  1.4             2.8215e-009     1.34e-005       -9.78e-009     
  1.45            -1.6292e-009    1.9118e-005     1.9538e-008    
  1.5             -1.3834e-009    2.5296e-005     7.282e-009     
  1.55            -2.7043e-009    3.1668e-005     1.1182e-008    
  1.6             -1.3365e-009    3.8002e-005     -9.677e-009    
  1.65            -1.7343e-009    4.4189e-005     -1.0758e-008   
  1.7             -6.158e-010     5.001e-005      -1.2862e-008   
  1.75            1.9685e-009     5.5652e-005     -2.21e-008     
  1.8             1.3858e-009     6.1117e-005     -8.824e-009    
  1.85            2.883e-009      6.6322e-005     -7.981e-009    
  1.9             -2.1578e-009    7.1481e-005     2.8698e-008    
  1.95            -1.5364e-009    7.6244e-005     4.565e-009     
  2               -1.3809e-009    8.0854e-005     8.289e-009     
  2.05            -2.6864e-009    8.5278e-005     1.1767e-008    
  2.1             -1.3998e-009    8.9528e-005     -9.584e-009    
  2.15            2.4765e-009     9.3505e-005     -2.6268e-008   
  2.2             1.7062e-009     9.7453e-005     -5.133e-009    
  2.25            1.3404e-009     0.000101245     -9.1e-009      
  2.3             2.8821e-009     0.000104902     -8.677e-009    
  2.35            1.2489e-009     0.000108484     9.181e-009     
  2.4             -1.3797e-009    0.000112101     2.81e-008      
  2.45            4.95e-011       0.00011554      1.5004e-008    
  2.5             -1.3803e-009    0.00011889      2.6993e-008    
  2.55            -2.6872e-009    0.00012208      1.1866e-008    
  2.6             -1.4015e-009    0.00012515      -9.554e-009    
  2.65            -1.64e-010      0.00012811      -1.1356e-008   
  2.7             -6.959e-010     0.00013111      -1.3056e-008   
  2.75            1.8399e-009     0.000134        -1.9902e-008   
  2.8             1.362e-009      0.00013683      -9.173e-009    
  2.85            2.884e-009      0.00013958      -8.284e-009    
  2.9             2.7246e-009     0.00014226      -4.47e-010     
  2.95            2.6092e-009     0.00014485      8.961e-009     
  3               4.721e-010      0.00014744      1.2109e-008    
  3.05            8.948e-010      0.00014994      1.1523e-008    
  3.1             -1.4574e-009    0.00015235      1.4083e-008    
  3.15            -1.3787e-009    0.00015481      8.923e-009     
  3.2             -2.6519e-009    0.00015719      1.2772e-008    
  3.25            -2.1979e-009    0.00015944      1.176e-009     
  3.3             -1.5807e-009    0.00016171      4.08e-009      
  3.35            -1.3775e-009    0.00016392      7.826e-009     
  3.4             -2.6956e-009    0.00016603      1.1444e-008    
  3.45            1.9959e-009     0.00016815      -2.2471e-008   
  3.5             1.3989e-009     0.00017025      -8.919e-009    
  3.55            1.3318e-009     0.00017225      -8.013e-009    
  3.6             2.8038e-009     0.00017424      -1.3203e-008   
  3.65            2.5604e-009     0.00017621      8.721e-009     
  3.7             -1.7964e-009    0.00017815      2.4259e-008    
  3.75            -1.3975e-009    0.00018003      5.888e-009     
  3.8             -1.3722e-009    0.00018187      9.403e-009     
  3.85            -2.5784e-009    0.00018368      1.3534e-008    
  3.9             -2.0224e-009    0.00018541      1.135e-009     
  3.95            -1.4731e-009    0.00018718      4.959e-009     
  4               -1.3754e-009    0.00018886      8.556e-009     
  4.05            -2.662e-009     0.00019052      1.2539e-008    
  4.1             -2.2495e-009    0.00019215      1.034e-009     
  4.15            -1.6225e-009    0.00019377      3.592e-009     
