! VERSION = 6.00
BEGIN_HEADER
 ICCAP_INPUTS
  VG         V  B GROUND SMU4 0.001 LIN        1    0          5          101  0.05      
  VS         V  E GROUND SMU2 0.1 CON        0
  VB         V  C GROUND SMU3 0.1 LIN        3    0          -5         3    -2.5      
  VD         V  S GROUND SMU1 0.1 LIN        2    0.1        5          2    4.9       
 ICCAP_OUTPUTS
  IG         I  B GROUND SMU4 B
  ID         I  S GROUND SMU1 B
  IB         I  C GROUND SMU3 B
END_HEADER

BEGIN_DB
 ICCAP_VAR VS         0              
 ICCAP_VAR VB         0              
 ICCAP_VAR VD         0.1            

 #VG              IG              ID              IB             
  0               1.2041e-009     1.1505e-009     1.303e-008     
  0.05            2.1922e-009     -4.755e-010     -2.094e-008    
  0.1             2.4578e-009     2.0368e-009     -7.446e-009    
  0.15            5.62e-011       5.4095e-009     1.0252e-008    
  0.2             -1.513e-009     8.635e-009      -6.056e-009    
  0.25            -2.934e-010     3.7528e-008     -1.0944e-008   
  0.3             -2.7212e-009    1.2783e-007     1.0723e-008    
  0.35            -2.3176e-009    3.9643e-007     -6e-012        
  0.4             -1.713e-009     1.10152e-006    2.758e-009     
  0.45            -2.5726e-009    2.675e-006      -2.0668e-008   
  0.5             -5.212e-010     5.7563e-006     -1.104e-008    
  0.55            -9.569e-010     1.10221e-005    -1.2033e-008   
  0.6             2.9052e-009     1.8498e-005     -1.1724e-008   
  0.65            3.319e-010      2.8481e-005     1.0201e-008    
  0.7             7.608e-010      3.9992e-005     1.091e-008     
  0.75            -1.5643e-009    5.297e-005      1.7331e-008    
  0.8             -1.3777e-009    6.6438e-005     8.722e-009     
  0.85            -2.7336e-009    7.9971e-005     1.1239e-008    
  0.9             -2.3169e-009    9.3157e-005     8.4e-011       
  0.95            -1.7151e-009    0.000106051     2.712e-009     
  1               -1.5151e-009    0.00011848      1.332e-009     
  1.05            -1.3692e-009    0.00013035      9.51e-009      
  1.1             -2.6931e-009    0.0001415       1.0971e-008    
  1.15            -2.2112e-009    0.00015207      8e-011         
  1.2             -1.6348e-009    0.00016227      3.083e-009     
  1.25            -1.3999e-009    0.00017197      7.62e-009      
  1.3             -1.3321e-009    0.00018123      1.1187e-008    
  1.35            -2.4454e-009    0.0001902       1.2718e-008    
  1.4             -1.8278e-009    0.00019868      2.015e-009     
  1.45            -1.4504e-009    0.00020694      5.753e-009     
  1.5             -1.3539e-009    0.00021489      1.0048e-008    
  1.55            -2.6124e-009    0.00022259      1.1234e-008    
  1.6             -2.0631e-009    0.00022995      6.04e-010      
  1.65            -1.5457e-009    0.00023719      3.94e-009      
  1.7             -1.3794e-009    0.00024419      8.91e-009      
  1.75            -2.727e-009     0.00025095      1.1267e-008    
  1.8             -2.2984e-009    0.00025753      2.6e-011       
  1.85            -1.7032e-009    0.00026397      2.808e-009     
  1.9             -1.4146e-009    0.00027025      6.998e-009     
  1.95            -1.3403e-009    0.00027638      1.1076e-008    
  2               -2.5137e-009    0.00028238      1.1841e-008    
  2.05            -1.9127e-009    0.00028814      1.449e-009     
  2.1             -1.4796e-009    0.00029386      5.402e-009     
  2.15            -1.3616e-009    0.0002994       9.78e-009      
  2.2             -2.6637e-009    0.00030487      1.0981e-008    
  2.25            -2.1539e-009    0.00031013      1.93e-010      
  2.3             -1.6025e-009    0.00031541      3.566e-009     
  2.35            -1.3901e-009    0.00032051      8.175e-009     
  2.4             -2.7563e-009    0.00032555      1.1461e-008    
  2.45            -2.3843e-009    0.00033045      -8.6e-011      
  2.5             -8.128e-010     0.00033526      -1.1414e-008   
  2.55            1.6229e-009     0.00033982      -1.5636e-008   
  2.6             1.3327e-009     0.00034459      -8.911e-009    
  2.65            2.9164e-009     0.00034911      -8.773e-009    
  2.7             3.444e-010      0.00035377      1.0241e-008    
  2.75            7.728e-010      0.00035819      1.095e-008     
  2.8             -1.5596e-009    0.00036243      1.7172e-008    
  2.85            -1.381e-009     0.00036686      8.974e-009     
  2.9             -2.7298e-009    0.00037101      1.1126e-008    
  2.95            -2.3097e-009    0.00037515      5e-011         
  3               -1.7073e-009    0.00037923      2.826e-009     
  3.05            -1.4158e-009    0.00038319      6.803e-009     
  3.1             -1.3384e-009    0.00038716      1.1065e-008    
  3.15            -2.5188e-009    0.00039104      1.1701e-008    
  3.2             -1.924e-009     0.00039476      1.458e-009     
  3.25            -1.4837e-009    0.00039854      5.235e-009     
  3.3             -1.3628e-009    0.00040221      9.583e-009     
  3.35            -2.6659e-009    0.00040587      1.0951e-008    
  3.4             -2.1666e-009    0.00040942      1.12e-010      
  3.45            -1.6046e-009    0.00041293      3.662e-009     
  3.5             -1.3911e-009    0.00041637      8.055e-009     
  3.55            -1.327e-009     0.00041978      1.1158e-008    
  3.6             -2.4097e-009    0.00042324      1.3046e-008    
  3.65            -7.98e-010      0.0004264       -1.1359e-008   
  3.7             -1.1907e-009    0.00042973      -1.1585e-008   
  3.75            4.03e-011       0.00043275      -1.179e-008    
  3.8             -4.154e-010     0.00043604      -1.0665e-008   
  3.85            1.2759e-009     0.00043924      -2.3671e-008   
  3.9             2.654e-009      0.00044227      -1.3936e-008   
  3.95            2.6013e-009     0.00044532      8.272e-009     
  4               4.972e-010      0.00044834      1.0397e-008    
  4.05            9.078e-010      0.00045123      1.156e-008     
  4.1             -1.4664e-009    0.00045396      1.4067e-008    
  4.15            -1.356e-009     0.00045702      1.0219e-008    
  4.2             -2.6287e-009    0.0004599       1.0825e-008    
  4.25            -2.0992e-009    0.00046268      3.95e-010      
  4.3             -1.5643e-009    0.00046538      3.868e-009     
  4.35            -1.3816e-009    0.00046814      8.54e-009      
  4.4             -2.7399e-009    0.00047074      1.1159e-008    
  4.45            -2.3393e-009    0.00047339      -1.7e-011      
  4.5             -1.7397e-009    0.00047597      2.541e-009     
  4.55            -1.4229e-009    0.00047854      6.456e-009     
  4.6             -1.3404e-009    0.0004811       1.077e-008     
  4.65            -2.542e-009     0.00048361      1.1552e-008    
  4.7             -1.9578e-009    0.00048601      1.213e-009     
  4.75            -1.4963e-009    0.0004884       4.778e-009     
  4.8             -1.3643e-009    0.0004908       9.568e-009     
  4.85            -2.6888e-009    0.00049319      1.101e-008     
  4.9             -2.2074e-009    0.00049548      1.76e-010      
  4.95            -1.6314e-009    0.00049773      3.46e-009      
  5               -1.3936e-009    0.00049997      7.861e-009     
END_DB

BEGIN_DB
 ICCAP_VAR VS         0              
 ICCAP_VAR VB         0              
 ICCAP_VAR VD         5              

 #VG              IG              ID              IB             
  0               -5.572e-010     1.839e-005      -1.5182e-006   
  0.05            -1.831e-010     2.5744e-005     -2.1022e-006   
  0.1             2.264e-010      3.5943e-005     -2.9295e-006   
  0.15            6.611e-010      4.9751e-005     -4.0559e-006   
  0.2             1.0588e-009     6.828e-005      -5.5603e-006   
  0.25            1.4877e-009     9.2277e-005     -7.4866e-006   
  0.3             1.7282e-009     0.00012276      -9.8281e-006   
  0.35            -2.1009e-009    0.0001604       -1.2714e-005   
  0.4             -1.5685e-009    0.00020244      -1.5827e-005   
  0.45            -1.3888e-009    0.00024952      -1.9183e-005   
  0.5             -2.7433e-009    0.00030047      -2.2729e-005   
  0.55            -2.3265e-009    0.00035447      -2.6428e-005   
  0.6             -1.7198e-009    0.00041154      -3.0141e-005   
  0.65            -1.4226e-009    0.00047112      -3.3836e-005   
  0.7             -1.3401e-009    0.00053239      -3.7481e-005   
  0.75            -2.5169e-009    0.00059511      -4.1091e-005   
  0.8             -1.9132e-009    0.0006585       -4.4615e-005   
  0.85            -1.486e-009     0.00072333      -4.7989e-005   
  0.9             -1.3624e-009    0.00078905      -5.122e-005    
  0.95            -2.6629e-009    0.00085522      -5.4352e-005   
  1               -2.1331e-009    0.00092132      -5.7346e-005   
  1.05            -1.589e-009     0.00098915      -6.0203e-005   
  1.1             -1.3923e-009    0.0010567       -6.2848e-005   
  1.15            -2.7566e-009    0.00112418      -6.5341e-005   
  1.2             2.9242e-009     0.0011899       -6.7699e-005   
  1.25            2.5684e-009     0.0012581       -6.9844e-005   
  1.3             1.8881e-009     0.0013254       -7.1898e-005   
  1.35            1.4138e-009     0.0013927       -7.3797e-005   
  1.4             1.2875e-009     0.00146         -7.5523e-005   
  1.45            2.7525e-009     0.0015274       -7.712e-005    
  1.5             2.1416e-009     0.001595        -7.8548e-005   
  1.55            1.5223e-009     0.0016622       -7.9863e-005   
  1.6             1.3142e-009     0.0017287       -8.1016e-005   
  1.65            2.8713e-009     0.0017954       -8.2051e-005   
  1.7             2.3852e-009     0.0018627       -8.295e-005    
  1.75            1.6972e-009     0.0019292       -8.3738e-005   
  1.8             1.3537e-009     0.0019949       -8.4403e-005   
  1.85            2.9316e-009     0.0020608       -8.4944e-005   
  1.9             2.5941e-009     0.0021273       -8.5382e-005   
  1.95            1.9206e-009     0.0021927       -8.5716e-005   
  2               1.4238e-009     0.0022583       -8.595e-005    
  2.05            1.2926e-009     0.0023232       -8.6087e-005   
  2.1             2.7642e-009     0.0023879       -8.6123e-005   
  2.15            2.1714e-009     0.0024535       -8.6076e-005   
  2.2             1.5452e-009     0.0025179       -8.5949e-005   
  2.25            1.3188e-009     0.0025819       -8.573e-005    
  2.3             2.8773e-009     0.0026458       -8.5446e-005   
  2.35            2.4142e-009     0.0027101       -8.5081e-005   
  2.4             1.7179e-009     0.0027742       -8.4672e-005   
  2.45            1.363e-009      0.002837        -8.4171e-005   
  2.5             2.9363e-009     0.0029003       -8.3628e-005   
  2.55            2.5994e-009     0.0029638       -8.3033e-005   
  2.6             1.9466e-009     0.0030266       -8.2383e-005   
  2.65            1.4364e-009     0.0030891       -8.1684e-005   
  2.7             1.2944e-009     0.0031513       -8.0933e-005   
  2.75            2.7754e-009     0.003214        -8.0141e-005   
  2.8             2.1943e-009     0.0032768       -7.9315e-005   
  2.85            1.5579e-009     0.0033384       -7.8445e-005   
  2.9             1.3216e-009     0.0033997       -7.7551e-005   
  2.95            2.8847e-009     0.003461        -7.6636e-005   
  3               2.4209e-009     0.0035228       -7.568e-005    
  3.05            1.7389e-009     0.0035835       -7.4722e-005   
  3.1             1.3659e-009     0.0036441       -7.3733e-005   
  3.15            2.9382e-009     0.0037046       -7.2724e-005   
  3.2             2.6248e-009     0.0037656       -7.1688e-005   
  3.25            1.9676e-009     0.0038256       -7.0651e-005   
  3.3             1.4464e-009     0.0038851       -6.9592e-005   
  3.35            1.2981e-009     0.003945        -6.8551e-005   
  3.4             2.7897e-009     0.0040043       -6.7474e-005   
  3.45            2.1986e-009     0.0040645       -6.64e-005     
  3.5             1.5704e-009     0.0041234       -6.5308e-005   
  3.55            1.327e-009      0.0041822       -6.4221e-005   
  3.6             2.8843e-009     0.004241        -6.3137e-005   
  3.65            2.437e-009      0.0043001       -6.2041e-005   
  3.7             1.7502e-009     0.0043585       -6.0962e-005   
  3.75            1.3728e-009     0.0044166       -5.9882e-005   
  3.8             1.2827e-009     0.0044747       -5.8807e-005   
  3.85            2.6396e-009     0.0045325       -5.7746e-005   
  3.9             1.9659e-009     0.0045907       -5.6665e-005   
  3.95            1.4542e-009     0.0046478       -5.5593e-005   
  4               1.3106e-009     0.0047052       -5.4528e-005   
  4.05            2.7973e-009     0.0047621       -5.3499e-005   
  4.1             2.2217e-009     0.0048199       -5.2445e-005   
  4.15            1.5833e-009     0.0048764       -5.141e-005    
  4.2             1.3465e-009     0.0049329       -5.0399e-005   
  4.25            2.9157e-009     0.0049889       -4.9383e-005   
  4.3             2.4489e-009     0.0050458       -4.8398e-005   
  4.35            1.7686e-009     0.0051017       -4.7424e-005   
  4.4             1.4018e-009     0.005158        -4.6439e-005   
  4.45            1.313e-009      0.0052139       -4.5481e-005   
  4.5             2.6692e-009     0.0052692       -4.4531e-005   
  4.55            2.0001e-009     0.0053252       -4.3599e-005   
  4.6             1.4924e-009     0.0053796       -4.2695e-005   
  4.65            1.3513e-009     0.0054345       -4.1804e-005   
  4.7             2.8345e-009     0.005489        -4.0903e-005   
  4.75            2.2504e-009     0.005544        -4.0025e-005   
  4.8             1.6298e-009     0.005598        -3.917e-005    
  4.85            1.4015e-009     0.005652        -3.8315e-005   
  4.9             1.3418e-009     0.005706        -3.7481e-005   
  4.95            2.5216e-009     0.0057597       -3.6655e-005   
  5               1.8277e-009     0.0058135       -3.5865e-005   
END_DB

BEGIN_DB
 ICCAP_VAR VS         0              
 ICCAP_VAR VB         -2.5           
 ICCAP_VAR VD         0.1            

 #VG              IG              ID              IB             
  0               2.9446e-009     2.2844e-009     -3.1513e-007   
  0.05            1.7493e-009     1.6644e-009     -3.2535e-007   
  0.1             1.9399e-009     1.4172e-009     -3.1584e-007   
  0.15            2.1063e-009     1.2726e-009     -3.1799e-007   
  0.2             4.675e-010      2.3951e-009     -3.2026e-007   
  0.25            6.554e-010      2.6012e-009     -3.0446e-007   
  0.3             8.328e-010      3.1307e-009     -3.0702e-007   
  0.35            1.0016e-009     5.0582e-009     -3.0905e-007   
  0.4             -1.4684e-009    1.1682e-008     -3.3946e-007   
  0.45            -1.352e-009     3.5611e-008     -2.6775e-007   
  0.5             9.493e-010      1.2166e-007     -3.0164e-007   
  0.55            1.3683e-009     3.7129e-007     -3.1108e-007   
  0.6             1.817e-009      1.04541e-006    -3.1523e-007   
  0.65            1.271e-010      2.6777e-006     -3.3512e-007   
  0.7             5.648e-010      5.7691e-006     -3.0397e-007   
  0.75            9.785e-010      1.09109e-005    -3.0766e-007   
  0.8             -2.6712e-009    1.8618e-005     -3.1031e-007   
  0.85            -2.1824e-009    2.851e-005      -3.2479e-007   
  0.9             -1.6042e-009    4.0151e-005     -3.0618e-007   
  0.95            -1.3878e-009    5.2911e-005     -2.792e-007    
  1               -2.7485e-009    6.6105e-005     -2.6939e-007   
  1.05            -2.3563e-009    7.9435e-005     -3.2765e-007   
  1.1             -1.7389e-009    9.233e-005      -3.119e-007    
  1.15            -1.4177e-009    0.00010472      -2.8593e-007   
  1.2             -1.3445e-009    0.00011658      -2.8791e-007   
  1.25            -2.5704e-009    0.00012779      -2.7157e-007   
  1.3             -1.9836e-009    0.00013829      -3.2025e-007   
  1.35            -1.5009e-009    0.00014839      -2.9737e-007   
  1.4             -1.3636e-009    0.00015796      -2.7358e-007   
  1.45            -2.6685e-009    0.0001671       -2.7063e-007   
  1.5             -2.1664e-009    0.00017574      -3.2468e-007   
  1.55            -1.595e-009     0.00018408      -3.0502e-007   
  1.6             -1.3842e-009    0.00019213      -2.7846e-007   
  1.65            -2.7442e-009    0.00019975      -2.695e-007    
  1.7             -2.33e-009      0.00020714      -3.2761e-007   
  1.75            -1.7175e-009    0.00021431      -3.1154e-007   
  1.8             -1.4149e-009    0.0002212       -2.8593e-007   
  1.85            -1.3342e-009    0.00022793      -2.6978e-007   
  1.9             -2.4953e-009    0.00023443      -2.7209e-007   
  1.95            -1.8766e-009    0.00024066      -3.1766e-007   
  2               -1.459e-009     0.00024678      -2.9346e-007   
  2.05            -1.3506e-009    0.00025272      -2.7208e-007   
  2.1             -2.6067e-009    0.00025856      -2.7251e-007   
  2.15            -2.0478e-009    0.00026415      -3.2295e-007   
  2.2             -1.5272e-009    0.0002697       -3.0165e-007   
  2.25            -1.3686e-009    0.00027509      -2.7613e-007   
  2.3             -2.6971e-009    0.00028035      -2.7171e-007   
  2.35            -2.2246e-009    0.00028544      -3.2679e-007   
  2.4             -1.6328e-009    0.0002905       -3.087e-007    
  2.45            -1.3956e-009    0.00029541      -2.8194e-007   
  2.5             -2.7588e-009    0.00030026      -2.7035e-007   
  2.55            -2.3883e-009    0.00030497      -3.3001e-007   
  2.6             -1.7652e-009    0.00030962      -3.1485e-007   
  2.65            -1.4293e-009    0.00031418      -2.8919e-007   
  2.7             -1.338e-009     0.00031865      -2.7128e-007   
  2.75            -2.5293e-009    0.00032312      -2.7308e-007   
  2.8             -1.9297e-009    0.0003274       -3.2023e-007   
  2.85            -1.4796e-009    0.00033158      -2.9632e-007   
  2.9             -1.3561e-009    0.00033572      -2.7385e-007   
  2.95            -2.6378e-009    0.00033988      -2.7256e-007   
  3               -2.0969e-009    0.00034383      -3.2459e-007   
  3.05            -1.5551e-009    0.00034778      -3.0392e-007   
  3.1             -1.3769e-009    0.00035165      -2.7799e-007   
  3.15            -2.7171e-009    0.0003555       -2.7127e-007   
  3.2             -2.2681e-009    0.00035922      -3.2799e-007   
  3.25            -1.6625e-009    0.00036287      -3.1045e-007   
  3.3             -1.4011e-009    0.00036654      -2.8391e-007   
  3.35            -1.3294e-009    0.00037013      -2.7055e-007   
  3.4             -2.4353e-009    0.00037369      -2.7261e-007   
  3.45            -1.8054e-009    0.00037708      -3.162e-007    
  3.5             -1.4355e-009    0.00038051      -2.9093e-007   
  3.55            -1.3443e-009    0.00038387      -2.7177e-007   
  3.6             -2.5564e-009    0.00038722      -2.7285e-007   
  3.65            -1.9636e-009    0.00039046      -3.2093e-007   
  3.7             -1.4915e-009    0.00039364      -2.9801e-007   
  3.75            -1.3647e-009    0.00039683      -2.7446e-007   
  3.8             -2.6594e-009    0.00039999      -2.7175e-007   
  3.85            -2.1301e-009    0.00040298      -3.2497e-007   
  3.9             -1.5685e-009    0.00040601      -3.0513e-007   
  3.95            -1.3844e-009    0.00040905      -2.7879e-007   
  4               -2.7291e-009    0.00041199      -2.7072e-007   
  4.05            -2.2965e-009    0.00041493      -3.2808e-007   
  4.1             -1.6811e-009    0.00041777      -3.1148e-007   
  4.15            -1.4105e-009    0.00042061      -2.8499e-007   
