! VERSION = 6.00
BEGIN_HEADER
 ICCAP_INPUTS
  VG         V  B GROUND SMU4 0.001 LIN        1    0          5          101  0.05      
  VS         V  E GROUND SMU2 0.1 CON        0
  VB         V  C GROUND SMU3 0.1 LIN        3    0          -5         3    -2.5      
  VD         V  S GROUND SMU1 0.1 LIN        2    0.1        5          2    4.9       
 ICCAP_OUTPUTS
  IG         I  B GROUND SMU4 B
  ID         I  S GROUND SMU1 B
  IB         I  C GROUND SMU3 B
END_HEADER

BEGIN_DB
 ICCAP_VAR VS         0              
 ICCAP_VAR VB         0              
 ICCAP_VAR VD         0.1            

 #VG              IG              ID              IB             
  0               -1.3517e-009    -1.2927e-009    1.0407e-008    
  0.05            -1.3192e-009    2.26e-011       1.1282e-008    
  0.1             -2.7014e-009    1.695e-010      1.1393e-008    
  0.15            -1.9403e-009    -1.3537e-009    7.24e-010      
  0.2             -6.237e-010     -2.2736e-009    -1.1195e-008   
  0.25            -8.207e-010     -2.1979e-009    -1.1216e-008   
  0.3             2.0346e-009     -1.2464e-009    -1.6246e-008   
  0.35            1.735e-009      2.0304e-009     -8.964e-009    
  0.4             1.5264e-009     6.107e-009      -9.345e-009    
  0.45            -1.3267e-009    2.041e-008      -1.0793e-008   
  0.5             -2.5591e-009    7.3285e-008     1.1241e-008    
  0.55            5.511e-010      2.3091e-007     -1.1245e-008   
  0.6             -1.8283e-009    6.7731e-007     2.3457e-008    
  0.65            -2.6019e-009    1.6981e-006     -2.0908e-008   
  0.7             -6.03e-010      3.919e-006      -1.0741e-008   
  0.75            -1.0213e-009    7.9742e-006     -1.132e-008    
  0.8             2.1672e-009     1.4132e-005     -1.4088e-008   
  0.85            -8.95e-011      2.2785e-005     1.2334e-008    
  0.9             3.265e-010      3.3072e-005     1.0243e-008    
  0.95            7.601e-010      4.4483e-005     1.047e-008     
  1               -1.5885e-009    5.6706e-005     1.8347e-008    
  1.05            -1.3713e-009    6.9003e-005     8.806e-009     
  1.1             -2.7144e-009    8.1022e-005     1.1433e-008    
  1.15            -2.32e-009      9.273e-005      5.44e-010      
  1.2             -1.7428e-009    0.000103821     2.537e-009     
  1.25            2.5186e-009     0.00011433      6.597e-009     
  1.3             1.8645e-009     0.00012439      -3.803e-009    
  1.35            1.3915e-009     0.00013402      -9.471e-009    
  1.4             1.26e-009       0.00014323      -8.935e-009    
  1.45            2.7111e-009     0.00015197      -1.2592e-008   
  1.5             6.261e-010      0.00016056      1.0162e-008    
  1.55            -1.7292e-009    0.00016868      2.1796e-008    
  1.6             -1.4131e-009    0.00017644      6.923e-009     
  1.65            -1.314e-009     0.00018399      1.1123e-008    
  1.7             -2.4909e-009    0.00019119      1.1724e-008    
  1.75            -1.9232e-009    0.00019814      1.628e-009     
  1.8             -1.4864e-009    0.00020491      4.99e-009      
  1.85            -1.3427e-009    0.00021145      1.0121e-008    
  1.9             -2.6325e-009    0.00021783      1.104e-008     
  1.95            -2.1481e-009    0.0002239       5.52e-010      
  2               -1.6071e-009    0.00022994      3.496e-009     
  2.05            -1.38e-009      0.00023582      8.231e-009     
  2.1             -1.2983e-009    0.00024146      1.146e-008     
  2.15            -2.378e-009     0.00024708      1.309e-008     
  2.2             -8.344e-010     0.00025235      -1.1048e-008   
  2.25            -1.2107e-009    0.00025768      -1.1129e-008   
  2.3             2.67e-011       0.00026261      -1.2066e-008   
  2.35            -4.487e-010     0.00026778      -1.076e-008    
  2.4             -9.101e-010     0.0002728       -1.1338e-008   
  2.45            -1.2996e-009    0.00027765      -1.1081e-008   
  2.5             -5.95e-011      0.00028218      -1.1734e-008   
  2.55            -5.511e-010     0.00028689      -1.0709e-008   
  2.6             -9.818e-010     0.00029146      -1.1384e-008   
  2.65            2.524e-010      0.00029569      -1.348e-008    
  2.7             -1.55e-010      0.00030016      -1.1386e-008   
  2.75            -6.509e-010     0.00030444      -1.0681e-008   
  2.8             1.8757e-009     0.00030862      -1.9391e-008   
  2.85            1.395e-009      0.00031272      -9.5e-009      
  2.9             1.2627e-009     0.00031676      -8.662e-009    
  2.95            2.7121e-009     0.00032075      -1.253e-008    
  3               2.5187e-009     0.00032462      8.893e-009     
  3.05            4.265e-010      0.0003285       1.0132e-008    
  3.1             -1.3032e-009    0.00033229      2.5668e-008    
  3.15            -2.4095e-009    0.00033597      1.2465e-008    
  3.2             -7.979e-010     0.00033948      -1.0855e-008   
  3.25            -1.1799e-009    0.00034305      -1.1091e-008   
  3.3             5.75e-011       0.0003463       -1.2169e-008   
  3.35            -4.121e-010     0.00034992      -1.0724e-008   
  3.4             -8.754e-010     0.00035331      -1.1239e-008   
  3.45            -1.2652e-009    0.00035663      -1.1033e-008   
  3.5             -2.87e-011      0.00035974      -1.1922e-008   
  3.55            -5.094e-010     0.00036299      -1.0786e-008   
  3.6             -9.525e-010     0.00036622      -1.1252e-008   
  3.65            2.858e-010      0.00036907      -1.3907e-008   
  3.7             -1.1e-010       0.00037224      -1.1599e-008   
  3.75            -6.114e-010     0.00037529      -1.0807e-008   
  3.8             -1.0278e-009    0.00037825      -1.1327e-008   
  3.85            2.128e-010      0.00038092      -1.2999e-008   
  3.9             -2.084e-010     0.00038396      -1.1197e-008   
  3.95            -7.077e-010     0.00038679      -1.0832e-008   
  4               1.798e-009      0.00038942      -1.8334e-008   
  4.05            1.3707e-009     0.0003922       -9.415e-009    
  4.1             1.2577e-009     0.00039485      -8.704e-009    
  4.15            2.6654e-009     0.00039756      -1.3037e-008   
  4.2             2.5591e-009     0.00040007      8.518e-009     
  4.25            4.714e-010      0.00040264      1.0156e-008    
  4.3             -1.2981e-009    0.00040519      2.501e-008     
  4.35            -2.3641e-009    0.00040769      1.2988e-008    
  4.4             -1.7727e-009    0.00041001      2.381e-009     
  4.45            -1.4283e-009    0.00041243      6.182e-009     
  4.5             -1.3213e-009    0.00041483      1.0889e-008    
  4.55            -2.5489e-009    0.00041711      1.1057e-008    
  4.6             -1.9907e-009    0.00041932      1.278e-009     
  4.65            -1.5132e-009    0.00042154      4.538e-009     
  4.7             -1.3533e-009    0.00042377      9.674e-009     
  4.75            -2.6751e-009    0.00042596      1.1291e-008    
  4.8             -2.2346e-009    0.00042799      7.34e-010      
  4.85            -9.116e-010     0.00043008      -1.1286e-008   
  4.9             -1.3043e-009    0.00043215      -1.1152e-008   
  4.95            -5.82e-011      0.00043406      -1.183e-008    
  5               -5.521e-010     0.00043612      -1.072e-008    
END_DB

BEGIN_DB
 ICCAP_VAR VS         0              
 ICCAP_VAR VB         0              
 ICCAP_VAR VD         5              

 #VG              IG              ID              IB             
  0               -1.3529e-009    -1.2504e-009    1.0192e-008    
  0.05            -1.3263e-009    5.489e-010      1.1288e-008    
  0.1             -1.2998e-009    2.3394e-009     1.1044e-008    
  0.15            -2.6392e-009    8.9081e-009     1.2377e-008    
  0.2             2.5237e-009     3.3302e-008     9.562e-009     
  0.25            2.8544e-009     1.1901e-007     -2.2954e-008   
  0.3             2.4113e-009     4.0772e-007     -3.959e-008    
  0.35            2.204e-010      1.2946e-006     -1.0918e-007   
  0.4             -2.043e-010     3.5289e-006     -3.2475e-007   
  0.45            -6.968e-010     8.5269e-006     -7.4267e-007   
  0.5             -1.709e-010     1.7993e-005     -1.4828e-006   
  0.55            2.316e-010      3.319e-005      -2.6446e-006   
  0.6             6.724e-010      5.4448e-005     -4.2403e-006   
  0.65            1.0632e-009     8.1719e-005     -6.2058e-006   
  0.7             2.58e-009       0.00011547      -8.4736e-006   
  0.75            2.884e-009      0.00015367      -1.09083e-005  
  0.8             -2.7037e-009    0.00019681      -1.3574e-005   
  0.85            -2.2882e-009    0.0002424       -1.6271e-005   
  0.9             -1.6898e-009    0.0002912       -1.8959e-005   
  0.95            -1.399e-009     0.00034241      -2.161e-005    
  1               -1.314e-009     0.00039564      -2.42e-005     
  1.05            -2.5032e-009    0.00045047      -2.6736e-005   
  1.1             -1.9093e-009    0.00050617      -2.9177e-005   
  1.15            -1.4715e-009    0.00056428      -3.1527e-005   
  1.2             -1.3447e-009    0.00062251      -3.3698e-005   
  1.25            -2.6578e-009    0.00068165      -3.5765e-005   
  1.3             -2.1601e-009    0.00074081      -3.7724e-005   
  1.35            -1.6014e-009    0.00080098      -3.9535e-005   
  1.4             -1.3792e-009    0.0008616       -4.1191e-005   
  1.45            -1.3047e-009    0.00092264      -4.2727e-005   
  1.5             -2.4157e-009    0.00098408      -4.415e-005    
  1.55            -1.8064e-009    0.00104513      -4.5448e-005   
  1.6             -1.4374e-009    0.00110698      -4.6608e-005   
  1.65            2.5169e-009     0.0011674       -4.7636e-005   
  1.7             1.8274e-009     0.0012297       -4.8551e-005   
  1.75            1.3834e-009     0.0012918       -4.9381e-005   
  1.8             1.2624e-009     0.0013539       -5.0079e-005   
  1.85            2.7163e-009     0.0014157       -5.0679e-005   
  1.9             2.1072e-009     0.0014787       -5.1175e-005   
  1.95            1.5131e-009     0.0015404       -5.158e-005    
  2               1.2951e-009     0.0016025       -5.1887e-005   
  2.05            2.8569e-009     0.0016643       -5.2111e-005   
  2.1             2.3864e-009     0.0017268       -5.2244e-005   
  2.15            1.7218e-009     0.0017889       -5.231e-005    
  2.2             1.3476e-009     0.0018507       -5.2294e-005   
  2.25            1.2517e-009     0.0019125       -5.221e-005    
  2.3             2.6437e-009     0.001974        -5.2066e-005   
  2.35            1.9868e-009     0.0020364       -5.1853e-005   
  2.4             1.4477e-009     0.0020976       -5.1588e-005   
  2.45            1.2798e-009     0.0021587       -5.1264e-005   
  2.5             2.8063e-009     0.0022199       -5.0893e-005   
  2.55            2.2682e-009     0.002282        -5.0465e-005   
  2.6             1.6181e-009     0.0023426       -5.0002e-005   
  2.65            1.3194e-009     0.0024037       -4.9506e-005   
  2.7             2.899e-009      0.0024643       -4.8966e-005   
  2.75            2.5338e-009     0.0025259       -4.8395e-005   
  2.8             1.8586e-009     0.002587        -4.7792e-005   
  2.85            1.3941e-009     0.0026479       -4.7163e-005   
  2.9             1.2681e-009     0.0027078       -4.651e-005    
  2.95            2.7429e-009     0.002768        -4.5843e-005   
  3               2.1473e-009     0.0028282       -4.5134e-005   
  3.05            1.5348e-009     0.0028883       -4.4437e-005   
  3.1             1.2999e-009     0.0029479       -4.3703e-005   
  3.15            2.8698e-009     0.0030071       -4.2972e-005   
  3.2             2.4293e-009     0.0030671       -4.2214e-005   
  3.25            1.7525e-009     0.0031264       -4.146e-005    
  3.3             1.3612e-009     0.0031856       -4.0708e-005   
  3.35            1.258e-009      0.0032446       -3.9936e-005   
  3.4             2.6734e-009     0.0033035       -3.9179e-005   
  3.45            2.0284e-009     0.0033629       -3.8398e-005   
  3.5             1.4734e-009     0.0034212       -3.7631e-005   
  3.55            1.2865e-009     0.0034797       -3.6867e-005   
  3.6             2.8298e-009     0.0035378       -3.61e-005     
  3.65            2.322e-009      0.0035963       -3.5325e-005   
  3.7             1.656e-009      0.0036543       -3.4561e-005   
  3.75            1.3308e-009     0.003712        -3.3803e-005   
  3.8             2.9167e-009     0.0037696       -3.3046e-005   
  3.85            2.5674e-009     0.0038275       -3.2301e-005   
  3.9             1.9153e-009     0.003885        -3.1565e-005   
  3.95            1.4175e-009     0.0039417       -3.0841e-005   
  4               1.2775e-009     0.0039987       -3.0122e-005   
  4.05            2.7718e-009     0.0040553       -2.9415e-005   
  4.1             2.2033e-009     0.004113        -2.8702e-005   
  4.15            1.5812e-009     0.0041693       -2.8018e-005   
  4.2             1.3168e-009     0.0042258       -2.7333e-005   
  4.25            2.8914e-009     0.0042818       -2.6669e-005   
  4.3             2.4867e-009     0.0043384       -2.6002e-005   
  4.35            1.8062e-009     0.0043944       -2.5365e-005   
  4.4             1.3898e-009     0.0044501       -2.472e-005    
  4.45            1.2783e-009     0.0045064       -2.4101e-005   
  4.5             2.7156e-009     0.0045617       -2.3482e-005   
  4.55            2.0918e-009     0.0046175       -2.2879e-005   
  4.6             1.5118e-009     0.0046724       -2.2288e-005   
  4.65            1.3194e-009     0.004727        -2.1717e-005   
  4.7             2.8759e-009     0.0047817       -2.1154e-005   
  4.75            2.3924e-009     0.0048369       -2.0588e-005   
  4.8             1.7227e-009     0.0048912       -2.0048e-005   
  4.85            1.3809e-009     0.0049454       -1.952e-005    
  4.9             1.2958e-009     0.0049991       -1.9004e-005   
  4.95            2.683e-009      0.0050531       -1.8487e-005   
  5               2.0067e-009     0.0051072       -1.7984e-005   
END_DB

BEGIN_DB
 ICCAP_VAR VS         0              
 ICCAP_VAR VB         -2.5           
 ICCAP_VAR VD         0.1            

 #VG              IG              ID              IB             
  0               -7.661e-010     -8.201e-010     -2.6329e-008   
  0.05            -1.307e-009     1.6076e-009     1.9927e-008    
  0.1             -2.6692e-009    2.377e-010      1.2719e-008    
  0.15            -1.9713e-009    -1.2966e-009    7.76e-010      
  0.2             -7.007e-010     -2.3009e-009    -1.1388e-008   
  0.25            1.2559e-009     -1.5972e-009    -1.8611e-008   
  0.3             2.8716e-009     -1.965e-010     -1.3537e-008   
  0.35            1.66e-010       2.1701e-009     1.0211e-008    
  0.4             3.467e-010      2.2813e-009     1.0258e-008    
  0.45            5.299e-010      2.3692e-009     1.0633e-008    
  0.5             -1.3282e-009    1.5174e-009     2.4406e-008    
  0.55            -1.301e-009     2.585e-010      1.1219e-008    
  0.6             -2.645e-009     8.451e-010      1.3202e-008    
  0.65            -2.4867e-009    1.4452e-009     7.8e-010       
  0.7             -2.2725e-009    8.3054e-009     1.909e-009     
  0.75            1.2544e-009     3.3947e-008     1.0154e-008    
  0.8             -6.534e-010     1.1865e-007     1.1467e-008    
  0.85            -1.0684e-009    3.9715e-007     -1.1222e-008   
  0.9             1.3461e-009     1.1317e-006     1.0178e-008    
  0.95            1.2561e-009     2.8685e-006     -8.521e-009    
  1               2.6677e-009     6.2448e-006     -1.3715e-008   
  1.05            -1.8036e-009    1.2039e-005     3.41e-010      
  1.1             -1.4253e-009    1.997e-005      6.282e-009     
  1.15            -1.3226e-009    3.0079e-005     1.0549e-008    
  1.2             -2.5774e-009    4.1316e-005     1.1382e-008    
  1.25            -2.0269e-009    5.3255e-005     1.092e-009     
  1.3             -1.5215e-009    6.5303e-005     4.327e-009     
  1.35            -1.3513e-009    7.7249e-005     9.152e-009     
  1.4             -2.6957e-009    8.8772e-005     1.1366e-008    
  1.45            -2.2857e-009    9.9653e-005     6.25e-010      
  1.5             -9.024e-010     0.000110082     -1.1288e-008   
  1.55            -2.6517e-009    0.00012001      -1.0928e-008   
  1.6             -6.717e-010     0.00012942      -1.0833e-008   
  1.65            1.852e-009      0.00013825      -1.9252e-008   
  1.7             1.3738e-009     0.00014681      -9.511e-009    
  1.75            1.2646e-009     0.00015493      -8.596e-009    
  1.8             2.7327e-009     0.0001627       -1.274e-008    
  1.85            2.5358e-009     0.00017029      8.859e-009     
  1.9             4.311e-010      0.00017752      1.0121e-008    
  1.95            8.594e-010      0.00018437      1.0807e-008    
  2               -1.5003e-009    0.00019105      1.5808e-008    
  2.05            -1.3456e-009    0.00019756      9.676e-009     
  2.1             -2.674e-009     0.00020384      1.1203e-008    
  2.15            -2.2265e-009    0.00020978      6.46e-010      
  2.2             -1.6459e-009    0.00021566      3.303e-009     
  2.25            -1.3831e-009    0.00022134      7.664e-009     
  2.3             -1.306e-009     0.00022686      1.1191e-008    
  2.35            -2.4587e-009    0.00023227      1.254e-008     
  2.4             -1.8597e-009    0.00023745      2.269e-009     
  2.45            -1.4475e-009    0.00024255      5.691e-009     
  2.5             -1.3286e-009    0.00024751      1.0096e-008    
  2.55            -2.6255e-009    0.0002524       1.107e-008     
  2.6             -2.1076e-009    0.00025708      9.26e-010      
  2.65            -1.5643e-009    0.00026173      3.956e-009     
  2.7             -1.3625e-009    0.0002663       8.567e-009     
  2.75            -2.7236e-009    0.00027068      1.1267e-008    
  2.8             -2.3557e-009    0.0002751       4.41e-010      
  2.85            -1.7502e-009    0.00027932      2.546e-009     
  2.9             -1.4128e-009    0.00028351      6.555e-009     
  2.95            -1.3146e-009    0.00028758      1.087e-008     
  3               -2.5525e-009    0.00029157      1.1247e-008    
  3.05            -1.9901e-009    0.00029544      1.236e-009     
  3.1             -1.5006e-009    0.00029926      4.551e-009     
  3.15            -1.3439e-009    0.00030303      9.653e-009     
  3.2             -2.6816e-009    0.00030673      1.1277e-008    
  3.25            -2.2513e-009    0.00031035      5.73e-010      
  3.3             -1.6612e-009    0.00031391      3.187e-009     
  3.35            -1.3836e-009    0.00031738      7.398e-009     
  3.4             -1.3048e-009    0.00032083      1.1204e-008    
  3.45            -2.4745e-009    0.00032429      1.2413e-008    
  3.5             -1.8757e-009    0.00032754      2.001e-009     
  3.55            -1.4546e-009    0.00033079      5.566e-009     
  3.6             -1.3318e-009    0.00033398      9.992e-009     
  3.65            -2.6323e-009    0.00033711      1.0976e-008    
  3.7             -2.1355e-009    0.00034018      7.84e-010      
  3.75            -1.5841e-009    0.00034323      3.912e-009     
  3.8             -1.3631e-009    0.00034622      8.41e-009      
  3.85            -2.7254e-009    0.00034912      1.1404e-008    
  3.9             -2.3767e-009    0.00035201      4.78e-010      
  3.95            -8.328e-010     0.00035484      -1.1038e-008   
  4               -1.213e-009     0.00035769      -1.1156e-008   
  4.05            2.65e-011       0.00036025      -1.1835e-008   
  4.1             -4.393e-010     0.00036306      -1.0652e-008   
  4.15            -8.988e-010     0.00036578      -1.1294e-008   
