! VERSION = 6.00
BEGIN_HEADER
 ICCAP_INPUTS
  VG         V  B GROUND SMU4 0.001 LIN        2    0          5          6    1         
  VS         V  E GROUND SMU3 0.1 CON        0
  VD         V  S GROUND SMU2 0.1 LIN        1    0          5          101  0.05      
  VB         V  C GROUND SMU1 0.1 LIN        3    0          -2.5       2    -2.5      
 ICCAP_OUTPUTS
  ID         I  S GROUND SMU2 B
  IB         I  C GROUND SMU1 B
  IG         I  B GROUND SMU4 B
END_HEADER

BEGIN_DB
 ICCAP_VAR VG         0              
 ICCAP_VAR VS         0              
 ICCAP_VAR VB         0              

 #VD              ID              IB              IG             
  0               -2.3679e-009    1.3558e-008     -3.996e-010    
  0.05            -1.6287e-009    -1.2629e-008    1.3849e-009    
  0.1             1.5759e-009     1.2697e-008     -1.3951e-009   
  0.15            -1.5588e-009    -1.2752e-008    1.3976e-009    
  0.2             1.5067e-009     1.3031e-008     -1.4022e-009   
  0.25            -1.4875e-009    -1.2939e-008    1.3996e-009    
  0.3             1.4454e-009     1.3324e-008     -1.4039e-009   
  0.35            -1.4247e-009    -1.3298e-008    1.3992e-009    
  0.4             1.3941e-009     1.3552e-008     -1.403e-009    
  0.45            -1.3751e-009    -1.3526e-008    1.3927e-009    
  0.5             1.3448e-009     1.3689e-008     -1.3283e-009   
  0.55            -1.2577e-009    -1.3193e-008    1.3502e-009    
  0.6             1.9784e-009     1.244e-008      -1.348e-009    
  0.65            -1.9511e-009    -1.2626e-008    1.356e-009     
  0.7             1.8928e-009     1.2476e-008     -1.3562e-009   
  0.75            -1.8691e-009    -1.2557e-008    1.3617e-009    
  0.8             1.8139e-009     1.2324e-008     -1.366e-009    
  0.85            -1.783e-009     -1.2474e-008    1.3691e-009    
  0.9             1.723e-009      1.242e-008      -1.3711e-009   
  0.95            -1.7012e-009    -1.245e-008     1.377e-009     
  1               1.65e-009       1.2517e-008     -1.3841e-009   
  1.05            -1.6244e-009    -1.2593e-008    1.388e-009     
  1.1             1.5768e-009     1.2648e-008     -1.3962e-009   
  1.15            -1.5513e-009    -1.2811e-008    1.395e-009     
  1.2             1.5049e-009     1.297e-008      -1.4015e-009   
  1.25            -1.4893e-009    -1.2918e-008    1.4e-009       
  1.3             1.4495e-009     1.3321e-008     -1.4031e-009   
  1.35            -1.4236e-009    -1.3332e-008    1.3973e-009    
  1.4             1.3892e-009     1.3519e-008     -1.4035e-009   
  1.45            -1.3651e-009    -1.3516e-008    1.3936e-009    
  1.5             1.3377e-009     1.3639e-008     -1.3299e-009   
  1.55            -1.25e-009      -1.3109e-008    1.3511e-009    
  1.6             1.9689e-009     1.2461e-008     -1.349e-009    
  1.65            -1.9448e-009    -1.2605e-008    1.3609e-009    
  1.7             1.8895e-009     1.2458e-008     -1.3571e-009   
  1.75            -1.8649e-009    -1.249e-008     1.365e-009     
  1.8             1.8045e-009     1.224e-008      -1.3654e-009   
  1.85            -1.7716e-009    -1.2355e-008    1.3711e-009    
  1.9             1.7206e-009     1.2343e-008     -1.3753e-009   
  1.95            -1.6903e-009    -1.2422e-008    1.3806e-009    
  2               1.635e-009      1.2428e-008     -1.3884e-009   
  2.05            -1.6119e-009    -1.249e-008     1.3899e-009    
  2.1             1.56e-009       1.2648e-008     -1.3959e-009   
  2.15            -1.5357e-009    -1.2747e-008    1.3963e-009    
  2.2             1.492e-009      1.3034e-008     -1.3992e-009   
  2.25            -1.4733e-009    -1.3085e-008    1.3956e-009    
  2.3             1.4287e-009     1.3284e-008     -1.4002e-009   
  2.35            -1.4096e-009    -1.3349e-008    1.3933e-009    
  2.4             1.374e-009      1.3623e-008     -1.398e-009    
  2.45            -1.3542e-009    -1.3554e-008    1.3358e-009    
  2.5             1.2632e-009     1.3519e-008     -1.3461e-009   
  2.55            -1.9968e-009    -1.2505e-008    1.352e-009     
  2.6             1.9401e-009     1.2542e-008     -1.3535e-009   
  2.65            -1.9204e-009    -1.2578e-008    1.3577e-009    
  2.7             1.8565e-009     1.2424e-008     -1.3595e-009   
  2.75            -1.8241e-009    -1.2471e-008    1.3669e-009    
  2.8             1.7681e-009     1.2306e-008     -1.3715e-009   
  2.85            -1.7297e-009    -1.2526e-008    1.3774e-009    
  2.9             1.6801e-009     1.2351e-008     -1.3825e-009   
  2.95            -1.6506e-009    -1.2468e-008    1.3865e-009    
  3               1.5969e-009     1.2513e-008     -1.3962e-009   
  3.05            -1.573e-009     -1.2674e-008    1.3989e-009    
  3.1             1.5281e-009     1.2793e-008     -1.4038e-009   
  3.15            -1.5042e-009    -1.2855e-008    1.4036e-009    
  3.2             1.4591e-009     1.3091e-008     -1.4103e-009   
  3.25            -1.4378e-009    -1.3097e-008    1.404e-009     
  3.3             1.4013e-009     1.3339e-008     -1.4089e-009   
  3.35            -1.3789e-009    -1.343e-008     1.3993e-009    
  3.4             1.3504e-009     1.3529e-008     -1.3988e-009   
  3.45            -1.3277e-009    -1.3321e-008    1.3322e-009    
  3.5             1.237e-009      1.3017e-008     -1.3467e-009   
  3.55            -1.9502e-009    -1.2656e-008    1.3541e-009    
  3.6             1.8957e-009     1.2575e-008     -1.3573e-009   
  3.65            -1.8695e-009    -1.26e-008      1.3666e-009    
  3.7             1.817e-009      1.244e-008      -1.3684e-009   
  3.75            -1.7776e-009    -1.2461e-008    1.3764e-009    
  3.8             1.7267e-009     1.2425e-008     -1.3853e-009   
  3.85            -1.6968e-009    -1.2558e-008    1.3862e-009    
  3.9             1.6391e-009     1.2548e-008     -1.3965e-009   
  3.95            -1.6191e-009    -1.2567e-008    1.4013e-009    
  4               1.5698e-009     1.26e-008       -1.4063e-009   
  4.05            -1.5412e-009    -1.2779e-008    1.4089e-009    
  4.1             1.4969e-009     1.2809e-008     -1.4171e-009   
  4.15            -1.4753e-009    -1.2841e-008    1.4132e-009    
  4.2             1.4338e-009     1.3132e-008     -1.4171e-009   
  4.25            -1.415e-009     -1.3127e-008    1.4094e-009    
  4.3             1.3799e-009     1.3287e-008     -1.4072e-009   
  4.35            -1.356e-009     -1.3347e-008    1.3236e-009    
  4.4             1.2609e-009     1.3025e-008     -1.3432e-009   
  4.45            -1.9885e-009    -1.2615e-008    1.3471e-009    
  4.5             1.9442e-009     1.2678e-008     -1.3521e-009   
  4.55            -1.9073e-009    -1.2668e-008    1.3601e-009    
  4.6             1.8604e-009     1.2609e-008     -1.3631e-009   
  4.65            -1.8241e-009    -1.2518e-008    1.3699e-009    
  4.7             1.7688e-009     1.2459e-008     -1.381e-009    
  4.75            -1.7409e-009    -1.2594e-008    1.382e-009     
  4.8             1.6911e-009     1.2447e-008     -1.3914e-009   
  4.85            -1.6637e-009    -1.2614e-008    1.3957e-009    
  4.9             1.6122e-009     1.2584e-008     -1.4011e-009   
  4.95            -1.5867e-009    -1.2708e-008    1.4052e-009    
  5               1.5441e-009     1.2652e-008     -1.4163e-009   
END_DB

BEGIN_DB
 ICCAP_VAR VG         1              
 ICCAP_VAR VS         0              
 ICCAP_VAR VB         0              

 #VD              ID              IB              IG             
  0               7.9885e-008     -1.2687e-008    3.294e-010     
  0.05            5.3202e-006     1.239e-008      1.1604e-009    
  0.1             9.4204e-006     -7.129e-009     1.3599e-009    
  0.15            1.2434e-005     1.2667e-008     -6.386e-010    
  0.2             1.4602e-005     3.626e-009      -1.376e-009    
  0.25            1.6134e-005     1.2903e-008     -1.3734e-009   
  0.3             1.7224e-005     1.3513e-008     -1.4049e-009   
  0.35            1.8069e-005     1.2547e-008     -1.3425e-009   
  0.4             1.881e-005      1.291e-008      -1.3721e-009   
  0.45            1.9333e-005     1.3441e-008     -1.4074e-009   
  0.5             1.9801e-005     1.2662e-008     -1.3436e-009   
  0.55            2.0287e-005     1.2979e-008     -1.3785e-009   
  0.6             2.0668e-005     1.3421e-008     -1.4065e-009   
  0.65            2.106e-005      1.2574e-008     -1.3444e-009   
  0.7             2.1418e-005     1.3071e-008     -1.3828e-009   
  0.75            2.1744e-005     1.3358e-008     -1.4051e-009   
  0.8             2.2051e-005     1.2623e-008     -1.3485e-009   
  0.85            2.2397e-005     1.3211e-008     -1.3868e-009   
  0.9             2.2707e-005     1.3221e-008     -1.4029e-009   
  0.95            2.2984e-005     1.2678e-008     -1.3503e-009   
  1               2.3269e-005     1.3268e-008     -1.3902e-009   
  1.05            2.3543e-005     1.3132e-008     -1.4009e-009   
  1.1             2.3793e-005     1.2649e-008     -1.3523e-009   
  1.15            2.4068e-005     1.341e-008      -1.3944e-009   
  1.2             2.4271e-005     1.3066e-008     -1.3985e-009   
  1.25            2.4482e-005     1.2673e-008     -1.3572e-009   
  1.3             2.4747e-005     1.3454e-008     -1.3964e-009   
  1.35            2.4967e-005     1.292e-008      -1.3919e-009   
  1.4             2.5184e-005     1.2629e-008     -1.3578e-009   
  1.45            2.5423e-005     1.3477e-008     -1.401e-009    
  1.5             2.5616e-005     1.2755e-008     -1.3303e-009   
  1.55            2.5897e-005     1.2533e-008     -1.3609e-009   
  1.6             2.6091e-005     1.3564e-008     -1.401e-009    
  1.65            2.6282e-005     1.2712e-008     -1.3318e-009   
  1.7             2.6536e-005     1.2666e-008     -1.3651e-009   
  1.75            2.6684e-005     1.3578e-008     -1.4025e-009   
  1.8             2.69e-005       1.2656e-008     -1.3372e-009   
  1.85            2.7063e-005     1.2655e-008     -1.3672e-009   
  1.9             2.731e-005      1.3414e-008     -1.4039e-009   
  1.95            2.7413e-005     1.25e-008       -1.3397e-009   
  2               2.7615e-005     1.2576e-008     -1.3709e-009   
  2.05            2.7784e-005     6.785e-009      -1.3563e-009   
  2.1             2.8039e-005     1.2898e-008     -1.3939e-009   
  2.15            2.8139e-005     1.225e-008      -1.3957e-009   
  2.2             2.8273e-005     1.1687e-008     -1.358e-009    
  2.25            2.8463e-005     1.2238e-008     -1.4e-009      
  2.3             2.8622e-005     1.121e-008      -1.3299e-009   
  2.35            2.8829e-005     9.886e-009      -1.3975e-009   
  2.4             2.9053e-005     7.61e-010       -1.4049e-009   
  2.45            2.9156e-005     9.275e-009      -1.3433e-009   
  2.5             2.9306e-005     -1.6182e-008    1.3524e-009    
  2.55            2.9347e-005     -1.8323e-008    1.3878e-009    
  2.6             2.9606e-005     -1.9488e-008    1.3941e-009    
  2.65            2.9707e-005     -2.027e-008     1.356e-009     
  2.7             2.9862e-005     -2.2466e-008    1.3887e-009    
  2.75            3.0074e-005     -2.408e-008     1.3919e-009    
  2.8             3.0249e-005     -2.5794e-008    1.3594e-009    
  2.85            3.0331e-005     -2.889e-008     1.389e-009     
  2.9             3.0489e-005     -3.135e-008     1.3306e-009    
  2.95            3.0626e-005     -3.4039e-008    1.3616e-009    
  3               3.0834e-005     -3.8659e-008    1.3935e-009    
  3.05            3.106e-005      -4.2397e-008    1.3361e-009    
  3.1             3.1193e-005     -4.6697e-008    1.3625e-009    
  3.15            3.1299e-005     -5.313e-008     1.393e-009     
  3.2             3.1565e-005     -5.8573e-008    1.3384e-009    
  3.25            3.1607e-005     -6.52e-008      1.3669e-009    
  3.3             3.1789e-005     -7.3909e-008    1.3941e-009    
  3.35            3.1982e-005     -8.2024e-008    1.3432e-009    
  3.4             3.2069e-005     -9.167e-008     1.3694e-009    
  3.45            3.2263e-005     -1.03691e-007   1.3953e-009    
  3.5             3.2438e-005     -9.545e-008     8.636e-010     
  3.55            3.2672e-005     -1.2262e-007    1.3705e-009    
  3.6             3.2793e-005     -1.4585e-007    1.3938e-009    
  3.65            3.2984e-005     -1.624e-007     1.3443e-009    
  3.7             3.3109e-005     -1.8144e-007    1.3707e-009    
  3.75            3.3316e-005     -2.0352e-007    1.3971e-009    
  3.8             3.348e-005      -2.2661e-007    1.3489e-009    
  3.85            3.368e-005      -2.5274e-007    1.375e-009     
  3.9             3.3789e-005     -2.82e-007      1.3953e-009    
  3.95            3.4042e-005     -3.1367e-007    1.3501e-009    
  4               3.4246e-005     -3.4889e-007    1.3777e-009    
  4.05            3.4428e-005     -3.8747e-007    1.3927e-009    
  4.1             3.4592e-005     -4.2932e-007    1.3541e-009    
  4.15            3.4816e-005     -4.7594e-007    1.3766e-009    
  4.2             3.4994e-005     -5.2705e-007    1.393e-009     
  4.25            3.5274e-005     -5.8028e-007    1.3555e-009    
  4.3             3.5398e-005     -6.415e-007     1.3834e-009    
  4.35            3.5703e-005     -7.0607e-007    1.3891e-009    
  4.4             3.5867e-005     -7.7428e-007    1.3592e-009    
  4.45            3.6065e-005     -8.505e-007     1.3842e-009    
  4.5             3.634e-005      -9.3188e-007    1.3882e-009    
  4.55            3.6663e-005     -1.01835e-006   1.3593e-009    
  4.6             3.6861e-005     -1.11764e-006   1.3856e-009    
  4.65            3.7123e-005     -1.2064e-006    1.3261e-009    
  4.7             3.749e-005      -1.3243e-006    1.3843e-009    
  4.75            3.7716e-005     -1.4414e-006    1.3863e-009    
  4.8             3.8009e-005     -1.5619e-006    1.3592e-009    
  4.85            3.8257e-005     -1.6965e-006    1.3866e-009    
  4.9             3.8614e-005     -1.8341e-006    1.3844e-009    
  4.95            3.894e-005      -1.9823e-006    1.3648e-009    
  5               3.9268e-005     -2.1407e-006    1.3874e-009    
END_DB

BEGIN_DB
 ICCAP_VAR VG         2              
 ICCAP_VAR VS         0              
 ICCAP_VAR VB         0              

 #VD              ID              IB              IG             
  0               3.2997e-007     -1.3309e-008    6.35e-011      
  0.05            2.1431e-005     -1.3351e-008    7.656e-010     
  0.1             4.2111e-005     -4.016e-009     1.4023e-009    
  0.15            6.1892e-005     -1.2722e-008    1.3388e-009    
  0.2             8.0817e-005     -1.2622e-008    1.3684e-009    
  0.25            9.868e-005      -1.3524e-008    1.4034e-009    
  0.3             0.00011555      1.1697e-008     -1.4076e-009   
  0.35            0.00013118      1.3099e-008     -1.403e-009    
  0.4             0.00014562      1.2807e-008     -1.3487e-009   
  0.45            0.00015878      1.2683e-008     -1.3687e-009   
  0.5             0.0001706       1.3268e-008     -1.4015e-009   
  0.55            0.00018118      1.3389e-008     -1.4114e-009   
  0.6             0.00019057      1.2759e-008     -1.3343e-009   
  0.65            0.00019874      1.2426e-008     -1.3572e-009   
  0.7             0.0002058       1.2859e-008     -1.3828e-009   
  0.75            0.00021189      1.3496e-008     -1.4095e-009   
  0.8             0.00021703      1.3162e-008     -1.4074e-009   
  0.85            0.00022142      1.2802e-008     -1.3442e-009   
  0.9             0.00022526      1.2561e-008     -1.3657e-009   
  0.95            0.00022844      1.3109e-008     -1.3957e-009   
  1               0.0002311       7.182e-009      -1.3597e-009   
  1.05            0.00023364      1.286e-008      -1.3869e-009   
  1.1             0.00023575      1.3496e-008     -1.4098e-009   
  1.15            0.00023765      1.314e-008      -1.4069e-009   
  1.2             0.0002393       1.2834e-008     -1.3468e-009   
  1.25            0.00024089      1.2633e-008     -1.3672e-009   
  1.3             0.00024224      1.3233e-008     -1.3989e-009   
  1.35            0.00024358      1.3379e-008     -1.4136e-009   
  1.4             0.00024478      1.2931e-008     -1.3321e-009   
  1.45            0.00024597      1.2364e-008     -1.3556e-009   
  1.5             0.00024704      1.2863e-008     -1.3818e-009   
  1.55            0.00024806      1.3373e-008     -1.4107e-009   
  1.6             0.00024894      1.3196e-008     -1.4118e-009   
  1.65            0.00024989      1.2826e-008     -1.3422e-009   
  1.7             0.00025085      1.2548e-008     -1.3652e-009   
  1.75            0.00025164      1.3048e-008     -1.3965e-009   
  1.8             0.0002524       1.3483e-008     -1.4155e-009   
  1.85            0.00025313      1.2938e-008     -1.329e-009    
  1.9             0.0002539       1.2473e-008     -1.3525e-009   
  1.95            0.00025471      1.2665e-008     -1.3798e-009   
  2               0.00025536      1.331e-008      -1.4102e-009   
  2.05            0.00025605      1.3164e-008     -1.416e-009    
  2.1             0.00025658      1.2677e-008     -1.3367e-009   
  2.15            0.00025735      1.2173e-008     -1.3615e-009   
  2.2             0.00025792      1.2608e-008     -1.3948e-009   
  2.25            0.0002585       1.2875e-008     -1.4168e-009   
  2.3             0.00025906      1.2273e-008     -1.4051e-009   
  2.35            0.00025962      1.1848e-008     -1.3468e-009   
  2.4             0.00026015      9.884e-009      -1.313e-009    
  2.45            0.00026071      1.0404e-008     -1.3393e-009   
  2.5             0.00026116      9.132e-009      -1.4077e-009   
  2.55            0.00026174      9.182e-009      -1.3481e-009   
  2.6             0.00026212      -1.7534e-008    1.3439e-009    
  2.65            0.0002625       -1.8969e-008    1.3684e-009    
  2.7             0.00026296      -2.1308e-008    1.4012e-009    
  2.75            0.00026346      -2.3929e-008    1.4144e-009    
  2.8             0.00026396      -2.6352e-008    1.3275e-009    
  2.85            0.00026437      -2.9494e-008    1.3527e-009    
  2.9             0.00026483      -3.3781e-008    1.3803e-009    
  2.95            0.00026528      -3.9288e-008    1.4109e-009    
  3               0.00026572      -4.5203e-008    1.4115e-009    
  3.05            0.00026615      -5.194e-008     1.3387e-009    
  3.1             0.00026656      -6.0006e-008    1.3661e-009    
  3.15            0.00026698      -6.9928e-008    1.3976e-009    
  3.2             0.00026739      -8.189e-008     1.4159e-009    
  3.25            0.00026784      -9.4909e-008    1.4013e-009    
  3.3             0.00026826      -1.10265e-007   1.354e-009     
  3.35            0.00026876      -1.2724e-007    6.667e-010     
  3.4             0.00026923      -1.4196e-007    -8.443e-010    
  3.45            0.00026966      -1.521e-007     -1.3738e-009   
  3.5             0.00027009      -1.7303e-007    -1.4047e-009   
  3.55            0.00027051      -2.035e-007     -1.4204e-009   
  3.6             0.00027095      -2.3895e-007    -1.3276e-009   
  3.65            0.00027141      -2.7966e-007    -1.3555e-009   
  3.7             0.00027187      -3.248e-007     -1.386e-009    
  3.75            0.00027228      -3.757e-007     -1.4152e-009   
  3.8             0.00027269      -4.3351e-007    -1.4166e-009   
  3.85            0.00027312      -4.9945e-007    -1.3385e-009   
  3.9             0.00027363      -5.7378e-007    -1.3695e-009   
  3.95            0.00027412      -6.5649e-007    -1.3981e-009   
  4               0.00027456      -7.4889e-007    -1.4208e-009   
  4.05            0.00027504      -8.5337e-007    -1.4075e-009   
  4.1             0.00027553      -9.7012e-007    -1.3503e-009   
  4.15            0.00027617      -1.1006e-006    -1.3802e-009   
