! VERSION = 6.00
BEGIN_HEADER
 ICCAP_INPUTS
  VG         V  B GROUND SMU4 0.001 LIN        2    0          5          6    1         
  VS         V  E GROUND SMU2 0.1 CON        0
  VD         V  S GROUND SMU1 0.1 LIN        1    0          5          101  0.05      
  VB         V  C GROUND SMU3 0.1 LIN        3    0          -2.5       2    -2.5      
 ICCAP_OUTPUTS
  ID         I  S GROUND SMU1 B
  IB         I  C GROUND SMU3 B
  IG         I  B GROUND SMU4 B
END_HEADER

BEGIN_DB
 ICCAP_VAR VG         0              
 ICCAP_VAR VS         0              
 ICCAP_VAR VB         0              

 #VD              ID              IB              IG             
  0               5.013e-010      1.812e-008      3.955e-010     
  0.05            -8.16e-010      -1.8818e-008    2.1462e-009    
  0.1             2.0129e-009     -8.174e-009     1.5224e-009    
  0.15            1.4128e-009     2.8743e-008     -1.3842e-009   
  0.2             9.5e-012        1.2655e-008     -1.3777e-009   
  0.25            1.513e-010      1.387e-008      -2.6913e-009   
  0.3             -1.5697e-009    -2.1621e-008    2.3938e-009    
  0.35            2.1648e-009     -6.339e-009     1.3855e-009    
  0.4             1.2993e-009     2.9581e-008     -1.3788e-009   
  0.45            -2.1368e-009    1.1421e-008     -1.3115e-009   
  0.5             -1.998e-009     -1.0418e-008    -1.4843e-009   
  0.55            -1.3824e-009    -2.6624e-008    1.3245e-009    
  0.6             8.66e-011       -9.133e-009     1.3281e-009    
  0.65            -3.52e-011      -1.2258e-008    2.871e-009     
  0.7             1.4317e-009     2.8182e-008     -1.3836e-009   
  0.75            2.57e-011       1.2763e-008     -1.3752e-009   
  0.8             1.734e-010      1.4106e-008     -2.6838e-009   
  0.85            -1.5822e-009    -2.0637e-008    1.3236e-009    
  0.9             -1.566e-010     -1.4898e-008    2.8636e-009    
  0.95            1.5213e-009     2.4521e-008     -1.3822e-009   
  1               1.275e-010      1.3758e-008     -2.6949e-009   
  1.05            -1.5557e-009    -2.2525e-008    2.432e-009     
  1.1             2.1775e-009     -5.919e-009     1.3586e-009    
  1.15            1.2746e-009     2.9299e-008     -1.379e-009    
  1.2             -2.1497e-009    1.1188e-008     -1.2927e-009   
  1.25            -2.016e-009     -1.1433e-008    -1.4652e-009   
  1.3             -1.3636e-009    -2.6578e-008    1.3272e-009    
  1.35            9.79e-011       -8.87e-009      1.3282e-009    
  1.4             -1.71e-011      -1.1664e-008    2.8732e-009    
  1.45            1.4102e-009     2.8428e-008     -1.3815e-009   
  1.5             1e-011          1.2516e-008     -1.3774e-009   
  1.55            1.57e-010       1.3733e-008     -2.6896e-009   
  1.6             -2.1716e-009    -1.2438e-008    -1.015e-010    
  1.65            -2.2451e-009    -1.2986e-008    -3.139e-010    
  1.7             -2.2645e-009    -1.3213e-008    -5.27e-010     
  1.75            -2.2579e-009    -1.2407e-008    -7.26e-010     
  1.8             -2.2422e-009    -1.0881e-008    -8.859e-010    
  1.85            -1.6774e-009    -1.4871e-008    1.9736e-009    
  1.9             1.8932e-009     -8.903e-009     1.6139e-009    
  1.95            1.6101e-009     1.1089e-008     1.7805e-009    
  2               2.2866e-009     1.2655e-008     3.654e-010     
  2.05            2.3224e-009     1.2565e-008     5.56e-010      
  2.1             2.3444e-009     1.1255e-008     7.219e-010     
  2.15            2.3501e-009     9.75e-009       8.74e-010      
  2.2             1.7388e-009     1.477e-008      -1.7595e-009   
  2.25            -1.6918e-009    6.217e-009      -1.7408e-009   
  2.3             -1.5723e-009    -2.1437e-008    2.3861e-009    
  2.35            2.1579e-009     -6.308e-009     1.3878e-009    
  2.4             1.3006e-009     2.9358e-008     -1.3809e-009   
  2.45            -2.1368e-009    1.1326e-008     -1.3186e-009   
  2.5             -1.989e-009     -1.0552e-008    -1.485e-009    
  2.55            -1.3834e-009    -2.6652e-008    1.3253e-009    
  2.6             8.63e-011       -9.175e-009     2.8675e-009    
  2.65            1.8018e-009     4.7e-011        1.6805e-009    
  2.7             1.5047e-009     1.0444e-008     1.844e-009     
  2.75            2.3047e-009     1.2735e-008     4.382e-010     
  2.8             2.3329e-009     1.1821e-008     6.241e-010     
  2.85            2.3453e-009     1.0397e-008     7.832e-010     
  2.9             1.6589e-009     1.8009e-008     -1.9202e-009   
  2.95            -1.824e-009     5.529e-009      -1.6494e-009   
  3               -1.5061e-009    -2.4432e-008    1.328e-009     
  3.05            -2.85e-011      -1.1986e-008    2.8744e-009    
  3.1             1.4247e-009     2.8351e-008     -1.3853e-009   
  3.15            1.75e-011       1.2625e-008     -2.7151e-009   
  3.2             -1.4701e-009    -2.5699e-008    2.6136e-009    
  3.25            2.2798e-009     -4.096e-009     1.2371e-009    
  3.3             2.0203e-009     1.018e-008      -1.92e-010     
  3.35            9.225e-010      2.1944e-008     -1.6435e-009   
  3.4             -1.5896e-009    7.268e-009      -1.8071e-009   
  3.45            -2.2562e-009    -1.3125e-008    -3.667e-010    
  3.5             -2.2643e-009    -1.3005e-008    -5.763e-010    
  3.55            -2.2522e-009    -1.1652e-008    -7.676e-010    
  3.6             -1.6191e-009    -1.8473e-008    2.232e-009     
  3.65            2.0679e-009     -7.425e-009     1.4696e-009    
  3.7             1.3696e-009     2.9239e-008     -1.3823e-009   
  3.75            -3.53e-011      1.2393e-008     -1.3833e-009   
  3.8             1.092e-010      1.3424e-008     -2.6991e-009   
  3.85            -1.5417e-009    -2.3218e-008    2.469e-009     
  3.9             2.2053e-009     -5.697e-009     1.3362e-009    
  3.95            1.251e-009      2.9176e-008     -1.3816e-009   
  4               -2.1677e-009    1.0817e-008     -1.2685e-009   
  4.05            -1.9134e-009    -1.0262e-008    2.507e-010     
  4.1             -9.44e-010      -2.0421e-008    1.7919e-009    
  4.15            1.7531e-009     -9.272e-009     1.7094e-009    
  4.2             1.464e-009      1.0265e-008     1.8688e-009    
  4.25            2.3104e-009     1.2581e-008     4.804e-010     
  4.3             2.3375e-009     1.1548e-008     6.554e-010     
  4.35            2.3486e-009     1.0026e-008     8.128e-010     
  4.4             1.6834e-009     1.7104e-008     -1.8687e-009   
  4.45            -1.7859e-009    5.697e-009      -1.6809e-009   
  4.5             -1.5276e-009    -2.3519e-008    2.4897e-009    
  4.55            2.2133e-009     -5.191e-009     1.3148e-009    
  4.6             1.2368e-009     2.8773e-008     -1.3835e-009   
  4.65            -2.17e-009      1.0322e-008     -1.2494e-009   
  4.7             -1.8931e-009    -1.0118e-008    2.665e-010     
  4.75            -9.261e-010     -2.0441e-008    1.8249e-009    
  4.8             1.78e-009       -9.316e-009     1.6879e-009    
  4.85            1.4973e-009     1.0267e-008     1.8527e-009    
  4.9             2.3037e-009     1.2609e-008     4.508e-010     
  4.95            2.3352e-009     1.1729e-008     6.327e-010     
  5               2.3472e-009     1.0239e-008     7.995e-010     
END_DB

BEGIN_DB
 ICCAP_VAR VG         1              
 ICCAP_VAR VS         0              
 ICCAP_VAR VB         0              

 #VD              ID              IB              IG             
  0               -1.402e-008     -2.5112e-008    -9.526e-010    
  0.05            1.0399e-006     4.227e-009      1.0591e-009    
  0.1             1.8087e-006     -8.824e-009     1.3258e-009    
  0.15            2.3718e-006     -1.1268e-008    -1.0368e-009   
  0.2             2.7786e-006     2.0174e-008     -1.5126e-009   
  0.25            3.0281e-006     1.2585e-008     6.631e-010     
  0.3             3.2088e-006     -1.8664e-008    2.1145e-009    
  0.35            3.3635e-006     -2.6132e-008    1.3202e-009    
  0.4             3.4664e-006     -2.5893e-008    2.2604e-009    
  0.45            3.5715e-006     -2.6487e-008    1.3265e-009    
  0.5             3.6489e-006     -2.6505e-008    1.3244e-009    
  0.55            3.7332e-006     -2.637e-008     1.3231e-009    
  0.6             3.8136e-006     -2.6197e-008    2.3132e-009    
  0.65            3.8894e-006     -2.6703e-008    1.3285e-009    
  0.7             3.9665e-006     -2.6516e-008    1.3265e-009    
  0.75            4.0142e-006     -2.6462e-008    1.3259e-009    
  0.8             4.0704e-006     -2.6402e-008    1.3228e-009    
  0.85            4.1059e-006     -2.6224e-008    1.3225e-009    
  0.9             4.1594e-006     -2.6034e-008    2.287e-009     
  0.95            4.2186e-006     -2.6601e-008    1.3275e-009    
  1               4.2681e-006     -2.6645e-008    1.3262e-009    
  1.05            4.3195e-006     -2.6426e-008    1.3243e-009    
  1.1             4.3747e-006     -2.6437e-008    1.3229e-009    
  1.15            4.4153e-006     -2.6096e-008    2.3088e-009    
  1.2             4.4563e-006     -2.6615e-008    1.3283e-009    
  1.25            4.5036e-006     -2.6496e-008    1.3275e-009    
  1.3             4.557e-006      -2.6638e-008    1.3266e-009    
  1.35            4.6114e-006     -2.6382e-008    1.3242e-009    
  1.4             4.6758e-006     -2.6223e-008    1.3233e-009    
  1.45            4.6868e-006     -2.6067e-008    2.2819e-009    
  1.5             4.736e-006      -2.654e-008     1.3272e-009    
  1.55            4.7827e-006     -2.6664e-008    1.3269e-009    
  1.6             4.8197e-006     -2.6328e-008    1.3247e-009    
  1.65            4.883e-006      -2.6384e-008    1.3229e-009    
  1.7             4.9133e-006     -2.61e-008      1.321e-009     
  1.75            4.9773e-006     -2.6039e-008    2.2588e-009    
  1.8             5.0064e-006     -2.659e-008     1.3269e-009    
  1.85            5.0511e-006     -2.6621e-008    1.3258e-009    
  1.9             5.0927e-006     -2.6401e-008    1.3256e-009    
  1.95            5.1318e-006     -2.6366e-008    1.3218e-009    
  2               5.1661e-006     -2.6129e-008    2.263e-009     
  2.05            5.1859e-006     -2.677e-008     1.3283e-009    
  2.1             5.2284e-006     -2.6732e-008    1.3263e-009    
  2.15            5.2771e-006     -2.6724e-008    1.3259e-009    
  2.2             5.3128e-006     -2.6631e-008    1.3235e-009    
  2.25            5.3463e-006     -2.6455e-008    2.284e-009     
  2.3             5.4147e-006     -2.7155e-008    1.3283e-009    
  2.35            5.4265e-006     -2.7307e-008    1.3283e-009    
  2.4             5.4702e-006     -1.1746e-008    -1.053e-010    
  2.45            5.5424e-006     1.2591e-008     -2.6133e-009   
  2.5             5.5726e-006     1.0063e-008     -2.245e-010    
  2.55            5.5684e-006     -9.627e-009     2.8726e-009    
  2.6             5.6429e-006     -1.208e-008     -1.121e-009    
  2.65            5.6754e-006     5.543e-009      -1.3785e-009   
  2.7             5.7659e-006     1.3418e-008     -2.4059e-009   
  2.75            5.7877e-006     1.3248e-008     -2.3772e-009   
  2.8             5.8271e-006     1.2983e-008     -2.344e-009    
  2.85            5.8438e-006     1.2429e-008     -2.3159e-009   
  2.9             5.8982e-006     1.1771e-008     -2.2809e-009   
  2.95            5.9334e-006     1.1236e-008     -2.2458e-009   
  3               5.9568e-006     1.0105e-008     -2.2123e-009   
  3.05            6.0026e-006     9.168e-009      -2.1741e-009   
  3.1             6.0461e-006     7.875e-009      -2.1382e-009   
  3.15            6.0928e-006     6.511e-009      -2.0996e-009   
  3.2             6.1323e-006     4.864e-009      -2.0658e-009   
  3.25            6.1553e-006     3.149e-009      -2.0227e-009   
  3.3             6.2035e-006     1.188e-009      -1.9873e-009   
  3.35            6.1617e-006     -7.381e-009     1.8733e-009    
  3.4             6.2336e-006     -4.1221e-008    1.8235e-009    
  3.45            6.2944e-006     -3.6104e-008    -1.9825e-009   
  3.5             6.3562e-006     -1.1e-008       -1.5385e-009   
  3.55            6.3548e-006     -2.1978e-008    2.1732e-009    
  3.6             6.3767e-006     -4.7212e-008    2.749e-010     
  3.65            6.477e-006      -3.094e-008     -1.3793e-009   
  3.7             6.4727e-006     -3.6413e-008    2.6845e-009    
  3.75            6.5204e-006     -6.3744e-008    -4.63e-010     
  3.8             6.6194e-006     -4.0667e-008    -2.3139e-009   
  3.85            6.5642e-006     -5.2836e-008    1.6656e-009    
  3.9             6.6481e-006     -9.7317e-008    2.2379e-009    
  3.95            6.7235e-006     -9.1638e-008    -1.8513e-009   
  4               6.8121e-006     -6.3546e-008    -1.8207e-009   
  4.05            6.7719e-006     -1.08004e-007   -1.1941e-009   
  4.1             6.8365e-006     -1.3082e-007    1.9471e-009    
  4.15            6.9037e-006     -1.3237e-007    -1.9507e-009   
  4.2             6.9758e-006     -1.1387e-007    -1.6053e-009   
  4.25            6.9737e-006     -1.3586e-007    2.1253e-009    
  4.3             7.0282e-006     -1.7346e-007    3.193e-010     
  4.35            7.1446e-006     -1.6741e-007    -1.3833e-009   
  4.4             7.1618e-006     -1.8392e-007    2.6508e-009    
  4.45            7.2049e-006     -2.2393e-007    -3.877e-010    
  4.5             7.3114e-006     -2.1474e-007    -2.3868e-009   
  4.55            7.2727e-006     -2.3983e-007    1.6077e-009    
  4.6             7.376e-006      -3.0075e-007    1.3214e-009    
  4.65            7.4574e-006     -3.065e-007     -2.6756e-009   
  4.7             7.5278e-006     -3.0921e-007    4.556e-010     
  4.75            7.5624e-006     -3.6669e-007    2.4625e-009    
  4.8             7.7068e-006     -3.8906e-007    -1.7502e-009   
  4.85            7.7734e-006     -3.756e-007     -1.3669e-009   
  4.9             7.7704e-006     -4.2635e-007    2.7451e-009    
  4.95            7.8594e-006     -4.8434e-007    -5.922e-010    
  5               7.9757e-006     -4.888e-007     -2.1577e-009   
END_DB

BEGIN_DB
 ICCAP_VAR VG         2              
 ICCAP_VAR VS         0              
 ICCAP_VAR VB         0              

 #VD              ID              IB              IG             
  0               -6.2042e-008    -1.1541e-008    -3.519e-010    
  0.05            5.186e-006      1.2994e-008     2.0584e-009    
  0.1             1.02007e-005    -1.3785e-008    1.5301e-009    
  0.15            1.4982e-005     -2.0104e-008    1.9063e-009    
  0.2             1.9487e-005     -1.8612e-008    1.7614e-009    
  0.25            2.3698e-005     -1.1356e-008    -1.0394e-009   
  0.3             2.7599e-005     2.8879e-008     -1.3872e-009   
  0.35            3.1108e-005     9.678e-009      1.6072e-009    
  0.4             3.4345e-005     -1.3099e-008    3.432e-010     
  0.45            3.7291e-005     1.3635e-008     -2.5979e-009   
  0.5             3.9851e-005     2.8973e-008     -1.3776e-009   
  0.55            4.2071e-005     1.269e-008      7.464e-010     
  0.6             4.3993e-005     -8.113e-009     2.8586e-009    
  0.65            4.5655e-005     -1.1392e-008    2.759e-010     
  0.7             4.7179e-005     1.4808e-008     -2.5113e-009   
  0.75            4.8322e-005     1.103e-008      1.9879e-009    
  0.8             4.9351e-005     -1.8885e-008    1.6216e-009    
  0.85            5.0273e-005     -1.0355e-008    -1.1125e-009   
  0.9             5.1033e-005     2.9126e-008     -1.3844e-009   
  0.95            5.1656e-005     1.2618e-008     6.341e-010     
  1               5.2167e-005     -8.653e-009     1.3313e-009    
  1.05            5.2692e-005     -1.2573e-008    -4.343e-010    
  1.1             5.3187e-005     1.933e-008      -1.5961e-009   
  1.15            5.3518e-005     1.0024e-008     1.0398e-009    
  1.2             5.3889e-005     -2.662e-008     1.3309e-009    
  1.25            5.4266e-005     -1.3065e-008    -6.725e-010    
  1.3             5.4614e-005     7.635e-009      -1.3832e-009   
  1.35            5.4922e-005     2.4725e-008     -1.8157e-009   
  1.4             5.5137e-005     1.1444e-008     8.991e-010     
  1.45            5.5388e-005     -2.5873e-008    1.3308e-009    
  1.5             5.5674e-005     -1.2764e-008    -4.834e-010    
  1.55            5.5964e-005     1.9698e-008     -1.5617e-009   
  1.6             5.612e-005      9.746e-009      1.0684e-009    
  1.65            5.6337e-005     -2.6321e-008    1.328e-009     
  1.7             5.6661e-005     -1.1678e-008    -1.7785e-009   
  1.75            5.6822e-005     1.1875e-008     -2.444e-010    
  1.8             5.6911e-005     -1.6233e-008    2.6892e-009    
  1.85            5.7123e-005     -2.3863e-008    2.076e-009     
  1.9             5.7352e-005     -1.3033e-008    -9.022e-010    
  1.95            5.759e-005      2.6365e-008     -1.3822e-009   
  2               5.7763e-005     2.5202e-008     -1.8441e-009   
  2.05            5.7875e-005     1.1919e-008     8.924e-010     
  2.1             5.7983e-005     -2.5726e-008    1.3293e-009    
  2.15            5.817e-005      -2.0285e-008    1.8554e-009    
  2.2             5.8375e-005     -1.2156e-008    -9.961e-010    
  2.25            5.8569e-005     2.7699e-008     -1.3841e-009   
  2.3             5.8706e-005     2.0846e-008     -1.6735e-009   
  2.35            5.8795e-005     1.0587e-008     9.885e-010     
  2.4             5.8904e-005     -2.709e-008     2.5648e-009    
  2.45            5.9098e-005     -1.3703e-008    -6.008e-010    
  2.5             5.9266e-005     5.998e-009      -1.384e-009    
  2.55            5.9416e-005     2.4901e-008     -1.9099e-009   
  2.6             5.9504e-005     9.986e-009      8.558e-010     
  2.65            5.9579e-005     -2.783e-008     1.3305e-009    
  2.7             5.9829e-005     -1.343e-008     -1.5366e-009   
  2.75            5.9919e-005     1.4958e-008     -1.6288e-009   
  2.8             6.0053e-005     1.0814e-008     -2.3326e-009   
  2.85            6.0214e-005     4.955e-009      -2.6942e-009   
  2.9             6.0322e-005     8.14e-009       -2.265e-009    
  2.95            6.045e-005      2.03e-009       -2.6806e-009   
  3               6.0551e-005     4.217e-009      -2.1944e-009   
  3.05            6.061e-005      -5.928e-009     2.2184e-009    
  3.1             6.0737e-005     -3.0379e-008    -3.011e-010    
  3.15            6.0858e-005     -2.3952e-008    -2.6952e-009   
  3.2             6.0895e-005     -1.5354e-008    1.6604e-009    
  3.25            6.1033e-005     -4.3658e-008    3.022e-010     
  3.3             6.1249e-005     -3.5887e-008    -2.2236e-009   
  3.35            6.1316e-005     -3.3946e-008    2.1922e-009    
  3.4             6.1428e-005     -6.2587e-008    -2.642e-010    
  3.45            6.1605e-005     -4.0496e-008    -1.7892e-009   
  3.5             6.1675e-005     -6.0035e-008    2.4442e-009    
  3.55            6.18e-005       -9.252e-008     -6.298e-010    
  3.6             6.1969e-005     -7.0134e-008    -1.468e-009    
  3.65            6.2029e-005     -1.0954e-007    2.2527e-009    
  3.7             6.2157e-005     -1.3133e-007    -2.1748e-009   
  3.75            6.2311e-005     -1.2678e-007    3.631e-010     
  3.8             6.2372e-005     -1.7735e-007    1.7198e-009    
  3.85            6.2546e-005     -1.8877e-007    -2.4489e-009   
  3.9             6.2685e-005     -1.9174e-007    6.774e-010     
  3.95            6.2751e-005     -2.5427e-007    1.3921e-009    
  4               6.2961e-005     -2.6997e-007    -2.6825e-009   
  4.05            6.3072e-005     -2.8413e-007    9.504e-010     
  4.1             6.3193e-005     -3.5845e-007    2.6181e-009    
  4.15            6.3409e-005     -3.849e-007     -2.0132e-009   
