! VERSION = 6.00
BEGIN_HEADER
 ICCAP_INPUTS
  VG         V  B GROUND SMU4 0.001 LIN        1    0          5          101  0.05      
  VS         V  E GROUND SMU2 0.1 CON        0
  VB         V  C GROUND SMU3 0.1 LIN        3    0          -5         3    -2.5      
  VD         V  S GROUND SMU1 0.1 LIN        2    0.1        5          2    4.9       
 ICCAP_OUTPUTS
  IG         I  B GROUND SMU4 B
  ID         I  S GROUND SMU1 B
  IB         I  C GROUND SMU3 B
END_HEADER

BEGIN_DB
 ICCAP_VAR VS         0              
 ICCAP_VAR VB         0              
 ICCAP_VAR VD         0.1            

 #VG              IG              ID              IB             
  0               1.9423e-009     2.1762e-009     1.674e-009     
  0.05            1.639e-009      1.8722e-009     -9.003e-009    
  0.1             1.8141e-009     1.589e-009      1.074e-008     
  0.15            3.944e-010      2.3128e-009     1.2586e-008    
  0.2             5.852e-010      2.3538e-009     1.2104e-008    
  0.25            -1.3868e-009    1.5207e-009     2.4872e-008    
  0.3             -2.7165e-009    1.071e-010      1.3176e-008    
  0.35            1.3333e-009     -1.5534e-009    -2.2443e-008   
  0.4             2.8935e-009     -7.31e-011      -1.3455e-008   
  0.45            -1.3825e-009    1.5534e-009     2.6095e-008    
  0.5             -1.3621e-009    3.345e-010      1.3099e-008    
  0.55            -2.6787e-009    1.2218e-009     1.4914e-008    
  0.6             -2.5451e-009    2.7664e-009     1.033e-009     
  0.65            1.3282e-009     1.298e-008      1.201e-008     
  0.7             2.801e-009      3.7666e-008     -1.3782e-008   
  0.75            6.336e-010      9.8734e-008     1.2454e-008    
  0.8             2.8718e-009     2.1453e-007     -1.2734e-008   
  0.85            -1.7531e-009    4.3403e-007     2.3006e-008    
  0.9             -1.4089e-009    7.7602e-007     6.321e-009     
  0.95            -2.2942e-009    1.3028e-006     -1.8006e-008   
  1               1.3315e-009     2.0449e-006     -2.5993e-008   
  1.05            2.7647e-009     2.9783e-006     -1.4648e-008   
  1.1             2.6068e-009     4.1006e-006     8.87e-009      
  1.15            4.335e-010      5.2917e-006     1.2121e-008    
  1.2             8.695e-010      6.499e-006      1.182e-008     
  1.25            -1.506e-009     7.732e-006      1.5483e-008    
  1.3             -1.3888e-009    8.939e-006      8.795e-009     
  1.35            -2.6842e-009    1.01206e-005    1.2196e-008    
  1.4             -2.3162e-009    1.12333e-005    8.87e-010      
  1.45            1.3375e-009     1.2328e-005     3.366e-009     
  1.5             2.844e-009      1.3387e-005     -1.1886e-008   
  1.55            5.177e-010      1.4443e-005     1.2297e-008    
  1.6             -1.3619e-009    1.5455e-005     2.6704e-008    
  1.65            -2.4166e-009    1.6428e-005     1.5592e-008    
  1.7             -1.7724e-009    1.7357e-005     2.567e-009     
  1.75            -1.4112e-009    1.8275e-005     6.179e-009     
  1.8             -1.3854e-009    1.9173e-005     9.577e-009     
  1.85            -2.5969e-009    2.0045e-005     1.3371e-008    
  1.9             -2.0572e-009    2.0883e-005     1.149e-009     
  1.95            -1.5039e-009    2.1711e-005     5.014e-009     
  2               -1.3881e-009    2.2523e-005     8.578e-009     
  2.05            -2.6944e-009    2.3317e-005     1.2188e-008    
  2.1             -4.498e-010     2.4071e-005     -1.2445e-008   
  2.15            -9.104e-010     2.4828e-005     -1.2552e-008   
  2.2             1.5407e-009     2.5552e-005     -1.4204e-008   
  2.25            1.3373e-009     2.629e-005      -8.385e-009    
  2.3             2.8774e-009     2.7003e-005     -1.0095e-008   
  2.35            -1.7616e-009    2.7721e-005     2.3057e-008    
  2.4             -1.4047e-009    2.8409e-005     6.334e-009     
  2.45            -1.3837e-009    2.9085e-005     9.821e-009     
  2.5             -2.5869e-009    2.9758e-005     1.3607e-008    
  2.55            -2.0372e-009    3.04e-005       1.148e-009     
  2.6             -1.496e-009     3.1042e-005     4.975e-009     
  2.65            -1.3861e-009    3.1675e-005     8.584e-009     
  2.7             -2.6899e-009    3.2303e-005     1.2283e-008    
  2.75            -2.3137e-009    3.2909e-005     8.73e-010      
  2.8             -1.686e-009     3.3512e-005     3.321e-009     
  2.85            -1.3959e-009    3.4108e-005     7e-009         
  2.9             -1.3804e-009    3.4695e-005     1.0328e-008    
  2.95            -2.5467e-009    3.5276e-005     1.3939e-008    
  3               -1.9601e-009    3.5829e-005     1.029e-009     
  3.05            -1.4656e-009    3.6388e-005     4.87e-009      
  3.1             -1.3905e-009    3.6941e-005     8.644e-009     
  3.15            -2.669e-009     3.7486e-005     1.2566e-008    
  3.2             -2.2428e-009    3.8008e-005     1.07e-009      
  3.25            -1.6156e-009    3.8533e-005     3.711e-009     
  3.3             -1.3887e-009    3.9054e-005     7.501e-009     
  3.35            -2.7213e-009    3.9565e-005     1.0798e-008    
  3.4             2.1078e-009     4.0054e-005     -2.3788e-008   
  3.45            1.448e-009      4.0555e-005     -8.236e-009    
  3.5             1.3376e-009     4.104e-005      -7.905e-009    
  3.55            2.8499e-009     4.1524e-005     -1.1746e-008   
  3.6             5.116e-010      4.2004e-005     1.2282e-008    
  3.65            9.252e-010      4.2467e-005     1.1417e-008    
  3.7             -1.4656e-009    4.2917e-005     1.3639e-008    
  3.75            -1.3876e-009    4.3386e-005     9.086e-009     
  3.8             -2.6617e-009    4.3836e-005     1.2752e-008    
  3.85            -2.2229e-009    4.4269e-005     1.078e-009     
  3.9             -1.6019e-009    4.4701e-005     3.821e-009     
  3.95            -1.3869e-009    4.5129e-005     7.584e-009     
  4               -2.7214e-009    4.5551e-005     1.1275e-008    
  4.05            2.0757e-009     4.596e-005      -2.3263e-008   
  4.1             1.4346e-009     4.6367e-005     -8.495e-009    
  4.15            1.3375e-009     4.6768e-005     -8.172e-009    
  4.2             2.8411e-009     4.7169e-005     -1.1815e-008   
  4.25            1.4658e-009     4.755e-005      9.771e-009     
  4.3             -1.3776e-009    4.7957e-005     2.8627e-008    
  4.35            -2.5433e-009    4.8342e-005     1.4074e-008    
  4.4             -1.9543e-009    4.8703e-005     1.252e-009     
  4.45            -1.4594e-009    4.9074e-005     5.171e-009     
  4.5             -1.3887e-009    4.9442e-005     8.973e-009     
  4.55            -2.668e-009     4.9798e-005     1.2468e-008    
  4.6             -2.2458e-009    5.014e-005      9.63e-010      
  4.65            -1.6209e-009    5.0489e-005     3.661e-009     
  4.7             -1.3905e-009    5.083e-005      7.479e-009     
  4.75            -2.7248e-009    5.1164e-005     1.0783e-008    
  4.8             2.0976e-009     5.1491e-005     -2.3701e-008   
  4.85            1.4545e-009     5.1814e-005     -8.189e-009    
  4.9             2.8952e-009     5.213e-005      -7.922e-009    
  4.95            2.1617e-009     5.2446e-005     1.076e-008     
  5               9.904e-010      5.2754e-005     1.1117e-008    
END_DB

BEGIN_DB
 ICCAP_VAR VS         0              
 ICCAP_VAR VB         0              
 ICCAP_VAR VD         5              

 #VG              IG              ID              IB             
  0               -1.2987e-009    -1.1935e-009    -9.432e-009    
  0.05            -2.4519e-009    4.962e-010      1.747e-008     
  0.1             -1.2858e-009    -2.1617e-009    2.201e-009     
  0.15            -1.4622e-009    -2.0166e-009    -1.0421e-008   
  0.2             1.3377e-009     -1.3753e-009    -2.6087e-008   
  0.25            1.3329e-009     1.077e-010      -9.182e-009    
  0.3             2.8976e-009     -5.6e-012       -1.1879e-008   
  0.35            -1.3881e-009    1.506e-009      2.7576e-008    
  0.4             -1.3771e-009    3.294e-010      1.2738e-008    
  0.45            -2.6895e-009    1.4393e-009     1.3825e-008    
  0.5             -1.355e-010     2.6715e-009     -1.2907e-008   
  0.55            2.7996e-009     1.8685e-008     1.6505e-008    
  0.6             -2.5298e-009    5.7231e-008     9.232e-009     
  0.65            -1.3873e-009    1.6407e-007     -1.3814e-008   
  0.7             -2.5698e-009    3.8833e-007     -3.1223e-008   
  0.75            -2.021e-009     8.3184e-007     -6.3296e-008   
  0.8             1.1891e-009     1.5961e-006     -1.0629e-007   
  0.85            1.9618e-009     2.8027e-006     -2.2223e-007   
  0.9             1.3909e-009     4.582e-006      -3.3028e-007   
  0.95            1.3309e-009     7.0127e-006     -4.8413e-007   
  1               2.8113e-009     1.00942e-005    -6.788e-007    
  1.05            -2.7194e-009    1.3931e-005     -8.6804e-007   
  1.1             -2.4723e-009    1.8218e-005     -1.12237e-006  
  1.15            -1.9016e-009    2.3058e-005     -1.3796e-006   
  1.2             -2.1731e-009    2.8179e-005     -1.6286e-006   
  1.25            -2.5745e-009    3.3755e-005     -1.8806e-006   
  1.3             -2.7644e-009    3.9651e-005     -2.132e-006    
  1.35            -2.7233e-009    4.5775e-005     -2.3689e-006   
  1.4             -2.4847e-009    5.222e-005      -2.5984e-006   
  1.45            -1.8883e-009    5.8858e-005     -2.8215e-006   
  1.5             -1.4366e-009    6.5619e-005     -3.0262e-006   
  1.55            -1.3852e-009    7.2612e-005     -3.2217e-006   
  1.6             -2.6428e-009    7.9729e-005     -3.403e-006    
  1.65            -2.1817e-009    8.6824e-005     -3.5847e-006   
  1.7             -1.5693e-009    9.4147e-005     -3.74e-006     
  1.75            -1.3856e-009    0.000101567     -3.877e-006    
  1.8             -2.7147e-009    0.000109093     -4.0009e-006   
  1.85            -1.631e-009     0.00011668      -4.1379e-006   
  1.9             -1.3875e-009    0.00012432      -4.2266e-006   
  1.95            -1.3709e-009    0.00013204      -4.308e-006    
  2               -2.5028e-009    0.0001398       -4.3837e-006   
  2.05            -1.8936e-009    0.00014754      -4.4593e-006   
  2.1             -1.4358e-009    0.00015538      -4.5083e-006   
  2.15            -1.3873e-009    0.00016326      -4.548e-006    
  2.2             -2.6457e-009    0.00017122      -4.577e-006    
  2.25            -2.1753e-009    0.00017907      -4.6082e-006   
  2.3             -1.5735e-009    0.00018707      -4.6193e-006   
  2.35            -1.386e-009     0.00019504      -4.6216e-006   
  2.4             -2.7121e-009    0.00020308      -4.6114e-006   
  2.45            -2.4278e-009    0.00021102      -4.6124e-006   
  2.5             -1.804e-009     0.00021914      -4.5923e-006   
  2.55            -1.4137e-009    0.00022718      -4.5649e-006   
  2.6             -1.384e-009     0.00023526      -4.5289e-006   
  2.65            -2.6104e-009    0.00024338      -4.4897e-006   
  2.7             -2.0919e-009    0.00025142      -4.4622e-006   
  2.75            -1.5171e-009    0.00025965      -4.413e-006    
  2.8             -1.3828e-009    0.00026778      -4.3568e-006   
  2.85            -2.6965e-009    0.00027592      -4.3014e-006   
  2.9             -2.3582e-009    0.00028395      -4.2519e-006   
  2.95            -1.7276e-009    0.00029211      -4.1905e-006   
  3               -1.3988e-009    0.00030025      -4.124e-006    
  3.05            -1.3811e-009    0.00030841      -4.0536e-006   
  3.1             -2.5715e-009    0.00031653      -3.9845e-006   
  3.15            -2.0128e-009    0.0003246       -3.9269e-006   
  3.2             -1.4758e-009    0.00033271      -3.853e-006    
  3.25            -1.3867e-009    0.00034088      -3.7773e-006   
  3.3             -2.6789e-009    0.00034902      -3.7011e-006   
  3.35            -2.2885e-009    0.00035706      -3.6395e-006   
  3.4             -1.6568e-009    0.00036522      -3.5654e-006   
  3.45            -1.391e-009     0.00037332      -3.4857e-006   
  3.5             -1.3727e-009    0.00038145      -3.4089e-006   
  3.55            -2.5215e-009    0.00038954      -3.3317e-006   
  3.6             -1.928e-009     0.0003976       -3.2703e-006   
  3.65            -1.4437e-009    0.00040571      -3.1913e-006   
  3.7             -1.386e-009     0.00041378      -3.1131e-006   
  3.75            -2.6535e-009    0.00042181      -3.042e-006    
  3.8             -2.2189e-009    0.00042983      -2.9806e-006   
  3.85            -1.5958e-009    0.00043794      -2.9063e-006   
  3.9             -1.3853e-009    0.00044604      -2.8295e-006   
  3.95            -2.719e-009     0.00045404      -2.7565e-006   
  4               -2.4597e-009    0.00046203      -2.6976e-006   
  4.05            -1.8517e-009    0.00047002      -2.628e-006    
  4.1             -1.4221e-009    0.00047807      -2.5565e-006   
  4.15            -1.3839e-009    0.00048607      -2.4897e-006   
  4.2             -2.6309e-009    0.00049409      -2.4205e-006   
  4.25            -2.1449e-009    0.0005019       -2.3679e-006   
  4.3             -1.5461e-009    0.00050984      -2.3037e-006   
  4.35            -1.382e-009     0.00051781      -2.2369e-006   
  4.4             -2.7045e-009    0.00052588      -2.1742e-006   
  4.45            -2.4057e-009    0.00053372      -2.1261e-006   
  4.5             -1.7706e-009    0.00054164      -2.0687e-006   
  4.55            -1.4057e-009    0.00054953      -2.0102e-006   
  4.6             -1.3792e-009    0.00055744      -1.9493e-006   
  4.65            -2.5962e-009    0.00056528      -1.8907e-006   
  4.7             -2.0719e-009    0.00057319      -1.853e-006    
  4.75            -1.5064e-009    0.00058098      -1.8001e-006   
  4.8             -1.3808e-009    0.00058879      -1.7458e-006   
  4.85            -2.6898e-009    0.00059651      -1.6941e-006   
  4.9             -2.3475e-009    0.00060422      -1.6562e-006   
  4.95            -1.7134e-009    0.00061202      -1.6105e-006   
  5               -1.3921e-009    0.00061978      -1.5611e-006   
END_DB

BEGIN_DB
 ICCAP_VAR VS         0              
 ICCAP_VAR VB         -2.5           
 ICCAP_VAR VD         0.1            

 #VG              IG              ID              IB             
  0               2.1768e-009     2.2758e-009     9.97e-010      
  0.05            1.5142e-009     2.0379e-009     -7.974e-009    
  0.1             -1.3856e-009    1.4106e-009     2.8361e-008    
  0.15            -1.3813e-009    -5.6e-012       1.237e-008     
  0.2             -2.7013e-009    1.411e-010      1.37e-008      
  0.25            1.3295e-009     -1.5841e-009    -2.1567e-008   
  0.3             2.8854e-009     -1.228e-010     -1.4025e-008   
  0.35            -1.3827e-009    1.5213e-009     2.5186e-008    
  0.4             -2.7097e-009    1.099e-010      1.34e-008      
  0.45            1.3285e-009     -1.5582e-009    -2.2641e-008   
  0.5             1.3068e-009     -8.23e-011      -1.3068e-008   
  0.55            2.8508e-009     -2.618e-010     -1.6509e-008   
  0.6             2.321e-010      2.2534e-009     1.2274e-008    
  0.65            4.287e-010      2.3216e-009     1.2414e-008    
  0.7             6.155e-010      2.3588e-009     1.1957e-008    
  0.75            7.646e-010      2.3768e-009     1.0602e-008    
  0.8             -1.3639e-009    1.6806e-009     1.8263e-008    
  0.85            -2.6439e-009    3.773e-010      1.5264e-008    
  0.9             1.85e-011       -1.8002e-009    7.9e-010       
  0.95            2.2231e-009     2.0134e-009     -1.2642e-008   
  1               1.8981e-009     5.8108e-009     -6.818e-009    
  1.05            -1.8162e-009    1.6095e-008     -9.39e-009     
  1.1             -6.754e-010     5.4641e-008     -1.3048e-008   
  1.15            -2.6309e-009    1.3931e-007     1.1626e-008    
  1.2             -2.1643e-009    2.9365e-007     1.028e-009     
  1.25            -1.5558e-009    5.5151e-007     4.622e-009     
  1.3             -1.3831e-009    9.6837e-007     8.228e-009     
  1.35            -2.7412e-009    1.5753e-006     -2.6065e-008   
  1.4             1.3282e-009     2.3877e-006     -2.5789e-008   
  1.45            2.7514e-009     3.3898e-006     -1.4924e-008   
  1.5             2.6248e-009     4.5431e-006     8.765e-009     
  1.55            4.652e-010      5.7468e-006     1.2111e-008    
  1.6             8.917e-010      6.9713e-006     1.1713e-008    
  1.65            -1.4821e-009    8.1975e-006     1.4762e-008    
  1.7             -1.3855e-009    9.3844e-006     8.729e-009     
  1.75            -2.677e-009     1.05364e-005    1.2594e-008    
  1.8             1.6103e-009     1.1602e-005     -2.6262e-008   
  1.85            2.033e-009      1.2687e-005     1.1146e-008    
  1.9             8.71e-010       1.3733e-005     1.1953e-008    
  1.95            -1.4937e-009    1.4731e-005     1.5317e-008    
  2               -1.3857e-009    1.5695e-005     8.767e-009     
  2.05            -2.6848e-009    1.6629e-005     1.242e-008     
  2.1             -2.3062e-009    1.7517e-005     9.13e-010      
  2.15            -1.6693e-009    1.8392e-005     3.498e-009     
  2.2             -1.3866e-009    1.924e-005      7.124e-009     
  2.25            -1.3722e-009    2.007e-005      1.0415e-008    
  2.3             -2.5382e-009    2.0884e-005     1.3984e-008    
  2.35            -1.9492e-009    2.1654e-005     1.365e-009     
  2.4             -1.451e-009     2.2423e-005     5.153e-009     
  2.45            -1.3848e-009    2.3171e-005     8.83e-009      
  2.5             -2.6608e-009    2.3906e-005     1.2812e-008    
  2.55            -2.2294e-009    2.4611e-005     8.89e-010      
  2.6             -1.6078e-009    2.5314e-005     4.09e-009      
  2.65            -1.3811e-009    2.6001e-005     7.581e-009     
  2.7             -2.7161e-009    2.6672e-005     1.0918e-008    
  2.75            2.0919e-009     2.7328e-005     -2.3781e-008   
  2.8             1.4402e-009     2.7976e-005     -8.516e-009    
  2.85            2.8916e-009     2.8607e-005     -8.014e-009    
  2.9             2.8534e-009     2.9242e-005     3.74e-010      
  2.95            1.4479e-009     2.9839e-005     8.862e-009     
  3               -1.3761e-009    3.0467e-005     2.8713e-008    
  3.05            -2.5457e-009    3.1057e-005     1.3844e-008    
  3.1             -1.9695e-009    3.1624e-005     1.314e-009     
  3.15            -1.4641e-009    3.2199e-005     5.18e-009      
  3.2             -1.3821e-009    3.2758e-005     8.696e-009     
  3.25            -2.6711e-009    3.3317e-005     1.2548e-008    
  3.3             -2.2607e-009    3.3849e-005     1.033e-009     
  3.35            -1.6249e-009    3.4388e-005     3.918e-009     
  3.4             -1.3838e-009    3.4918e-005     7.416e-009     
  3.45            -1.3697e-009    3.5434e-005     1.0821e-008    
  3.5             -2.5037e-009    3.595e-005      1.4394e-008    
  3.55            -1.8927e-009    3.6439e-005     1.566e-009     
  3.6             -1.4334e-009    3.6934e-005     5.402e-009     
  3.65            -1.381e-009     3.7422e-005     9.265e-009     
  3.7             -2.6442e-009    3.7903e-005     1.2876e-008    
  3.75            -2.1822e-009    3.8365e-005     1.002e-009     
  3.8             -1.5686e-009    3.8827e-005     4.359e-009     
  3.85            -1.3795e-009    3.9283e-005     7.9e-009       
  3.9             -2.7116e-009    3.9735e-005     1.1443e-008    
  3.95            2.0203e-009     4.0161e-005     -2.2694e-008   
  4               1.418e-009      4.0596e-005     -8.745e-009    
  4.05            2.8996e-009     4.1022e-005     -7.97e-009     
  4.1             2.8305e-009     4.1456e-005     -6.3e-011      
  4.15            1.5019e-009     4.1862e-005     9.069e-009     
