! VERSION = 6.00
BEGIN_HEADER
 ICCAP_INPUTS
  VG         V  B GROUND SMU4 0.001 LIN        1    0          5          101  0.05      
  VS         V  E GROUND SMU2 0.1 CON        0
  VB         V  C GROUND SMU3 0.1 LIN        3    0          -5         3    -2.5      
  VD         V  S GROUND SMU1 0.1 LIN        2    0.1        5          2    4.9       
 ICCAP_OUTPUTS
  IG         I  B GROUND SMU4 B
  ID         I  S GROUND SMU1 B
  IB         I  C GROUND SMU3 B
END_HEADER

BEGIN_DB
 ICCAP_VAR VS         0              
 ICCAP_VAR VB         0              
 ICCAP_VAR VD         0.1            

 #VG              IG              ID              IB             
  0               -6.793e-010     -7.386e-010     1.103e-008     
  0.05            -1.8081e-009    1.7118e-009     1.6604e-008    
  0.1             -1.6904e-009    -1.6952e-009    6.099e-009     
  0.15            -2.104e-010     -2.1917e-009    -1.1085e-008   
  0.2             -4.272e-010     -2.2649e-009    -1.1098e-008   
  0.25            -6.306e-010     -2.2928e-009    -1.1456e-008   
  0.3             1.268e-009      -1.5154e-009    -1.974e-008    
  0.35            2.8879e-009     1.15e-011       -1.3139e-008   
  0.4             1.095e-010      2.7002e-009     1.0291e-008    
  0.45            2.967e-010      4.3378e-009     1.0426e-008    
  0.5             4.792e-010      9.9466e-009     1.0681e-008    
  0.55            -1.7391e-009    2.6229e-008     -1.5134e-008   
  0.6             -1.4181e-009    8.8194e-008     6.41e-009      
  0.65            1.0845e-009     2.5334e-007     -1.9342e-008   
  0.7             -8.65e-011      7.0219e-007     1.1927e-008    
  0.75            -1.4889e-009    1.7005e-006     -1.1143e-008   
  0.8             -1.3531e-009    3.8139e-006     9.785e-009     
  0.85            -2.6701e-009    7.6396e-006     1.1268e-008    
  0.9             1.5238e-009     1.3276e-005     6.09e-010      
  0.95            1.2991e-009     2.1094e-005     -8.637e-009    
  1               2.8522e-009     3.0492e-005     -9.817e-009    
  1.05            4.406e-010      4.1235e-005     1.0394e-008    
  1.1             -1.3122e-009    5.2223e-005     2.5684e-008    
  1.15            -2.4033e-009    6.3277e-005     1.3475e-008    
  1.2             -8.219e-010     7.3865e-005     -1.128e-008    
  1.25            1.6319e-009     8.3945e-005     -1.5906e-008   
  1.3             1.3215e-009     9.3839e-005     -8.836e-009    
  1.35            2.894e-009      0.000103277     -8.978e-009    
  1.4             1.3141e-009     0.000112262     1.0822e-008    
  1.45            2.9291e-009     0.00012118      1.0662e-008    
  1.5             2.7627e-009     0.00012939      2.5e-011       
  1.55            5.649e-010      0.00013738      1.034e-008     
  1.6             -1.7851e-009    0.0001451       2.2914e-008    
  1.65            -1.4249e-009    0.0001524       6.062e-009     
  1.7             -1.3309e-009    0.00015944      1.0667e-008    
  1.75            -2.5667e-009    0.00016631      1.1678e-008    
  1.8             -1.9947e-009    0.00017284      1.427e-009     
  1.85            -1.5078e-009    0.00017927      4.35e-009      
  1.9             -1.3567e-009    0.00018548      9.501e-009     
  1.95            -2.6884e-009    0.0001915       1.1386e-008    
  2               -2.2404e-009    0.00019731      9.35e-010      
  2.05            -1.6512e-009    0.00020298      3.195e-009     
  2.1             -1.3931e-009    0.00020852      7.571e-009     
  2.15            -1.3141e-009    0.00021391      1.1426e-008    
  2.2             -2.4567e-009    0.00021926      1.2847e-008    
  2.25            -1.8403e-009    0.00022433      2.197e-009     
  2.3             -1.4452e-009    0.00022936      5.428e-009     
  2.35            -1.3396e-009    0.00023424      1.0202e-008    
  2.4             -2.6122e-009    0.00023911      1.1313e-008    
  2.45            -2.0743e-009    0.00024373      1.056e-009     
  2.5             -1.5453e-009    0.0002483       3.843e-009     
  2.55            -1.3685e-009    0.00025282      8.943e-009     
  2.6             -2.7129e-009    0.00025723      1.1552e-008    
  2.65            -2.2982e-009    0.00026151      8.26e-010      
  2.7             -1.6989e-009    0.0002657       2.809e-009     
  2.75            -1.406e-009     0.00026989      6.891e-009     
  2.8             -1.3215e-009    0.000274        1.1061e-008    
  2.85            -2.5106e-009    0.00027803      1.209e-008     
  2.9             -1.8997e-009    0.00028186      1.858e-009     
  2.95            -1.4689e-009    0.00028571      4.797e-009     
  3               -1.3463e-009    0.00028946      9.945e-009     
  3.05            -2.644e-009     0.00029318      1.1225e-008    
  3.1             -2.1285e-009    0.00029673      9.83e-010      
  3.15            -1.5766e-009    0.00030029      3.524e-009     
  3.2             -1.3768e-009    0.00030377      8.491e-009     
  3.25            -2.7357e-009    0.00030722      1.1545e-008    
  3.3             -2.3601e-009    0.00031055      6.33e-010      
  3.35            -1.7485e-009    0.00031387      2.568e-009     
  3.4             -1.4194e-009    0.00031714      6.28e-009      
  3.45            -1.326e-009     0.00032034      1.0818e-008    
  3.5             -2.5429e-009    0.00032347      1.1763e-008    
  3.55            -1.9517e-009    0.00032651      1.611e-009     
  3.6             -1.4911e-009    0.00032952      4.747e-009     
  3.65            -1.3544e-009    0.00033251      9.721e-009     
  3.7             -2.6768e-009    0.00033547      1.1352e-008    
  3.75            -2.1931e-009    0.00033827      9.41e-010      
  3.8             -1.6148e-009    0.00034109      3.406e-009     
  3.85            -1.3864e-009    0.00034383      7.865e-009     
  3.9             -2.7522e-009    0.00034654      1.1622e-008    
  3.95            -3.164e-010     0.00034919      -1.1039e-008   
  4               -8.108e-010     0.00035183      -1.1181e-008   
  4.05            1.6439e-009     0.00035426      -1.5818e-008   
  4.1             1.3298e-009     0.00035692      -8.759e-009    
  4.15            2.9027e-009     0.00035937      -8.751e-009    
  4.2             1.3063e-009     0.00036181      1.0781e-008    
  4.25            1.375e-010      0.00036431      1.101e-008     
  4.3             5.841e-010      0.00036668      1.0308e-008    
  4.35            -1.7645e-009    0.00036893      2.2349e-008    
  4.4             -1.4206e-009    0.00037129      6.386e-009     
  4.45            -1.3298e-009    0.00037358      1.0813e-008    
  4.5             -2.5438e-009    0.00037579      1.1622e-008    
  4.55            -1.9515e-009    0.00037789      1.612e-009     
  4.6             -1.4924e-009    0.00038002      4.304e-009     
  4.65            -1.3551e-009    0.00038214      9.781e-009     
  4.7             -2.672e-009     0.00038422      1.1299e-008    
  4.75            -2.1798e-009    0.00038614      7.88e-010      
  4.8             -1.611e-009     0.00038814      3.293e-009     
  4.85            -1.3877e-009    0.00039012      7.852e-009     
  4.9             -2.7516e-009    0.000392        1.1712e-008    
  4.95            -3.205e-010     0.00039385      -1.1062e-008   
  5               -8.136e-010     0.0003957       -1.1271e-008   
END_DB

BEGIN_DB
 ICCAP_VAR VS         0              
 ICCAP_VAR VB         0              
 ICCAP_VAR VD         5              

 #VG              IG              ID              IB             
  0               -6.963e-010     -7.641e-010     1.1381e-008    
  0.05            -1.8563e-009    1.6877e-009     1.7432e-008    
  0.1             -1.6519e-009    -1.7129e-009    5.246e-009     
  0.15            -1.75e-010      -2.1455e-009    -1.1002e-008   
  0.2             -3.937e-010     -2.127e-009     -1.1071e-008   
  0.25            1.4033e-009     -6.43e-010      -1.1529e-008   
  0.3             1.3225e-009     2.4638e-009     -8.577e-009    
  0.35            1.2827e-009     8.9703e-009     -9.653e-009    
  0.4             2.4673e-009     3.5779e-008     8.525e-009     
  0.45            -1.437e-009     1.2867e-007     -1.0277e-008   
  0.5             -1.3338e-009    4.0656e-007     -2.1939e-008   
  0.55            -2.1468e-009    1.1597e-006     -1.01956e-007  
  0.6             -8.93e-011      2.9129e-006     -1.9654e-007   
  0.65            -5.986e-010     6.8194e-006     -5.1972e-007   
  0.7             2.3335e-009     1.4215e-005     -1.04654e-006  
  0.75            4.359e-010      2.6744e-005     -1.8499e-006   
  0.8             8.739e-010      4.4596e-005     -3.0074e-006   
  0.85            1.2626e-009     6.8077e-005     -4.4639e-006   
  0.9             1.6941e-009     9.7159e-005     -6.1484e-006   
  0.95            1.6835e-009     0.00013119      -7.9763e-006   
  1               2.1131e-009     0.00016967      -9.9601e-006   
  1.05            -1.7477e-009    0.00021185      -1.2004e-005   
  1.1             -1.4248e-009    0.00025616      -1.3989e-005   
  1.15            -1.331e-009     0.00030357      -1.5963e-005   
  1.2             -2.5446e-009    0.00035195      -1.7872e-005   
  1.25            -1.9529e-009    0.00040158      -1.9712e-005   
  1.3             -1.4892e-009    0.000453        -2.1448e-005   
  1.35            -1.3567e-009    0.00050574      -2.307e-005    
  1.4             -2.6725e-009    0.00055921      -2.4603e-005   
  1.45            -2.1743e-009    0.00061303      -2.6054e-005   
  1.5             -1.6032e-009    0.00066791      -2.7372e-005   
  1.55            -1.3855e-009    0.00072347      -2.8572e-005   
  1.6             -2.7515e-009    0.00077966      -2.9668e-005   
  1.65            -2.3849e-009    0.00083561      -3.0682e-005   
  1.7             -1.7799e-009    0.00089251      -3.158e-005    
  1.75            -1.4315e-009    0.00094972      -3.2366e-005   
  1.8             -1.3326e-009    0.0010073       -3.3053e-005   
  1.85            -2.5664e-009    0.00106494      -3.3655e-005   
  1.9             -1.9774e-009    0.0011224       -3.4175e-005   
  1.95            1.2828e-009     0.0011792       -3.4594e-005   
  2               2.7823e-009     0.0012371       -3.4943e-005   
  2.05            2.2019e-009     0.0012961       -3.5198e-005   
  2.1             1.5594e-009     0.0013541       -3.5395e-005   
  2.15            1.3129e-009     0.001412        -3.5506e-005   
  2.2             2.8836e-009     0.0014701       -3.5559e-005   
  2.25            2.4395e-009     0.001529        -3.5545e-005   
  2.3             1.7493e-009     0.0015874       -3.5474e-005   
  2.35            1.3627e-009     0.0016453       -3.5358e-005   
  2.4             2.9304e-009     0.0017036       -3.5185e-005   
  2.45            2.6471e-009     0.0017623       -3.4958e-005   
  2.5             1.9978e-009     0.0018207       -3.4694e-005   
  2.55            1.4505e-009     0.0018787       -3.4388e-005   
  2.6             1.2854e-009     0.0019366       -3.405e-005    
  2.65            2.8076e-009     0.0019948       -3.3676e-005   
  2.7             2.2509e-009     0.0020534       -3.3263e-005   
  2.75            1.589e-009      0.0021114       -3.2825e-005   
  2.8             1.3201e-009     0.0021699       -3.2366e-005   
  2.85            2.8925e-009     0.0022277       -3.1886e-005   
  2.9             2.495e-009      0.002286        -3.1379e-005   
  2.95            1.8026e-009     0.0023437       -3.086e-005    
  3               1.3738e-009     0.0024014       -3.0329e-005   
  3.05            2.9359e-009     0.0024589       -2.9782e-005   
  3.1             2.6863e-009     0.0025168       -2.9219e-005   
  3.15            2.0429e-009     0.0025739       -2.865e-005    
  3.2             1.4761e-009     0.002631        -2.8078e-005   
  3.25            1.2925e-009     0.0026881       -2.7499e-005   
  3.3             2.8312e-009     0.0027451       -2.6916e-005   
  3.35            2.3097e-009     0.0028027       -2.6324e-005   
  3.4             1.6298e-009     0.0028594       -2.5734e-005   
  3.45            1.3306e-009     0.0029158       -2.5156e-005   
  3.5             2.9114e-009     0.0029722       -2.4562e-005   
  3.55            2.5335e-009     0.0030293       -2.397e-005    
  3.6             1.8441e-009     0.0030858       -2.3394e-005   
  3.65            1.3929e-009     0.0031418       -2.2816e-005   
  3.7             1.2717e-009     0.0031976       -2.2241e-005   
  3.75            2.7385e-009     0.0032535       -2.1683e-005   
  3.8             2.1072e-009     0.0033101       -2.1114e-005   
  3.85            1.5056e-009     0.0033657       -2.0563e-005   
  3.9             1.2994e-009     0.0034213       -2.001e-005    
  3.95            2.8591e-009     0.0034765       -1.9476e-005   
  4               2.3665e-009     0.0035326       -1.8935e-005   
  4.05            1.6806e-009     0.0035876       -1.8415e-005   
  4.1             1.3408e-009     0.0036424       -1.7901e-005   
  4.15            2.9192e-009     0.0036973       -1.7404e-005   
  4.2             2.6059e-009     0.0037527       -1.6898e-005   
  4.25            1.9328e-009     0.0038071       -1.6419e-005   
  4.3             1.4218e-009     0.0038618       -1.5949e-005   
  4.35            1.2823e-009     0.0039161       -1.5485e-005   
  4.4             2.7818e-009     0.0039702       -1.5037e-005   
  4.45            2.199e-009      0.0040257       -1.4578e-005   
  4.5             1.5591e-009     0.0040795       -1.415e-005    
  4.55            1.315e-009      0.0041332       -1.3725e-005   
  4.6             2.8847e-009     0.0041864       -1.3311e-005   
  4.65            2.4593e-009     0.0042406       -1.2901e-005   
  4.7             1.7656e-009     0.004294        -1.2511e-005   
  4.75            1.3671e-009     0.0043471       -1.2128e-005   
  4.8             2.9349e-009     0.0044005       -1.1754e-005   
  4.85            2.6693e-009     0.0044534       -1.1381e-005   
  4.9             2.0216e-009     0.0045061       -1.1027e-005   
  4.95            1.4635e-009     0.004559        -1.069e-005    
  5               1.3012e-009     0.004611        -1.0352e-005   
END_DB

BEGIN_DB
 ICCAP_VAR VS         0              
 ICCAP_VAR VB         -2.5           
 ICCAP_VAR VD         0.1            

 #VG              IG              ID              IB             
  0               5.666e-010      6.414e-010      2.5219e-008    
  0.05            1.6253e-009     -1.7545e-009    -1.264e-008    
  0.1             1.8597e-009     1.5483e-009     -8.926e-009    
  0.15            4.247e-010      2.3345e-009     1.0436e-008    
  0.2             -1.3502e-009    1.4218e-009     2.6212e-008    
  0.25            -1.3182e-009    4.69e-011       1.1397e-008    
  0.3             -2.7028e-009    1.825e-010      1.2107e-008    
  0.35            -1.9585e-009    -1.3284e-009    8.52e-010      
  0.4             -6.545e-010     -2.3067e-009    -1.1672e-008   
  0.45            1.2636e-009     -1.572e-009     -1.9473e-008   
  0.5             2.8726e-009     -1.57e-010      -1.3454e-008   
  0.55            1.363e-010      2.1746e-009     1.0156e-008    
  0.6             3.169e-010      2.2874e-009     1.0284e-008    
  0.65            5.141e-010      2.383e-009      1.0739e-008    
  0.7             -1.3381e-009    1.5557e-009     2.4506e-008    
  0.75            -2.7484e-009    4.157e-010      1.1363e-008    
  0.8             -2.6399e-009    3.982e-010      4.13e-010      
  0.85            -2.4803e-009    4.5576e-009     1.007e-009     
  0.9             1.8481e-009     2.0831e-008     1.0966e-008    
  0.95            1.3778e-009     7.6772e-008     -9.257e-009    
  1               -1.6555e-009    2.5656e-007     2.5163e-008    
  1.05            -4.649e-010     7.4609e-007     -1.0831e-008   
  1.1             1.2746e-009     1.9102e-006     1.0796e-008    
  1.15            2.7782e-009     4.3702e-006     -1.2014e-008   
  1.2             5.733e-010      8.7121e-006     1.0258e-008    
  1.25            -2.8074e-009    1.5062e-005     1.0815e-008    
  1.3             2.5e-011        2.32e-005       -1.1783e-008   
  1.35            -4.572e-010     3.3089e-005     -1.0786e-008   
  1.4             -9.217e-010     4.3815e-005     -1.1714e-008   
  1.45            1.5187e-009     5.4482e-005     -1.4187e-008   
  1.5             1.2942e-009     6.5293e-005     -8.788e-009    
  1.55            2.8422e-009     7.5764e-005     -1.0208e-008   
  1.6             1.4265e-009     8.574e-005      1.092e-008     
  1.65            2.579e-010      9.5672e-005     1.0421e-008    
  1.7             7.087e-010      0.000104698     1.0549e-008    
  1.75            -1.643e-009     0.000113419     1.9633e-008    
  1.8             -1.5421e-009    0.00012191      1.396e-009     
  1.85            -1.3566e-009    0.00012981      9.256e-009     
  1.9             -2.6994e-009    0.00013738      1.1324e-008    
  1.95            -2.2715e-009    0.00014453      8.12e-010      
  2               -1.6788e-009    0.00015151      3.132e-009     
  2.05            -1.3947e-009    0.00015819      7.385e-009     
  2.1             -1.3153e-009    0.00016469      1.1215e-008    
  2.15            -2.4788e-009    0.00017093      1.2595e-008    
  2.2             -1.8717e-009    0.00017687      2.026e-009     
  2.25            -1.4519e-009    0.00018271      5.286e-009     
  2.3             -1.3396e-009    0.00018837      1.0073e-008    
  2.35            -2.625e-009     0.00019385      1.1247e-008    
  2.4             -2.1005e-009    0.00019914      1.087e-009     
  2.45            -1.5603e-009    0.00020433      3.792e-009     
  2.5             -1.3666e-009    0.00020941      8.884e-009     
  2.55            -2.7203e-009    0.0002143       1.1489e-008    
  2.6             -2.3227e-009    0.00021909      8.33e-010      
  2.65            -1.7207e-009    0.00022377      2.73e-009      
  2.7             -1.4079e-009    0.00022834      6.996e-009     
  2.75            -1.3196e-009    0.00023285      1.11e-008      
  2.8             -2.515e-009     0.00023728      1.2016e-008    
  2.85            -1.9252e-009    0.00024148      1.755e-009     
  2.9             -1.4754e-009    0.00024566      4.895e-009     
  2.95            -1.3453e-009    0.00024973      9.82e-009      
  3               -2.6557e-009    0.00025379      1.1325e-008    
  3.05            -2.1556e-009    0.00025761      9.09e-010      
  3.1             -1.5896e-009    0.00026144      3.66e-009      
  3.15            -1.3759e-009    0.00026521      8.452e-009     
  3.2             -2.7348e-009    0.00026892      1.1315e-008    
  3.25            -2.3734e-009    0.00027246      5.87e-010      
  3.3             -1.7709e-009    0.00027601      2.519e-009     
  3.35            -1.4212e-009    0.00027949      6.46e-009      
  3.4             -1.3232e-009    0.00028288      1.0624e-008    
  3.45            -2.5614e-009    0.00028626      1.1485e-008    
  3.5             -1.9886e-009    0.00028945      1.481e-009     
  3.55            -1.5013e-009    0.0002927       4.361e-009     
  3.6             -1.3512e-009    0.00029588      9.702e-009     
  3.65            -2.6805e-009    0.00029896      1.1209e-008    
  3.7             -2.2187e-009    0.00030197      9.12e-010      
  3.75            -1.6354e-009    0.00030498      3.21e-009      
  3.8             -1.386e-009     0.0003079       7.899e-009     
  3.85            -2.7507e-009    0.00031076      1.1525e-008    
  3.9             -1.3101e-009    0.00031366      -1.1365e-008   
  3.95            -4.85e-011      0.00031628      -1.1596e-008   
  4               -5.561e-010     0.00031905      -1.0966e-008   
  4.05            1.9937e-009     0.00032172      -2.1432e-008   
  4.1             1.4347e-009     0.00032435      -9.095e-009    
  4.15            1.2831e-009     0.00032693      -8.666e-009    
