! VERSION = 6.00
BEGIN_HEADER
 ICCAP_INPUTS
  VG         V  B GROUND SMU4 0.001 LIN        1    0          5          101  0.05      
  VS         V  E GROUND SMU2 0.1 CON        0
  VB         V  C GROUND SMU3 0.1 LIN        3    0          -5         3    -2.5      
  VD         V  S GROUND SMU1 0.1 LIN        2    0.1        5          2    4.9       
 ICCAP_OUTPUTS
  IG         I  B GROUND SMU4 B
  ID         I  S GROUND SMU1 B
  IB         I  C GROUND SMU3 B
END_HEADER

BEGIN_DB
 ICCAP_VAR VS         0              
 ICCAP_VAR VB         0              
 ICCAP_VAR VD         0.1            

 #VG              IG              ID              IB             
  0               -9.062e-010     -8.434e-010     1.1074e-008    
  0.05            -1.3727e-009    1.4165e-009     2.727e-008     
  0.1             -1.3633e-009    3.44e-011       1.2762e-008    
  0.15            -2.669e-009     1.794e-010      1.4083e-008    
  0.2             2.3193e-009     -1.5623e-009    -2.0522e-008   
  0.25            1.3948e-009     2.1088e-009     -6.444e-009    
  0.3             -1.3733e-009    1.3106e-009     2.8847e-008    
  0.35            -1.3732e-009    -5.74e-011      1.147e-008     
  0.4             -1.3601e-009    1.457e-010      1.3024e-008    
  0.45            -2.6544e-009    5.431e-010      1.435e-008     
  0.5             1.8085e-009     3.221e-010      -1.2567e-008   
  0.55            1.5319e-009     4.9726e-009     -9.336e-009    
  0.6             -2.6931e-009    1.5897e-008     -1.2926e-008   
  0.65            2.0511e-009     5.4188e-008     -2.3618e-008   
  0.7             -1.614e-010     1.6744e-007     9.768e-009     
  0.75            -6.763e-010     4.6899e-007     -1.298e-008    
  0.8             2.8051e-009     1.1878e-006     9.41e-009      
  0.85            5.187e-010      2.7152e-006     1.2251e-008    
  0.9             9.258e-010      5.4008e-006     1.1134e-008    
  0.95            -1.4301e-009    9.5933e-006     1.2858e-008    
  1               1.7736e-009     1.4842e-005     7.386e-009     
  1.05            1.3391e-009     2.1131e-005     -9.372e-009    
  1.1             2.868e-009      2.8019e-005     -8.393e-009    
  1.15            -1.3596e-009    3.5277e-005     2.8197e-008    
  1.2             -2.4801e-009    4.2253e-005     1.4587e-008    
  1.25            -1.8759e-009    4.9024e-005     1.639e-009     
  1.3             -1.4283e-009    5.5597e-005     5.51e-009      
  1.35            -1.3733e-009    6.1924e-005     8.93e-009      
  1.4             -2.6257e-009    6.7998e-005     1.266e-008     
  1.45            -2.1875e-009    7.3748e-005     1.159e-009     
  1.5             -1.5747e-009    7.9354e-005     3.843e-009     
  1.55            -1.3725e-009    8.473e-005      7.711e-009     
  1.6             -2.6904e-009    8.9912e-005     1.1091e-008    
  1.65            2.0465e-009     9.4769e-005     -2.3423e-008   
  1.7             1.4207e-009     9.9581e-005     -8.411e-009    
  1.75            2.8541e-009     0.000104242     -7.913e-009    
  1.8             2.8183e-009     0.00010883      1.54e-010      
  1.85            -1.6374e-009    0.000113238     2.0417e-008    
  1.9             -1.4454e-009    0.00011768      1.571e-009     
  1.95            -1.3726e-009    0.0001218       8.767e-009     
  2               -2.637e-009     0.00012587      1.2505e-008    
  2.05            -2.2287e-009    0.00012974      1.132e-009     
  2.1             -1.6014e-009    0.00013359      3.678e-009     
  2.15            -1.369e-009     0.00013737      7.279e-009     
  2.2             -1.3595e-009    0.000141        1.0697e-008    
  2.25            -2.483e-009     0.00014462      1.4424e-008    
  2.3             -1.8855e-009    0.00014805      1.588e-009     
  2.35            -1.4236e-009    0.00015149      5.486e-009     
  2.4             -1.372e-009     0.00015483      8.918e-009     
  2.45            -2.6262e-009    0.00015813      1.2695e-008    
  2.5             -2.1886e-009    0.00016128      1.061e-009     
  2.55            -1.577e-009     0.00016443      4.044e-009     
  2.6             -1.3657e-009    0.00016751      7.484e-009     
  2.65            -2.6863e-009    0.00017055      1.0874e-008    
  2.7             2.0593e-009     0.00017345      -2.3701e-008   
  2.75            1.4067e-009     0.00017637      -8.448e-009    
  2.8             1.3187e-009     0.00017919      -7.8e-009      
  2.85            2.8228e-009     0.00018201      -1.1809e-008   
  2.9             5.072e-010      0.00018478      1.2309e-008    
  2.95            9.119e-010      0.00018745      1.1348e-008    
  3               -1.4296e-009    0.00019007      1.3269e-008    
  3.05            -1.3715e-009    0.00019274      8.907e-009     
  3.1             -2.6352e-009    0.0001953       1.2699e-008    
  3.15            -2.2149e-009    0.00019776      9.99e-010      
  3.2             -1.581e-009     0.00020024      3.899e-009     
  3.25            -1.3654e-009    0.00020264      7.35e-009      
  3.3             -2.6885e-009    0.00020502      1.0599e-008    
  3.35            2.0729e-009     0.00020736      -2.4087e-008   
  3.4             1.4111e-009     0.00020961      -8.359e-009    
  3.45            1.3207e-009     0.00021182      -7.956e-009    
  3.5             2.829e-009      0.00021408      -1.1405e-008   
  3.55            4.936e-010      0.00021627      1.2388e-008    
  3.6             9e-010          0.00021838      1.1492e-008    
  3.65            -1.4354e-009    0.00022046      1.3505e-008    
  3.7             -1.3703e-009    0.00022254      8.816e-009     
  3.75            -2.6424e-009    0.00022463      1.2628e-008    
  3.8             -2.2399e-009    0.00022655      9.47e-010      
  3.85            -1.6037e-009    0.00022853      3.668e-009     
  3.9             -1.3655e-009    0.00023048      7.334e-009     
  3.95            -2.6937e-009    0.00023234      1.0634e-008    
  4               2.1159e-009     0.00023416      -2.4488e-008   
  4.05            1.4296e-009     0.00023599      -8.181e-009    
  4.1             1.3195e-009     0.00023775      -8.056e-009    
  4.15            2.8306e-009     0.00023954      -1.0964e-008   
  4.2             4.783e-010      0.00024129      1.2239e-008    
  4.25            8.888e-010      0.00024301      1.1622e-008    
  4.3             -1.4482e-009    0.00024462      1.4176e-008    
  4.35            -1.37e-009      0.00024634      8.623e-009     
  4.4             -2.6472e-009    0.00024804      1.2306e-008    
  4.45            -2.2554e-009    0.00024955      9.06e-010      
  4.5             -1.623e-009     0.00025115      3.809e-009     
  4.55            -1.3678e-009    0.00025265      7.097e-009     
  4.6             -2.6928e-009    0.00025415      1.0313e-008    
  4.65            2.1386e-009     0.00025565      -2.4827e-008   
  4.7             1.4512e-009     0.0002571       -8.046e-009    
  4.75            2.8482e-009     0.00025848      -7.855e-009    
  4.8             2.8354e-009     0.00025993      2.75e-010      
  4.85            -1.6833e-009    0.00026128      2.1826e-008    
  4.9             -1.3716e-009    0.00026265      6.716e-009     
  4.95            -2.6995e-009    0.00026401      9.818e-009     
  5               2.2094e-009     0.00026532      -2.5406e-008   
END_DB

BEGIN_DB
 ICCAP_VAR VS         0              
 ICCAP_VAR VB         0              
 ICCAP_VAR VD         5              

 #VG              IG              ID              IB             
  0               2.599e-010      4.991e-010      1.7022e-008    
  0.05            1.8053e-009     -9.217e-010     -2.0926e-008   
  0.1             1.6906e-009     1.7384e-009     -9.45e-009     
  0.15            1.8541e-009     1.4638e-009     1.065e-008     
  0.2             4.677e-010      2.3041e-009     1.243e-008     
  0.25            6.494e-010      2.352e-009      1.1681e-008    
  0.3             8.09e-010       2.4405e-009     1.018e-008     
  0.35            -1.8344e-009    2.1065e-009     1.6706e-008    
  0.4             -1.5887e-009    1.364e-009      5.429e-009     
  0.45            -1.4449e-009    7.1659e-009     6.756e-009     
  0.5             2.559e-009      2.9562e-008     1.2356e-008    
  0.55            -1.605e-009     1.05414e-007    1.1617e-008    
  0.6             -2.3194e-009    3.3774e-007     -1.574e-008    
  0.65            -1.6774e-009    9.5776e-007     -6.907e-008    
  0.7             1.2373e-009     2.4578e-006     -1.7436e-007   
  0.75            2.2614e-009     5.6094e-006     -4.0951e-007   
  0.8             1.61e-009       1.1181e-005     -7.9934e-007   
  0.85            -1.4787e-009    2.0676e-005     -1.3002e-006   
  0.9             -1.3732e-009    3.364e-005      -2.0778e-006   
  0.95            -2.6605e-009    5.0403e-005     -2.9899e-006   
  1               -2.2859e-009    7.0145e-005     -4.0425e-006   
  1.05            -1.6571e-009    9.3258e-005     -5.1673e-006   
  1.1             -2.5562e-009    0.00011902      -6.3515e-006   
  1.15            -2.0258e-009    0.00014687      -7.5329e-006   
  1.2             -1.4843e-009    0.00017636      -8.697e-006    
  1.25            -1.374e-009     0.00020741      -9.8384e-006   
  1.3             -2.6669e-009    0.00023993      -1.0939e-005   
  1.35            2.2331e-009     0.00027227      -1.2013e-005   
  1.4             1.5078e-009     0.0003067       -1.2991e-005   
  1.45            1.3201e-009     0.00034173      -1.393e-005    
  1.5             2.8551e-009     0.0003773       -1.4806e-005   
  1.55            2.5273e-009     0.00041414      -1.561e-005    
  1.6             1.7963e-009     0.00045089      -1.6355e-005   
  1.65            1.3487e-009     0.00048825      -1.7039e-005   
  1.7             2.8693e-009     0.00052586      -1.764e-005    
  1.75            2.741e-009      0.00056433      -1.818e-005    
  1.8             2.1641e-009     0.00060261      -1.8663e-005   
  1.85            1.4804e-009     0.00064126      -1.9087e-005   
  1.9             1.3202e-009     0.00068001      -1.9448e-005   
  1.95            2.8483e-009     0.00071877      -1.9752e-005   
  2               2.4891e-009     0.0007584       -1.9995e-005   
  2.05            1.7498e-009     0.00079757      -2.0189e-005   
  2.1             1.3383e-009     0.00083725      -2.0351e-005   
  2.15            2.8693e-009     0.00087669      -2.0449e-005   
  2.2             2.7172e-009     0.00091685      -2.0499e-005   
  2.25            2.1089e-009     0.00095635      -2.0519e-005   
  2.3             1.4615e-009     0.00099621      -2.0501e-005   
  2.35            1.3199e-009     0.00103578      -2.0452e-005   
  2.4             2.841e-009      0.00107556      -2.036e-005    
  2.45            2.4494e-009     0.00111605      -2.0236e-005   
  2.5             -2.3405e-009    0.0011577       -2.0096e-005   
  2.55            -1.7031e-009    0.0011974       -1.9907e-005   
  2.6             -1.3852e-009    0.0012371       -1.9698e-005   
  2.65            -1.3657e-009    0.0012776       -1.9477e-005   
  2.7             -2.546e-009     0.0013177       -1.9238e-005   
  2.75            -1.9984e-009    0.001358        -1.8988e-005   
  2.8             -1.4655e-009    0.001398        -1.8706e-005   
  2.85            -1.374e-009     0.0014381       -1.8423e-005   
  2.9             -2.6591e-009    0.001478        -1.8113e-005   
  2.95            -2.2838e-009    0.0015176       -1.7812e-005   
  3               -1.6525e-009    0.0015577       -1.7489e-005   
  3.05            -1.38e-009      0.0015975       -1.7157e-005   
  3.1             -1.3625e-009    0.0016372       -1.6823e-005   
  3.15            -2.5227e-009    0.0016775       -1.6486e-005   
  3.2             -1.9406e-009    0.0017167       -1.6148e-005   
  3.25            -1.4495e-009    0.0017565       -1.5801e-005   
  3.3             -1.3742e-009    0.001796        -1.5441e-005   
  3.35            -2.6449e-009    0.0018359       -1.5093e-005   
  3.4             -2.2496e-009    0.0018749       -1.4749e-005   
  3.45            -1.6178e-009    0.0019147       -1.4398e-005   
  3.5             -1.3747e-009    0.0019543       -1.4046e-005   
  3.55            -1.3593e-009    0.0019934       -1.3697e-005   
  3.6             -2.5003e-009    0.0020329       -1.3345e-005   
  3.65            -1.9096e-009    0.0020717       -1.3016e-005   
  3.7             -1.4307e-009    0.0021109       -1.2673e-005   
  3.75            -1.374e-009     0.0021501       -1.2336e-005   
  3.8             -2.6342e-009    0.002189        -1.2003e-005   
  3.85            -2.2071e-009    0.0022277       -1.1685e-005   
  3.9             -1.5957e-009    0.0022667       -1.136e-005    
  3.95            -1.3704e-009    0.0023053       -1.1045e-005   
  4               -2.6942e-009    0.0023442       -1.0734e-005   
  4.05            -2.4533e-009    0.0023824       -1.0438e-005   
  4.1             -1.8529e-009    0.0024211       -1.0138e-005   
  4.15            1.3448e-009     0.0024585       -9.8699e-006   
  4.2             2.8775e-009     0.0024967       -9.5768e-006   
  4.25            2.7133e-009     0.0025356       -9.2913e-006   
  4.3             2.0982e-009     0.0025736       -9.0198e-006   
  4.35            1.4591e-009     0.0026118       -8.7558e-006   
  4.4             1.3254e-009     0.0026504       -8.4927e-006   
  4.45            2.8423e-009     0.0026882       -8.2384e-006   
  4.5             2.4424e-009     0.0027262       -7.9829e-006   
  4.55            1.6989e-009     0.0027635       -7.7425e-006   
  4.6             1.3339e-009     0.0028013       -7.51e-006     
  4.65            2.8807e-009     0.0028384       -7.2781e-006   
  4.7             2.6946e-009     0.0028764       -7.0495e-006   
  4.75            2.055e-009      0.0029135       -6.8303e-006   
  4.8             1.4343e-009     0.0029508       -6.6227e-006   
  4.85            1.329e-009      0.0029877       -6.4154e-006   
  4.9             2.8363e-009     0.0030245       -6.2159e-006   
  4.95            2.3995e-009     0.0030621       -6.0124e-006   
  5               1.6582e-009     0.0030988       -5.8238e-006   
END_DB

BEGIN_DB
 ICCAP_VAR VS         0              
 ICCAP_VAR VB         -2.5           
 ICCAP_VAR VD         0.1            

 #VG              IG              ID              IB             
  0               -2.172e-010     -3.892e-010     -1.0461e-008   
  0.05            -1.6428e-009    9.085e-010      2.2068e-008    
  0.1             -1.7843e-009    -1.5665e-009    6.906e-009     
  0.15            -3.494e-010     -2.2279e-009    -1.3141e-008   
  0.2             -5.509e-010     -2.2376e-009    -1.2946e-008   
  0.25            -7.492e-010     -2.2287e-009    -1.1878e-008   
  0.3             2.21e-009       -1.5949e-009    -1.8331e-008   
  0.35            1.4658e-009     2.048e-009      -7.507e-009    
  0.4             -1.3726e-009    1.3619e-009     2.8935e-008    
  0.45            -1.3752e-009    -2.09e-011      1.2167e-008    
  0.5             -2.6847e-009    1.169e-010      1.3588e-008    
  0.55            2.431e-009      -1.5237e-009    -2.2535e-008   
  0.6             1.3373e-009     2.1786e-009     -5.538e-009    
  0.65            -1.3687e-009    1.2523e-009     2.9206e-008    
  0.7             -1.2695e-009    -2.1295e-009    1.0796e-008    
  0.75            2.407e-010      -1.886e-009     -1.0217e-008   
  0.8             1.754e-009      -8.74e-010      -2.1098e-008   
  0.85            2.6756e-009     1.3932e-009     -9.286e-009    
  0.9             3.078e-010      3.4893e-009     1.2545e-008    
  0.95            4.98e-010       7.4825e-009     1.2718e-008    
  1               -2.4984e-009    2.0015e-008     -2.6724e-008   
  1.05            -1.9108e-009    7.6435e-008     1.591e-009     
  1.1             1.0265e-009     2.5458e-007     -1.875e-008    
  1.15            -1.753e-010     7.5244e-007     1.0215e-008    
  1.2             -2.6941e-009    1.8627e-006     -2.6769e-008   
  1.25            2.1206e-009     4.0563e-006     -2.455e-008    
  1.3             1.4405e-009     7.635e-006      -7.946e-009    
  1.35            -1.4592e-009    1.28e-005       -8e-009        
  1.4             -1.372e-009     1.8974e-005     8.454e-009     
  1.45            -2.659e-009     2.5838e-005     1.2452e-008    
  1.5             1.798e-009      3.2715e-005     -1.9339e-008   
  1.55            1.3394e-009     3.9813e-005     -9.281e-009    
  1.6             2.8668e-009     4.6693e-005     -8.31e-009     
  1.65            -2.0535e-009    5.3591e-005     2.878e-008     
  1.7             -1.4769e-009    5.9954e-005     4.982e-009     
  1.75            -1.3719e-009    6.6068e-005     8.497e-009     
  1.8             -2.6647e-009    7.1939e-005     1.2006e-008    
  1.85            1.8505e-009     7.7315e-005     -2.0418e-008   
  1.9             1.3543e-009     8.269e-005      -9.276e-009    
  1.95            1.3205e-009     8.7795e-005     -8.21e-009     
  2               2.7729e-009     9.2724e-005     -1.409e-008    
  2.05            6.167e-010      9.7566e-005     1.2633e-008    
  2.1             1.0046e-009     0.000102106     1.0343e-008    
  2.15            -2.005e-010     0.000106558     1.0607e-008    
  2.2             -1.4173e-009    0.000110918     2.2144e-008    
  2.25            1.8967e-009     0.00011504      1.3801e-008    
  2.3             7.658e-010      0.00011913      1.2616e-008    
  2.35            -1.5696e-009    0.00012307      1.8569e-008    
  2.4             -1.3681e-009    0.0001269       7.713e-009     
  2.45            -2.6881e-009    0.00013059      1.0966e-008    
  2.5             2.0371e-009     0.00013414      -2.3333e-008   
  2.55            1.405e-009      0.00013764      -8.476e-009    
  2.6             2.8591e-009     0.00014106      -7.91e-009     
  2.65            2.8184e-009     0.00014447      8.1e-011       
  2.7             5.3e-010        0.00014775      1.2414e-008    
  2.75            9.266e-010      0.00015101      1.1499e-008    
  2.8             -1.4211e-009    0.00015407      1.2839e-008    
  2.85            -1.3719e-009    0.0001572       8.805e-009     
  2.9             -2.6317e-009    0.00016022      1.2869e-008    
  2.95            -2.1885e-009    0.00016312      9.2e-010       
  3               -1.5659e-009    0.000166        4.04e-009      
  3.05            -1.367e-009     0.00016881      7.524e-009     
  3.1             -2.6882e-009    0.00017154      1.0857e-008    
  3.15            2.0502e-009     0.00017418      -2.3608e-008   
  3.2             1.4134e-009     0.00017681      -8.537e-009    
  3.25            1.3268e-009     0.0001794       -7.892e-009    
  3.3             2.8313e-009     0.00018195      -1.1896e-008   
  3.35            5.167e-010      0.00018449      1.2431e-008    
  3.4             9.164e-010      0.00018695      1.1292e-008    
  3.45            -1.4267e-009    0.00018929      1.293e-008     
  3.5             -1.3699e-009    0.0001917       8.678e-009     
  3.55            -2.6411e-009    0.00019403      1.2773e-008    
  3.6             -2.2054e-009    0.00019626      1.093e-009     
  3.65            -1.5734e-009    0.0001985       4.022e-009     
  3.7             -1.3673e-009    0.00020067      7.378e-009     
  3.75            -2.6842e-009    0.00020281      1.0935e-008    
  3.8             2.0637e-009     0.00020491      -2.3793e-008   
  3.85            1.4204e-009     0.00020698      -8.454e-009    
  3.9             1.3271e-009     0.00020898      -8.034e-009    
  3.95            2.8322e-009     0.00021098      -1.1515e-008   
  4               5.032e-010      0.00021297      1.2302e-008    
  4.05            9.078e-010      0.00021491      1.1265e-008    
  4.1             -1.428e-009     0.00021672      1.3303e-008    
  4.15            -1.3698e-009    0.00021863      8.828e-009     
