! VERSION = 6.00
BEGIN_HEADER
 ICCAP_INPUTS
  VG         V  B GROUND SMU4 0.001 LIN        2    0          5          6    1         
  VS         V  E GROUND SMU2 0.1 CON        0
  VD         V  S GROUND SMU1 0.1 LIN        1    0          5          101  0.05      
  VB         V  C GROUND SMU3 0.1 LIN        3    0          -2.5       2    -2.5      
 ICCAP_OUTPUTS
  ID         I  S GROUND SMU1 B
  IB         I  C GROUND SMU3 B
  IG         I  B GROUND SMU4 B
END_HEADER

BEGIN_DB
 ICCAP_VAR VG         0              
 ICCAP_VAR VS         0              
 ICCAP_VAR VB         0              

 #VD              ID              IB              IG             
  0               2.499e-010      1.0664e-008     -7.972e-010    
  0.05            2.566e-010      1.2815e-008     -2.6457e-009   
  0.1             -1.2927e-009    8.2e-010        -1.9916e-009   
  0.15            -1.7376e-009    -1.3021e-008    1.6794e-009    
  0.2             1.6029e-009     -9.236e-009     1.789e-009     
  0.25            2.2968e-009     1.0332e-008     3.758e-010     
  0.3             2.3763e-009     1.0675e-008     5.579e-010     
  0.35            1.4957e-009     2.3421e-008     -1.3309e-009   
  0.4             1.268e-010      1.132e-008      -1.302e-009    
  0.45            2.762e-010      1.3217e-008     -2.6331e-009   
  0.5             -1.2834e-009    6.76e-010       -1.9983e-009   
  0.55            -2.304e-009     -1.1191e-008    -7.391e-010    
  0.6             -1.6132e-009    -1.7796e-008    1.2574e-009    
  0.65            -2.177e-010     -1.3768e-008    2.8608e-009    
  0.7             2.182e-009      1.0311e-008     1.829e-010     
  0.75            2.2901e-009     1.0259e-008     3.592e-010     
  0.8             2.3692e-009     1.053e-008      5.307e-010     
  0.85            1.4813e-009     2.3846e-008     -1.3325e-009   
  0.9             1.116e-010      1.1375e-008     -1.3057e-009   
  0.95            2.543e-010      1.2922e-008     -2.6552e-009   
  1               -1.2955e-009    7.98e-010       -1.9909e-009   
  1.05            -2.3015e-009    -1.1275e-008    -7.13e-010     
  1.1             -1.6004e-009    -1.8202e-008    1.2608e-009    
  1.15            -1.896e-010     -1.3756e-008    2.8744e-009    
  1.2             2.173e-009      1.0309e-008     1.554e-010     
  1.25            2.2811e-009     1.0372e-008     3.312e-010     
  1.3             2.3618e-009     1.0554e-008     5.064e-010     
  1.35            1.4597e-009     2.5044e-008     -1.3305e-009   
  1.4             5.91e-011       1.1066e-008     -1.3042e-009   
  1.45            1.995e-010      1.2467e-008     -2.6721e-009   
  1.5             -1.3079e-009    7.75e-010       -1.97e-009     
  1.55            -2.2978e-009    -1.1325e-008    -6.625e-010    
  1.6             -1.5802e-009    -1.9351e-008    1.2639e-009    
  1.65            -1.727e-010     -1.2898e-008    2.8835e-009    
  1.7             2.1585e-009     1.0121e-008     1.357e-010     
  1.75            2.2665e-009     1.0302e-008     3.118e-010     
  1.8             2.3589e-009     1.0576e-008     4.877e-010     
  1.85            1.4386e-009     2.5284e-008     -1.3365e-009   
  1.9             8.09e-011       1.1315e-008     -1.3103e-009   
  1.95            2.153e-010      1.2421e-008     -2.6756e-009   
  2               -1.3199e-009    7.04e-010       -1.9636e-009   
  2.05            -2.2986e-009    -1.1397e-008    -6.571e-010    
  2.1             -2.2912e-009    -1.1331e-008    -8.437e-010    
  2.15            -2.253e-009     -1.1137e-008    -9.929e-010    
  2.2             -1.7145e-009    -1.3333e-008    1.7305e-009    
  2.25            1.6676e-009     -9.49e-009      1.7527e-009    
  2.3             1.4366e-009     9.813e-009      1.9262e-009    
  2.35            2.3678e-009     1.0517e-008     5.13e-010      
  2.4             1.468e-009      2.4788e-008     -1.3334e-009   
  2.45            1.011e-010      1.1155e-008     -1.3074e-009   
  2.5             2.433e-010      1.2712e-008     -2.6655e-009   
  2.55            -1.2989e-009    7.3e-010        -1.9781e-009   
  2.6             -2.2934e-009    -1.1369e-008    -6.9e-010      
  2.65            -1.5847e-009    -1.8976e-008    1.26e-009      
  2.7             -1.677e-010     -1.3313e-008    2.8786e-009    
  2.75            2.1694e-009     1.0203e-008     1.443e-010     
  2.8             2.2775e-009     1.0296e-008     3.188e-010     
  2.85            2.3646e-009     1.0512e-008     4.88e-010      
  2.9             2.4169e-009     1.0784e-008     6.665e-010     
  2.95            2.4229e-009     1.0613e-008     8.398e-010     
  3               1.7278e-009     1.6579e-008     -1.7918e-009   
  3.05            -1.6756e-009    6.256e-009      -1.7041e-009   
  3.1             -2.167e-009     -1.0826e-008    -2.289e-010    
  3.15            -2.2419e-009    -1.1003e-008    -4.288e-010    
  3.2             -2.2817e-009    -1.1369e-008    -6.243e-010    
  3.25            -2.2805e-009    -1.1426e-008    -8.132e-010    
  3.3             -1.6258e-009    -1.6506e-008    2.0609e-009    
  3.35            1.9552e-009     -8.548e-009     1.5413e-009    
  3.4             2.1698e-009     1.0191e-008     1.27e-010      
  3.45            2.28e-009       1.0366e-008     2.984e-010     
  3.5             2.3707e-009     1.0543e-008     4.746e-010     
  3.55            1.4552e-009     2.5502e-008     -1.3407e-009   
  3.6             9.45e-011       1.1011e-008     -1.3136e-009   
  3.65            2.296e-010      1.2039e-008     -2.6893e-009   
  3.7             -1.3018e-009    6.12e-010       -1.9564e-009   
  3.75            -2.2674e-009    -1.1365e-008    -6.383e-010    
  3.8             -2.2596e-009    -1.1335e-008    -8.301e-010    
  3.85            -2.2229e-009    -1.1128e-008    -9.785e-010    
  3.9             -1.6733e-009    -1.3443e-008    1.7604e-009    
  3.95            1.727e-009      -9.462e-009     1.7306e-009    
  4               1.4924e-009     9.809e-009      1.9062e-009    
  4.05            2.3996e-009     1.0532e-008     4.958e-010     
  4.1             6.221e-010      1.8453e-008     -2.2762e-009   
  4.15            -1.9962e-009    3.023e-009      -1.372e-009    
  4.2             -1.89e-009      -1.1289e-008    1.244e-010     
  4.25            -2.014e-009     -1.09e-008      -3.16e-011     
  4.3             -2.1189e-009    -1.0937e-008    -2.181e-010    
  4.35            -2.1876e-009    -1.1026e-008    -4.185e-010    
  4.4             -2.2196e-009    -1.1446e-008    -6.161e-010    
  4.45            -2.2158e-009    -1.127e-008     -8.071e-010    
  4.5             -2.1859e-009    -1.1128e-008    -9.573e-010    
  4.55            -1.6151e-009    -1.3518e-008    1.7855e-009    
  4.6             1.8079e-009     -9.461e-009     1.7094e-009    
  4.65            1.5668e-009     1.0032e-008     1.8813e-009    
  4.7             2.4484e-009     1.057e-008      4.706e-010     
  4.75            2.5123e-009     1.0798e-008     6.458e-010     
  4.8             1.693e-009      2.1462e-008     -1.3181e-009   
  4.85            3.331e-010      1.2013e-008     -2.6955e-009   
  4.9             -2.1272e-009    6.18e-010       -9.651e-010    
  4.95            -1.5574e-009    -1.3521e-008    1.7725e-009    
  5               1.8583e-009     -9.379e-009     1.7152e-009    
END_DB

BEGIN_DB
 ICCAP_VAR VG         1              
 ICCAP_VAR VS         0              
 ICCAP_VAR VB         0              

 #VD              ID              IB              IG             
  0               -3.6133e-007    -1.476e-008     2.8122e-009    
  0.05            3.2302e-005     1.0616e-008     -2.7914e-009   
  0.1             5.705e-005      1.0641e-008     1.2623e-009    
  0.15            7.5818e-005     -1.2687e-008    2.7258e-009    
  0.2             9.0078e-005     -1.082e-008     -3.666e-010    
  0.25            0.000101292     2.1054e-008     -1.6652e-009   
  0.3             0.000109841     1.2283e-008     -1.115e-010    
  0.35            0.00011632      -1.0594e-008    1.877e-010     
  0.4             0.00012367      1.54e-008       -2.2177e-009   
  0.45            0.00012882      1.0534e-008     7.298e-010     
  0.5             0.00013348      -2.5746e-008    1.3203e-009    
  0.55            0.0001387       -1.088e-008     -5.595e-010    
  0.6             0.0001441       2.4534e-008     -1.4382e-009   
  0.65            0.00014823      1.0297e-008     2.971e-010     
  0.7             0.00015151      -2.1498e-008    1.6342e-009    
  0.75            0.00015681      -1.104e-008     -1.2378e-009   
  0.8             0.00016074      1.1762e-008     -2.5056e-009   
  0.85            0.00016335      1.0235e-008     2.0812e-009    
  0.9             0.00016729      -1.0905e-008    -2.52e-010     
  0.95            0.00017179      2.1441e-008     -1.622e-009    
  1               0.00017446      1.0599e-008     1.1297e-009    
  1.05            0.00017777      -1.2669e-008    2.7406e-009    
  1.1             0.0001816       -1.0864e-008    -4.923e-010    
  1.15            0.00018564      2.3751e-008     -1.4702e-009   
  1.2             0.00018758      1.07e-008       1.3157e-009    
  1.25            0.00019115      -1.6942e-008    1.7176e-009    
  1.3             0.00019445      -1.1704e-008    -8e-012        
  1.35            0.00019856      1.8552e-008     -1.9141e-009   
  1.4             0.0002014       1.314e-008      -1.752e-010    
  1.45            0.00020344      -1.6611e-008    2.4084e-009    
  1.5             0.00020717      -1.1091e-008    -7.995e-010    
  1.55            0.00021082      2.7131e-008     -1.3716e-009   
  1.6             0.00021327      1.0099e-008     5.125e-010     
  1.65            0.00021514      -2.3963e-008    1.4309e-009    
  1.7             0.00021816      -1.1357e-008    -2.98e-010     
  1.75            0.00022213      2.1135e-008     -1.5882e-009   
  1.8             0.00022336      9.592e-009      1.1642e-009    
  1.85            0.00022657      -2.2265e-008    1.9714e-009    
  1.9             0.00022977      -1.3469e-008    -1.0341e-009   
  1.95            0.00023291      8.06e-009       -2.6831e-009   
  2               0.00023543      1.3476e-008     -1.9292e-009   
  2.05            0.00023816      6.501e-009      -2.4193e-009   
  2.1             0.0002407       2.499e-009      -2.7097e-009   
  2.15            0.00024325      5.519e-009      -2.0082e-009   
  2.2             0.00024488      -6.172e-009     2.362e-009     
  2.25            0.00024752      -3.1485e-008    -6.967e-010    
  2.3             0.00025082      -2.88e-010      -1.3971e-009   
  2.35            0.00025235      -2.6135e-008    2.8444e-009    
  2.4             0.00025563      -5.3834e-008    -1.3383e-009   
  2.45            0.00025784      -3.2121e-008    -1.7131e-009   
  2.5             0.00025974      -5.7219e-008    2.5099e-009    
  2.55            0.00026238      -9.2548e-008    -9.174e-010    
  2.6             0.00026529      -7.0696e-008    -1.3459e-009   
  2.65            0.00026682      -1.0951e-007    -2.6737e-009   
  2.7             0.00026862      -1.3331e-007    1.079e-009     
  2.75            0.00027115      -1.9493e-007    1.2533e-009    
  2.8             0.00027407      -2.0727e-007    -2.7323e-009   
  2.85            0.00027496      -2.2956e-007    1.7442e-009    
  2.9             0.00027787      -2.962e-007     9.61e-011      
  2.95            0.00028162      -3.1589e-007    -2.0699e-009   
  3               0.00028293      -3.7827e-007    2.3358e-009    
  3.05            0.00028529      -4.62e-007      -6.471e-010    
  3.1             0.00028845      -4.9581e-007    -1.4093e-009   
  3.15            0.00028976      -5.94e-007      2.8246e-009    
  3.2             0.00029318      -7.056e-007     -1.2859e-009   
  3.25            0.00029518      -7.7326e-007    -1.7583e-009   
  3.3             0.00029673      -9.0114e-007    2.4831e-009    
  3.35            0.00029938      -1.0525e-006    -8.75e-010     
  3.4             0.00030144      -1.1857e-006    -1.0563e-009   
  3.45            0.00030324      -1.3508e-006    1.4948e-009    
  3.5             0.00030622      -1.5361e-006    -2.6628e-009   
  3.55            0.00030804      -1.7135e-006    1.0638e-009    
  3.6             0.00031063      -1.9761e-006    1.2541e-009    
  3.65            0.00031358      -2.2007e-006    -2.7428e-009   
  3.7             0.00031465      -2.4505e-006    1.7204e-009    
  3.75            0.00031762      -2.7768e-006    1.122e-010     
  3.8             0.00032165      -3.0778e-006    -2.0989e-009   
  3.85            0.00032327      -3.4375e-006    2.3171e-009    
  3.9             0.00032598      -3.8596e-006    -6.266e-010    
  3.95            0.00032959      -4.2474e-006    -1.4157e-009   
  4               0.00033141      -4.7315e-006    2.8101e-009    
  4.05            0.00033512      -5.2753e-006    -1.2756e-009   
  4.1             0.00033766      -5.7792e-006    -1.7885e-009   
  4.15            0.00033987      -6.3986e-006    2.4683e-009    
  4.2             0.00034308      -7.0792e-006    -8.624e-010    
  4.25            0.00034669      -7.7179e-006    -1.3563e-009   
  4.3             0.00034875      -8.4919e-006    2.913e-009     
  4.35            0.00035318      -9.3384e-006    -1.4923e-009   
  4.4             0.00035579      -1.01563e-005   -1.5521e-009   
  4.45            0.0003585       -1.10833e-005   2.6327e-009    
  4.5             0.00036211      -1.2051e-005    -2.5229e-009   
  4.55            0.00036456      -1.3061e-005    2.0548e-009    
  4.6             0.00036842      -1.4224e-005    -2.225e-010    
  4.65            0.00037327      -1.5376e-005    -1.6509e-009   
  4.7             0.00037628      -1.6624e-005    2.5467e-009    
  4.75            0.0003806       -1.8013e-005    -9.568e-010    
  4.8             0.00038507      -1.9333e-005    -1.3368e-009   
  4.85            0.00038817      -2.0866e-005    2.936e-009     
  4.9             0.00039385      -2.252e-005     -1.6092e-009   
  4.95            0.00039755      -2.4109e-005    -1.4715e-009   
  5               0.00040137      -2.5823e-005    2.7277e-009    
END_DB

BEGIN_DB
 ICCAP_VAR VG         2              
 ICCAP_VAR VS         0              
 ICCAP_VAR VB         0              

 #VD              ID              IB              IG             
  0               -1.5645e-006    -1.6593e-008    -1.2941e-009   
  0.05            0.00012153      1.0335e-008     2.4754e-009    
  0.1             0.00023829      -1.1197e-008    -8.65e-010     
  0.15            0.00034964      2.7603e-008     -1.3623e-009   
  0.2             0.00045451      1.0255e-008     5.943e-010     
  0.25            0.00055171      -2.4866e-008    1.3911e-009    
  0.3             0.00064219      -1.1757e-008    -1.5238e-009   
  0.35            0.00072325      1.6124e-008     -1.5274e-009   
  0.4             0.00079645      1.0983e-008     1.517e-010     
  0.45            0.00086035      -2.0631e-008    1.8403e-009    
  0.5             0.00091677      -1.213e-008     7.41e-011      
  0.55            0.00096694      1.7164e-008     -2.0171e-009   
  0.6             0.00100832      1.0802e-008     8.55e-010      
  0.65            0.00104391      -2.5798e-008    1.2963e-009    
  0.7             0.0010754       -1.0931e-008    -6.998e-010    
  0.75            0.00110257      2.6387e-008     -1.4008e-009   
  0.8             0.00112457      1.0268e-008     4.208e-010     
  0.85            0.0011446       -2.3142e-008    5.77e-010      
  0.9             0.0011608       -2.4743e-008    1.3996e-009    
  0.95            0.0011762       -1.0909e-008    -3.764e-010    
  1               0.0011912       2.3156e-008     -1.5371e-009   
  1.05            0.0012034       1.097e-008      1.414e-010     
  1.1             0.0012134       -2.0459e-008    1.8601e-009    
  1.15            0.0012237       -1.2158e-008    8.37e-011      
  1.2             0.0012347       1.6995e-008     -2.0376e-009   
  1.25            0.001243        1.0675e-008     8.372e-010     
  1.3             0.001251        -2.5764e-008    1.3008e-009    
  1.35            0.0012598       -1.0878e-008    -6.889e-010    
  1.4             0.0012683       2.6188e-008     -1.4046e-009   
  1.45            0.0012755       1.0256e-008     4.135e-010     
  1.5             0.0012809       -2.3275e-008    1.5181e-009    
  1.55            0.0012897       -1.1115e-008    -1.3461e-009   
  1.6             0.0012962       1.3013e-008     -2.3578e-009   
  1.65            0.0013013       1.0299e-008     6.141e-010     
  1.7             0.0013063       -2.5027e-008    1.378e-009     
  1.75            0.0013146       -1.2029e-008    -1.5466e-009   
  1.8             0.0013194       1.5387e-008     -1.5103e-009   
  1.85            0.0013252       1.041e-008      1.706e-010     
  1.9             0.0013288       -2.1672e-008    1.7993e-009    
  1.95            0.0013354       -1.2371e-008    -1.1245e-009   
  2               0.0013406       9.391e-009      -2.6065e-009   
  2.05            0.0013455       1.7297e-008     -1.787e-009    
  2.1             0.0013504       1.0242e-008     -2.2739e-009   
  2.15            0.001355        5.48e-009       -2.6474e-009   
  2.2             0.0013594       1.0828e-008     -1.8543e-009   
  2.25            0.0013627       -2.397e-009     2.4317e-009    
  2.3             0.0013673       -2.7126e-008    -8.029e-010    
  2.35            0.0013724       5.157e-009      -1.3751e-009   
  2.4             0.0013752       -2.2737e-008    2.9046e-009    
  2.45            0.0013806       -5.0639e-008    -1.4298e-009   
  2.5             0.001384        -3.3299e-008    -1.6009e-009   
  2.55            0.0013872       -5.8602e-008    2.5858e-009    
  2.6             0.0013914       -9.7025e-008    -9.985e-010    
  2.65            0.0013957       -8.1421e-008    1.8181e-009    
  2.7             0.0013984       -1.4519e-007    2.7005e-009    
  2.75            0.001403        -1.8102e-007    -1.1261e-009   
  2.8             0.0014069       -1.8425e-007    -1.3111e-009   
  2.85            0.0014089       -2.5502e-007    2.9166e-009    
  2.9             0.001414        -3.2432e-007    -1.7778e-009   
  2.95            0.0014169       -3.6567e-007    -8.98e-011     
  3               0.0014188       -4.7133e-007    2.2442e-009    
  3.05            0.0014232       -5.514e-007     -2.2131e-009   
  3.1             0.001427        -6.3366e-007    5.842e-010     
  3.15            0.0014289       -7.8542e-007    1.3959e-009    
  3.2             0.0014333       -9.0254e-007    -2.7488e-009   
  3.25            0.0014355       -1.03901e-006   1.203e-009     
  3.3             0.0014399       -1.2147e-006    2.3441e-009    
  3.35            0.0014434       -1.4351e-006    -6.581e-010    
  3.4             0.0014477       -1.6253e-006    -1.4102e-009   
  3.45            0.00145         -1.8978e-006    2.8402e-009    
  3.5             0.0014546       -2.2054e-006    -1.3036e-009   
  3.55            0.0014578       -2.4959e-006    -1.7397e-009   
  3.6             0.0014604       -2.877e-006     2.495e-009     
  3.65            0.0014642       -3.3073e-006    -8.844e-010    
  3.7             0.0014686       -3.729e-006     -1.3563e-009   
  3.75            0.0014709       -4.2617e-006    2.9331e-009    
  3.8             0.0014762       -4.853e-006     -1.5202e-009   
  3.85            0.0014792       -5.4606e-006    -1.5264e-009   
  3.9             0.0014823       -6.1805e-006    2.6581e-009    
  3.95            0.0014871       -6.9829e-006    -1.0823e-009   
  4               0.0014914       -7.8141e-006    -1.3184e-009   
  4.05            0.0014947       -8.7962e-006    2.9296e-009    
  4.1             0.0015002       -9.8716e-006    -1.7387e-009   
  4.15            0.0015039       -1.10094e-005   -1.349e-010    
