! VERSION = 6.00
BEGIN_HEADER
 ICCAP_INPUTS
  VG         V  B GROUND SMU4 0.001 LIN        1    0          5          101  0.05      
  VS         V  E GROUND SMU2 0.1 CON        0
  VB         V  C GROUND SMU3 0.1 LIN        3    0          -5         3    -2.5      
  VD         V  S GROUND SMU1 0.1 LIN        2    0.1        5          2    4.9       
 ICCAP_OUTPUTS
  IG         I  B GROUND SMU4 B
  ID         I  S GROUND SMU1 B
  IB         I  C GROUND SMU3 B
END_HEADER

BEGIN_DB
 ICCAP_VAR VS         0              
 ICCAP_VAR VB         0              
 ICCAP_VAR VD         0.1            

 #VG              IG              ID              IB             
  0               -7.32e-010      -7.999e-010     1.1081e-008    
  0.05            -1.3068e-009    1.6467e-009     1.8767e-008    
  0.1             -2.6471e-009    2.791e-010      1.3359e-008    
  0.15            -1.9949e-009    -1.2514e-009    7.11e-010      
  0.2             -7.378e-010     -2.1743e-009    -1.1315e-008   
  0.25            1.2574e-009     -1.0614e-009    -1.8015e-008   
  0.3             2.8583e-009     3.0239e-009     -1.3981e-008   
  0.35            1.815e-010      1.03136e-008    1.0129e-008    
  0.4             -2.2079e-009    2.9769e-008     -2.2157e-008   
  0.45            9.497e-010      1.1391e-007     -1.7554e-008   
  0.5             -2.214e-010     4.0151e-007     1.3869e-008    
  0.55            -1.4538e-009    1.2552e-006     -1.0806e-008   
  0.6             -1.3355e-009    3.5565e-006     1.0153e-008    
  0.65            -2.6412e-009    8.7091e-006     1.1167e-008    
  0.7             2.5901e-009     1.8287e-005     -1.0858e-008   
  0.75            4.953e-010      3.4343e-005     1.0214e-008    
  0.8             -1.3049e-009    5.7104e-005     2.5285e-008    
  0.85            -2.3952e-009    8.5549e-005     1.3561e-008    
  0.9             -1.6048e-009    0.00011793      7.63e-010      
  0.95            -1.378e-009     0.00015236      8.366e-009     
  1               -1.3065e-009    0.00018707      1.1426e-008    
  1.05            -2.4248e-009    0.00022131      1.2946e-008    
  1.1             -1.8214e-009    0.00025391      2.43e-009      
  1.15            -1.4428e-009    0.00028571      5.844e-009     
  1.2             -1.3335e-009    0.00031535      1.0477e-008    
  1.25            -2.6214e-009    0.00034356      1.1323e-008    
  1.3             -2.1046e-009    0.00036999      8.08e-010      
  1.35            -1.5628e-009    0.00039539      3.872e-009     
  1.4             -1.3708e-009    0.0004195       8.617e-009     
  1.45            -1.3042e-009    0.00044239      1.1441e-008    
  1.5             -2.3912e-009    0.00046445      1.3422e-008    
  1.55            -8.316e-010     0.00048503      -1.1245e-008   
  1.6             -1.208e-009     0.00050536      -1.1154e-008   
  1.65            3.85e-011       0.00052391      -1.188e-008    
  1.7             -4.235e-010     0.00054288      -1.08e-008     
  1.75            -8.833e-010     0.00056102      -1.1317e-008   
  1.8             -1.2647e-009    0.00057855      -1.1111e-008   
  1.85            -5e-012         0.00059467      -1.1668e-008   
  1.9             -4.907e-010     0.00061124      -1.0831e-008   
  1.95            -9.256e-010     0.00062713      -1.1332e-008   
  2               1.5205e-009     0.00064185      -1.4226e-008   
  2.05            1.2962e-009     0.00065687      -8.764e-009    
  2.1             2.8739e-009     0.00067126      -9.866e-009    
  2.15            4.334e-010      0.00068563      1.0176e-008    
  2.2             8.52e-010       0.0006991       1.0707e-008    
  2.25            -1.5146e-009    0.00071229      1.606e-008     
  2.3             -1.3515e-009    0.00072552      9.383e-009     
  2.35            -2.6966e-009    0.00073823      1.1187e-008    
  2.4             -2.2785e-009    0.00075048      5.85e-010      
  2.45            -1.6901e-009    0.0007625       2.987e-009     
  2.5             -1.4014e-009    0.00077424      6.974e-009     
  2.55            -1.3171e-009    0.00078585      1.1076e-008    
  2.6             -2.5337e-009    0.00079721      1.1916e-008    
  2.65            -1.959e-009     0.00080799      1.505e-009     
  2.7             -1.4939e-009    0.00081869      4.753e-009     
  2.75            -1.3498e-009    0.00082925      9.673e-009     
  2.8             -2.6859e-009    0.00083982      1.1133e-008    
  2.85            -2.2453e-009    0.00084976      7.18e-010      
  2.9             -1.6655e-009    0.00085975      3.09e-009      
  2.95            -1.3951e-009    0.00086927      7.307e-009     
  3               -1.3131e-009    0.00087891      1.0985e-008    
  3.05            -2.5062e-009    0.00088834      1.223e-008     
  3.1             -1.9136e-009    0.00089727      1.788e-009     
  3.15            -1.4779e-009    0.00090622      4.946e-009     
  3.2             -1.343e-009     0.00091493      9.909e-009     
  3.25            -2.6729e-009    0.00092363      1.1031e-008    
  3.3             -2.206e-009     0.00093205      6.37e-010      
  3.35            -1.6405e-009    0.00094037      3.313e-009     
  3.4             -1.3844e-009    0.00094853      7.776e-009     
  3.45            -1.3073e-009    0.00095643      1.119e-008     
  3.5             -2.4749e-009    0.00096452      1.2561e-008    
  3.55            -7.591e-010     0.00097193      -1.1041e-008   
  3.6             1.7425e-009     0.00097915      -1.7562e-008   
  3.65            1.349e-009      0.0009867       -9.362e-009    
  3.7             1.2576e-009     0.00099409      -8.747e-009    
  3.75            2.6823e-009     0.00100137      -1.3866e-008   
  3.8             2.5817e-009     0.0010083       8.489e-009     
  3.85            4.829e-010      0.00101538      1.0216e-008    
  3.9             -1.3034e-009    0.00102226      2.552e-008     
  3.95            -2.4032e-009    0.00102902      1.3253e-008    
  4               -1.7958e-009    0.00103537      2.384e-009     
  4.05            -1.4291e-009    0.00104182      6.137e-009     
  4.1             -1.3266e-009    0.00104809      1.0456e-008    
  4.15            -2.604e-009     0.00105438      1.1194e-008    
  4.2             -2.0709e-009    0.00106033      9.42e-010      
  4.25            -1.5534e-009    0.00106633      3.792e-009     
  4.3             -1.3639e-009    0.00107233      8.885e-009     
  4.35            -2.7265e-009    0.00107807      1.1353e-008    
  4.4             -2.3528e-009    0.0010837       5.56e-010      
  4.45            -1.7565e-009    0.00108937      2.447e-009     
  4.5             -1.4176e-009    0.00109494      6.567e-009     
  4.55            -1.323e-009     0.00110032      1.0598e-008    
  4.6             -2.5728e-009    0.00110577      1.136e-008     
  4.65            -2.0301e-009    0.00111088      1.218e-009     
  4.7             -1.5247e-009    0.00111593      4.227e-009     
  4.75            -1.357e-009     0.00112105      9.168e-009     
  4.8             -2.7104e-009    0.001126        1.1422e-008    
  4.85            -2.2981e-009    0.00113085      6.61e-010      
  4.9             -1.7134e-009    0.00113563      2.646e-009     
  4.95            1.3265e-009     0.0011409       6.808e-009     
  5               2.9137e-009     0.0011455       -8.735e-009    
END_DB

BEGIN_DB
 ICCAP_VAR VS         0              
 ICCAP_VAR VB         0              
 ICCAP_VAR VD         5              

 #VG              IG              ID              IB             
  0               -2.5048e-009    -6.333e-010     2.88e-010      
  0.05            -2.2884e-009    5.7912e-009     1.029e-009     
  0.1             2.7753e-009     2.5944e-008     1.4822e-008    
  0.15            2.9341e-009     9.425e-008      -4.45e-009     
  0.2             2.3391e-009     3.3408e-007     -4.3938e-008   
  0.25            1.4042e-009     1.0943e-006     -9.337e-008    
  0.3             1.2682e-009     3.3056e-006     -3.118e-007    
  0.35            2.7717e-009     8.8564e-006     -8.0474e-007   
  0.4             -2.7841e-009    2.1331e-005     -1.8216e-006   
  0.45            -2.7456e-009    4.4553e-005     -3.757e-006    
  0.5             -2.4197e-009    8.2926e-005     -6.7373e-006   
  0.55            -1.5215e-009    0.00013887      -1.08965e-005  
  0.6             1.2705e-009     0.00021105      -1.6239e-005   
  0.65            2.771e-009      0.00030025      -2.2166e-005   
  0.7             2.1936e-009     0.00040584      -2.8922e-005   
  0.75            1.557e-009      0.00052266      -3.6167e-005   
  0.8             1.3044e-009     0.0006495       -4.356e-005    
  0.85            2.8886e-009     0.00078432      -5.1e-005      
  0.9             2.5015e-009     0.00092823      -5.8399e-005   
  0.95            1.8213e-009     0.00107603      -6.5653e-005   
  1               -2.1518e-009    0.0012334       -7.2679e-005   
  1.05            -1.5871e-009    0.0013892       -7.954e-005    
  1.1             -1.3758e-009    0.0015491       -8.588e-005    
  1.15            -1.3044e-009    0.0017142       -9.1973e-005   
  1.2             -2.42e-009      0.001879        -9.7635e-005   
  1.25            -1.8044e-009    0.0020443       -0.000102959   
  1.3             -1.436e-009     0.002212        -0.000107829   
  1.35            -1.3325e-009    0.0023816       -0.000112304   
  1.4             1.7077e-009     0.0025471       -0.00011627    
  1.45            1.3433e-009     0.0027172       -0.00012007    
  1.5             1.2546e-009     0.0028884       -0.00012344    
  1.55            2.663e-009      0.0030596       -0.00012653    
  1.6             2.0153e-009     0.0032327       -0.00012916    
  1.65            1.4541e-009     0.003405        -0.00013153    
  1.7             1.2834e-009     0.0035768       -0.00013354    
  1.75            2.8311e-009     0.0037491       -0.00013523    
  1.8             2.3424e-009     0.0039237       -0.00013665    
  1.85            1.6598e-009     0.0040959       -0.00013782    
  1.9             1.33e-009       0.0042684       -0.00013866    
  1.95            2.9201e-009     0.0044402       -0.00013924    
  2               2.6167e-009     0.0046143       -0.00013957    
  2.05            1.9641e-009     0.0047857       -0.00013972    
  2.1             1.4317e-009     0.0049577       -0.00013958    
  2.15            1.28e-009       0.005129        -0.00013932    
  2.2             2.8118e-009     0.0052997       -0.0001388     
  2.25            2.2959e-009     0.0054724       -0.00013809    
  2.3             1.6283e-009     0.0056432       -0.00013724    
  2.35            1.3219e-009     0.0058135       -0.00013625    
  2.4             2.9104e-009     0.0059827       -0.0001351     
  2.45            2.5773e-009     0.0061548       -0.00013382    
  2.5             1.9081e-009     0.0063239       -0.0001324     
  2.55            1.4087e-009     0.0064926       -0.00013087    
  2.6             1.2759e-009     0.0066613       -0.00012924    
  2.65            2.7916e-009     0.0068292       -0.00012751    
  2.7             2.2321e-009     0.006999        -0.00012574    
  2.75            1.5873e-009     0.0071666       -0.00012387    
  2.8             1.3112e-009     0.0073356       -0.00012185    
  2.85            2.901e-009      0.0075023       -0.00011989    
  2.9             2.5334e-009     0.0076706       -0.00011782    
  2.95            1.857e-009      0.0078361       -0.00011573    
  3               1.3905e-009     0.0080017       -0.00011357    
  3.05            1.2717e-009     0.0081666       -0.00011145    
  3.1             2.7684e-009     0.0083307       -0.00010926    
  3.15            2.1848e-009     0.0084967       -0.00010705    
  3.2             1.5521e-009     0.0086604       -0.00010483    
  3.25            1.308e-009      0.0088239       -0.00010259    
  3.3             2.8915e-009     0.0089862       -0.00010037    
  3.35            -1.9173e-009    0.0091535       -9.8126e-005   
  3.4             -1.4782e-009    0.0093162       -9.5888e-005   
  3.45            -1.347e-009     0.0094784       -9.3657e-005   
  3.5             -2.6667e-009    0.0096408       -9.1446e-005   
  3.55            -2.2141e-009    0.0098004       -8.9254e-005   
  3.6             -1.6341e-009    0.0099612       -8.707e-005    
  3.65            -1.3839e-009    0.0101219       -8.4911e-005   
  3.7             2.5747e-009     0.010286        -8.2771e-005   
  3.75            -2.7806e-009    0.010447        -8.0663e-005   
  3.8             -2.5737e-009    0.010604        -7.8574e-005   
  3.85            -2.0387e-009    0.010763        -7.6523e-005   
  3.9             -1.5276e-009    0.010919        -7.4491e-005   
  3.95            -1.3525e-009    0.011079        -7.2492e-005   
  4               -2.7047e-009    0.011238        -7.0533e-005   
  4.05            -2.3138e-009    0.011393        -6.8622e-005   
  4.1             -1.7121e-009    0.011549        -6.6731e-005   
  4.15            -1.3962e-009    0.011707        -6.488e-005    
  4.2             -1.3017e-009    0.011862        -6.3051e-005   
  4.25            -2.5347e-009    0.012019        -6.1274e-005   
  4.3             -1.9705e-009    0.01217         -5.9543e-005   
  4.35            -1.4797e-009    0.012325        -5.782e-005    
  4.4             -1.3227e-009    0.012478        -5.6154e-005   
  4.45            -2.6618e-009    0.012633        -5.4493e-005   
  4.5             -2.2357e-009    0.012787        -5.2915e-005   
  4.55            -1.643e-009     0.012936        -5.1354e-005   
  4.6             -1.3579e-009    0.013089        -4.9829e-005   
  4.65            -2.7227e-009    0.013241        -4.8348e-005   
  4.7             -2.4571e-009    0.013389        -4.6903e-005   
  4.75            -1.8843e-009    0.01354         -4.5482e-005   
  4.8             -1.4244e-009    0.013691        -4.4099e-005   
  4.85            -1.2818e-009    0.013841        -4.2752e-005   
  4.9             -2.6009e-009    0.013988        -4.1443e-005   
  4.95            -2.1472e-009    0.014136        -4.0168e-005   
  5               -1.5635e-009    0.014286        -3.892e-005    
END_DB

BEGIN_DB
 ICCAP_VAR VS         0              
 ICCAP_VAR VB         -2.5           
 ICCAP_VAR VD         0.1            

 #VG              IG              ID              IB             
  0               1.2105e-009     1.0717e-009     1.1848e-008    
  0.05            2.4274e-009     -6.494e-010     -1.951e-008    
  0.1             1.3268e-009     2.1806e-009     -5.427e-009    
  0.15            -8.37e-011      2.0345e-009     1.0691e-008    
  0.2             7.83e-011       2.1208e-009     1.0186e-008    
  0.25            2.466e-010      2.2287e-009     1.0294e-008    
  0.3             4.255e-010      2.3223e-009     1.0425e-008    
  0.35            6.019e-010      2.3908e-009     1.0693e-008    
  0.4             -1.3232e-009    1.5561e-009     2.2727e-008    
  0.45            -2.7176e-009    2.322e-010      1.1561e-008    
  0.5             1.407e-010      -1.6099e-009    5.67e-010      
  0.55            2.4572e-009     2.0777e-009     -1.0868e-008   
  0.6             2.1823e-009     5.93e-009       -4.757e-009    
  0.65            -1.3489e-009    2.0686e-008     -1.0969e-008   
  0.7             -2.6767e-009    8.1861e-008     1.1203e-008    
  0.75            4.076e-010      2.9731e-007     -9.604e-009    
  0.8             8.328e-010      9.7219e-007     1.0744e-008    
  0.85            -2.7175e-009    2.8653e-006     -1.1235e-008   
  0.9             -2.333e-009     7.1845e-006     6.25e-010      
  0.95            1.3878e-009     1.5591e-005     1.006e-009     
  1               1.2659e-009     2.9963e-005     -8.616e-009    
  1.05            2.7519e-009     5.0915e-005     -1.2694e-008   
  1.1             6.105e-010      7.863e-005      1.0275e-008    
  1.15            -1.7557e-009    0.000110947     2.2415e-008    
  1.2             -1.3494e-009    0.00014532      5.208e-009     
  1.25            -2.6694e-009    0.00017984      1.131e-008     
  1.3             -2.1981e-009    0.0002135       6.7e-010       
  1.35            -1.6229e-009    0.00024626      3.217e-009     
  1.4             -1.386e-009     0.00027727      7.801e-009     
  1.45            -1.3106e-009    0.00030662      1.1219e-008    
  1.5             -2.4709e-009    0.00033444      1.2472e-008    
  1.55            -1.8717e-009    0.00036037      1.997e-009     
  1.6             -1.4601e-009    0.00038511      5.283e-009     
  1.65            -1.3399e-009    0.00040862      9.97e-009      
  1.7             -2.6479e-009    0.00043101      1.1144e-008    
  1.75            -2.1576e-009    0.00045207      7.3e-010       
  1.8             -1.5998e-009    0.00047242      3.588e-009     
  1.85            -1.3805e-009    0.00049188      8.085e-009     
  1.9             -1.3074e-009    0.00051054      1.1375e-008    
  1.95            -2.4404e-009    0.00052863      1.3001e-008    
  2               -1.8398e-009    0.00054559      2.07e-009      
  2.05            -1.4489e-009    0.00056229      5.583e-009     
  2.1             -1.3368e-009    0.00057836      1.0233e-008    
  2.15            -2.6313e-009    0.00059402      1.1232e-008    
  2.2             -2.1238e-009    0.00060892      7.97e-010      
  2.25            -1.5843e-009    0.00062355      3.559e-009     
  2.3             -1.374e-009     0.00063774      8.422e-009     
  2.35            -1.3036e-009    0.0006515       1.1421e-008    
  2.4             -2.4207e-009    0.00066498      1.3189e-008    
  2.45            -8.082e-010     0.00067771      -1.1111e-008   
  2.5             1.6809e-009     0.00069         -1.6479e-008   
  2.55            1.335e-009      0.00070258      -9.06e-009     
  2.6             2.9184e-009     0.00071453      -8.674e-009    
  2.65            2.6264e-009     0.00072645      -5.07e-010     
  2.7             1.9638e-009     0.00073789      -3.12e-009     
  2.75            1.4398e-009     0.00074912      -9.162e-009    
  2.8             1.2816e-009     0.00076017      -8.561e-009    
  2.85            2.8197e-009     0.00077087      -1.0996e-008   
  2.9             5.243e-010      0.00078149      1.0209e-008    
  2.95            -1.8668e-009    0.00079196      1.8553e-008    
  3               -1.4517e-009    0.00080188      5.623e-009     
  3.05            -1.3353e-009    0.00081171      1.0103e-008    
  3.1             -2.6375e-009    0.0008214       1.1004e-008    
  3.15            -2.1438e-009    0.00083061      9.18e-010      
  3.2             -1.5888e-009    0.0008399       3.538e-009     
  3.25            -1.3751e-009    0.00084894      8.265e-009     
  3.3             -1.3031e-009    0.00085778      1.1521e-008    
  3.35            -2.4211e-009    0.00086666      1.2949e-008    
  3.4             -8.056e-010     0.0008749       -1.1054e-008   
  3.45            1.683e-009      0.00088289      -1.6495e-008   
  3.5             1.3349e-009     0.00089126      -9.018e-009    
  3.55            1.2547e-009     0.00089926      -8.653e-009    
  3.6             2.636e-009      0.0009074       -1.4279e-008   
  3.65            2.6167e-009     0.00091497      8.095e-009     
  3.7             5.178e-010      0.00092274      1.0204e-008    
  3.75            -1.2974e-009    0.00093033      2.4652e-008    
  3.8             -2.3453e-009    0.00093775      1.3726e-008    
  3.85            -1.7281e-009    0.00094477      2.71e-009      
  3.9             -1.414e-009     0.00095184      6.612e-009     
  3.95            -1.3201e-009    0.0009588       1.0923e-008    
  4               -2.5628e-009    0.0009657       1.1433e-008    
  4.05            -1.9956e-009    0.00097224      1.329e-009     
  4.1             -1.5081e-009    0.00097883      4.442e-009     
  4.15            -1.353e-009     0.00098531      9.497e-009     
