! VERSION = 6.00
BEGIN_HEADER
 ICCAP_INPUTS
  VG         V  B GROUND SMU4 0.001 LIN        2    0          5          6    1         
  VS         V  E GROUND SMU2 0.1 CON        0
  VD         V  S GROUND SMU1 0.1 LIN        1    0          5          101  0.05      
  VB         V  C GROUND SMU3 0.1 LIN        3    0          -2.5       2    -2.5      
 ICCAP_OUTPUTS
  ID         I  S GROUND SMU1 B
  IB         I  C GROUND SMU3 B
  IG         I  B GROUND SMU4 B
END_HEADER

BEGIN_DB
 ICCAP_VAR VG         0              
 ICCAP_VAR VS         0              
 ICCAP_VAR VB         0              

 #VD              ID              IB              IG             
  0               1.5422e-009     -1.0862e-008    1.3706e-009    
  0.05            2.3301e-009     -8.647e-009     1.1157e-009    
  0.1             1.9335e-009     1.1652e-008     -1.4711e-009   
  0.15            -1.3291e-009    9.987e-009      -1.9381e-009   
  0.2             -2.273e-009     -1.1301e-008    -6.248e-010    
  0.25            -2.2758e-009    -1.1423e-008    -8.189e-010    
  0.3             -1.6256e-009    -1.6219e-008    2.0449e-009    
  0.35            1.9204e-009     -8.807e-009     1.5515e-009    
  0.4             2.1644e-009     1.0089e-008     1.469e-010     
  0.45            2.2755e-009     1.0269e-008     3.238e-010     
  0.5             2.3613e-009     1.0572e-008     5.065e-010     
  0.55            2.4112e-009     1.0844e-008     6.784e-010     
  0.6             1.6156e-009     2.0358e-008     -1.3061e-009   
  0.65            2.498e-010      1.2701e-008     -2.6558e-009   
  0.7             -1.2775e-009    8.21e-010       -1.9735e-009   
  0.75            -2.2777e-009    -1.141e-008     -7.085e-010    
  0.8             -1.5758e-009    -1.8483e-008    1.2551e-009    
  0.85            -1.84e-010      -1.3745e-008    2.8606e-009    
  0.9             2.1792e-009     1.0068e-008     1.701e-010     
  0.95            2.2874e-009     1.0275e-008     3.505e-010     
  1               2.3704e-009     1.0647e-008     5.243e-010     
  1.05            1.4885e-009     2.4436e-008     -1.3276e-009   
  1.1             1.295e-010      1.1448e-008     -1.303e-009    
  1.15            2.752e-010      1.3024e-008     -2.6454e-009   
  1.2             -1.2651e-009    8.29e-010       -1.9875e-009   
  1.25            -2.2746e-009    -1.1472e-008    -7.394e-010    
  1.3             -1.5869e-009    -1.7948e-008    1.2534e-009    
  1.35            -2.109e-010     -1.4073e-008    2.8547e-009    
  1.4             2.1932e-009     1.0187e-008     1.891e-010     
  1.45            2.2969e-009     1.0304e-008     3.717e-010     
  1.5             2.3779e-009     1.0774e-008     5.481e-010     
  1.55            1.509e-009      2.3945e-008     -1.3259e-009   
  1.6             1.432e-010      1.1522e-008     -1.301e-009    
  1.65            2.933e-010      1.3411e-008     -2.6307e-009   
  1.7             -1.2558e-009    9.57e-010       -1.9967e-009   
  1.75            -2.2727e-009    -1.1321e-008    -7.591e-010    
  1.8             -1.5965e-009    -1.7613e-008    1.2509e-009    
  1.85            -2.205e-010     -1.4063e-008    2.8415e-009    
  1.9             2.2072e-009     1.0294e-008     2.063e-010     
  1.95            2.3128e-009     1.0386e-008     3.895e-010     
  2               2.3853e-009     1.0711e-008     5.712e-010     
  2.05            1.5268e-009     2.3497e-008     -1.3237e-009   
  2.1             1.605e-010      1.1436e-008     -2.7194e-009   
  2.15            -2.0778e-009    -1.0805e-008    -8.95e-011     
  2.2             -2.1797e-009    -1.0821e-008    -2.897e-010    
  2.25            -2.2448e-009    -1.1101e-008    -4.92e-010     
  2.3             -2.2733e-009    -1.1341e-008    -6.928e-010    
  2.35            -1.5673e-009    -1.8953e-008    1.2578e-009    
  2.4             -1.678e-010     -1.3362e-008    2.8737e-009    
  2.45            2.1711e-009     1.0166e-008     1.521e-010     
  2.5             2.2809e-009     1.0213e-008     3.321e-010     
  2.55            2.3648e-009     1.0583e-008     5.13e-010      
  2.6             1.4769e-009     2.4777e-008     -1.3336e-009   
  2.65            1.199e-010      1.1186e-008     -1.3049e-009   
  2.7             2.646e-010      1.2827e-008     -2.6578e-009   
  2.75            -1.2719e-009    8.81e-010       -1.9763e-009   
  2.8             -2.2691e-009    -1.1441e-008    -7.148e-010    
  2.85            -1.576e-009     -1.8444e-008    1.2539e-009    
  2.9             -1.78e-010      -1.3538e-008    2.8609e-009    
  2.95            2.1849e-009     1.0232e-008     1.653e-010     
  3               2.2935e-009     1.0237e-008     3.521e-010     
  3.05            2.3736e-009     1.0644e-008     5.275e-010     
  3.1             1.4947e-009     2.4352e-008     -1.3302e-009   
  3.15            1.342e-010      1.1473e-008     -1.3038e-009   
  3.2             2.784e-010      1.2989e-008     -2.6489e-009   
  3.25            -1.2606e-009    6.29e-010       -1.99e-009     
  3.3             -2.2709e-009    -1.1425e-008    -7.377e-010    
  3.35            -1.5849e-009    -1.8067e-008    1.2534e-009    
  3.4             -2.004e-010     -1.3913e-008    2.8535e-009    
  3.45            2.1981e-009     1.0226e-008     1.85e-010      
  3.5             2.3013e-009     1.0347e-008     3.667e-010     
  3.55            2.3782e-009     1.067e-008      5.48e-010      
  3.6             1.5098e-009     2.392e-008      -1.3272e-009   
  3.65            1.453e-010      1.1307e-008     -1.3014e-009   
  3.7             2.95e-010       1.3218e-008     -2.6367e-009   
  3.75            -1.2521e-009    8.8e-010        -1.9947e-009   
  3.8             -2.2684e-009    -1.1273e-008    -7.557e-010    
  3.85            -1.5895e-009    -1.7742e-008    1.2525e-009    
  3.9             -2.114e-010     -1.42e-008      2.8505e-009    
  3.95            2.2078e-009     1.0277e-008     2e-010         
  4               2.3101e-009     1.035e-008      3.803e-010     
  4.05            2.3856e-009     1.0748e-008     5.599e-010     
  4.1             1.5227e-009     2.3672e-008     -1.3252e-009   
  4.15            1.564e-010      1.157e-008      -2.7241e-009   
  4.2             -2.0662e-009    -1.0932e-008    -7.46e-011     
  4.25            -2.1685e-009    -1.0905e-008    -2.719e-010    
  4.3             -2.2325e-009    -1.1026e-008    -4.776e-010    
  4.35            -2.2643e-009    -1.1373e-008    -6.757e-010    
  4.4             -1.5542e-009    -1.9317e-008    1.2599e-009    
  4.45            -1.472e-010     -1.3203e-008    2.8769e-009    
  4.5             2.1679e-009     1.0272e-008     1.366e-010     
  4.55            2.2782e-009     1.0311e-008     3.16e-010      
  4.6             2.3589e-009     1.0578e-008     4.949e-010     
  4.65            2.4147e-009     1.0856e-008     6.732e-010     
  4.7             1.613e-009      2.0598e-008     -1.31e-009     
  4.75            2.496e-010      1.246e-008      -2.6646e-009   
  4.8             -1.2754e-009    7.94e-010       -1.9696e-009   
  4.85            -2.2643e-009    -1.1374e-008    -6.912e-010    
  4.9             -1.562e-009     -1.9041e-008    1.2577e-009    
  4.95            -1.601e-010     -1.3354e-008    2.869e-009     
  5               2.1766e-009     1.0202e-008     1.498e-010     
END_DB

BEGIN_DB
 ICCAP_VAR VG         1              
 ICCAP_VAR VS         0              
 ICCAP_VAR VB         0              

 #VD              ID              IB              IG             
  0               -2.8712e-009    -1.5142e-008    -2.5408e-009   
  0.05            4.6366e-007     1.047e-008      -2.6941e-009   
  0.1             7.9204e-007     1.2651e-008     -1.531e-010    
  0.15            9.9944e-007     -1.1415e-008    2.7935e-009    
  0.2             1.12238e-006    -1.1903e-008    2e-011         
  0.25            1.1073e-006     -2.4205e-008    -2.7663e-009   
  0.3             1.1953e-006     1.0382e-008     7.268e-010     
  0.35            1.2507e-006     -2.0131e-008    1.9096e-009    
  0.4             1.2949e-006     -1.0928e-008    -4.119e-010    
  0.45            1.3389e-006     1.4506e-008     -2.2867e-009   
  0.5             1.4004e-006     1.1017e-008     4.46e-011      
  0.55            1.4169e-006     -1.0841e-008    2.8167e-009    
  0.6             1.487e-006      -1.3685e-008    2.831e-010     
  0.65            1.5194e-006     1.02e-008       -1.3237e-009   
  0.7             1.5629e-006     1.0748e-008     1.127e-010     
  0.75            1.5801e-006     -1.1921e-008    2.7678e-009    
  0.8             1.6341e-006     -1.2988e-008    2.149e-010     
  0.85            1.6423e-006     1.0618e-008     -1.3151e-009   
  0.9             1.6506e-006     1.0516e-008     1.787e-010     
  0.95            1.649e-006      -1.3099e-008    2.7043e-009    
  1               1.6617e-006     -1.1886e-008    -1.4984e-009   
  1.05            1.7012e-006     2.7849e-008     -1.3448e-009   
  1.1             1.7089e-006     1.0427e-008     1.0958e-009    
  1.15            1.7392e-006     -2.392e-008     1.4218e-009    
  1.2             1.763e-006      -1.1426e-008    -8.65e-010     
  1.25            1.8066e-006     2.0206e-008     -1.7109e-009   
  1.3             1.8313e-006     1.0116e-008     4.517e-010     
  1.35            1.8581e-006     -1.6939e-008    2.3707e-009    
  1.4             1.9035e-006     -1.1609e-008    -9.78e-011     
  1.45            1.9286e-006     1.124e-008      -2.5826e-009   
  1.5             1.9546e-006     1.3461e-008     -2.088e-010    
  1.55            1.956e-006      -8.641e-009     1.2576e-009    
  1.6             1.9889e-006     -1.1224e-008    -1.3329e-009   
  1.65            2.0284e-006     2.6608e-008     -1.3783e-009   
  1.7             2.0582e-006     1.2476e-008     -1.461e-010    
  1.75            2.0753e-006     -8.865e-009     2.9041e-009    
  1.8             2.1086e-006     -1.7027e-008    1.7008e-009    
  1.85            2.1231e-006     -1.1031e-008    -5.77e-010     
  1.9             2.1585e-006     1.6458e-008     -2.0813e-009   
  1.95            2.2013e-006     1.0515e-008     1.784e-010     
  2               2.213e-006      -1.312e-008     2.7055e-009    
  2.05            2.242e-006      -1.2547e-008    1.549e-010     
  2.1             2.2607e-006     1.1138e-008     -1.3046e-009   
  2.15            2.2941e-006     1.0225e-008     2.488e-010     
  2.2             2.3104e-006     -1.4366e-008    2.6369e-009    
  2.25            2.3324e-006     -1.236e-008     8.85e-011      
  2.3             2.3366e-006     1.1187e-008     -2.713e-009    
  2.35            2.3719e-006     1.7268e-008     -1.5611e-009   
  2.4             2.3912e-006     9.81e-009       6.04e-010      
  2.45            2.4068e-006     -1.9175e-008    2.1288e-009    
  2.5             2.4416e-006     -1.1594e-008    -2.67e-010     
  2.55            2.4606e-006     1.1906e-008     -2.4369e-009   
  2.6             2.5e-006        1.1015e-008     -7.47e-011     
  2.65            2.4947e-006     -1.0025e-008    2.886e-009     
  2.7             2.5358e-006     -1.2305e-008    -1.2341e-009   
  2.75            2.5741e-006     8.147e-009      -1.3443e-009   
  2.8             2.6247e-006     8.9e-009        1.0783e-009    
  2.85            2.6372e-006     -2.5527e-008    1.4364e-009    
  2.9             2.6509e-006     -1.3539e-008    -8.491e-010    
  2.95            2.6815e-006     1.7582e-008     -1.7381e-009   
  3               2.6998e-006     1.7217e-008     -1.7061e-009   
  3.05            2.7453e-006     1.6854e-008     -1.683e-009    
  3.1             2.7725e-006     1.6748e-008     -1.655e-009    
  3.15            2.7916e-006     1.6537e-008     -1.6317e-009   
  3.2             2.8072e-006     1.5848e-008     -1.6077e-009   
  3.25            2.8471e-006     4.907e-009      -2.706e-009    
  3.3             2.8669e-006     4.021e-009      -2.698e-009    
  3.35            2.8809e-006     3.164e-009      -2.6883e-009   
  3.4             2.9036e-006     1.921e-009      -2.6697e-009   
  3.45            2.9382e-006     2.54e-010       -2.6616e-009   
  3.5             2.9884e-006     -1.209e-009     -2.6448e-009   
  3.55            3.0389e-006     -2.946e-009     -2.6262e-009   
  3.6             3.0846e-006     -5.108e-009     -2.6159e-009   
  3.65            3.0773e-006     -1.9828e-008    -2.6664e-009   
  3.7             3.121e-006      -1.0032e-008    1.2102e-009    
  3.75            3.1487e-006     -4.835e-008     1.3499e-009    
  3.8             3.17e-006       -3.558e-008     -2.3017e-009   
  3.85            3.2104e-006     -1.8278e-008    5.64e-011      
  3.9             3.2239e-006     -4.3918e-008    2.8113e-009    
  3.95            3.2674e-006     -4.8156e-008    -1.3659e-009   
  4               3.3115e-006     -1.4269e-008    -1.3708e-009   
  4.05            3.3203e-006     -3.6855e-008    2.4463e-009    
  4.1             3.3744e-006     -6.25e-008      -1.183e-010    
  4.15            3.4141e-006     -4.5775e-008    -2.5591e-009   
  4.2             3.4594e-006     -5.2097e-008    1.3704e-009    
  4.25            3.4919e-006     -9.6263e-008    1.2987e-009    
  4.3             3.5263e-006     -8.6355e-008    -2.4565e-009   
  4.35            3.5855e-006     -7.4947e-008    2.133e-010     
  4.4             3.54e-006       -8.141e-008     -1.8253e-009   
  4.45            2.9369e-006     -1.01477e-007   -1.0618e-009   
  4.5             3.5108e-006     -1.0891e-007    2.4379e-009    
  4.55            3.6038e-006     -1.3197e-007    -1.7016e-009   
  4.6             3.6728e-006     -1.0471e-007    -1.3117e-009   
  4.65            3.7002e-006     -1.3532e-007    2.6971e-009    
  4.7             3.756e-006      -1.6783e-007    -5.259e-010    
  4.75            3.8351e-006     -1.5623e-007    -2.1555e-009   
  4.8             3.8955e-006     -1.7507e-007    1.7095e-009    
  4.85            3.9458e-006     -2.2539e-007    1.2452e-009    
  4.9             3.9327e-006     -2.2473e-007    -2.7096e-009   
  4.95            3.9829e-006     -2.2381e-007    5.598e-010     
  5               4.0116e-006     -2.7119e-007    2.1981e-009    
END_DB

BEGIN_DB
 ICCAP_VAR VG         2              
 ICCAP_VAR VS         0              
 ICCAP_VAR VB         0              

 #VD              ID              IB              IG             
  0               -6.7812e-008    2.403e-009      2.0288e-009    
  0.05            5.4918e-006     1.0404e-008     1.5316e-009    
  0.1             1.07459e-005    -1.1085e-008    -7.099e-010    
  0.15            1.5636e-005     9.976e-009      2.735e-010     
  0.2             2.0338e-005     1.1836e-008     -2.496e-009    
  0.25            2.4655e-005     1.0003e-008     3.655e-010     
  0.3             2.8629e-005     -2.1005e-008    1.6996e-009    
  0.35            3.2152e-005     -1.1358e-008    -1.0679e-009   
  0.4             3.5369e-005     2.7741e-008     -1.3345e-009   
  0.45            3.8097e-005     1.0071e-008     5.537e-010     
  0.5             4.0607e-005     -2.3124e-008    1.4792e-009    
  0.55            4.2657e-005     -1.1136e-008    -1.2406e-009   
  0.6             4.4471e-005     1.103e-008      -2.6095e-009   
  0.65            4.5975e-005     1.0264e-008     2.389e-010     
  0.7             4.7294e-005     -2.0546e-008    1.8855e-009    
  0.75            4.8307e-005     -1.1523e-008    -9.594e-010    
  0.8             4.9287e-005     2.7553e-008     -1.3573e-009   
  0.85            4.9899e-005     1.0009e-008     4.367e-010     
  0.9             5.0537e-005     -2.1671e-008    1.6045e-009    
  0.95            5.0934e-005     -1.1969e-008    3.86e-011      
  1               5.1299e-005     1.5749e-008     -2.1661e-009   
  1.05            5.1646e-005     1.0223e-008     6.284e-010     
  1.1             5.2018e-005     -2.3991e-008    1.4237e-009    
  1.15            5.2359e-005     -1.1213e-008    -1.3069e-009   
  1.2             5.2702e-005     1.1241e-008     -2.5455e-009   
  1.25            5.3038e-005     1.0064e-008     3.151e-010     
  1.3             5.3317e-005     -2.0741e-008    1.7698e-009    
  1.35            5.36e-005       -1.16e-008      -1.0185e-009   
  1.4             5.3889e-005     2.7755e-008     -1.3446e-009   
  1.45            5.412e-005      1.0132e-008     5.076e-010     
  1.5             5.4343e-005     -2.2619e-008    1.531e-009     
  1.55            5.4583e-005     -1.1807e-008    -2.43e-011     
  1.6             5.4814e-005     1.657e-008      -2.0672e-009   
  1.65            5.5049e-005     1.0249e-008     7.034e-010     
  1.7             5.5259e-005     -2.4643e-008    1.3831e-009    
  1.75            5.5448e-005     -1.1166e-008    -2.293e-010    
  1.8             5.5626e-005     1.9676e-008     -1.7959e-009   
  1.85            5.5761e-005     1.0622e-008     8.811e-010     
  1.9             5.5961e-005     -2.6041e-008    1.3071e-009    
  1.95            5.6125e-005     -1.0769e-008    -4.527e-010    
  2               5.6288e-005     2.1781e-008     -1.5806e-009   
  2.05            5.647e-005      2.7591e-008     -1.3487e-009   
  2.1             5.6619e-005     1.0025e-008     4.759e-010     
  2.15            5.6775e-005     -2.2283e-008    1.5652e-009    
  2.2             5.6939e-005     -1.2024e-008    8.3e-012       
  2.25            5.7057e-005     1.6018e-008     -2.1126e-009   
  2.3             5.7179e-005     9.956e-009      6.658e-010     
  2.35            5.7309e-005     -2.4709e-008    1.402e-009     
  2.4             5.7429e-005     -1.1936e-008    -1.3457e-009   
  2.45            5.7578e-005     1.0865e-008     -2.5128e-009   
  2.5             5.7687e-005     1.8217e-008     -1.8147e-009   
  2.55            5.7838e-005     2.4318e-008     -1.3964e-009   
  2.6             5.7958e-005     1.7939e-008     -1.7604e-009   
  2.65            5.8101e-005     1.0312e-008     -2.4202e-009   
  2.7             5.8223e-005     1.7162e-008     -1.6996e-009   
  2.75            5.8319e-005     9.164e-009      -2.3663e-009   
  2.8             5.8483e-005     1.5763e-008     -1.6542e-009   
  2.85            5.8588e-005     7.817e-009      -2.3109e-009   
  2.9             5.8831e-005     3.718e-009      -1.2995e-009   
  2.95            5.878e-005      -5.226e-009     2.92e-009      
  3               5.8915e-005     -2.3689e-008    -1.5827e-009   
  3.05            5.9081e-005     1.333e-009      -2.2195e-009   
  3.1             5.9208e-005     -2.0982e-008    -2.7758e-009   
  3.15            5.9309e-005     -8.458e-009     1.4305e-009    
  3.2             5.9446e-005     -4.0464e-008    1.7084e-009    
  3.25            5.9531e-005     -3.7177e-008    -2.3935e-009   
  3.3             5.9621e-005     -2.2493e-008    6.567e-010     
  3.35            5.9739e-005     -6.2811e-008    1.4109e-009    
  3.4             6.0007e-005     -5.2846e-008    -2.6477e-009   
  3.45            5.9931e-005     -4.1721e-008    9.346e-010     
  3.5             6.0045e-005     -8.7208e-008    1.2933e-009    
  3.55            6.0298e-005     -7.7012e-008    -2.7741e-009   
  3.6             6.0386e-005     -7.1682e-008    1.1892e-009    
  3.65            6.0488e-005     -1.14931e-007   2.7512e-009    
  3.7             6.045e-005      -1.1692e-007    1.451e-009     
  3.75            6.059e-005      -1.3207e-007    -2.5863e-009   
  3.8             6.0916e-005     -1.3069e-007    8.618e-010     
  3.85            6.0833e-005     -1.8763e-007    1.3088e-009    
  3.9             6.0983e-005     -1.9133e-007    -2.7512e-009   
  3.95            6.1183e-005     -1.9813e-007    1.1177e-009    
  4               6.1189e-005     -2.6085e-007    1.2569e-009    
  4.05            6.1436e-005     -2.7255e-007    -2.7765e-009   
  4.1             6.1563e-005     -2.9097e-007    1.3976e-009    
  4.15            6.1793e-005     -3.579e-007     1.7536e-009    
