! VERSION = 6.00
BEGIN_HEADER
 ICCAP_INPUTS
  VG         V  B GROUND SMU4 0.001 LIN        2    0          5          6    1         
  VS         V  E GROUND SMU2 0.1 CON        0
  VD         V  S GROUND SMU1 0.1 LIN        1    0          5          101  0.05      
  VB         V  C GROUND SMU3 0.1 LIN        3    0          -2.5       2    -2.5      
 ICCAP_OUTPUTS
  ID         I  S GROUND SMU1 B
  IB         I  C GROUND SMU3 B
  IG         I  B GROUND SMU4 B
END_HEADER

BEGIN_DB
 ICCAP_VAR VG         0              
 ICCAP_VAR VS         0              
 ICCAP_VAR VB         0              

 #VD              ID              IB              IG             
  0               -6.567e-010     -2.2906e-008    -5.848e-010    
  0.05            1.7675e-009     1.4702e-008     -1.6789e-009   
  0.1             -1.556e-009     7.002e-009      -1.7383e-009   
  0.15            -2.1971e-009    -1.1074e-008    -2.501e-010    
  0.2             -2.2518e-009    -1.1177e-008    -4.599e-010    
  0.25            -1.4351e-009    -2.2605e-008    1.2773e-009    
  0.3             8.3e-012        -1.0691e-008    2.9014e-009    
  0.35            1.5452e-009     -3.48e-010      1.8194e-009    
  0.4             2.2962e-009     1.0428e-008     3.584e-010     
  0.45            2.3594e-009     1.09e-008       5.506e-010     
  0.5             1.5123e-009     2.3029e-008     -1.3232e-009   
  0.55            1.189e-010      1.1628e-008     -2.7122e-009   
  0.6             -1.3409e-009    5.39e-010       -1.8976e-009   
  0.65            -2.2593e-009    -1.1319e-008    -5.161e-010    
  0.7             -1.4697e-009    -2.1343e-008    1.2693e-009    
  0.75            -2.43e-011      -1.1682e-008    2.8903e-009    
  0.8             1.4786e-009     -3.95e-010      1.873e-009     
  0.85            2.3203e-009     1.0376e-008     4.014e-010     
  0.9             1.4146e-009     2.5592e-008     -1.3445e-009   
  0.95            3.95e-011       1.1397e-008     -1.3153e-009   
  1               1.568e-010      1.2219e-008     -2.6872e-009   
  1.05            -1.3037e-009    7.83e-010       -1.9261e-009   
  1.1             -2.2625e-009    -1.1425e-008    -5.848e-010    
  1.15            -1.5038e-009    -2.0136e-008    1.2612e-009    
  1.2             -6.15e-011      -1.2603e-008    2.8762e-009    
  1.25            2.1095e-009     1.0362e-008     3.98e-011      
  1.3             2.2155e-009     1.0417e-008     2.061e-010     
  1.35            2.3075e-009     1.0454e-008     3.777e-010     
  1.4             1.3877e-009     2.6235e-008     -1.348e-009    
  1.45            1.63e-011       1.1399e-008     -1.3181e-009   
  1.5             1.415e-010      1.1823e-008     -2.7065e-009   
  1.55            -1.3256e-009    7.72e-010       -1.9087e-009   
  1.6             -2.2607e-009    -1.141e-008     -5.478e-010    
  1.65            -1.4798e-009    -2.0801e-008    1.266e-009     
  1.7             -3.38e-011      -1.2103e-008    2.8872e-009    
  1.75            2.0941e-009     1.0436e-008     1.13e-011      
  1.8             2.1972e-009     1.0431e-008     1.728e-010     
  1.85            2.291e-009      1.0413e-008     3.455e-010     
  1.9             2.3564e-009     1.0835e-008     5.363e-010     
  1.95            1.498e-009      2.332e-008      -1.3277e-009   
  2               1.107e-010      1.1669e-008     -2.7222e-009   
  2.05            -2.0686e-009    -1.1075e-008    -1.21e-011     
  2.1             -2.1697e-009    -1.1027e-008    -1.98e-010     
  2.15            -2.2354e-009    -1.1131e-008    -3.94e-010     
  2.2             -2.2659e-009    -1.1596e-008    -6.154e-010    
  2.25            -1.5169e-009    -1.9681e-008    1.2583e-009    
  2.3             -7.53e-011      -1.2867e-008    2.87e-009      
  2.35            2.1207e-009     1.0368e-008     6e-011         
  2.4             2.2275e-009     1.0452e-008     2.194e-010     
  2.45            2.3169e-009     1.0462e-008     3.942e-010     
  2.5             1.4e-009        2.5869e-008     -1.346e-009    
  2.55            2.42e-011       1.1248e-008     -1.3173e-009   
  2.6             1.499e-010      1.2009e-008     -2.698e-009    
  2.65            -1.319e-009     7.15e-010       -1.9195e-009   
  2.7             -2.2627e-009    -1.1319e-008    -5.629e-010    
  2.75            -1.4918e-009    -2.0563e-008    1.2646e-009    
  2.8             -4.25e-011      -1.2149e-008    2.8875e-009    
  2.85            2.3293e-009     1.0975e-008     1.0425e-009    
  2.9             1.8697e-009     1.2374e-008     -1.5258e-009   
  2.95            -1.3895e-009    9.067e-009      -1.8629e-009   
  3               -2.2482e-009    -1.1091e-008    -4.422e-010    
  3.05            -1.427e-009     -2.266e-008     1.2816e-009    
  3.1             1.16e-011       -1.0486e-008    2.9095e-009    
  3.15            1.5613e-009     -1.06e-010      1.8056e-009    
  3.2             2.2917e-009     1.0324e-008     3.471e-010     
  3.25            2.3579e-009     1.0725e-008     5.374e-010     
  3.3             1.5034e-009     2.3189e-008     -1.3272e-009   
  3.35            1.128e-010      1.1506e-008     -2.7227e-009   
  3.4             -2.0671e-009    -1.1067e-008    -1.01e-011     
  3.45            -2.1692e-009    -1.1105e-008    -1.928e-010    
  3.5             -2.2329e-009    -1.1103e-008    -3.979e-010    
  3.55            -2.2635e-009    -1.1493e-008    -6.15e-010     
  3.6             -1.5201e-009    -1.9724e-008    1.2592e-009    
  3.65            -7.52e-011      -1.2922e-008    2.8707e-009    
  3.7             2.1244e-009     1.0376e-008     6.67e-011      
  3.75            2.2313e-009     1.0401e-008     2.3e-010       
  3.8             2.3201e-009     1.0439e-008     4.025e-010     
  3.85            1.408e-009      2.573e-008      -1.3464e-009   
  3.9             3.27e-011       1.1328e-008     -1.3168e-009   
  3.95            1.543e-010      1.2172e-008     -2.6915e-009   
  4               -1.3135e-009    7.94e-010       -1.9255e-009   
  4.05            -2.2578e-009    -1.1342e-008    -5.77e-010     
  4.1             -1.5e-009       -2.0474e-008    1.263e-009     
  4.15            -5.61e-011      -1.2345e-008    2.883e-009     
  4.2             2.1094e-009     1.0361e-008     3.64e-011      
  4.25            2.2127e-009     1.0372e-008     1.989e-010     
  4.3             2.3048e-009     1.0476e-008     3.713e-010     
  4.35            1.3874e-009     2.6361e-008     -1.3519e-009   
  4.4             1.23e-011       1.1396e-008     -1.3205e-009   
  4.45            1.348e-010      1.1736e-008     -2.7086e-009   
  4.5             -1.3314e-009    6.16e-010       -1.9099e-009   
  4.55            -2.2589e-009    -1.1319e-008    -5.353e-010    
  4.6             -1.4767e-009    -2.0904e-008    1.2686e-009    
  4.65            -2.96e-011      -1.1752e-008    2.8935e-009    
  4.7             2.0953e-009     1.0435e-008     9.3e-012       
  4.75            2.1958e-009     1.0398e-008     1.613e-010     
  4.8             2.294e-009      1.0453e-008     3.32e-010      
  4.85            1.3623e-009     2.6725e-008     -1.3577e-009   
  4.9             3.2e-012        1.1446e-008     -1.3254e-009   
  4.95            1.1e-010        1.1549e-008     -2.7254e-009   
  5               -2.0655e-009    -1.0972e-008    -1.7e-012      
END_DB

BEGIN_DB
 ICCAP_VAR VG         1              
 ICCAP_VAR VS         0              
 ICCAP_VAR VB         0              

 #VD              ID              IB              IG             
  0               -2.6992e-008    8.419e-009      1.3586e-009    
  0.05            1.8092e-006     1.3375e-008     2.1569e-009    
  0.1             3.0891e-006     -1.1305e-008    -1.446e-010    
  0.15            4.0212e-006     1.2243e-008     -2.4869e-009   
  0.2             4.6489e-006     1.2268e-008     -1.294e-010    
  0.25            5.0714e-006     -8.635e-009     2.891e-009     
  0.3             5.4216e-006     -1.6565e-008    1.6619e-009    
  0.35            5.7133e-006     -1.1065e-008    -5.613e-010    
  0.4             5.9891e-006     1.7386e-008     -2.0336e-009   
  0.45            6.1775e-006     1.0705e-008     1.557e-010     
  0.5             6.2871e-006     -1.3619e-008    2.6705e-009    
  0.55            6.4574e-006     -1.2319e-008    1.626e-010     
  0.6             6.6813e-006     1.1361e-008     -2.7337e-009   
  0.65            6.8279e-006     1.886e-008      -1.6062e-009   
  0.7             6.9175e-006     9.397e-009      2.1164e-009    
  0.75            7.047e-006      -1.3717e-008    1.4908e-009    
  0.8             7.2131e-006     -1.1239e-008    -7.484e-010    
  0.85            7.3835e-006     1.9541e-008     -1.8287e-009   
  0.9             7.4984e-006     1.0288e-008     3.038e-010     
  0.95            7.5547e-006     -1.5739e-008    2.4946e-009    
  1               7.6803e-006     -1.1779e-008    4.26e-011      
  1.05            7.8815e-006     1.1445e-008     -2.6596e-009   
  1.1             7.9909e-006     1.5366e-008     -1.4864e-009   
  1.15            8.0789e-006     1.0453e-008     6.826e-010     
  1.2             8.1632e-006     -2.0028e-008    1.9591e-009    
  1.25            8.2999e-006     -1.0915e-008    -3.036e-010    
  1.3             8.481e-006      1.4339e-008     -2.3271e-009   
  1.35            8.5709e-006     1.1453e-008     -2.57e-011     
  1.4             8.6032e-006     -1.0216e-008    2.8313e-009    
  1.45            8.7228e-006     -1.4005e-008    1.5054e-009    
  1.5             8.8698e-006     -1.109e-008     -7.297e-010    
  1.55            9.0288e-006     1.9349e-008     -1.8534e-009   
  1.6             9.1205e-006     1.0307e-008     2.893e-010     
  1.65            9.1473e-006     -1.571e-008     2.5134e-009    
  1.7             9.2602e-006     -1.1905e-008    5.97e-011      
  1.75            9.4613e-006     1.1428e-008     -2.6668e-009   
  1.8             9.551e-006      1.5522e-008     -1.4984e-009   
  1.85            9.621e-006      1.0413e-008     6.609e-010     
  1.9             9.6946e-006     -1.985e-008     1.9915e-009    
  1.95            9.8021e-006     -1.1069e-008    -2.944e-010    
  2               9.9911e-006     1.3782e-008     -2.3518e-009   
  2.05            1.00704e-005    1.1346e-008     -4.34e-011     
  2.1             1.00806e-005    -1.0235e-008    2.8405e-009    
  2.15            1.02869e-005    -1.1909e-008    -1.2748e-009   
  2.2             1.03828e-005    2.5953e-008     -1.3898e-009   
  2.25            1.04654e-005    1.2359e-008     -1.884e-010    
  2.3             1.04892e-005    -9.619e-009     2.9075e-009    
  2.35            1.06633e-005    -1.2832e-008    -1.1019e-009   
  2.4             1.07785e-005    2.2615e-008     -1.4563e-009   
  2.45            1.0812e-005     8.553e-009      7.351e-010     
  2.5             1.08791e-005    -2.3018e-008    1.8783e-009    
  2.55            1.10413e-005    -1.4041e-008    -1.9313e-009   
  2.6             1.11699e-005    1.1045e-008     -2.2553e-009   
  2.65            1.1208e-005     -1.5872e-008    5.307e-010     
  2.7             1.1351e-005     6.035e-009      -2.7266e-009   
  2.75            1.1458e-005     8.287e-009      -2.2478e-009   
  2.8             1.1544e-005     3.73e-009       -2.7056e-009   
  2.85            1.1643e-005     6.35e-009       -2.1926e-009   
  2.9             1.1738e-005     6.02e-010       -2.6902e-009   
  2.95            1.1842e-005     3.66e-009       -2.1305e-009   
  3               1.1928e-005     -3.471e-009     -2.6597e-009   
  3.05            1.1889e-005     -5.914e-009     1.7495e-009    
  3.1             1.2005e-005     -3.2327e-008    2.084e-010     
  3.15            1.2159e-005     -3.0018e-008    -2.7769e-009   
  3.2             1.2191e-005     -1.5267e-008    1.178e-009     
  3.25            1.2309e-005     -5.3254e-008    2.1363e-009    
  3.3             1.245e-005      -4.3704e-008    -2.1545e-009   
  3.35            1.2567e-005     -2.8609e-008    3.292e-010     
  3.4             1.2584e-005     -6.5704e-008    1.6707e-009    
  3.45            1.2729e-005     -5.8986e-008    -2.4253e-009   
  3.5             1.2827e-005     -4.6361e-008    6.628e-010     
  3.55            1.2875e-005     -8.9062e-008    1.3905e-009    
  3.6             1.302e-005      -8.0665e-008    -2.6749e-009   
  3.65            1.3094e-005     -7.0274e-008    9.534e-010     
  3.7             1.3177e-005     -1.1689e-007    1.2874e-009    
  3.75            1.3328e-005     -1.09825e-007   -1.5008e-009   
  3.8             1.3432e-005     -1.0691e-007    -2.7679e-009   
  3.85            1.3481e-005     -1.1704e-007    1.1449e-009    
  3.9             1.3608e-005     -1.6704e-007    2.191e-009     
  3.95            1.3756e-005     -1.6855e-007    -2.1324e-009   
  4               1.3897e-005     -1.6587e-007    2.954e-010     
  4.05            1.392e-005      -2.1681e-007    1.7196e-009    
  4.1             1.408e-005      -2.2547e-007    -2.3933e-009   
  4.15            1.4202e-005     -2.2798e-007    6.258e-010     
  4.2             1.4259e-005     -2.8837e-007    1.4098e-009    
  4.25            1.4436e-005     -2.9784e-007    -2.6511e-009   
  4.3             1.4533e-005     -3.0642e-007    9.242e-010     
  4.35            1.4634e-005     -3.7666e-007    1.2951e-009    
  4.4             1.4823e-005     -3.8936e-007    -2.7831e-009   
  4.45            1.4878e-005     -4.0521e-007    1.1895e-009    
  4.5             1.5046e-005     -4.7874e-007    2.1105e-009    
  4.55            1.5218e-005     -5.0549e-007    -2.1673e-009   
  4.6             1.5385e-005     -5.2699e-007    3.483e-010     
  4.65            1.5441e-005     -6.0596e-007    1.6505e-009    
  4.7             1.5651e-005     -6.4235e-007    -2.4388e-009   
  4.75            1.5794e-005     -6.7287e-007    6.792e-010     
  4.8             1.5894e-005     -7.667e-007     1.3815e-009    
  4.85            1.6109e-005     -8.0712e-007    -2.6832e-009   
  4.9             1.6234e-005     -8.4601e-007    9.71e-010      
  4.95            1.638e-005      -9.529e-007     1.2843e-009    
  5               1.6618e-005     -1.00125e-006   -2.7884e-009   
END_DB

BEGIN_DB
 ICCAP_VAR VG         2              
 ICCAP_VAR VS         0              
 ICCAP_VAR VB         0              

 #VD              ID              IB              IG             
  0               -1.5035e-007    -1.0965e-008    1.1029e-009    
  0.05            1.0382e-005     -8.875e-009     -1.7447e-009   
  0.1             2.0302e-005     1.3374e-008     -1.97e-010     
  0.15            2.9709e-005     -1.4997e-008    2.5783e-009    
  0.2             3.8607e-005     -1.0672e-008    -1.9515e-009   
  0.25            4.6857e-005     1.1008e-008     3.97e-011      
  0.3             5.4417e-005     -1.9061e-008    2.1385e-009    
  0.35            6.1358e-005     -1.1219e-008    -8.022e-010    
  0.4             6.7628e-005     2.6178e-008     -1.3964e-009   
  0.45            7.3065e-005     1.0995e-008     1.3529e-009    
  0.5             7.7994e-005     -1.893e-008     1.8316e-009    
  0.55            8.2235e-005     -1.2619e-008    2.06e-010      
  0.6             8.6074e-005     1.3639e-008     -2.3689e-009   
  0.65            8.9098e-005     9.993e-009      2.053e-009     
  0.7             9.179e-005      -1.1575e-008    -3.11e-011     
  0.75            9.4206e-005     1.8044e-008     -1.9589e-009   
  0.8             9.6091e-005     1.0633e-008     7.515e-010     
  0.85            9.7698e-005     -2.5493e-008    1.3457e-009    
  0.9             9.9194e-005     -1.1032e-008    -2.489e-010    
  0.95            0.000100544     2.0672e-008     -1.7048e-009   
  1               0.000101647     1.2859e-008     -1.715e-010    
  1.05            0.000102495     -1.5528e-008    2.5342e-009    
  1.1             0.000103512     -1.0574e-008    -1.9684e-009   
  1.15            0.000104352     1.0939e-008     6.94e-011      
  1.2             0.000104933     -1.94e-008      2.0765e-009    
  1.25            0.000105734     -1.1349e-008    -8.315e-010    
  1.3             0.000106478     2.659e-008      -1.3864e-009   
  1.35            0.000107066     1.0378e-008     2.542e-010     
  1.4             0.000107468     -2.0993e-008    1.7694e-009    
  1.45            0.000107995     -1.2462e-008    1.846e-010     
  1.5             0.00010875      1.4143e-008     -2.3356e-009   
  1.55            0.000109092     9.778e-009      2.081e-009     
  1.6             0.00010953      -1.1498e-008    -6.75e-011     
  1.65            0.000110203     1.8652e-008     -1.9078e-009   
  1.7             0.000110515     1.0801e-008     7.875e-010     
  1.75            0.000110886     -2.5758e-008    1.3343e-009    
  1.8             0.000111356     -1.1009e-008    -2.91e-010     
  1.85            0.000111871     2.1055e-008     -1.6675e-009   
  1.9             0.000112252     1.2375e-008     -1.437e-010    
  1.95            0.000112467     -1.6058e-008    2.4933e-009    
  2               0.000112935     -1.1085e-008    -5.324e-010    
  2.05            0.0001134       2.3179e-008     -1.4996e-009   
  2.1             0.000113559     1.0691e-008     1.1385e-009    
  2.15            0.000113945     -2.4234e-008    2.2039e-009    
  2.2             0.00011448      -1.1667e-008    -1.634e-010    
  2.25            0.00011467      -1.8217e-008    2.3328e-009    
  2.3             0.00011512      -1.2198e-008    -8.039e-010    
  2.35            0.00011551      2.6167e-008     -1.3661e-009   
  2.4             0.00011571      8.509e-009      5.02e-010      
  2.45            0.00011594      -2.7075e-008    1.3994e-009    
  2.5             0.00011644      -1.4976e-008    -1.4347e-009   
  2.55            0.0001167       1.1116e-008     -2.1978e-009   
  2.6             0.000117        5.745e-009      -2.6047e-009   
  2.65            0.00011723      1.2817e-008     -1.7817e-009   
  2.7             0.00011756      5.402e-009      -2.2902e-009   
  2.75            0.00011781      6.9e-011        -2.65e-009     
  2.8             0.00011806      4.906e-009      -1.8556e-009   
  2.85            0.00011822      -8.365e-009     2.4179e-009    
  2.9             0.00011853      -3.247e-008     -7.623e-010    
  2.95            0.00011885      1.426e-009      -1.3734e-009   
  3               0.000119        -2.2985e-008    2.8766e-009    
  3.05            0.00011941      -4.8958e-008    -1.3812e-009   
  3.1             0.00011958      -2.5536e-008    -1.6063e-009   
  3.15            0.00011976      -4.4915e-008    2.5682e-009    
  3.2             0.00012006      -7.3582e-008    -9.623e-010    
  3.25            0.00012034      -4.4787e-008    -1.333e-009    
  3.3             0.00012048      -7.8799e-008    2.9167e-009    
  3.35            0.00012082      -9.3708e-008    -1.479e-009    
  3.4             0.00012112      -1.2616e-007    -1.5142e-009   
  3.45            0.0001213       -1.1607e-007    -1.4946e-009   
  3.5             0.00012147      -1.4427e-007    2.6722e-009    
  3.55            0.00012179      -1.8568e-007    -1.0777e-009   
  3.6             0.00012211      -1.7283e-007    -1.3137e-009   
  3.65            0.0001222       -2.2367e-007    2.8971e-009    
  3.7             0.00012263      -2.712e-007     -1.7034e-009   
  3.75            0.00012281      -2.8194e-007    -1.379e-010    
  3.8             0.00012292      -3.5121e-007    2.2981e-009    
  3.85            0.00012327      -3.8585e-007    -2.1746e-009   
  3.9             0.00012355      -4.147e-007     4.984e-010     
  3.95            0.00012369      -5.033e-007     1.3981e-009    
  4               0.0001241       -5.4441e-007    -2.7455e-009   
  4.05            0.00012427      -5.9243e-007    1.1641e-009    
  4.1             0.00012461      -6.9654e-007    1.9457e-009    
  4.15            0.00012498      -7.6389e-007    -2.3729e-009   
