! VERSION = 6.00
BEGIN_HEADER
 ICCAP_INPUTS
  VG         V  B GROUND SMU4 0.001 LIN        2    0          5          6    1         
  VS         V  E GROUND SMU2 0.1 CON        0
  VD         V  S GROUND SMU1 0.1 LIN        1    0          5          101  0.05      
  VB         V  C GROUND SMU3 0.1 LIN        3    0          -2.5       2    -2.5      
 ICCAP_OUTPUTS
  ID         I  S GROUND SMU1 B
  IB         I  C GROUND SMU3 B
  IG         I  B GROUND SMU4 B
END_HEADER

BEGIN_DB
 ICCAP_VAR VG         0              
 ICCAP_VAR VS         0              
 ICCAP_VAR VB         0              

 #VD              ID              IB              IG             
  0               1.1301e-009     1.2924e-008     4.6192e-008    
  0.05            -3.879e-010     -1.8446e-008    4.5654e-008    
  0.1             -8.022e-010     -1.9259e-008    4.5368e-008    
  0.15            -1.1129e-009    -2.5006e-008    4.5965e-008    
  0.2             -1.4656e-009    -2.4466e-008    4.7447e-008    
  0.25            -1.7153e-009    -1.2849e-008    4.7689e-008    
  0.3             -8.825e-010     -2.0109e-008    4.7273e-008    
  0.35            -1.1975e-009    -2.5931e-008    4.615e-008     
  0.4             -1.5441e-009    -2.1445e-008    4.7608e-008    
  0.45            -1.7723e-009    -1.0981e-008    4.6851e-008    
  0.5             -9.601e-010     -2.1522e-008    4.5996e-008    
  0.55            -1.2944e-009    -2.6205e-008    4.6596e-008    
  0.6             -1.6199e-009    -1.7987e-008    4.6836e-008    
  0.65            -1.8431e-009    -9.94e-009      4.7869e-008    
  0.7             -1.0446e-009    -2.3625e-008    4.6377e-008    
  0.75            -1.3925e-009    -2.5732e-008    4.6603e-008    
  0.8             -1.6761e-009    -1.4748e-008    4.7218e-008    
  0.85            -8.137e-010     -1.9511e-008    4.5337e-008    
  0.9             -1.1308e-009    -2.517e-008     4.5319e-008    
  0.95            -1.4843e-009    -2.405e-008     4.6299e-008    
  1               -1.7277e-009    -1.2551e-008    4.667e-008     
  1.05            -8.961e-010     -2.0275e-008    4.6871e-008    
  1.1             -1.2205e-009    -2.5983e-008    4.6507e-008    
  1.15            -1.5618e-009    -2.0849e-008    4.7822e-008    
  1.2             -1.7825e-009    -1.0588e-008    4.7106e-008    
  1.25            -9.793e-010     -2.194e-008     4.6498e-008    
  1.3             -1.3094e-009    -2.6193e-008    4.6959e-008    
  1.35            -1.6329e-009    -1.7312e-008    4.6213e-008    
  1.4             -1.8567e-009    -9.918e-009     4.3492e-008    
  1.45            -1.0596e-009    -2.389e-008     4.5504e-008    
  1.5             -1.4096e-009    -2.5618e-008    4.6115e-008    
  1.55            -1.6852e-009    -1.4385e-008    4.6143e-008    
  1.6             -8.33e-010      -1.9548e-008    4.4803e-008    
  1.65            -1.1426e-009    -2.538e-008     4.6293e-008    
  1.7             -1.5e-009       -2.3443e-008    4.5687e-008    
  1.75            -1.7368e-009    -1.2136e-008    4.5526e-008    
  1.8             -9.106e-010     -2.0633e-008    4.5578e-008    
  1.85            -1.2365e-009    -2.6185e-008    4.3138e-008    
  1.9             -1.5757e-009    -2.0013e-008    4.6025e-008    
  1.95            -1.7985e-009    -1.044e-008     4.6188e-008    
  2               -9.93e-010      -2.245e-008     4.3279e-008    
  2.05            -1.3304e-009    -2.6137e-008    4.5179e-008    
  2.1             -1.6417e-009    -1.6501e-008    4.2161e-008    
  2.15            -7.676e-010     -1.9266e-008    4.2961e-008    
  2.2             2.3509e-009     -7.822e-009     4.2654e-008    
  2.25            2.0418e-009     1.0114e-008     4.5192e-008    
  2.3             2.2683e-009     1.2259e-008     4.5306e-008    
  2.35            1.4806e-009     2.562e-008      4.5601e-008    
  2.4             1.8239e-009     1.1682e-008     4.6367e-008    
  2.45            8.998e-010      2.2067e-008     4.6652e-008    
  2.5             1.2144e-009     2.8326e-008     4.6739e-008    
  2.55            1.5664e-009     2.129e-008      4.7283e-008    
  2.6             1.903e-009      9.747e-009      4.6505e-008    
  2.65            9.817e-010      2.4099e-008     4.5982e-008    
  2.7             1.3134e-009     2.8572e-008     4.7797e-008    
  2.75            1.657e-009      1.7521e-008     4.7159e-008    
  2.8             1.9829e-009     9.649e-009      4.642e-008     
  2.85            1.0666e-009     2.6118e-008     4.7204e-008    
  2.9             1.4106e-009     2.7677e-008     4.6226e-008    
  2.95            1.7589e-009     1.4106e-008     4.5616e-008    
  3               8.314e-010      2.0661e-008     4.6589e-008    
  3.05            1.1519e-009     2.7582e-008     4.5696e-008    
  3.1             1.5028e-009     2.4329e-008     4.7005e-008    
  3.15            1.8415e-009     1.1054e-008     4.6414e-008    
  3.2             9.178e-010      2.2507e-008     4.674e-008     
  3.25            1.242e-009      2.8498e-008     4.7194e-008    
  3.3             1.5882e-009     2.0185e-008     4.655e-008     
  3.35            6.789e-010      1.9187e-008     4.7888e-008    
  3.4             -1.3688e-009    8.371e-009      4.0533e-008    
  3.45            -2.2618e-009    -1.0932e-008    4.238e-008     
  3.5             -1.8093e-009    -1.0313e-008    4.2705e-008    
  3.55            -1.0083e-009    -2.2776e-008    4.5164e-008    
  3.6             -1.3507e-009    -2.6063e-008    4.3651e-008    
  3.65            -1.6558e-009    -1.612e-008     4.3688e-008    
  3.7             -1.8904e-009    -1.0107e-008    4.4381e-008    
  3.75            -1.0944e-009    -2.4648e-008    4.4947e-008    
  3.8             -1.4458e-009    -2.4843e-008    4.5289e-008    
  3.85            -1.7099e-009    -1.3272e-008    4.563e-008     
  3.9             -8.627e-010     -1.9801e-008    4.4839e-008    
  3.95            -1.1805e-009    -2.5714e-008    4.5855e-008    
  4               -1.5324e-009    -2.2141e-008    4.6026e-008    
  4.05            -1.7602e-009    -1.1248e-008    4.5804e-008    
  4.1             -9.451e-010     -2.1343e-008    4.5523e-008    
  4.15            -1.2783e-009    -2.63e-008      4.5357e-008    
  4.2             -1.6061e-009    -1.8581e-008    4.4306e-008    
  4.25            -1.8278e-009    -1.0002e-008    4.5505e-008    
  4.3             -1.0281e-009    -2.324e-008     4.4903e-008    
  4.35            -1.3763e-009    -2.5943e-008    4.5872e-008    
  4.4             -1.6696e-009    -1.5231e-008    4.6173e-008    
  4.45            -1.9125e-009    -1.0206e-008    4.6195e-008    
  4.5             -1.1158e-009    -2.4925e-008    4.5742e-008    
  4.55            -1.4709e-009    -2.4258e-008    4.6431e-008    
  4.6             -1.722e-009     -1.2818e-008    4.4943e-008    
  4.65            -8.828e-010     -2.004e-008     4.3941e-008    
  4.7             -1.2095e-009    -2.5967e-008    4.5744e-008    
  4.75            -1.552e-009     -2.1382e-008    4.683e-008     
  4.8             -1.7808e-009    -1.0679e-008    4.3454e-008    
  4.85            -9.677e-010     -2.1715e-008    4.5141e-008    
  4.9             -1.3064e-009    -2.6242e-008    4.5256e-008    
  4.95            -1.6284e-009    -1.7509e-008    4.5548e-008    
  5               -1.854e-009     -9.999e-009     4.5984e-008    
END_DB

BEGIN_DB
 ICCAP_VAR VG         1              
 ICCAP_VAR VS         0              
 ICCAP_VAR VB         0              

 #VD              ID              IB              IG             
  0               4.23e-011       9.214e-009      0.00052335     
  0.05            -3.829e-010     -1.8358e-008    0.00052337     
  0.1             -8.037e-010     -1.95e-008      0.00052336     
  0.15            -1.1169e-009    -2.5094e-008    0.00052335     
  0.2             -1.4783e-009    -2.4164e-008    0.00052335     
  0.25            -1.7246e-009    -1.2574e-008    0.00052336     
  0.3             -8.961e-010     -2.0449e-008    0.00052332     
  0.35            -1.2237e-009    -2.5954e-008    0.00052332     
  0.4             -1.5683e-009    -2.0488e-008    0.00052336     
  0.45            -1.7896e-009    -1.0476e-008    0.00052333     
  0.5             -9.88e-010      -2.2322e-008    0.00052335     
  0.55            -1.3322e-009    -2.6112e-008    0.00052332     
  0.6             -1.6458e-009    -1.664e-008     0.00052334     
  0.65            -1.8791e-009    -1.0017e-008    0.00052335     
  0.7             -1.0873e-009    -2.4489e-008    0.00052335     
  0.75            -1.4444e-009    -2.4958e-008    0.00052335     
  0.8             -1.7073e-009    -1.3296e-008    0.00052336     
  0.85            -8.67e-010      -1.9918e-008    0.00052335     
  0.9             -1.1899e-009    -2.5756e-008    0.00052336     
  0.95            -1.5412e-009    -2.1761e-008    0.00052334     
  1               -1.7698e-009    -1.1053e-008    0.00052335     
  1.05            -9.636e-010     -2.1607e-008    0.00052335     
  1.1             -1.3029e-009    -2.6207e-008    0.00052335     
  1.15            -1.6264e-009    -1.757e-008     0.00052335     
  1.2             -1.8509e-009    -9.939e-009     0.00052335     
  1.25            -1.0637e-009    -2.3887e-008    0.00052333     
  1.3             -1.4186e-009    -2.5421e-008    0.00052335     
  1.35            -1.6873e-009    -1.4205e-008    0.00052336     
  1.4             -8.48e-010      -1.9596e-008    0.00052335     
  1.45            -1.1614e-009    -2.5554e-008    0.00052335     
  1.5             -1.5148e-009    -2.2862e-008    0.00052335     
  1.55            -1.7494e-009    -1.1512e-008    0.00052335     
  1.6             -9.402e-010     -2.1165e-008    0.00052335     
  1.65            -1.2751e-009    -2.6282e-008    0.00052337     
  1.7             -1.6016e-009    -1.8752e-008    0.00052335     
  1.75            -1.8256e-009    -9.916e-009     0.00052338     
  1.8             -1.0369e-009    -2.3279e-008    0.00052335     
  1.85            -1.3862e-009    -2.5765e-008    0.00052337     
  1.9             -1.6715e-009    -1.4965e-008    0.00052338     
  1.95            -8.197e-010     -1.9408e-008    0.00052335     
  2               -1.1358e-009    -2.5159e-008    0.00052339     
  2.05            -1.4915e-009    -2.3778e-008    0.00052336     
  2.1             -1.7325e-009    -1.2166e-008    0.00052337     
  2.15            -9.095e-010     -2.0598e-008    0.00052335     
  2.2             -1.2391e-009    -2.6254e-008    0.00052335     
  2.25            -1.5774e-009    -2.0209e-008    0.00052333     
  2.3             -1.7995e-009    -1.0159e-008    0.00052333     
  2.35            -1.0038e-009    -2.2682e-008    0.00052335     
  2.4             -1.3519e-009    -2.6226e-008    0.00052334     
  2.45            -1.6523e-009    -1.6084e-008    0.00052332     
  2.5             -1.8922e-009    -9.955e-009     0.00052336     
  2.55            -1.1015e-009    -2.4573e-008    0.00052335     
  2.6             -1.4619e-009    -2.4784e-008    0.00052336     
  2.65            -1.7109e-009    -1.2997e-008    0.00052333     
  2.7             -8.803e-010     -2.0064e-008    0.00052332     
  2.75            -1.207e-009     -2.5816e-008    0.00052337     
  2.8             -1.551e-009     -2.1261e-008    0.00052334     
  2.85            -1.778e-009     -1.0582e-008    0.00052335     
  2.9             -9.773e-010     -2.1794e-008    0.0005234      
  2.95            -1.3198e-009    -2.6137e-008    0.00052335     
  3               -1.6285e-009    -1.7025e-008    0.00052335     
  3.05            -1.8603e-009    -9.735e-009     0.00052335     
  3.1             -1.0719e-009    -2.4221e-008    0.00052335     
  3.15            -1.4286e-009    -2.537e-008     0.00052336     
  3.2             -1.6936e-009    -1.3781e-008    0.00052335     
  3.25            -8.554e-010     -1.9646e-008    0.00052335     
  3.3             -1.1783e-009    -2.5727e-008    0.00052335     
  3.35            -1.5281e-009    -2.2438e-008    0.00052335     
  3.4             -1.7557e-009    -1.1171e-008    0.00052335     
  3.45            -9.508e-010     -2.0996e-008    0.00052335     
  3.5             -1.2837e-009    -2.6441e-008    0.00052337     
  3.55            -1.6081e-009    -1.8331e-008    0.00052338     
  3.6             -1.8343e-009    -9.735e-009     0.00052336     
  3.65            -1.0457e-009    -2.3462e-008    0.00052337     
  3.7             -1.4001e-009    -2.5861e-008    0.00052334     
  3.75            -1.6765e-009    -1.4556e-008    0.00052336     
  3.8             -8.271e-010     -1.9316e-008    0.00052334     
  3.85            -1.1495e-009    -2.5384e-008    0.00052336     
  3.9             -1.5012e-009    -2.3755e-008    0.00052333     
  3.95            -1.7355e-009    -1.1722e-008    0.00052336     
  4               -9.229e-010     -2.0602e-008    0.00052335     
  4.05            -1.2569e-009    -2.63e-008      0.00052334     
  4.1             -1.5902e-009    -1.9458e-008    0.00052337     
  4.15            -1.8115e-009    -9.833e-009     0.00052336     
  4.2             -1.0219e-009    -2.2822e-008    0.00052332     
  4.25            -1.3695e-009    -2.6097e-008    0.00052335     
  4.3             -1.661e-009     -1.5504e-008    0.00052337     
  4.35            -8.06e-010      -1.9234e-008    0.00052335     
  4.4             -1.1226e-009    -2.4992e-008    0.00052337     
  4.45            -1.4806e-009    -2.4621e-008    0.00052332     
  4.5             -1.7184e-009    -1.2224e-008    0.00052337     
  4.55            -9.015e-010     -2.0088e-008    0.00052335     
  4.6             -1.2294e-009    -2.6178e-008    0.00052338     
  4.65            -1.569e-009     -2.0506e-008    0.00052335     
  4.7             -1.7918e-009    -1.0059e-008    0.00052338     
  4.75            -1.001e-009     -2.2212e-008    0.00052336     
  4.8             -1.3437e-009    -2.6405e-008    0.00052337     
  4.85            -1.643e-009     -1.5994e-008    0.00052334     
  4.9             -7.84e-010      -1.901e-008     0.00052334     
  4.95            2.3406e-009     -7.519e-009     0.00052339     
  5               1.2079e-009     2.8383e-008     0.00052338     
END_DB

BEGIN_DB
 ICCAP_VAR VG         2              
 ICCAP_VAR VS         0              
 ICCAP_VAR VB         0              

 #VD              ID              IB              IG             
  0               -7e-010         -1.0515e-008    0.00099997     
  0.05            -1.3351e-009    2.8692e-008     0.00099996     
  0.1             -1.5328e-009    1.221e-008      0.00099995     
  0.15            -2.2438e-009    9.373e-009      0.00099996     
  0.2             -2.0625e-009    1.2034e-008     0.00099996     
  0.25            -1.4556e-009    2.9266e-008     0.00099997     
  0.3             -1.6021e-009    2.541e-008      0.00099996     
  0.35            -1.7009e-009    1.2593e-008     0.00099996     
  0.4             -1.7326e-009    -6.788e-009     0.00099995     
  0.45            -1.7649e-009    -6.462e-009     0.00099998     
  0.5             -1.8024e-009    -6.263e-009     0.00099998     
  0.55            -1.8336e-009    -5.794e-009     0.00099996     
  0.6             -1.8635e-009    -5.677e-009     0.00099996     
  0.65            -1.8946e-009    -5.384e-009     0.00099996     
  0.7             -1.5548e-009    2.7846e-008     0.00099995     
  0.75            -1.8044e-009    1.2648e-008     0.00099994     
  0.8             -1.8317e-009    -5.914e-009     0.00099997     
  0.85            -1.8639e-009    -5.703e-009     0.00099997     
  0.9             -1.8917e-009    -5.317e-009     0.00099995     
  0.95            -1.5594e-009    2.7851e-008     0.00099995     
  1               -1.7937e-009    1.2636e-008     0.00099995     
  1.05            -1.8228e-009    -5.915e-009     0.00099996     
  1.1             -1.8559e-009    -5.709e-009     0.00099995     
  1.15            -1.8828e-009    -5.462e-009     0.00099996     
  1.2             -1.5639e-009    2.753e-008      0.00099997     
  1.25            -1.7813e-009    1.2615e-008     0.00099996     
  1.3             -1.8163e-009    -5.959e-009     0.00099995     
  1.35            -1.8473e-009    -5.802e-009     0.00099997     
  1.4             -1.8741e-009    -5.513e-009     0.00099997     
  1.45            -1.5686e-009    2.7492e-008     0.00099995     
  1.5             -1.769e-009     1.2657e-008     0.00099996     
  1.55            -1.256e-009     2.7692e-008     0.00099996     
  1.6             -1.667e-009     1.2626e-008     0.00099996     
  1.65            -1.32e-009      2.8656e-008     0.00099997     
  1.7             -1.5565e-009    1.2234e-008     0.00099996     
  1.75            -2.2473e-009    9.496e-009      0.00099996     
  1.8             -1.6231e-009    2.4501e-008     0.00099996     
  1.85            -1.6549e-009    1.2693e-008     0.00099996     
  1.9             -1.2745e-009    1.0062e-008     0.00099995     
  1.95            -2.2448e-009    -7.915e-009     0.00099996     
  2               -1.6371e-009    2.3301e-008     0.00099995     
  2.05            -1.5515e-009    2.7979e-008     0.00099995     
  2.1             -1.8039e-009    1.2674e-008     0.00099997     
  2.15            -1.8408e-009    -5.76e-009      0.00099996     
  2.2             -1.8686e-009    -5.654e-009     0.00099996     
  2.25            -1.8999e-009    -5.434e-009     0.00099997     
  2.3             -1.5568e-009    2.7925e-008     0.00099998     
  2.35            -1.7978e-009    1.2687e-008     0.00099995     
  2.4             -1.8342e-009    -6.037e-009     0.00099996     
  2.45            -1.8637e-009    -5.755e-009     0.00099996     
  2.5             -1.8854e-009    -5.523e-009     0.00099996     
  2.55            -1.5591e-009    2.7755e-008     0.00099996     
  2.6             -1.7899e-009    1.2739e-008     0.00099995     
  2.65            -1.8196e-009    -6.226e-009     0.00099996     
  2.7             -1.8485e-009    -5.703e-009     0.00099996     
  2.75            -1.8852e-009    -5.567e-009     0.00099995     
  2.8             -1.5665e-009    2.7624e-008     0.00099995     
  2.85            -1.7806e-009    1.2653e-008     0.00099996     
  2.9             -1.8087e-009    -6.115e-009     0.00099995     
  2.95            -1.8459e-009    -5.795e-009     0.00099997     
  3               -1.8707e-009    -5.589e-009     0.00099997     
  3.05            -1.8992e-009    -5.418e-009     0.00099996     
  3.1             -1.5575e-009    2.7792e-008     0.00099994     
  3.15            -1.7963e-009    1.2699e-008     0.00099995     
  3.2             -1.8244e-009    -6.05e-009      0.00099997     
  3.25            -1.8549e-009    -5.632e-009     0.00099997     
  3.3             -1.8908e-009    -5.504e-009     0.00099997     
  3.35            -1.5643e-009    2.7739e-008     0.00099995     
  3.4             -1.7871e-009    1.269e-008      0.00099995     
  3.45            -1.8158e-009    -6.178e-009     0.00099996     
  3.5             -1.843e-009     -5.738e-009     0.00099996     
  3.55            -1.8719e-009    -5.682e-009     0.00099995     
  3.6             -1.5712e-009    2.7561e-008     0.00099996     
  3.65            -1.7718e-009    1.2761e-008     0.00099996     
  3.7             -1.7998e-009    -6.257e-009     0.00099996     
  3.75            -1.8284e-009    -5.886e-009     0.00099997     
  3.8             -1.8545e-009    -5.67e-009      0.00099996     
  3.85            -1.8817e-009    -5.54e-009      0.00099995     
  3.9             -1.9129e-009    -5.165e-009     0.00099996     
  3.95            -1.548e-009     2.8115e-008     0.00099998     
  4               -1.8081e-009    1.2642e-008     0.00099995     
  4.05            -1.837e-009     -5.783e-009     0.00099996     
  4.1             -1.8719e-009    -5.703e-009     0.00099996     
  4.15            -1.8945e-009    -5.237e-009     0.00099997     
