! VERSION = 6.00
BEGIN_HEADER
 ICCAP_INPUTS
  VG         V  B GROUND SMU4 0.001 LIN        1    0          5          101  0.05      
  VS         V  E GROUND SMU2 0.1 CON        0
  VB         V  C GROUND SMU3 0.1 LIN        3    0          -5         3    -2.5      
  VD         V  S GROUND SMU1 0.1 LIN        2    0.1        5          2    4.9       
 ICCAP_OUTPUTS
  IG         I  B GROUND SMU4 B
  ID         I  S GROUND SMU1 B
  IB         I  C GROUND SMU3 B
END_HEADER

BEGIN_DB
 ICCAP_VAR VS         0              
 ICCAP_VAR VB         0              
 ICCAP_VAR VD         0.1            

 #VG              IG              ID              IB             
  0               -1.5372e-009    -1.6599e-009    -3.944e-009    
  0.05            -1.8607e-009    -1.395e-009     8.914e-009     
  0.1             -4.52e-010      -2.2373e-009    -1.1088e-008   
  0.15            1.2846e-009     -1.4243e-009    -2.2279e-008   
  0.2             2.9074e-009     1.71e-011       -1.0779e-008   
  0.25            1.81e-009       1.5651e-009     -2.99e-010     
  0.3             3.581e-010      2.3259e-009     1.0296e-008    
  0.35            -1.3594e-009    1.508e-009      2.615e-008     
  0.4             -1.323e-009     5.088e-010      1.1504e-008    
  0.45            -2.7127e-009    1.9393e-009     1.1598e-008    
  0.5             -2.98e-011      3.6217e-009     -1.1109e-008   
  0.55            2.4487e-009     1.8337e-008     1.1758e-008    
  0.6             1.3714e-009     4.7705e-008     1.1171e-008    
  0.65            1.689e-010      1.04585e-007    1.0926e-008    
  0.7             2.9128e-009     2.0236e-007     -1.1018e-008   
  0.75            2.7159e-009     3.6165e-007     1.8e-010       
  0.8             5.626e-010      6.0956e-007     1.0349e-008    
  0.85            -1.7738e-009    9.8312e-007     2.2529e-008    
  0.9             -2.6088e-009    1.5031e-006     -2.1089e-008   
  0.95            -5.678e-010     2.2147e-006     -1.1025e-008   
  1               1.9216e-009     3.0707e-006     -2.0257e-008   
  1.05            1.4199e-009     4.0375e-006     -8.65e-009     
  1.1             1.2696e-009     5.0627e-006     -8.765e-009    
  1.15            2.7561e-009     6.1226e-006     -1.1717e-008   
  1.2             5.216e-010      7.1841e-006     1.0364e-008    
  1.25            -1.8128e-009    8.2019e-006     2.3287e-008    
  1.3             -1.4381e-009    9.1739e-006     5.435e-009     
  1.35            -1.3344e-009    1.01131e-005    1.0209e-008    
  1.4             -2.5867e-009    1.10229e-005    1.143e-008     
  1.45            2.5995e-009     1.1882e-005     -1.1117e-008   
  1.5             4.901e-010      1.2727e-005     1.0394e-008    
  1.55            -1.8369e-009    1.3544e-005     2.3907e-008    
  1.6             -1.4491e-009    1.4317e-005     5.222e-009     
  1.65            -1.3383e-009    1.5075e-005     1.0162e-008    
  1.7             -2.6101e-009    1.5813e-005     1.1404e-008    
  1.75            -2.0981e-009    1.6514e-005     9.38e-010      
  1.8             -1.5755e-009    1.7208e-005     3.516e-009     
  1.85            -1.3765e-009    1.788e-005      8.194e-009     
  1.9             -2.7242e-009    1.8533e-005     1.1638e-008    
  1.95            -2.797e-010     1.9156e-005     -1.1094e-008   
  2               -7.876e-010     1.9785e-005     -1.1091e-008   
  2.05            1.6463e-009     2.0376e-005     -1.5879e-008   
  2.1             1.3241e-009     2.0981e-005     -8.851e-009    
  2.15            2.8862e-009     2.1558e-005     -8.941e-009    
  2.2             1.2573e-009     2.2118e-005     1.0824e-008    
  2.25            6.1e-011        2.2698e-005     1.1224e-008    
  2.3             5.009e-010      2.3241e-005     1.0373e-008    
  2.35            -1.8254e-009    2.3776e-005     2.3776e-008    
  2.4             -1.4471e-009    2.43e-005       5.562e-009     
  2.45            -1.3382e-009    2.4813e-005     1.018e-008     
  2.5             -2.604e-009     2.533e-005      1.1362e-008    
  2.55            -2.0828e-009    2.5818e-005     9.04e-010      
  2.6             -1.5701e-009    2.6309e-005     3.701e-009     
  2.65            -1.3745e-009    2.6792e-005     8.31e-009      
  2.7             -2.7209e-009    2.7267e-005     1.1642e-008    
  2.75            -2.851e-010     2.7723e-005     -1.1135e-008   
  2.8             -8.004e-010     2.819e-005      -1.1096e-008   
  2.85            1.6403e-009     2.8625e-005     -1.5836e-008   
  2.9             1.322e-009      2.9082e-005     -8.992e-009    
  2.95            2.8797e-009     2.9516e-005     -8.985e-009    
  3               1.2722e-009     2.9947e-005     1.0878e-008    
  3.05            6.99e-011       3.0384e-005     1.1201e-008    
  3.1             5.182e-010      3.0801e-005     1.0327e-008    
  3.15            -1.8128e-009    3.1211e-005     2.3311e-008    
  3.2             -1.4419e-009    3.1616e-005     5.564e-009     
  3.25            -1.3336e-009    3.2018e-005     1.0409e-008    
  3.3             -2.5857e-009    3.2414e-005     1.1411e-008    
  3.35            -2.0498e-009    3.2793e-005     1.031e-009     
  3.4             -1.554e-009     3.3175e-005     3.755e-009     
  3.45            -1.3717e-009    3.3561e-005     8.602e-009     
  3.5             -2.7087e-009    3.3932e-005     1.1766e-008    
  3.55            -2.989e-010     3.4292e-005     -1.1141e-008   
  3.6             -8.161e-010     3.4651e-005     -1.1176e-008   
  3.65            1.6243e-009     3.4985e-005     -1.5638e-008   
  3.7             1.3186e-009     3.5357e-005     -8.894e-009    
  3.75            2.8765e-009     3.5699e-005     -9.028e-009    
  3.8             2.81e-010       3.6048e-005     1.0471e-008    
  3.85            7.572e-010      3.6378e-005     1.0502e-008    
  3.9             -1.5749e-009    3.6705e-005     1.7946e-008    
  3.95            -1.3745e-009    3.7044e-005     8.349e-009     
  4               -2.7191e-009    3.7371e-005     1.1624e-008    
  4.05            -2.894e-010     3.7677e-005     -1.1142e-008   
  4.1             -7.992e-010     3.7998e-005     -1.1146e-008   
  4.15            1.6381e-009     3.8291e-005     -1.5808e-008   
  4.2             1.3257e-009     3.8605e-005     -8.872e-009    
  4.25            2.8794e-009     3.8906e-005     -8.807e-009    
  4.3             1.2709e-009     3.9205e-005     1.0838e-008    
  4.35            7.55e-011       3.9501e-005     1.1194e-008    
  4.4             5.23e-010       3.9791e-005     1.0289e-008    
  4.45            -1.8119e-009    4.0075e-005     2.3155e-008    
  4.5             -1.443e-009     4.0365e-005     5.64e-009      
  4.55            -1.332e-009     4.0635e-005     1.0329e-008    
  4.6             -2.5831e-009    4.0912e-005     1.1358e-008    
  4.65            -2.0479e-009    4.1172e-005     1.026e-009     
  4.7             -1.5527e-009    4.1435e-005     3.823e-009     
  4.75            -1.3701e-009    4.1697e-005     8.559e-009     
  4.8             -2.7058e-009    4.1953e-005     1.1602e-008    
  4.85            -2.3088e-009    4.2205e-005     5.61e-010      
  4.9             -1.7362e-009    4.2448e-005     2.474e-009     
  4.95            -1.4246e-009    4.2699e-005     6.289e-009     
  5               -1.323e-009     4.2938e-005     1.0748e-008    
END_DB

BEGIN_DB
 ICCAP_VAR VS         0              
 ICCAP_VAR VB         0              
 ICCAP_VAR VD         5              

 #VG              IG              ID              IB             
  0               1.3042e-009     1.3133e-009     8.16e-009      
  0.05            1.2653e-009     7.22e-011       -9.505e-009    
  0.1             2.8883e-009     -4.09e-011      -1.2028e-008   
  0.15            1.0424e-009     2.3409e-009     1.0852e-008    
  0.2             -1.5362e-009    1.928e-009      1.2651e-008    
  0.25            1.278e-010      -1.7144e-009    9.134e-009     
  0.3             -2.33e-011      -1.2485e-009    -1.1175e-008   
  0.35            -2.104e-010     7.863e-010      -1.1198e-008   
  0.4             2.2267e-009     1.1062e-008     9.114e-009     
  0.45            1.6006e-009     3.0636e-008     -8.298e-009    
  0.5             1.3184e-009     7.9263e-008     -1.487e-008    
  0.55            -7.963e-010     1.8185e-007     -8e-011        
  0.6             -1.175e-009     3.8908e-007     -3.8875e-008   
  0.65            -1.5826e-009    7.7313e-007     -6.4819e-008   
  0.7             6.039e-010      1.4345e-006     -9.45e-008     
  0.75            1.4915e-009     2.5139e-006     -1.7858e-007   
  0.8             1.2864e-009     4.1211e-006     -2.7034e-007   
  0.85            2.8127e-009     6.3112e-006     -4.0139e-007   
  0.9             2.3285e-009     9.1285e-006     -5.4719e-007   
  0.95            -2.3742e-009    1.2568e-005     -7.1556e-007   
  1               -1.7772e-009    1.6323e-005     -9.1583e-007   
  1.05            -1.4397e-009    2.0517e-005     -1.11055e-006  
  1.1             -2.5225e-009    2.5004e-005     -1.3251e-006   
  1.15            -2.7747e-009    2.9913e-005     -1.5283e-006   
  1.2             -2.7429e-009    3.4994e-005     -1.7236e-006   
  1.25            -2.4026e-009    4.0298e-005     -1.9098e-006   
  1.3             -1.8257e-009    4.5759e-005     -2.0902e-006   
  1.35            -1.4555e-009    5.1375e-005     -2.261e-006    
  1.4             -1.3412e-009    5.7097e-005     -2.4194e-006   
  1.45            -2.6116e-009    6.2973e-005     -2.5705e-006   
  1.5             -2.0914e-009    6.885e-005      -2.7258e-006   
  1.55            -1.5762e-009    7.4865e-005     -2.8557e-006   
  1.6             -1.3814e-009    8.098e-005      -2.9722e-006   
  1.65            -2.7301e-009    8.7144e-005     -3.0781e-006   
  1.7             -2.3539e-009    9.3311e-005     -3.1908e-006   
  1.75            -1.7824e-009    9.9588e-005     -3.2784e-006   
  1.8             -1.4391e-009    0.000105921     -3.3545e-006   
  1.85            -1.3341e-009    0.000112264     -3.4214e-006   
  1.9             -2.7092e-009    0.00011869      -3.5052e-006   
  1.95            -2.7858e-009    0.00012509      -3.5552e-006   
  2               -2.5603e-009    0.00013154      -3.5896e-006   
  2.05            -2.0248e-009    0.00013803      -3.6235e-006   
  2.1             -1.5407e-009    0.00014454      -3.6505e-006   
  2.15            -1.3694e-009    0.00015107      -3.6661e-006   
  2.2             -2.7099e-009    0.00015756      -3.6747e-006   
  2.25            -2.3035e-009    0.00016411      -3.6965e-006   
  2.3             -1.7317e-009    0.00017063      -3.6937e-006   
  2.35            -1.422e-009     0.0001772       -3.6855e-006   
  2.4             -1.3246e-009    0.00018379      -3.6726e-006   
  2.45            -2.5473e-009    0.00019037      -3.657e-006    
  2.5             -1.9858e-009    0.00019692      -3.6486e-006   
  2.55            -1.5183e-009    0.0002035       -3.6241e-006   
  2.6             -1.3617e-009    0.00021013      -3.592e-006    
  2.65            -2.694e-009     0.00021672      -3.5572e-006   
  2.7             -2.2731e-009    0.0002233       -3.5341e-006   
  2.75            -1.6983e-009    0.00022993      -3.4953e-006   
  2.8             -1.4113e-009    0.00023665      -3.4513e-006   
  2.85            -1.3205e-009    0.0002432       -3.4003e-006   
  2.9             -2.5176e-009    0.0002499       -3.3577e-006   
  2.95            -1.9452e-009    0.00025643      -3.3222e-006   
  3               -1.4992e-009    0.00026306      -3.2686e-006   
  3.05            -1.3571e-009    0.00026964      -3.2133e-006   
  3.1             -2.6784e-009    0.00027626      -3.1586e-006   
  3.15            -2.2308e-009    0.00028279      -3.1147e-006   
  3.2             -1.6665e-009    0.00028941      -3.0624e-006   
  3.25            -1.4037e-009    0.00029599      -3.0056e-006   
  3.3             -1.3153e-009    0.00030258      -2.9436e-006   
  3.35            -2.4916e-009    0.0003091       -2.8858e-006   
  3.4             -1.8997e-009    0.00031569      -2.8399e-006   
  3.45            -1.4798e-009    0.00032216      -2.7781e-006   
  3.5             -1.3497e-009    0.00032878      -2.7196e-006   
  3.55            -2.6539e-009    0.00033537      -2.6583e-006   
  3.6             -2.1845e-009    0.00034183      -2.613e-006    
  3.65            -1.6316e-009    0.0003484       -2.5541e-006   
  3.7             -1.3916e-009    0.00035493      -2.4944e-006   
  3.75            -2.7522e-009    0.00036136      -2.4352e-006   
  3.8             -2.4338e-009    0.00036791      -2.3912e-006   
  3.85            -1.8609e-009    0.00037446      -2.3336e-006   
  3.9             -1.4578e-009    0.0003809       -2.2785e-006   
  3.95            -1.3426e-009    0.00038731      -2.2193e-006   
  4               -2.6308e-009    0.00039384      -2.1639e-006   
  4.05            -2.1345e-009    0.00040024      -2.1225e-006   
  4.1             -1.5979e-009    0.00040673      -2.0681e-006   
  4.15            -1.3829e-009    0.00041307      -2.0113e-006   
  4.2             -2.7379e-009    0.00041956      -1.9586e-006   
  4.25            -2.3901e-009    0.00042589      -1.9196e-006   
  4.3             -1.8066e-009    0.00043232      -1.8702e-006   
  4.35            -1.4417e-009    0.00043862      -1.8176e-006   
  4.4             -1.3359e-009    0.00044507      -1.7664e-006   
  4.45            -2.6035e-009    0.0004515       -1.7188e-006   
  4.5             -2.0856e-009    0.00045783      -1.682e-006    
  4.55            -1.5718e-009    0.00046417      -1.6373e-006   
  4.6             -1.375e-009     0.00047045      -1.5914e-006   
  4.65            -2.7272e-009    0.00047673      -1.5444e-006   
  4.7             -2.3509e-009    0.000483        -1.5154e-006   
  4.75            -1.7721e-009    0.00048919      -1.4702e-006   
  4.8             -1.4286e-009    0.00049547      -1.4277e-006   
  4.85            -1.3286e-009    0.00050175      -1.3839e-006   
  4.9             -2.5783e-009    0.00050807      -1.3449e-006   
  4.95            -2.0415e-009    0.00051411      -1.3163e-006   
  5               -1.5417e-009    0.00052027      -1.2764e-006   
END_DB

BEGIN_DB
 ICCAP_VAR VS         0              
 ICCAP_VAR VB         -2.5           
 ICCAP_VAR VD         0.1            

 #VG              IG              ID              IB             
  0               -6.027e-010     -6.609e-010     1.088e-008     
  0.05            -1.697e-009     1.757e-009      1.5011e-008    
  0.1             -1.7264e-009    -1.5588e-009    6.727e-009     
  0.15            -2.485e-010     -2.175e-009     -1.0947e-008   
  0.2             -4.656e-010     -2.2381e-009    -1.1035e-008   
  0.25            1.2824e-009     -1.4166e-009    -2.2186e-008   
  0.3             2.9121e-009     9.8e-012        -1.0609e-008   
  0.35            1.8075e-009     1.5577e-009     -2.14e-010     
  0.4             3.612e-010      2.2908e-009     1.0319e-008    
  0.45            -1.358e-009     1.3663e-009     2.5981e-008    
  0.5             -1.3238e-009    -1.31e-011      1.1593e-008    
  0.55            -2.722e-009     1.244e-010      1.1639e-008    
  0.6             -2.12e-011      -2.0582e-009    -1.1122e-008   
  0.65            -2.136e-010     -2.1497e-009    -1.0953e-008   
  0.7             -4.234e-010     -2.1695e-009    -1.0957e-008   
  0.75            -6.328e-010     -2.0143e-009    -1.1399e-008   
  0.8             1.2593e-009     -5.111e-010     -1.9219e-008   
  0.85            2.8637e-009     3.7047e-009     -1.3023e-008   
  0.9             -8.905e-010     1.044e-008      -6.65e-010     
  0.95            -1.2691e-009    3.6084e-008     -1.1528e-008   
  1               4.2e-012        9.4476e-008     -1.1929e-008   
  1.05            -1.424e-009     2.0707e-007     1.0293e-008    
  1.1             -1.323e-009     3.9475e-007     1.0776e-008    
  1.15            -2.5371e-009    6.9444e-007     1.1559e-008    
  1.2             -1.9855e-009    1.13387e-006    1.388e-009     
  1.25            -2.453e-009     1.7497e-006     -1.9462e-008   
  1.3             -3.409e-010     2.5298e-006     -1.1031e-008   
  1.35            -8.431e-010     3.4603e-006     -1.1209e-008   
  1.4             1.59e-009       4.4511e-006     -1.5199e-008   
  1.45            1.3119e-009     5.4949e-006     -8.861e-009    
  1.5             2.8684e-009     6.5252e-006     -9.117e-009    
  1.55            3.166e-010      7.566e-006      1.0377e-008    
  1.6             7.819e-010      8.5307e-006     1.0503e-008    
  1.65            -1.5549e-009    9.4894e-006     1.7314e-008    
  1.7             -1.3673e-009    1.03772e-005    8.663e-009     
  1.75            -2.714e-009     1.12385e-005    1.1707e-008    
  1.8             2.8255e-009     1.2062e-005     -1.1014e-008   
  1.85            -1.752e-010     1.2861e-005     1.3095e-008    
  1.9             -1.4495e-009    1.3634e-005     2.4808e-008    
  1.95            -1.3343e-009    1.4367e-005     1.0268e-008    
  2               -2.5964e-009    1.5083e-005     1.1488e-008    
  2.05            -2.0734e-009    1.5766e-005     9.21e-010      
  2.1             -1.5643e-009    1.6437e-005     3.771e-009     
  2.15            -1.3751e-009    1.7089e-005     8.423e-009     
  2.2             -2.7162e-009    1.7719e-005     1.1543e-008    
  2.25            -2.953e-010     1.8317e-005     -1.1208e-008   
  2.3             -8.007e-010     1.8922e-005     -1.1107e-008   
  2.35            1.643e-009      1.949e-005      -1.5849e-008   
  2.4             1.325e-009      2.0069e-005     -8.947e-009    
  2.45            2.888e-009      2.0622e-005     -8.816e-009    
  2.5             1.2641e-009     2.1165e-005     1.0892e-008    
  2.55            6.87e-011       2.1715e-005     1.1249e-008    
  2.6             5.168e-010      2.2235e-005     1.0302e-008    
  2.65            -1.8134e-009    2.2746e-005     2.3564e-008    
  2.7             -1.4456e-009    2.3249e-005     5.351e-009     
  2.75            -1.3329e-009    2.3738e-005     1.0291e-008    
  2.8             -2.595e-009     2.4232e-005     1.14e-008      
  2.85            -2.078e-009     2.4701e-005     9.83e-010      
  2.9             -1.5624e-009    2.5163e-005     3.569e-009     
  2.95            -1.3716e-009    2.562e-005      8.307e-009     
  3               -2.7224e-009    2.6071e-005     1.1749e-008    
  3.05            -2.882e-010     2.6502e-005     -1.1209e-008   
  3.1             -7.91e-010      2.6941e-005     -1.115e-008    
  3.15            1.6425e-009     2.7353e-005     -1.6001e-008   
  3.2             1.327e-009      2.779e-005      -8.869e-009    
  3.25            2.8879e-009     2.8194e-005     -8.763e-009    
  3.3             1.2628e-009     2.8606e-005     1.0915e-008    
  3.35            6.86e-011       2.9012e-005     1.1302e-008    
  3.4             5.077e-010      2.9405e-005     1.0291e-008    
  3.45            -1.8208e-009    2.9795e-005     2.362e-008     
  3.5             -1.4426e-009    3.0173e-005     5.514e-009     
  3.55            -1.3318e-009    3.055e-005      1.0192e-008    
  3.6             -2.5949e-009    3.0927e-005     1.135e-008     
  3.65            -2.0753e-009    3.1288e-005     9.97e-010      
  3.7             -1.563e-009     3.1646e-005     3.654e-009     
  3.75            -1.3703e-009    3.2005e-005     8.285e-009     
  3.8             -2.7218e-009    3.2353e-005     1.1616e-008    
  3.85            -2.753e-010     3.2691e-005     -1.1223e-008   
  3.9             -7.893e-010     3.3029e-005     -1.1192e-008   
  3.95            1.6564e-009     3.3347e-005     -1.6109e-008   
  4               1.3292e-009     3.3688e-005     -8.999e-009    
  4.05            2.8954e-009     3.4014e-005     -8.816e-009    
  4.1             2.608e-010      3.4346e-005     1.0598e-008    
  4.15            7.255e-010      3.4663e-005     1.0389e-008    
