! VERSION = 6.00
BEGIN_HEADER
 ICCAP_INPUTS
  VG         V  B GROUND SMU4 0.001 LIN        1    0          5          101  0.05      
  VS         V  E GROUND SMU2 0.1 CON        0
  VB         V  C GROUND SMU3 0.1 LIN        3    0          -5         3    -2.5      
  VD         V  S GROUND SMU1 0.1 LIN        2    0.1        5          2    4.9       
 ICCAP_OUTPUTS
  IG         I  B GROUND SMU4 B
  ID         I  S GROUND SMU1 B
  IB         I  C GROUND SMU3 B
END_HEADER

BEGIN_DB
 ICCAP_VAR VS         0              
 ICCAP_VAR VB         0              
 ICCAP_VAR VD         0.1            

 #VG              IG              ID              IB             
  0               -1.2329e-009    -1.0733e-009    -1.4788e-008   
  0.05            -2.0607e-009    6.992e-010      2.0112e-008    
  0.1             -1.5037e-009    -1.871e-009     3.911e-009     
  0.15            -1.05e-011      -2.0105e-009    -1.1172e-008   
  0.2             -1.882e-010     -2.1239e-009    -1.1116e-008   
  0.25            -3.927e-010     -2.2033e-009    -1.1184e-008   
  0.3             -5.934e-010     -2.2457e-009    -1.1413e-008   
  0.35            -7.926e-010     -2.2568e-009    -1.1302e-008   
  0.4             1.2475e-009     -1.5805e-009    -1.674e-008    
  0.45            2.8173e-009     -2.36e-010      -1.4646e-008   
  0.5             2.344e-010      2.2361e-009     1.0326e-008    
  0.55            4.057e-010      2.3761e-009     1.0358e-008    
  0.6             -1.3529e-009    1.624e-009      2.6125e-008    
  0.65            -1.3225e-009    6.664e-010      1.1181e-008    
  0.7             -2.7118e-009    1.7743e-009     1.1561e-008    
  0.75            -2.5904e-009    2.6038e-009     4.95e-010      
  0.8             -2.41e-009      5.8225e-009     7.63e-010      
  0.85            1.254e-009      1.2062e-008     1.0282e-008    
  0.9             2.6706e-009     1.7934e-008     -1.3709e-008   
  0.95            2.5483e-009     2.5859e-008     8.708e-009     
  1               4.625e-010      3.5039e-008     1.026e-008     
  1.05            -1.3046e-009    4.3198e-008     2.522e-008     
  1.1             -2.384e-009     5.1648e-008     1.3068e-008    
  1.15            -1.7692e-009    6.0861e-008     2.22e-009      
  1.2             -1.4237e-009    7.1249e-008     5.987e-009     
  1.25            -1.3299e-009    8.1732e-008     1.0442e-008    
  1.3             -2.5807e-009    9.2338e-008     1.1191e-008    
  1.35            -2.0274e-009    1.0181e-007     1.089e-009     
  1.4             1.6456e-009     1.1227e-007     4.026e-009     
  1.45            1.3251e-009     1.2474e-007     -9.14e-009     
  1.5             2.9036e-009     1.3494e-007     -8.973e-009    
  1.55            3.13e-010       1.4592e-007     1.0331e-008    
  1.6             7.442e-010      1.5668e-007     1.0487e-008    
  1.65            -1.5878e-009    1.656e-007      1.8288e-008    
  1.7             -1.3755e-009    1.7344e-007     8.251e-009     
  1.75            -1.3054e-009    1.8373e-007     1.1276e-008    
  1.8             -2.3897e-009    1.9402e-007     1.2819e-008    
  1.85            -1.7752e-009    2.0296e-007     2.103e-009     
  1.9             -1.4267e-009    2.1294e-007     5.89e-009      
  1.95            -1.3323e-009    2.2293e-007     1.0543e-008    
  2               -2.5854e-009    2.3292e-007     1.1301e-008    
  2.05            -2.0469e-009    2.4166e-007     9.85e-010      
  2.1             -1.5323e-009    2.5147e-007     3.817e-009     
  2.15            -1.3623e-009    2.6108e-007     8.876e-009     
  2.2             -2.7075e-009    2.7086e-007     1.1268e-008    
  2.25            -2.3088e-009    2.7947e-007     5.28e-010      
  2.3             -1.7068e-009    2.8894e-007     2.755e-009     
  2.35            -1.4075e-009    2.9845e-007     6.48e-009      
  2.4             -1.3224e-009    3.0786e-007     1.078e-008     
  2.45            -2.5365e-009    3.1738e-007     1.1679e-008    
  2.5             -1.9536e-009    3.2554e-007     1.324e-009     
  2.55            -1.4922e-009    3.3479e-007     4.515e-009     
  2.6             -1.3532e-009    3.4392e-007     9.414e-009     
  2.65            -2.6739e-009    3.5314e-007     1.1049e-008    
  2.7             -2.2266e-009    3.6122e-007     6.11e-010      
  2.75            -1.645e-009     3.7015e-007     2.97e-009      
  2.8             -1.3907e-009    3.7922e-007     7.37e-009      
  2.85            -1.313e-009     3.881e-007      1.1105e-008    
  2.9             -2.4704e-009    3.9709e-007     1.2024e-008    
  2.95            -1.871e-009     4.0463e-007     1.743e-009     
  3               -1.4594e-009    4.1336e-007     5.19e-009      
  3.05            -1.3412e-009    4.2189e-007     1.0064e-008    
  3.1             -2.6323e-009    4.305e-007      1.1002e-008    
  3.15            -2.1308e-009    4.3793e-007     7.36e-010      
  3.2             -1.58e-009      4.4631e-007     3.413e-009     
  3.25            -1.3763e-009    4.546e-007      8.186e-009     
  3.3             -1.303e-009     4.6291e-007     1.1479e-008    
  3.35            -2.3961e-009    4.7124e-007     1.3037e-008    
  3.4             -1.7865e-009    4.7814e-007     2.127e-009     
  3.45            -1.4283e-009    4.8608e-007     5.951e-009     
  3.5             -1.3293e-009    4.941e-007      1.0235e-008    
  3.55            -2.5809e-009    5.0214e-007     1.1274e-008    
  3.6             -2.0266e-009    5.0879e-007     8.45e-010      
  3.65            -1.5241e-009    5.165e-007      3.973e-009     
  3.7             -1.3621e-009    5.2401e-007     9.014e-009     
  3.75            -2.7058e-009    5.317e-007      1.1291e-008    
  3.8             -2.2902e-009    5.3815e-007     4.89e-010      
  3.85            -1.6954e-009    5.4544e-007     2.74e-009      
  3.9             -1.4035e-009    5.528e-007      6.723e-009     
  3.95            -1.3194e-009    5.5993e-007     1.091e-008     
  4               -2.5208e-009    5.6732e-007     1.1832e-008    
  4.05            -1.9352e-009    5.7317e-007     1.501e-009     
  4.1             -1.479e-009     5.802e-007      4.815e-009     
  4.15            -1.3476e-009    5.8703e-007     9.706e-009     
  4.2             -2.6665e-009    5.9394e-007     1.1243e-008    
  4.25            -2.1943e-009    5.996e-007      5.85e-010      
  4.3             -1.6278e-009    6.0622e-007     3.236e-009     
  4.35            -1.3873e-009    6.1271e-007     7.427e-009     
  4.4             -1.3082e-009    6.1924e-007     1.1135e-008    
  4.45            -2.461e-009     6.2591e-007     1.2479e-008    
  4.5             -1.8472e-009    6.3099e-007     1.861e-009     
  4.55            -1.4444e-009    6.3712e-007     5.214e-009     
  4.6             -1.3367e-009    6.4325e-007     1.0097e-008    
  4.65            -2.6238e-009    6.494e-007      1.1052e-008    
  4.7             -2.1126e-009    6.5422e-007     7.29e-010      
  4.75            -1.5697e-009    6.6007e-007     3.424e-009     
  4.8             -1.369e-009     6.658e-007      8.402e-009     
  4.85            -2.7263e-009    6.7156e-007     1.1415e-008    
  4.9             -3.53e-010      6.7562e-007     -1.1e-008      
  4.95            -8.322e-010     6.8034e-007     -1.1365e-008   
  5               -1.2039e-009    6.851e-007      -1.1232e-008   
END_DB

BEGIN_DB
 ICCAP_VAR VS         0              
 ICCAP_VAR VB         0              
 ICCAP_VAR VD         5              

 #VG              IG              ID              IB             
  0               1.1737e-009     1.0783e-009     1.3411e-008    
  0.05            2.1126e-009     -7.52e-010      -2.0819e-008   
  0.1             1.506e-009      1.9857e-009     -8.208e-009    
  0.15            9.58e-011       2.1434e-009     1.0199e-008    
  0.2             2.814e-010      2.2568e-009     1.0183e-008    
  0.25            4.619e-010      2.3508e-009     1.0421e-008    
  0.3             -1.3412e-009    1.4533e-009     2.5353e-008    
  0.35            -1.3119e-009    9.75e-011       1.1095e-008    
  0.4             -2.676e-009     2.411e-010      1.2274e-008    
  0.45            -1.9516e-009    -1.2659e-009    6.38e-010      
  0.5             -6.75e-010      -2.236e-009     -1.1542e-008   
  0.55            -8.662e-010     -2.181e-009     -1.1412e-008   
  0.6             1.2668e-009     -1.2651e-009    -1.1308e-008   
  0.65            2.8929e-009     1.6223e-009     -1.2191e-008   
  0.7             8.29e-011       3.9001e-009     9.958e-009     
  0.75            2.505e-010      6.2066e-009     9.936e-009     
  0.8             4.442e-010      1.06385e-008    9.98e-009      
  0.85            -2.5946e-009    1.2878e-008     -2.7212e-008   
  0.9             -2.0649e-009    2.1867e-008     -5.01e-010     
  0.95            -1.0235e-009    3.2846e-008     -1.3352e-008   
  1               -1.4296e-009    4.834e-008      -1.3992e-008   
  1.05            -1.8185e-009    6.8315e-008     -1.5593e-008   
  1.1             -2.0646e-009    9.2292e-008     -1.4072e-008   
  1.15            -1.4434e-009    1.1866e-007     1.7131e-008    
  1.2             -1.8277e-009    1.5e-007        -1.8264e-008   
  1.25            -2.0743e-009    1.8533e-007     -1.6913e-008   
  1.3             -1.1165e-009    2.2303e-007     -1.9374e-008   
  1.35            -1.5326e-009    2.6548e-007     -2.0847e-008   
  1.4             -1.8818e-009    3.1361e-007     -2.1463e-008   
  1.45            -2.1386e-009    3.625e-007      -2.0462e-008   
  1.5             -2.5295e-009    4.1624e-007     -1.9724e-008   
  1.55            -2.7796e-009    4.7375e-007     -1.8675e-008   
  1.6             -1.93e-009      5.3467e-007     -2.4025e-008   
  1.65            -2.2135e-009    5.9973e-007     -2.2765e-008   
  1.7             -2.609e-009     6.6845e-007     -2.1982e-008   
  1.75            -2.7884e-009    7.4092e-007     -1.9957e-008   
  1.8             -1.9764e-009    8.1663e-007     -2.5219e-008   
  1.85            -2.2902e-009    8.9661e-007     -2.3796e-008   
  1.9             -2.6697e-009    9.8034e-007     -2.2243e-008   
  1.95            -2.7897e-009    1.06744e-006    -2.0031e-008   
  2               -1.08e-011      1.159e-006      -1.2063e-008   
  2.05            -4.924e-010     1.2524e-006     -2.5456e-008   
  2.1             -9.445e-010     1.3507e-006     -2.5807e-008   
  2.15            -1.3396e-009    1.4536e-006     -2.5274e-008   
  2.2             -1.7457e-009    1.5589e-006     -2.6115e-008   
  2.25            -2.0117e-009    1.6679e-006     -2.3776e-008   
  2.3             -2.3468e-009    1.7808e-006     -2.2482e-008   
  2.35            -2.7031e-009    1.8967e-006     -2.0095e-008   
  2.4             -2.7785e-009    2.0168e-006     -1.7013e-008   
  2.45            -2.0638e-009    2.1399e-006     -2.1604e-008   
  2.5             -2.4342e-009    2.2672e-006     -2.0374e-008   
  2.55            -1.5172e-009    2.3983e-006     -2.2569e-008   
  2.6             -1.8743e-009    2.5323e-006     -2.2002e-008   
  2.65            -2.1325e-009    2.6696e-006     -1.9556e-008   
  2.7             -1.1787e-009    2.8113e-006     -2.0426e-008   
  2.75            -1.6008e-009    2.9572e-006     -2.1197e-008   
  2.8             -1.9214e-009    3.1067e-006     -1.9494e-008   
  2.85            -2.2007e-009    3.2588e-006     -1.7169e-008   
  2.9             -1.268e-009     3.4146e-006     -1.8394e-008   
  2.95            -1.6814e-009    3.5741e-006     -1.9007e-008   
  3               -1.9693e-009    3.7352e-006     -1.712e-008    
  3.05            -9.589e-010     3.9004e-006     -1.7298e-008   
  3.1             -1.3552e-009    4.0715e-006     -1.6524e-008   
  3.15            -1.7561e-009    4.2433e-006     -1.7087e-008   
  3.2             -2.0191e-009    4.4178e-006     -1.474e-008    
  3.25            -1.0306e-009    4.5969e-006     -1.559e-008    
  3.3             -1.4377e-009    4.781e-006      -1.514e-008    
  3.35            -1.8227e-009    4.9665e-006     -1.5434e-008   
  3.4             -2.0745e-009    5.1542e-006     -1.2769e-008   
  3.45            -1.1088e-009    5.3463e-006     -1.4018e-008   
  3.5             -1.5262e-009    5.5432e-006     -1.4436e-008   
  3.55            -3.23e-010      5.7373e-006     -1.3141e-008   
  3.6             -8.103e-010     5.9406e-006     -1.3169e-008   
  3.65            -1.1903e-009    6.1466e-006     -1.2919e-008   
  3.7             -1.6117e-009    6.3555e-006     -1.3919e-008   
  3.75            -4.234e-010     6.5615e-006     -1.2222e-008   
  3.8             -8.899e-010     6.7768e-006     -1.2612e-008   
  3.85            -1.2738e-009    6.995e-006      -1.2245e-008   
  3.9             -3.71e-011      7.2091e-006     -1.259e-008    
  3.95            -5.296e-010     7.433e-006      -1.1783e-008   
  4               -9.665e-010     7.6599e-006     -1.2064e-008   
  4.05            2.777e-010      7.8846e-006     -1.4044e-008   
  4.1             -1.19e-010      8.1152e-006     -1.1847e-008   
  4.15            -6.263e-010     8.3498e-006     -1.1456e-008   
  4.2             -1.0358e-009    8.5881e-006     -1.1731e-008   
  4.25            2.007e-010      8.8217e-006     -1.3023e-008   
  4.3             -2.242e-010     9.0642e-006     -1.1357e-008   
  4.35            -7.226e-010     9.3095e-006     -1.129e-008    
  4.4             1.7634e-009     9.5537e-006     -1.8195e-008   
  4.45            1.3494e-009     9.8079e-006     -9.366e-009    
  4.5             1.2555e-009     1.00584e-005    -8.614e-009    
  4.55            2.659e-009      1.03114e-005    -1.3991e-008   
  4.6             2.0037e-009     1.05689e-005    -2.922e-009    
  4.65            1.4461e-009     1.08263e-005    -8.901e-009    
  4.7             1.2789e-009     1.10855e-005    -8.799e-009    
  4.75            2.8083e-009     1.13476e-005    -1.117e-008    
  4.8             -1.7999e-009    1.1627e-005     1.68e-010      
  4.85            -1.4229e-009    1.1892e-005     6.068e-009     
  4.9             -1.3261e-009    1.2163e-005     1.0308e-008    
  4.95            -2.5767e-009    1.2432e-005     1.1182e-008    
  5               -2.0159e-009    1.2704e-005     1.029e-009     
END_DB

BEGIN_DB
 ICCAP_VAR VS         0              
 ICCAP_VAR VB         -2.5           
 ICCAP_VAR VD         0.1            

 #VG              IG              ID              IB             
  0               -2.5357e-009    -2.239e-009     8.7e-011       
  0.05            -1.1429e-009    -2.1588e-009    1.424e-009     
  0.1             1.5121e-009     -1.7573e-009    -1.2232e-008   
  0.15            1.9245e-009     1.4551e-009     -8.97e-009     
  0.2             5.224e-010      2.3724e-009     1.05e-008      
  0.25            -1.3319e-009    1.5042e-009     2.4043e-008    
  0.3             -1.3028e-009    1.42e-010       1.116e-008     
  0.35            -2.6458e-009    2.929e-010      1.2865e-008    
  0.4             -1.0336e-009    -2.2069e-009    6.03e-010      
  0.45            1.6483e-009     -1.6939e-009    -1.2909e-008   
  0.5             1.8021e-009     1.595e-009      -9.099e-009    
  0.55            3.969e-010      2.3206e-009     1.0268e-008    
  0.6             5.83e-010       2.39e-009       1.054e-008     
  0.65            -1.3235e-009    1.5399e-009     2.2682e-008    
  0.7             -2.7137e-009    1.863e-010      1.1515e-008    
  0.75            -1.9134e-009    -1.3171e-009    4.83e-010      
  0.8             -5.927e-010     -2.2441e-009    -1.1342e-008   
  0.85            -7.915e-010     -2.2542e-009    -1.1445e-008   
  0.9             2.0694e-009     -1.5843e-009    -1.651e-008    
  0.95            1.5262e-009     1.9562e-009     -8.372e-009    
  1               1.194e-010      2.1567e-009     1.0235e-008    
  1.05            2.957e-010      2.2695e-009     1.0178e-008    
  1.1             4.814e-010      2.3591e-009     1.0388e-008    
  1.15            -1.3402e-009    1.491e-009      2.4885e-008    
  1.2             -1.3089e-009    2.402e-010      1.1129e-008    
  1.25            -2.6753e-009    7.27e-010       1.2212e-008    
  1.3             -2.523e-009     5.431e-010      5.62e-010      
  1.35            -2.3109e-009    2.3893e-009     1.388e-009     
  1.4             -2.0584e-009    5.334e-009      2.637e-009     
  1.45            2.3755e-009     1.1257e-008     -1.7278e-008   
  1.5             1.6906e-009     1.6341e-008     -5.288e-009    
  1.55            1.3433e-009     2.2753e-008     -9.199e-009    
  1.6             2.9144e-009     3.0114e-008     -8.685e-009    
  1.65            2.6159e-009     3.8714e-008     -6.03e-010     
  1.7             1.9685e-009     4.7479e-008     -3.356e-009    
  1.75            1.4372e-009     5.6392e-008     -9.082e-009    
  1.8             1.28e-009       6.5635e-008     -8.89e-009     
  1.85            2.799e-009      7.4937e-008     -1.1297e-008   
  1.9             5.301e-010      8.5812e-008     1.0184e-008    
  1.95            -1.8313e-009    9.4276e-008     2.3867e-008    
  2               -1.4384e-009    1.01944e-007    5.461e-009     
  2.05            2.5385e-009     1.1387e-007     -1.2591e-008   
  2.1             4.498e-010      1.2421e-007     1.0289e-008    
  2.15            8.685e-010      1.3446e-007     1.0559e-008    
  2.2             -1.4865e-009    1.4286e-007     1.5116e-008    
  2.25            -1.3482e-009    1.5016e-007     9.501e-009     
  2.3             -2.6639e-009    1.5996e-007     1.1305e-008    
  2.35            -2.1803e-009    1.687e-007      7.08e-010      
  2.4             -1.6202e-009    1.7836e-007     3.039e-009     
  2.45            -1.3882e-009    1.8791e-007     7.569e-009     
  2.5             -1.3075e-009    1.9752e-007     1.1195e-008    
  2.55            -2.4365e-009    2.0715e-007     1.2224e-008    
  2.6             -1.8318e-009    2.1551e-007     1.971e-009     
  2.65            -1.4461e-009    2.249e-007      5.345e-009     
  2.7             -1.3345e-009    2.3427e-007     9.95e-009      
  2.75            -2.6126e-009    2.4368e-007     1.1186e-008    
  2.8             -2.0824e-009    2.5206e-007     6.93e-010      
  2.85            -1.5528e-009    2.6126e-007     3.626e-009     
  2.9             -1.3704e-009    2.7029e-007     8.515e-009     
  2.95            -2.7221e-009    2.7942e-007     1.149e-008     
  3               -3.646e-010     2.8697e-007     -1.1116e-008   
  3.05            -8.344e-010     2.951e-007      -1.131e-008    
  3.1             -1.2156e-009    3.0329e-007     -1.1219e-008   
  3.15            2.39e-011       3.1354e-007     -1.2066e-008   
  3.2             -4.49e-010      3.2139e-007     -1.1041e-008   
  3.25            -9e-010         3.2929e-007     -1.1412e-008   
  3.3             -1.2832e-009    3.3721e-007     -1.1267e-008   
  3.35            -4.36e-011      3.4711e-007     -1.1924e-008   
  3.4             -5.263e-010     3.5464e-007     -1.1169e-008   
  3.45            -9.609e-010     3.6235e-007     -1.14e-008     
  3.5             2.86e-010       3.7173e-007     -1.3627e-008   
  3.55            -1.118e-010     3.7951e-007     -1.174e-008    
  3.6             -6.115e-010     3.8679e-007     -1.1157e-008   
  3.65            1.924e-009      3.9564e-007     -2.0223e-008   
  3.7             1.415e-009      4.0571e-007     -9.366e-009    
  3.75            1.2774e-009     4.1329e-007     -8.717e-009    
  3.8             2.7713e-009     4.2082e-007     -1.1914e-008   
  3.85            1.5152e-009     4.3077e-007     1.1426e-008    
  3.9             3.636e-010      4.3679e-007     1.0205e-008    
  3.95            7.902e-010      4.4493e-007     1.0424e-008    
  4               -1.5446e-009    4.5078e-007     1.7047e-008    
  4.05            -1.3611e-009    4.5592e-007     8.773e-009     
  4.1             -2.7064e-009    4.6338e-007     1.1345e-008    
  4.15            -2.302e-009     4.6971e-007     5.45e-010      
