! VERSION = 6.00
BEGIN_HEADER
 ICCAP_INPUTS
  VG         V  B GROUND SMU4 0.001 LIN        2    0          5          6    1         
  VS         V  E GROUND SMU2 0.1 CON        0
  VD         V  S GROUND SMU1 0.1 LIN        1    0          5          101  0.05      
  VB         V  C GROUND SMU3 0.1 LIN        3    0          -2.5       2    -2.5      
 ICCAP_OUTPUTS
  ID         I  S GROUND SMU1 B
  IB         I  C GROUND SMU3 B
  IG         I  B GROUND SMU4 B
END_HEADER

BEGIN_DB
 ICCAP_VAR VG         0              
 ICCAP_VAR VS         0              
 ICCAP_VAR VB         0              

 #VD              ID              IB              IG             
  0               2.3636e-009     -1.3732e-008    2.5846e-009    
  0.05            2.2629e-009     -4.496e-009     1.2728e-009    
  0.1             2.0575e-009     1.0496e-008     -1.541e-010    
  0.15            9.763e-010      2.3499e-008     -1.5848e-009   
  0.2             -1.4961e-009    8.319e-009      -1.8737e-009   
  0.25            -2.2895e-009    -1.2893e-008    -4.92e-010     
  0.3             -2.2876e-009    -1.2194e-008    -7.127e-010    
  0.35            -2.2674e-009    -1.0664e-008    -8.873e-010    
  0.4             -1.6968e-009    -1.4591e-008    1.959e-009     
  0.45            1.8477e-009     -9.216e-009     1.6626e-009    
  0.5             1.547e-009      1.0517e-008     1.8494e-009    
  0.55            2.3201e-009     1.2412e-008     4.408e-010     
  0.6             2.3613e-009     1.1627e-008     6.433e-010     
  0.65            2.3745e-009     1.0102e-008     8.181e-010     
  0.7             1.7185e-009     1.6458e-008     -1.8324e-009   
  0.75            -1.7393e-009    6.075e-009      -1.7244e-009   
  0.8             -1.5799e-009    -2.1538e-008    1.3275e-009    
  0.85            -1.39e-010      -1.4188e-008    2.8818e-009    
  0.9             1.5359e-009     2.442e-008      -1.38e-009     
  0.95            1.423e-010      1.3491e-008     -2.7035e-009   
  1               -1.5921e-009    -2.101e-008     1.3233e-009    
  1.05            -1.6e-010       -1.4562e-008    2.879e-009     
  1.1             1.5542e-009     2.37e-008       -1.3776e-009   
  1.15            1.636e-010      1.3604e-008     -2.6934e-009   
  1.2             -2.2057e-009    -1.2311e-008    -1.364e-010    
  1.25            -2.273e-009     -1.2862e-008    -3.739e-010    
  1.3             -2.2912e-009    -1.2709e-008    -5.995e-010    
  1.35            -2.2782e-009    -1.145e-008     -8.106e-010    
  1.4             -1.659e-009     -1.6905e-008    2.1279e-009    
  1.45            1.9757e-009     -8.286e-009     1.5669e-009    
  1.5             1.458e-009      2.7193e-008     -1.3856e-009   
  1.55            5.77e-011       1.2819e-008     -1.3679e-009   
  1.6             2.278e-010      1.4254e-008     -2.6695e-009   
  1.65            -1.2923e-009    9.41e-010       -2.0063e-009   
  1.7             -2.2867e-009    -1.1844e-008    -7.55e-010     
  1.75            -1.6361e-009    -1.8333e-008    2.2238e-009    
  1.8             2.0436e-009     -7.608e-009     1.511e-009     
  1.85            1.4174e-009     2.8262e-008     -1.3853e-009   
  1.9             2.08e-011       1.2408e-008     -1.3762e-009   
  1.95            1.761e-010      1.3879e-008     -2.6917e-009   
  2               -2.2157e-009    -1.2456e-008    -1.565e-010    
  2.05            -2.2781e-009    -1.2855e-008    -3.946e-010    
  2.1             -2.2892e-009    -1.2649e-008    -6.183e-010    
  2.15            -2.2775e-009    -1.131e-008     -8.211e-010    
  2.2             -1.6672e-009    -1.6492e-008    2.0991e-009    
  2.25            1.9564e-009     -8.585e-009     1.5865e-009    
  2.3             1.4719e-009     2.6693e-008     -1.3852e-009   
  2.35            7.69e-011       1.2899e-008     -1.3658e-009   
  2.4             2.473e-010      1.459e-008      -2.6595e-009   
  2.45            -1.2849e-009    1.051e-009      -2.0162e-009   
  2.5             -2.2829e-009    -1.1734e-008    -7.715e-010    
  2.55            -1.6452e-009    -1.7919e-008    2.1915e-009    
  2.6             2.019e-009      -7.965e-009     1.5301e-009    
  2.65            1.4328e-009     2.776e-008      -1.3854e-009   
  2.7             3.39e-011       1.2429e-008     -1.3727e-009   
  2.75            1.952e-010      1.4025e-008     -2.6817e-009   
  2.8             -1.3109e-009    9.51e-010       -1.9869e-009   
  2.85            -2.2859e-009    -1.2208e-008    -7.231e-010    
  2.9             -2.2662e-009    -1.0466e-008    -8.962e-010    
  2.95            -1.6978e-009    -1.4271e-008    1.934e-009     
  3               1.8329e-009     -9.293e-009     1.6769e-009    
  3.05            1.5343e-009     1.0402e-008     1.8632e-009    
  3.1             2.3218e-009     1.2389e-008     4.55e-010      
  3.15            2.3617e-009     1.1509e-008     6.52e-010      
  3.2             2.3728e-009     9.974e-009      8.325e-010     
  3.25            1.7327e-009     1.6084e-008     -1.8106e-009   
  3.3             -1.7243e-009    6.242e-009      -1.7322e-009   
  3.35            -2.2522e-009    -1.272e-008     -2.635e-010    
  3.4             -2.2864e-009    -1.2893e-008    -4.966e-010    
  3.45            -2.2862e-009    -1.2107e-008    -7.229e-010    
  3.5             -2.2674e-009    -1.0482e-008    -9.019e-010    
  3.55            -1.6997e-009    -1.4283e-008    1.9293e-009    
  3.6             1.8391e-009     -9.229e-009     1.6709e-009    
  3.65            1.5293e-009     1.0513e-008     1.8564e-009    
  3.7             2.3238e-009     1.2333e-008     4.58e-010      
  3.75            2.3608e-009     1.1443e-008     6.554e-010     
  3.8             2.3726e-009     9.978e-009      8.3e-010       
  3.85            1.7274e-009     1.6158e-008     -1.8131e-009   
  3.9             -1.7198e-009    6.211e-009      -1.7357e-009   
  3.95            -1.5882e-009    -2.1074e-008    1.3255e-009    
  4               -1.573e-010     -1.4449e-008    2.8767e-009    
  4.05            1.5501e-009     2.3866e-008     -1.3787e-009   
  4.1             1.59e-010       1.3549e-008     -2.696e-009    
  4.15            -2.2007e-009    -1.2414e-008    -1.37e-010     
  4.2             -2.2741e-009    -1.2845e-008    -3.661e-010    
  4.25            -2.2876e-009    -1.2958e-008    -5.948e-010    
  4.3             -2.2792e-009    -1.1706e-008    -8.072e-010    
  4.35            -2.2602e-009    -1.0282e-008    -9.638e-010    
  4.4             -1.7309e-009    -1.28e-008      1.7963e-009    
  4.45            1.7133e-009     -9.313e-009     1.7549e-009    
  4.5             1.6016e-009     2.1179e-008     -1.3709e-009   
  4.55            2.273e-010      1.4459e-008     -2.6724e-009   
  4.6             -1.2911e-009    1.077e-009      -2.0031e-009   
  4.65            -2.2856e-009    -1.1987e-008    -7.518e-010    
  4.7             -1.6338e-009    -1.8387e-008    2.2313e-009    
  4.75            2.0404e-009     -7.676e-009     1.5082e-009    
  4.8             1.4161e-009     2.8128e-008     -1.3861e-009   
  4.85            1.58e-011       1.2551e-008     -1.3754e-009   
  4.9             1.767e-010      1.3815e-008     -2.6933e-009   
  4.95            -1.3306e-009    8.82e-010       -1.9744e-009   
  5               -2.2886e-009    -1.2794e-008    -6.916e-010    
END_DB

BEGIN_DB
 ICCAP_VAR VG         1              
 ICCAP_VAR VS         0              
 ICCAP_VAR VB         0              

 #VD              ID              IB              IG             
  0               -1.0812e-008    1.1122e-008     4.301e-010     
  0.05            1.1758e-006     -1.5303e-008    -2.1304e-009   
  0.1             1.972e-006      1.0902e-008     -2.068e-010    
  0.15            2.4875e-006     -8.367e-009     2.8956e-009    
  0.2             2.9014e-006     -1.0215e-008    -1.1498e-009   
  0.25            3.1977e-006     7.8e-009        -1.3852e-009   
  0.3             3.4318e-006     2.726e-008      -1.3861e-009   
  0.35            3.566e-006      1.0257e-008     1.0455e-009    
  0.4             3.6894e-006     -8.944e-009     1.3364e-009    
  0.45            3.8285e-006     -1.1512e-008    -1.0345e-009   
  0.5             3.9613e-006     2.0311e-008     -1.5238e-009   
  0.55            4.0384e-006     1.2626e-008     6.702e-010     
  0.6             4.1022e-006     -1.8953e-008    2.1167e-009    
  0.65            4.1925e-006     -2.5951e-008    2.2921e-009    
  0.7             4.2798e-006     -2.6634e-008    2.4533e-009    
  0.75            4.4027e-006     -1.0957e-008    -1.7805e-009   
  0.8             4.4798e-006     2.7525e-008     -1.9969e-009   
  0.85            4.5507e-006     2.9165e-008     -1.3846e-009   
  0.9             4.6238e-006     2.9033e-008     -1.3797e-009   
  0.95            4.6969e-006     2.8596e-008     -1.3768e-009   
  1               4.7686e-006     2.8172e-008     -2.0074e-009   
  1.05            4.837e-006      2.924e-008      -1.3832e-009   
  1.1             4.9188e-006     2.8993e-008     -1.3818e-009   
  1.15            4.9776e-006     2.8635e-008     -1.3775e-009   
  1.2             5.045e-006      2.8157e-008     -1.3717e-009   
  1.25            5.114e-006      2.7385e-008     -1.366e-009    
  1.3             5.1746e-006     2.687e-008      -1.36e-009     
  1.35            5.2328e-006     2.5801e-008     -1.8592e-009   
  1.4             5.3062e-006     2.8246e-008     -1.3736e-009   
  1.45            5.3732e-006     2.7648e-008     -1.3681e-009   
  1.5             5.439e-006      2.678e-008      -1.3619e-009   
  1.55            5.4984e-006     2.597e-008      -1.8739e-009   
  1.6             5.5781e-006     2.8378e-008     -1.3735e-009   
  1.65            5.6281e-006     2.7809e-008     -1.3688e-009   
  1.7             5.6904e-006     2.6954e-008     -1.3619e-009   
  1.75            5.7495e-006     2.6003e-008     -1.8771e-009   
  1.8             5.825e-006      2.8412e-008     -1.3747e-009   
  1.85            5.8823e-006     2.7833e-008     -1.3688e-009   
  1.9             5.9333e-006     2.7017e-008     -1.3654e-009   
  1.95            5.9969e-006     2.6175e-008     -1.8821e-009   
  2               6.0539e-006     2.8474e-008     -1.3759e-009   
  2.05            6.1292e-006     2.7823e-008     -1.3719e-009   
  2.1             6.177e-006      2.7105e-008     -1.366e-009    
  2.15            6.2482e-006     2.622e-008      -1.89e-009     
  2.2             6.2891e-006     2.8337e-008     -1.3777e-009   
  2.25            6.3527e-006     2.7696e-008     -2.0033e-009   
  2.3             6.426e-006      2.8708e-008     -1.3866e-009   
  2.35            6.4713e-006     2.8582e-008     -1.3816e-009   
  2.4             6.5305e-006     2.7895e-008     -2.0585e-009   
  2.45            6.5916e-006     2.8505e-008     -1.3884e-009   
  2.5             6.6638e-006     1.6987e-008     -1.961e-009    
  2.55            6.7186e-006     1.6884e-008     -1.9093e-009   
  2.6             6.755e-006      1.6833e-008     -1.8603e-009   
  2.65            6.8197e-006     1.6487e-008     -1.8102e-009   
  2.7             6.8762e-006     1.6115e-008     -1.7679e-009   
  2.75            6.9306e-006     1.5549e-008     -1.722e-009    
  2.8             6.9845e-006     1.514e-008      -1.6824e-009   
  2.85            6.9741e-006     6.122e-009      2.0876e-009    
  2.9             7.0469e-006     -1.887e-008     1.5209e-009    
  2.95            7.1171e-006     -1.5711e-008    -2.1326e-009   
  3               7.2193e-006     1.1074e-008     -1.9335e-009   
  3.05            7.2806e-006     9.973e-009      -1.882e-009    
  3.1             7.3597e-006     8.694e-009      -1.8341e-009   
  3.15            7.397e-006      7.196e-009      -1.7853e-009   
  3.2             7.4595e-006     5.495e-009      -1.7451e-009   
  3.25            7.4759e-006     -2.146e-008     -2.7559e-009   
  3.3             7.5954e-006     2.94e-010       -2.0462e-009   
  3.35            7.5425e-006     -8.453e-009     1.8656e-009    
  3.4             7.6318e-006     -4.3363e-008    1.8734e-009    
  3.45            7.7387e-006     -3.7929e-008    -1.9861e-009   
  3.5             7.8191e-006     -1.2341e-008    -1.5562e-009   
  3.55            7.8197e-006     -2.3972e-008    2.1897e-009    
  3.6             7.8818e-006     -5.0005e-008    2.808e-010     
  3.65            8.0049e-006     -3.3754e-008    -1.3852e-009   
  3.7             8.013e-006      -3.9735e-008    2.7111e-009    
  3.75            8.0798e-006     -6.7545e-008    -4.817e-010    
  3.8             8.2042e-006     -4.495e-008     -2.3049e-009   
  3.85            8.1268e-006     -5.7955e-008    1.7051e-009    
  3.9             8.2659e-006     -1.0288e-007    1.3204e-009    
  3.95            8.3623e-006     -9.5527e-008    -2.7356e-009   
  4               8.4318e-006     -8.371e-008     5.595e-010     
  4.05            8.4981e-006     -1.2408e-007    7.421e-010     
  4.1             8.5464e-006     -1.3816e-007    1.9711e-009    
  4.15            8.6689e-006     -1.4407e-007    -1.9545e-009   
  4.2             8.7562e-006     -1.2637e-007    -1.6119e-009   
  4.25            8.7584e-006     -1.5043e-007    2.1405e-009    
  4.3             8.8203e-006     -1.9017e-007    3.184e-010     
  4.35            8.9947e-006     -1.8719e-007    -1.3882e-009   
  4.4             9.0101e-006     -2.0539e-007    2.6795e-009    
  4.45            9.1019e-006     -2.4873e-007    -4.14e-010     
  4.5             9.2536e-006     -2.4235e-007    -2.3641e-009   
  4.55            9.1918e-006     -2.7007e-007    1.6503e-009    
  4.6             9.3409e-006     -3.354e-007     1.3283e-009    
  4.65            9.4662e-006     -3.4507e-007    -2.7184e-009   
  4.7             9.5948e-006     -3.5252e-007    5.039e-010     
  4.75            9.6145e-006     -4.1484e-007    2.404e-009     
  4.8             9.8211e-006     -4.4212e-007    -1.805e-009    
  4.85            9.9106e-006     -4.3407e-007    -1.3638e-009   
  4.9             9.9311e-006     -4.8974e-007    2.8029e-009    
  4.95            1.00598e-005    -5.5616e-007    -6.767e-010    
  5               1.02604e-005    -5.6645e-007    -2.0569e-009   
END_DB

BEGIN_DB
 ICCAP_VAR VG         2              
 ICCAP_VAR VS         0              
 ICCAP_VAR VB         0              

 #VD              ID              IB              IG             
  0               -1.3689e-007    1.5195e-008     -2.6413e-009   
  0.05            1.1399e-005     -1.3189e-008    2.8476e-009    
  0.1             2.2352e-005     -1.405e-008     1.5418e-009    
  0.15            3.2747e-005     -1.0117e-008    -1.1928e-009   
  0.2             4.2484e-005     2.8995e-008     -1.3882e-009   
  0.25            5.1446e-005     1.2564e-008     7.16e-010      
  0.3             5.9639e-005     -8.063e-009     1.3418e-009    
  0.35            6.7133e-005     -1.3075e-008    -5.506e-010    
  0.4             7.3863e-005     2.0331e-008     -1.5045e-009   
  0.45            7.9666e-005     9.376e-009      1.1321e-009    
  0.5             8.4823e-005     -2.6026e-008    1.335e-009     
  0.55            8.9305e-005     -1.3002e-008    -7.962e-010    
  0.6             9.3198e-005     8.613e-009      -1.3929e-009   
  0.65            9.6407e-005     1.2532e-008     5.166e-010     
  0.7             9.9062e-005     -2.0024e-008    1.521e-009     
  0.75            0.000101404     -2.6834e-008    1.3425e-009    
  0.8             0.000103463     -1.3183e-008    -6.491e-010    
  0.85            0.00010524      7.513e-009      -1.3889e-009   
  0.9             0.000106719     2.5109e-008     -1.8278e-009   
  0.95            0.000107871     1.157e-008      9.053e-010     
  1               0.000108875     -2.6446e-008    1.3396e-009    
  1.05            0.000109983     -1.2811e-008    -4.964e-010    
  1.1             0.000110973     1.9698e-008     -1.5436e-009   
  1.15            0.000111616     9.597e-009      1.0921e-009    
  1.2             0.000112342     -2.646e-008     1.3383e-009    
  1.25            0.00011324      -1.1934e-008    -1.7941e-009   
  1.3             0.000113804     1.128e-008      -2.305e-010    
  1.35            0.00011444      -1.6617e-008    -1.3885e-009   
  1.4             0.0001147       1.0527e-008     1.5726e-009    
  1.45            0.00011535      -1.1619e-008    2.898e-010     
  1.5             0.00011611      1.6071e-008     -2.3865e-009   
  1.55            0.0001165       1.2649e-008     6.826e-010     
  1.6             0.00011686      -2.5168e-008    1.3486e-009    
  1.65            0.00011734      -1.8777e-008    1.7768e-009    
  1.7             0.00011791      -1.0421e-008    -1.1535e-009   
  1.75            0.00011838      2.8023e-008     -2.0124e-009   
  1.8             0.00011868      1.1875e-008     9.123e-010     
  1.85            0.00011897      -2.691e-008     1.3426e-009    
  1.9             0.00011945      -1.3245e-008    -7.931e-010    
  1.95            0.00011998      2.6977e-008     -1.3897e-009   
  2               0.00011998      9.561e-009      1.5845e-009    
  2.05            0.00012044      -1.1517e-008    2.751e-010     
  2.1             0.00012105      1.6112e-008     -2.3705e-009   
  2.15            0.00012128      1.2416e-008     6.966e-010     
  2.2             0.00012147      -2.5664e-008    1.3464e-009    
  2.25            0.00012188      -1.3439e-008    -5.322e-010    
  2.3             0.00012233      7.185e-009      -1.3893e-009   
  2.35            0.00012255      1.17e-008       5.333e-010     
  2.4             0.00012275      -9.514e-009     1.3396e-009    
  2.45            0.00012332      -1.3078e-008    -1.7152e-009   
  2.5             0.00012354      1.5824e-008     -1.891e-009    
  2.55            0.00012384      1.2922e-008     -2.4226e-009   
  2.6             0.00012409      1.5832e-008     -1.626e-009    
  2.65            0.0001244       1.2398e-008     -2.1534e-009   
  2.7             0.0001247       7.871e-009      -2.5913e-009   
  2.75            0.00012491      1.1014e-008     -1.6688e-009   
  2.8             0.00012508      -5.37e-010      2.6024e-009    
  2.85            0.00012538      -2.421e-008     -9.593e-010    
  2.9             0.00012565      -2.0288e-008    -2.7453e-009   
  2.95            0.000126        -3.614e-009     -2.4807e-009   
  3               0.00012608      -1.2783e-008    2.1698e-009    
  3.05            0.00012637      -3.9881e-008    -3.859e-010    
  3.1             0.00012674      -1.2721e-008    -1.5142e-009   
  3.15            0.00012685      -3.0989e-008    2.7006e-009    
  3.2             0.00012718      -5.7878e-008    -1.0907e-009   
  3.25            0.00012749      -2.7089e-008    -1.3871e-009   
  3.3             0.00012762      -6.3264e-008    2.8998e-009    
  3.35            0.00012807      -8.9453e-008    -1.7514e-009   
  3.4             0.00012822      -8.0895e-008    -1.637e-010    
  3.45            0.00012839      -1.06895e-007   1.3468e-009    
  3.5             0.00012866      -1.3035e-007    -2.7519e-009   
  3.55            0.00012874      -1.3382e-007    1.3094e-009    
  3.6             0.00012905      -1.8223e-007    1.7373e-009    
  3.65            0.00012943      -1.986e-007     -2.5762e-009   
  3.7             0.00012965      -2.0626e-007    9.121e-010     
  3.75            0.00012981      -2.7601e-007    1.3416e-009    
  3.8             0.00013021      -2.8889e-007    -2.7463e-009   
  3.85            0.00013021      -3.1365e-007    1.5527e-009    
  3.9             0.00013062      -3.7982e-007    3.01e-010      
  3.95            0.00013115      -4.012e-007     -2.4072e-009   
  4               0.00013125      -4.6252e-007    2.2215e-009    
  4.05            0.00013156      -5.4546e-007    -4.597e-010    
  4.1             0.000132        -5.7907e-007    -1.4722e-009   
  4.15            0.00013214      -6.6535e-007    2.7335e-009    
