! VERSION = 6.00
BEGIN_HEADER
 ICCAP_INPUTS
  VG         V  B GROUND SMU4 0.001 LIN        1    0          5          101  0.05      
  VS         V  E GROUND SMU2 0.1 CON        0
  VB         V  C GROUND SMU3 0.1 LIN        3    0          -5         3    -2.5      
  VD         V  S GROUND SMU1 0.1 LIN        2    0.1        5          2    4.9       
 ICCAP_OUTPUTS
  IG         I  B GROUND SMU4 B
  ID         I  S GROUND SMU1 B
  IB         I  C GROUND SMU3 B
END_HEADER

BEGIN_DB
 ICCAP_VAR VS         0              
 ICCAP_VAR VB         0              
 ICCAP_VAR VD         0.1            

 #VG              IG              ID              IB             
  0               -1.6752e-009    -1.8764e-009    -4.265e-009    
  0.05            -1.7687e-009    -1.5855e-009    7.362e-009     
  0.1             -3.198e-010     -2.227e-009     -1.0908e-008   
  0.15            -5.189e-010     -2.2878e-009    -1.1124e-008   
  0.2             -7.077e-010     -2.3102e-009    -1.1449e-008   
  0.25            1.251e-009      -1.5873e-009    -1.8861e-008   
  0.3             2.8722e-009     -1.915e-010     -1.3448e-008   
  0.35            1.386e-010      2.1423e-009     1.0218e-008    
  0.4             3.138e-010      2.2612e-009     1.0414e-008    
  0.45            4.828e-010      2.3874e-009     1.0599e-008    
  0.5             -1.3392e-009    1.6618e-009     2.5304e-008    
  0.55            -1.3146e-009    8.966e-010      1.1296e-008    
  0.6             -2.6984e-009    3.2482e-009     1.2337e-008    
  0.65            1.516e-009      1.0598e-008     -9.174e-009    
  0.7             1.2901e-009     3.0595e-008     -8.812e-009    
  0.75            2.8756e-009     7.9546e-008     -9.308e-009    
  0.8             -5.244e-010     1.6922e-007     1.1288e-008    
  0.85            -9.535e-010     3.2889e-007     -1.1465e-008   
  0.9             2.88e-010       5.6622e-007     -1.3645e-008   
  0.95            -9.02e-011      8.9973e-007     -1.1347e-008   
  1               1.4551e-009     1.3158e-006     1.0148e-008    
  1.05            1.2752e-009     1.7992e-006     -8.611e-009    
  1.1             2.8352e-009     2.323e-006      -1.0668e-008   
  1.15            4.733e-010      2.8933e-006     1.0289e-008    
  1.2             -1.3097e-009    3.4547e-006     2.5407e-008    
  1.25            -2.3998e-009    4.0153e-006     1.3148e-008    
  1.3             -8.27e-010      4.5614e-006     -1.1098e-008   
  1.35            1.6391e-009     5.1052e-006     -1.6121e-008   
  1.4             1.3138e-009     5.6532e-006     -9.128e-009    
  1.45            2.9128e-009     6.1898e-006     -8.697e-009    
  1.5             1.2581e-009     6.7221e-006     1.0669e-008    
  1.55            9.33e-011       7.2597e-006     1.0977e-008    
  1.6             5.135e-010      7.7722e-006     1.0361e-008    
  1.65            -1.304e-009     8.2797e-006     2.4674e-008    
  1.7             -2.3567e-009    8.781e-006      1.3739e-008    
  1.75            -1.7338e-009    9.2701e-006     2.566e-009     
  1.8             -1.4145e-009    9.7578e-006     6.637e-009     
  1.85            -1.3276e-009    1.02385e-005    1.0813e-008    
  1.9             -2.5823e-009    1.07143e-005    1.1528e-008    
  1.95            -2.0196e-009    1.11761e-005    1.137e-009     
  2               1.3353e-009     1.1635e-005     1.738e-009     
  2.05            2.9219e-009     1.2092e-005     -8.479e-009    
  2.1             2.6411e-009     1.2545e-005     -3.4e-010      
  2.15            2.0105e-009     1.2987e-005     -2.913e-009    
  2.2             1.4498e-009     1.3425e-005     -8.446e-009    
  2.25            1.276e-009      1.3857e-005     -8.885e-009    
  2.3             2.8342e-009     1.4285e-005     -1.0586e-008   
  2.35            4.71e-010       1.4717e-005     1.0287e-008    
  2.4             8.885e-010      1.5133e-005     1.0936e-008    
  2.45            1.2671e-009     1.554e-005      1.0489e-008    
  2.5             9.94e-011       1.5959e-005     1.091e-008     
  2.55            5.195e-010      1.636e-005      1.0382e-008    
  2.6             -1.3018e-009    1.6761e-005     2.4817e-008    
  2.65            -2.3499e-009    1.716e-005      1.3701e-008    
  2.7             -1.7325e-009    1.7542e-005     2.604e-009     
  2.75            -1.4127e-009    1.7928e-005     6.566e-009     
  2.8             -1.3262e-009    1.8312e-005     1.1001e-008    
  2.85            -2.5856e-009    1.8695e-005     1.1371e-008    
  2.9             -2.0339e-009    1.9059e-005     1.17e-009      
  2.95            -1.5236e-009    1.943e-005      4.361e-009     
  3               -1.3609e-009    1.9795e-005     9.464e-009     
  3.05            -2.7271e-009    2.0153e-005     1.1406e-008    
  3.1             -2.319e-009     2.0506e-005     5.23e-010      
  3.15            -1.7237e-009    2.0854e-005     2.814e-009     
  3.2             -1.4086e-009    2.1203e-005     6.743e-009     
  3.25            -1.3242e-009    2.1547e-005     1.1128e-008    
  3.3             -2.5707e-009    2.1886e-005     1.1545e-008    
  3.35            -2.0018e-009    2.2212e-005     1.292e-009     
  3.4             -1.5105e-009    2.2546e-005     4.564e-009     
  3.45            -1.36e-009      2.2869e-005     9.428e-009     
  3.5             -2.7217e-009    2.3193e-005     1.1375e-008    
  3.55            -2.3052e-009    2.3504e-005     6.22e-010      
  3.6             -1.7117e-009    2.3819e-005     2.719e-009     
  3.65            -1.4053e-009    2.4125e-005     6.943e-009     
  3.7             -1.3248e-009    2.4435e-005     1.0984e-008    
  3.75            -2.5608e-009    2.4739e-005     1.1594e-008    
  3.8             -1.9938e-009    2.5026e-005     1.31e-009      
  3.85            -1.51e-009      2.5317e-005     4.491e-009     
  3.9             -1.3557e-009    2.5605e-005     9.628e-009     
  3.95            -2.7164e-009    2.5892e-005     1.1499e-008    
  4               -2.2953e-009    2.6167e-005     5.51e-010      
  4.05            -1.7029e-009    2.6444e-005     2.79e-009      
  4.1             -1.4035e-009    2.6717e-005     7.056e-009     
  4.15            -1.3235e-009    2.6983e-005     1.1117e-008    
  4.2             -2.555e-009     2.7255e-005     1.1533e-008    
  4.25            -1.9744e-009    2.7505e-005     1.421e-009     
  4.3             -1.4979e-009    2.7763e-005     4.706e-009     
  4.35            -1.3548e-009    2.8016e-005     9.763e-009     
  4.4             -2.7109e-009    2.8263e-005     1.1552e-008    
  4.45            -2.2795e-009    2.8508e-005     5.74e-010      
  4.5             -1.6925e-009    2.875e-005      2.86e-009      
  4.55            -1.4024e-009    2.8986e-005     7.09e-009      
  4.6             -1.3215e-009    2.922e-005      1.1062e-008    
  4.65            -2.5483e-009    2.9453e-005     1.16e-008      
  4.7             -1.97e-009      2.9673e-005     1.516e-009     
  4.75            -1.4973e-009    2.9894e-005     4.746e-009     
  4.8             -1.3549e-009    3.0112e-005     9.663e-009     
  4.85            -2.7085e-009    3.0326e-005     1.1297e-008    
  4.9             -2.2707e-009    3.0532e-005     5.63e-010      
  4.95            -1.686e-009     3.0739e-005     2.833e-009     
  5               -1.3995e-009    3.0944e-005     7.105e-009     
END_DB

BEGIN_DB
 ICCAP_VAR VS         0              
 ICCAP_VAR VB         0              
 ICCAP_VAR VD         5              

 #VG              IG              ID              IB             
  0               -1.1184e-009    -1.0233e-009    -2.0534e-008   
  0.05            -1.5302e-009    1.0137e-009     2.6436e-008    
  0.1             -1.8974e-009    -1.404e-009     9.555e-009     
  0.15            -5.246e-010     -2.2842e-009    -1.0972e-008   
  0.2             1.2776e-009     -1.487e-009     -2.2016e-008   
  0.25            2.9235e-009     -5.74e-011      -1.0601e-008   
  0.3             1.8375e-009     1.5383e-009     -3.74e-010     
  0.35            4.019e-010      2.2936e-009     1.0325e-008    
  0.4             5.782e-010      2.3795e-009     1.0675e-008    
  0.45            -1.3257e-009    1.5937e-009     2.287e-008     
  0.5             -2.7365e-009    4.266e-010      1.1488e-008    
  0.55            1.452e-010      -9.244e-010     4.14e-010      
  0.6             -1.05e-011      1.6128e-009     -1.1301e-008   
  0.65            2.9236e-009     1.3491e-008     2.1694e-008    
  0.7             2.8101e-009     3.9858e-008     -2.277e-009    
  0.75            -6.396e-010     1.083e-007      4.294e-009     
  0.8             -1.0463e-009    2.6319e-007     -2.7176e-008   
  0.85            -1.4414e-009    5.4399e-007     -4.239e-008    
  0.9             -1.825e-009     9.8056e-007     -6.6042e-008   
  0.95            1.7852e-009     1.6097e-006     -7.5659e-008   
  1               -1.8484e-009    2.4613e-006     -1.1285e-007   
  1.05            -1.4552e-009    3.5674e-006     -1.6674e-007   
  1.1             -1.3414e-009    4.9071e-006     -2.1533e-007   
  1.15            -2.6468e-009    6.5241e-006     -2.7478e-007   
  1.2             -2.1362e-009    8.3209e-006     -3.486e-007    
  1.25            -1.5925e-009    1.03766e-005    -4.1103e-007   
  1.3             -1.0703e-009    1.2652e-005     -4.5583e-007   
  1.35            -1.4708e-009    1.5177e-005     -5.5801e-007   
  1.4             -1.8459e-009    1.7854e-005     -6.2369e-007   
  1.45            -2.1e-009       2.0708e-005     -6.8442e-007   
  1.5             -2.4617e-009    2.3762e-005     -7.4402e-007   
  1.55            -2.7665e-009    2.7e-005        -7.9899e-007   
  1.6             -2.7923e-009    3.0423e-005     -8.4914e-007   
  1.65            -2.5199e-009    3.4007e-005     -8.9451e-007   
  1.7             -1.9512e-009    3.7748e-005     -9.3786e-007   
  1.75            -1.4951e-009    4.1624e-005     -9.7476e-007   
  1.8             -1.3555e-009    4.5639e-005     -1.00552e-006  
  1.85            -2.6996e-009    4.9782e-005     -1.03466e-006  
  1.9             -2.243e-009     5.4011e-005     -1.07276e-006  
  1.95            -1.6638e-009    5.8399e-005     -1.09269e-006  
  2               -1.4025e-009    6.2893e-005     -1.10577e-006  
  2.05            -1.321e-009     6.7497e-005     -1.11544e-006  
  2.1             -2.5121e-009    7.2206e-005     -1.1253e-006   
  2.15            -1.9221e-009    7.6955e-005     -1.14153e-006  
  2.2             2.9321e-009     8.1775e-005     -1.1548e-006   
  2.25            2.7278e-009     8.6706e-005     -1.1425e-006   
  2.3             2.1348e-009     9.1745e-005     -1.1404e-006   
  2.35            1.5234e-009     9.6854e-005     -1.1368e-006   
  2.4             1.2952e-009     0.000102032     -1.1304e-006   
  2.45            2.8785e-009     0.000107287     -1.1152e-006   
  2.5             2.4551e-009     0.000112674     -1.0942e-006   
  2.55            1.2641e-009     0.00011811      -1.0671e-006   
  2.6             2.7562e-009     0.00012352      -1.0687e-006   
  2.65            2.1739e-009     0.0001291       -1.0377e-006   
  2.7             1.5473e-009     0.00013465      -1.0212e-006   
  2.75            1.301e-009      0.00014026      -1.0022e-006   
  2.8             -2.7955e-009    0.00014612      -9.7309e-007   
  2.85            -2.7544e-009    0.00015185      -9.4438e-007   
  2.9             -2.3991e-009    0.00015761      -9.1494e-007   
  2.95            -1.8045e-009    0.00016344      -8.8619e-007   
  3               -1.4407e-009    0.00016929      -8.5617e-007   
  3.05            -1.34e-009      0.00017518      -8.2402e-007   
  3.1             -2.6229e-009    0.0001811       -7.9602e-007   
  3.15            -2.0909e-009    0.00018701      -7.7873e-007   
  3.2             -1.5699e-009    0.00019298      -7.4825e-007   
  3.25            -1.3752e-009    0.000199        -7.1619e-007   
  3.3             -2.7472e-009    0.00020503      -6.8594e-007   
  3.35            -2.3717e-009    0.00021106      -6.7033e-007   
  3.4             -1.7822e-009    0.00021717      -6.4208e-007   
  3.45            -1.432e-009     0.00022328      -6.1249e-007   
  3.5             -1.3344e-009    0.00022942      -5.826e-007    
  3.55            -2.6029e-009    0.00023555      -5.5697e-007   
  3.6             -2.0639e-009    0.00024169      -5.4279e-007   
  3.65            -1.5546e-009    0.00024788      -5.1589e-007   
  3.7             -1.3708e-009    0.0002541       -4.8765e-007   
  3.75            -2.7452e-009    0.00026032      -4.6229e-007   
  3.8             -2.3538e-009    0.00026649      -4.5163e-007   
  3.85            -1.7645e-009    0.00027272      -4.2849e-007   
  3.9             -1.4264e-009    0.00027899      -4.0442e-007   
  3.95            -1.3333e-009    0.00028524      -3.7998e-007   
  4               -2.5982e-009    0.00029154      -3.6055e-007   
  4.05            -2.0504e-009    0.00029773      -3.5247e-007   
  4.1             -1.5421e-009    0.00030403      -3.3161e-007   
  4.15            -1.3656e-009    0.00031036      -3.0992e-007   
  4.2             -2.7391e-009    0.00031664      -2.9101e-007   
  4.25            -2.3415e-009    0.00032285      -2.8657e-007   
  4.3             -1.7453e-009    0.00032917      -2.6955e-007   
  4.35            -1.4175e-009    0.0003355       -2.5133e-007   
  4.4             -1.3293e-009    0.00034183      -2.3321e-007   
  4.45            -2.5904e-009    0.0003482       -2.1936e-007   
  4.5             -2.0339e-009    0.00035443      -2.1719e-007   
  4.55            -1.5286e-009    0.00036075      -2.0226e-007   
  4.6             -1.3611e-009    0.00036707      -1.8599e-007   
  4.65            -2.7301e-009    0.00037334      -1.7298e-007   
  4.7             -2.3214e-009    0.00037961      -1.7354e-007   
  4.75            -1.7238e-009    0.00038589      -1.6142e-007   
  4.8             -1.4111e-009    0.00039218      -1.4835e-007   
  4.85            -1.328e-009     0.00039847      -1.351e-007    
  4.9             -2.5722e-009    0.00040474      -1.2619e-007   
  4.95            -2.0069e-009    0.00041098      -1.2861e-007   
  5               -1.513e-009     0.00041725      -1.1771e-007   
END_DB

BEGIN_DB
 ICCAP_VAR VS         0              
 ICCAP_VAR VB         -2.5           
 ICCAP_VAR VD         0.1            

 #VG              IG              ID              IB             
  0               -1.3001e-009    -1.1633e-009    -8.855e-009    
  0.05            -2.6215e-009    3.036e-010      1.405e-008     
  0.1             -2.0232e-009    -1.2558e-009    8.61e-010      
  0.15            -7.893e-010     -2.3039e-009    -1.1537e-008   
  0.2             1.2424e-009     -1.6297e-009    -1.7133e-008   
  0.25            2.8375e-009     -2.6e-010       -1.4513e-008   
  0.3             2.162e-010      2.1867e-009     1.0301e-008    
  0.35            3.927e-010      2.2923e-009     1.0487e-008    
  0.4             5.632e-010      2.3612e-009     1.0844e-008    
  0.45            -1.3252e-009    1.5047e-009     2.356e-008     
  0.5             -2.7436e-009    1.315e-010      1.1585e-008    
  0.55            -7.61e-011      -2.0939e-009    -1.0774e-008   
  0.6             -2.618e-010     -2.1947e-009    -1.0825e-008   
  0.65            -4.588e-010     -2.2634e-009    -1.0948e-008   
  0.7             -6.5e-010       -2.303e-009     -1.1376e-008   
  0.75            -8.415e-010     -2.2983e-009    -1.1294e-008   
  0.8             -9.894e-010     -2.2697e-009    -1.1164e-008   
  0.85            1.7366e-009     -1.7145e-009    -1.3309e-008   
  0.9             1.7479e-009     1.6603e-009     -9.496e-009    
  0.95            1.9188e-009     1.4221e-009     1.0002e-008    
  1               4.878e-010      2.3368e-009     1.0585e-008    
  1.05            6.597e-010      2.4148e-009     1.0899e-008    
  1.1             -1.3117e-009    1.7299e-009     2.0994e-008    
  1.15            -2.6977e-009    9.387e-010      1.2532e-008    
  1.2             -2.5546e-009    2.3418e-009     6.09e-010      
  1.25            1.2646e-009     1.3211e-008     1.024e-008     
  1.3             2.8008e-009     3.8998e-008     -1.17e-008     
  1.35            5.409e-010      9.6913e-008     1.0405e-008    
  1.4             2.8378e-009     1.8776e-007     -1.1419e-008   
  1.45            4.617e-010      3.2673e-007     1.0309e-008    
  1.5             8.811e-010      5.2601e-007     1.0968e-008    
  1.55            -1.4876e-009    8.1922e-007     1.5249e-008    
  1.6             -2.4375e-009    1.1949e-006     -1.8943e-008   
  1.65            -3.637e-010     1.6523e-006     -1.0796e-008   
  1.7             -8.396e-010     2.1706e-006     -1.1227e-008   
  1.75            -1.22e-009      2.7199e-006     -1.113e-008    
  1.8             2.77e-011       3.258e-006      -1.1775e-008   
  1.85            -4.292e-010     3.819e-006      -1.0845e-008   
  1.9             -8.926e-010     4.3728e-006     -1.1335e-008   
  1.95            -1.2746e-009    4.927e-006      -1.1043e-008   
  2               -2.25e-011      5.4451e-006     -1.162e-008    
  2.05            -4.895e-010     5.9806e-006     -1.088e-008    
  2.1             -9.359e-010     6.5075e-006     -1.1414e-008   
  2.15            -1.326e-009     7.0271e-006     -1.1138e-008   
  2.2             -7.38e-011      7.5177e-006     -1.1506e-008   
  2.25            -5.534e-010     8.0194e-006     -1.0972e-008   
  2.3             -9.833e-010     8.5123e-006     -1.1401e-008   
  2.35            2.611e-010      8.9816e-006     -1.3292e-008   
  2.4             -1.233e-010     9.462e-006      -1.1298e-008   
  2.45            -6.075e-010     9.9332e-006     -1.0959e-008   
  2.5             -1.0276e-009    1.03975e-005    -1.1285e-008   
  2.55            2.181e-010      1.08362e-005    -1.2963e-008   
  2.6             -1.877e-010     1.1292e-005     -1.1158e-008   
  2.65            2.389e-009      1.1746e-005     -1.177e-008    
  2.7             2.066e-010      1.2188e-005     1.065e-008     
  2.75            6.294e-010      1.2612e-005     1.0446e-008    
  2.8             -1.721e-009     1.3044e-005     2.1766e-008    
  2.85            -1.4076e-009    1.3458e-005     6.886e-009     
  2.9             -1.3205e-009    1.3874e-005     1.1022e-008    
  2.95            -2.5496e-009    1.4282e-005     1.179e-008     
  3               -1.9696e-009    1.4677e-005     1.641e-009     
  3.05            -1.4993e-009    1.5071e-005     4.709e-009     
  3.1             -1.354e-009     1.5462e-005     9.704e-009     
  3.15            -2.7067e-009    1.5849e-005     1.1394e-008    
  3.2             -2.2709e-009    1.6219e-005     6.77e-010      
  3.25            -1.6813e-009    1.6599e-005     3.152e-009     
  3.3             -1.4e-009       1.6964e-005     7.101e-009     
  3.35            -1.3175e-009    1.7334e-005     1.1131e-008    
  3.4             -2.5265e-009    1.7695e-005     1.1852e-008    
  3.45            -1.9377e-009    1.8042e-005     1.756e-009     
  3.5             -1.4839e-009    1.839e-005      4.773e-009     
  3.55            -1.3482e-009    1.8738e-005     9.711e-009     
  3.6             -2.6946e-009    1.9078e-005     1.1357e-008    
  3.65            -2.2398e-009    1.9409e-005     6.61e-010      
  3.7             -1.6587e-009    1.9737e-005     3.268e-009     
  3.75            -1.3931e-009    2.0065e-005     7.414e-009     
  3.8             -1.3124e-009    2.0387e-005     1.1212e-008    
  3.85            -2.5054e-009    2.0706e-005     1.2264e-008    
  3.9             -1.9028e-009    2.1013e-005     1.927e-009     
  3.95            -1.4744e-009    2.1319e-005     5.135e-009     
  4               -1.3435e-009    2.1623e-005     1.0097e-008    
  4.05            -2.676e-009     2.1922e-005     1.1375e-008    
  4.1             -2.1954e-009    2.221e-005      7.8e-010       
  4.15            -1.6318e-009    2.2502e-005     3.392e-009     
