! VERSION = 6.00
BEGIN_HEADER
 ICCAP_INPUTS
  VG         V  B GROUND SMU4 0.001 LIN        2    0          5          6    1         
  VS         V  E GROUND SMU2 0.1 CON        0
  VD         V  S GROUND SMU1 0.1 LIN        1    0          5          101  0.05      
  VB         V  C GROUND SMU3 0.1 LIN        3    0          -2.5       2    -2.5      
 ICCAP_OUTPUTS
  ID         I  S GROUND SMU1 B
  IB         I  C GROUND SMU3 B
  IG         I  B GROUND SMU4 B
END_HEADER

BEGIN_DB
 ICCAP_VAR VG         0              
 ICCAP_VAR VS         0              
 ICCAP_VAR VB         0              

 #VD              ID              IB              IG             
  0               2.903e-010      1.3497e-008     6.89e-011      
  0.05            -2.168e-009     -1.2771e-008    -1.36e-010     
  0.1             -2.2291e-009    -1.3357e-008    -3.647e-010    
  0.15            -2.2345e-009    -1.3273e-008    -5.825e-010    
  0.2             -2.2217e-009    -1.1941e-008    -7.884e-010    
  0.25            -2.2016e-009    -1.0304e-008    -9.415e-010    
  0.3             -1.6872e-009    -1.2584e-008    1.7812e-009    
  0.35            1.7142e-009     -9.351e-009     1.7075e-009    
  0.4             1.4252e-009     1.0023e-008     1.8786e-009    
  0.45            2.3028e-009     1.2632e-008     4.969e-010     
  0.5             2.3228e-009     1.1367e-008     6.82e-010      
  0.55            2.331e-009      9.807e-009      8.473e-010     
  0.6             1.7127e-009     1.5101e-008     -1.7563e-009   
  0.65            -1.6652e-009    6.059e-009      -1.7269e-009   
  0.7             -1.555e-009     -2.1091e-008    2.3446e-009    
  0.75            2.118e-009      -6.4e-009       1.4008e-009    
  0.8             1.3141e-009     2.9599e-008     -1.3679e-009   
  0.85            -2.0767e-009    1.1952e-008     -1.3434e-009   
  0.9             -1.2591e-009    -2.6734e-008    1.3285e-009    
  0.95            2.3022e-009     -8.506e-009     1.1445e-009    
  1               1.9453e-009     9.617e-009      -1.411e-009    
  1.05            -2.1812e-009    8.97e-009       -1.0861e-009   
  1.1             -1.7755e-009    -9.964e-009     1.5044e-009    
  1.15            2.328e-009      -8.288e-009     9.38e-010      
  1.2             1.7709e-009     1.2314e-008     -1.6267e-009   
  1.25            -1.5331e-009    7.22e-009       -1.8042e-009   
  1.3             -2.2294e-009    -1.326e-008     -3.944e-010    
  1.35            -2.2329e-009    -1.2958e-008    -6.002e-010    
  1.4             -2.2178e-009    -1.1358e-008    -8.062e-010    
  1.45            -1.624e-009     -1.6682e-008    2.0982e-009    
  1.5             1.9607e-009     -8.319e-009     1.542e-009     
  1.55            1.4304e-009     2.7836e-008     -1.3786e-009   
  1.6             4.76e-011       1.2833e-008     -1.3661e-009   
  1.65            2.114e-010      1.4496e-008     -2.6539e-009   
  1.7             -2.1962e-009    1.042e-009      -9.935e-010    
  1.75            -1.713e-009     -1.1392e-008    1.6762e-009    
  1.8             1.6231e-009     -9.129e-009     1.7652e-009    
  1.85            2.275e-009      1.2794e-008     3.788e-010     
  1.9             2.3105e-009     1.2242e-008     5.738e-010     
  1.95            2.3289e-009     1.0577e-008     7.506e-010     
  2               1.627e-009      1.8577e-008     -1.937e-009    
  2.05            -1.8095e-009    5.372e-009      -1.6258e-009   
  2.1             -1.4817e-009    -2.4477e-008    1.3214e-009    
  2.15            -2.03e-011      -1.24e-008      2.8597e-009    
  2.2             1.4341e-009     2.7778e-008     -1.3773e-009   
  2.25            5.09e-011       1.3049e-008     -1.3661e-009   
  2.3             2.138e-010      1.4505e-008     -2.6526e-009   
  2.35            -2.1969e-009    1e-009          -9.95e-010     
  2.4             -1.7138e-009    -1.1494e-008    1.6738e-009    
  2.45            1.615e-009      -9.092e-009     1.7696e-009    
  2.5             2.2773e-009     1.2768e-008     3.757e-010     
  2.55            2.3147e-009     1.2264e-008     5.717e-010     
  2.6             2.3312e-009     1.0776e-008     7.505e-010     
  2.65            1.6286e-009     1.8728e-008     -1.9397e-009   
  2.7             -1.7994e-009    5.247e-009      -1.6271e-009   
  2.75            -1.4797e-009    -2.4386e-008    1.3208e-009    
  2.8             -1.75e-011      -1.2241e-008    2.8568e-009    
  2.85            1.4367e-009     2.7842e-008     -1.3745e-009   
  2.9             5.05e-011       1.2812e-008     -2.6949e-009   
  2.95            -1.4762e-009    -2.4607e-008    2.5257e-009    
  3               2.22e-009       -4.744e-009     1.2786e-009    
  3.05            2.0477e-009     1.0507e-008     -1.394e-010    
  3.1             9.752e-010      2.3662e-008     -1.549e-009    
  3.15            -1.4423e-009    7.979e-009      -1.8622e-009   
  3.2             -2.2386e-009    -1.3304e-008    -4.48e-010     
  3.25            -2.2331e-009    -1.2402e-008    -6.803e-010    
  3.3             -2.2152e-009    -1.0772e-008    -8.526e-010    
  3.35            -1.6516e-009    -1.5003e-008    1.9585e-009    
  3.4             1.8647e-009     -8.804e-009     1.599e-009     
  3.45            1.5629e-009     1.0822e-008     1.7796e-009    
  3.5             2.279e-009      1.2698e-008     4.044e-010     
  3.55            2.3201e-009     1.2376e-008     5.737e-010     
  3.6             2.3364e-009     1.0948e-008     7.707e-010     
  3.65            1.6417e-009     1.8351e-008     -1.9118e-009   
  3.7             -1.7909e-009    5.477e-009      -1.6439e-009   
  3.75            -1.4952e-009    -2.3902e-008    2.4912e-009    
  3.8             2.1912e-009     -5.031e-009     1.3065e-009    
  3.85            1.2363e-009     2.8888e-008     -1.3722e-009   
  3.9             -2.1306e-009    1.0573e-008     -1.2528e-009   
  3.95            -1.8901e-009    -1.0313e-008    2.452e-010     
  4               -9.36e-010      -2.0965e-008    1.7507e-009    
  4.05            1.6862e-009     -9.374e-009     1.7274e-009    
  4.1             2.2626e-009     1.2555e-008     3.306e-010     
  4.15            2.3092e-009     1.2469e-008     5.226e-010     
  4.2             2.3343e-009     1.125e-008      7.05e-010      
  4.25            2.3361e-009     9.927e-009      8.702e-010     
  4.3             1.7302e-009     1.4638e-008     -1.7401e-009   
  4.35            -1.6442e-009    6.388e-009      -1.7454e-009   
  4.4             -1.5633e-009    -2.0521e-008    2.3084e-009    
  4.45            2.095e-009      -6.861e-009     1.4152e-009    
  4.5             1.3332e-009     2.9121e-008     -1.3701e-009   
  4.55            -5.25e-011      1.1954e-008     -1.3715e-009   
  4.6             9.42e-011       1.3196e-008     -2.686e-009    
  4.65            -1.5138e-009    -2.3081e-008    1.3177e-009    
  4.7             -6.87e-011      -1.3155e-008    2.8587e-009    
  4.75            1.4694e-009     2.6375e-008     -1.374e-009    
  4.8             8.37e-011       1.311e-008      -2.6832e-009   
  4.85            -1.5056e-009    -2.3459e-008    1.3179e-009    
  4.9             -5.47e-011      -1.2794e-008    2.8576e-009    
  4.95            1.4585e-009     2.6877e-008     -1.3726e-009   
  5               8.13e-011       1.2975e-008     -2.6885e-009   
END_DB

BEGIN_DB
 ICCAP_VAR VG         1              
 ICCAP_VAR VS         0              
 ICCAP_VAR VB         0              

 #VD              ID              IB              IG             
  0               -1.4918e-007    -1.8795e-008    2.1239e-009    
  0.05            1.0662e-005     9.213e-009      -2.6663e-009   
  0.1             1.7674e-005     1.0278e-008     9.31e-011      
  0.15            2.173e-005      -1.885e-008     2.1479e-009    
  0.2             2.4494e-005     -1.3006e-008    -8.503e-010    
  0.25            2.6439e-005     8.904e-009      -1.3758e-009   
  0.3             2.7646e-005     1.2591e-008     5.813e-010     
  0.35            2.8618e-005     -9.086e-009     1.3197e-009    
  0.4             2.9669e-005     -2.2552e-008    1.9605e-009    
  0.45            3.0649e-005     -1.2338e-008    -9.297e-010    
  0.5             3.1704e-005     2.7368e-008     -1.3695e-009   
  0.55            3.2388e-005     2.3398e-008     -1.7415e-009   
  0.6             3.2856e-005     1.1343e-008     9.24e-010      
  0.65            3.3444e-005     -2.6414e-008    1.3199e-009    
  0.7             3.423e-005      -1.2889e-008    -5.164e-010    
  0.75            3.5084e-005     2.0311e-008     -1.5043e-009   
  0.8             3.5344e-005     9.711e-009      1.0968e-009    
  0.85            3.5989e-005     -2.6429e-008    2.3493e-009    
  0.9             3.6713e-005     -1.3313e-008    -7.48e-010     
  0.95            3.7448e-005     8.157e-009      -1.3739e-009   
  1               3.8064e-005     2.1669e-008     -1.6762e-009   
  1.05            3.8311e-005     1.1191e-008     9.652e-010     
  1.1             3.8775e-005     -2.6727e-008    2.5736e-009    
  1.15            3.9367e-005     -2.1166e-008    1.8812e-009    
  1.2             4.0054e-005     -1.2294e-008    -9.687e-010    
  1.25            4.0825e-005     2.7919e-008     -1.3717e-009   
  1.3             4.13e-005       2.1865e-008     -1.6816e-009   
  1.35            4.149e-005      1.1214e-008     9.614e-010     
  1.4             4.1932e-005     -2.6688e-008    2.573e-009     
  1.45            4.2443e-005     -2.1094e-008    1.8832e-009    
  1.5             4.3077e-005     -1.2385e-008    -9.631e-010    
  1.55            4.3831e-005     2.7871e-008     -1.3719e-009   
  1.6             4.4274e-005     2.1896e-008     -1.6846e-009   
  1.65            4.4456e-005     1.1264e-008     9.612e-010     
  1.7             4.4821e-005     -2.6755e-008    2.5762e-009    
  1.75            4.5466e-005     -1.3254e-008    -5.656e-010    
  1.8             4.6127e-005     6.808e-009      -1.3732e-009   
  1.85            4.6661e-005     2.6899e-008     -1.9149e-009   
  1.9             4.6817e-005     1.2208e-008     8.331e-010     
  1.95            4.7074e-005     -2.5741e-008    1.3204e-009    
  2               4.8154e-005     -1.0206e-008    -1.5085e-009   
  2.05            4.8453e-005     1.873e-008      -1.6298e-009   
  2.1             4.8533e-005     9.317e-009      1.003e-009     
  2.15            4.8926e-005     -2.8839e-008    2.5121e-009    
  2.2             4.9534e-005     -1.5714e-008    -6.241e-010    
  2.25            5.0181e-005     4.217e-009      -1.3708e-009   
  2.3             5.0681e-005     1.486e-008      -1.6622e-009   
  2.35            5.1184e-005     1.0452e-008     -2.3783e-009   
  2.4             5.1564e-005     1.2325e-008     -1.5973e-009   
  2.45            5.2036e-005     7.907e-009      -2.3163e-009   
  2.5             5.2476e-005     6e-010          -2.6753e-009   
  2.55            5.288e-005      3.569e-009      -2.2452e-009   
  2.6             5.2869e-005     -6.101e-009     2.1673e-009    
  2.65            5.3337e-005     -3.1697e-008    -2.514e-010    
  2.7             5.4031e-005     -1.9276e-008    -1.4722e-009   
  2.75            5.417e-005      -2.0252e-008    2.6088e-009    
  2.8             5.4711e-005     -4.7883e-008    -8.719e-010    
  2.85            5.5452e-005     -1.4598e-008    -1.3713e-009   
  2.9             5.539e-005      -3.8969e-008    2.7809e-009    
  2.95            5.6109e-005     -6.7684e-008    -1.1301e-009   
  3               5.6681e-005     -3.6905e-008    -1.3758e-009   
  3.05            5.6655e-005     -7.1875e-008    2.8518e-009    
  3.1             5.708e-005      -9.9874e-008    2.3352e-009    
  3.15            5.7669e-005     -7.807e-008     3.634e-010     
  3.2             5.7823e-005     -1.4049e-007    1.5773e-009    
  3.25            5.8511e-005     -1.4843e-007    -2.5088e-009   
  3.3             5.8912e-005     -1.4674e-007    7.511e-010     
  3.35            5.9076e-005     -2.0747e-007    1.3364e-009    
  3.4             5.9887e-005     -2.1778e-007    -2.7031e-009   
  3.45            6.0146e-005     -2.2668e-007    1.0147e-009    
  3.5             6.0494e-005     -2.979e-007     1.3224e-009    
  3.55            6.1246e-005     -3.127e-007     -2.7261e-009   
  3.6             6.1215e-005     -3.3584e-007    1.2797e-009    
  3.65            6.1888e-005     -4.1305e-007    1.9687e-009    
  3.7             6.2482e-005     -4.4843e-007    -2.2891e-009   
  3.75            6.3054e-005     -4.7896e-007    5.186e-010     
  3.8             6.3214e-005     -5.7286e-007    1.492e-009     
  3.85            6.3941e-005     -6.2838e-007    -2.5769e-009   
  3.9             6.442e-005      -6.7525e-007    8.148e-010     
  3.95            6.4641e-005     -7.9617e-007    1.3225e-009    
  4               6.5528e-005     -8.6458e-007    -2.7184e-009   
  4.05            6.5791e-005     -9.3544e-007    1.0723e-009    
  4.1             6.6299e-005     -1.08027e-006   1.3208e-009    
  4.15            6.6907e-005     -1.1409e-006    2.7507e-009    
  4.2             6.7687e-005     -1.2893e-006    -1.0746e-009   
  4.25            6.8444e-005     -1.3656e-006    -1.3783e-009   
  4.3             6.8543e-005     -1.5283e-006    2.8455e-009    
  4.35            6.9662e-005     -1.7041e-006    -1.3514e-009   
  4.4             7.0193e-005     -1.8132e-006    -1.8369e-009   
  4.45            7.0483e-005     -2.0099e-006    2.3949e-009    
  4.5             7.1116e-005     -2.2242e-006    -5.649e-010    
  4.55            7.2054e-005     -2.3834e-006    -1.4752e-009   
  4.6             7.2326e-005     -2.5942e-006    2.6146e-009    
  4.65            7.3139e-005     -2.8533e-006    -8.776e-010    
  4.7             7.4166e-005     -3.0296e-006    -1.371e-009    
  4.75            7.4359e-005     -3.294e-006     2.7838e-009    
  4.8             7.5429e-005     -3.6006e-006    -1.1366e-009   
  4.85            7.6352e-005     -3.808e-006     -1.375e-009    
  4.9             7.6619e-005     -4.1347e-006    2.8576e-009    
  4.95            7.8039e-005     -4.4843e-006    -1.4258e-009   
  5               7.8678e-005     -4.7478e-006    -1.7215e-009   
END_DB

BEGIN_DB
 ICCAP_VAR VG         2              
 ICCAP_VAR VS         0              
 ICCAP_VAR VB         0              

 #VD              ID              IB              IG             
  0               -4.835e-007     -7.928e-009     2.7964e-009    
  0.05            6.7664e-005     1.7561e-008     -1.9909e-009   
  0.1             0.00013312      9.63e-009       2.0992e-009    
  0.15            0.00019486      -2.2686e-008    1.3685e-009    
  0.2             0.00025263      -2.3231e-008    2.0045e-009    
  0.25            0.00030592      -1.1787e-008    -1.0126e-009   
  0.3             0.00035461      2.9539e-008     -1.3768e-009   
  0.35            0.00039796      1.264e-008      7.714e-010     
  0.4             0.0004364       -2.601e-008     1.3223e-009    
  0.45            0.00047044      -1.3281e-008    -5.969e-010    
  0.5             0.00049997      8.259e-009      -1.3748e-009   
  0.55            0.00052456      1.2717e-008     5.883e-010     
  0.6             0.00054515      -8.161e-009     2.8411e-009    
  0.65            0.00056261      -1.002e-008     1.89e-010      
  0.7             0.00057829      1.7306e-008     -2.2042e-009   
  0.75            0.00059006      1.2519e-008     7.826e-010     
  0.8             0.00059964      -2.6243e-008    1.3218e-009    
  0.85            0.00060873      -1.321e-008     -6.101e-010    
  0.9             0.00061653      8.367e-009      -1.3755e-009   
  0.95            0.00062249      1.2706e-008     6.1e-010       
  1               0.00062744      -7.926e-009     2.8442e-009    
  1.05            0.00063226      -1.0036e-008    1.814e-010     
  1.1             0.00063776      1.7244e-008     -2.1843e-009   
  1.15            0.00064116      1.2536e-008     7.964e-010     
  1.2             0.00064429      -2.6384e-008    1.3212e-009    
  1.25            0.00064923      -1.0435e-008    -1.7047e-009   
  1.3             0.00065173      1.0359e-008     -2.021e-010    
  1.35            0.00065381      -1.8421e-008    2.4364e-009    
  1.4             0.00065737      -1.3121e-008    -8.151e-010    
  1.45            0.00066078      2.7354e-008     -1.3705e-009   
  1.5             0.00066145      1.0839e-008     1.5947e-009    
  1.55            0.00066454      -1.0712e-008    2.565e-010     
  1.6             0.000668        1.6627e-008     -2.3163e-009   
  1.65            0.00066964      1.2703e-008     7.088e-010     
  1.7             0.00067129      -2.5405e-008    1.3222e-009    
  1.75            0.00067407      -1.3114e-008    -5.271e-010    
  1.8             0.00067669      7.751e-009      -1.3693e-009   
  1.85            0.00067698      1.0787e-008     1.589e-009     
  1.9             0.00067939      -1.0981e-008    2.605e-010     
  1.95            0.00068256      1.6421e-008     -2.3267e-009   
  2               0.00068394      1.2386e-008     7.007e-010     
  2.05            0.00068485      -2.573e-008     1.3243e-009    
  2.1             0.00068827      -1.1742e-008    -1.6155e-009   
  2.15            0.00068957      1.1147e-008     -1.4202e-009   
  2.2             0.00069128      1.6686e-008     -1.7891e-009   
  2.25            0.00069323      1.3925e-008     -2.3363e-009   
  2.3             0.00069439      1.4397e-008     -1.5601e-009   
  2.35            0.00069623      1.2212e-008     -2.0834e-009   
  2.4             0.00069773      6.668e-009      -2.5442e-009   
  2.45            0.00069932      8.09e-010       -2.6891e-009   
  2.5             0.00070063      3.645e-009      -2.1695e-009   
  2.55            0.00070154      -8.741e-009     2.3169e-009    
  2.6             0.00070304      -3.7045e-008    -6.095e-010    
  2.65            0.00070508      -7.145e-009     -1.3893e-009   
  2.7             0.00070546      -3.0565e-008    2.7728e-009    
  2.75            0.0007076       -6.0461e-008    -1.2419e-009   
  2.8             0.00070904      -3.8975e-008    -1.8164e-009   
  2.85            0.00070961      -7.143e-008     2.4991e-009    
  2.9             0.00071111      -1.0539e-007    -1.377e-009    
  2.95            0.00071302      -1.1634e-007    -1.3725e-009   
  3               0.00071351      -1.45e-007      2.8569e-009    
  3.05            0.00071599      -1.9194e-007    -1.695e-009    
  3.1             0.00071659      -2.068e-007     -2.094e-010    
  3.15            0.00071679      -2.787e-007     2.4471e-009    
  3.2             0.00071874      -3.192e-007     -2.1559e-009   
  3.25            0.00072018      -3.5522e-007    4.971e-010     
  3.3             0.00072068      -4.5529e-007    1.4012e-009    
  3.35            0.00072271      -5.1741e-007    -2.7004e-009   
  3.4             0.00072338      -5.8561e-007    1.1201e-009    
  3.45            0.00072465      -7.1626e-007    2.0667e-009    
  3.5             0.00072615      -8.123e-007     -2.3623e-009   
  3.55            0.0007276       -9.1653e-007    7.203e-010     
  3.6             0.00072827      -1.09577e-006   1.3218e-009    
  3.65            0.00072999      -1.2199e-006    2.126e-009     
  3.7             0.00073139      -1.4203e-006    -3.434e-010    
  3.75            0.00073338      -1.5911e-006    -1.5169e-009   
  3.8             0.00073417      -1.8268e-006    2.6539e-009    
  3.85            0.0007359       -2.098e-006     -1.0357e-009   
  3.9             0.00073765      -2.3357e-006    -1.3761e-009   
  3.95            0.0007384       -2.6697e-006    2.8597e-009    
  4               0.00074097      -3.0338e-006    -1.6817e-009   
  4.05            0.0007421       -3.3932e-006    -2.209e-010    
  4.1             0.00074262      -3.8474e-006    2.4703e-009    
  4.15            0.00074479      -4.3071e-006    -2.1467e-009   
