! VERSION = 6.00
BEGIN_HEADER
 ICCAP_INPUTS
  VG         V  B GROUND SMU4 0.001 LIN        1    0          5          101  0.05      
  VS         V  E GROUND SMU2 0.1 CON        0
  VB         V  C GROUND SMU3 0.1 LIN        3    0          -5         3    -2.5      
  VD         V  S GROUND SMU1 0.1 LIN        2    0.1        5          2    4.9       
 ICCAP_OUTPUTS
  IG         I  B GROUND SMU4 B
  ID         I  S GROUND SMU1 B
  IB         I  C GROUND SMU3 B
END_HEADER

BEGIN_DB
 ICCAP_VAR VS         0              
 ICCAP_VAR VB         0              
 ICCAP_VAR VD         0.1            

 #VG              IG              ID              IB             
  0               -1.153e-009     -1.0572e-009    -1.62e-008     
  0.05            -1.7775e-009    8.929e-010      2.2099e-008    
  0.1             -7.962e-010     -2.0907e-009    6.782e-009     
  0.15            1.2883e-009     -9.538e-010     -1.0705e-008   
  0.2             2.8775e-009     2.6901e-009     -1.2109e-008   
  0.25            2.18e-011       8.2657e-009     1.0733e-008    
  0.3             -2.7091e-009    1.9397e-008     -2.4138e-008   
  0.35            -3.453e-010     6.1763e-008     -1.1462e-008   
  0.4             -2.7081e-009    1.8026e-007     1.1178e-008    
  0.45            -2.3608e-009    4.5439e-007     3.15e-010      
  0.5             2.248e-010      9.8507e-007     -1.2979e-008   
  0.55            1.5952e-009     1.8988e-006     1.0731e-008    
  0.6             1.3137e-009     3.2588e-006     -8.801e-009    
  0.65            2.8501e-009     5.0642e-006     -9.535e-009    
  0.7             4.136e-010      7.3359e-006     1.126e-008     
  0.75            -1.9978e-009    9.8549e-006     1.6208e-008    
  0.8             2.1065e-009     1.2463e-005     5.468e-009     
  0.85            1.4813e-009     1.5166e-005     -8.738e-009    
  0.9             1.2915e-009     1.785e-005      -8.828e-009    
  0.95            2.7964e-009     2.0456e-005     -1.1641e-008   
  1               5.372e-010      2.3044e-005     1.1092e-008    
  1.05            9.624e-010      2.5475e-005     1.0534e-008    
  1.1             -2.049e-010     2.7819e-005     1.3631e-008    
  1.15            2.012e-010      3.0063e-005     1.0712e-008    
  1.2             6.876e-010      3.218e-005      1.1197e-008    
  1.25            1.0788e-009     3.4202e-005     1.0073e-008    
  1.3             -1.3985e-009    3.6232e-005     2.6226e-008    
  1.35            -2.7039e-009    3.8132e-005     1.1211e-008    
  1.4             -2.377e-009     3.9951e-005     4.33e-010      
  1.45            2.445e-010      4.1664e-005     -1.3196e-008   
  1.5             -1.916e-010     4.3415e-005     -1.1199e-008   
  1.55            -7.27e-010      4.509e-005      -1.1809e-008   
  1.6             -1.1228e-009    4.6725e-005     -1.0869e-008   
  1.65            1.244e-010      4.8227e-005     -1.2235e-008   
  1.7             -3.564e-010     4.9788e-005     -1.1614e-008   
  1.75            1.2752e-009     5.1269e-005     -2.4308e-008   
  1.8             2.6676e-009     5.2713e-005     -1.4128e-008   
  1.85            2.545e-009      5.4137e-005     7.635e-009     
  1.9             5.168e-010      5.5529e-005     1.118e-008     
  1.95            -1.8475e-009    5.6868e-005     2.4352e-008    
  2               -1.4429e-009    5.8193e-005     6.057e-009     
  2.05            -1.3406e-009    5.9485e-005     1.0448e-008    
  2.1             -2.563e-009     6.0757e-005     1.181e-008     
  2.15            -1.9809e-009    6.1978e-005     1.407e-009     
  2.2             -1.5019e-009    6.3184e-005     4.819e-009     
  2.25            -1.358e-009     6.4374e-005     9.821e-009     
  2.3             -2.6389e-009    6.555e-005      1.144e-008     
  2.35            -2.1423e-009    6.6681e-005     6.38e-010      
  2.4             -1.5741e-009    6.7807e-005     3.931e-009     
  2.45            -1.3765e-009    6.8914e-005     8.875e-009     
  2.5             -2.69e-009      6.9998e-005     1.1118e-008    
  2.55            -2.2946e-009    7.1049e-005     3.79e-010      
  2.6             -1.6783e-009    7.2099e-005     3.057e-009     
  2.65            -1.4034e-009    7.3134e-005     7.501e-009     
  2.7             -2.7098e-009    7.4149e-005     1.1068e-008    
  2.75            -2.921e-010     7.5133e-005     -1.1684e-008   
  2.8             -8.153e-010     7.612e-005      -1.1776e-008   
  2.85            -1.2021e-009    7.7101e-005     -1.0449e-008   
  2.9             5.62e-011       7.801e-005      -1.1871e-008   
  2.95            -4.662e-010     7.8965e-005     -1.1856e-008   
  3               2.0972e-009     7.9878e-005     -2.2634e-008   
  3.05            1.4759e-009     8.0785e-005     -8.554e-009    
  3.1             1.2959e-009     8.168e-005      -8.83e-009     
  3.15            2.7943e-009     8.2566e-005     -1.1967e-008   
  3.2             5.489e-010      8.3445e-005     1.1262e-008    
  3.25            -1.8084e-009    8.4286e-005     2.3665e-008    
  3.3             -1.4332e-009    8.515e-005      6.398e-009     
  3.35            -1.3388e-009    8.5981e-005     1.0624e-008    
  3.4             -2.5253e-009    8.6816e-005     1.2261e-008    
  3.45            -1.9362e-009    8.761e-005      1.579e-009     
  3.5             -1.4797e-009    8.8407e-005     5.357e-009     
  3.55            -1.3542e-009    8.9187e-005     9.96e-009      
  3.6             -2.6197e-009    8.9978e-005     1.1713e-008    
  3.65            -2.0968e-009    9.0728e-005     8.8e-010       
  3.7             -1.5534e-009    9.1476e-005     4.103e-009     
  3.75            -1.3757e-009    9.2224e-005     9.247e-009     
  3.8             -2.6757e-009    9.2967e-005     1.1583e-008    
  3.85            -2.2531e-009    9.368e-005      4.21e-010      
  3.9             -1.6541e-009    9.4393e-005     3.37e-009      
  3.95            -1.3973e-009    9.5102e-005     7.936e-009     
  4               -2.711e-009     9.5796e-005     1.1338e-008    
  4.05            -3.104e-010     9.6466e-005     -1.1535e-008   
  4.1             -8.312e-010     9.7144e-005     -1.1902e-008   
  4.15            -1.2227e-009    9.7828e-005     -1.0659e-008   
  4.2             4.33e-011       9.8454e-005     -1.1941e-008   
  4.25            -4.859e-010     9.9113e-005     -1.1867e-008   
  4.3             2.0696e-009     9.9742e-005     -2.2346e-008   
  4.35            1.4629e-009     0.000100388     -8.898e-009    
  4.4             1.2936e-009     0.000101016     -8.827e-009    
  4.45            2.781e-009      0.000101653     -1.2207e-008   
  4.5             5.701e-010      0.000102253     1.1248e-008    
  4.55            9.821e-010      0.000102852     1.0445e-008    
  4.6             -1.4287e-009    0.00010346      2.4954e-008    
  4.65            -1.3345e-009    0.000104026     1.0812e-008    
  4.7             -2.5147e-009    0.000104617     1.2539e-008    
  4.75            -1.9158e-009    0.000105163     1.767e-009     
  4.8             -1.4731e-009    0.000105729     5.441e-009     
  4.85            -1.3511e-009    0.000106287     1.0225e-008    
  4.9             -2.6085e-009    0.000106844     1.1843e-008    
  4.95            -2.0674e-009    0.000107367     9.03e-010      
  5               -1.5374e-009    0.000107901     4.444e-009     
END_DB

BEGIN_DB
 ICCAP_VAR VS         0              
 ICCAP_VAR VB         0              
 ICCAP_VAR VD         5              

 #VG              IG              ID              IB             
  0               -2.7011e-009    2.0262e-006     -1.8378e-007   
  0.05            -2.3268e-009    3.2466e-006     -2.8899e-007   
  0.1             -1.7176e-009    5.0889e-006     -4.4243e-007   
  0.15            -1.4122e-009    7.7771e-006     -6.6406e-007   
  0.2             2.6463e-009     1.1414e-005     -9.8985e-007   
  0.25            2.0029e-009     1.6325e-005     -1.3635e-006   
  0.3             2.3309e-009     2.2555e-005     -1.8568e-006   
  0.35            2.6355e-009     2.9939e-005     -2.4408e-006   
  0.4             2.8607e-009     3.8435e-005     -3.0921e-006   
  0.45            2.8021e-009     4.7932e-005     -3.8088e-006   
  0.5             2.2974e-009     5.8279e-005     -4.5588e-006   
  0.55            1.6186e-009     6.9368e-005     -5.342e-006    
  0.6             1.3227e-009     8.1112e-005     -6.1383e-006   
  0.65            2.8618e-009     9.3333e-005     -6.9345e-006   
  0.7             -1.4123e-009    0.00010634      -7.7191e-006   
  0.75            1.9729e-009     0.00011933      -8.5509e-006   
  0.8             1.4177e-009     0.00013269      -9.283e-006    
  0.85            1.2839e-009     0.00014633      -1.00189e-005  
  0.9             2.746e-009      0.00016012      -1.07489e-005  
  0.95            -1.8105e-009    0.00017464      -1.1411e-005   
  1               -1.4358e-009    0.00018879      -1.2094e-005   
  1.05            -1.3392e-009    0.00020332      -1.2725e-005   
  1.1             -2.5355e-009    0.00021774      -1.3325e-005   
  1.15            -1.9504e-009    0.0002321       -1.3906e-005   
  1.2             -1.4854e-009    0.0002466       -1.4432e-005   
  1.25            -1.3558e-009    0.00026116      -1.4923e-005   
  1.3             -2.6366e-009    0.00027582      -1.5389e-005   
  1.35            -2.1201e-009    0.00029031      -1.584e-005    
  1.4             -1.5664e-009    0.00030494      -1.6239e-005   
  1.45            -1.3791e-009    0.00031959      -1.6598e-005   
  1.5             -2.689e-009     0.00033428      -1.6937e-005   
  1.55            -2.2827e-009    0.0003487       -1.7262e-005   
  1.6             -1.6739e-009    0.00036338      -1.7536e-005   
  1.65            -1.4031e-009    0.00037796      -1.7783e-005   
  1.7             -1.3282e-009    0.00039259      -1.7999e-005   
  1.75            -2.4413e-009    0.00040715      -1.8193e-005   
  1.8             -1.8162e-009    0.00042163      -1.8375e-005   
  1.85            -1.4433e-009    0.00043615      -1.8515e-005   
  1.9             -1.3418e-009    0.00045067      -1.863e-005    
  1.95            -2.5671e-009    0.00046515      -1.8729e-005   
  2               -1.978e-009     0.00047943      -1.8812e-005   
  2.05            -1.4989e-009    0.00049384      -1.8866e-005   
  2.1             -1.364e-009     0.00050819      -1.8894e-005   
  2.15            -2.6525e-009    0.00052259      -1.891e-005    
  2.2             -2.1556e-009    0.00053674      -1.892e-005    
  2.25            -1.5873e-009    0.00055104      -1.8898e-005   
  2.3             -1.3859e-009    0.00056521      -1.8851e-005   
  2.35            -2.7034e-009    0.00057949      -1.8789e-005   
  2.4             -2.3156e-009    0.00059348      -1.8727e-005   
  2.45            -1.7109e-009    0.00060763      -1.8644e-005   
  2.5             -1.4128e-009    0.00062171      -1.8547e-005   
  2.55            -1.3304e-009    0.00063584      -1.843e-005    
  2.6             -2.4705e-009    0.00064985      -1.8316e-005   
  2.65            -1.8554e-009    0.00066374      -1.8192e-005   
  2.7             -1.4528e-009    0.00067771      -1.8049e-005   
  2.75            -1.3468e-009    0.00069188      -1.789e-005    
  2.8             -2.5836e-009    0.00070565      -1.7733e-005   
  2.85            -2.022e-009     0.00071943      -1.7576e-005   
  2.9             -1.5187e-009    0.00073322      -1.7389e-005   
  2.95            -1.3678e-009    0.00074707      -1.7207e-005   
  3               -2.6662e-009    0.00076076      -1.7017e-005   
  3.05            -2.1887e-009    0.00077437      -1.6833e-005   
  3.1             -1.6137e-009    0.00078801      -1.6631e-005   
  3.15            -1.3889e-009    0.00080169      -1.6425e-005   
  3.2             -2.711e-009     0.00081526      -1.6205e-005   
  3.25            -2.3628e-009    0.00082872      -1.6006e-005   
  3.3             -1.7445e-009    0.00084225      -1.5792e-005   
  3.35            -1.4217e-009    0.00085571      -1.557e-005    
  3.4             -1.334e-009     0.00086915      -1.5346e-005   
  3.45            -2.5037e-009    0.00088258      -1.5125e-005   
  3.5             -1.8958e-009    0.0008958       -1.4918e-005   
  3.55            -1.4661e-009    0.00090916      -1.4688e-005   
  3.6             -1.3513e-009    0.00092248      -1.4462e-005   
  3.65            -2.6041e-009    0.00093575      -1.4228e-005   
  3.7             -2.0628e-009    0.00094881      -1.4008e-005   
  3.75            -1.5385e-009    0.000962        -1.3775e-005   
  3.8             -1.3735e-009    0.0009752       -1.355e-005    
  3.85            -2.6746e-009    0.00098835      -1.3317e-005   
  3.9             -2.2358e-009    0.00100123      -1.3101e-005   
  3.95            -1.6384e-009    0.00101434      -1.2877e-005   
  4               -1.3954e-009    0.00102733      -1.2645e-005   
  4.05            -2.7114e-009    0.00104028      -1.2414e-005   
  4.1             -2.381e-009     0.00105315      -1.2206e-005   
  4.15            -1.7764e-009    0.00106601      -1.1994e-005   
  4.2             -1.43e-009      0.00107894      -1.1759e-005   
  4.25            -1.334e-009     0.00109176      -1.1529e-005   
  4.3             -2.5245e-009    0.00110442      -1.1321e-005   
  4.35            -1.925e-009     0.00111703      -1.1119e-005   
  4.4             -1.4713e-009    0.00112996      -1.0911e-005   
  4.45            1.2922e-009     0.0011428       -1.0692e-005   
  4.5             2.7043e-009     0.0011553       -1.051e-005    
  4.55            2.049e-009      0.0011681       -1.0304e-005   
  4.6             1.4792e-009     0.0011807       -1.0104e-005   
  4.65            -1.3228e-009    0.0011933       -9.8808e-006   
  4.7             -2.4631e-009    0.0012058       -9.6994e-006   
  4.75            -1.847e-009     0.001218        -9.5205e-006   
  4.8             -1.4406e-009    0.0012305       -9.3275e-006   
  4.85            -1.3286e-009    0.0012427       -9.14e-006     
  4.9             -2.5664e-009    0.0012551       -8.95e-006     
  4.95            -2.0106e-009    0.0012671       -8.7793e-006   
  5               -1.4997e-009    0.0012794       -8.6015e-006   
END_DB

BEGIN_DB
 ICCAP_VAR VS         0              
 ICCAP_VAR VB         -2.5           
 ICCAP_VAR VD         0.1            

 #VG              IG              ID              IB             
  0               2.579e-009      2.3728e-009     -1.569e-008    
  0.05            7.537e-010      2.3666e-009     7.994e-009     
  0.1             -1.8544e-009    1.666e-009      1.7799e-008    
  0.15            -1.6443e-009    -1.7009e-009    5.843e-009     
  0.2             -1.775e-010     -2.1309e-009    -1.1656e-008   
  0.25            -4.065e-010     -2.187e-009     -1.1713e-008   
  0.3             1.3112e-009     -1.3498e-009    -2.3531e-008   
  0.35            2.2834e-009     1.3772e-009     -1.0185e-008   
  0.4             -1.832e-010     2.811e-009      1.1138e-008    
  0.45            2.7e-012        5.1364e-009     1.0599e-008    
  0.5             -2.1246e-009    9.642e-009      -2.6089e-008   
  0.55            4.5e-012        3.6329e-008     -1.1927e-008   
  0.6             -2.7546e-009    1.1765e-007     1.0894e-008    
  0.65            4e-013          3.2887e-007     -1.1904e-008   
  0.7             -5.162e-010     7.9488e-007     -1.1764e-008   
  0.75            2.8457e-009     1.6409e-006     2.5647e-008    
  0.8             2.0346e-009     2.9412e-006     9.248e-009     
  0.85            -1.4072e-009    4.7907e-006     2.6145e-008    
  0.9             -2.7248e-009    7.0086e-006     1.1433e-008    
  0.95            -2.857e-010     9.4513e-006     -1.1161e-008   
  1               2.3025e-009     1.2119e-005     -1.2259e-008   
  1.05            9.67e-011       1.4879e-005     1.0997e-008    
  1.1             5.568e-010      1.7498e-005     1.1165e-008    
  1.15            -1.7863e-009    2.0059e-005     2.3004e-008    
  1.2             -1.4291e-009    2.2499e-005     6.291e-009     
  1.25            -1.3418e-009    2.4837e-005     1.0879e-008    
  1.3             -2.5251e-009    2.7061e-005     1.2328e-008    
  1.35            -1.9305e-009    2.9161e-005     1.474e-009     
  1.4             -1.4799e-009    3.1196e-005     5.116e-009     
  1.45            -1.3579e-009    3.3142e-005     9.732e-009     
  1.5             -2.629e-009     3.5007e-005     1.1573e-008    
  1.55            -2.1174e-009    3.6777e-005     5.82e-010      
  1.6             -1.5696e-009    3.851e-005      3.662e-009     
  1.65            -1.3803e-009    4.0183e-005     8.675e-009     
  1.7             -2.7034e-009    4.1801e-005     1.1419e-008    
  1.75            -2.2929e-009    4.3345e-005     3.16e-010      
  1.8             -1.6974e-009    4.4855e-005     2.917e-009     
  1.85            -1.4109e-009    4.6326e-005     7.116e-009     
  1.9             -1.3299e-009    4.7751e-005     1.1302e-008    
  1.95            -2.4634e-009    4.9158e-005     1.2832e-008    
  2               -1.8493e-009    5.0478e-005     2.028e-009     
  2.05            -1.4545e-009    5.1802e-005     5.654e-009     
  2.1             -1.3477e-009    5.3092e-005     1.047e-008     
  2.15            -2.5873e-009    5.4358e-005     1.1734e-008    
  2.2             -2.0265e-009    5.5566e-005     1.079e-009     
  2.25            -1.5198e-009    5.6775e-005     4.389e-009     
  2.3             -1.3713e-009    5.7939e-005     9.529e-009     
  2.35            -2.6674e-009    5.9104e-005     1.1522e-008    
  2.4             -2.2097e-009    6.0221e-005     4.15e-010      
  2.45            -1.6297e-009    6.1323e-005     3.294e-009     
  2.5             -1.396e-009     6.24e-005       7.816e-009     
  2.55            -1.3183e-009    6.347e-005      1.1337e-008    
  2.6             -2.3872e-009    6.4526e-005     1.3434e-008    
  2.65            -1.7724e-009    6.5533e-005     2.423e-009     
  2.7             -1.4319e-009    6.6544e-005     6.157e-009     
  2.75            -1.3368e-009    6.7553e-005     1.094e-008     
  2.8             -2.5307e-009    6.8545e-005     1.2115e-008    
  2.85            -1.9427e-009    6.9481e-005     1.49e-009      
  2.9             -1.4881e-009    7.0426e-005     4.917e-009     
  2.95            -1.3565e-009    7.1348e-005     9.884e-009     
  3               -2.6394e-009    7.2274e-005     1.1275e-008    
  3.05            -2.1298e-009    7.3153e-005     5.62e-010      
  3.1             -1.5803e-009    7.4043e-005     3.916e-009     
  3.15            -1.3822e-009    7.4916e-005     8.435e-009     
  3.2             -2.6985e-009    7.5773e-005     1.1306e-008    
  3.25            -2.3118e-009    7.6597e-005     2.37e-010      
  3.3             -1.7031e-009    7.7445e-005     2.771e-009     
  3.35            -1.4122e-009    7.826e-005      6.889e-009     
  3.4             -1.3314e-009    7.9065e-005     1.096e-008     
  3.45            -2.4769e-009    7.9883e-005     1.2915e-008    
  3.5             -1.8589e-009    8.0647e-005     1.931e-009     
  3.55            -1.4578e-009    8.1423e-005     5.734e-009     
  3.6             -1.349e-009     8.2192e-005     1.0132e-008    
  3.65            -2.5903e-009    8.2958e-005     1.1764e-008    
  3.7             -2.0439e-009    8.368e-005      8.42e-010      
  3.75            -1.5336e-009    8.4413e-005     4.247e-009     
  3.8             -1.3715e-009    8.5132e-005     9.144e-009     
  3.85            -2.676e-009     8.5856e-005     1.1301e-008    
  3.9             -2.2216e-009    8.6543e-005     4.05e-010      
  3.95            1.3354e-009     8.7231e-005     -2.5964e-008   
  4               2.8708e-009     8.7921e-005     -8.939e-009    
  4.05            3.739e-010      8.86e-005       1.0817e-008    
  4.1             -1.3264e-009    8.9268e-005     2.6583e-008    
  4.15            -2.4465e-009    8.9945e-005     1.3146e-008    
