! VERSION = 6.00
BEGIN_HEADER
 ICCAP_INPUTS
  VG         V  B GROUND SMU4 0.001 LIN        2    0          5          6    1         
  VS         V  E GROUND SMU2 0.1 CON        0
  VD         V  S GROUND SMU1 0.1 LIN        1    0          5          101  0.05      
  VB         V  C GROUND SMU3 0.1 LIN        3    0          -2.5       2    -2.5      
 ICCAP_OUTPUTS
  ID         I  S GROUND SMU1 B
  IB         I  C GROUND SMU3 B
  IG         I  B GROUND SMU4 B
END_HEADER

BEGIN_DB
 ICCAP_VAR VG         0              
 ICCAP_VAR VS         0              
 ICCAP_VAR VB         0              

 #VD              ID              IB              IG             
  0               -7.726e-010     -2.68e-008      -7.016e-010    
  0.05            1.673e-009      1.7063e-008     -1.3668e-009   
  0.1             2.996e-010      1.586e-008      -2.6468e-009   
  0.15            -2.2394e-009    9.33e-010       -1.0865e-009   
  0.2             -1.7794e-009    -1.0283e-008    1.5882e-009    
  0.25            1.5438e-009     -8.543e-009     1.8459e-009    
  0.3             2.3213e-009     1.271e-008      4.248e-010     
  0.35            2.352e-009      1.1861e-008     6.064e-010     
  0.4             1.535e-009      2.4222e-008     -1.3875e-009   
  0.45            1.25e-010       1.3396e-008     -2.7091e-009   
  0.5             -1.5532e-009    -2.2178e-008    2.4374e-009    
  0.55            2.1894e-009     -6.088e-009     1.3609e-009    
  0.6             1.2749e-009     2.8841e-008     -1.384e-009    
  0.65            -2.1647e-009    1.1066e-008     -1.2817e-009   
  0.7             -1.9345e-009    -1.0314e-008    2.456e-010     
  0.75            -9.591e-010     -2.14e-008      1.7742e-009    
  0.8             1.7352e-009     -9.15e-009      1.7361e-009    
  0.85            1.4585e-009     9.933e-009      1.895e-009     
  0.9             2.3361e-009     1.238e-008      4.833e-010     
  0.95            2.3646e-009     1.155e-008      6.639e-010     
  1               2.373e-009      1.0048e-008     8.253e-010     
  1.05            1.709e-009      1.6582e-008     -1.8482e-009   
  1.1             -1.7679e-009    5.829e-009      -1.6929e-009   
  1.15            -1.542e-009     -2.2925e-008    2.4654e-009    
  1.2             2.2125e-009     -5.68e-009      1.3398e-009    
  1.25            1.2593e-009     2.8637e-008     -1.3885e-009   
  1.3             -2.1744e-009    1.0835e-008     -1.2675e-009   
  1.35            -1.9146e-009    -1.0245e-008    2.59e-010      
  1.4             -9.434e-010     -2.1009e-008    1.8148e-009    
  1.45            1.7623e-009     -9.211e-009     1.7145e-009    
  1.5             1.4783e-009     1.0143e-008     1.8803e-009    
  1.55            2.3306e-009     1.2455e-008     4.616e-010     
  1.6             2.3633e-009     1.1662e-008     6.412e-010     
  1.65            2.3709e-009     1.0309e-008     8.055e-010     
  1.7             1.6959e-009     1.7089e-008     -1.8832e-009   
  1.75            -1.7982e-009    5.584e-009      -1.6717e-009   
  1.8             -1.5288e-009    -2.3476e-008    2.4948e-009    
  1.85            2.2253e-009     -5.415e-009     1.3192e-009    
  1.9             1.2379e-009     2.8594e-008     -1.3886e-009   
  1.95            -2.1866e-009    1.0431e-008     -1.2416e-009   
  2               -1.9032e-009    -1.0101e-008    2.823e-010     
  2.05            -9.318e-010     -2.0611e-008    1.8554e-009    
  2.1             1.7969e-009     -9.214e-009     1.6985e-009    
  2.15            1.5104e-009     1.0376e-008     1.8554e-009    
  2.2             2.3244e-009     1.248e-008      4.36e-010      
  2.25            2.3584e-009     1.1803e-008     6.224e-010     
  2.3             2.3702e-009     1.0456e-008     7.903e-010     
  2.35            1.6797e-009     1.7828e-008     -1.3609e-009   
  2.4             3.05e-010       1.5682e-008     -2.64e-009     
  2.45            -2.2377e-009    9.88e-010       -1.0893e-009   
  2.5             -1.7858e-009    -1.0526e-008    1.5938e-009    
  2.55            1.5429e-009     -8.683e-009     1.859e-009     
  2.6             2.3223e-009     1.262e-008      4.386e-010     
  2.65            2.3569e-009     1.2164e-008     6.154e-010     
  2.7             2.3701e-009     1.071e-008      7.869e-010     
  2.75            1.6742e-009     1.7947e-008     -1.9158e-009   
  2.8             -1.8221e-009    5.496e-009      -1.6552e-009   
  2.85            -1.517e-009     -2.4028e-008    1.3332e-009    
  2.9             -3.13e-011      -1.1841e-008    2.8938e-009    
  2.95            1.4398e-009     2.7776e-008     -1.387e-009    
  3               2.22e-011       1.2457e-008     -1.3797e-009   
  3.05            1.588e-010      1.3943e-008     -2.6967e-009   
  3.1             -2.202e-009     -1.232e-008     -1.133e-010    
  3.15            -2.2742e-009    -1.301e-008     -3.354e-010    
  3.2             -2.2938e-009    -1.293e-008     -5.491e-010    
  3.25            -2.2891e-009    -1.2058e-008    -7.473e-010    
  3.3             -1.6175e-009    -1.8977e-008    1.3239e-009    
  3.35            -1.964e-010     -1.543e-008     2.8695e-009    
  3.4             1.5692e-009     2.2922e-008     -1.3829e-009   
  3.45            1.599e-010      1.3936e-008     -2.696e-009    
  3.5             -1.5864e-009    -2.093e-008     1.3286e-009    
  3.55            -1.393e-010     -1.4525e-008    2.8809e-009    
  3.6             1.5254e-009     2.4933e-008     -1.3875e-009   
  3.65            1.093e-010      1.3471e-008     -2.7168e-009   
  3.7             -1.5542e-009    -2.2626e-008    1.3319e-009    
  3.75            -7.82e-011      -1.3251e-008    2.8895e-009    
  3.8             1.4887e-009     2.6596e-008     -1.3884e-009   
  3.85            6.4e-011        1.2943e-008     -1.3728e-009   
  3.9             2.157e-010      1.4675e-008     -2.6771e-009   
  3.95            -1.302e-009     9.09e-010       -1.9926e-009   
  4               -2.2903e-009    -1.2722e-008    -7.08e-010     
  4.05            -2.2698e-009    -1.107e-008     -8.79e-010     
  4.1             -1.6799e-009    -1.5074e-008    2.0028e-009    
  4.15            1.9196e-009     -8.78e-009      1.6144e-009    
  4.2             1.6351e-009     1.0874e-008     1.787e-009     
  4.25            2.2974e-009     1.2447e-008     3.496e-010     
  4.3             2.3419e-009     1.2293e-008     5.393e-010     
  4.35            1.4874e-009     2.6358e-008     -1.3885e-009   
  4.4             7.11e-011       1.3104e-008     -1.3715e-009   
  4.45            2.258e-010      1.4549e-008     -2.6746e-009   
  4.5             -1.298e-009     9.15e-010       -1.9934e-009   
  4.55            -2.288e-009     -1.2315e-008    -7.146e-010    
  4.6             -2.2708e-009    -1.0977e-008    -8.81e-010     
  4.65            -1.6841e-009    -1.5083e-008    1.9977e-009    
  4.7             1.9032e-009     -8.793e-009     1.624e-009     
  4.75            1.6295e-009     1.1013e-008     1.7927e-009    
  4.8             2.3012e-009     1.2438e-008     3.629e-010     
  4.85            2.3453e-009     1.2255e-008     5.497e-010     
  4.9             1.4937e-009     2.6097e-008     -1.387e-009    
  4.95            7.74e-011       1.2959e-008     -1.3698e-009   
  5               2.374e-010      1.477e-008      -2.6719e-009   
END_DB

BEGIN_DB
 ICCAP_VAR VG         1              
 ICCAP_VAR VS         0              
 ICCAP_VAR VB         0              

 #VD              ID              IB              IG             
  0               -1.5741e-008    2.8288e-008     8.837e-010     
  0.05            1.2771e-006     -8.202e-009     -1.6608e-009   
  0.1             2.0711e-006     2.8808e-008     -1.3862e-009   
  0.15            2.561e-006      2.89e-008       -1.3852e-009   
  0.2             2.8723e-006     2.8718e-008     -1.3803e-009   
  0.25            3.1017e-006     2.8461e-008     -1.379e-009    
  0.3             3.2791e-006     2.8291e-008     -2.0505e-009   
  0.35            3.4074e-006     2.8869e-008     -1.3867e-009   
  0.4             3.5272e-006     2.8839e-008     -1.385e-009    
  0.45            3.6316e-006     2.8737e-008     -1.3818e-009   
  0.5             3.7278e-006     2.8581e-008     -1.3782e-009   
  0.55            3.8213e-006     2.8271e-008     -1.3749e-009   
  0.6             3.9115e-006     2.7848e-008     -1.372e-009    
  0.65            3.9943e-006     2.7384e-008     -1.3673e-009   
  0.7             4.0797e-006     2.6916e-008     -1.3629e-009   
  0.75            4.1542e-006     2.6272e-008     -1.9097e-009   
  0.8             4.2331e-006     2.831e-008      -1.3759e-009   
  0.85            4.3088e-006     2.8005e-008     -1.3726e-009   
  0.9             4.3895e-006     2.7609e-008     -1.3685e-009   
  0.95            4.4584e-006     2.713e-008      -1.3646e-009   
  1               4.5318e-006     2.6383e-008     -1.3582e-009   
  1.05            4.6031e-006     2.5764e-008     -1.8771e-009   
  1.1             4.6691e-006     2.7954e-008     -1.3718e-009   
  1.15            4.7405e-006     2.7711e-008     -1.3695e-009   
  1.2             4.8142e-006     2.712e-008      -1.3655e-009   
  1.25            4.8791e-006     2.6465e-008     -1.3603e-009   
  1.3             4.947e-006      2.583e-008      -1.8875e-009   
  1.35            5.0143e-006     2.805e-008      -1.3754e-009   
  1.4             5.0874e-006     2.7766e-008     -2.0041e-009   
  1.45            5.1493e-006     2.88e-008       -1.3853e-009   
  1.5             5.2139e-006     2.8686e-008     -1.3835e-009   
  1.55            5.2819e-006     2.8564e-008     -1.3798e-009   
  1.6             5.3517e-006     2.8216e-008     -2.0531e-009   
  1.65            5.4164e-006     2.8946e-008     -1.3863e-009   
  1.7             5.4815e-006     2.8893e-008     -1.3853e-009   
  1.75            5.5432e-006     2.8744e-008     -1.3833e-009   
  1.8             5.6136e-006     2.8535e-008     -1.3793e-009   
  1.85            5.6752e-006     2.8163e-008     -1.3757e-009   
  1.9             5.7429e-006     2.7857e-008     -2.0174e-009   
  1.95            5.8025e-006     2.8759e-008     -1.3845e-009   
  2               5.8618e-006     2.8626e-008     -1.3829e-009   
  2.05            5.9293e-006     2.8401e-008     -1.3789e-009   
  2.1             5.992e-006      2.7986e-008     -1.3754e-009   
  2.15            6.0573e-006     2.7599e-008     -1.3722e-009   
  2.2             6.121e-006      2.7179e-008     -1.3665e-009   
  2.25            6.1838e-006     2.6351e-008     -1.3641e-009   
  2.3             6.2473e-006     2.5629e-008     -1.3592e-009   
  2.35            6.3045e-006     2.4703e-008     -1.8771e-009   
  2.4             6.372e-006      2.683e-008      -1.3721e-009   
  2.45            6.4278e-006     1.7238e-008     -1.7993e-009   
  2.5             6.4936e-006     2.5226e-008     -1.3646e-009   
  2.55            6.5579e-006     1.6763e-008     -1.7307e-009   
  2.6             6.537e-006      8.026e-009      2.0543e-009    
  2.65            6.6014e-006     -1.8267e-008    1.5746e-009    
  2.7             6.6992e-006     -1.3721e-008    -2.1032e-009   
  2.75            6.8092e-006     1.2921e-008     -2.0012e-009   
  2.8             6.8696e-006     1.2049e-008     -1.9638e-009   
  2.85            6.9285e-006     1.1046e-008     -1.9217e-009   
  2.9             6.9981e-006     1.0103e-008     -1.8858e-009   
  2.95            7.0601e-006     8.891e-009      -1.8471e-009   
  3               7.1146e-006     7.305e-009      -1.8104e-009   
  3.05            7.1804e-006     5.719e-009      -1.7732e-009   
  3.1             7.2049e-006     -2.1631e-008    -2.764e-009    
  3.15            7.3138e-006     -3.04e-010      -2.0898e-009   
  3.2             7.2536e-006     -9.466e-009     1.8174e-009    
  3.25            7.377e-006      -4.4951e-008    1.9644e-009    
  3.3             7.4852e-006     -3.8608e-008    -1.9616e-009   
  3.35            7.5689e-006     -1.1572e-008    -1.6141e-009   
  3.4             7.5606e-006     -2.386e-008     2.1395e-009    
  3.45            7.6159e-006     -5.2157e-008    3.365e-010     
  3.5             7.7675e-006     -3.5382e-008    -1.3885e-009   
  3.55            7.7795e-006     -4.1675e-008    2.669e-009     
  3.6             7.8488e-006     -6.9082e-008    -3.862e-010    
  3.65            7.9671e-006     -4.7931e-008    -2.3925e-009   
  3.7             7.9087e-006     -6.1696e-008    1.6146e-009    
  3.75            8.0401e-006     -1.06487e-007   2.3435e-009    
  3.8             8.206e-006      -1.00616e-007   -1.8217e-009   
  3.85            8.2605e-006     -7.2895e-008    -2.0693e-009   
  3.9             8.3059e-006     -1.006e-007     -2.0121e-009   
  3.95            8.2831e-006     -1.1133e-007    1.858e-009     
  4               8.3953e-006     -1.5666e-007    1.8856e-009    
  4.05            8.5214e-006     -1.6256e-007    -1.9851e-009   
  4.1             8.6159e-006     -1.4784e-007    -1.5749e-009   
  4.15            8.6446e-006     -1.7184e-007    2.173e-009     
  4.2             8.7042e-006     -2.1331e-007    3.028e-010     
  4.25            8.8847e-006     -2.1192e-007    -1.3877e-009   
  4.3             8.9048e-006     -2.3179e-007    2.6915e-009    
  4.35            8.9953e-006     -2.7662e-007    -4.305e-010    
  4.4             9.1504e-006     -2.7229e-007    -2.3441e-009   
  4.45            9.0836e-006     -3.0266e-007    1.6528e-009    
  4.5             9.2451e-006     -3.6839e-007    2.278e-009     
  4.55            9.4285e-006     -3.8195e-007    -1.8507e-009   
  4.6             9.5153e-006     -3.7303e-007    -1.8534e-009   
  4.65            9.4998e-006     -4.1948e-007    1.9699e-009    
  4.7             9.6268e-006     -4.8483e-007    1.693e-009     
  4.75            9.7714e-006     -5.1599e-007    -2.049e-009    
  4.8             9.9178e-006     -5.2705e-007    -1.4812e-009   
  4.85            9.9657e-006     -5.6967e-007    2.272e-009     
  4.9             1.00311e-005    -6.3571e-007    2.062e-010     
  4.95            1.02631e-005    -6.6051e-007    -2.7268e-009   
  5               1.0278e-005     -7.055e-007     1.1113e-009    
END_DB

BEGIN_DB
 ICCAP_VAR VG         2              
 ICCAP_VAR VS         0              
 ICCAP_VAR VB         0              

 #VD              ID              IB              IG             
  0               -1.4373e-007    1.2121e-008     -9.483e-010    
  0.05            1.1586e-005     9.136e-009      2.908e-010     
  0.1             2.2772e-005     1.4343e-008     -2.5362e-009   
  0.15            3.3276e-005     2.7945e-008     -1.3691e-009   
  0.2             4.3055e-005     1.2268e-008     8.149e-010     
  0.25            5.2052e-005     -2.4928e-008    1.3379e-009    
  0.3             6.0289e-005     -2.2993e-008    2.0143e-009    
  0.35            6.7732e-005     -1.2505e-008    -9.315e-010    
  0.4             7.4378e-005     2.6985e-008     -1.3833e-009   
  0.45            8.0155e-005     2.3848e-008     -1.7822e-009   
  0.5             8.5123e-005     1.134e-008      9.28e-010      
  0.55            8.9383e-005     -2.6197e-008    1.3343e-009    
  0.6             9.3102e-005     -1.2754e-008    -5.15e-010     
  0.65            9.6276e-005     2.0308e-008     -1.5369e-009   
  0.7             9.8736e-005     9.606e-009      1.1047e-009    
  0.75            0.000100893     -2.6373e-008    1.334e-009     
  0.8             0.000102799     -1.304e-008     -7.554e-010    
  0.85            0.000104469     8.263e-009      -1.3868e-009   
  0.9             0.000105733     1.2155e-008     4.63e-010      
  0.95            0.000106755     -1.9523e-008    1.584e-009     
  1               0.000107969     -1.0557e-008    -1.1576e-009   
  1.05            0.000108926     2.939e-008      -1.3877e-009   
  1.1             0.000109674     1.2692e-008     6.729e-010     
  1.15            0.000110328     -8.475e-009     1.3334e-009    
  1.2             0.00011106      -1.964e-008     1.8164e-009    
  1.25            0.000111834     -1.1836e-008    -1.0207e-009   
  1.3             0.000112538     2.8357e-008     -1.3882e-009   
  1.35            0.000112785     9.578e-009      1.5983e-009    
  1.4             0.000113446     -1.3698e-008    1.5176e-009    
  1.45            0.00011422      -1.0191e-008    2.994e-010     
  1.5             0.00011458      -1.9372e-008    1.6165e-009    
  1.55            0.00011509      -2.6617e-008    2.4659e-009    
  1.6             0.00011565      -1.3292e-008    -8.327e-010    
  1.65            0.00011624      2.7135e-008     -1.384e-009    
  1.7             0.00011632      9.804e-009      1.6251e-009    
  1.75            0.00011686      -1.0866e-008    2.414e-010     
  1.8             0.00011753      1.6666e-008     -2.3255e-009   
  1.85            0.00011782      1.2552e-008     7.33e-010      
  1.9             0.00011805      -2.541e-008     1.3363e-009    
  1.95            0.00011858      -1.2885e-008    -5.49e-010     
  2               0.00011903      8.104e-009      -1.3846e-009   
  2.05            0.00011938      1.2308e-008     5.545e-010     
  2.1             0.00011959      -8.685e-009     1.3334e-009    
  2.15            0.00012023      -1.0863e-008    -1.733e-009    
  2.2             0.00012047      9.862e-009      -1.888e-010    
  2.25            0.00012063      -1.9265e-008    2.451e-009     
  2.3             0.00012107      -1.4274e-008    -8.381e-010    
  2.35            0.00012151      8.192e-009      -1.3846e-009   
  2.4             0.00012184      1.25e-008       -2.4992e-009   
  2.45            0.00012213      1.9811e-008     -1.7294e-009   
  2.5             0.00012231      6.338e-009      1.0742e-009    
  2.55            0.00012259      -3.0311e-008    2.2298e-009    
  2.6             0.00012299      -1.9207e-008    -9.43e-010     
  2.65            0.00012335      2.583e-009      -2.7189e-009   
  2.7             0.00012367      6.592e-009      -2.1668e-009   
  2.75            0.00012385      -4.238e-009     2.3656e-009    
  2.8             0.00012416      -3.0245e-008    -6.428e-010    
  2.85            0.00012451      3.075e-009      -1.4009e-009   
  2.9             0.00012466      -1.7287e-008    2.817e-009     
  2.95            0.0001251       -4.1746e-008    -1.2883e-009   
  3               0.00012538      -1.5338e-008    -1.7952e-009   
  3.05            0.00012552      -3.8457e-008    2.5523e-009    
  3.1             0.00012584      -6.9651e-008    -8.818e-010    
  3.15            0.00012618      -3.9527e-008    -1.3867e-009   
  3.2             0.00012632      -7.3487e-008    2.8787e-009    
  3.25            0.00012657      -1.03324e-007   2.2254e-009    
  3.3             0.00012692      -9.81e-008      -2.7152e-009   
  3.35            0.00012713      -1.189e-007     1.0957e-009    
  3.4             0.00012739      -1.7438e-007    2.1664e-009    
  3.45            0.00012775      -1.8218e-007    -2.3492e-009   
  3.5             0.00012804      -1.8705e-007    6.977e-010     
  3.55            0.00012816      -2.5438e-007    1.3392e-009    
  3.6             0.00012861      -2.7023e-007    -2.7619e-009   
  3.65            0.00012873      -2.9191e-007    1.3013e-009    
  3.7             0.00012904      -3.602e-007     1.7503e-009    
  3.75            0.00012946      -3.9764e-007    -2.5722e-009   
  3.8             0.00012974      -4.2878e-007    9.004e-010     
  3.85            0.00012993      -5.2495e-007    1.3367e-009    
  3.9             0.00013042      -5.6643e-007    -2.7459e-009   
  3.95            0.00013049      -6.2291e-007    1.5384e-009    
  4               0.00013091      -7.2212e-007    3.157e-010     
  4.05            0.00013144      -7.7929e-007    -2.4359e-009   
  4.1             0.0001316       -8.7814e-007    2.198e-009     
  4.15            0.00013196      -1.00358e-006   -4.149e-010    
