! VERSION = 6.00
BEGIN_HEADER
 ICCAP_INPUTS
  VG         V  B GROUND SMU4 0.001 LIN        1    0          5          101  0.05      
  VS         V  E GROUND SMU2 0.1 CON        0
  VB         V  C GROUND SMU3 0.1 LIN        3    0          -5         3    -2.5      
  VD         V  S GROUND SMU1 0.1 LIN        2    0.1        5          2    4.9       
 ICCAP_OUTPUTS
  IG         I  B GROUND SMU4 B
  ID         I  S GROUND SMU1 B
  IB         I  C GROUND SMU3 B
END_HEADER

BEGIN_DB
 ICCAP_VAR VS         0              
 ICCAP_VAR VB         0              
 ICCAP_VAR VD         0.1            

 #VG              IG              ID              IB             
  0               1.3238e-009     1.1618e-009     -1.2379e-008   
  0.05            2.8682e-009     -7.09e-011      -1.3123e-008   
  0.1             -1.3832e-009    1.4628e-009     2.6914e-008    
  0.15            -2.705e-009     6.59e-011       1.2955e-008    
  0.2             1.3248e-009     -1.5008e-009    -2.4324e-008   
  0.25            2.8717e-009     -1.94e-011      -1.2007e-008   
  0.3             -1.3823e-009    1.4356e-009     2.8151e-008    
  0.35            -1.3747e-009    4.6e-011        1.2701e-008    
  0.4             -2.6774e-009    2.517e-010      1.3953e-008    
  0.45            1.3223e-009     -1.3117e-009    -2.052e-008    
  0.5             2.8615e-009     1.8063e-009     -1.4911e-008   
  0.55            -1.382e-009     5.2297e-009     2.4483e-008    
  0.6             1.647e-009      1.2266e-008     8.91e-009      
  0.65            1.3214e-009     4.6299e-008     -8.877e-009    
  0.7             -3.376e-010     1.4921e-007     1.148e-008     
  0.75            -8.362e-010     4.3846e-007     -1.3042e-008   
  0.8             -1.8455e-009    1.1619e-006     -8.4e-009      
  0.85            -7.39e-010      2.6195e-006     -1.3205e-008   
  0.9             1.7658e-009     5.225e-006      -1.904e-008    
  0.95            1.3344e-009     9.1442e-006     -9.327e-009    
  1               -1.4295e-009    1.4467e-005     -7.831e-009    
  1.05            -1.3826e-009    2.0551e-005     8.671e-009     
  1.1             -2.6485e-009    2.7198e-005     1.2733e-008    
  1.15            -2.2035e-009    3.3791e-005     1.055e-009     
  1.2             -1.5714e-009    4.0389e-005     4.221e-009     
  1.25            -1.3709e-009    4.6823e-005     7.73e-009      
  1.3             -2.696e-009     5.3059e-005     1.0974e-008    
  1.35            2.046e-009      5.8874e-005     -2.372e-008    
  1.4             1.3999e-009     6.4596e-005     -8.661e-009    
  1.45            1.326e-009      7.0069e-005     -7.925e-009    
  1.5             2.8315e-009     7.5327e-005     -1.1823e-008   
  1.55            1.461e-009      8.0355e-005     9.678e-009     
  1.6             -1.376e-009     8.5453e-005     2.9321e-008    
  1.65            -2.5435e-009    9.0172e-005     1.4154e-008    
  1.7             -1.9536e-009    9.4653e-005     1.46e-009      
  1.75            -1.4376e-009    9.905e-005      5.163e-009     
  1.8             -1.3794e-009    0.000103296     8.561e-009     
  1.85            -2.6618e-009    0.000107409     1.2443e-008    
  1.9             -2.2529e-009    0.000111358     9.59e-010      
  1.95            -1.3812e-009    0.00011535      5.682e-009     
  2               -2.6325e-009    0.00011915      1.2726e-008    
  2.05            -2.1666e-009    0.00012274      1.085e-009     
  2.1             -1.5426e-009    0.00012633      4.633e-009     
  2.15            -1.3731e-009    0.00012981      8.024e-009     
  2.2             -2.6916e-009    0.00013321      1.1379e-008    
  2.25            1.9997e-009     0.00013644      -2.2953e-008   
  2.3             1.3841e-009     0.00013964      -8.885e-009    
  2.35            2.8671e-009     0.00014277      -7.868e-009    
  2.4             2.1681e-009     0.00014587      1.0428e-008    
  2.45            1.0149e-009     0.00014891      1.0689e-008    
  2.5             -1.973e-010     0.00015183      1.0348e-008    
  2.55            -1.4142e-009    0.00015475      2.2127e-008    
  2.6             -1.3797e-009    0.00015755      8.81e-009      
  2.65            -2.6373e-009    0.00016032      1.2744e-008    
  2.7             -2.1791e-009    0.00016297      1.042e-009     
  2.75            -1.5521e-009    0.00016565      4.577e-009     
  2.8             -1.3719e-009    0.00016824      7.931e-009     
  2.85            -2.6921e-009    0.00017079      1.1186e-008    
  2.9             2.0142e-009     0.00017321      -2.3128e-008   
  2.95            1.3905e-009     0.00017563      -8.717e-009    
  3               2.869e-009      0.00017799      -7.926e-009    
  3.05            2.8185e-009     0.00018036      1.07e-010      
  3.1             1.4828e-009     0.00018254      8.991e-009     
  3.15            -2.0962e-009    0.00018492      2.9258e-008    
  3.2             -1.4926e-009    0.00018712      4.766e-009     
  3.25            -1.3741e-009    0.00018924      8.449e-009     
  3.3             -2.6806e-009    0.00019136      1.1826e-008    
  3.35            1.8974e-009     0.0001934       -2.1202e-008   
  3.4             1.357e-009      0.00019544      -9.228e-009    
  3.45            1.3262e-009     0.00019743      -8.08e-009     
  3.5             2.7936e-009     0.00019943      -1.3585e-008   
  3.55            2.5574e-009     0.00020134      8.888e-009     
  3.6             -1.7973e-009    0.00020327      2.4549e-008    
  3.65            -1.3931e-009    0.00020507      5.988e-009     
  3.7             -1.3782e-009    0.00020688      9.263e-009     
  3.75            -2.6073e-009    0.00020871      1.309e-008     
  3.8             -2.0889e-009    0.00021042      1.182e-009     
  3.85            -1.496e-009     0.00021211      4.845e-009     
  3.9             -1.3742e-009    0.00021375      8.4e-009       
  3.95            -2.6836e-009    0.00021543      1.1851e-008    
  4               1.9138e-009     0.00021704      -2.1524e-008   
  4.05            1.3623e-009     0.00021858      -9.044e-009    
  4.1             1.3258e-009     0.00022016      -8.067e-009    
  4.15            2.7979e-009     0.00022168      -1.3276e-008   
  4.2             2.5487e-009     0.0002232       8.698e-009     
  4.25            -1.8138e-009    0.00022465      2.4967e-008    
  4.3             -1.3916e-009    0.00022606      5.71e-009      
  4.35            -1.3771e-009    0.00022751      9.087e-009     
  4.4             -2.611e-009     0.00022896      1.3226e-008    
  4.45            -2.1082e-009    0.00023021      1.093e-009     
  4.5             -1.5062e-009    0.00023154      4.786e-009     
  4.55            -1.3723e-009    0.0002329       8.064e-009     
  4.6             -2.6874e-009    0.00023419      1.1786e-008    
  4.65            1.9231e-009     0.00023542      -2.1903e-008   
  4.7             1.3678e-009     0.00023668      -9.076e-009    
  4.75            2.8679e-009     0.00023783      -8.024e-009    
  4.8             -1.375e-009     0.00023915      2.9476e-008    
  4.85            -2.5714e-009    0.0002403       1.3549e-008    
  4.9             -2.0143e-009    0.00024136      1.165e-009     
  4.95            -1.4597e-009    0.00024247      5.164e-009     
  5               -1.3746e-009    0.00024358      8.36e-009      
END_DB

BEGIN_DB
 ICCAP_VAR VS         0              
 ICCAP_VAR VB         0              
 ICCAP_VAR VD         5              

 #VG              IG              ID              IB             
  0               -2.226e-010     -3.368e-010     -1.1648e-008   
  0.05            -4.421e-010     -2.251e-009     -1.3266e-008   
  0.1             -6.431e-010     -2.2448e-009    -1.2707e-008   
  0.15            -8.225e-010     -2.2327e-009    -1.1266e-008   
  0.2             2.085e-009      -1.6313e-009    -1.6412e-008   
  0.25            1.542e-009      1.9905e-009     -8.221e-009    
  0.3             -1.3856e-009    1.5022e-009     2.8228e-008    
  0.35            -1.3764e-009    3.632e-010      1.2678e-008    
  0.4             -2.6838e-009    1.5573e-009     1.4039e-008    
  0.45            -1.189e-010     3.2125e-009     -1.3043e-008   
  0.5             2.1139e-009     2.2572e-008     7.168e-009     
  0.55            -2.434e-009     8.1972e-008     9.032e-009     
  0.6             -2.0532e-009    2.6998e-007     -1.4591e-008   
  0.65            -1.472e-009     7.9723e-007     -5.9239e-008   
  0.7             -2.6773e-009    2.0954e-006     -1.908e-007    
  0.75            -2.3658e-009    4.9629e-006     -3.6957e-007   
  0.8             -1.7068e-009    1.02805e-005    -7.3316e-007   
  0.85            -2.6394e-009    1.8873e-005     -1.2581e-006   
  0.9             -2.1615e-009    3.0881e-005     -2.0389e-006   
  0.95            -1.535e-009     4.6554e-005     -2.9525e-006   
  1               -1.3751e-009    6.5535e-005     -3.9856e-006   
  1.05            -2.6947e-009    8.7313e-005     -5.0995e-006   
  1.1             -2.4394e-009    0.000111793     -6.3145e-006   
  1.15            -2.6583e-009    0.00013827      -7.4998e-006   
  1.2             -2.2654e-009    0.00016649      -8.6929e-006   
  1.25            -1.6093e-009    0.00019623      -9.8458e-006   
  1.3             -1.3738e-009    0.00022719      -1.09592e-005  
  1.35            1.8789e-009     0.00025843      -1.2049e-005   
  1.4             1.3553e-009     0.00029097      -1.3006e-005   
  1.45            1.3284e-009     0.00032447      -1.3939e-005   
  1.5             2.7977e-009     0.00035861      -1.4825e-005   
  1.55            2.2492e-009     0.00039392      -1.5621e-005   
  1.6             1.5157e-009     0.00042907      -1.6363e-005   
  1.65            1.3248e-009     0.00046484      -1.7038e-005   
  1.7             2.8612e-009     0.00050079      -1.7632e-005   
  1.75            2.5796e-009     0.00053797      -1.8156e-005   
  1.8             1.8207e-009     0.00057451      -1.8623e-005   
  1.85            1.3466e-009     0.0006115       -1.9033e-005   
  1.9             1.3205e-009     0.00064868      -1.9374e-005   
  1.95            2.7734e-009     0.00068586      -1.9655e-005   
  2               2.2007e-009     0.00072385      -1.9875e-005   
  2.05            1.4922e-009     0.00076158      -2.0052e-005   
  2.1             1.3219e-009     0.00079947      -2.0171e-005   
  2.15            2.849e-009      0.00083718      -2.0248e-005   
  2.2             2.5415e-009     0.00087581      -2.0275e-005   
  2.25            1.7767e-009     0.00091375      -2.027e-005    
  2.3             1.3419e-009     0.00095196      -2.0222e-005   
  2.35            2.8257e-009     0.00099013      -2.0131e-005   
  2.4             2.7227e-009     0.00102893      -2.0012e-005   
  2.45            2.1453e-009     0.00106712      -1.986e-005    
  2.5             1.4557e-009     0.00110547      -1.969e-005    
  2.55            -1.3597e-009    0.0011453       -1.9487e-005   
  2.6             -2.5804e-009    0.001184        -1.9229e-005   
  2.65            -2.0917e-009    0.0012221       -1.8993e-005   
  2.7             -1.5007e-009    0.0012606       -1.8721e-005   
  2.75            -1.3692e-009    0.0012996       -1.8431e-005   
  2.8             -2.6802e-009    0.001338        -1.8125e-005   
  2.85            -2.4111e-009    0.0013763       -1.7823e-005   
  2.9             -1.77e-009      0.0014151       -1.7499e-005   
  2.95            -1.3868e-009    0.0014536       -1.716e-005    
  3               -1.3813e-009    0.0014922       -1.6815e-005   
  3.05            -2.6116e-009    0.0015305       -1.6462e-005   
  3.1             -2.0949e-009    0.0015682       -1.6116e-005   
  3.15            -1.4973e-009    0.0016067       -1.5752e-005   
  3.2             -1.3726e-009    0.0016451       -1.5388e-005   
  3.25            -2.6811e-009    0.0016836       -1.5026e-005   
  3.3             -2.4004e-009    0.0017214       -1.4668e-005   
  3.35            -1.746e-009     0.0017599       -1.4302e-005   
  3.4             -1.3815e-009    0.0017979       -1.3934e-005   
  3.45            -1.3758e-009    0.0018364       -1.3572e-005   
  3.5             -2.602e-009     0.0018741       -1.3205e-005   
  3.55            -2.0667e-009    0.0019119       -1.2859e-005   
  3.6             -1.4814e-009    0.0019499       -1.2504e-005   
  3.65            -1.3711e-009    0.0019878       -1.2145e-005   
  3.7             -2.6785e-009    0.0020259       -1.1798e-005   
  3.75            -2.3702e-009    0.0020633       -1.1474e-005   
  3.8             -1.7099e-009    0.0021012       -1.1143e-005   
  3.85            -1.3764e-009    0.0021389       -1.0811e-005   
  3.9             -2.7037e-009    0.0021765       -1.0485e-005   
  3.95            -2.5786e-009    0.0022136       -1.0182e-005   
  4               1.9408e-009     0.0022501       -9.8924e-006   
  4.05            1.3691e-009     0.0022878       -9.5855e-006   
  4.1             2.8583e-009     0.002325        -9.294e-006    
  4.15            2.8155e-009     0.0023626       -8.999e-006    
  4.2             2.3029e-009     0.0023999       -8.718e-006    
  4.25            1.5463e-009     0.0024369       -8.4483e-006   
  4.3             1.3301e-009     0.0024738       -8.1874e-006   
  4.35            2.8745e-009     0.0025103       -7.9219e-006   
  4.4             2.6154e-009     0.0025486       -7.6568e-006   
  4.45            1.8649e-009     0.0025849       -7.4076e-006   
  4.5             1.3614e-009     0.0026216       -7.1759e-006   
  4.55            2.8675e-009     0.0026585       -6.9412e-006   
  4.6             2.8056e-009     0.0026952       -6.7102e-006   
  4.65            2.248e-009      0.0027315       -6.4912e-006   
  4.7             1.5165e-009     0.0027678       -6.2795e-006   
  4.75            1.3291e-009     0.002804        -6.0746e-006   
  4.8             2.8784e-009     0.0028404       -5.8728e-006   
  4.85            2.5819e-009     0.0028766       -5.6726e-006   
  4.9             1.8191e-009     0.0029128       -5.484e-006    
  4.95            1.3544e-009     0.0029488       -5.2986e-006   
  5               2.8715e-009     0.0029845       -5.1222e-006   
END_DB

BEGIN_DB
 ICCAP_VAR VS         0              
 ICCAP_VAR VB         -2.5           
 ICCAP_VAR VD         0.1            

 #VG              IG              ID              IB             
  0               1.8496e-009     2.1242e-009     1.801e-009     
  0.05            1.6635e-009     1.8049e-009     -9.4e-009      
  0.1             1.8295e-009     1.5118e-009     1.0805e-008    
  0.15            4.369e-010      2.2949e-009     1.2487e-008    
  0.2             6.156e-010      2.3297e-009     1.1961e-008    
  0.25            7.856e-010      2.3411e-009     1.0581e-008    
  0.3             -1.8945e-009    1.6552e-009     1.7811e-008    
  0.35            -1.65e-009      -1.7893e-009    5.421e-009     
  0.4             1.321e-009      -1.499e-009     -2.3905e-008   
  0.45            2.8728e-009     -3.39e-011      -1.2146e-008   
  0.5             -1.3754e-009    1.4398e-009     2.7534e-008    
  0.55            -2.7038e-009    4.23e-011       1.2693e-008    
  0.6             2.5644e-009     -1.4725e-009    -2.4893e-008   
  0.65            1.2621e-009     2.2409e-009     -4.449e-009    
  0.7             -1.639e-010     2.0321e-009     1.0221e-008    
  0.75            -1.5899e-009    9.574e-010      2.2955e-008    
  0.8             -1.8301e-009    -1.4584e-009    7.726e-009     
  0.85            -4.089e-010     -1.9942e-009    -1.3158e-008   
  0.9             1.3677e-009     -1.285e-010     -1.3021e-008   
  0.95            1.318e-009      4.7456e-009     -8.215e-009    
  1               -2.1856e-009    1.7288e-008     -9.437e-009    
  1.05            2.4836e-009     6.9108e-008     -2.6628e-008   
  1.1             -8.926e-010     2.3562e-007     1.6163e-008    
  1.15            1.5214e-009     6.9055e-007     -1.4235e-008   
  1.2             1.4428e-009     1.7149e-006     7.607e-009     
  1.25            -1.3704e-009    3.8777e-006     2.9065e-008    
  1.3             -2.5373e-009    7.3494e-006     1.3663e-008    
  1.35            1.3231e-009     1.1994e-005     1.505e-009     
  1.4             2.8709e-009     1.7862e-005     -8.784e-009    
  1.45            -1.9125e-009    2.4601e-005     2.7071e-008    
  1.5             -1.4214e-009    3.1326e-005     5.626e-009     
  1.55            -1.3755e-009    3.801e-005      8.87e-009      
  1.6             -2.6389e-009    4.459e-005      1.2642e-008    
  1.65            -2.1985e-009    5.0834e-005     9.92e-010      
  1.7             -1.5666e-009    5.6841e-005     4.237e-009     
  1.75            -1.3653e-009    6.2596e-005     7.78e-009      
  1.8             -2.6887e-009    6.8135e-005     1.1162e-008    
  1.85            2.0285e-009     7.3237e-005     -2.3548e-008   
  1.9             1.4052e-009     7.8291e-005     -8.74e-009     
  1.95            1.3242e-009     8.3089e-005     -8.017e-009    
  2               2.8234e-009     8.7722e-005     -1.1901e-008   
  2.05            5.272e-010      9.2291e-005     1.2293e-008    
  2.1             9.271e-010      9.6552e-005     1.1308e-008    
  2.15            -1.4252e-009    0.00010073      1.2731e-008    
  2.2             -1.3743e-009    0.000104771     8.922e-009     
  2.25            -2.6324e-009    0.000108662     1.2505e-008    
  2.3             -2.1833e-009    0.000112376     1.024e-009     
  2.35            -1.5227e-009    0.00011615      1.072e-009     
  2.4             -1.3697e-009    0.00011968      8.17e-009      
  2.45            -2.6793e-009    0.00012314      1.1625e-008    
  2.5             1.9373e-009     0.00012637      -2.1864e-008   
  2.55            1.3679e-009     0.00012962      -9.095e-009    
  2.6             1.3252e-009     0.00013278      -7.836e-009    
  2.65            2.799e-009      0.00013586      -1.3376e-008   
  2.7             1.5292e-009     0.00013885      1.0216e-008    
  2.75            -1.3537e-009    0.00014193      2.8481e-008    
  2.8             -2.4713e-009    0.0001448       1.4744e-008    
  2.85            -1.8414e-009    0.00014757      2.15e-009      
  2.9             -1.4028e-009    0.00015026      5.61e-009      
  2.95            -1.3734e-009    0.00015293      8.914e-009     
  3               -2.6197e-009    0.00015555      1.2776e-008    
  3.05            -2.1465e-009    0.00015807      9.53e-010      
  3.1             -1.5286e-009    0.00016056      4.773e-009     
  3.15            -1.3668e-009    0.00016301      7.826e-009     
  3.2             -2.6794e-009    0.00016538      1.1591e-008    
  3.25            1.9607e-009     0.00016766      -2.2368e-008   
  3.3             1.3797e-009     0.00016994      -9.045e-009    
  3.35            1.3282e-009     0.00017216      -7.823e-009    
  3.4             2.8087e-009     0.00017436      -1.2739e-008   
  3.45            2.5313e-009     0.00017652      8.576e-009     
  3.5             -1.8396e-009    0.00017867      2.568e-008     
  3.55            -1.3957e-009    0.00018069      5.635e-009     
  3.6             -1.3704e-009    0.00018273      8.972e-009     
  3.65            -2.6111e-009    0.0001847       1.2951e-008    
  3.7             -2.1172e-009    0.00018658      1.043e-009     
  3.75            -1.5172e-009    0.00018848      4.603e-009     
  3.8             -1.3678e-009    0.00019036      8.16e-009      
  3.85            -2.6815e-009    0.00019218      1.1527e-008    
  3.9             1.9452e-009     0.00019392      -2.1979e-008   
  3.95            1.3742e-009     0.0001957       -9.161e-009    
  4               1.3276e-009     0.00019741      -8.04e-009     
  4.05            2.8037e-009     0.0001991       -1.3123e-008   
  4.1             2.5437e-009     0.0002007       8.707e-009     
  4.15            -1.8021e-009    0.00020238      2.5088e-008    
