! VERSION = 6.00
BEGIN_HEADER
 ICCAP_INPUTS
  VG         V  B GROUND SMU4 0.001 LIN        2    0          5          6    1         
  VS         V  E GROUND SMU2 0.1 CON        0
  VD         V  S GROUND SMU1 0.1 LIN        1    0          5          101  0.05      
  VB         V  C GROUND SMU3 0.1 LIN        3    0          -2.5       2    -2.5      
 ICCAP_OUTPUTS
  ID         I  S GROUND SMU1 B
  IB         I  C GROUND SMU3 B
  IG         I  B GROUND SMU4 B
END_HEADER

BEGIN_DB
 ICCAP_VAR VG         0              
 ICCAP_VAR VS         0              
 ICCAP_VAR VB         0              

 #VD              ID              IB              IG             
  0               1.0485e-009     1.489e-008      1.1618e-009    
  0.05            -7.932e-010     -2.1491e-008    2.026e-009     
  0.1             1.8924e-009     -8.52e-009      1.5574e-009    
  0.15            2.1608e-009     1.0297e-008     1.241e-010     
  0.2             2.2696e-009     1.045e-008      3.206e-010     
  0.25            2.3491e-009     1.0674e-008     5.088e-010     
  0.3             1.4697e-009     2.4594e-008     -1.3339e-009   
  0.35            8.89e-011       1.1534e-008     -2.7367e-009   
  0.4             -2.0553e-009    -1.0929e-008    -1.25e-011     
  0.45            -2.1743e-009    -1.0943e-008    -2.157e-010    
  0.5             -2.2413e-009    -1.1008e-008    -4.344e-010    
  0.55            -2.2738e-009    -1.1576e-008    -6.369e-010    
  0.6             -2.2604e-009    -1.1623e-008    -8.343e-010    
  0.65            -1.6219e-009    -1.5566e-008    1.9606e-009    
  0.7             1.8399e-009     -8.924e-009     1.5939e-009    
  0.75            2.1865e-009     1.0295e-008     1.627e-010     
  0.8             2.2903e-009     1.0478e-008     3.585e-010     
  0.85            2.3645e-009     1.0764e-008     5.484e-010     
  0.9             1.5031e-009     2.3449e-008     -1.3282e-009   
  0.95            1.255e-010      1.1674e-008     -2.7207e-009   
  1               -1.3513e-009    6.59e-010       -1.9048e-009   
  1.05            -2.2664e-009    -1.1304e-008    -5.664e-010    
  1.1             -2.2749e-009    -1.17e-008      -7.639e-010    
  1.15            -1.596e-009     -1.6862e-008    2.0761e-009    
  1.2             1.9211e-009     -8.205e-009     1.5274e-009    
  1.25            2.1447e-009     1.0362e-008     9.16e-011      
  1.3             2.2579e-009     1.0362e-008     2.835e-010     
  1.35            2.3448e-009     1.0554e-008     4.8e-010       
  1.4             1.4513e-009     2.5139e-008     -1.3386e-009   
  1.45            7.15e-011       1.1243e-008     -2.7459e-009   
  1.5             -2.0392e-009    -1.1026e-008    2.08e-011      
  1.55            -2.1596e-009    -1.0919e-008    -1.734e-010    
  1.6             -2.234e-009     -1.1036e-008    -3.963e-010    
  1.65            -2.2712e-009    -1.1406e-008    -6.077e-010    
  1.7             -2.2677e-009    -1.1764e-008    -8.104e-010    
  1.75            -1.6159e-009    -1.5894e-008    2.0048e-009    
  1.8             1.8722e-009     -8.83e-009      1.5726e-009    
  1.85            2.1705e-009     1.0302e-008     1.307e-010     
  1.9             2.2816e-009     1.0423e-008     3.305e-010     
  1.95            2.3619e-009     1.0752e-008     5.223e-010     
  2               1.4811e-009     2.3959e-008     -1.3303e-009   
  2.05            1.098e-010      1.1387e-008     -2.7254e-009   
  2.1             -2.0736e-009    -1.0906e-008    -2.71e-011     
  2.15            -2.1796e-009    -1.0922e-008    -2.351e-010    
  2.2             -2.2474e-009    -1.1123e-008    -4.587e-010    
  2.25            -2.2761e-009    -1.1657e-008    -6.67e-010     
  2.3             -1.5487e-009    -1.8976e-008    1.2574e-009    
  2.35            -1.328e-010     -1.374e-008     2.8508e-009    
  2.4             2.1649e-009     1.0268e-008     1.25e-010      
  2.45            2.2782e-009     1.0346e-008     3.237e-010     
  2.5             2.3583e-009     1.064e-008      5.188e-010     
  2.55            1.4748e-009     2.4208e-008     -1.3309e-009   
  2.6             9.67e-011       1.1358e-008     -2.7331e-009   
  2.65            -2.0649e-009    -1.0884e-008    -1.36e-011     
  2.7             -2.1776e-009    -1.105e-008     -2.214e-010    
  2.75            -2.2461e-009    -1.1086e-008    -4.491e-010    
  2.8             -1.4203e-009    -2.3093e-008    1.2849e-009    
  2.85            1.45e-011       -1.0272e-008    2.9124e-009    
  2.9             1.5606e-009     -3.05e-010      1.8098e-009    
  2.95            2.3101e-009     1.0358e-008     3.971e-010     
  3               2.3758e-009     1.0858e-008     5.849e-010     
  3.05            1.5331e-009     2.2415e-008     -1.3232e-009   
  3.1             1.484e-010      1.1911e-008     -2.7027e-009   
  3.15            -1.3186e-009    6.83e-010       -1.9277e-009   
  3.2             -2.2729e-009    -1.1541e-008    -6.059e-010    
  3.25            -2.268e-009     -1.1725e-008    -8.081e-010    
  3.3             -1.6124e-009    -1.6109e-008    2.0089e-009    
  3.35            1.8678e-009     -8.568e-009     1.5731e-009    
  3.4             2.1665e-009     1.0243e-008     1.356e-010     
  3.45            2.2819e-009     1.0456e-008     3.307e-010     
  3.5             2.3615e-009     1.0615e-008     5.218e-010     
  3.55            1.4831e-009     2.4026e-008     -1.3302e-009   
  3.6             1.058e-010      1.139e-008      -2.7252e-009   
  3.65            -1.3602e-009    3.91e-010       -1.8974e-009   
  3.7             -2.2639e-009    -1.1178e-008    -5.472e-010    
  3.75            -1.4834e-009    -2.1235e-008    1.2716e-009    
  3.8             -4.12e-011      -1.1838e-008    2.8953e-009    
  3.85            2.1042e-009     1.0358e-008     2.63e-011      
  3.9             2.2182e-009     1.0391e-008     2.121e-010     
  3.95            2.3169e-009     1.0447e-008     4.047e-010     
  4               1.3984e-009     2.6148e-008     -1.3496e-009   
  4.05            2.6e-011        1.1161e-008     -1.3193e-009   
  4.1             1.637e-010      1.2016e-008     -2.6921e-009   
  4.15            -1.3023e-009    6.58e-010       -1.9399e-009   
  4.2             -2.2735e-009    -1.1485e-008    -6.23e-010     
  4.25            -1.528e-009     -1.9633e-008    1.262e-009     
  4.3             -1.056e-010     -1.3028e-008    2.8707e-009    
  4.35            2.1485e-009     1.0282e-008     9.57e-011      
  4.4             2.2598e-009     1.0391e-008     2.895e-010     
  4.45            2.3456e-009     1.0481e-008     4.855e-010     
  4.5             1.4553e-009     2.4822e-008     -1.3388e-009   
  4.55            7.95e-011       1.1275e-008     -2.7447e-009   
  4.6             -2.0436e-009    -1.1152e-008    8.8e-012       
  4.65            -2.1608e-009    -1.1026e-008    -1.929e-010    
  4.7             -2.2361e-009    -1.111e-008     -4.251e-010    
  4.75            -2.2735e-009    -1.1525e-008    -6.243e-010    
  4.8             -1.5279e-009    -1.9552e-008    1.2623e-009    
  4.85            -1.023e-010     -1.3038e-008    2.8709e-009    
  4.9             2.1493e-009     1.0264e-008     1.038e-010     
  4.95            2.2627e-009     1.0382e-008     2.925e-010     
  5               2.3487e-009     1.0556e-008     4.866e-010     
END_DB

BEGIN_DB
 ICCAP_VAR VG         1              
 ICCAP_VAR VS         0              
 ICCAP_VAR VB         0              

 #VD              ID              IB              IG             
  0               -3.0965e-008    1.6255e-008     -1.129e-010    
  0.05            2.1886e-006     1.7882e-008     2.4711e-009    
  0.1             3.6854e-006     -1.1438e-008    -1.261e-010    
  0.15            4.7455e-006     1.1746e-008     -2.5212e-009   
  0.2             5.4667e-006     1.2722e-008     -1.825e-010    
  0.25            5.9393e-006     -8.499e-009     2.9061e-009    
  0.3             6.3727e-006     -1.683e-008     1.6906e-009    
  0.35            6.7406e-006     -1.0968e-008    -5.636e-010    
  0.4             7.1103e-006     1.7014e-008     -2.0527e-009   
  0.45            7.3647e-006     1.0764e-008     1.683e-010     
  0.5             7.5506e-006     -1.3385e-008    2.6737e-009    
  0.55            7.7991e-006     -1.2278e-008    1.706e-010     
  0.6             8.1187e-006     1.1335e-008     -2.7335e-009   
  0.65            8.3165e-006     1.8639e-008     -1.5918e-009   
  0.7             8.4871e-006     9.382e-009      2.1278e-009    
  0.75            8.6816e-006     -1.3395e-008    3.131e-010     
  0.8             8.9693e-006     1.0315e-008     -1.3288e-009   
  0.85            9.1759e-006     1.0954e-008     9.11e-011      
  0.9             9.2659e-006     -1.1932e-008    2.7466e-009    
  0.95            9.4622e-006     -1.2726e-008    2.373e-010     
  1               9.7553e-006     1.0962e-008     -1.3162e-009   
  1.05            9.9356e-006     1.952e-008      -1.8277e-009   
  1.1             1.01012e-005    1.0324e-008     3.408e-010     
  1.15            1.01978e-005    -1.5809e-008    2.4884e-009    
  1.2             1.03787e-005    -1.1774e-008    2.23e-011      
  1.25            1.06661e-005    1.1157e-008     -2.6417e-009   
  1.3             1.08076e-005    1.4768e-008     -1.4729e-009   
  1.35            1.0912e-005     1.0502e-008     7.161e-010     
  1.4             1.10683e-005    -2.0509e-008    1.9065e-009    
  1.45            1.1232e-005     2.757e-009      1.2932e-009    
  1.5             1.1422e-005     -1.0858e-008    -5.016e-010    
  1.55            1.1672e-005     2.3003e-008     -1.5242e-009   
  1.6             1.1715e-005     1.0784e-008     1.1085e-009    
  1.65            1.1878e-005     -2.4361e-008    1.2597e-009    
  1.7             1.2149e-005     -1.1849e-008    -1.793e-009    
  1.75            1.2285e-005     1.2657e-008     -1.937e-010    
  1.8             1.2339e-005     -1.5364e-008    2.5297e-009    
  1.85            1.2523e-005     -1.1015e-008    -5.213e-010    
  1.9             1.2764e-005     2.3032e-008     -1.5122e-009   
  1.95            1.2799e-005     1.0614e-008     1.1199e-009    
  2               1.2973e-005     -2.4403e-008    1.2575e-009    
  2.05            1.321e-005      -1.2101e-008    -1.8028e-009   
  2.1             1.3361e-005     1.9222e-008     -1.8148e-009   
  2.15            1.3516e-005     2.5197e-008     -1.3986e-009   
  2.2             1.3657e-005     1.952e-008      -1.7473e-009   
  2.25            1.3793e-005     2.5317e-008     -1.3822e-009   
  2.3             1.394e-005      1.9654e-008     -1.6774e-009   
  2.35            1.4089e-005     1.2287e-008     -2.3314e-009   
  2.4             1.422e-005      1.9388e-008     -1.6156e-009   
  2.45            1.4368e-005     1.2252e-008     -2.249e-009    
  2.5             1.4463e-005     1.9035e-008     -1.5617e-009   
  2.55            1.4644e-005     1.1797e-008     -2.1693e-009   
  2.6             1.4784e-005     6.514e-009      -2.6686e-009   
  2.65            1.4916e-005     1.0857e-008     -2.0843e-009   
  2.7             1.506e-005      4.26e-009       -2.6318e-009   
  2.75            1.5155e-005     9.342e-009      -1.9974e-009   
  2.8             1.5327e-005     1.447e-009      -2.5868e-009   
  2.85            1.546e-005      7.004e-009      -1.9146e-009   
  2.9             1.5493e-005     -5.02e-009      2.3113e-009    
  2.95            1.5635e-005     -2.6713e-008    -4.555e-010    
  3               1.5831e-005     -1.206e-008     -1.4085e-009   
  3.05            1.5916e-005     -1.2531e-008    2.7192e-009    
  3.1             1.6093e-005     -3.6349e-008    -1.022e-009    
  3.15            1.624e-005      -1.02e-010      -1.3429e-009   
  3.2             1.6315e-005     -2.571e-008     2.9017e-009    
  3.25            1.6547e-005     -4.8726e-008    -1.3034e-009   
  3.3             1.6653e-005     -1.8293e-008    -1.851e-009    
  3.35            1.672e-005      -3.994e-008     2.3451e-009    
  3.4             1.6858e-005     -6.63e-008      -5.077e-010    
  3.45            1.7039e-005     -3.9401e-008    -1.5197e-009   
  3.5             1.7142e-005     -6.1812e-008    2.5594e-009    
  3.55            1.7303e-005     -9.1721e-008    -8.496e-010    
  3.6             1.75e-005       -6.362e-008     -1.384e-009    
  3.65            1.7563e-005     -1.16638e-007   5.63e-011      
  3.7             1.7749e-005     -1.2627e-007    -9.931e-010    
  3.75            1.7928e-005     -9.958e-008     -1.3493e-009   
  3.8             1.7984e-005     -1.3574e-007    2.8836e-009    
  3.85            1.8224e-005     -1.7177e-007    -1.2704e-009   
  3.9             1.8373e-005     -1.53e-007      -1.9016e-009   
  3.95            1.8397e-005     -1.8985e-007    2.3134e-009    
  4               1.8578e-005     -2.3229e-007    -4.701e-010    
  4.05            1.8825e-005     -2.2247e-007    -1.5476e-009   
  4.1             1.8907e-005     -2.6204e-007    2.5339e-009    
  4.15            1.9101e-005     -3.1207e-007    -8.14e-010     
  4.2             1.9329e-005     -3.0441e-007    -1.3931e-009   
  4.25            1.9403e-005     -3.549e-007     2.7697e-009    
  4.3             1.9639e-005     -4.1431e-007    -1.0808e-009   
  4.35            1.9847e-005     -4.1192e-007    -1.3318e-009   
  4.4             1.9924e-005     -4.7691e-007    2.9159e-009    
  4.45            2.0182e-005     -5.4292e-007    -1.3747e-009   
  4.5             2.0385e-005     -5.5534e-007    -1.7629e-009   
  4.55            2.0493e-005     -6.221e-007     2.39e-009      
  4.6             2.0702e-005     -7.0091e-007    -5.832e-010    
  4.65            2.0994e-005     -7.2415e-007    -1.4748e-009   
  4.7             2.1108e-005     -8.0395e-007    2.6093e-009    
  4.75            2.1358e-005     -8.9472e-007    -9.109e-010    
  4.8             2.1649e-005     -9.2598e-007    -1.3671e-009   
  4.85            2.1759e-005     -1.02321e-006   2.841e-009     
  4.9             2.2083e-005     -1.13164e-006   -1.1777e-009   
  4.95            2.2296e-005     -1.2035e-006    -1.43e-009     
  5               2.2483e-005     -1.2881e-006    2.672e-009     
END_DB

BEGIN_DB
 ICCAP_VAR VG         2              
 ICCAP_VAR VS         0              
 ICCAP_VAR VB         0              

 #VD              ID              IB              IG             
  0               -1.8691e-007    -2.6201e-008    1.3065e-009    
  0.05            1.3583e-005     1.2687e-008     -2.155e-009    
  0.1             2.6573e-005     1.0247e-008     3.768e-010     
  0.15            3.8873e-005     -2.1478e-008    1.657e-009     
  0.2             5.0516e-005     -1.1603e-008    -1.0759e-009   
  0.25            6.1328e-005     2.7698e-008     -1.3304e-009   
  0.3             7.1176e-005     1.1421e-008     1.6706e-009    
  0.35            8.0244e-005     -1.301e-008     2.857e-010     
  0.4             8.8525e-005     1.2546e-008     -2.4421e-009   
  0.45            9.5759e-005     1.0414e-008     3.947e-010     
  0.5             0.000102044     -2.1771e-008    1.6289e-009    
  0.55            0.000107579     -1.1805e-008    9.46e-011      
  0.6             0.000112579     1.5837e-008     -2.1721e-009   
  0.65            0.00011659      1.3518e-008     2.0093e-009    
  0.7             0.00012011      -1.1099e-008    -1.51e-010     
  0.75            0.00012324      2.1276e-008     -1.6652e-009   
  0.8             0.00012574      1.1382e-008     -4e-011        
  0.85            0.00012778      -1.9444e-008    2.0845e-009    
  0.9             0.00012963      -1.2744e-008    2.432e-010     
  0.95            0.00013147      1.5165e-008     -2.2326e-009   
  1               0.00013281      1.0557e-008     7.047e-010     
  1.05            0.00013397      -2.5573e-008    1.3191e-009    
  1.1             0.00013526      -1.1002e-008    -5.183e-010    
  1.15            0.00013647      2.4581e-008     -1.4344e-009   
  1.2             0.00013738      1.0394e-008     2.761e-010     
  1.25            0.0001381       -2.1864e-008    1.6204e-009    
  1.3             0.000139        -1.1485e-008    -2.15e-011     
  1.35            0.00014003      2.0056e-008     -1.8029e-009   
  1.4             0.00014072      1.2229e-008     -1.396e-010    
  1.45            0.00014129      -1.7824e-008    2.2617e-009    
  1.5             0.00014213      -1.1352e-008    -8.536e-010    
  1.55            0.00014287      2.7563e-008     -1.351e-009    
  1.6             0.00014318      1.1389e-008     1.6661e-009    
  1.65            0.00014389      -1.2151e-008    1.79e-010      
  1.7             0.00014471      1.6405e-008     -2.1242e-009   
  1.75            0.00014511      1.0666e-008     7.776e-010     
  1.8             0.00014556      -2.6174e-008    1.2988e-009    
  1.85            0.00014619      -1.1042e-008    -6.077e-010    
  1.9             0.0001469       2.5352e-008     -1.4071e-009   
  1.95            0.00014729      1.029e-008      3.544e-010     
  2               0.00014759      -2.2757e-008    1.535e-009     
  2.05            0.00014811      -1.1445e-008    -1.184e-010    
  2.1             0.00014879      2.0593e-008     -1.708e-009    
  2.15            0.00014918      1.1256e-008     -7.15e-011     
  2.2             0.00014941      -1.9372e-008    2.1405e-009    
  2.25            0.00015001      -1.2501e-008    -9.237e-010    
  2.3             0.00015052      1.0023e-008     -2.7161e-009   
  2.35            0.00015092      9.137e-009      1.426e-010     
  2.4             0.00015105      -2.3029e-008    1.786e-009     
  2.45            0.00015165      -1.4408e-008    -1.1063e-009   
  2.5             0.00015211      7.579e-009      -2.5889e-009   
  2.55            0.00015247      1.5528e-008     -1.7575e-009   
  2.6             0.00015279      8.494e-009      -2.2403e-009   
  2.65            0.00015322      3.05e-009       -2.6126e-009   
  2.7             0.00015351      9.758e-009      -1.8098e-009   
  2.75            0.00015374      -3.816e-009     2.4541e-009    
  2.8             0.00015419      -2.7171e-008    -8.262e-010    
  2.85            0.00015449      -2.5368e-008    -2.7929e-009   
  2.9             0.0001546       -1.2596e-008    1.3864e-009    
  2.95            0.00015501      -4.4222e-008    1.5861e-009    
  3               0.00015545      -4.3366e-008    -2.6045e-009   
  3.05            0.00015572      -3.0655e-008    9.839e-010     
  3.1             0.00015603      -7.4408e-008    1.2616e-009    
  3.15            0.00015648      -6.305e-008     -2.7533e-009   
  3.2             0.00015659      -5.8527e-008    1.6308e-009    
  3.25            0.00015695      -9.4452e-008    2.092e-010     
  3.3             0.0001576       -8.0262e-008    -4.512e-010    
  3.35            0.00015762      -1.2341e-007    2.0909e-009    
  3.4             0.00015796      -1.4111e-007    -2.68e-010     
  3.45            0.00015847      -1.2857e-007    -1.5756e-009   
  3.5             0.00015864      -1.6561e-007    2.6072e-009    
  3.55            0.00015908      -2.1218e-007    -1.002e-009    
  3.6             0.00015951      -2.0263e-007    -1.3238e-009   
  3.65            0.00015963      -2.5831e-007    2.9132e-009    
  3.7             0.00016018      -3.1265e-007    -1.6562e-009   
  3.75            0.00016042      -3.2968e-007    -2.149e-010    
  3.8             0.00016054      -4.0608e-007    2.3945e-009    
  3.85            0.00016105      -4.5117e-007    -2.1357e-009   
  3.9             0.00016144      -4.8975e-007    4.699e-010     
  3.95            0.0001616       -5.8909e-007    1.4296e-009    
  4               0.00016212      -6.453e-007     -2.7129e-009   
  4.05            0.00016239      -7.0662e-007    1.1304e-009    
  4.1             0.0001628       -8.2739e-007    1.9917e-009    
  4.15            0.00016325      -9.1249e-007    -2.3422e-009   
