! VERSION = 6.00
BEGIN_HEADER
 ICCAP_INPUTS
  VG         V  B GROUND SMU4 0.001 LIN        1    0          5          101  0.05      
  VS         V  E GROUND SMU3 0.1 CON        0
  VB         V  C GROUND SMU1 0.1 LIN        3    0          -5         3    -2.5      
  VD         V  S GROUND SMU2 0.1 LIN        2    0.1        5          2    4.9       
 ICCAP_OUTPUTS
  IG         I  B GROUND SMU4 B
  ID         I  S GROUND SMU2 B
  IB         I  C GROUND SMU1 B
END_HEADER

BEGIN_DB
 ICCAP_VAR VS         0              
 ICCAP_VAR VB         0              
 ICCAP_VAR VD         0.1            

 #VG              IG              ID              IB             
  0               2.235e-010      -1.2226e-009    -1.3541e-008   
  0.05            1.3497e-009     -1.9828e-009    -1.2702e-008   
  0.1             -1.3588e-009    1.9225e-009     1.2629e-008    
  0.15            1.3672e-009     -1.8713e-009    -1.2621e-008   
  0.2             -1.3733e-009    1.8107e-009     1.2425e-008    
  0.25            1.3813e-009     -1.7512e-009    -1.2487e-008   
  0.3             -1.3953e-009    1.7534e-009     1.2329e-008    
  0.35            1.3976e-009     -1.4479e-009    -1.2499e-008   
  0.4             -1.411e-009     2.4134e-009     1.2372e-008    
  0.45            1.3807e-009     2.6166e-009     -1.258e-008    
  0.5             1.263e-009      1.2981e-008     1.2366e-008    
  0.55            -1.4088e-009    4.217e-008      1.3033e-008    
  0.6             -1.3475e-009    1.3068e-007     -1.0478e-008   
  0.65            1.4119e-009     3.3965e-007     -1.3094e-008   
  0.7             -1.381e-009     7.7324e-007     1.2505e-008    
  0.75            1.1116e-009     1.4656e-006     1.2348e-008    
  0.8             -1.3565e-009    2.4883e-006     1.3259e-008    
  0.85            1.4022e-009     3.8158e-006     -1.2998e-008   
  0.9             -1.3917e-009    5.4902e-006     1.2688e-008    
  0.95            1.3302e-009     7.3598e-006     -1.2582e-008   
  1               -1.4174e-009    9.4427e-006     1.3197e-008    
  1.05            -8.56e-010      1.1581e-005     1.3145e-008    
  1.1             1.3451e-009     1.3733e-005     -1.2416e-008   
  1.15            -1.4187e-009    1.5898e-005     1.3178e-008    
  1.2             1.3759e-009     1.7935e-005     -1.2519e-008   
  1.25            -1.3162e-009    1.9956e-005     1.2625e-008    
  1.3             1.4063e-009     2.1852e-005     -1.315e-008    
  1.35            -1.349e-009     2.3706e-005     1.2326e-008    
  1.4             1.4104e-009     2.5432e-005     -1.3129e-008   
  1.45            -1.3825e-009    2.7145e-005     1.2543e-008    
  1.5             1.3247e-009     2.8727e-005     -1.2714e-008   
  1.55            -1.4171e-009    3.0296e-005     1.3163e-008    
  1.6             1.354e-009      3.1766e-005     -1.2421e-008   
  1.65            -1.4123e-009    3.3247e-005     1.3091e-008    
  1.7             1.3893e-009     3.462e-005      -1.2637e-008   
  1.75            -1.328e-009     3.5998e-005     1.2513e-008    
  1.8             1.4134e-009     3.7295e-005     -1.3226e-008   
  1.85            -1.3615e-009    3.8585e-005     1.2354e-008    
  1.9             1.3203e-009     3.9808e-005     -1.2936e-008   
  1.95            -1.415e-009     4.1022e-005     1.3115e-008    
  2               1.3541e-009     4.2173e-005     -1.2468e-008   
  2.05            -1.4145e-009    4.3323e-005     1.3165e-008    
  2.1             1.3848e-009     4.4425e-005     -1.2616e-008   
  2.15            -1.3243e-009    4.5505e-005     1.2626e-008    
  2.2             1.4127e-009     4.6559e-005     -1.3236e-008   
  2.25            -1.3576e-009    4.7617e-005     1.2314e-008    
  2.3             1.4038e-009     4.8609e-005     -1.2971e-008   
  2.35            -1.3933e-009    4.9617e-005     1.2637e-008    
  2.4             1.3314e-009     5.0578e-005     -1.2612e-008   
  2.45            -1.4199e-009    5.1537e-005     1.3232e-008    
  2.5             1.3686e-009     5.2449e-005     -1.2375e-008   
  2.55            -1.3218e-009    5.3376e-005     1.2921e-008    
  2.6             1.4097e-009     5.425e-005      -1.3218e-008   
  2.65            -1.3557e-009    5.5138e-005     1.2288e-008    
  2.7             1.4069e-009     5.5983e-005     -1.306e-008    
  2.75            -1.3877e-009    5.6857e-005     1.2571e-008    
  2.8             1.3269e-009     5.7663e-005     -1.2627e-008   
  2.85            -1.4178e-009    5.8493e-005     1.3213e-008    
  2.9             1.36e-009       5.9287e-005     -1.2462e-008   
  2.95            -1.406e-009     6.0067e-005     1.2998e-008    
  3               1.3944e-009     6.0839e-005     -1.2787e-008   
  3.05            -1.3334e-009    6.1602e-005     1.2505e-008    
  3.1             1.4131e-009     6.2337e-005     -1.3299e-008   
  3.15            -1.3665e-009    6.3085e-005     1.2301e-008    
  3.2             1.3241e-009     6.3794e-005     -1.2956e-008   
  3.25            -1.4172e-009    6.4509e-005     1.3147e-008    
  3.3             1.3574e-009     6.5193e-005     -1.2367e-008   
  3.35            -1.4104e-009    6.589e-005      1.3097e-008    
  3.4             1.3912e-009     6.656e-005      -1.2701e-008   
  3.45            -1.3308e-009    6.7232e-005     1.256e-008     
  3.5             1.4134e-009     6.7872e-005     -1.3285e-008   
  3.55            -1.3617e-009    6.852e-005      1.2358e-008    
  3.6             1.3206e-009     6.9149e-005     -1.2932e-008   
  3.65            -1.4164e-009    6.9773e-005     1.3075e-008    
  3.7             1.3533e-009     7.0384e-005     -1.2389e-008   
  3.75            -1.4116e-009    7.0981e-005     1.308e-008     
  3.8             1.3869e-009     7.1582e-005     -1.2649e-008   
  3.85            -1.3302e-009    7.2171e-005     1.2617e-008    
  3.9             1.4113e-009     7.2742e-005     -1.3272e-008   
  3.95            -1.3618e-009    7.3304e-005     1.2401e-008    
  4               1.3173e-009     7.3856e-005     -1.3074e-008   
  4.05            -1.412e-009     7.4424e-005     1.307e-008     
  4.1             1.3477e-009     7.4959e-005     -1.2479e-008   
  4.15            -1.414e-009     7.5485e-005     1.3148e-008    
  4.2             1.3833e-009     7.6001e-005     -1.2593e-008   
  4.25            -1.3248e-009    7.6548e-005     1.2648e-008    
  4.3             1.4111e-009     7.7033e-005     -1.327e-008    
  4.35            -1.3595e-009    7.7552e-005     1.2297e-008    
  4.4             1.4019e-009     7.8034e-005     -1.3073e-008   
  4.45            -1.3919e-009    7.8537e-005     1.2713e-008    
  4.5             1.3299e-009     7.9001e-005     -1.2634e-008   
  4.55            -1.4183e-009    7.9467e-005     1.3151e-008    
  4.6             1.363e-009      7.9941e-005     -1.2427e-008   
  4.65            -1.3255e-009    8.0408e-005     1.2942e-008    
  4.7             1.4096e-009     8.0852e-005     -1.3181e-008   
  4.75            -1.3549e-009    8.1293e-005     1.2345e-008    
  4.8             1.403e-009      8.1723e-005     -1.3052e-008   
  4.85            -1.3905e-009    8.2163e-005     1.2601e-008    
  4.9             1.3267e-009     8.2568e-005     -1.266e-008    
  4.95            -1.4181e-009    8.3005e-005     1.3162e-008    
  5               1.3577e-009     8.3414e-005     -1.2461e-008   
END_DB

BEGIN_DB
 ICCAP_VAR VS         0              
 ICCAP_VAR VB         0              
 ICCAP_VAR VD         5              

 #VG              IG              ID              IB             
  0               -6.171e-010     -2.2925e-009    1.297e-008     
  0.05            1.3208e-009     -1.3341e-009    -1.3244e-008   
  0.1             -1.3473e-009    1.2352e-009     1.2811e-008    
  0.15            1.3527e-009     -1.9359e-009    -1.2666e-008   
  0.2             -1.3662e-009    1.9189e-009     1.2606e-008    
  0.25            1.3678e-009     -1.7034e-009    -1.243e-008    
  0.3             -1.3825e-009    2.3333e-009     1.2338e-008    
  0.35            1.3857e-009     1.7717e-009     -1.2911e-008   
  0.4             1.4057e-009     1.1695e-008     -1.3398e-008   
  0.45            1.3208e-009     3.3471e-008     -1.5494e-008   
  0.5             1.3158e-009     1.2276e-007     -1.9669e-008   
  0.55            1.4144e-009     3.6998e-007     -4.1323e-008   
  0.6             6.421e-010      9.7188e-007     -5.9893e-008   
  0.65            -1.3116e-009    2.1768e-006     -1.5825e-007   
  0.7             -9.59e-010      4.2075e-006     -2.8989e-007   
  0.75            1.3112e-009     7.289e-006      -4.871e-007    
  0.8             -1.3089e-009    1.1619e-005     -7.0983e-007   
  0.85            1.4074e-009     1.6898e-005     -1.02156e-006  
  0.9             -1.3789e-009    2.3485e-005     -1.3456e-006   
  0.95            -7.619e-010     3.0861e-005     -1.7365e-006   
  1               1.3773e-009     3.9129e-005     -2.1287e-006   
  1.05            7.589e-010      4.8325e-005     -2.502e-006    
  1.1             -1.383e-009     5.8477e-005     -2.9005e-006   
  1.15            -7.61e-010      6.8754e-005     -3.3147e-006   
  1.2             1.3784e-009     7.9508e-005     -3.6972e-006   
  1.25            7.574e-010      9.099e-005      -4.0369e-006   
  1.3             -1.3833e-009    0.000102812     -4.3778e-006   
  1.35            -1.4188e-009    0.00011494      -4.7123e-006   
  1.4             -1.4082e-009    0.00012725      -5.0148e-006   
  1.45            -5.937e-010     0.00013982      -5.3075e-006   
  1.5             1.3182e-009     0.00015257      -5.5613e-006   
  1.55            9.306e-010      0.00016561      -5.7676e-006   
  1.6             -1.3234e-009    0.00017897      -5.9716e-006   
  1.65            -9.31e-010      0.00019229      -6.1796e-006   
  1.7             1.3179e-009     0.00020565      -6.3463e-006   
  1.75            9.28e-010       0.00021937      -6.4645e-006   
  1.8             -1.3244e-009    0.00023331      -6.5783e-006   
  1.85            -9.284e-010     0.00024708      -6.6956e-006   
  1.9             1.3216e-009     0.00026091      -6.7844e-006   
  1.95            9.203e-010      0.00027502      -6.8244e-006   
  2               -1.3248e-009    0.00028928      -6.8612e-006   
  2.05            -9.265e-010     0.00030341      -6.9084e-006   
  2.1             1.3207e-009     0.00031751      -6.9263e-006   
  2.15            9.212e-010      0.0003319       -6.9042e-006   
  2.2             -1.3254e-009    0.00034639      -6.8804e-006   
  2.25            -9.22e-010      0.00036076      -6.8707e-006   
  2.3             1.323e-009      0.000375        -6.8343e-006   
  2.35            9.148e-010      0.00038956      -6.7672e-006   
  2.4             -1.3269e-009    0.00040422      -6.6981e-006   
  2.45            -9.183e-010     0.00041869      -6.6455e-006   
  2.5             1.3242e-009     0.00043311      -6.5719e-006   
  2.55            9.083e-010      0.00044778      -6.4675e-006   
  2.6             -1.3302e-009    0.00046244      -6.3674e-006   
  2.65            -9.138e-010     0.00047704      -6.2829e-006   
  2.7             1.3257e-009     0.00049156      -6.1872e-006   
  2.75            9.089e-010      0.00050659      -6.0619e-006   
  2.8             -1.3301e-009    0.00052142      -5.9409e-006   
  2.85            -9.093e-010     0.00053598      -5.8374e-006   
  2.9             1.3271e-009     0.00055054      -5.7254e-006   
  2.95            9.028e-010      0.00056536      -5.5851e-006   
  3               -1.3315e-009    0.00058016      -5.4542e-006   
  3.05            -9.037e-010     0.00059477      -5.3439e-006   
  3.1             1.3282e-009     0.00060932      -5.2203e-006   
  3.15            9e-010          0.00062409      -5.0752e-006   
  3.2             -1.3335e-009    0.00063901      -4.9404e-006   
  3.25            -9.035e-010     0.00065359      -4.8286e-006   
  3.3             1.3274e-009     0.0006682       -4.7084e-006   
  3.35            8.952e-010      0.0006829       -4.5644e-006   
  3.4             -1.3334e-009    0.00069778      -4.4304e-006   
  3.45            -8.974e-010     0.00071238      -4.3209e-006   
  3.5             1.3313e-009     0.00072692      -4.2025e-006   
  3.55            8.928e-010      0.00074162      -4.0616e-006   
  3.6             -1.335e-009     0.00075644      -3.9319e-006   
  3.65            -8.923e-010     0.00077102      -3.8279e-006   
  3.7             1.332e-009      0.00078544      -3.7182e-006   
  3.75            8.914e-010      0.00080015      -3.5816e-006   
  3.8             -1.3369e-009    0.00081492      -3.4609e-006   
  3.85            -8.928e-010     0.00082937      -3.3649e-006   
  3.9             1.3337e-009     0.00084387      -3.2611e-006   
  3.95            8.868e-010      0.00085832      -3.1355e-006   
  4               -1.3355e-009    0.00087305      -3.0244e-006   
  4.05            -8.887e-010     0.00088743      -2.9415e-006   
  4.1             1.3342e-009     0.00090178      -2.8459e-006   
  4.15            8.856e-010      0.00091629      -2.7317e-006   
  4.2             -1.3381e-009    0.00093092      -2.6267e-006   
  4.25            -8.844e-010     0.00094527      -2.5527e-006   
  4.3             1.3362e-009     0.00095945      -2.4693e-006   
  4.35            8.799e-010      0.00097395      -2.3623e-006   
  4.4             -1.3364e-009    0.00098864      -2.2695e-006   
  4.45            -8.843e-010     0.00100289      -2.2053e-006   
  4.5             1.3386e-009     0.00101702      -2.1311e-006   
  4.55            8.812e-010      0.00103136      -2.0356e-006   
  4.6             -1.3377e-009    0.00104572      -1.9547e-006   
  4.65            -8.815e-010     0.00105991      -1.8999e-006   
  4.7             1.3371e-009     0.00107391      -1.8368e-006   
  4.75            8.787e-010      0.00108805      -1.7496e-006   
  4.8             -1.3389e-009    0.00110227      -1.6807e-006   
  4.85            -8.798e-010     0.00111634      -1.6318e-006   
  4.9             1.3379e-009     0.00113024      -1.577e-006    
  4.95            1.3296e-009     0.0011451       -1.5016e-006   
  5               9.124e-010      0.0011591       -1.4406e-006   
END_DB

BEGIN_DB
 ICCAP_VAR VS         0              
 ICCAP_VAR VB         -2.5           
 ICCAP_VAR VD         0.1            

 #VG              IG              ID              IB             
  0               -2.075e-010     1.7853e-009     -2.1277e-008   
  0.05            1.3699e-009     -5.928e-010     -2.0429e-008   
  0.1             7.039e-010      2.213e-009      -4.225e-009    
  0.15            1.3704e-009     -2.3983e-009    -1.2832e-008   
  0.2             7.05e-010       2.2096e-009     -4.273e-009    
  0.25            -7.254e-010     -2.1993e-009    -1.7717e-008   
  0.3             1.4176e-009     -1.4819e-009    -2.4071e-008   
  0.35            -6.561e-010     -2.2547e-009    -1.8077e-008   
  0.4             1.3271e-009     -1.3312e-009    -2.4433e-008   
  0.45            -6.949e-010     -2.2248e-009    -1.7812e-008   
  0.5             1.4113e-009     -1.4147e-009    -2.4337e-008   
  0.55            -6.245e-010     -2.2768e-009    -1.8859e-008   
  0.6             1.3388e-009     -1.2701e-009    -2.4297e-008   
  0.65            7.748e-010      2.1604e-009     -4.454e-009    
  0.7             -7.963e-010     -2.0807e-009    -1.767e-008    
  0.75            1.4006e-009     -1.4526e-009    -2.3597e-008   
  0.8             1.4135e-009     -1.3294e-009    -1.7124e-008   
  0.85            -7.643e-010     1.801e-009      -1.7579e-008   
  0.9             -1.4235e-009    1.664e-008      -1.9414e-008   
  0.95            1.318e-009      6.2617e-008     -1.3938e-008   
  1               1.3426e-009     1.985e-007      -1.7579e-008   
  1.05            -9.472e-010     5.2274e-007     -1.7515e-008   
  1.1             1.3171e-009     1.1254e-006     -2.3792e-008   
  1.15            -1.4177e-009    2.0724e-006     -2.3336e-008   
  1.2             -6.718e-010     3.3301e-006     -1.9841e-008   
  1.25            1.415e-009      4.9072e-006     -2.4457e-008   
  1.3             -7.49e-010      6.8025e-006     -1.7848e-008   
  1.35            1.3841e-009     8.8248e-006     -2.378e-008    
  1.4             -8.433e-010     1.09902e-005    -1.7607e-008   
  1.45            -1.1189e-009    1.3162e-005     -4.336e-009    
  1.5             1.4e-009        1.5252e-005     -2.3177e-008   
  1.55            -7.803e-010     1.7324e-005     -1.7746e-008   
  1.6             1.3656e-009     1.9265e-005     -2.3582e-008   
  1.65            7.826e-010      2.1164e-005     -4.271e-009    
  1.7             -9.064e-010     2.2966e-005     -1.763e-008    
  1.75            1.327e-009      2.4672e-005     -2.3754e-008   
  1.8             9.006e-010      2.6318e-005     -4.392e-009    
  1.85            -6.364e-010     2.7888e-005     -2.1076e-008   
  1.9             1.4151e-009     2.9386e-005     -2.4272e-008   
  1.95            -7.124e-010     3.0851e-005     -1.8196e-008   
  2               1.3977e-009     3.2236e-005     -2.4185e-008   
  2.05            -7.95e-010      3.3588e-005     -1.7703e-008   
  2.1             1.3622e-009     3.4885e-005     -2.3587e-008   
  2.15            7.945e-010      3.615e-005      -4.305e-009    
  2.2             -9.219e-010     3.7366e-005     -1.7583e-008   
  2.25            1.3238e-009     3.856e-005      -2.3687e-008   
  2.3             9.208e-010      3.9715e-005     -4.409e-009    
  2.35            -6.436e-010     4.0841e-005     -2.0752e-008   
  2.4             1.4101e-009     4.1934e-005     -2.4432e-008   
  2.45            -7.223e-010     4.3e-005        -1.8063e-008   
  2.5             1.3911e-009     4.4025e-005     -2.3987e-008   
  2.55            -8.057e-010     4.5049e-005     -1.769e-008    
  2.6             1.3556e-009     4.6028e-005     -2.3636e-008   
  2.65            8.068e-010      4.7001e-005     -4.325e-009    
  2.7             -9.415e-010     4.7946e-005     -1.7525e-008   
  2.75            1.3206e-009     4.8879e-005     -2.3622e-008   
  2.8             9.379e-010      4.9788e-005     -4.424e-009    
  2.85            -6.601e-010     5.0678e-005     -2.0375e-008   
  2.9             1.412e-009      5.1543e-005     -2.4601e-008   
  2.95            -7.354e-010     5.2392e-005     -1.7957e-008   
  3               1.3866e-009     5.322e-005      -2.3902e-008   
  3.05            -8.217e-010     5.405e-005      -1.7642e-008   
  3.1             1.3519e-009     5.4847e-005     -2.3591e-008   
  3.15            8.198e-010      5.5645e-005     -4.386e-009    
  3.2             -9.625e-010     5.6419e-005     -1.7523e-008   
  3.25            1.3155e-009     5.717e-005      -2.3608e-008   
  3.3             9.598e-010      5.7928e-005     -4.516e-009    
  3.35            -6.683e-010     5.8661e-005     -1.9952e-008   
  3.4             1.4136e-009     5.9376e-005     -2.4569e-008   
  3.45            -7.479e-010     6.0089e-005     -1.7899e-008   
  3.5             1.3824e-009     6.0778e-005     -2.3884e-008   
  3.55            -8.371e-010     6.1472e-005     -1.763e-008    
  3.6             1.3506e-009     6.2148e-005     -2.361e-008    
  3.65            8.367e-010      6.2817e-005     -4.397e-009    
  3.7             -9.818e-010     6.3465e-005     -1.741e-008    
  3.75            1.4101e-009     6.4113e-005     -2.3615e-008   
  3.8             -7.017e-010     6.4723e-005     -1.8671e-008   
  3.85            1.4022e-009     6.5364e-005     -2.4339e-008   
  3.9             -7.8e-010       6.5977e-005     -1.7815e-008   
  3.95            1.3663e-009     6.6571e-005     -2.3651e-008   
  4               7.809e-010      6.7179e-005     -4.326e-009    
  4.05            -9.032e-010     6.7756e-005     -1.7631e-008   
  4.1             1.3295e-009     6.8318e-005     -2.3696e-008   
  4.15            9.026e-010      6.8897e-005     -4.308e-009    
