! VERSION = 6.00
BEGIN_HEADER
 ICCAP_INPUTS
  VG         V  B GROUND SMU4 0.001 LIN        2    0          5          6    1         
  VS         V  E GROUND SMU2 0.1 CON        0
  VD         V  S GROUND SMU1 0.1 LIN        1    0          5          101  0.05      
  VB         V  C GROUND SMU3 0.1 LIN        3    0          -2.5       2    -2.5      
 ICCAP_OUTPUTS
  ID         I  S GROUND SMU1 B
  IB         I  C GROUND SMU3 B
  IG         I  B GROUND SMU4 B
END_HEADER

BEGIN_DB
 ICCAP_VAR VG         0              
 ICCAP_VAR VS         0              
 ICCAP_VAR VB         0              

 #VD              ID              IB              IG             
  0               -8.271e-010     1.2212e-008     -8.006e-010    
  0.05            2.172e-010      1.2536e-008     -2.6685e-009   
  0.1             -1.2838e-009    8.15e-010       -1.9669e-009   
  0.15            -1.7049e-009    -1.3008e-008    1.6801e-009    
  0.2             1.5953e-009     -8.951e-009     1.7856e-009    
  0.25            2.3002e-009     1.0425e-008     3.741e-010     
  0.3             2.3745e-009     1.0834e-008     5.608e-010     
  0.35            1.5192e-009     2.3059e-008     -1.3262e-009   
  0.4             1.463e-010      1.1833e-008     -2.711e-009    
  0.45            -1.3359e-009    6.37e-010       -1.9174e-009   
  0.5             -2.2786e-009    -1.14e-008      -5.966e-010    
  0.55            -2.2768e-009    -1.1839e-008    -7.943e-010    
  0.6             -1.6138e-009    -1.6213e-008    2.028e-009     
  0.65            1.8873e-009     -8.382e-009     1.5652e-009    
  0.7             2.1671e-009     1.0297e-008     1.421e-010     
  0.75            2.2781e-009     1.0448e-008     3.364e-010     
  0.8             2.3614e-009     1.0611e-008     5.218e-010     
  0.85            1.4826e-009     2.3889e-008     -1.332e-009    
  0.9             1.135e-010      1.1473e-008     -2.7295e-009   
  0.95            -1.3666e-009    4.21e-010       -1.8967e-009   
  1               -2.2687e-009    -1.1205e-008    -5.55e-010     
  1.05            -1.492e-009     -2.1126e-008    1.2723e-009    
  1.1             -6.38e-011      -1.1904e-008    2.8933e-009    
  1.15            2.1108e-009     1.035e-008      5.2e-011       
  1.2             2.2246e-009     1.0355e-008     2.422e-010     
  1.25            2.3238e-009     1.0417e-008     4.307e-010     
  1.3             1.414e-009      2.5657e-008     -1.3487e-009   
  1.35            4.37e-011       1.1248e-008     -1.3168e-009   
  1.4             2.008e-010      1.225e-008      -2.6793e-009   
  1.45            -1.2979e-009    8.34e-010       -1.9506e-009   
  1.5             -2.2793e-009    -1.1572e-008    -6.597e-010    
  1.55            -1.5527e-009    -1.8856e-008    1.2567e-009    
  1.6             -1.646e-010     -1.3671e-008    2.8523e-009    
  1.65            2.1717e-009     1.0234e-008     1.603e-010     
  1.7             2.2843e-009     1.043e-008      3.469e-010     
  1.75            2.3615e-009     1.0605e-008     5.354e-010     
  1.8             1.4931e-009     2.3732e-008     -1.3314e-009   
  1.85            1.355e-010      1.152e-008      -2.7251e-009   
  1.9             -1.3538e-009    6.48e-010       -1.9055e-009   
  1.95            -2.2711e-009    -1.1243e-008    -5.688e-010    
  2               -2.2794e-009    -1.1678e-008    -7.765e-010    
  2.05            -1.6039e-009    -1.6509e-008    2.0576e-009    
  2.1             1.9089e-009     -8.447e-009     1.5426e-009    
  2.15            2.1572e-009     1.0302e-008     1.324e-010     
  2.2             2.2719e-009     1.0332e-008     3.208e-010     
  2.25            2.3573e-009     1.0593e-008     5.101e-010     
  2.3             1.4734e-009     2.4231e-008     -1.3355e-009   
  2.35            1.075e-010      1.1217e-008     -2.7329e-009   
  2.4             -1.3706e-009    3.56e-010       -1.8931e-009   
  2.45            -2.2693e-009    -1.1236e-008    -5.457e-010    
  2.5             -1.4818e-009    -2.1367e-008    1.2736e-009    
  2.55            -5.5e-011       -1.1694e-008    2.8986e-009    
  2.6             2.1027e-009     1.0401e-008     4.76e-011      
  2.65            2.2216e-009     1.0354e-008     2.34e-010      
  2.7             2.321e-009      1.046e-008      4.207e-010     
  2.75            1.4045e-009     2.5914e-008     -1.3493e-009   
  2.8             3.84e-011       1.1261e-008     -1.3183e-009   
  2.85            1.889e-010      1.2175e-008     -2.6831e-009   
  2.9             -1.3041e-009    7.04e-010       -1.9475e-009   
  2.95            -2.2819e-009    -1.1579e-008    -6.528e-010    
  3               -1.5492e-009    -1.9113e-008    1.2586e-009    
  3.05            -1.561e-010     -1.3546e-008    2.8556e-009    
  3.1             2.1694e-009     1.0319e-008     1.409e-010     
  3.15            2.2785e-009     1.0413e-008     3.354e-010     
  3.2             2.3609e-009     1.0695e-008     5.23e-010      
  3.25            1.4848e-009     2.3919e-008     -1.3333e-009   
  3.3             1.152e-010      1.134e-008      -2.7272e-009   
  3.35            -2.0797e-009    -1.097e-008     -4.65e-011     
  3.4             -2.1895e-009    -1.1038e-008    -2.633e-010    
  3.45            -2.256e-009     -1.1185e-008    -4.812e-010    
  3.5             -2.2814e-009    -1.1671e-008    -6.914e-010    
  3.55            -1.5655e-009    -1.8446e-008    2.1901e-009    
  3.6             2.0045e-009     -7.121e-009     1.4617e-009    
  3.65            5.999e-010      1.9385e-008     -2.2036e-009   
  3.7             -1.9716e-009    3.324e-009      -1.3995e-009   
  3.75            -1.9742e-009    -1.1231e-008    9.1e-011       
  3.8             -2.1091e-009    -1.087e-008     -9.44e-011     
  3.85            -2.2082e-009    -1.104e-008     -3.218e-010    
  3.9             -2.2651e-009    -1.1265e-008    -5.243e-010    
  3.95            -1.4758e-009    -2.1704e-008    1.2758e-009    
  4               -3.39e-011      -1.1443e-008    2.8996e-009    
  4.05            2.1027e-009     1.0334e-008     2.54e-011      
  4.1             2.2141e-009     1.0468e-008     2.126e-010     
  4.15            2.3158e-009     1.0396e-008     4.083e-010     
  4.2             1.3962e-009     2.6003e-008     -1.3517e-009   
  4.25            2.61e-011       1.1334e-008     -1.3198e-009   
  4.3             1.734e-010      1.1965e-008     -2.6945e-009   
  4.35            -1.3094e-009    7.36e-010       -1.9423e-009   
  4.4             -2.2783e-009    -1.1581e-008    -6.358e-010    
  4.45            -1.54e-009      -1.9464e-008    1.2604e-009    
  4.5             -1.284e-010     -1.3289e-008    2.8644e-009    
  4.55            2.1621e-009     1.0269e-008     1.261e-010     
  4.6             2.2758e-009     1.0329e-008     3.272e-010     
  4.65            2.3588e-009     1.064e-008      5.072e-010     
  4.7             1.4782e-009     2.4103e-008     -1.3343e-009   
  4.75            1.019e-010      1.139e-008      -2.7329e-009   
  4.8             -2.0723e-009    -1.1003e-008    -3.02e-011     
  4.85            -2.1846e-009    -1.1018e-008    -2.465e-010    
  4.9             -2.2496e-009    -1.1111e-008    -4.637e-010    
  4.95            -1.4398e-009    -2.2677e-008    1.2852e-009    
  5               9e-013          -1.0898e-008    2.9119e-009    
END_DB

BEGIN_DB
 ICCAP_VAR VG         1              
 ICCAP_VAR VS         0              
 ICCAP_VAR VB         0              

 #VD              ID              IB              IG             
  0               -5.472e-008     1.2181e-008     1.2142e-009    
  0.05            3.6376e-006     1.1459e-008     1.8132e-009    
  0.1             6.1789e-006     -1.1024e-008    -4.607e-010    
  0.15            7.9885e-006     1.5592e-008     -2.1925e-009   
  0.2             9.218e-006      1.1129e-008     8.74e-011      
  0.25            1.00257e-005    -1.1911e-008    2.7616e-009    
  0.3             1.07199e-005    -1.2964e-008    2.503e-010     
  0.35            1.1317e-005     1.097e-008      1.9962e-009    
  0.4             1.1845e-005     -1.1465e-008    -8.89e-010     
  0.45            1.2329e-005     2.6924e-008     -1.3777e-009   
  0.5             1.2668e-005     1.0282e-008     3.704e-010     
  0.55            1.2931e-005     -2.1287e-008    1.6801e-009    
  0.6             1.3242e-005     -1.21e-008      1.192e-010     
  0.65            1.3723e-005     1.5112e-008     -2.2237e-009   
  0.7             1.3907e-005     9.044e-009      2.1522e-009    
  0.75            1.4193e-005     -1.1268e-008    -2.086e-010    
  0.8             1.4608e-005     1.9973e-008     -1.7878e-009   
  0.85            1.4863e-005     1.3617e-008     -2.393e-010    
  0.9             1.5003e-005     -1.4415e-008    2.6045e-009    
  0.95            1.5324e-005     -1.0882e-008    -4.572e-010    
  1               1.5687e-005     2.2466e-008     -1.5588e-009   
  1.05            1.5819e-005     1.0814e-008     1.0774e-009    
  1.1             1.609e-005      -2.4984e-008    1.2653e-009    
  1.15            1.6474e-005     -1.1783e-008    -1.7685e-009   
  1.2             1.669e-005      1.3257e-008     -2.203e-010    
  1.25            1.6787e-005     -1.4757e-008    2.5733e-009    
  1.3             1.7093e-005     -1.0928e-008    -4.797e-010    
  1.35            1.7441e-005     2.266e-008      -1.5425e-009   
  1.4             1.752e-005      1.0832e-008     1.094e-009     
  1.45            1.7771e-005     -2.4541e-008    1.2638e-009    
  1.5             1.8132e-005     -1.1731e-008    -1.7833e-009   
  1.55            1.8337e-005     1.2906e-008     -2.128e-010    
  1.6             1.8407e-005     -1.5017e-008    2.5587e-009    
  1.65            1.8699e-005     -1.0998e-008    -5.051e-010    
  1.7             1.9029e-005     2.2974e-008     -1.5333e-009   
  1.75            1.9059e-005     1.0714e-008     1.1121e-009    
  1.8             1.9303e-005     -2.4338e-008    1.2604e-009    
  1.85            1.9662e-005     -1.1737e-008    -1.7947e-009   
  1.9             1.9844e-005     1.262e-008      -1.881e-010    
  1.95            1.9886e-005     -1.5575e-008    2.5335e-009    
  2               2.0177e-005     -1.1345e-008    -5.199e-010    
  2.05            2.0497e-005     2.26e-008       -1.5164e-009   
  2.1             2.0518e-005     1.0038e-008     1.1242e-009    
  2.15            2.0765e-005     -2.5019e-008    1.2583e-009    
  2.2             2.1112e-005     -1.298e-008     -1.8111e-009   
  2.25            2.1302e-005     1.791e-008      -1.8171e-009   
  2.3             2.1526e-005     1.0112e-008     -2.4616e-009   
  2.35            2.1709e-005     1.7462e-008     -1.7447e-009   
  2.4             2.1931e-005     9.528e-009      -2.399e-009    
  2.45            2.2119e-005     1.6426e-008     -1.676e-009    
  2.5             2.2332e-005     8.444e-009      -2.328e-009    
  2.55            2.2501e-005     1.4778e-008     -1.6157e-009   
  2.6             2.2712e-005     6.499e-009      -2.2527e-009   
  2.65            2.2895e-005     1.658e-009      -2.7054e-009   
  2.7             2.3103e-005     3.651e-009      -2.1722e-009   
  2.75            2.3299e-005     -2.949e-009     -2.6716e-009   
  2.8             2.3486e-005     -3.39e-010      -2.0847e-009   
  2.85            2.3524e-005     -1.0965e-008    2.2328e-009    
  2.9             2.3715e-005     -3.4419e-008    -3.257e-010    
  2.95            2.4e-005        -2.2458e-008    -1.4637e-009   
  3               2.4113e-005     -2.3291e-008    2.6302e-009    
  3.05            2.4358e-005     -4.888e-008     -9.248e-010    
  3.1             2.463e-005      -1.5485e-008    -1.3671e-009   
  3.15            2.468e-005      -4.1634e-008    2.8506e-009    
  3.2             2.4995e-005     -6.8597e-008    -1.1994e-009   
  3.25            2.5209e-005     -3.8918e-008    -1.3153e-009   
  3.3             2.5251e-005     -6.9803e-008    2.9246e-009    
  3.35            2.561e-005      -9.7594e-008    -1.4994e-009   
  3.4             2.5745e-005     -7.8162e-008    -1.6327e-009   
  3.45            2.5985e-005     -1.2214e-007    -1.2729e-009   
  3.5             2.6177e-005     -9.965e-008     -1.9178e-009   
  3.55            2.6241e-005     -1.3281e-007    2.3159e-009    
  3.6             2.6441e-005     -1.7084e-007    -4.609e-010    
  3.65            2.6778e-005     -1.5712e-007    -1.5594e-009   
  3.7             2.6864e-005     -1.9239e-007    2.525e-009     
  3.75            2.7111e-005     -2.3798e-007    -8.04e-010     
  3.8             2.7422e-005     -2.2635e-007    -1.3986e-009   
  3.85            2.7496e-005     -2.726e-007     2.7642e-009    
  3.9             2.7809e-005     -3.2733e-007    -1.0782e-009   
  3.95            2.8083e-005     -3.2122e-007    -1.3339e-009   
  4               2.8149e-005     -3.8203e-007    2.9172e-009    
  4.05            2.8554e-005     -4.4364e-007    -1.3677e-009   
  4.1             2.8753e-005     -4.5279e-007    -1.7786e-009   
  4.15            2.8863e-005     -5.1533e-007    2.3874e-009    
  4.2             2.911e-005      -5.9148e-007    -5.755e-010    
  4.25            2.9497e-005     -6.1229e-007    -1.4891e-009   
  4.3             2.9623e-005     -6.8946e-007    2.6008e-009    
  4.35            2.9929e-005     -7.7955e-007    -9.001e-010    
  4.4             3.0282e-005     -8.078e-007     -1.3724e-009   
  4.45            3.0399e-005     -9.044e-007     2.8316e-009    
  4.5             3.0804e-005     -1.0106e-006    -1.1735e-009   
  4.55            3.1115e-005     -1.05337e-006   -1.3192e-009   
  4.6             3.1288e-005     -1.1628e-006    5.259e-010     
  4.65            3.1437e-005     -1.2969e-006    1.5002e-009    
  4.7             3.1866e-005     -1.3899e-006    -2.5756e-009   
  4.75            3.2144e-005     -1.4778e-006    8.391e-010     
  4.8             3.2385e-005     -1.6398e-006    1.3221e-009    
  4.85            3.2849e-005     -1.7473e-006    -2.7604e-009   
  4.9             3.3051e-005     -1.8517e-006    1.1092e-009    
  4.95            3.3437e-005     -2.0379e-006    1.2597e-009    
  5               3.3902e-005     -2.1638e-006    -2.7939e-009   
END_DB

BEGIN_DB
 ICCAP_VAR VG         2              
 ICCAP_VAR VS         0              
 ICCAP_VAR VB         0              

 #VD              ID              IB              IG             
  0               -2.7666e-007    1.1187e-008     -2.7972e-009   
  0.05            2.1341e-005     -1.1983e-008    2.3705e-009    
  0.1             4.1678e-005     -1.1061e-008    -5.482e-010    
  0.15            6.0935e-005     2.3241e-008     -1.5003e-009   
  0.2             7.8877e-005     1.0768e-008     1.1513e-009    
  0.25            9.5512e-005     -2.3727e-008    2.1836e-009    
  0.3             0.000110709     -1.1086e-008    -7.855e-010    
  0.35            0.00012455      1.2702e-008     2.17e-011      
  0.4             0.00013662      -1.9998e-008    2.0014e-009    
  0.45            0.00014749      -1.1869e-008    -1.004e-009    
  0.5             0.00015695      2.7572e-008     -1.3279e-009   
  0.55            0.00016493      1.3792e-008     -2.47e-010     
  0.6             0.00017167      -1.6102e-008    2.4524e-009    
  0.65            0.00017766      -1.1128e-008    -7.352e-010    
  0.7             0.00018278      2.6619e-008     -1.3804e-009   
  0.75            0.00018685      1.0288e-008     4.636e-010     
  0.8             0.00019017      -2.381e-008     1.4451e-009    
  0.85            0.00019334      -1.0929e-008    -2.512e-010    
  0.9             0.00019617      2.18e-008       -1.6042e-009   
  0.95            0.00019825      1.0779e-008     1.1509e-009    
  1               0.00020039      -2.1019e-008    1.9803e-009    
  1.05            0.00020209      -1.2328e-008    1.835e-010     
  1.1             0.00020414      1.6174e-008     -2.1487e-009   
  1.15            0.00020545      1.065e-008      7.672e-010     
  1.2             0.00020675      -2.6084e-008    1.3043e-009    
  1.25            0.00020845      -1.192e-008     -1.6927e-009   
  1.3             0.0002096       1.2687e-008     -1.857e-010    
  1.35            0.0002104       -1.6984e-008    2.3529e-009    
  1.4             0.00021176      -1.1126e-008    -8.071e-010    
  1.45            0.00021298      2.7168e-008     -1.3644e-009   
  1.5             0.00021348      1.1289e-008     1.6141e-009    
  1.55            0.00021457      -1.2543e-008    2.304e-010     
  1.6             0.00021586      1.5393e-008     -2.2143e-009   
  1.65            0.00021651      1.0446e-008     7.199e-010     
  1.7             0.00021723      -2.5732e-008    1.3176e-009    
  1.75            0.00021823      -1.0969e-008    -5.488e-010    
  1.8             0.00021927      2.4722e-008     -1.4353e-009   
  1.85            0.00021994      1.0274e-008     2.982e-010     
  1.9             0.00022039      -2.1961e-008    1.6102e-009    
  1.95            0.00022152      -1.1526e-008    -1.2436e-009   
  2               0.00022221      1.2011e-008     -2.471e-009    
  2.05            0.00022257      9.293e-009      2.099e-009     
  2.1             0.00022331      -1.139e-008     -2.726e-010    
  2.15            0.00022426      2.1385e-008     -1.5903e-009   
  2.2             0.00022455      9.832e-009      1.1656e-009    
  2.25            0.00022522      -2.2016e-008    1.95e-009      
  2.3             0.00022606      -1.3866e-008    -1.0253e-009   
  2.35            0.00022676      8.53e-009       -2.6661e-009   
  2.4             0.00022737      1.5157e-008     -1.8967e-009   
  2.45            0.00022797      8.333e-009      -2.3793e-009   
  2.5             0.00022851      4.589e-009      -2.6888e-009   
  2.55            0.00022907      9.497e-009      -1.9585e-009   
  2.6             0.00022938      -1.764e-009     2.3878e-009    
  2.65            0.00022999      -2.5674e-008    -7.212e-010    
  2.7             0.0002305       -2.5502e-008    -2.782e-009    
  2.75            0.0002308       -1.247e-008     1.2872e-009    
  2.8             0.00023139      -4.6429e-008    1.7396e-009    
  2.85            0.00023208      -4.4634e-008    -2.5181e-009   
  2.9             0.00023248      -3.286e-008     8.912e-010     
  2.95            0.0002329       -7.9191e-008    1.2798e-009    
  3               0.00023359      -6.9461e-008    -2.7919e-009   
  3.05            0.0002337       -6.604e-008     1.5311e-009    
  3.1             0.00023455      -1.05598e-007   -1.2989e-009   
  3.15            0.00023496      -1.0844e-007    2.8588e-009    
  3.2             0.00023569      -1.4073e-007    -1.8331e-009   
  3.25            0.00023614      -1.4041e-007    -2.6e-011      
  3.3             0.00023629      -1.9697e-007    2.0744e-009    
  3.35            0.00023699      -2.1613e-007    -2.3064e-009   
  3.4             0.00023743      -2.2987e-007    6.815e-010     
  3.45            0.00023773      -3.0335e-007    1.3292e-009    
  3.5             0.00023844      -3.2676e-007    -2.7891e-009   
  3.55            0.00023862      -3.5735e-007    1.3166e-009    
  3.6             0.00023923      -4.3855e-007    1.693e-009     
  3.65            0.00023989      -4.9104e-007    -2.5455e-009   
  3.7             0.00024028      -5.3861e-007    9.157e-010     
  3.75            0.00024079      -6.5066e-007    1.2733e-009    
  3.8             0.00024149      -7.1384e-007    -2.7835e-009   
  3.85            0.00024164      -7.9175e-007    1.5587e-009    
  3.9             0.00024233      -9.2028e-007    2.772e-010     
  3.95            0.00024332      -1.00832e-006   -2.2951e-009   
  4               0.00024379      -1.1622e-006    -1.8815e-009   
  4.05            0.00024436      -1.2797e-006    4.33e-011      
  4.1             0.00024465      -1.4666e-006    1.9678e-009    
  4.15            0.00024548      -1.6276e-006    -2.3758e-009   
