! VERSION = 6.00
BEGIN_HEADER
 ICCAP_INPUTS
  VG         V  B GROUND SMU4 0.001 LIN        1    0          5          101  0.05      
  VS         V  E GROUND SMU2 0.1 CON        0
  VB         V  C GROUND SMU3 0.1 LIN        3    0          -5         3    -2.5      
  VD         V  S GROUND SMU1 0.1 LIN        2    0.1        5          2    4.9       
 ICCAP_OUTPUTS
  IG         I  B GROUND SMU4 B
  ID         I  S GROUND SMU1 B
  IB         I  C GROUND SMU3 B
END_HEADER

BEGIN_DB
 ICCAP_VAR VS         0              
 ICCAP_VAR VB         0              
 ICCAP_VAR VD         0.1            

 #VG              IG              ID              IB             
  0               -1.339e-010     -3.249e-010     -1.2818e-008   
  0.05            -1.54e-009      9.672e-010      2.398e-008     
  0.1             -1.8513e-009    -1.4461e-009    7.773e-009     
  0.15            -4.718e-010     -2.2233e-009    -1.3231e-008   
  0.2             -6.753e-010     -2.2185e-009    -1.2692e-008   
  0.25            -8.489e-010     -2.2036e-009    -1.1037e-008   
  0.3             2.0104e-009     -1.6345e-009    -1.5358e-008   
  0.35            1.5633e-009     1.9147e-009     -8.548e-009    
  0.4             -1.3755e-009    1.4536e-009     2.7098e-008    
  0.45            -2.6791e-009    1.42e-010       1.3087e-008    
  0.5             2.5233e-009     -1.1566e-009    -2.427e-008    
  0.55            2.2279e-009     1.8585e-009     -4.774e-009    
  0.6             1.9065e-009     4.6441e-009     -7.113e-009    
  0.65            2.5722e-009     1.3901e-008     1.5386e-008    
  0.7             -1.7249e-009    3.6654e-008     2.2756e-008    
  0.75            -1.3866e-009    7.9739e-008     6.545e-009     
  0.8             1.6749e-009     1.5901e-007     -2.4339e-008   
  0.85            2.0826e-009     2.7729e-007     1.0929e-008    
  0.9             9.357e-010      4.4122e-007     1.1387e-008    
  0.95            -2.592e-010     6.506e-007      1.2795e-008    
  1               -1.4734e-009    8.9004e-007     2.0851e-008    
  1.05            -1.401e-009     1.1448e-006     1.356e-009     
  1.1             -2.696e-009     1.4292e-006     9.304e-009     
  1.15            2.3197e-009     1.7022e-006     -2.575e-008    
  1.2             1.5753e-009     1.9844e-006     -6.699e-009    
  1.25            2.8113e-009     2.2631e-006     -8.595e-009    
  1.3             2.8374e-009     2.5408e-006     8.34e-010      
  1.35            -1.842e-009     2.8161e-006     2.5472e-008    
  1.4             -1.4084e-009    3.0813e-006     5.66e-009      
  1.45            -1.3712e-009    3.3445e-006     9.129e-009     
  1.5             -2.5883e-009    3.603e-006      1.3001e-008    
  1.55            -2.1174e-009    3.8526e-006     1.091e-009     
  1.6             -1.5343e-009    4.1016e-006     4.472e-009     
  1.65            -1.3706e-009    4.3462e-006     8.253e-009     
  1.7             -2.6631e-009    4.5879e-006     1.1647e-008    
  1.75            1.968e-009      4.8173e-006     -2.2116e-008   
  1.8             1.3923e-009     5.0509e-006     -9.03e-009     
  1.85            2.8468e-009     5.279e-006      -8.082e-009    
  1.9             2.7737e-009     5.5061e-006     -8.6e-011      
  1.95            5.586e-010      5.7289e-006     1.2367e-008    
  2               9.512e-010      5.9475e-006     1.1135e-008    
  2.05            -2.464e-010     6.161e-006      1.2456e-008    
  2.1             -1.4637e-009    6.3765e-006     2.1015e-008    
  2.15            -1.373e-009     6.5837e-006     8.727e-009     
  2.2             -2.6315e-009    6.7905e-006     1.2242e-008    
  2.25            -2.2508e-009    6.9886e-006     9.31e-010      
  2.3             -1.6376e-009    7.1916e-006     3.541e-009     
  2.35            -1.3769e-009    7.3908e-006     7.179e-009     
  2.4             -2.6789e-009    7.5863e-006     1.0348e-008    
  2.45            2.1432e-009     7.7752e-006     -2.4428e-008   
  2.5             1.4663e-009     7.9662e-006     -7.904e-009    
  2.55            1.3185e-009     8.1537e-006     -8.272e-009    
  2.6             2.8189e-009     8.3392e-006     -1.0718e-008   
  2.65            -1.6955e-009    8.5261e-006     2.1826e-008    
  2.7             -1.3816e-009    8.7065e-006     6.89e-009      
  2.75            -1.3641e-009    8.8883e-006     1.0111e-008    
  2.8             -2.5213e-009    9.0681e-006     1.3901e-008    
  2.85            -1.9632e-009    9.2394e-006     1.136e-009     
  2.9             -1.4626e-009    9.4117e-006     5.188e-009     
  2.95            -1.3721e-009    9.5824e-006     8.712e-009     
  3               -2.6334e-009    9.752e-006      1.2395e-008    
  3.05            -2.2555e-009    9.9154e-006     9.75e-010      
  3.1             -1.6411e-009    1.00796e-005    3.444e-009     
  3.15            -1.3754e-009    1.02424e-005    7.211e-009     
  3.2             -1.3581e-009    1.04014e-005    1.0476e-008    
  3.25            -2.4882e-009    1.0562e-005     1.4023e-008    
  3.3             -1.9134e-009    1.07125e-005    1.419e-009     
  3.35            -1.4354e-009    1.08692e-005    5.208e-009     
  3.4             -1.3705e-009    1.10202e-005    8.999e-009     
  3.45            -2.6201e-009    1.1173e-005     1.2634e-008    
  3.5             -2.2076e-009    1.13166e-005    9.59e-010      
  3.55            1.5071e-009     1.1469e-005     3.761e-009     
  3.6             1.318e-009      1.1613e-005     -8.333e-009    
  3.65            2.8203e-009     1.1755e-005     -1.0474e-008   
  3.7             -1.7251e-009    1.1897e-005     2.2895e-008    
  3.75            -1.3866e-009    1.2036e-005     6.625e-009     
  3.8             -1.3625e-009    1.2171e-005     9.738e-009     
  3.85            -2.5385e-009    1.2311e-005     1.3434e-008    
  3.9             -2.0027e-009    1.2441e-005     1.128e-009     
  3.95            -1.4727e-009    1.257e-005      5.076e-009     
  4               -1.3704e-009    1.2701e-005     8.602e-009     
  4.05            -2.6394e-009    1.2829e-005     1.2193e-008    
  4.1             -2.2783e-009    1.2952e-005     1.004e-009     
  4.15            -1.6688e-009    1.3079e-005     3.051e-009     
  4.2             -1.3774e-009    1.3201e-005     6.991e-009     
  4.25            -1.3561e-009    1.3321e-005     1.0001e-008    
  4.3             -2.5096e-009    1.3444e-005     1.3974e-008    
  4.35            -1.9495e-009    1.3558e-005     1.396e-009     
  4.4             -1.4472e-009    1.3673e-005     5.095e-009     
  4.45            -1.3703e-009    1.3788e-005     8.896e-009     
  4.5             -2.6299e-009    1.3899e-005     1.2528e-008    
  4.55            -2.2278e-009    1.4005e-005     9.51e-010      
  4.6             -1.6252e-009    1.4116e-005     3.629e-009     
  4.65            -1.3733e-009    1.4223e-005     7.51e-009      
  4.7             -2.676e-009     1.4331e-005     1.0807e-008    
  4.75            2.1142e-009     1.443e-005      -2.4273e-008   
  4.8             1.4521e-009     1.4537e-005     -8.118e-009    
  4.85            1.3198e-009     1.4635e-005     -8.02e-009     
  4.9             2.8127e-009     1.4733e-005     -1.1045e-008   
  4.95            -1.6675e-009    1.4832e-005     2.1421e-008    
  5               -1.3749e-009    1.4928e-005     6.933e-009     
END_DB

BEGIN_DB
 ICCAP_VAR VS         0              
 ICCAP_VAR VB         0              
 ICCAP_VAR VD         5              

 #VG              IG              ID              IB             
  0               -1.374e-009     -1.273e-009     -9.067e-009    
  0.05            -1.3561e-009    -2.0619e-009    1.2034e-008    
  0.1             1.3358e-009     -1.266e-009     -2.6391e-008   
  0.15            1.1465e-009     2.2846e-009     -8.291e-009    
  0.2             1.2976e-009     2.1764e-009     1.0651e-008    
  0.25            -1.3766e-009    1.2227e-009     2.8662e-008    
  0.3             -1.2428e-009    -2.1276e-009    1.039e-008     
  0.35            2.527e-010      -1.8625e-009    -1.0314e-008   
  0.4             1.8003e-009     -8.838e-010     -2.0651e-008   
  0.45            1.6948e-009     1.8759e-009     -9.362e-009    
  0.5             1.8623e-009     2.0324e-009     1.0761e-008    
  0.55            4.803e-010      4.4631e-009     1.2417e-008    
  0.6             6.597e-010      9.9157e-009     1.1152e-008    
  0.65            -2.6649e-009    2.2722e-008     -2.5386e-008   
  0.7             -1.3676e-009    6.2441e-008     -1.3667e-008   
  0.75            -1.2607e-009    1.4595e-007     9.406e-009     
  0.8             -1.6853e-009    2.9382e-007     -2.93e-008     
  0.85            -1.978e-009     5.2438e-007     -4.2098e-008   
  0.9             -2.2987e-009    8.5868e-007     -5.7516e-008   
  0.95            1.5041e-009     1.3078e-006     -6.2664e-008   
  1               -2.7015e-009    1.8928e-006     -9.6779e-008   
  1.05            -2.6908e-009    2.6005e-006     -1.3326e-007   
  1.1             -2.5477e-009    3.4517e-006     -1.6451e-007   
  1.15            -2.0302e-009    4.4262e-006     -2.0068e-007   
  1.2             -1.4805e-009    5.5191e-006     -2.3539e-007   
  1.25            -1.3702e-009    6.7245e-006     -2.7111e-007   
  1.3             -2.6421e-009    8.0501e-006     -3.0699e-007   
  1.35            -2.2864e-009    9.4452e-006     -3.5738e-007   
  1.4             -1.6639e-009    1.09643e-005    -3.9322e-007   
  1.45            -1.729e-009     1.259e-005      -4.0285e-007   
  1.5             -2.0037e-009    1.4246e-005     -4.7878e-007   
  1.55            -2.3467e-009    1.5995e-005     -5.0915e-007   
  1.6             -2.6799e-009    1.7833e-005     -5.3895e-007   
  1.65            -2.7088e-009    1.9732e-005     -5.6311e-007   
  1.7             -2.6071e-009    2.1691e-005     -5.8364e-007   
  1.75            -2.1697e-009    2.3732e-005     -6.046e-007    
  1.8             -1.5658e-009    2.5817e-005     -6.2103e-007   
  1.85            -1.3701e-009    2.7959e-005     -6.3429e-007   
  1.9             -2.6653e-009    3.0149e-005     -6.4543e-007   
  1.95            -2.4042e-009    3.2342e-005     -6.6798e-007   
  2               -1.7923e-009    3.4617e-005     -6.7587e-007   
  2.05            -1.3996e-009    3.6923e-005     -6.7954e-007   
  2.1             -1.3673e-009    3.9286e-005     -6.8049e-007   
  2.15            -2.5767e-009    4.1681e-005     -6.7944e-007   
  2.2             -2.0767e-009    4.4054e-005     -6.9241e-007   
  2.25            -1.5063e-009    4.6516e-005     -6.8732e-007   
  2.3             -1.3714e-009    4.8984e-005     -6.8079e-007   
  2.35            -2.6543e-009    5.1491e-005     -6.723e-007    
  2.4             -2.3309e-009    5.4e-005        -6.7747e-007   
  2.45            -1.7039e-009    5.6572e-005     -6.6824e-007   
  2.5             -1.3825e-009    5.9146e-005     -6.5573e-007   
  2.55            -1.3626e-009    6.1764e-005     -6.4201e-007   
  2.6             -2.5314e-009    6.4379e-005     -6.2744e-007   
  2.65            -1.9796e-009    6.6994e-005     -6.2765e-007   
  2.7             -1.4598e-009    6.9655e-005     -6.111e-007    
  2.75            -1.3727e-009    7.2367e-005     -5.9386e-007   
  2.8             -2.634e-009     7.5093e-005     -5.7654e-007   
  2.85            -2.236e-009     7.7762e-005     -5.7399e-007   
  2.9             -1.6185e-009    8.0492e-005     -5.5657e-007   
  2.95            -1.3745e-009    8.3238e-005     -5.3796e-007   
  3               -2.6791e-009    8.599e-005      -5.1936e-007   
  3.05            -2.4583e-009    8.8715e-005     -5.1404e-007   
  3.1             -1.8749e-009    9.1511e-005     -4.9737e-007   
  3.15            -1.423e-009     9.4295e-005     -4.783e-007    
  3.2             -1.3711e-009    9.7099e-005     -4.59e-007     
  3.25            -2.6047e-009    9.9907e-005     -4.402e-007    
  3.3             -2.1419e-009    0.000102695     -4.3654e-007   
  3.35            -1.5452e-009    0.000105525     -4.1828e-007   
  3.4             -1.3717e-009    0.000108358     -3.9953e-007   
  3.45            -2.668e-009     0.00011121      -3.814e-007    
  3.5             2.8151e-009     0.00011404      -3.7758e-007   
  3.55            2.8448e-009     0.00011689      -3.636e-007    
  3.6             2.5955e-009     0.00011974      -3.5147e-007   
  3.65            1.903e-009      0.00012259      -3.4057e-007   
  3.7             1.3731e-009     0.00012544      -3.3289e-007   
  3.75            2.8475e-009     0.00012832      -3.19e-007     
  3.8             2.7557e-009     0.00013121      -2.9832e-007   
  3.85            2.2258e-009     0.00013408      -2.8735e-007   
  3.9             1.5205e-009     0.00013694      -2.8075e-007   
  3.95            2.8241e-009     0.00013983      -2.708e-007    
  4               2.8331e-009     0.00014272      -2.5046e-007   
  4.05            2.5081e-009     0.00014562      -2.4119e-007   
  4.1             1.7805e-009     0.0001485       -2.3399e-007   
  4.15            1.3422e-009     0.00015135      -2.2891e-007   
  4.2             2.8476e-009     0.00015424      -2.1811e-007   
  4.25            2.7012e-009     0.00015717      -2.0079e-007   
  4.3             2.1016e-009     0.00016005      -1.9357e-007   
  4.35            1.4515e-009     0.00016293      -1.9061e-007   
  4.4             2.8394e-009     0.00016587      -1.8228e-007   
  4.45            2.8155e-009     0.0001688       -1.66e-007     
  4.5             2.3988e-009     0.00017166      -1.5959e-007   
  4.55            1.6682e-009     0.00017451      -1.5716e-007   
  4.6             1.3288e-009     0.00017739      -1.5324e-007   
  4.65            2.8468e-009     0.00018029      -1.4635e-007   
  4.7             2.6358e-009     0.00018321      -1.3148e-007   
  4.75            1.9748e-009     0.00018606      -1.2745e-007   
  4.8             1.3957e-009     0.00018894      -1.2737e-007   
  4.85            2.8456e-009     0.00019178      -1.2083e-007   
  4.9             2.7859e-009     0.00019471      -1.0749e-007   
  4.95            2.2999e-009     0.00019758      -1.0392e-007   
  5               1.5721e-009     0.00020044      -1.042e-007    
END_DB

BEGIN_DB
 ICCAP_VAR VS         0              
 ICCAP_VAR VB         -2.5           
 ICCAP_VAR VD         0.1            

 #VG              IG              ID              IB             
  0               6.593e-010      7.201e-010      -1.1029e-008   
  0.05            1.9052e-009     -1.6608e-009    -1.4004e-008   
  0.1             1.6316e-009     1.831e-009      -9.104e-009    
  0.15            1.7948e-009     1.5392e-009     1.072e-008     
  0.2             4.164e-010      2.2695e-009     1.2721e-008    
  0.25            5.961e-010      2.2992e-009     1.2101e-008    
  0.3             7.574e-010      2.315e-009      1.0547e-008    
  0.35            -1.9282e-009    1.6209e-009     1.8601e-008    
  0.4             -1.6239e-009    -1.8125e-009    5.517e-009     
  0.45            2.525e-009      -1.4779e-009    -2.4605e-008   
  0.5             1.2659e-009     2.2156e-009     -4.75e-009     
  0.55            -1.3762e-009    1.1896e-009     2.8499e-008    
  0.6             -1.2037e-009    -2.149e-009     9.89e-009      
  0.65            2.913e-010      -1.8438e-009    -9.947e-009    
  0.7             1.8732e-009     -8.916e-010     -1.9992e-008   
  0.75            1.6538e-009     1.7983e-009     -9.238e-009    
  0.8             1.8146e-009     1.5145e-009     1.0632e-008    
  0.85            4.28e-010       2.2747e-009     1.2569e-008    
  0.9             6.128e-010      2.3049e-009     1.1888e-008    
  0.95            7.777e-010      2.331e-009      1.0301e-008    
  1               -1.906e-009     1.6973e-009     1.82e-008      
  1.05            -6.972e-010     -1.9267e-009    5.401e-009     
  1.1             2.7478e-009     2.1484e-009     -1.105e-008    
  1.15            2.3567e-009     6.7263e-009     8.866e-009     
  1.2             -1.4208e-009    1.7875e-008     -9.947e-009    
  1.25            -1.3733e-009    5.0755e-008     8.891e-009     
  1.3             1.8547e-009     1.1383e-007     -2.6296e-008   
  1.35            7.263e-010      2.1162e-007     1.2574e-008    
  1.4             -1.6204e-009    3.4963e-007     1.9912e-008    
  1.45            -1.3708e-009    5.2052e-007     7.385e-009     
  1.5             -2.677e-009     7.3187e-007     1.07e-008      
  1.55            2.1058e-009     9.6986e-007     -2.4127e-008   
  1.6             2.7357e-009     1.2415e-006     2.0248e-008    
  1.65            7.2e-010        1.5248e-006     1.2581e-008    
  1.7             -1.6254e-009    1.8077e-006     2.0262e-008    
  1.75            -1.3684e-009    2.0893e-006     7.362e-009     
  1.8             -2.6772e-009    2.3671e-006     1.0672e-008    
  1.85            2.1157e-009     2.6339e-006     -2.442e-008    
  1.9             1.4357e-009     2.9015e-006     -8.309e-009    
  1.95            1.3187e-009     3.1616e-006     -7.987e-009    
  2               2.8134e-009     3.4157e-006     -1.1209e-008   
  2.05            4.825e-010      3.6738e-006     1.2352e-008    
  2.1             8.851e-010      3.9165e-006     1.1458e-008    
  2.15            -1.4501e-009    4.16e-006       1.4247e-008    
  2.2             -1.371e-009     4.3951e-006     8.619e-009     
  2.25            -2.63e-009      4.63e-006       1.243e-008     
  2.3             -2.25e-009      4.8525e-006     9.92e-010      
  2.35            -1.6165e-009    5.0777e-006     3.817e-009     
  2.4             -1.3682e-009    5.2987e-006     7.182e-009     
  2.45            -2.676e-009     5.5152e-006     1.0448e-008    
  2.5             2.1345e-009     5.7234e-006     -2.4827e-008   
  2.55            1.4506e-009     5.9353e-006     -8.144e-009    
  2.6             1.3222e-009     6.1399e-006     -8.052e-009    
  2.65            2.8223e-009     6.3422e-006     -1.0884e-008   
  2.7             -1.683e-009     6.5474e-006     2.1827e-008    
  2.75            -1.3708e-009    6.7469e-006     6.861e-009     
  2.8             -1.3655e-009    6.9417e-006     9.869e-009     
  2.85            -2.5284e-009    7.1351e-006     1.3766e-008    
  2.9             -1.9702e-009    7.3202e-006     1.102e-009     
  2.95            -1.4442e-009    7.5062e-006     5.338e-009     
  3               -1.3664e-009    7.6904e-006     8.772e-009     
  3.05            -2.6367e-009    7.8721e-006     1.2556e-008    
  3.1             -2.2637e-009    8.0457e-006     9.36e-010      
  3.15            -1.6383e-009    8.2221e-006     3.67e-009      
  3.2             -1.369e-009     8.3962e-006     7.055e-009     
  3.25            -1.3599e-009    8.5669e-006     1.0088e-008    
  3.3             -2.5018e-009    8.7366e-006     1.4297e-008    
  3.35            -1.9291e-009    8.8998e-006     1.459e-009     
  3.4             -1.4326e-009    9.0628e-006     5.137e-009     
  3.45            -1.3674e-009    9.2253e-006     8.816e-009     
  3.5             -2.6238e-009    9.3848e-006     1.2533e-008    
  3.55            -2.2265e-009    9.5383e-006     1.045e-009     
  3.6             -1.6082e-009    9.6927e-006     3.54e-009      
  3.65            -1.3684e-009    9.8475e-006     7.453e-009     
  3.7             -2.6784e-009    9.9963e-006     1.0623e-008    
  3.75            2.1121e-009     1.01416e-005    -2.4344e-008   
  3.8             1.446e-009      1.02898e-005    -7.977e-009    
  3.85            2.8351e-009     1.04324e-005    -7.993e-009    
  3.9             2.1064e-009     1.05765e-005    1.0855e-008    
  3.95            9.515e-010      1.07166e-005    1.1215e-008    
  4               -2.424e-010     1.08509e-005    1.2136e-008    
  4.05            -1.4561e-009    1.09905e-005    2.0882e-008    
  4.1             -1.3676e-009    1.11214e-005    8.652e-009     
  4.15            -2.6325e-009    1.12554e-005    1.2423e-008    
