! VERSION = 6.00
BEGIN_HEADER
 ICCAP_INPUTS
  VG         V  B GROUND SMU4 0.001 LIN        2    0          5          6    1         
  VS         V  E GROUND SMU2 0.1 CON        0
  VD         V  S GROUND SMU1 0.1 LIN        1    0          5          101  0.05      
  VB         V  C GROUND SMU3 0.1 LIN        3    0          -2.5       2    -2.5      
 ICCAP_OUTPUTS
  ID         I  S GROUND SMU1 B
  IB         I  C GROUND SMU3 B
  IG         I  B GROUND SMU4 B
END_HEADER

BEGIN_DB
 ICCAP_VAR VG         0              
 ICCAP_VAR VS         0              
 ICCAP_VAR VB         0              

 #VD              ID              IB              IG             
  0               -1.1857e-009    -9.724e-009     -1.2807e-009   
  0.05            5.425e-010      1.7706e-008     -2.381e-009    
  0.1             -2.1152e-009    2.885e-009      -1.3471e-009   
  0.15            -1.2738e-009    -2.6336e-008    1.3534e-009    
  0.2             2.3165e-009     -8.276e-009     1.1593e-009    
  0.25            2.1945e-009     1.0641e-008     1.323e-009     
  0.3             1.2577e-009     2.867e-008      -1.3836e-009   
  0.35            -2.1548e-009    1.0911e-008     -1.2832e-009   
  0.4             -1.9329e-009    -1.0465e-008    2.285e-010     
  0.45            -9.741e-010     -2.1606e-008    1.7215e-009    
  0.5             1.6595e-009     -9.091e-009     1.7782e-009    
  0.55            2.2903e-009     1.2461e-008     3.68e-010      
  0.6             2.3341e-009     1.2149e-008     5.713e-010     
  0.65            1.5045e-009     2.5423e-008     -1.384e-009    
  0.7             1.178e-010      1.3318e-008     -2.7007e-009   
  0.75            -1.5608e-009    -2.2148e-008    2.4155e-009    
  0.8             2.1658e-009     -6.067e-009     1.3775e-009    
  0.85            1.3059e-009     2.8833e-008     -1.3818e-009   
  0.9             -2.1178e-009    1.1557e-008     -1.335e-009    
  0.95            -1.974e-009     -1.0821e-008    1.774e-010     
  1               -1.0155e-009    -2.2491e-008    1.646e-009     
  1.05            1.576e-009      -8.691e-009     1.8322e-009    
  1.1             2.306e-009      1.2542e-008     4.284e-010     
  1.15            2.3437e-009     1.1862e-008     6.217e-010     
  1.2             2.3571e-009     1.0221e-008     8.026e-010     
  1.25            1.6893e-009     1.7306e-008     -1.867e-009    
  1.3             -1.7704e-009    5.715e-009      -1.6874e-009   
  1.35            -2.2197e-009    -1.263e-008     -2.114e-010    
  1.4             -2.2714e-009    -1.3227e-008    -4.408e-010    
  1.45            -2.272e-009     -1.2885e-008    -6.601e-010    
  1.5             -2.2569e-009    -1.1333e-008    -8.537e-010    
  1.55            -1.6669e-009    -1.5849e-008    2.0402e-009    
  1.6             1.9258e-009     -8.839e-009     1.5973e-009    
  1.65            1.6251e-009     1.096e-008      1.784e-009     
  1.7             2.293e-009      1.2488e-008     3.771e-010     
  1.75            2.3339e-009     1.2133e-008     5.789e-010     
  1.8             2.3548e-009     1.0622e-008     7.642e-010     
  1.85            1.6531e-009     1.8623e-008     -1.3567e-009   
  1.9             2.962e-010      1.5678e-008     -2.6257e-009   
  1.95            -2.2186e-009    9.37e-010       -1.0927e-009   
  2               -1.7927e-009    -1.0427e-008    1.5586e-009    
  2.05            1.4804e-009     -8.437e-009     1.8868e-009    
  2.1             2.319e-009      1.2622e-008     5e-010         
  2.15            2.3535e-009     1.1658e-008     6.884e-010     
  2.2             2.3604e-009     9.983e-009      8.558e-010     
  2.25            1.7404e-009     1.5348e-008     -1.7721e-009   
  2.3             -1.6824e-009    6.475e-009      -1.7486e-009   
  2.35            -1.5877e-009    -2.0546e-008    2.3337e-009    
  2.4             2.1169e-009     -7e-009         1.4291e-009    
  2.45            1.349e-009      2.8793e-008     -1.3801e-009   
  2.5             -5.12e-011      1.1967e-008     -1.3816e-009   
  2.55            1.003e-010      1.3189e-008     -2.6974e-009   
  2.6             -1.5523e-009    -2.2504e-008    1.3282e-009    
  2.65            -1.037e-010     -1.3623e-008    2.8755e-009    
  2.7             1.5064e-009     2.5477e-008     -1.3798e-009   
  2.75            1.019e-010      1.3285e-008     -2.6964e-009   
  2.8             -1.5537e-009    -2.2446e-008    2.4216e-009    
  2.85            2.1635e-009     -6.017e-009     1.3709e-009    
  2.9             1.3002e-009     2.8837e-008     -1.3806e-009   
  2.95            -2.1198e-009    1.1692e-008     -1.3357e-009   
  3               -1.9588e-009    -1.0653e-008    -1.5175e-009   
  3.05            -1.4222e-009    -2.5952e-008    1.3286e-009    
  3.1             4.92e-011       -9.979e-009     1.3267e-009    
  3.15            -1.02e-010      -1.3681e-008    2.8733e-009    
  3.2             1.5036e-009     2.5414e-008     -1.3813e-009   
  3.25            1.08e-010       1.3377e-008     -2.698e-009    
  3.3             -1.5551e-009    -2.2314e-008    1.3282e-009    
  3.35            -1.12e-010      -1.3668e-008    2.8732e-009    
  3.4             1.5085e-009     2.522e-008      -1.3804e-009   
  3.45            1.148e-010      1.3275e-008     -2.6999e-009   
  3.5             -1.5588e-009    -2.2018e-008    2.4141e-009    
  3.55            2.1582e-009     -6.305e-009     1.3743e-009    
  3.6             1.3055e-009     2.8744e-008     -1.3832e-009   
  3.65            -2.1193e-009    1.1552e-008     -1.3345e-009   
  3.7             -1.9689e-009    -1.089e-008     1.836e-010     
  3.75            -1.0117e-009    -2.243e-008     1.6478e-009    
  3.8             1.5793e-009     -8.93e-009      1.8281e-009    
  3.85            2.3045e-009     1.2627e-008     4.179e-010     
  3.9             2.3433e-009     1.2103e-008     6.21e-010      
  3.95            2.3602e-009     1.0543e-008     8.03e-010      
  4               1.6916e-009     1.7231e-008     -1.876e-009    
  4.05            -1.7628e-009    5.811e-009      -1.6966e-009   
  4.1             -1.5466e-009    -2.2431e-008    2.4332e-009    
  4.15            2.1755e-009     -5.723e-009     1.3599e-009    
  4.2             1.2899e-009     2.8735e-008     -1.3843e-009   
  4.25            -2.1305e-009    1.1595e-008     -1.318e-009    
  4.3             -1.9588e-009    -1.0778e-008    1.98e-010      
  4.35            -1.0023e-009    -2.2281e-008    1.6761e-009    
  4.4             1.6079e-009     -8.958e-009     1.8092e-009    
  4.45            2.2985e-009     1.255e-008      4.066e-010     
  4.5             2.3397e-009     1.1846e-008     6.068e-010     
  4.55            2.36e-009       1.0297e-008     7.834e-010     
  4.6             1.6722e-009     1.7819e-008     -1.8972e-009   
  4.65            -1.7937e-009    5.723e-009      -1.6781e-009   
  4.7             -1.5402e-009    -2.3008e-008    1.3304e-009    
  4.75            -6.97e-011      -1.301e-008     2.8802e-009    
  4.8             1.48e-009       2.6145e-008     -1.384e-009    
  4.85            7.97e-011       1.3189e-008     -2.7071e-009   
  4.9             -1.5373e-009    -2.3036e-008    2.4673e-009    
  4.95            2.1934e-009     -5.61e-009      1.3458e-009    
  5               1.2741e-009     2.8606e-008     -1.3851e-009   
END_DB

BEGIN_DB
 ICCAP_VAR VG         1              
 ICCAP_VAR VS         0              
 ICCAP_VAR VB         0              

 #VD              ID              IB              IG             
  0               -1.8251e-008    2.3593e-008     6.127e-010     
  0.05            1.4953e-006     -1.0551e-008    -1.9789e-009   
  0.1             2.4759e-006     1.7274e-008     -1.5604e-009   
  0.15            3.0936e-006     1.2548e-008     6.195e-010     
  0.2             3.5032e-006     -1.8474e-008    2.1866e-009    
  0.25            3.8105e-006     -2.5891e-008    2.3519e-009    
  0.3             4.0468e-006     -2.6337e-008    2.505e-009     
  0.35            4.2439e-006     -1.0687e-008    -2.86e-011     
  0.4             4.4666e-006     1.2977e-008     -2.6378e-009   
  0.45            4.6123e-006     1.2885e-008     -2.696e-010    
  0.5             4.6974e-006     -8.106e-009     2.8819e-009    
  0.55            4.8625e-006     -1.0983e-008    -1.0845e-009   
  0.6             5.0026e-006     7.429e-009      -1.3864e-009   
  0.65            5.0857e-006     1.1223e-008     9.55e-010      
  0.7             5.1954e-006     -1.9557e-008    1.5797e-009    
  0.75            5.3173e-006     -1.3092e-008    -7.038e-010    
  0.8             5.4737e-006     1.7638e-008     -1.9945e-009   
  0.85            5.5898e-006     2.8678e-008     -1.3774e-009   
  0.9             5.6862e-006     2.8565e-008     -1.3745e-009   
  0.95            5.789e-006      2.839e-008      -1.3688e-009   
  1               5.885e-006      2.7938e-008     -2.0106e-009   
  1.05            5.9841e-006     2.8809e-008     -1.3762e-009   
  1.1             6.0779e-006     2.8701e-008     -1.3751e-009   
  1.15            6.1817e-006     2.8419e-008     -1.371e-009    
  1.2             6.2753e-006     2.8047e-008     -1.3673e-009   
  1.25            6.3696e-006     2.7589e-008     -1.3631e-009   
  1.3             6.4617e-006     2.7041e-008     -1.3569e-009   
  1.35            6.5543e-006     2.6278e-008     -1.8996e-009   
  1.4             6.6389e-006     2.8326e-008     -1.3685e-009   
  1.45            6.7291e-006     2.7771e-008     -1.3656e-009   
  1.5             6.8347e-006     2.7255e-008     -1.3586e-009   
  1.55            6.916e-006      2.6599e-008     -1.9134e-009   
  1.6             7.0044e-006     2.8344e-008     -1.371e-009    
  1.65            7.0959e-006     2.8011e-008     -1.3655e-009   
  1.7             7.1808e-006     2.747e-008      -1.3613e-009   
  1.75            7.267e-006      2.6811e-008     -1.3562e-009   
  1.8             7.3527e-006     2.6026e-008     -1.8939e-009   
  1.85            7.4401e-006     2.8057e-008     -1.3681e-009   
  1.9             7.5278e-006     2.7718e-008     -1.3621e-009   
  1.95            7.6282e-006     2.7062e-008     -1.9535e-009   
  2               7.6918e-006     2.8439e-008     -1.3739e-009   
  2.05            7.7792e-006     2.8196e-008     -2.0673e-009   
  2.1             7.8602e-006     2.8555e-008     -1.3801e-009   
  2.15            7.9458e-006     2.8355e-008     -1.3779e-009   
  2.2             8.0351e-006     2.8202e-008     -1.3754e-009   
  2.25            8.1175e-006     2.7894e-008     -2.0798e-009   
  2.3             8.1864e-006     1.6751e-008     -2.0364e-009   
  2.35            8.2742e-006     2.7815e-008     -1.3797e-009   
  2.4             8.3543e-006     1.686e-008      -1.9457e-009   
  2.45            8.4282e-006     1.6676e-008     -1.8994e-009   
  2.5             8.4932e-006     1.6379e-008     -1.8597e-009   
  2.55            8.599e-006      1.6248e-008     -1.8102e-009   
  2.6             8.6872e-006     1.5913e-008     -1.7721e-009   
  2.65            8.7589e-006     1.55e-008       -1.7294e-009   
  2.7             8.7533e-006     6.724e-009      2.0449e-009    
  2.75            8.8392e-006     -1.95e-008      1.5756e-009    
  2.8             8.9414e-006     -1.5467e-008    -2.0929e-009   
  2.85            9.0843e-006     1.0913e-008     -1.9873e-009   
  2.9             9.1593e-006     9.929e-009      -1.9429e-009   
  2.95            9.2401e-006     8.7e-009        -1.8944e-009   
  3               9.3265e-006     7.339e-009      -1.8561e-009   
  3.05            9.3952e-006     5.525e-009      -1.8095e-009   
  3.1             9.5053e-006     3.614e-009      -1.7688e-009   
  3.15            9.5301e-006     -2.3909e-008    -2.7407e-009   
  3.2             9.6505e-006     8.407e-009      -1.3716e-009   
  3.25            9.6282e-006     -1.3004e-008    2.7383e-009    
  3.3             9.7464e-006     -3.9409e-008    -5.64e-010     
  3.35            9.8765e-006     -2.8177e-008    -1.7683e-009   
  3.4             9.8837e-006     -2.3449e-008    2.0125e-009    
  3.45            9.9683e-006     -5.516e-008     1.615e-009     
  3.5             1.01038e-005    -5.4869e-008    -2.0667e-009   
  3.55            1.02215e-005    -3.7876e-008    -2.721e-010    
  3.6             1.02029e-005    -6.5338e-008    1.3261e-009    
  3.65            1.03579e-005    -7.4082e-008    -2.6588e-009   
  3.7             1.04549e-005    -6.0899e-008    4.139e-010     
  3.75            1.04635e-005    -9.9876e-008    2.5044e-009    
  3.8             1.07326e-005    -1.02485e-007   1.3049e-009    
  3.85            1.0709e-005     -1.1171e-007    -2.7314e-009   
  3.9             1.0773e-005     -1.0529e-007    1.088e-009     
  3.95            1.0868e-005     -1.547e-007     1.3269e-009    
  4               1.0995e-005     -1.4835e-007    -2.7364e-009   
  4.05            1.1017e-005     -1.4848e-007    1.3604e-009    
  4.1             1.1137e-005     -1.9482e-007    1.8323e-009    
  4.15            1.1266e-005     -2.0295e-007    -2.3864e-009   
  4.2             1.1379e-005     -2.0031e-007    6.147e-010     
  4.25            1.1432e-005     -2.5745e-007    1.4305e-009    
  4.3             1.1587e-005     -2.6813e-007    -2.6583e-009   
  4.35            1.1671e-005     -2.7181e-007    9.094e-010     
  4.4             1.1747e-005     -3.3825e-007    1.3306e-009    
  4.45            1.1932e-005     -3.4829e-007    -2.7431e-009   
  4.5             1.1966e-005     -3.6152e-007    1.171e-009     
  4.55            1.2108e-005     -4.3129e-007    2.2075e-009    
  4.6             1.2255e-005     -4.5081e-007    -2.1924e-009   
  4.65            1.2401e-005     -4.649e-007     3.947e-010     
  4.7             1.2477e-005     -5.3756e-007    1.6702e-009    
  4.75            1.2662e-005     -5.7146e-007    -2.4874e-009   
  4.8             1.2791e-005     -5.9365e-007    7.218e-010     
  4.85            1.2855e-005     -6.8125e-007    1.369e-009     
  4.9             1.3055e-005     -7.1869e-007    -2.7053e-009   
  4.95            1.3167e-005     -7.486e-007     9.913e-010     
  5               1.3288e-005     -8.481e-007     1.3291e-009    
END_DB

BEGIN_DB
 ICCAP_VAR VG         2              
 ICCAP_VAR VS         0              
 ICCAP_VAR VB         0              

 #VD              ID              IB              IG             
  0               -1.433e-007     2.8375e-008     -1.3826e-009   
  0.05            1.1889e-005     -1.1887e-008    2.88e-009      
  0.1             2.3339e-005     -1.0187e-008    1.61e-010      
  0.15            3.4234e-005     1.626e-008      -2.3422e-009   
  0.2             4.4369e-005     1.014e-008      2.1311e-009    
  0.25            5.3772e-005     -2.0631e-008    1.4625e-009    
  0.3             6.2425e-005     -2.6252e-008    1.3274e-009    
  0.35            7.028e-005      -1.3036e-008    -7.11e-010     
  0.4             7.7353e-005     8.061e-009      -1.3786e-009   
  0.45            8.3558e-005     2.3172e-008     -1.7489e-009   
  0.5             8.8939e-005     1.1077e-008     9.478e-010     
  0.55            9.3572e-005     -2.6188e-008    1.3283e-009    
  0.6             9.7651e-005     -1.2831e-008    -5.456e-010    
  0.65            0.000101133     2.062e-008      -1.5058e-009   
  0.7             0.000103864     9.391e-009      1.1286e-009    
  0.75            0.00010629      -2.5729e-008    1.3224e-009    
  0.8             0.000108372     -1.3037e-008    -7.936e-010    
  0.85            0.000110197     8.882e-009      -1.3804e-009   
  0.9             0.000111408     1.0516e-008     1.5851e-009    
  0.95            0.000112822     -1.3861e-008    1.5252e-009    
  1               0.000113986     -2.6377e-008    1.3306e-009    
  1.05            0.00011525      -2.2515e-008    -1.6565e-009   
  1.1             0.00011606      1.185e-008      -2.448e-010    
  1.15            0.00011671      -1.7758e-008    2.53e-009      
  1.2             0.0001176       -1.3119e-008    -7.735e-010    
  1.25            0.00011846      9.211e-009      -1.3792e-009   
  1.3             0.00011905      1.2512e-008     7.517e-010     
  1.35            0.00011952      -2.5356e-008    1.3281e-009    
  1.4             0.00012014      -1.2806e-008    -5.855e-010    
  1.45            0.00012086      8.224e-009      -1.3799e-009   
  1.5             0.00012137      1.2381e-008     5.883e-010     
  1.55            0.00012172      -8.128e-009     2.8643e-009    
  1.6             0.00012235      -1.0413e-008    1.882e-010     
  1.65            0.00012303      1.6851e-008     -2.198e-009    
  1.7             0.00012346      1.2653e-008     8.017e-010     
  1.75            0.00012373      -2.5826e-008    1.3278e-009    
  1.8             0.00012412      -1.3004e-008    -6.453e-010    
  1.85            0.0001246       8.607e-009      -1.3811e-009   
  1.9             0.00012499      1.2399e-008     6.416e-010     
  1.95            0.00012519      -8.131e-009     2.8714e-009    
  2               0.00012558      -9.981e-009     1.366e-010     
  2.05            0.00012618      1.7285e-008     -2.13e-009     
  2.1             0.00012641      1.1959e-008     8.471e-010     
  2.15            0.00012667      -2.6423e-008    1.3279e-009    
  2.2             0.00012729      -1.1932e-008    -1.7721e-009   
  2.25            0.00012761      1.8109e-008     -1.796e-009    
  2.3             0.00012798      2.6509e-008     -1.3761e-009   
  2.35            0.0001282       1.1397e-008     5.865e-010     
  2.4             0.00012837      -2.5011e-008    1.364e-009     
  2.45            0.00012896      -1.2053e-008    -1.5241e-009   
  2.5             0.00012926      1.3047e-008     -1.5053e-009   
  2.55            0.00012964      1.4317e-008     -1.9542e-009   
  2.6             0.00012984      1.042e-008      -2.4434e-009   
  2.65            0.00013017      5.911e-009      -2.6845e-009   
  2.7             0.00013048      9.983e-009      -2.0123e-009   
  2.75            0.00013074      4.517e-009      -2.4883e-009   
  2.8             0.00013093      -1.7391e-008    -2.7316e-009   
  2.85            0.00013129      -3.02e-010      -2.4249e-009   
  2.9             0.00013144      -9.402e-009     2.1825e-009    
  2.95            0.00013168      -3.5759e-008    -4.099e-010    
  3               0.00013218      -7.692e-009     -1.498e-009    
  3.05            0.00013222      -2.5673e-008    2.6979e-009    
  3.1             0.00013263      -5.1973e-008    -1.1055e-009   
  3.15            0.00013293      -2.1274e-008    -1.3704e-009   
  3.2             0.0001331       -5.7175e-008    2.8768e-009    
  3.25            0.0001336       -8.1615e-008    -1.7685e-009   
  3.3             0.00013379      -7.2449e-008    -1.385e-010    
  3.35            0.00013396      -1.05334e-007   1.0244e-009    
  3.4             0.00013408      -1.0885e-007    1.483e-009     
  3.45            0.00013443      -1.397e-007     -2.6853e-009   
  3.5             0.00013466      -1.4225e-007    1.0733e-009    
  3.55            0.00013489      -2.0064e-007    2.2113e-009    
  3.6             0.0001353       -2.1091e-007    -2.3134e-009   
  3.65            0.00013559      -2.1955e-007    6.736e-010     
  3.7             0.00013576      -2.9017e-007    1.339e-009     
  3.75            0.00013618      -3.1073e-007    -2.7408e-009   
  3.8             0.00013629      -3.3675e-007    1.2851e-009    
  3.85            0.00013663      -4.1031e-007    1.7593e-009    
  3.9             0.00013701      -4.5287e-007    -2.5507e-009   
  3.95            0.0001373       -4.9095e-007    9.016e-010     
  4               0.00013753      -5.9331e-007    1.328e-009     
  4.05            0.00013795      -6.4311e-007    -2.7319e-009   
  4.1             0.00013803      -7.0653e-007    1.5384e-009    
  4.15            0.00013852      -8.1601e-007    3.09e-010      
