! VERSION = 6.00
BEGIN_HEADER
 ICCAP_INPUTS
  VG         V  B GROUND SMU4 0.001 LIN        1    0          5          101  0.05      
  VS         V  E GROUND SMU2 0.1 CON        0
  VB         V  C GROUND SMU3 0.1 LIN        3    0          -5         3    -2.5      
  VD         V  S GROUND SMU1 0.1 LIN        2    0.1        5          2    4.9       
 ICCAP_OUTPUTS
  IG         I  B GROUND SMU4 B
  ID         I  S GROUND SMU1 B
  IB         I  C GROUND SMU3 B
END_HEADER

BEGIN_DB
 ICCAP_VAR VS         0              
 ICCAP_VAR VB         0              
 ICCAP_VAR VD         0.1            

 #VG              IG              ID              IB             
  0               -1.3406e-009    -1.2222e-009    1.0781e-008    
  0.05            -1.316e-009     8.54e-011       1.1194e-008    
  0.1             -2.6931e-009    2.161e-010      1.2034e-008    
  0.15            -1.9495e-009    -1.2996e-009    6.33e-010      
  0.2             -6.511e-010     -2.2763e-009    -1.1445e-008   
  0.25            1.2656e-009     -1.5365e-009    -1.9813e-008   
  0.3             2.8904e-009     -1.117e-010     -1.2907e-008   
  0.35            1.093e-010      2.1991e-009     1.0013e-008    
  0.4             2.81e-010       2.4379e-009     1.0111e-008    
  0.45            4.577e-010      3.0276e-009     1.0428e-008    
  0.5             -1.3459e-009    4.1337e-009     2.5479e-008    
  0.55            2.4371e-009     1.0618e-008     -2.6372e-008   
  0.6             1.7564e-009     3.0213e-008     -4.908e-009    
  0.65            1.352e-009      8.0338e-008     -9.407e-009    
  0.7             -1.7736e-009    1.7811e-007     2.6975e-008    
  0.75            -6.201e-010     3.3184e-007     -1.0907e-008   
  0.8             -1.028e-009     5.4557e-007     -1.1526e-008   
  0.85            2.156e-010      8.1089e-007     -1.284e-008    
  0.9             1.4131e-009     1.1598e-006     1.002e-008     
  0.95            1.2747e-009     1.5791e-006     -8.638e-009    
  1               2.7919e-009     2.0657e-006     -1.1634e-008   
  1.05            5.526e-010      2.6117e-006     1.0124e-008    
  1.1             -1.8177e-009    3.1664e-006     2.3498e-008    
  1.15            -1.4334e-009    3.7374e-006     5.863e-009     
  1.2             -1.3313e-009    4.2853e-006     1.0277e-008    
  1.25            -2.6088e-009    4.818e-006      1.0977e-008    
  1.3             -2.0705e-009    5.3257e-006     7.11e-010      
  1.35            -1.5425e-009    5.8216e-006     3.968e-009     
  1.4             -1.3639e-009    6.2944e-006     8.635e-009     
  1.45            -2.7214e-009    6.7484e-006     1.1237e-008    
  1.5             -2.3407e-009    7.1817e-006     3.56e-010      
  1.55            -8.55e-010      7.6129e-006     -1.1381e-008   
  1.6             -1.2292e-009    8.0287e-006     -1.1284e-008   
  1.65            1.52e-011       8.4114e-006     -1.1865e-008   
  1.7             -4.505e-010     8.8085e-006     -1.0877e-008   
  1.75            -9.052e-010     9.1882e-006     -1.1519e-008   
  1.8             -1.2845e-009    9.5501e-006     -1.1302e-008   
  1.85            -4.29e-011      9.9012e-006     -1.1706e-008   
  1.9             -5.212e-010     1.02542e-005    -1.0944e-008   
  1.95            -9.544e-010     1.06005e-005    -1.1453e-008   
  2               2.909e-010      1.09262e-005    -1.3732e-008   
  2.05            -9.78e-011      1.12608e-005    -1.1531e-008   
  2.1             2.511e-009      1.1604e-005     -1.1301e-008   
  2.15            3.871e-010      1.1915e-005     1.0185e-008    
  2.2             8.127e-010      1.223e-005      1.0666e-008    
  2.25            -1.5321e-009    1.2526e-005     1.645e-008     
  2.3             -1.3594e-009    1.283e-005      9.107e-009     
  2.35            -2.7091e-009    1.3131e-005     1.1159e-008    
  2.4             -2.3037e-009    1.3413e-005     5.41e-010      
  2.45            -1.7081e-009    1.3697e-005     2.757e-009     
  2.5             -1.4058e-009    1.3981e-005     6.64e-009      
  2.55            -1.3223e-009    1.4257e-005     1.0585e-008    
  2.6             -2.5378e-009    1.4531e-005     1.1692e-008    
  2.65            -1.9611e-009    1.4794e-005     1.455e-009     
  2.7             -1.4931e-009    1.506e-005      4.536e-009     
  2.75            -1.351e-009     1.5322e-005     9.254e-009     
  2.8             -2.6817e-009    1.5585e-005     1.1113e-008    
  2.85            -2.2454e-009    1.5835e-005     5.32e-010      
  2.9             -1.6573e-009    1.6083e-005     2.973e-009     
  2.95            -1.3918e-009    1.6325e-005     7.002e-009     
  3               -1.3144e-009    1.6572e-005     1.1005e-008    
  3.05            -2.4987e-009    1.6815e-005     1.2052e-008    
  3.1             -1.8958e-009    1.7045e-005     1.788e-009     
  3.15            -1.4641e-009    1.728e-005      4.912e-009     
  3.2             -1.3417e-009    1.7509e-005     9.808e-009     
  3.25            -2.6529e-009    1.7738e-005     1.1147e-008    
  3.3             -2.17e-009      1.7958e-005     6.93e-010      
  3.35            -1.6073e-009    1.8179e-005     3.19e-009      
  3.4             -1.3787e-009    1.8396e-005     7.703e-009     
  3.45            -1.3081e-009    1.861e-005      1.1179e-008    
  3.5             -2.4437e-009    1.8829e-005     1.2715e-008    
  3.55            -1.8241e-009    1.9033e-005     2.198e-009     
  3.6             -1.4427e-009    1.9239e-005     5.443e-009     
  3.65            -1.3339e-009    1.9442e-005     9.896e-009     
  3.7             -2.6221e-009    1.9646e-005     1.1295e-008    
  3.75            -2.1093e-009    1.9843e-005     7.63e-010      
  3.8             -1.5657e-009    2.0037e-005     3.798e-009     
  3.85            -1.3699e-009    2.0231e-005     8.218e-009     
  3.9             -2.7352e-009    2.0421e-005     1.1164e-008    
  3.95            -3.541e-010     2.0605e-005     -1.0998e-008   
  4               -8.264e-010     2.0792e-005     -1.1286e-008   
  4.05            -1.2026e-009    2.0981e-005     -1.1291e-008   
  4.1             4.05e-011       2.1151e-005     -1.1928e-008   
  4.15            -4.224e-010     2.1334e-005     -1.0961e-008   
  4.2             -8.812e-010     2.1512e-005     -1.1434e-008   
  4.25            -1.2647e-009    2.1685e-005     -1.1319e-008   
  4.3             -1.35e-011      2.1851e-005     -1.1804e-008   
  4.35            -4.944e-010     2.2025e-005     -1.0973e-008   
  4.4             -9.348e-010     2.2193e-005     -1.1468e-008   
  4.45            3.11e-010       2.2349e-005     -1.3903e-008   
  4.5             -7.03e-011      2.2518e-005     -1.1592e-008   
  4.55            -5.564e-010     2.2681e-005     -1.0975e-008   
  4.6             -9.85e-010      2.2836e-005     -1.1436e-008   
  4.65            2.597e-010      2.2987e-005     -1.3318e-008   
  4.7             -1.412e-010     2.3145e-005     -1.1323e-008   
  4.75            -6.31e-010      2.3298e-005     -1.0998e-008   
  4.8             -1.0404e-009    2.3448e-005     -1.1279e-008   
  4.85            2.069e-010      2.358e-005      -1.2871e-008   
  4.9             -2.065e-010     2.374e-005      -1.1223e-008   
  4.95            -6.941e-010     2.3883e-005     -1.1106e-008   
  5               1.8132e-009     2.4021e-005     -1.879e-008    
END_DB

BEGIN_DB
 ICCAP_VAR VS         0              
 ICCAP_VAR VB         0              
 ICCAP_VAR VD         5              

 #VG              IG              ID              IB             
  0               -2.4539e-009    -2.2451e-009    1.7314e-008    
  0.05            -1.2147e-009    -2.1363e-009    1.956e-009     
  0.1             2.596e-010      -1.8181e-009    -1.2006e-008   
  0.15            1.083e-010      -1.9254e-009    -1.1507e-008   
  0.2             -5.58e-011      -2.0424e-009    -1.1017e-008   
  0.25            -2.445e-010     -2.115e-009     -1.0971e-008   
  0.3             -4.409e-010     -2.0447e-009    -1.117e-008    
  0.35            1.3917e-009     -4.322e-010     -1.1471e-008   
  0.4             1.3154e-009     3.2424e-009     -9.152e-009    
  0.45            2.8558e-009     1.2673e-008     2.6253e-008    
  0.5             -1.5683e-009    4.0301e-008     1.8795e-008    
  0.55            -1.3151e-009    1.1809e-007     -1.1099e-008   
  0.6             -2.7512e-009    2.7493e-007     -2.7155e-008   
  0.65            -2.7691e-009    5.5919e-007     -4.2799e-008   
  0.7             -2.5064e-009    1.00142e-006    -6.6974e-008   
  0.75            -7.8e-012       1.6328e-006     -1.0793e-007   
  0.8             -4.862e-010     2.5036e-006     -1.6638e-007   
  0.85            -9.274e-010     3.6713e-006     -2.3077e-007   
  0.9             -1.3144e-009    5.127e-006      -3.0588e-007   
  0.95            -1.7186e-009    6.8236e-006     -3.9206e-007   
  1               -1.9956e-009    8.7373e-006     -4.8042e-007   
  1.05            -2.3065e-009    1.08811e-005    -5.7415e-007   
  1.1             1.9828e-009     1.3169e-005     -6.7686e-007   
  1.15            2.3286e-009     1.5731e-005     -7.4567e-007   
  1.2             2.6177e-009     1.8358e-005     -8.4133e-007   
  1.25            2.8977e-009     2.1127e-005     -9.3449e-007   
  1.3             2.8829e-009     2.3968e-005     -1.02904e-006  
  1.35            2.4764e-009     2.6901e-005     -1.11444e-006  
  1.4             1.123e-010      2.9961e-005     -1.1661e-006   
  1.45            5.414e-010      3.3069e-005     -1.2595e-006   
  1.5             9.481e-010      3.6171e-005     -1.329e-006    
  1.55            1.3249e-009     3.9328e-005     -1.3937e-006   
  1.6             1.7528e-009     4.2598e-005     -1.452e-006    
  1.65            2.1581e-009     4.5932e-005     -1.5085e-006   
  1.7             2.4517e-009     4.93e-005       -1.5584e-006   
  1.75            2.7719e-009     5.2668e-005     -1.6027e-006   
  1.8             2.943e-009      5.6062e-005     -1.6471e-006   
  1.85            2.7476e-009     5.9476e-005     -1.6869e-006   
  1.9             2.1661e-009     6.2894e-005     -1.719e-006    
  1.95            1.5521e-009     6.6381e-005     -1.7503e-006   
  2               1.3099e-009     6.9785e-005     -1.7766e-006   
  2.05            2.8875e-009     7.3363e-005     -1.7941e-006   
  2.1             2.4737e-009     7.6939e-005     -1.7999e-006   
  2.15            1.8017e-009     8.0491e-005     -1.8136e-006   
  2.2             1.3815e-009     8.401e-005      -1.8266e-006   
  2.25            1.2667e-009     8.7566e-005     -1.8313e-006   
  2.3             2.7269e-009     9.1144e-005     -1.8351e-006   
  2.35            2.1058e-009     9.4783e-005     -1.8221e-006   
  2.4             1.5222e-009     9.838e-005      -1.8215e-006   
  2.45            1.3023e-009     0.00010197      -1.8177e-006   
  2.5             2.8711e-009     0.000105554     -1.8077e-006   
  2.55            2.4211e-009     0.000109258     -1.7909e-006   
  2.6             1.7521e-009     0.000112885     -1.7777e-006   
  2.65            2.2281e-009     0.00011657      -1.7608e-006   
  2.7             1.5819e-009     0.00012018      -1.749e-006    
  2.75            1.3186e-009     0.00012387      -1.7345e-006   
  2.8             2.9005e-009     0.00012755      -1.7136e-006   
  2.85            2.5102e-009     0.00013126      -1.6836e-006   
  2.9             1.8411e-009     0.00013491      -1.6652e-006   
  2.95            1.3951e-009     0.00013859      -1.6452e-006   
  3               1.27e-009       0.0001422       -1.6231e-006   
  3.05            2.7506e-009     0.00014583      -1.597e-006    
  3.1             2.1513e-009     0.00014954      -1.563e-006    
  3.15            1.5496e-009     0.00015318      -1.5389e-006   
  3.2             1.3096e-009     0.00015683      -1.5172e-006   
  3.25            2.8858e-009     0.00016046      -1.489e-006    
  3.3             2.465e-009      0.00016413      -1.4535e-006   
  3.35            1.7881e-009     0.0001678       -1.4262e-006   
  3.4             1.3787e-009     0.00017149      -1.4061e-006   
  3.45            1.2644e-009     0.00017515      -1.3755e-006   
  3.5             2.7185e-009     0.0001788       -1.3496e-006   
  3.55            2.0943e-009     0.00018247      -1.3118e-006   
  3.6             1.5143e-009     0.00018613      -1.2886e-006   
  3.65            1.3036e-009     0.00018978      -1.2614e-006   
  3.7             2.872e-009      0.0001934       -1.2306e-006   
  3.75            2.4132e-009     0.00019708      -1.1948e-006   
  3.8             1.7427e-009     0.00020074      -1.1697e-006   
  3.85            1.3625e-009     0.00020439      -1.1482e-006   
  3.9             1.2613e-009     0.00020802      -1.1181e-006   
  3.95            2.6892e-009     0.00021164      -1.0946e-006   
  4               2.0406e-009     0.00021532      -1.0576e-006   
  4.05            1.4857e-009     0.00021891      -1.0373e-006   
  4.1             1.2954e-009     0.00022251      -1.0133e-006   
  4.15            -2.7881e-009    0.00022622      -9.8311e-007   
  4.2             -2.7009e-009    0.00022984      -9.5384e-007   
  4.25            -2.2869e-009    0.00023347      -9.2645e-007   
  4.3             -1.6961e-009    0.0002371       -9.0021e-007   
  4.35            -1.4108e-009    0.00024067      -8.7224e-007   
  4.4             -1.3178e-009    0.0002443       -8.4483e-007   
  4.45            -2.5345e-009    0.00024793      -8.2002e-007   
  4.5             -1.953e-009     0.00025148      -8.0815e-007   
  4.55            -1.4947e-009    0.0002551       -7.8239e-007   
  4.6             -1.3535e-009    0.00025867      -7.5511e-007   
  4.65            -2.683e-009     0.00026224      -7.3163e-007   
  4.7             -2.2395e-009    0.00026577      -7.2166e-007   
  4.75            -1.6636e-009    0.00026933      -6.9963e-007   
  4.8             -1.395e-009     0.0002729       -6.7474e-007   
  4.85            -1.3122e-009    0.00027645      -6.5127e-007   
  4.9             -2.4929e-009    0.00028         -6.3172e-007   
  4.95            -1.9006e-009    0.00028347      -6.2322e-007   
  5               -1.469e-009     0.00028701      -6.017e-007    
END_DB

BEGIN_DB
 ICCAP_VAR VS         0              
 ICCAP_VAR VB         -2.5           
 ICCAP_VAR VD         0.1            

 #VG              IG              ID              IB             
  0               1.2618e-009     1.2049e-009     -1.1362e-008   
  0.05            2.8896e-009     -1.311e-010     -1.3147e-008   
  0.1             1.207e-010      2.1617e-009     1.0161e-008    
  0.15            2.935e-010      2.2699e-009     1.0175e-008    
  0.2             4.678e-010      2.364e-009      1.0304e-008    
  0.25            6.414e-010      2.4203e-009     1.0554e-008    
  0.3             -1.3174e-009    1.592e-009      2.0838e-008    
  0.35            -2.6916e-009    2.295e-010      1.1997e-008    
  0.4             -1.9534e-009    -1.2975e-009    5.53e-010      
  0.45            -6.463e-010     -2.2688e-009    -1.14e-008     
  0.5             1.2667e-009     -1.5399e-009    -1.9685e-008   
  0.55            2.8974e-009     -1.113e-010     -1.2912e-008   
  0.6             1.115e-010      2.155e-009      1.0207e-008    
  0.65            2.822e-010      2.2659e-009     1.0191e-008    
  0.7             4.528e-010      2.365e-009      1.0281e-008    
  0.75            6.326e-010      2.4516e-009     1.0598e-008    
  0.8             -1.3177e-009    1.7584e-009     2.1237e-008    
  0.85            -2.6975e-009    9.974e-010      1.1844e-008    
  0.9             -2.569e-009     2.4029e-009     4.48e-010      
  0.95            1.2795e-009     1.3361e-008     1.0088e-008    
  1               2.8111e-009     4.2163e-008     -1.1327e-008   
  1.05            -2.7948e-009    1.1116e-007     1.0066e-008    
  1.1             -2.6e-012       2.3655e-007     -1.1926e-008   
  1.15            -4.764e-010     4.5399e-007     -1.0932e-008   
  1.2             -9.26e-010      6.8255e-007     -1.1387e-008   
  1.25            1.5208e-009     9.9941e-007     -1.4226e-008   
  1.3             2.9019e-009     1.4079e-006     2.5994e-008    
  1.35            -3.42e-011      1.8911e-006     1.1571e-008    
  1.4             3.752e-010      2.4226e-006     1.0016e-008    
  1.45            7.981e-010      2.972e-006      1.0651e-008    
  1.5             -1.5442e-009    3.5344e-006     1.6779e-008    
  1.55            -1.3637e-009    4.0818e-006     8.842e-009     
  1.6             -2.7118e-009    4.6132e-006     1.1175e-008    
  1.65            -3.978e-010     5.1341e-006     -1.0935e-008   
  1.7             -8.637e-010     5.5969e-006     -1.1403e-008   
  1.75            -1.2419e-009    6.0559e-006     -1.1272e-008   
  1.8             -2.8e-012       6.4826e-006     -1.1919e-008   
  1.85            -4.683e-010     6.9255e-006     -1.0879e-008   
  1.9             -9.185e-010     7.3278e-006     -1.1529e-008   
  1.95            -1.3071e-009    7.7432e-006     -1.1272e-008   
  2               -5.41e-011      8.1036e-006     -1.1782e-008   
  2.05            -5.332e-010     8.4815e-006     -1.1035e-008   
  2.1             -9.728e-010     8.8421e-006     -1.1505e-008   
  2.15            2.775e-010      9.1847e-006     -1.3583e-008   
  2.2             -1.195e-010     9.5313e-006     -1.1551e-008   
  2.25            -6.049e-010     9.8849e-006     -1.0995e-008   
  2.3             -1.0218e-009    1.0196e-005     -1.1508e-008   
  2.35            2.225e-010      1.05035e-005    -1.3093e-008   
  2.4             -1.876e-010     1.08235e-005    -1.1327e-008   
  2.45            -6.778e-010     1.11284e-005    -1.102e-008    
  2.5             1.3762e-009     1.1432e-005     -1.8979e-008   
  2.55            2.178e-010      1.1735e-005     1.0378e-008    
  2.6             6.468e-010      1.2024e-005     1.0236e-008    
  2.65            -1.6918e-009    1.2304e-005     2.0861e-008    
  2.7             -1.3985e-009    1.2581e-005     6.739e-009     
  2.75            -1.3163e-009    1.2856e-005     1.0637e-008    
  2.8             -2.5068e-009    1.3126e-005     1.1735e-008    
  2.85            -1.9234e-009    1.339e-005      1.441e-009     
  2.9             -1.4747e-009    1.3647e-005     4.638e-009     
  2.95            -1.3469e-009    1.3905e-005     9.508e-009     
  3               -2.6648e-009    1.4154e-005     1.0997e-008    
  3.05            -2.2031e-009    1.4398e-005     6.32e-010      
  3.1             -9.25e-010      1.4639e-005     -1.1427e-008   
  3.15            3.158e-010      1.487e-005      -1.4046e-008   
  3.2             -6.09e-011      1.5112e-005     -1.1686e-008   
  3.25            -5.562e-010     1.5346e-005     -1.098e-008    
  3.3             -9.874e-010     1.5578e-005     -1.1516e-008   
  3.35            2.639e-010      1.5796e-005     -1.3359e-008   
  3.4             -1.313e-010     1.6022e-005     -1.1502e-008   
  3.45            -6.241e-010     1.6244e-005     -1.1037e-008   
  3.5             -1.0376e-009    1.6463e-005     -1.154e-008    
  3.55            2.047e-010      1.6668e-005     -1.2827e-008   
  3.6             -2.115e-010     1.6884e-005     -1.1264e-008   
  3.65            -6.968e-010     1.709e-005      -1.108e-008    
  3.7             1.804e-009      1.7292e-005     -1.8737e-008   
  3.75            1.3668e-009     1.75e-005       -9.496e-009    
  3.8             1.2572e-009     1.7699e-005     -8.688e-009    
  3.85            2.7156e-009     1.7899e-005     -1.3139e-008   
  3.9             2.5395e-009     1.809e-005      9.104e-009     
  3.95            4.158e-010      1.8288e-005     9.976e-009     
  4               8.469e-010      1.8474e-005     1.0579e-008    
  4.05            -1.5087e-009    1.8652e-005     1.5766e-008    
  4.1             -1.3517e-009    1.8842e-005     8.898e-009     
  4.15            -2.6872e-009    1.9025e-005     1.1307e-008    
