! VERSION = 6.00
BEGIN_HEADER
 ICCAP_INPUTS
  VG         V  B GROUND SMU4 0.001 LIN        1    0          5          101  0.05      
  VS         V  E GROUND SMU2 0.1 CON        0
  VB         V  C GROUND SMU3 0.1 LIN        3    0          -5         3    -2.5      
  VD         V  S GROUND SMU1 0.1 LIN        2    0.1        5          2    4.9       
 ICCAP_OUTPUTS
  IG         I  B GROUND SMU4 B
  ID         I  S GROUND SMU1 B
  IB         I  C GROUND SMU3 B
END_HEADER

BEGIN_DB
 ICCAP_VAR VS         0              
 ICCAP_VAR VB         0              
 ICCAP_VAR VD         0.1            

 #VG              IG              ID              IB             
  0               -1.1467e-009    -1.0296e-009    -1.8381e-008   
  0.05            -1.6179e-009    9.268e-010      2.4815e-008    
  0.1             -1.7911e-009    -1.4698e-009    7.862e-009     
  0.15            -3.696e-010     -2.2123e-009    -1.0991e-008   
  0.2             -6.046e-010     -2.254e-009     -1.1348e-008   
  0.25            1.2562e-009     -1.4966e-009    -1.9371e-008   
  0.3             2.863e-009      -6.11e-011      -1.3011e-008   
  0.35            1.028e-010      2.2861e-009     1.0426e-008    
  0.4             2.856e-010      2.8317e-009     1.0251e-008    
  0.45            4.817e-010      4.5442e-009     1.0532e-008    
  0.5             -1.3307e-009    9.8205e-009     2.3724e-008    
  0.55            2.8842e-009     2.7046e-008     1.0316e-008    
  0.6             3.012e-010      7.3502e-008     1.0479e-008    
  0.65            2.8815e-009     1.5888e-007     -1.1001e-008   
  0.7             1.2916e-009     2.9669e-007     1.0975e-008    
  0.75            9.98e-011       4.9576e-007     1.1098e-008    
  0.8             5.573e-010      7.4965e-007     1.0298e-008    
  0.85            -1.7291e-009    1.08356e-006    2.2091e-008    
  0.9             -2.7291e-009    1.4793e-006     -2.2979e-008   
  0.95            -8.022e-010     1.9499e-006     -1.1104e-008   
  1               1.6139e-009     2.466e-006      -1.555e-008    
  1.05            1.3106e-009     3.0255e-006     -8.762e-009    
  1.1             2.8683e-009     3.5856e-006     -9.173e-009    
  1.15            3.281e-010      4.1726e-006     1.032e-008     
  1.2             -1.3101e-009    4.7217e-006     2.6314e-008    
  1.25            -2.4322e-009    5.2504e-006     1.2466e-008    
  1.3             -1.808e-009     5.7587e-006     2.214e-009     
  1.35            -1.4368e-009    6.2529e-006     5.775e-009     
  1.4             -1.3295e-009    6.7305e-006     1.0409e-008    
  1.45            -2.5679e-009    7.1941e-006     1.1435e-008    
  1.5             -1.9891e-009    7.6357e-006     1.222e-009     
  1.55            -1.5073e-009    8.0679e-006     4.162e-009     
  1.6             -1.3561e-009    8.4906e-006     9.457e-009     
  1.65            -2.6661e-009    8.9006e-006     1.16e-008      
  1.7             -2.1708e-009    9.2928e-006     9.83e-010      
  1.75            -1.6069e-009    9.6833e-006     3.297e-009     
  1.8             -1.3825e-009    1.00618e-005    7.722e-009     
  1.85            -2.7409e-009    1.04317e-005    1.1542e-008    
  1.9             -2.728e-010     1.07831e-005    -1.1092e-008   
  1.95            -8.09e-010      1.11391e-005    -1.1105e-008   
  2               1.5315e-009     1.1488e-005     -1.538e-008    
  2.05            3.448e-010      1.1837e-005     1.0262e-008    
  2.1             -1.3083e-009    1.2171e-005     2.5921e-008    
  2.15            -2.4127e-009    1.2498e-005     1.2588e-008    
  2.2             -1.7971e-009    1.2811e-005     2.244e-009     
  2.25            -1.4346e-009    1.3126e-005     5.819e-009     
  2.3             -1.3282e-009    1.3434e-005     1.0532e-008    
  2.35            -2.5561e-009    1.374e-005      1.1288e-008    
  2.4             -1.9705e-009    1.4034e-005     1.501e-009     
  2.45            -1.501e-009     1.4328e-005     4.155e-009     
  2.5             -1.3517e-009    1.4616e-005     9.552e-009     
  2.55            -2.6641e-009    1.4903e-005     1.1534e-008    
  2.6             -2.1543e-009    1.5179e-005     9.61e-010      
  2.65            -1.6006e-009    1.5453e-005     3.259e-009     
  2.7             -1.3814e-009    1.5727e-005     7.949e-009     
  2.75            -2.7316e-009    1.5995e-005     1.1651e-008    
  2.8             -2.3486e-009    1.6263e-005     2.99e-010      
  2.85            -1.7405e-009    1.6522e-005     2.663e-009     
  2.9             -1.4193e-009    1.6781e-005     6.054e-009     
  2.95            -1.3191e-009    1.7033e-005     1.0945e-008    
  3               -2.5092e-009    1.7287e-005     1.1577e-008    
  3.05            -1.9077e-009    1.7529e-005     1.751e-009     
  3.1             -1.4765e-009    1.777e-005      4.7e-009       
  3.15            -1.3452e-009    1.8012e-005     9.9e-009       
  3.2             -2.6219e-009    1.8248e-005     1.1293e-008    
  3.25            -2.0891e-009    1.8478e-005     1.016e-009     
  3.3             -1.5644e-009    1.871e-005      3.666e-009     
  3.35            -1.3734e-009    1.8938e-005     8.519e-009     
  3.4             -2.707e-009     1.9161e-005     1.1747e-008    
  3.45            -2.2715e-009    1.9382e-005     6.12e-010      
  3.5             -1.6903e-009    1.96e-005       2.725e-009     
  3.55            -1.4085e-009    1.9817e-005     6.609e-009     
  3.6             -1.3117e-009    2.0031e-005     1.1267e-008    
  3.65            -2.4545e-009    2.0242e-005     1.1888e-008    
  3.7             -1.843e-009     2.0447e-005     2.033e-009     
  3.75            -1.4568e-009    2.0655e-005     5.079e-009     
  3.8             -1.3377e-009    2.0855e-005     1.025e-008     
  3.85            -2.5898e-009    2.1056e-005     1.1274e-008    
  3.9             -2.0251e-009    2.1249e-005     1.096e-009     
  3.95            -1.5321e-009    2.1444e-005     3.718e-009     
  4               -1.3635e-009    2.1637e-005     9.081e-009     
  4.05            -2.6868e-009    2.1828e-005     1.1668e-008    
  4.1             -2.221e-009     2.2011e-005     7.68e-010      
  4.15            -1.6527e-009    2.2199e-005     3.006e-009     
  4.2             -1.3957e-009    2.2377e-005     7.138e-009     
  4.25            -2.754e-009     2.2561e-005     1.1499e-008    
  4.3             -1.2738e-009    2.2738e-005     -1.1644e-008   
  4.35            -2e-011         2.2903e-005     -1.2076e-008   
  4.4             -5.141e-010     2.3082e-005     -1.0928e-008   
  4.45            1.9286e-009     2.3253e-005     -2.0211e-008   
  4.5             1.4211e-009     2.3428e-005     -8.69e-009     
  4.55            1.2649e-009     2.3595e-005     -8.668e-009    
  4.6             2.7209e-009     2.3755e-005     -1.2078e-008   
  4.65            5.535e-010      2.3924e-005     1.0139e-008    
  4.7             -1.7204e-009    2.4079e-005     2.1612e-008    
  4.75            -1.4129e-009    2.4239e-005     6.383e-009     
  4.8             -1.3124e-009    2.4391e-005     1.1274e-008    
  4.85            -2.4688e-009    2.4553e-005     1.1722e-008    
  4.9             -1.858e-009     2.47e-005       1.946e-009     
  4.95            -1.4622e-009    2.485e-005      4.788e-009     
  5               -1.3371e-009    2.4996e-005     1.0162e-008    
END_DB

BEGIN_DB
 ICCAP_VAR VS         0              
 ICCAP_VAR VB         0              
 ICCAP_VAR VD         5              

 #VG              IG              ID              IB             
  0               1.6403e-009     1.9291e-009     2.753e-009     
  0.05            1.8006e-009     1.5541e-009     -8.745e-009    
  0.1             3.71e-010       2.301e-009      1.0232e-008    
  0.15            -1.351e-009     1.4133e-009     2.5664e-008    
  0.2             -1.3125e-009    1.461e-010      1.139e-008     
  0.25            -2.6845e-009    6.281e-010      1.2088e-008    
  0.3             -2.5216e-009    9.676e-010      8.18e-010      
  0.35            -2.2984e-009    6.2597e-009     9.09e-010      
  0.4             2.6675e-009     2.5256e-008     1.342e-008     
  0.45            -2.5743e-009    7.2467e-008     5.116e-009     
  0.5             -1.3872e-009    1.8587e-007     -1.5305e-008   
  0.55            -2.5683e-009    3.9495e-007     -3.2419e-008   
  0.6             -2.0077e-009    7.6442e-007     -5.7503e-008   
  0.65            -2.1694e-009    1.3321e-006     -1.02263e-007  
  0.7             1.5108e-009     2.1338e-006     -1.4961e-007   
  0.75            1.2856e-009     3.2254e-006     -2.2902e-007   
  0.8             2.8184e-009     4.5873e-006     -3.1365e-007   
  0.85            2.3023e-009     6.2536e-006     -3.9962e-007   
  0.9             1.6401e-009     8.1605e-006     -5.0765e-007   
  0.95            1.321e-009      1.02904e-005    -6.2108e-007   
  1               -1.412e-009     1.2707e-005     -7.2737e-007   
  1.05            -1.3167e-009    1.5212e-005     -8.3228e-007   
  1.1             -2.4846e-009    1.7889e-005     -9.4554e-007   
  1.15            -1.8654e-009    2.0703e-005     -1.06986e-006  
  1.2             7.232e-010      2.3563e-005     -1.1999e-006   
  1.25            1.6812e-009     2.652e-005      -1.302e-006    
  1.3             1.3267e-009     2.9584e-005     -1.391e-006    
  1.35            2.8917e-009     3.2721e-005     -1.4832e-006   
  1.4             2.5221e-009     3.5959e-005     -1.5645e-006   
  1.45            1.8439e-009     3.9238e-005     -1.6517e-006   
  1.5             1.3847e-009     4.2543e-005     -1.7375e-006   
  1.55            2.9179e-009     4.5911e-005     -1.8071e-006   
  1.6             2.6765e-009     4.9336e-005     -1.8647e-006   
  1.65            2.0603e-009     5.2766e-005     -1.9299e-006   
  1.7             1.4751e-009     5.6238e-005     -1.9908e-006   
  1.75            1.2795e-009     5.9741e-005     -2.042e-006    
  1.8             2.8057e-009     6.3254e-005     -2.0876e-006   
  1.85            2.2667e-009     6.6843e-005     -2.121e-006    
  1.9             1.6057e-009     7.0415e-005     -2.1605e-006   
  1.95            1.3119e-009     7.401e-005      -2.1956e-006   
  2               2.8738e-009     7.7602e-005     -2.2203e-006   
  2.05            2.4673e-009     8.1271e-005     -2.2364e-006   
  2.1             1.7741e-009     8.4917e-005     -2.254e-006    
  2.15            1.3634e-009     8.8551e-005     -2.274e-006    
  2.2             2.9099e-009     9.222e-005      -2.2846e-006   
  2.25            2.6317e-009     9.5922e-005     -2.2807e-006   
  2.3             1.978e-009      9.9599e-005     -2.2863e-006   
  2.35            1.4392e-009     0.000103288     -2.2915e-006   
  2.4             1.2719e-009     0.000106992     -2.2914e-006   
  2.45            2.7667e-009     0.000110674     -2.2862e-006   
  2.5             -2.7863e-009    0.00011458      -2.2683e-006   
  2.55            -2.5761e-009    0.00011832      -2.2591e-006   
  2.6             -2.0172e-009    0.00012203      -2.2408e-006   
  2.65            -1.5149e-009    0.00012578      -2.2227e-006   
  2.7             -1.358e-009     0.00012952      -2.2e-006      
  2.75            -2.681e-009     0.00013327      -2.1764e-006   
  2.8             -2.2079e-009    0.00013705      -2.1649e-006   
  2.85            -1.6265e-009    0.0001408       -2.1401e-006   
  2.9             -1.3865e-009    0.00014454      -2.114e-006    
  2.95            -2.7407e-009    0.00014832      -2.0825e-006   
  3               -2.3862e-009    0.00015203      -2.0697e-006   
  3.05            -1.7736e-009    0.00015579      -2.0393e-006   
  3.1             -1.425e-009     0.00015953      -2.0079e-006   
  3.15            -1.3235e-009    0.00016331      -1.9722e-006   
  3.2             -2.5428e-009    0.00016706      -1.9393e-006   
  3.25            -1.9539e-009    0.00017078      -1.9197e-006   
  3.3             -1.4892e-009    0.00017452      -1.8854e-006   
  3.35            -1.3477e-009    0.00017827      -1.8492e-006   
  3.4             -2.647e-009     0.00018201      -1.8146e-006   
  3.45            -2.1434e-009    0.00018574      -1.7927e-006   
  3.5             -1.5823e-009    0.00018946      -1.7581e-006   
  3.55            -1.3733e-009    0.00019322      -1.7217e-006   
  3.6             -2.7217e-009    0.00019696      -1.6836e-006   
  3.65            -2.3276e-009    0.00020066      -1.6623e-006   
  3.7             -1.7195e-009    0.00020437      -1.6283e-006   
  3.75            -1.4085e-009    0.0002081       -1.5906e-006   
  3.8             -1.3173e-009    0.00021182      -1.5544e-006   
  3.85            -2.4934e-009    0.00021556      -1.5203e-006   
  3.9             -1.8809e-009    0.00021924      -1.4953e-006   
  3.95            -1.4587e-009    0.00022294      -1.4606e-006   
  4               -1.3385e-009    0.00022664      -1.4251e-006   
  4.05            -2.6151e-009    0.00023033      -1.3928e-006   
  4.1             -2.0704e-009    0.000234        -1.3709e-006   
  4.15            -1.5382e-009    0.00023768      -1.3379e-006   
  4.2             -1.3622e-009    0.00024138      -1.3032e-006   
  4.25            -2.698e-009     0.000245        -1.2685e-006   
  4.3             -2.2545e-009    0.00024869      -1.2494e-006   
  4.35            -1.6621e-009    0.00025236      -1.2185e-006   
  4.4             -1.3912e-009    0.00025601      -1.1846e-006   
  4.45            -1.3054e-009    0.00025972      -1.1498e-006   
  4.5             -2.4406e-009    0.00026339      -1.1242e-006   
  4.55            -1.8192e-009    0.00026698      -1.1041e-006   
  4.6             -1.4355e-009    0.00027058      -1.0749e-006   
  4.65            -1.3278e-009    0.00027422      -1.0447e-006   
  4.7             2.8817e-009     0.00027778      -1.02351e-006  
  4.75            2.8587e-009     0.00028136      -1.00227e-006  
  4.8             2.4303e-009     0.00028495      -9.7959e-007   
  4.85            1.7468e-009     0.00028851      -9.5798e-007   
  4.9             1.3522e-009     0.00029208      -9.3912e-007   
  4.95            2.9046e-009     0.00029569      -9.1312e-007   
  5               2.6108e-009     0.00029922      -8.8414e-007   
END_DB

BEGIN_DB
 ICCAP_VAR VS         0              
 ICCAP_VAR VB         -2.5           
 ICCAP_VAR VD         0.1            

 #VG              IG              ID              IB             
  0               -1.3981e-009    -1.3844e-009    1.0318e-008    
  0.05            -1.2049e-009    -2.0946e-009    1.1269e-008    
  0.1             2.35e-010       -1.8198e-009    -1.2008e-008   
  0.15            8.63e-011       -1.9484e-009    -1.1511e-008   
  0.2             -6.03e-011      -2.0837e-009    -1.1016e-008   
  0.25            -2.615e-010     -2.1842e-009    -1.0941e-008   
  0.3             -4.903e-010     -2.239e-009     -1.1099e-008   
  0.35            1.2695e-009     -1.4517e-009    -2.1173e-008   
  0.4             2.8878e-009     -2.96e-011      -1.1613e-008   
  0.45            1.0406e-009     2.3264e-009     1.0959e-008    
  0.5             -1.511e-009     1.8735e-009     1.2482e-008    
  0.55            -1.8714e-009    -1.3504e-009    9.324e-009     
  0.6             -5.01e-010      -2.2392e-009    -1.1153e-008   
  0.65            1.2699e-009     -1.4307e-009    -2.0919e-008   
  0.7             2.8879e-009     6.21e-011       -1.1693e-008   
  0.75            1.0474e-009     2.7321e-009     1.0969e-008    
  0.8             -1.5051e-009    3.6733e-009     1.2465e-008    
  0.85            -1.4133e-009    7.1154e-009     9.432e-009     
  0.9             2.0591e-009     2.5265e-008     1.0894e-008    
  0.95            1.4692e-009     7.2587e-008     -7.968e-009    
  1               -1.6006e-009    1.6394e-007     2.5486e-008    
  1.05            -4.044e-010     3.1104e-007     -1.0953e-008   
  1.1             2.0858e-009     5.2134e-007     -2.26e-008     
  1.15            1.4829e-009     8.0451e-007     -7.617e-009    
  1.2             2.9098e-009     1.1649e-006     2.7872e-008    
  1.25            2.7285e-009     1.5971e-006     1.63e-010      
  1.3             5.346e-010      2.1e-006        1.0369e-008    
  1.35            -1.7396e-009    2.6368e-006     2.2214e-008    
  1.4             -1.4113e-009    3.1885e-006     6.42e-009      
  1.45            -1.3179e-009    3.7424e-006     1.0843e-008    
  1.5             -2.5017e-009    4.286e-006      1.1825e-008    
  1.55            -1.898e-009     4.8095e-006     1.842e-009     
  1.6             -1.4685e-009    5.317e-006      4.848e-009     
  1.65            -1.3418e-009    5.804e-006      9.836e-009     
  1.7             -2.6245e-009    6.2749e-006     1.1496e-008    
  1.75            -2.0976e-009    6.7216e-006     1.052e-009     
  1.8             -1.5628e-009    7.1589e-006     3.558e-009     
  1.85            -1.3691e-009    7.5809e-006     8.454e-009     
  1.9             -2.7113e-009    7.9873e-006     1.1752e-008    
  1.95            -2.294e-009     8.3777e-006     5.75e-010      
  2               -1.6955e-009    8.7618e-006     2.748e-009     
  2.05            -1.4055e-009    9.1332e-006     6.462e-009     
  2.1             -1.312e-009     9.4972e-006     1.1253e-008    
  2.15            -2.4774e-009    9.8521e-006     1.1926e-008    
  2.2             -1.8639e-009    1.01922e-005    1.875e-009     
  2.25            -1.4582e-009    1.05265e-005    4.593e-009     
  2.3             -1.3376e-009    1.08549e-005    1.0051e-008    
  2.35            -2.6102e-009    1.11794e-005    1.1441e-008    
  2.4             2.0346e-009     1.1494e-005     1.066e-009     
  2.45            1.4602e-009     1.1805e-005     -7.845e-009    
  2.5             1.2803e-009     1.2104e-005     -8.624e-009    
  2.55            2.7895e-009     1.2403e-005     -1.0906e-008   
  2.6             4.721e-010      1.2699e-005     1.038e-008     
  2.65            -1.8158e-009    1.2986e-005     2.3691e-008    
  2.7             -1.4342e-009    1.3267e-005     5.527e-009     
  2.75            -1.3267e-009    1.3542e-005     1.0466e-008    
  2.8             -2.5643e-009    1.382e-005      1.1415e-008    
  2.85            -1.9887e-009    1.4084e-005     1.369e-009     
  2.9             -1.5086e-009    1.4348e-005     4.163e-009     
  2.95            -1.3543e-009    1.4608e-005     9.227e-009     
  3               -2.6656e-009    1.4863e-005     1.1674e-008    
  3.05            -2.1966e-009    1.5111e-005     9.02e-010      
  3.1             -1.6246e-009    1.5359e-005     3.153e-009     
  3.15            -1.3832e-009    1.5605e-005     7.509e-009     
  3.2             -2.7379e-009    1.5845e-005     1.1439e-008    
  3.25            -2.438e-010     1.6075e-005     -1.1227e-008   
  3.3             -7.78e-010      1.6308e-005     -1.0993e-008   
  3.35            1.6388e-009     1.6532e-005     -1.5805e-008   
  3.4             1.3217e-009     1.6767e-005     -8.825e-009    
  3.45            2.8812e-009     1.6989e-005     -8.852e-009    
  3.5             1.3054e-009     1.7213e-005     1.0968e-008    
  3.55            1.158e-010      1.7436e-005     1.1123e-008    
  3.6             5.769e-010      1.7649e-005     1.0281e-008    
  3.65            -1.707e-009     1.7859e-005     2.1449e-008    
  3.7             -1.4021e-009    1.8066e-005     6.562e-009     
  3.75            -1.3076e-009    1.8277e-005     1.1047e-008    
  3.8             -2.4755e-009    1.8484e-005     1.1973e-008    
  3.85            -1.8727e-009    1.8682e-005     2.009e-009     
  3.9             -1.4561e-009    1.888e-005      4.882e-009     
  3.95            -1.3341e-009    1.9076e-005     1.0002e-008    
  4               -2.6057e-009    1.927e-005      1.1347e-008    
  4.05            -2.0614e-009    1.9457e-005     1.106e-009     
  4.1             -1.5436e-009    1.9649e-005     3.664e-009     
  4.15            -1.3595e-009    1.9833e-005     8.697e-009     
