! VERSION = 6.00
BEGIN_HEADER
 ICCAP_INPUTS
  VG         V  B GROUND SMU4 0.001 LIN        1    0          5          101  0.05      
  VS         V  E GROUND SMU2 0.1 CON        0
  VB         V  C GROUND SMU3 0.1 LIN        3    0          -5         3    -2.5      
  VD         V  S GROUND SMU1 0.1 LIN        2    0.1        5          2    4.9       
 ICCAP_OUTPUTS
  IG         I  B GROUND SMU4 B
  ID         I  S GROUND SMU1 B
  IB         I  C GROUND SMU3 B
END_HEADER

BEGIN_DB
 ICCAP_VAR VS         0              
 ICCAP_VAR VB         0              
 ICCAP_VAR VD         0.1            

 #VG              IG              ID              IB             
  0               8.706e-010      -1.085e-010     -4.914e-009    
  0.05            2.6901e-009     -7.354e-010     -2.5727e-008   
  0.1             -1.6909e-009    1.1034e-009     1.8897e-008    
  0.15            2.6974e-009     -1.282e-009     4.059e-009     
  0.2             -1.705e-009     1.1026e-009     1.8517e-008    
  0.25            2.7054e-009     -1.2651e-009    3.812e-009     
  0.3             -1.7297e-009    1.1387e-009     1.8234e-008    
  0.35            2.7097e-009     -1.0911e-009    3.655e-009     
  0.4             -1.7484e-009    1.7523e-009     1.8008e-008    
  0.45            -1.5189e-009    2.3299e-009     3.829e-009     
  0.5             -1.3715e-009    8.8709e-009     4.919e-009     
  0.55            2.4124e-009     3.1905e-008     1.2199e-008    
  0.6             8.55e-011       1.1514e-007     5.961e-009     
  0.65            2.6727e-009     4.1679e-007     -2.4195e-008   
  0.7             1.9505e-009     1.3616e-006     1.0585e-008    
  0.75            -2.1964e-009    4.5499e-006     1.1551e-008    
  0.8             1.5111e-009     1.1833e-005     -2.2907e-008   
  0.85            1.8932e-009     2.8629e-005     7.63e-009      
  0.9             -2.2638e-009    5.8924e-005     1.1056e-008    
  0.95            -7.868e-010     0.000101239     -1.0668e-008   
  1               -1.4691e-009    0.00015685      -2.0424e-008   
  1.05            1.9644e-009     0.00021514      -2.1706e-008   
  1.1             2.4082e-009     0.00027787      -7.204e-009    
  1.15            -1.3315e-009    0.00034213      2.1729e-008    
  1.2             -2.5828e-009    0.00040261      7.956e-009     
  1.25            2.2532e-009     0.00045886      -2.5033e-008   
  1.3             2.3141e-009     0.00051413      -5.028e-009    
  1.35            -1.4535e-009    0.00056727      1.8097e-008    
  1.4             -2.5361e-009    0.0006168       5.742e-009     
  1.45            2.5005e-009     0.00066272      -2.5797e-008   
  1.5             -2.5042e-009    0.000709        1.091e-008     
  1.55            -1.9858e-009    0.0007514       1.017e-009     
  1.6             -1.4513e-009    0.00079241      2.64e-009      
  1.65            -2.5307e-009    0.00083177      5.593e-009     
  1.7             2.5054e-009     0.00086857      -2.5649e-008   
  1.75            -2.5106e-009    0.00090606      1.1071e-008    
  1.8             -2.0047e-009    0.00094044      9.53e-010      
  1.85            -1.4579e-009    0.00097425      2.69e-009      
  1.9             -2.5208e-009    0.00100685      5.523e-009     
  1.95            2.5225e-009     0.00103754      -2.5773e-008   
  2               6.405e-010      0.00106852      8.773e-009     
  2.05            -1.5254e-009    0.00109822      1.6688e-008    
  2.1             -2.5056e-009    0.00112653      4.928e-009     
  2.15            2.5543e-009     0.0011543       2.1521e-008    
  2.2             6.083e-010      0.0011815       8.895e-009     
  2.25            -1.5632e-009    0.0012079       1.6503e-008    
  2.3             -2.4967e-009    0.0012333       4.67e-009      
  2.35            -8.232e-010     0.0012577       -1.0425e-008   
  2.4             2.7276e-009     0.0012809       -1.4043e-008   
  2.45            2.343e-009      0.001305        -2.302e-009    
  2.5             1.6789e-009     0.0013279       -4.302e-009    
  2.55            2.5167e-009     0.0013497       -9.327e-009    
  2.6             -2.3246e-009    0.0013722       1.0826e-008    
  2.65            -1.7073e-009    0.0013926       1.735e-009     
  2.7             -2.4328e-009    0.0014132       3.834e-009     
  2.75            -6.987e-010     0.001433        -1.1019e-008   
  2.8             2.7359e-009     0.0014526       -1.6931e-008   
  2.85            2.5201e-009     0.0014724       -1.972e-009    
  2.9             -2.5163e-009    0.0014913       1.1064e-008    
  2.95            -2.0361e-009    0.0015087       8.15e-010      
  3               2.5047e-009     0.0015264       -2.5771e-008   
  3.05            6.567e-010      0.0015443       8.735e-009     
  3.1             -1.5019e-009    0.0015616       1.7043e-008    
  3.15            -2.5127e-009    0.0015778       5.189e-009     
  3.2             2.5645e-009     0.0015939       -2.5551e-008   
  3.25            -2.5364e-009    0.0016101       2.2467e-008    
  3.3             -2.0749e-009    0.0016252       7.49e-010      
  3.35            -1.4993e-009    0.0016402       2.472e-009     
  3.4             -2.5099e-009    0.0016552       5.032e-009     
  3.45            2.5686e-009     0.0016697       -2.5524e-008   
  3.5             -2.5388e-009    0.0016843       2.2218e-008    
  3.55            2.7338e-009     0.0016976       -1.7325e-008   
  3.6             2.5261e-009     0.0017116       -1.842e-009    
  3.65            -2.5275e-009    0.0017252       1.1187e-008    
  3.7             -2.05e-009      0.0017373       9.08e-010      
  3.75            -1.4847e-009    0.00175         2.629e-009     
  3.8             -2.5145e-009    0.0017629       5.327e-009     
  3.85            2.5517e-009     0.0017747       -2.5651e-008   
  3.9             -2.5314e-009    0.0017873       1.119e-008     
  3.95            -2.0632e-009    0.0017981       8.62e-010      
  4               -1.4897e-009    0.0018096       2.566e-009     
  4.05            -2.5124e-009    0.001821        5.116e-009     
  4.1             2.5565e-009     0.0018318       -2.552e-008    
  4.15            -2.534e-009     0.0018428       2.2596e-008    
  4.2             -4.816e-010     0.0018526       -1.1131e-008   
  4.25            1.9789e-009     0.0018631       -2.1928e-008   
  4.3             2.4083e-009     0.0018731       -7.184e-009    
  4.35            5.669e-010      0.0018832       9.018e-009     
  4.4             -1.6172e-009    0.0018929       1.5559e-008    
  4.45            -2.4721e-009    0.0019018       4.38e-009      
  4.5             -7.826e-010     0.0019108       -1.0591e-008   
  4.55            2.7334e-009     0.0019196       -1.5015e-008   
  4.6             2.4127e-009     0.0019293       -2.179e-009    
  4.65            1.7506e-009     0.0019375       -4.052e-009    
  4.7             2.4889e-009     0.0019458       -8.729e-009    
  4.75            -2.3829e-009    0.0019545       1.083e-008     
  4.8             -1.7772e-009    0.001962        1.443e-009     
  4.85            -1.3443e-009    0.0019696       3.409e-009     
  4.9             -2.5726e-009    0.0019775       7.63e-009      
  4.95            2.319e-009      0.0019851       -2.5587e-008   
  5               2.2907e-009     0.0019926       -4.707e-009    
END_DB

BEGIN_DB
 ICCAP_VAR VS         0              
 ICCAP_VAR VB         0              
 ICCAP_VAR VD         5              

 #VG              IG              ID              IB             
  0               -1.643e-010     1.0938e-009     -6.51e-009     
  0.05            -2.578e-009     4.303e-010      1.0659e-008    
  0.1             2.4582e-009     -8.574e-010     -2.3533e-008   
  0.15            -2.5735e-009    5.199e-010      1.0393e-008    
  0.2             2.3086e-009     -9.301e-010     -2.1094e-008   
  0.25            2.1542e-009     1.4488e-009     -4.628e-009    
  0.3             -2.1709e-009    1.1245e-009     1.362e-008     
  0.35            -1.8958e-009    5.336e-010      2.08e-009      
  0.4             -1.6512e-009    2.5913e-009     2.71e-009      
  0.45            2.2507e-009     1.1346e-008     9.489e-009     
  0.5             -1.5784e-009    4.1536e-008     1.263e-008     
  0.55            -8.402e-010     1.4832e-007     -4.08e-010     
  0.6             -1.1621e-009    5.7987e-007     -5.1914e-008   
  0.65            -2.5192e-009    2.0379e-006     -1.767e-007    
  0.7             -2.5755e-009    6.7313e-006     -4.9991e-007   
  0.75            1.014e-009      1.9204e-005     -1.3496e-006   
  0.8             1.3551e-009     4.7196e-005     -3.1027e-006   
  0.85            1.736e-009      0.000100879     -6.2734e-006   
  0.9             1.2476e-009     0.00018478      -1.09172e-005  
  0.95            -2.5199e-009    0.00030663      -1.7459e-005   
  1               -2.0795e-009    0.0004586       -2.4924e-005   
  1.05            -1.4914e-009    0.00064091      -3.3255e-005   
  1.1             -2.5096e-009    0.00084822      -4.2065e-005   
  1.15            -2.5769e-009    0.0010795       -5.1261e-005   
  1.2             1.7255e-009     0.0013248       -6.0154e-005   
  1.25            2.5107e-009     0.0015891       -6.8807e-005   
  1.3             2.7105e-009     0.0018686       -7.7139e-005   
  1.35            2.6032e-009     0.0021588       -8.5145e-005   
  1.4             2.038e-009      0.0024567       -9.2567e-005   
  1.45            2.3764e-009     0.0027632       -9.9427e-005   
  1.5             2.639e-009      0.0030801       -0.000105621   
  1.55            2.7112e-009     0.0034024       -0.000111301   
  1.6             -2.4481e-009    0.0037308       -0.00011633    
  1.65            -2.5749e-009    0.004062        -0.00012069    
  1.7             -2.4804e-009    0.0043973       -0.00012446    
  1.75            -1.9766e-009    0.0047383       -0.00012764    
  1.8             -1.4271e-009    0.0050818       -0.00013023    
  1.85            -2.5243e-009    0.0054277       -0.00013233    
  1.9             -2.5646e-009    0.0057719       -0.00013389    
  1.95            -2.2523e-009    0.0061225       -0.00013494    
  2               -1.6506e-009    0.006475        -0.00013556    
  2.05            -2.452e-009     0.0068294       -0.00013576    
  2.1             -2.5758e-009    0.0071811       -0.00013559    
  2.15            -2.4622e-009    0.0075359       -0.00013499    
  2.2             -1.9427e-009    0.0078944       -0.00013412    
  2.25            -1.4066e-009    0.0082533       -0.00013288    
  2.3             -2.5261e-009    0.0086132       -0.00013139    
  2.35            -2.5588e-009    0.0089681       -0.00012968    
  2.4             -2.2315e-009    0.0093298       -0.00012771    
  2.45            -1.6225e-009    0.0096909       -0.00012556    
  2.5             -2.4545e-009    0.0100526       -0.00012317    
  2.55            -2.5721e-009    0.010411        -0.0001207     
  2.6             -2.4535e-009    0.0107713       -0.00011808    
  2.65            -1.9196e-009    0.0111359       -0.00011532    
  2.7             -2.4552e-009    0.011504        -0.00011249    
  2.75            -2.5862e-009    0.011866        -0.00010954    
  2.8             -2.4439e-009    0.012232        -0.0001065     
  2.85            -1.9052e-009    0.012598        -0.00010347    
  2.9             -1.3856e-009    0.012962        -0.00010041    
  2.95            2.717e-009      0.013314        -9.7515e-005   
  3               2.5658e-009     0.01368         -9.4431e-005   
  3.05            1.9606e-009     0.01404         -9.1373e-005   
  3.1             2.3936e-009     0.0144          -8.8308e-005   
  3.15            2.6517e-009     0.014764        -8.5295e-005   
  3.2             2.6986e-009     0.015125        -8.2273e-005   
  3.25            2.3025e-009     0.015485        -7.9311e-005   
  3.3             1.6184e-009     0.015844        -7.6399e-005   
  3.35            2.5352e-009     0.016202        -7.3508e-005   
  3.4             2.7228e-009     0.016565        -7.0707e-005   
  3.45            2.5478e-009     0.016924        -6.7945e-005   
  3.5             1.9415e-009     0.017282        -6.5269e-005   
  3.55            2.4061e-009     0.017638        -6.2624e-005   
  3.6             2.6589e-009     0.017999        -6.0073e-005   
  3.65            2.6962e-009     0.018358        -5.7578e-005   
  3.7             2.2697e-009     0.018712        -5.5162e-005   
  3.75            2.2971e-009     0.019067        -5.2804e-005   
  3.8             2.5486e-009     0.019424        -5.0538e-005   
  3.85            2.7208e-009     0.01978         -4.8337e-005   
  3.9             2.5402e-009     0.020133        -4.6214e-005   
  3.95            1.9179e-009     0.020488        -4.4179e-005   
  4               2.4152e-009     0.020841        -4.2194e-005   
  4.05            2.6641e-009     0.021197        -4.0302e-005   
  4.1             2.6853e-009     0.02155         -3.8462e-005   
  4.15            2.2504e-009     0.021898        -3.671e-005    
  4.2             2.3003e-009     0.022248        -3.5005e-005   
  4.25            2.5677e-009     0.022602        -3.3379e-005   
  4.3             2.7256e-009     0.022952        -3.183e-005    
  4.35            2.5279e-009     0.023301        -3.0327e-005   
  4.4             1.9025e-009     0.023654        -2.8882e-005   
  4.45            2.4285e-009     0.023999        -2.7508e-005   
  4.5             2.6746e-009     0.024347        -2.62e-005     
  4.55            2.6854e-009     0.024693        -2.4936e-005   
  4.6             2.2345e-009     0.025037        -2.3744e-005   
  4.65            2.3108e-009     0.025387        -2.2624e-005   
  4.7             2.5693e-009     0.025736        -2.1536e-005   
  4.75            2.7272e-009     0.026083        -2.0498e-005   
  4.8             2.5151e-009     0.026424        -1.9496e-005   
  4.85            1.88e-009       0.026767        -1.8547e-005   
  4.9             2.4362e-009     0.027113        -1.7646e-005   
  4.95            2.6839e-009     0.027453        -1.6765e-005   
  5               2.681e-009      0.027796        -1.5922e-005   
END_DB

BEGIN_DB
 ICCAP_VAR VS         0              
 ICCAP_VAR VB         -2.5           
 ICCAP_VAR VD         0.1            

 #VG              IG              ID              IB             
  0               1.1341e-009     1.4465e-009     -9.727e-009    
  0.05            2.1769e-009     1.3618e-009     -1.1336e-008   
  0.1             -2.1086e-009    9.153e-010      1.3976e-008    
  0.15            -3.569e-010     -1.6188e-009    2.457e-009     
  0.2             2.6958e-009     -6.948e-010     -1.0376e-008   
  0.25            -1.7068e-009    1.1146e-009     1.8778e-008    
  0.3             8.4e-012        -1.4473e-009    -6.463e-009    
  0.35            2.7305e-009     -6.371e-010     -2.5245e-008   
  0.4             1.7484e-009     1.6476e-009     -2.379e-009    
  0.45            -2.5765e-009    5.057e-010      1.0509e-008    
  0.5             2.2396e-009     -1.007e-009     -1.9925e-008   
  0.55            2.1809e-009     1.3633e-009     -5.056e-009    
  0.6             -2.112e-009     9.175e-010      1.3946e-008    
  0.65            -3.637e-010     -1.6143e-009    2.54e-009      
  0.7             2.6945e-009     -6.934e-010     -1.0383e-008   
  0.75            -1.7037e-009    1.12e-009       1.8666e-008    
  0.8             1.2e-012        -1.4331e-009    -6.385e-009    
  0.85            2.7269e-009     -5.642e-010     -2.5115e-008   
  0.9             1.7512e-009     1.9712e-009     -2.287e-009    
  0.95            -2.5755e-009    2.1147e-009     1.0494e-008    
  1               2.2428e-009     6.147e-009      -1.9941e-008   
  1.05            -1.6709e-009    3.173e-008      -1.5085e-008   
  1.1             1.0905e-009     1.3893e-007     -1.8119e-008   
  1.15            -2.3113e-009    6.1387e-007     2.5607e-008    
  1.2             -1.9402e-009    2.2185e-006     -1.2899e-008   
  1.25            2.4431e-009     7.1852e-006     -2.5851e-008   
  1.3             -1.0206e-009    1.9941e-005     2.015e-008     
  1.35            1.425e-010      4.4105e-005     -1.1664e-008   
  1.4             2.7026e-009     8.3172e-005     -2.308e-008    
  1.45            1.8165e-009     0.00013607      -2.258e-009    
  1.5             2.4784e-009     0.00019714      -8.739e-009    
  1.55            -2.3934e-009    0.00026373      1.0468e-008    
  1.6             -1.8115e-009    0.00032836      1.227e-009     
  1.65            -1.362e-009     0.00039154      3.362e-009     
  1.7             -2.5656e-009    0.00045183      7.433e-009     
  1.75            2.3445e-009     0.00050726      -2.5602e-008   
  1.8             1.6659e-009     0.00056142      -4.62e-009     
  1.85            2.5246e-009     0.00061186      -9.413e-009    
  1.9             -2.3107e-009    0.00066124      1.0838e-008    
  1.95            -1.701e-009     0.00070606      1.585e-009     
  2               -2.4332e-009    0.00074942      3.665e-009     
  2.05            -7.06e-010      0.00078978      -1.0922e-008   
  2.1             -1.0569e-009    0.00082973      -9.518e-009    
  2.15            2.6318e-009     0.00086627      -2.4741e-008   
  2.2             -1.3482e-009    0.00090314      2.0841e-008    
  2.25            -2.5745e-009    0.00093759      7.549e-009     
  2.3             2.3109e-009     0.00096988      -2.541e-008    
  2.35            1.6283e-009     0.00100209      -4.827e-009    
  2.4             2.5457e-009     0.00103259      -9.56e-009     
  2.45            -2.2826e-009    0.00106321      1.0978e-008    
  2.5             -1.6627e-009    0.00109133      1.741e-009     
  2.55            -2.4517e-009    0.00111923      3.903e-009     
  2.6             2.3019e-009     0.0011461       -1.0961e-008   
  2.65            -1.4991e-009    0.001173        1.6971e-008    
  2.7             -2.5141e-009    0.001198        5.044e-009     
  2.75            2.5621e-009     0.001222        -2.5475e-008   
  2.8             -2.5317e-009    0.0012468       1.0789e-008    
  2.85            2.7308e-009     0.0012693       -1.7361e-008   
  2.9             2.5149e-009     0.0012921       -1.939e-009    
  2.95            -2.5183e-009    0.0013141       1.0788e-008    
  3               -2.0444e-009    0.0013346       7.98e-010      
  3.05            2.5092e-009     0.0013556       -2.5708e-008   
  3.1             -2.5025e-009    0.0013761       1.0868e-008    
  3.15            -2.0018e-009    0.0013953       8.17e-010      
  3.2             -1.4481e-009    0.0014145       2.946e-009     
  3.25            -2.5359e-009    0.0014331       5.745e-009     
  3.3             -9.01e-010      0.0014512       -1.0449e-008   
  3.35            2.6789e-009     0.0014682       -1.2829e-008   
  3.4             -1.397e-009     0.0014867       1.917e-008     
  3.45            -2.5534e-009    0.001503        6.726e-009     
  3.5             -9.593e-010     0.0015194       -1.0104e-008   
  3.55            2.02e-010       0.0015345       -1.2072e-008   
  3.6             2.7233e-009     0.0015509       -2.1279e-008   
  3.65            2.3965e-009     0.0015666       -2.24e-009     
  3.7             1.7262e-009     0.0015813       -4.395e-009    
  3.75            2.5131e-009     0.0015957       -9.244e-009    
  3.8             -2.3602e-009    0.0016105       1.0708e-008    
  3.85            -1.7584e-009    0.0016234       1.528e-009     
  3.9             -1.3315e-009    0.0016374       3.574e-009     
  3.95            -2.5763e-009    0.001651        7.897e-009     
  4               -1.0267e-009    0.0016636       -9.678e-009    
  4.05            1.378e-010      0.0016757       -1.1583e-008   
  4.1             2.6953e-009     0.0016888       -2.2841e-008   
  4.15            -1.4402e-009    0.0017014       1.8482e-008    
