! VERSION = 6.00
BEGIN_HEADER
 ICCAP_INPUTS
  VG         V  B GROUND SMU4 0.001 LIN        2    0          5          6    1         
  VS         V  E GROUND SMU2 0.1 CON        0
  VD         V  S GROUND SMU1 0.1 LIN        1    0          5          101  0.05      
  VB         V  C GROUND SMU3 0.1 LIN        3    0          -2.5       2    -2.5      
 ICCAP_OUTPUTS
  ID         I  S GROUND SMU1 B
  IB         I  C GROUND SMU3 B
  IG         I  B GROUND SMU4 B
END_HEADER

BEGIN_DB
 ICCAP_VAR VG         0              
 ICCAP_VAR VS         0              
 ICCAP_VAR VB         0              

 #VD              ID              IB              IG             
  0               1.1844e-009     6.893e-009      1.162e-009     
  0.05            2.1038e-009     -1.0087e-008    3.91e-010      
  0.1             5.317e-010      1.3558e-008     -2.24e-009     
  0.15            -1.938e-009     2.698e-009      -2.887e-010    
  0.2             -1.9952e-009    -1.0381e-008    -4.932e-010    
  0.25            -5.21e-010      -1.6131e-008    2.3643e-009    
  0.3             2.0652e-009     -4.243e-009     3.1e-010       
  0.35            4.585e-010      1.3022e-008     -2.3373e-009   
  0.4             -1.898e-009     2.029e-009      -1.989e-010    
  0.45            -1.1189e-009    -2.5317e-008    2.6503e-009    
  0.5             8.725e-010      2.1186e-008     -1.5701e-009   
  0.55            -2.0482e-009    5.393e-009      -8.105e-010    
  0.6             -1.4809e-009    -1.4417e-008    1.879e-009     
  0.65            2.1928e-009     -8.311e-009     6.008e-010     
  0.7             6.947e-010      1.7024e-008     -1.9298e-009   
  0.75            -2.0059e-009    3.728e-009      -5.298e-010    
  0.8             -1.331e-009     -2.044e-008     2.3016e-009    
  0.85            2.0843e-009     -4.611e-009     3.385e-010     
  0.9             4.9e-010        1.345e-008      -2.2996e-009   
  0.95            -1.9191e-009    2.377e-009      -2.34e-010     
  1               -1.9877e-009    -1.0436e-008    -4.37e-010     
  1.05            -1.2702e-009    -2.2259e-008    2.4302e-009    
  1.1             2.1299e-009     -3.842e-009     1.1433e-009    
  1.15            4.201e-010      1.2756e-008     -2.3901e-009   
  1.2             -1.8721e-009    1.742e-009      -1.358e-010    
  1.25            -1.9643e-009    -1.0448e-008    -3.458e-010    
  1.3             -2.0095e-009    -1.0162e-008    -5.379e-010    
  1.35            -1.3337e-009    -2.0284e-008    2.2997e-009    
  1.4             2.0905e-009     -4.575e-009     3.483e-010     
  1.45            4.94e-010       1.34e-008       -2.2921e-009   
  1.5             -2.0067e-009    -1.027e-008     -5.289e-010    
  1.55            -1.3282e-009    -2.0636e-008    2.319e-009     
  1.6             2.082e-009      -4.649e-009     3.406e-010     
  1.65            4.876e-010      1.3264e-008     -2.3101e-009   
  1.7             -1.9206e-009    2.253e-009      -2.253e-010    
  1.75            -1.9851e-009    -1.05e-008      -4.305e-010    
  1.8             -1.2689e-009    -2.2374e-008    2.4351e-009    
  1.85            2.1381e-009     -3.955e-009     1.1424e-009    
  1.9             4.214e-010      1.2581e-008     -2.4017e-009   
  1.95            -1.8752e-009    1.796e-009      -1.446e-010    
  2               -1.9583e-009    -1.0576e-008    -3.423e-010    
  2.05            -2.007e-009     -1.0062e-008    -5.399e-010    
  2.1             -1.3324e-009    -2.0037e-008    2.2858e-009    
  2.15            2.0888e-009     -4.79e-009      3.537e-010     
  2.2             5.026e-010      1.3203e-008     -2.2925e-009   
  2.25            -1.9215e-009    2.454e-009      -2.505e-010    
  2.3             -1.9863e-009    -1.0401e-008    -4.524e-010    
  2.35            -1.2737e-009    -2.195e-008     2.4063e-009    
  2.4             2.1218e-009     -4.035e-009     1.1559e-009    
  2.45            1.1234e-009     2.6495e-008     -2.497e-009    
  2.5             -1.807e-009     1.476e-009      -3.87e-011     
  2.55            -9.994e-010     -2.4994e-008    2.7392e-009    
  2.6             2.2571e-009     -1.835e-009     8.522e-010     
  2.65            1.6465e-009     1.2822e-008     -1.5414e-009   
  2.7             -2.0479e-009    5.565e-009      -8.287e-010    
  2.75            -1.4878e-009    -1.3593e-008    1.8365e-009    
  2.8             2.2012e-009     -8.179e-009     6.161e-010     
  2.85            7.107e-010      1.7159e-008     -1.8882e-009   
  2.9             -2.0045e-009    3.639e-009      -5.534e-010    
  2.95            -1.3404e-009    -1.9701e-008    2.2673e-009    
  3               2.095e-009      -5.014e-009     3.651e-010     
  3.05            5.088e-010      1.3375e-008     -2.2684e-009   
  3.1             -1.9261e-009    2.39e-009       -2.712e-010    
  3.15            -1.9879e-009    -1.0473e-008    -4.699e-010    
  3.2             -1.2829e-009    -2.1619e-008    2.3853e-009    
  3.25            2.1121e-009     -3.995e-009     1.1687e-009    
  3.3             4.463e-010      1.2789e-008     -2.3593e-009   
  3.35            -1.8896e-009    1.917e-009      -1.797e-010    
  3.4             -1.965e-009     -1.055e-008     -3.792e-010    
  3.45            -2.0083e-009    -1.001e-008     -5.795e-010    
  3.5             -5.891e-010     -1.6976e-008    2.2362e-009    
  3.55            2.1049e-009     -5.314e-009     3.845e-010     
  3.6             5.331e-010      1.3848e-008     -2.2415e-009   
  3.65            -1.9357e-009    2.67e-009       -2.911e-010    
  3.7             -1.9917e-009    -1.0267e-008    -4.911e-010    
  3.75            -1.301e-009     -2.115e-008     2.3597e-009    
  3.8             2.0714e-009     -4.221e-009     3.07e-010      
  3.85            2.1554e-009     8.942e-009      4.887e-010     
  3.9             6.064e-010      1.5022e-008     -2.107e-009    
  3.95            -1.9709e-009    2.874e-009      -3.956e-010    
  4               -2.016e-009     -9.923e-009     -5.959e-010    
  4.05            -1.3657e-009    -1.8942e-008    2.2079e-009    
  4.1             2.1183e-009     -5.291e-009     4.044e-010     
  4.15            5.462e-010      1.3936e-008     -2.22e-009     
  4.2             -1.9448e-009    2.755e-009      -3.115e-010    
  4.25            -1.9947e-009    -1.0242e-008    -5.156e-010    
  4.3             -1.3121e-009    -2.0811e-008    2.3287e-009    
  4.35            2.08e-009       -4.357e-009     3.21e-010      
  4.4             2.1641e-009     8.801e-009      4.961e-010     
  4.45            6.233e-010      1.5577e-008     -2.0778e-009   
  4.5             -1.9724e-009    2.949e-009      -4.223e-010    
  4.55            -1.2517e-009    -2.2511e-008    2.4442e-009    
  4.6             1.834e-010      1.0931e-008     -2.5915e-009   
  4.65            -1.3427e-009    -1.9574e-008    2.2533e-009    
  4.7             2.1086e-009     -5.007e-009     3.766e-010     
  4.75            5.303e-010      1.3545e-008     -2.2526e-009   
  4.8             -1.9301e-009    2.705e-009      -2.868e-010    
  4.85            -1.9883e-009    -1.0332e-008    -4.89e-010     
  4.9             -1.29e-009      -2.1383e-008    2.3727e-009    
  4.95            2.107e-009      -4.324e-009     1.1776e-009    
  5               4.676e-010      1.2845e-008     -2.3483e-009   
END_DB

BEGIN_DB
 ICCAP_VAR VG         1              
 ICCAP_VAR VS         0              
 ICCAP_VAR VB         0              

 #VD              ID              IB              IG             
  0               4.1401e-007     -1.2717e-008    1.0503e-009    
  0.05            3.0074e-005     8.291e-009      -1.4648e-009   
  0.1             4.8763e-005     2.5843e-008     -2.2568e-009   
  0.15            5.8718e-005     1.784e-008      -1.5435e-009   
  0.2             6.3562e-005     2.5459e-008     -2.3385e-009   
  0.25            6.5688e-005     1.6611e-008     -1.6161e-009   
  0.3             6.6906e-005     2.5115e-008     -2.4138e-009   
  0.35            6.7648e-005     1.5331e-008     -1.7034e-009   
  0.4             6.8322e-005     1.1027e-008     -2.3586e-009   
  0.45            6.8664e-005     1.624e-008      -1.6364e-009   
  0.5             6.912e-005      2.506e-008      -2.4324e-009   
  0.55            6.9473e-005     1.4993e-008     -1.7261e-009   
  0.6             6.982e-005      2.4209e-008     -2.5018e-009   
  0.65            7.0124e-005     1.3735e-008     -1.8223e-009   
  0.7             6.9717e-005     8.868e-009      7.355e-010     
  0.75            6.986e-005      -2.4764e-008    2.6183e-009    
  0.8             7.0255e-005     -2.2373e-008    2.0815e-009    
  0.85            7.054e-005      -1.0323e-008    -7.692e-010    
  0.9             7.145e-005      2.4703e-008     -2.4903e-009   
  0.95            7.1647e-005     1.3948e-008     -1.8046e-009   
  1               7.1846e-005     2.345e-008      -2.5423e-009   
  1.05            7.2101e-005     1.3105e-008     -1.9142e-009   
  1.1             7.2229e-005     2.2112e-008     -1.3501e-009   
  1.15            7.2471e-005     1.3898e-008     -1.8309e-009   
  1.2             7.2651e-005     1.1035e-008     -2.4583e-009   
  1.25            7.2821e-005     1.4782e-008     -1.751e-009    
  1.3             7.299e-005      2.398e-008      -2.516e-009    
  1.35            7.3171e-005     1.3616e-008     -1.8523e-009   
  1.4             7.3366e-005     2.2934e-008     -1.3286e-009   
  1.45            7.3527e-005     1.4519e-008     -1.7703e-009   
  1.5             7.3711e-005     1.0932e-008     -2.4171e-009   
  1.55            7.3744e-005     1.5389e-008     -1.6944e-009   
  1.6             7.4029e-005     1.1138e-008     -2.3622e-009   
  1.65            7.4133e-005     1.6183e-008     -1.6284e-009   
  1.7             7.4302e-005     2.5091e-008     -2.436e-009    
  1.75            7.439e-005      1.4985e-008     -1.7086e-009   
  1.8             7.4579e-005     1.088e-008      -2.3746e-009   
  1.85            7.4589e-005     1.5931e-008     -1.6433e-009   
  1.9             7.4758e-005     2.4717e-008     -2.4393e-009   
  1.95            7.486e-005      1.4698e-008     -1.7299e-009   
  2               7.5056e-005     1.029e-008      -2.3841e-009   
  2.05            7.5117e-005     1.5171e-008     -1.6624e-009   
  2.1             7.5321e-005     9.932e-009      -2.3354e-009   
  2.15            7.5354e-005     1.5161e-008     -1.5978e-009   
  2.2             7.556e-005      9.387e-009      -2.2621e-009   
  2.25            7.5561e-005     1.4796e-008     -1.5343e-009   
  2.3             7.583e-005      8.092e-009      -2.1864e-009   
  2.35            7.5809e-005     1.3558e-008     -1.4804e-009   
  2.4             7.6064e-005     6.069e-009      -2.1022e-009   
  2.45            7.6034e-005     3.245e-009      -2.575e-009    
  2.5             7.631e-005      2.476e-009      -2.0316e-009   
  2.55            7.6297e-005     -1.297e-009     -2.5544e-009   
  2.6             7.4814e-005     -7.108e-009     1.5966e-009    
  2.65            7.5743e-005     -3.0534e-008    1.554e-010     
  2.7             7.6137e-005     -2.192e-008     -1.881e-009    
  2.75            7.5775e-005     -1.9743e-008    2.0989e-009    
  2.8             7.6201e-005     -4.4525e-008    -3.844e-010    
  2.85            7.7033e-005     -2.1942e-008    -1.5033e-009   
  2.9             7.6295e-005     -4.0537e-008    2.2947e-009    
  2.95            7.666e-005      -6.6924e-008    -7.177e-010    
  3               7.7527e-005     -4.1745e-008    -2.5278e-009   
  3.05            7.6071e-005     -6.8519e-008    1.6356e-009    
  3.1             7.7231e-005     -1.01341e-007   2.39e-010      
  3.15            7.6349e-005     -9.514e-008     1.5543e-009    
  3.2             7.7409e-005     -1.3244e-007    1.904e-010     
  3.25            7.8536e-005     -1.2793e-007    -2.3148e-009   
  3.3             7.7282e-005     -1.5054e-007    1.8404e-009    
  3.35            7.7955e-005     -1.9422e-007    -6.15e-011     
  3.4             7.9164e-005     -1.9552e-007    -1.878e-009    
  3.45            7.829e-005      -2.2983e-007    2.1066e-009    
  3.5             7.8872e-005     -2.8225e-007    -3.955e-010    
  3.55            7.9896e-005     -2.8835e-007    -1.486e-009    
  3.6             7.9216e-005     -3.3949e-007    2.2991e-009    
  3.65            7.9919e-005     -4.0468e-007    -7.378e-010    
  3.7             8.1004e-005     -4.1672e-007    -2.5223e-009   
  3.75            7.9676e-005     -4.8831e-007    1.6455e-009    
  3.8             8.0819e-005     -5.7373e-007    1.142e-010     
  3.85            8.2428e-005     -6.1941e-007    -2.1907e-009   
  3.9             8.1579e-005     -6.9273e-007    1.9288e-009    
  3.95            8.2385e-005     -8.0102e-007    -1.556e-010    
  4               8.3875e-005     -8.6635e-007    -1.7411e-009   
  4.05            8.3803e-005     -9.6788e-007    2.1754e-009    
  4.1             8.4452e-005     -1.10351e-006   -5.1e-010      
  4.15            8.2214e-005     -1.1693e-006    -1.5512e-009   
  4.2             8.2032e-005     -1.2751e-006    2.258e-009     
  4.25            8.2634e-005     -1.4336e-006    -6.601e-010    
  4.3             8.3778e-005     -1.5364e-006    -1.3293e-009   
  4.35            8.3578e-005     -1.7083e-006    2.4279e-009    
  4.4             8.464e-005      -1.9033e-006    -9.357e-010    
  4.45            8.5604e-005     -2.0277e-006    -2.2886e-009   
  4.5             8.5279e-005     -2.2527e-006    1.8672e-009    
  4.55            8.5961e-005     -2.4907e-006    -8.84e-011     
  4.6             8.7849e-005     -2.6995e-006    -1.8447e-009   
  4.65            8.7855e-005     -2.9285e-006    2.1277e-009    
  4.7             8.8782e-005     -3.2278e-006    -4.28e-010     
  4.75            9.0389e-005     -3.4632e-006    -1.4728e-009   
  4.8             9.0745e-005     -3.7562e-006    2.3103e-009    
  4.85            9.227e-005      -4.1269e-006    -7.61e-010     
  4.9             9.3991e-005     -4.4005e-006    -2.4982e-009   
  4.95            9.3694e-005     -4.7897e-006    1.6766e-009    
  5               9.5219e-005     -5.2278e-006    9.38e-011      
END_DB

BEGIN_DB
 ICCAP_VAR VG         2              
 ICCAP_VAR VS         0              
 ICCAP_VAR VB         0              

 #VD              ID              IB              IG             
  0               2.6882e-006     7.474e-009      4.895e-010     
  0.05            0.00018597      -2.4768e-008    -1.2669e-009   
  0.1             0.00036301      1.1945e-008     -2.245e-009    
  0.15            0.00053034      1.9798e-008     -1.4054e-009   
  0.2             0.00068803      1.4879e-008     -1.8049e-009   
  0.25            0.00083514      1.1475e-008     -2.2881e-009   
  0.3             0.00097046      8.596e-009      1.9867e-009    
  0.35            0.00109577      -2.3398e-008    2.6591e-009    
  0.4             0.0012113       -2.1171e-008    -1.4676e-009   
  0.45            0.0013132       7.463e-009      1.0821e-009    
  0.5             0.0014054       -1.946e-008     1.8497e-009    
  0.55            0.0014879       -9.601e-009     -9.937e-010    
  0.6             0.0015585       1.1067e-008     -2.5374e-009   
  0.65            0.0016181       1.4981e-008     -1.7878e-009   
  0.7             0.0016675       2.4499e-008     -2.4055e-009   
  0.75            0.0017046       8.719e-009      1.884e-009     
  0.8             0.0017367       -2.1811e-008    2.7103e-009    
  0.85            0.0017619       -2.3691e-008    2.1779e-009    
  0.9             0.0017833       -1.0216e-008    -8.402e-010    
  0.95            0.0017997       9.901e-009      -2.6029e-009   
  1               0.0018109       2.5865e-008     -2.2457e-009   
  1.05            0.0018204       1.9667e-008     -1.4071e-009   
  1.1             0.0018283       1.4676e-008     -1.8086e-009   
  1.15            0.001835        1.1361e-008     -2.2878e-009   
  1.2             0.0018365       8.242e-009      1.9833e-009    
  1.25            0.0018404       -2.3394e-008    2.6583e-009    
  1.3             0.0018453       -2.1815e-008    1.9981e-009    
  1.35            0.001849        -2.3978e-008    2.6129e-009    
  1.4             0.001853        -2.0554e-008    1.9074e-009    
  1.45            0.0018549       -2.4346e-008    2.5606e-009    
  1.5             0.0018591       -1.9179e-008    1.8069e-009    
  1.55            0.0018609       -2.4882e-008    2.5092e-009    
  1.6             0.0018644       -1.773e-008     1.714e-009     
  1.65            0.0018662       -2.4842e-008    2.4357e-009    
  1.7             0.0018695       -1.0545e-008    -6.643e-010    
  1.75            0.001874        8.29e-009       -2.6073e-009   
  1.8             0.0018769       1.1293e-008     -2.3135e-009   
  1.85            0.0018747       8.72e-009       1.9627e-009    
  1.9             0.0018763       -2.3134e-008    2.6731e-009    
  1.95            0.0018791       -2.2162e-008    2.0344e-009    
  2               0.00188         -1.1861e-008    1.972e-010     
  2.05            0.0018861       1.2474e-008     -2.1703e-009   
  2.1             0.0018873       2.076e-008      -1.3648e-009   
  2.15            0.0018891       1.5648e-008     -1.7236e-009   
  2.2             0.001891        1.1815e-008     -2.2134e-009   
  2.25            0.001892        1.973e-008      -1.3912e-009   
  2.3             0.0018938       1.4628e-008     -1.773e-009    
  2.35            0.0018957       1.0777e-008     -2.2587e-009   
  2.4             0.0018967       1.8123e-008     -1.4164e-009   
  2.45            0.0018982       1.2425e-008     -1.8268e-009   
  2.5             0.0019004       8.025e-009      -2.3107e-009   
  2.55            0.001901        5.732e-009      -2.5642e-009   
  2.6             0.0019025       6.522e-009      -1.8854e-009   
  2.65            0.001901        -3.293e-009     2.1991e-009    
  2.7             0.0019026       -2.6211e-008    -6.979e-010    
  2.75            0.0019063       2.316e-009      -2.4435e-009   
  2.8             0.0019029       -2.1224e-008    1.8529e-009    
  2.85            0.0019054       -5.1379e-008    -1.958e-010    
  2.9             0.0019097       -3.6811e-008    -1.5591e-009   
  2.95            0.0019085       -6.4888e-008    2.3421e-009    
  3               0.0019083       -1.03521e-007   2.7057e-009    
  3.05            0.0019114       -1.4218e-007    -8.593e-010    
  3.1             0.0019111       -1.6304e-007    2.5609e-009    
  3.15            0.0019164       -2.0215e-007    -1.1992e-009   
  3.2             0.0019176       -2.2165e-007    -1.6473e-009   
  3.25            0.0019166       -2.9377e-007    2.2974e-009    
  3.3             0.0019188       -3.7954e-007    -8.493e-010    
  3.35            0.0019222       -4.258e-007     -2.2637e-009   
  3.4             0.0019204       -5.3814e-007    1.9963e-009    
  3.45            0.001923        -6.6835e-007    -3.763e-010    
  3.5             0.0019274       -7.6759e-007    -1.3974e-009   
  3.55            0.001927        -9.3187e-007    2.4402e-009    
  3.6             0.0019311       -1.1187e-006    -1.0373e-009   
  3.65            0.0019335       -1.3058e-006    -1.3727e-009   
  3.7             0.0019343       -1.5311e-006    2.4509e-009    
  3.75            0.0019389       -1.8025e-006    -1.0515e-009   
  3.8             0.0019427       -2.0617e-006    -1.8987e-009   
  3.85            0.0019438       -2.4126e-006    2.1901e-009    
  3.9             0.0019477       -2.8067e-006    -6.81e-010     
  3.95            0.0019538       -3.2006e-006    -2.448e-009    
  4               0.0019546       -3.6933e-006    1.8367e-009    
  4.05            0.0019602       -4.253e-006     -1.821e-010    
  4.1             0.0019704       -4.8364e-006    -1.568e-009    
  4.15            0.0019738       -5.5235e-006    2.3365e-009    
