! VERSION = 6.00
BEGIN_HEADER
 ICCAP_INPUTS
  VG         V  B GROUND SMU4 0.001 LIN        2    0          5          6    1         
  VS         V  E GROUND SMU2 0.1 CON        0
  VD         V  S GROUND SMU1 0.1 LIN        1    0          5          101  0.05      
  VB         V  C GROUND SMU3 0.1 LIN        3    0          -2.5       2    -2.5      
 ICCAP_OUTPUTS
  ID         I  S GROUND SMU1 B
  IB         I  C GROUND SMU3 B
  IG         I  B GROUND SMU4 B
END_HEADER

BEGIN_DB
 ICCAP_VAR VG         0              
 ICCAP_VAR VS         0              
 ICCAP_VAR VB         0              

 #VD              ID              IB              IG             
  0               -4.406e-010     -2.5238e-008    -7.03e-010     
  0.05            5.313e-010      1.1878e-008     -2.4932e-009   
  0.1             -1.6129e-009    1.157e-009      -4.06e-011     
  0.15            -1.7251e-009    -1.0411e-008    -2.318e-010    
  0.2             -1.7898e-009    -1.0575e-008    -4.515e-010    
  0.25            -1.0851e-009    -2.2525e-008    2.4138e-009    
  0.3             2.3077e-009     -3.988e-009     1.1625e-009    
  0.35            6.4e-010        1.3124e-008     -2.3676e-009   
  0.4             -1.6973e-009    2.115e-009      -1.782e-010    
  0.45            -1.7747e-009    -1.0621e-008    -3.919e-010    
  0.5             -1.82e-009      -1.0029e-008    -6.01e-010     
  0.55            -4.167e-010     -1.7578e-008    2.2117e-009    
  0.6             2.1873e-009     -5.53e-009      1.2834e-009    
  0.65            7.532e-010      1.4344e-008     -2.1982e-009   
  0.7             -1.7599e-009    2.756e-009      -3.382e-010    
  0.75            -1.8072e-009    -1.0344e-008    -5.506e-010    
  0.8             -1.149e-009     -2.0311e-008    2.2842e-009    
  0.85            2.2309e-009     -5.05e-009      1.2424e-009    
  0.9             7.257e-010      1.3902e-008     -2.2545e-009   
  0.95            -1.8093e-009    -1.0206e-008    -5.759e-010    
  1               -1.1613e-009    -1.9841e-008    2.2383e-009    
  1.05            2.2083e-009     -5.199e-009     1.2645e-009    
  1.1             7.444e-010      1.415e-008      -2.2242e-009   
  1.15            -1.7515e-009    2.856e-009      -3.182e-010    
  1.2             -1.8006e-009    -1.0347e-008    -5.317e-010    
  1.25            -3.565e-010     -1.6651e-008    2.3056e-009    
  1.3             2.2479e-009     -4.966e-009     1.2257e-009    
  1.35            7.11e-010       1.3684e-008     -2.2779e-009   
  1.4             -1.7337e-009    2.659e-009      -2.802e-010    
  1.45            -1.7902e-009    -1.0566e-008    -4.835e-010    
  1.5             -1.1037e-009    -2.1658e-008    2.3696e-009    
  1.55            2.285e-009      -4.438e-009     1.1898e-009    
  1.6             1.3518e-009     2.6606e-008     -2.4537e-009   
  1.65            -1.6398e-009    1.505e-009      -8.49e-011     
  1.7             -8.439e-010     -2.5218e-008    2.7e-009       
  1.75            1.0192e-009     1.9493e-008     -1.6692e-009   
  1.8             -1.4167e-009    4.86e-009       2.691e-009     
  1.85            1.0311e-009     1.9876e-008     -1.6382e-009   
  1.9             -1.4251e-009    5.02e-009       2.6744e-009    
  1.95            1.0494e-009     2.0369e-008     -1.6108e-009   
  2               -1.4348e-009    5.248e-009      2.201e-010     
  2.05            -6.041e-010     -2.0864e-008    1.693e-009     
  2.1             1.8158e-009     -9.215e-009     1.5475e-009    
  2.15            1.5616e-009     8.111e-009      1.7177e-009    
  2.2             2.3279e-009     9.161e-009      4.656e-010     
  2.25            7.956e-010      1.486e-008      -2.1266e-009   
  2.3             -1.7666e-009    3.07e-009       -3.956e-010    
  2.35            -1.8072e-009    -9.955e-009     -6.061e-010    
  2.4             -1.1721e-009    -1.8987e-008    2.2025e-009    
  2.45            2.1863e-009     -5.585e-009     1.2837e-009    
  2.5             7.655e-010      1.4298e-008     -2.1931e-009   
  2.55            -7.887e-010     -2.4671e-008    2.7241e-009    
  2.6             9.686e-010      1.8296e-008     -1.7833e-009   
  2.65            -1.3774e-009    4.443e-009      2.7229e-009    
  2.7             9.865e-010      1.8575e-008     -1.7471e-009   
  2.75            -1.3852e-009    4.508e-009      2.7103e-009    
  2.8             9.996e-010      1.8934e-008     -1.7207e-009   
  2.85            -1.3968e-009    4.823e-009      2.6983e-009    
  2.9             1.0173e-009     1.9415e-008     -1.6859e-009   
  2.95            -1.4045e-009    5.007e-009      2.6907e-009    
  3               1.0337e-009     1.9917e-008     -1.6486e-009   
  3.05            -1.4153e-009    5.129e-009      2.6794e-009    
  3.1             1.0533e-009     2.0143e-008     -1.6256e-009   
  3.15            -1.4302e-009    5.238e-009      2.213e-010     
  3.2             -5.953e-010     -2.0541e-008    1.7154e-009    
  3.25            1.8343e-009     -9.256e-009     1.5505e-009    
  3.3             1.583e-009      8.169e-009      1.7186e-009    
  3.35            2.3382e-009     9.223e-009      4.6e-010       
  3.4             8.006e-010      1.5152e-008     -2.1376e-009   
  3.45            -8.153e-010     -2.4963e-008    2.7158e-009    
  3.5             1.0043e-009     1.8961e-008     -1.7295e-009   
  3.55            -1.3889e-009    4.553e-009      2.7003e-009    
  3.6             1.0223e-009     1.9348e-008     -1.6905e-009   
  3.65            -1.402e-009     4.943e-009      2.6913e-009    
  3.7             1.0424e-009     1.9759e-008     -1.6514e-009   
  3.75            -1.4132e-009    5.045e-009      2.679e-009     
  3.8             1.0592e-009     2.0296e-008     -1.6224e-009   
  3.85            -1.4243e-009    5.277e-009      2.187e-010     
  3.9             -5.905e-010     -2.0619e-008    1.7127e-009    
  3.95            1.8389e-009     -9.244e-009     1.5501e-009    
  4               1.5831e-009     8.525e-009      1.7176e-009    
  4.05            3.827e-010      1.1113e-008     -2.5962e-009   
  4.1             -1.124e-009     -2.0637e-008    2.2937e-009    
  4.15            2.2569e-009     -5.136e-009     1.2357e-009    
  4.2             7.412e-010      1.3809e-008     -2.2638e-009   
  4.25            -1.7853e-009    -1.0227e-008    -5.733e-010    
  4.3             -1.1371e-009    -1.9924e-008    2.2473e-009    
  4.35            2.2356e-009     -5.453e-009     1.2609e-009    
  4.4             7.649e-010      1.4035e-008     -2.2266e-009   
  4.45            -1.7243e-009    2.689e-009      -3.186e-010    
  4.5             -1.7729e-009    -1.0374e-008    -5.317e-010    
  4.55            -3.271e-010     -1.6638e-008    2.3046e-009    
  4.6             2.2768e-009     -5.066e-009     1.2269e-009    
  4.65            7.447e-010      1.3602e-008     -2.2751e-009   
  4.7             -1.7706e-009    -1.0373e-008    -5.665e-010    
  4.75            -9.319e-010     -9.616e-009     2.5777e-009    
  4.8             2.3247e-009     9.364e-009      3.845e-010     
  4.85            7.707e-010      1.3922e-008     -2.2448e-009   
  4.9             -1.7065e-009    2.601e-009      -3.079e-010    
  4.95            -1.7552e-009    -1.0434e-008    -5.211e-010    
  5               -1.0842e-009    -2.1041e-008    2.319e-009     
END_DB

BEGIN_DB
 ICCAP_VAR VG         1              
 ICCAP_VAR VS         0              
 ICCAP_VAR VB         0              

 #VD              ID              IB              IG             
  0               5.2935e-007     1.8482e-008     -1.6706e-009   
  0.05            4.8548e-005     -2.4489e-008    1.2044e-009    
  0.1             7.8156e-005     -1.8882e-008    1.7875e-009    
  0.15            9.4655e-005     -2.4334e-008    2.6279e-009    
  0.2             0.000104228     -1.6576e-008    1.8865e-009    
  0.25            0.00011188      5.36e-009       -2.001e-009    
  0.3             0.00011423      8.887e-009      7.565e-010     
  0.35            0.00011856      -2.5133e-008    2.4606e-009    
  0.4             0.00012124      -1.049e-008     -6.29e-010     
  0.45            0.00012368      7.942e-009      -2.5943e-009   
  0.5             0.00012645      2.4531e-008     -2.4576e-009   
  0.55            0.00012783      1.6751e-008     -1.5987e-009   
  0.6             0.00013025      2.6323e-008     -2.2669e-009   
  0.65            0.00012947      8.021e-009      1.9928e-009    
  0.7             0.00013187      -2.4031e-008    2.6448e-009    
  0.75            0.00013365      -2.1124e-008    1.9408e-009    
  0.8             0.00013501      -2.4532e-008    2.5986e-009    
  0.85            0.00013707      -1.9735e-008    1.8345e-009    
  0.9             0.00013744      -2.4971e-008    2.5356e-009    
  0.95            0.00013966      -1.8224e-008    1.7368e-009    
  1               0.00014069      -2.5243e-008    2.4595e-009    
  1.05            0.0001422       -1.053e-008     -6.297e-010    
  1.1             0.0001432       8.15e-009       -2.5979e-009   
  1.15            0.00014515      2.4647e-008     -2.4589e-009   
  1.2             0.00014662      1.6688e-008     -1.6017e-009   
  1.25            0.00014755      1.2671e-008     -2.0871e-009   
  1.3             0.00014889      2.2047e-008     -1.3356e-009   
  1.35            0.00014989      1.6372e-008     -1.6397e-009   
  1.4             0.00015128      2.5997e-008     -2.2948e-009   
  1.45            0.00014987      8.503e-009      1.9668e-009    
  1.5             0.00015211      -2.38e-008      2.6677e-009    
  1.55            0.00015364      -2.1656e-008    1.9921e-009    
  1.6             0.00015394      -2.4463e-008    2.6272e-009    
  1.65            0.00015553      -2.0461e-008    1.8856e-009    
  1.7             0.000156        -2.4874e-008    2.5678e-009    
  1.75            0.00015783      -1.9094e-008    1.7885e-009    
  1.8             0.000158        -2.5341e-008    2.4964e-009    
  1.85            0.0001597       -1.0917e-008    -6.007e-010    
  1.9             0.00016088      7.078e-009      -2.5911e-009   
  1.95            0.00016241      1.0167e-008     -2.3718e-009   
  2               0.00016328      1.6596e-008     -1.4954e-009   
  2.05            0.00016452      1.1117e-008     -1.9492e-009   
  2.1             0.00016511      8.232e-009      -2.4011e-009   
  2.15            0.00016621      1.3651e-008     -1.5307e-009   
  2.2             0.00016732      7.454e-009      -1.9935e-009   
  2.25            0.00016787      3.9e-009        -2.432e-009    
  2.3             0.00016853      5.13e-010       -2.6008e-009   
  2.35            0.00016993      4.23e-010       -2.0432e-009   
  2.4             0.00016854      -8.238e-009     2.1144e-009    
  2.45            0.00017118      -3.0607e-008    -5.569e-010    
  2.5             0.00017257      -1.589e-009     -2.5256e-009   
  2.55            0.0001708       -2.2041e-008    1.7334e-009    
  2.6             0.00017458      -4.9491e-008    -7.38e-011     
  2.65            0.0001752       -3.104e-008     -1.6773e-009   
  2.7             0.00017394      -4.9724e-008    2.2757e-009    
  2.75            0.00017724      -7.92e-008      -8.243e-010    
  2.8             0.0001776       -5.6202e-008    -2.3e-009      
  2.85            0.00017654      -8.9844e-008    1.9674e-009    
  2.9             0.00017806      -1.0717e-007    -2.5123e-009   
  2.95            0.00017812      -1.2983e-007    1.1003e-009    
  3               0.00018096      -1.8092e-007    1.7791e-009    
  3.05            0.00018122      -1.9797e-007    -2.2191e-009   
  3.1             0.00018199      -2.1047e-007    7.538e-010     
  3.15            0.00018294      -2.8214e-007    2.4663e-009    
  3.2             0.00018463      -3.0602e-007    -1.9312e-009   
  3.25            0.00018669      -3.3044e-007    3.253e-010     
  3.3             0.0001859       -4.1392e-007    2.7442e-009    
  3.35            0.00018846      -4.5974e-007    -1.6657e-009   
  3.4             0.0001908       -5.0265e-007    -7.18e-011     
  3.45            0.00018924      -6.0364e-007    2.0881e-009    
  3.5             0.00019116      -6.7841e-007    -2.084e-009    
  3.55            0.00019258      -7.4882e-007    5.732e-010     
  3.6             0.00019341      -8.9049e-007    2.6499e-009    
  3.65            0.00019526      -9.8765e-007    -1.8395e-009   
  3.7             0.0001977       -1.08758e-006   1.457e-010     
  3.75            0.00019615      -1.2325e-006    2.4865e-009    
  3.8             0.00019917      -1.4101e-006    -1.9159e-009   
  3.85            0.0002012       -1.5564e-006    3.008e-010     
  3.9             0.00020111      -1.7874e-006    2.745e-009     
  3.95            0.00020574      -1.9796e-006    -1.6369e-009   
  4               0.00020682      -2.1803e-006    -9.23e-011     
  4.05            0.00020673      -2.4716e-006    2.141e-009     
  4.1             0.00021065      -2.7483e-006    -2.0613e-009   
  4.15            0.00021254      -3.0266e-006    5.418e-010     
  4.2             0.00021487      -3.4217e-006    2.6724e-009    
  4.25            0.00021728      -3.7688e-006    -1.8226e-009   
  4.3             0.00022203      -4.1303e-006    1.208e-010     
  4.35            0.00022101      -4.6332e-006    1.7381e-009    
  4.4             0.00022626      -5.0821e-006    -2.2456e-009   
  4.45            0.00022961      -5.5829e-006    7.812e-010     
  4.5             0.00023257      -6.2357e-006    2.419e-009     
  4.55            0.00023717      -6.8168e-006    -1.948e-009    
  4.6             0.00024129      -7.4693e-006    3.589e-010     
  4.65            0.00024372      -8.3054e-006    2.7441e-009    
  4.7             0.00025543      -8.9867e-006    -1.6933e-009   
  4.75            0.00026127      -9.8534e-006    -4.1e-011      
  4.8             0.00026162      -1.09026e-005   2.0408e-009    
  4.85            0.0002665       -1.1806e-005    1.8693e-009    
  4.9             0.00027464      -1.3233e-005    -2.168e-009    
  4.95            0.00027735      -1.4044e-005    6.94e-010      
  5               0.00028891      -1.5751e-005    2.5325e-009    
END_DB

BEGIN_DB
 ICCAP_VAR VG         2              
 ICCAP_VAR VS         0              
 ICCAP_VAR VB         0              

 #VD              ID              IB              IG             
  0               3.8264e-006     7.901e-009      1.4249e-009    
  0.05            0.00026837      -2.0538e-008    -1.508e-009    
  0.1             0.00052642      1.4338e-008     -1.8607e-009   
  0.15            0.00077259      2.4266e-008     -2.4495e-009   
  0.2             0.00100666      1.7229e-008     -1.602e-009    
  0.25            0.0012262       9.406e-009      -9.004e-010    
  0.3             0.0014311       1.0494e-008     -2.5853e-009   
  0.35            0.0016197       1.3597e-008     -1.9517e-009   
  0.4             0.001792        1.1043e-008     -2.3953e-009   
  0.45            0.0019462       8.606e-009      1.895e-009     
  0.5             0.0020824       -2.2258e-008    2.7029e-009    
  0.55            0.0022028       -2.3444e-008    2.1462e-009    
  0.6             0.0023082       -1.0191e-008    -8.573e-010    
  0.65            0.0023958       9.997e-009      -2.5959e-009   
  0.7             0.0024689       1.297e-008      -2.0449e-009   
  0.75            0.002529        2.2417e-008     -1.3143e-009   
  0.8             0.0025788       1.703e-008      -1.6014e-009   
  0.85            0.0026187       2.5888e-008     -2.2538e-009   
  0.9             0.0026527       1.9776e-008     -1.4096e-009   
  0.95            0.0026803       1.4822e-008     -1.8119e-009   
  1               0.0027034       1.1301e-008     -2.2922e-009   
  1.05            0.0027204       8.702e-009      1.9801e-009    
  1.1             0.0027366       -2.3551e-008    2.6612e-009    
  1.15            0.0027504       -2.1964e-008    1.9892e-009    
  1.2             0.0027641       -1.1712e-008    1.75e-010      
  1.25            0.0027798       1.257e-008      -2.1344e-009   
  1.3             0.0027887       9.262e-009      6.726e-010     
  1.35            0.0027969       -2.4639e-008    2.5628e-009    
  1.4             0.0028077       -1.9142e-008    1.7879e-009    
  1.45            0.0028154       -2.5015e-008    2.4977e-009    
  1.5             0.0028247       -1.7545e-008    1.6866e-009    
  1.55            0.002832        -2.5181e-008    2.4212e-009    
  1.6             0.0028437       -1.0511e-008    -6.788e-010    
  1.65            0.0028502       8.519e-009      -2.6036e-009   
  1.7             0.0028564       2.4788e-008     -2.4264e-009   
  1.75            0.0028619       1.7298e-008     -1.5581e-009   
  1.8             0.002866        7.658e-009      1.0155e-009    
  1.85            0.0028715       -2.1686e-008    1.9888e-009    
  1.9             0.0028762       -2.427e-008     2.6152e-009    
  1.95            0.0028843       -2.0603e-008    1.8815e-009    
  2               0.0028884       -2.4842e-008    2.5583e-009    
  2.05            0.0028947       -1.9365e-008    1.7701e-009    
  2.1             0.0029035       -9.801e-009     -1.024e-009    
  2.15            0.0029077       1.0244e-008     -2.5206e-009   
  2.2             0.0029115       1.3906e-008     -1.7092e-009   
  2.25            0.002917        9.671e-009      -2.2155e-009   
  2.3             0.0029216       7.255e-009      -2.5393e-009   
  2.35            0.0029256       9.115e-009      -1.7551e-009   
  2.4             0.0029305       3.112e-009      -2.2557e-009   
  2.45            0.002935        -2.1174e-008    -2.1123e-009   
  2.5             0.0029391       8.454e-009      -2.1762e-009   
  2.55            0.0029415       -1.6542e-008    2.0565e-009    
  2.6             0.0029473       -4.4647e-008    -4.748e-010    
  2.65            0.0029509       -2.4588e-008    -1.3406e-009   
  2.7             0.0029531       -5.5199e-008    2.487e-009     
  2.75            0.0029612       -9.0077e-008    -1.1036e-009   
  2.8             0.002963        -8.2369e-008    -2.3607e-009   
  2.85            0.0029687       -1.2824e-007    -1.1773e-009   
  2.9             0.0029713       -1.5283e-007    -1.6629e-009   
  2.95            0.0029737       -2.1357e-007    2.2844e-009    
  3               0.002981        -2.8546e-007    -8.344e-010    
  3.05            0.0029824       -3.1657e-007    -2.2889e-009   
  3.1             0.0029844       -4.1453e-007    1.9819e-009    
  3.15            0.0029912       -5.2717e-007    -3.658e-010    
  3.2             0.0029956       -6.0894e-007    -1.3979e-009   
  3.25            0.002998        -7.5501e-007    2.4252e-009    
  3.3             0.0030054       -9.2121e-007    -1.0238e-009   
  3.35            0.0030097       -1.06579e-006   -1.9421e-009   
  3.4             0.0030155       -1.3053e-006    -1.4859e-009   
  3.45            0.0030186       -1.5183e-006    -2.5012e-009   
  3.5             0.0030221       -1.7971e-006    1.7822e-009    
  3.55            0.0030272       -2.1276e-006    -1.219e-010    
  3.6             0.003035        -2.4592e-006    -1.6199e-009   
  3.65            0.0030395       -2.8756e-006    2.3006e-009    
  3.7             0.0030481       -3.3482e-006    -8.598e-010    
  3.75            0.0030546       -3.8362e-006    -2.2488e-009   
  3.8             0.0030592       -4.4437e-006    2.0076e-009    
  3.85            0.0030709       -5.1237e-006    -4.086e-010    
  3.9             0.0030787       -5.8434e-006    -1.3759e-009   
  3.95            0.0030914       -6.6998e-006    2.4439e-009    
  4               0.0031009       -7.6521e-006    -1.0525e-009   
  4.05            0.0031056       -8.6777e-006    -1.8827e-009   
  4.1             0.00312         -9.8728e-006    2.1922e-009    
  4.15            0.0031359       -1.12094e-005   -6.803e-010    
