! VERSION = 6.00
BEGIN_HEADER
 ICCAP_INPUTS
  VG         V  B GROUND SMU4 0.001 LIN        1    0          5          101  0.05      
  VS         V  E GROUND SMU2 0.1 CON        0
  VB         V  C GROUND SMU3 0.1 LIN        3    0          -5         3    -2.5      
  VD         V  S GROUND SMU1 0.1 LIN        2    0.1        5          2    4.9       
 ICCAP_OUTPUTS
  IG         I  B GROUND SMU4 B
  ID         I  S GROUND SMU1 B
  IB         I  C GROUND SMU3 B
END_HEADER

BEGIN_DB
 ICCAP_VAR VS         0              
 ICCAP_VAR VB         0              
 ICCAP_VAR VD         0.1            

 #VG              IG              ID              IB             
  0               3.904e-010      5.948e-010      1.1863e-008    
  0.05            2.1945e-009     -9.168e-010     -2.3589e-008   
  0.1             1.7307e-009     2.1421e-009     -1.0314e-008   
  0.15            1.9295e-009     1.7911e-009     1.0754e-008    
  0.2             4.248e-010      2.625e-009      1.277e-008     
  0.25            6.387e-010      2.6687e-009     1.2448e-008    
  0.3             -1.4474e-009    1.7614e-009     2.7336e-008    
  0.35            -2.913e-009     2.918e-010      1.5393e-008    
  0.4             -1.321e-010     -2.18e-009      -1.3957e-008   
  0.45            -3.97e-010      -1.7549e-009    -1.4449e-008   
  0.5             3.097e-009      2.5133e-009     -1.446e-008    
  0.55            2.5781e-009     1.0562e-008     1.351e-008     
  0.6             -1.4452e-009    3.8522e-008     3.2416e-008    
  0.65            -1.451e-009     1.3518e-007     -2.228e-009    
  0.7             -2.8916e-009    4.5257e-007     1.3838e-008    
  0.75            -2.2456e-009    1.3248e-006     -1.4699e-008   
  0.8             -1.1735e-009    3.7486e-006     -1.2232e-008   
  0.85            2.206e-010      8.9424e-006     -1.2525e-008   
  0.9             1.0281e-009     1.8135e-005     -2.335e-008    
  0.95            -2.719e-010     3.2088e-005     1.3226e-008    
  1               -1.5439e-009    4.929e-005      2.4427e-008    
  1.05            -1.451e-009     6.9185e-005     9.104e-009     
  1.1             -2.8632e-009    8.9674e-005     1.4576e-008    
  1.15            -2.3333e-009    0.000110129     9.21e-010      
  1.2             -1.4501e-009    0.00013039      5.524e-009     
  1.25            -2.9199e-009    0.00014956      1.2677e-008    
  1.3             -1.5705e-009    0.00016797      -1.0348e-008   
  1.35            -2.224e-010     0.0001849       -1.2736e-008   
  1.4             -8.045e-010     0.0002018       -1.4448e-008   
  1.45            -1.2456e-009    0.00021781      -1.1502e-008   
  1.5             -1.705e-009     0.00023317      -1.117e-008    
  1.55            -3.857e-010     0.00024716      -1.3497e-008   
  1.6             -9.527e-010     0.00026112      -1.4299e-008   
  1.65            -1.3649e-009    0.0002745       -1.087e-008    
  1.7             2.15e-011       0.00028666      -1.1465e-008   
  1.75            -5.501e-010     0.00029926      -1.4185e-008   
  1.8             -1.07e-009      0.00031119      -1.3247e-008   
  1.85            3.198e-010      0.00032215      -1.4551e-008   
  1.9             1.5997e-009     0.00033333      -2.4205e-008   
  1.95            1.3664e-009     0.00034393      -1.0321e-008   
  2               3.1004e-009     0.00035413      -1.1975e-008   
  2.05            -1.7905e-009    0.00036437      2.4036e-008    
  2.1             -1.4574e-009    0.00037396      7.118e-009     
  2.15            -1.4344e-009    0.00038332      1.0717e-008    
  2.2             -2.6988e-009    0.00039251      1.6555e-008    
  2.25            -1.9858e-009    0.00040108      2.083e-009     
  2.3             -1.493e-009     0.00040968      6.301e-009     
  2.35            -1.4496e-009    0.00041806      9.187e-009     
  2.4             -2.8177e-009    0.00042618      1.4982e-008    
  2.45            -2.2084e-009    0.00043383      1.359e-009     
  2.5             -1.5685e-009    0.00044158      5.862e-009     
  2.55            -1.4504e-009    0.00044912      8.471e-009     
  2.6             -2.8938e-009    0.00045644      1.358e-008     
  2.65            -1.6497e-009    0.00046354      -1.061e-008    
  2.7             -3.215e-010     0.00047034      -1.3163e-008   
  2.75            -9.024e-010     0.00047714      -1.4653e-008   
  2.8             -1.3214e-009    0.00048377      -1.1216e-008   
  2.85            -1.7857e-009    0.00049025      -1.0976e-008   
  2.9             -2.1451e-009    0.00049641      -1.2202e-008   
  2.95            -1.0272e-009    0.00050247      -1.3919e-008   
  3               3.591e-010      0.00050816      -1.5477e-008   
  3.05            1.6615e-009     0.00051426      -2.3505e-008   
  3.1             1.3676e-009     0.00051992      -1.0929e-008   
  3.15            3.1153e-009     0.00052539      -1.1438e-008   
  3.2             2.7254e-009     0.00053096      -2.268e-009    
  3.25            1.8681e-009     0.00053632      -6.789e-009    
  3.3             1.385e-009      0.00054152      -1.1537e-008   
  3.35            3.1367e-009     0.00054661      -1.0086e-008   
  3.4             2.9033e-009     0.0005518       -1.743e-009    
  3.45            2.9124e-009     0.00055636      8.496e-009     
  3.5             1.7499e-009     0.00056128      1.0368e-008    
  3.55            2.1926e-009     0.00056604      1.0522e-008    
  3.6             9.867e-010      0.00057062      1.1514e-008    
  3.65            -3.072e-010     0.00057502      1.4587e-008    
  3.7             -1.5714e-009    0.00057955      2.3685e-008    
  3.75            -1.4503e-009    0.00058372      8.807e-009     
  3.8             -2.886e-009     0.00058806      1.4066e-008    
  3.85            -1.6605e-009    0.00059208      -1.0726e-008   
  3.9             -3.42e-010      0.00059597      -1.3243e-008   
  3.95            -9.104e-010     0.00059987      -1.4483e-008   
  4               -1.3329e-009    0.00060375      -1.0949e-008   
  4.05            -1.7927e-009    0.00060777      -1.1895e-008   
  4.1             -5.073e-010     0.00061122      -1.3963e-008   
  4.15            -1.0309e-009    0.00061495      -1.3762e-008   
  4.2             3.491e-010      0.00061814      -1.5396e-008   
  4.25            1.6509e-009     0.00062189      -2.3461e-008   
  4.3             1.3678e-009     0.00062517      -1.0802e-008   
  4.35            3.1091e-009     0.0006285       -1.1582e-008   
  4.4             2.714e-009      0.00063187      -2.25e-009     
  4.45            1.8362e-009     0.00063504      -6.908e-009    
  4.5             1.3817e-009     0.00063793      -1.1607e-008   
  4.55            3.136e-009      0.00064102      -1.0057e-008   
  4.6             2.8902e-009     0.00064408      -1.73e-009     
  4.65            2.9272e-009     0.00064676      8.28e-009      
  4.7             1.777e-009      0.00064967      1.0529e-008    
  4.75            2.2193e-009     0.00065253      1.0248e-008    
  4.8             1.0111e-009     0.00065522      1.1169e-008    
  4.85            -2.882e-010     0.00065779      1.3847e-008    
  4.9             -1.555e-009     0.00066067      2.389e-008     
  4.95            -1.449e-009     0.000663        8.964e-009     
  5               -2.8718e-009    0.00066579      1.4403e-008    
END_DB

BEGIN_DB
 ICCAP_VAR VS         0              
 ICCAP_VAR VB         0              
 ICCAP_VAR VD         5              

 #VG              IG              ID              IB             
  0               -7.502e-010     2.451e-010      1.0483e-008    
  0.05            -1.4143e-009    1.8986e-009     1.8935e-008    
  0.1             -2.8273e-009    4.481e-010      1.8809e-008    
  0.15            -1.264e-009     -2.3657e-009    1.501e-009     
  0.2             -1.4554e-009    -2.2684e-009    -1.0976e-008   
  0.25            -1.6573e-009    -2.0747e-009    -1.2241e-008   
  0.3             -6e-013         -2.2323e-009    -1.3228e-008   
  0.35            -2.425e-010     -2.2365e-009    -1.4347e-008   
  0.4             -4.972e-010     -1.7461e-009    -1.4639e-008   
  0.45            -7.449e-010     1.528e-010      -1.4244e-008   
  0.5             3.0305e-009     1.1202e-008     1.1661e-008    
  0.55            2.8485e-009     3.8101e-008     5.567e-009     
  0.6             3.0982e-009     1.4449e-007     -2.0948e-008   
  0.65            2.5967e-009     5.0384e-007     -4.1777e-008   
  0.7             9.47e-011       1.7025e-006     -1.2344e-007   
  0.75            6.316e-010      6.7079e-006     -3.3304e-007   
  0.8             -3.0134e-009    1.3043e-005     -8.3502e-007   
  0.85            -1.5347e-009    2.8833e-005     -1.797e-006    
  0.9             -1.9874e-009    5.4666e-005     -3.2714e-006   
  0.95            -2.2856e-009    9.0696e-005     -5.2495e-006   
  1               -2.4092e-009    0.00013859      -7.6559e-006   
  1.05            -1.6873e-009    0.00020058      -1.04226e-005  
  1.1             1.3669e-009     0.00026306      -1.3402e-005   
  1.15            3.1172e-009     0.00033727      -1.6273e-005   
  1.2             2.6996e-009     0.00041998      -1.9302e-005   
  1.25            1.8139e-009     0.00050639      -2.2288e-005   
  1.3             1.3742e-009     0.00059811      -2.5183e-005   
  1.35            3.1427e-009     0.00069365      -2.7904e-005   
  1.4             2.887e-009      0.00079498      -3.0465e-005   
  1.45            2.0725e-009     0.00089678      -3.2856e-005   
  1.5             1.4285e-009     0.00100229      -3.5061e-005   
  1.55            3.1429e-009     0.00110943      -3.7013e-005   
  1.6             -2.8583e-009    0.0012236       -3.8793e-005   
  1.65            -2.3053e-009    0.0013343       -4.0409e-005   
  1.7             -1.6177e-009    0.0014479       -4.1748e-005   
  1.75            -1.4481e-009    0.0015627       -4.2904e-005   
  1.8             -2.911e-009     0.001679        -4.386e-005    
  1.85            -2.5075e-009    0.0017944       -4.4658e-005   
  1.9             -1.7784e-009    0.0019133       -4.5262e-005   
  1.95            -1.4539e-009    0.002032        -4.5695e-005   
  2               -1.4328e-009    0.0021518       -4.5963e-005   
  2.05            -2.6934e-009    0.0022723       -4.6095e-005   
  2.1             -1.9787e-009    0.002392        -4.6102e-005   
  2.15            -1.486e-009     0.0025135       -4.5967e-005   
  2.2             -1.4461e-009    0.002636        -4.5705e-005   
  2.25            -2.817e-009     0.0027581       -4.5353e-005   
  2.3             -2.2009e-009    0.0028803       -4.4917e-005   
  2.35            -1.5604e-009    0.003003        -4.4368e-005   
  2.4             -1.4503e-009    0.0031266       -4.3717e-005   
  2.45            -2.8853e-009    0.0032508       -4.3022e-005   
  2.5             -2.4067e-009    0.0033734       -4.227e-005    
  2.55            -1.6852e-009    0.0034975       -4.145e-005    
  2.6             -1.4474e-009    0.0036221       -4.0583e-005   
  2.65            -2.9331e-009    0.0037475       -3.9676e-005   
  2.7             -2.6099e-009    0.0038717       -3.8715e-005   
  2.75            -1.864e-009     0.0039971       -3.7741e-005   
  2.8             -1.464e-009     0.0041219       -3.6739e-005   
  2.85            -1.4445e-009    0.0042477       -3.5725e-005   
  2.9             -2.7635e-009    0.0043728       -3.4697e-005   
  2.95            -2.0838e-009    0.0044962       -3.3668e-005   
  3               -1.5157e-009    0.0046212       -3.2621e-005   
  3.05            -1.4506e-009    0.004747        -3.1574e-005   
  3.1             -2.8609e-009    0.0048717       -3.0524e-005   
  3.15            -2.3137e-009    0.0049948       -2.9498e-005   
  3.2             -1.6197e-009    0.0051202       -2.848e-005    
  3.25            -1.4492e-009    0.005246        -2.7474e-005   
  3.3             -2.9124e-009    0.0053718       -2.6471e-005   
  3.35            -2.5174e-009    0.0054939       -2.5499e-005   
  3.4             -1.773e-009     0.0056195       -2.4532e-005   
  3.45            -1.4508e-009    0.0057444       -2.3575e-005   
  3.5             -1.4313e-009    0.0058683       -2.2648e-005   
  3.55            -2.7045e-009    0.0059927       -2.1738e-005   
  3.6             -1.9831e-009    0.006116        -2.0865e-005   
  3.65            -1.482e-009     0.0062407       -2.0003e-005   
  3.7             -1.4479e-009    0.0063649       -1.9164e-005   
  3.75            -2.8203e-009    0.006489        -1.8357e-005   
  3.8             -2.2027e-009    0.0066119       -1.7587e-005   
  3.85            -1.5621e-009    0.0067353       -1.6825e-005   
  3.9             -1.45e-009      0.0068591       -1.6085e-005   
  3.95            -2.8879e-009    0.006983        -1.5377e-005   
  4               -2.4233e-009    0.0071045       -1.4702e-005   
  4.05            -1.6941e-009    0.0072278       -1.4037e-005   
  4.1             -1.4482e-009    0.0073502       -1.3398e-005   
  4.15            -2.933e-009     0.0074736       -1.2784e-005   
  4.2             -2.6137e-009    0.0075934       -1.2203e-005   
  4.25            -1.8788e-009    0.0077174       -1.1646e-005   
  4.3             -1.4695e-009    0.0078392       -1.1095e-005   
  4.35            -1.443e-009     0.0079623       -1.0574e-005   
  4.4             -2.7664e-009    0.008085        -1.0063e-005   
  4.45            1.9845e-009     0.0082024       -9.6316e-006   
  4.5             1.3991e-009     0.0083235       -9.1675e-006   
  4.55            1.3657e-009     0.0084432       -8.7301e-006   
  4.6             2.9878e-009     0.0085628       -8.3086e-006   
  4.65            2.2276e-009     0.0086838       -7.8968e-006   
  4.7             1.4801e-009     0.0088039       -7.5155e-006   
  4.75            1.3728e-009     0.0089227       -7.1491e-006   
  4.8             3.072e-009      0.0090406       -6.795e-006    
  4.85            2.4987e-009     0.0091626       -6.4557e-006   
  4.9             1.621e-009      0.0092804       -6.1353e-006   
  4.95            1.3717e-009     0.0093985       -5.828e-006    
  5               3.1286e-009     0.0095166       -5.5331e-006   
END_DB

BEGIN_DB
 ICCAP_VAR VS         0              
 ICCAP_VAR VB         -2.5           
 ICCAP_VAR VD         0.1            

 #VG              IG              ID              IB             
  0               -1.0049e-009    -1.1427e-009    -2.0169e-008   
  0.05            2.0165e-009     -1.8401e-009    -1.5054e-008   
  0.1             1.8013e-009     2.0183e-009     -1.0849e-008   
  0.15            1.98e-009       1.647e-009      9.888e-009     
  0.2             5.16e-010       2.631e-009      1.2805e-008    
  0.25            7.194e-010      2.6573e-009     1.1194e-008    
  0.3             -1.4504e-009    1.7863e-009     2.3877e-008    
  0.35            -2.9259e-009    3.152e-010      1.691e-008     
  0.4             -1.3829e-009    -2.3485e-009    -1.0831e-008   
  0.45            -1.5797e-009    -2.1996e-009    -1.2443e-008   
  0.5             -1.7707e-009    -1.9397e-009    -1.2704e-008   
  0.55            -1.492e-010     -2.3782e-009    -1.4571e-008   
  0.6             -4.034e-010     -2.4589e-009    -1.483e-008    
  0.65            -6.493e-010     -2.4555e-009    -1.4225e-008   
  0.7             -8.815e-010     -2.4334e-009    -1.2234e-008   
  0.75            -1.0667e-009    -2.4212e-009    -1.0842e-008   
  0.8             1.8743e-009     -1.865e-009     -1.3551e-008   
  0.85            1.8621e-009     1.9239e-009     -1.1265e-008   
  0.9             2.0417e-009     1.6574e-009     9.356e-009     
  0.95            5.905e-010      3.15e-009       1.2454e-008    
  1               -1.4623e-009    4.1882e-009     2.9541e-008    
  1.05            2.5331e-009     1.161e-008      9.323e-009     
  1.1             1.6261e-009     4.8953e-008     -8.458e-009    
  1.15            -1.0716e-009    1.9048e-007     1.9422e-008    
  1.2             3.222e-010      6.9658e-007     -1.3464e-008   
  1.25            3.1174e-009     2.2462e-006     3.0662e-008    
  1.3             3.1197e-009     6.1261e-006     -7.24e-010     
  1.35            -1.5353e-009    1.4121e-005     -2.348e-009    
  1.4             -1.4624e-009    2.6661e-005     8.321e-009     
  1.45            -2.9123e-009    4.3651e-005     1.4751e-008    
  1.5             -1.685e-009     6.367e-005      -1.1065e-008   
  1.55            -3.817e-010     8.4117e-005     -1.3894e-008   
  1.6             -9.262e-010     0.000105465     -1.4377e-008   
  1.65            -2.0292e-009    0.00012679      -1.6261e-008   
  1.7             -8.531e-010     0.00014626      -1.4604e-008   
  1.75            1.8116e-009     0.00016491      -1.9938e-008   
  1.8             1.3912e-009     0.00018289      -1.1308e-008   
  1.85            3.1472e-009     0.00019974      -1.0736e-008   
  1.9             2.9181e-009     0.00021615      -1.972e-009    
  1.95            2.9358e-009     0.00023125      9.154e-009     
  2               1.7662e-009     0.00024539      9.69e-009      
  2.05            2.1989e-009     0.00025953      1.0342e-008    
  2.1             1.0005e-009     0.00027292      1.1273e-008    
  2.15            -3.041e-010     0.00028563      1.3221e-008    
  2.2             -1.5443e-009    0.00029781      2.3393e-008    
  2.25            -1.4634e-009    0.0003094       8.047e-009     
  2.3             -2.9174e-009    0.00032056      1.4481e-008    
  2.35            -1.6678e-009    0.00033134      -1.0961e-008   
  2.4             -3.584e-010     0.00034137      -1.3706e-008   
  2.45            -9.043e-010     0.00035139      -1.4396e-008   
  2.5             -1.3334e-009    0.00036111      -1.0662e-008   
  2.55            -1.7941e-009    0.00037059      -1.2037e-008   
  2.6             -5.086e-010     0.00037932      -1.4586e-008   
  2.65            -1.0289e-009    0.0003881       -1.3645e-008   
  2.7             3.675e-010      0.00039637      -1.4583e-008   
  2.75            1.649e-009      0.00040479      -2.2751e-008   
  2.8             1.3814e-009     0.0004128       -1.0918e-008   
  2.85            3.1461e-009     0.00042036      -1.1803e-008   
  2.9             2.7642e-009     0.00042809      -2.402e-009    
  2.95            1.8583e-009     0.00043541      -6.346e-009    
  3               1.3932e-009     0.00044251      -1.1305e-008   
  3.05            1.3715e-009     0.00044938      -1.0122e-008   
  3.1             2.9799e-009     0.00045613      -1.8683e-008   
  3.15            2.9143e-009     0.00046258      9.533e-009     
  3.2             1.7202e-009     0.0004689       1.0488e-008    
  3.25            -1.4245e-009    0.00047549      2.9957e-008    
  3.3             -2.5843e-009    0.00048163      1.8474e-008    
  3.35            -1.7903e-009    0.00048739      3.468e-009     
  3.4             -1.4629e-009    0.00049317      6.476e-009     
  3.45            -1.451e-009     0.00049891      9.966e-009     
  3.5             -2.7732e-009    0.00050444      1.683e-008     
  3.55            -2.0223e-009    0.0005097       2.023e-009     
  3.6             -1.4998e-009    0.00051495      6.044e-009     
  3.65            -1.4636e-009    0.00052004      8.851e-009     
  3.7             -2.8803e-009    0.00052512      1.555e-008     
  3.75            -2.2818e-009    0.0005299       1.389e-009     
  3.8             -1.5854e-009    0.00053467      5.512e-009     
  3.85            -1.4603e-009    0.00053942      7.511e-009     
  3.9             -2.9338e-009    0.00054395      1.3174e-008    
  3.95            -1.597e-009     0.00054845      -1.0452e-008   
  4               -2.0214e-009    0.00055274      -1.2812e-008   
  4.05            -8.334e-010     0.00055688      -1.4657e-008   
  4.1             -1.2714e-009    0.00056109      -1.0913e-008   
  4.15            -1.7183e-009    0.00056523      -1.1512e-008   
