! VERSION = 6.00
BEGIN_HEADER
 ICCAP_INPUTS
  VG         V  B GROUND SMU4 0.001 LIN        1    0          5          101  0.05      
  VS         V  E GROUND SMU2 0.1 CON        0
  VB         V  C GROUND SMU3 0.1 LIN        3    0          -5         3    -2.5      
  VD         V  S GROUND SMU1 0.1 LIN        2    0.1        5          2    4.9       
 ICCAP_OUTPUTS
  IG         I  B GROUND SMU4 B
  ID         I  S GROUND SMU1 B
  IB         I  C GROUND SMU3 B
END_HEADER

BEGIN_DB
 ICCAP_VAR VS         0              
 ICCAP_VAR VB         0              
 ICCAP_VAR VD         0.1            

 #VG              IG              ID              IB             
  0               -1.3931e-009    -1.0851e-009    1.1839e-008    
  0.05            -1.3733e-009    2.004e-010      1.2334e-008    
  0.1             -2.6672e-009    3.626e-010      1.3986e-008    
  0.15            -1.0351e-009    -2.0513e-009    4.32e-010      
  0.2             1.6482e-009     -1.593e-009     -1.1976e-008   
  0.25            1.8138e-009     1.7102e-009     -9.359e-009    
  0.3             4.273e-010      2.4414e-009     1.1862e-008    
  0.35            6.218e-010      2.5673e-009     1.1237e-008    
  0.4             -1.3796e-009    2.1306e-009     2.2282e-008    
  0.45            -2.6799e-009    2.0646e-009     1.3565e-008    
  0.5             -2.5782e-009    5.5264e-009     3.29e-010      
  0.55            2.3696e-009     2.2867e-008     2.6585e-008    
  0.6             1.6178e-009     7.8728e-008     -6.674e-009    
  0.65            1.704e-010      2.7562e-007     6.371e-009     
  0.7             1.388e-009      9.1004e-007     -2.307e-008    
  0.75            1.5312e-009     2.6684e-006     7.635e-009     
  0.8             -1.3656e-009    7.8165e-006     2.6985e-008    
  0.85            2.3338e-009     1.7868e-005     3.881e-009     
  0.9             1.5637e-009     3.5552e-005     -7.315e-009    
  0.95            2.8389e-009     6.1433e-005     -9.297e-009    
  1               2.8567e-009     9.425e-005      -1.37e-010     
  1.05            2.0102e-009     0.00013035      -1.38e-009     
  1.1             1.3979e-009     0.00016868      -9.478e-009    
  1.15            2.8697e-009     0.00020599      -8.912e-009    
  1.2             2.7828e-009     0.00024263      -8.45e-010     
  1.25            2.5545e-009     0.00027719      8.408e-009     
  1.3             -1.7821e-009    0.00031036      2.2998e-008    
  1.35            -1.4121e-009    0.00034142      5.753e-009     
  1.4             -1.3826e-009    0.00037091      9.261e-009     
  1.45            -2.5576e-009    0.00039884      1.304e-008     
  1.5             -1.9637e-009    0.00042503      5.54e-010      
  1.55            -1.4621e-009    0.00045031      4.672e-009     
  1.6             -1.393e-009     0.00047434      8.301e-009     
  1.65            -2.6497e-009    0.0004974       1.2224e-008    
  1.7             -2.1847e-009    0.00051913      5.7e-010       
  1.75            -1.5605e-009    0.00054029      3.777e-009     
  1.8             -1.3899e-009    0.00056059      7.694e-009     
  1.85            -2.6959e-009    0.00058019      1.1423e-008    
  1.9             -4.479e-010     0.00059855      -1.2997e-008   
  1.95            -9.108e-010     0.00061664      -1.3437e-008   
  2               1.5137e-009     0.00063356      -1.464e-008    
  2.05            2.8486e-009     0.00065067      -8.816e-009    
  2.1             2.8424e-009     0.00066727      -3.43e-010     
  2.15            -1.6977e-009    0.00068315      2.0703e-008    
  2.2             -1.3966e-009    0.00069858      6.537e-009     
  2.25            -2.7171e-009    0.0007134       9.96e-009      
  2.3             2.0919e-009     0.00072757      -2.452e-008    
  2.35            1.4273e-009     0.00074137      -8.986e-009    
  2.4             2.8637e-009     0.00075489      -8.576e-009    
  2.45            2.8086e-009     0.00076827      -7.37e-010     
  2.5             2.5291e-009     0.00078099      8.131e-009     
  2.55            -1.8518e-009    0.0007937       2.4704e-008    
  2.6             -1.4234e-009    0.00080578      5.225e-009     
  2.65            -1.3861e-009    0.0008177       8.866e-009     
  2.7             -2.5905e-009    0.00082928      1.272e-008     
  2.75            -2.039e-009     0.00084049      6.02e-010      
  2.8             -1.4879e-009    0.00085137      4.276e-009     
  2.85            -1.3927e-009    0.00086192      8.144e-009     
  2.9             -2.6654e-009    0.00087249      1.1892e-008    
  2.95            -2.2363e-009    0.00088234      4.74e-010      
  3               -1.602e-009     0.0008923       3.338e-009     
  3.05            -1.3909e-009    0.00090191      7.151e-009     
  3.1             -2.7045e-009    0.00091129      1.0704e-008    
  3.15            1.9736e-009     0.00092027      -2.2906e-008   
  3.2             1.3869e-009     0.00092911      -9.613e-009    
  3.25            2.8697e-009     0.0009379       -8.823e-009    
  3.3             2.7709e-009     0.00094645      -9.27e-010     
  3.35            2.5673e-009     0.0009547       8.313e-009     
  3.4             -1.7607e-009    0.00096291      2.2435e-008    
  3.45            -1.4053e-009    0.00097094      5.907e-009     
  3.5             -1.3808e-009    0.00097865      9.455e-009     
  3.55            -2.5442e-009    0.00098645      1.3296e-008    
  3.6             -1.9432e-009    0.00099356      7.81e-010      
  3.65            -1.4541e-009    0.00100091      4.649e-009     
  3.7             -1.3916e-009    0.00100795      8.61e-009      
  3.75            -2.6394e-009    0.00101498      1.25e-008      
  3.8             -2.1575e-009    0.00102152      4.39e-010      
  3.85            -1.5434e-009    0.00102816      3.914e-009     
  3.9             -1.3922e-009    0.00103463      7.801e-009     
  3.95            -2.6911e-009    0.00104101      1.155e-008     
  4               -1.4426e-009    0.00104711      -1.0053e-008   
  4.05            1.317e-009      0.00105307      -2.6781e-008   
  4.1             2.778e-009      0.00105902      -1.4298e-008   
  4.15            2.5623e-009     0.00106462      8.265e-009     
  4.2             -1.7638e-009    0.00107027      2.2664e-008    
  4.25            -1.4067e-009    0.00107586      5.969e-009     
  4.3             -1.3805e-009    0.00108125      9.551e-009     
  4.35            -2.5444e-009    0.00108682      1.3364e-008    
  4.4             -1.9512e-009    0.0010918       8.31e-010      
  4.45            -1.4561e-009    0.00109681      4.749e-009     
  4.5             -1.3904e-009    0.00110172      8.58e-009      
  4.55            -2.6383e-009    0.00110676      1.2329e-008    
  4.6             -2.1617e-009    0.00111119      5e-010         
  4.65            -1.5469e-009    0.00111591      4.012e-009     
  4.7             -1.3889e-009    0.00112024      7.681e-009     
  4.75            -2.6929e-009    0.00112475      1.1462e-008    
  4.8             -4.596e-010     0.00112898      -1.3164e-008   
  4.85            -9.197e-010     0.00113309      -1.3027e-008   
  4.9             1.498e-009      0.00113672      -1.4262e-008   
  4.95            -1.3923e-009    0.0011419       -8.676e-009    
  5               -2.6103e-009    0.0011461       1.2954e-008    
END_DB

BEGIN_DB
 ICCAP_VAR VS         0              
 ICCAP_VAR VB         0              
 ICCAP_VAR VD         5              

 #VG              IG              ID              IB             
  0               1.3589e-009     1.7332e-009     -1.3312e-008   
  0.05            2.0862e-009     1.4099e-009     -8.758e-009    
  0.1             7.173e-010      2.4856e-009     1.0623e-008    
  0.15            -1.3722e-009    1.76e-009       1.9446e-008    
  0.2             -2.656e-009     4.48e-010       1.4594e-008    
  0.25            4.21e-011       -1.8484e-009    3.66e-010      
  0.3             -1.828e-010     -1.8803e-009    -1.3268e-008   
  0.35            -4.174e-010     -1.5889e-009    -1.3647e-008   
  0.4             1.6104e-009     2.4702e-009     -1.3566e-008   
  0.45            1.4142e-009     7.5365e-009     -1.0012e-008   
  0.5             2.7692e-009     2.7583e-008     1.4811e-008    
  0.55            2.8667e-009     9.8812e-008     -4.118e-009    
  0.6             2.3349e-009     3.585e-007      -3.6435e-008   
  0.65            2.6085e-009     1.1879e-006     -9.1425e-008   
  0.7             -1.5262e-009    3.9764e-006     -2.8689e-007   
  0.75            1.3243e-009     1.114e-005      -7.8461e-007   
  0.8             2.8568e-009     2.7395e-005     -1.778e-006    
  0.85            2.8297e-009     5.8722e-005     -3.6699e-006   
  0.9             2.3941e-009     0.000108422     -6.5058e-006   
  0.95            2.4347e-009     0.00017804      -1.02731e-005  
  1               -1.5385e-009    0.00027008      -1.4792e-005   
  1.05            -1.3926e-009    0.00037748      -1.9913e-005   
  1.1             -2.6928e-009    0.00050273      -2.5306e-005   
  1.15            -2.3542e-009    0.00063727      -3.0823e-005   
  1.2             -1.7044e-009    0.00078488      -3.626e-005    
  1.25            -1.4001e-009    0.00094097      -4.1553e-005   
  1.3             -1.3824e-009    0.00110541      -4.6601e-005   
  1.35            -1.3948e-009    0.0012769       -5.1402e-005   
  1.4             -1.3774e-009    0.0014529       -5.5862e-005   
  1.45            -2.5093e-009    0.0016342       -5.9966e-005   
  1.5             -1.8685e-009    0.0018182       -6.3772e-005   
  1.55            -1.4261e-009    0.0020067       -6.7128e-005   
  1.6             -1.392e-009     0.0021995       -7.0107e-005   
  1.65            -2.6324e-009    0.0023945       -7.2716e-005   
  1.7             -2.1162e-009    0.0025895       -7.4996e-005   
  1.75            -1.5207e-009    0.0027883       -7.6889e-005   
  1.8             -1.3926e-009    0.0029898       -7.8433e-005   
  1.85            -2.6927e-009    0.0031927       -7.9657e-005   
  1.9             -2.3442e-009    0.0033941       -8.0584e-005   
  1.95            -1.6832e-009    0.0035994       -8.1211e-005   
  2               -1.3975e-009    0.0038049       -8.1548e-005   
  2.05            -1.3818e-009    0.0040124       -8.1626e-005   
  2.1             -2.5353e-009    0.0042198       -8.1484e-005   
  2.15            -1.921e-009     0.0044259       -8.1129e-005   
  2.2             -1.4419e-009    0.0046351       -8.0554e-005   
  2.25            -1.3947e-009    0.0048447       -7.9788e-005   
  2.3             -2.6459e-009    0.0050548       -7.8874e-005   
  2.35            -2.1646e-009    0.0052623       -7.7802e-005   
  2.4             -1.5482e-009    0.0054734       -7.6593e-005   
  2.45            -1.3894e-009    0.0056842       -7.5261e-005   
  2.5             -2.6946e-009    0.0058962       -7.382e-005    
  2.55            -2.3909e-009    0.0061049       -7.2297e-005   
  2.6             -1.7379e-009    0.006317        -7.0683e-005   
  2.65            -1.401e-009     0.006528        -6.9e-005      
  2.7             -1.3833e-009    0.0067406       -6.7265e-005   
  2.75            -2.5592e-009    0.0069554       -6.5461e-005   
  2.8             -1.9718e-009    0.0071658       -6.3642e-005   
  2.85            -1.4634e-009    0.0073773       -6.1796e-005   
  2.9             -1.3902e-009    0.007589        -5.9934e-005   
  2.95            -2.6522e-009    0.0078015       -5.8064e-005   
  3               -2.2166e-009    0.0080111       -5.6197e-005   
  3.05            -1.5918e-009    0.0082225       -5.4325e-005   
  3.1             -1.3875e-009    0.0084339       -5.2465e-005   
  3.15            -1.3617e-009    0.0086458       -5.062e-005    
  3.2             -2.4278e-009    0.0088566       -4.8806e-005   
  3.25            -1.7782e-009    0.0090663       -4.7e-005      
  3.3             -1.4162e-009    0.009277        -4.5232e-005   
  3.35            -1.3832e-009    0.0094884       -4.3489e-005   
  3.4             -2.5763e-009    0.0096987       -4.1789e-005   
  3.45            -2.0265e-009    0.0099074       -4.0111e-005   
  3.5             -1.4826e-009    0.0101171       -3.8484e-005   
  3.55            -1.3894e-009    0.0103269       -3.6897e-005   
  3.6             -2.669e-009     0.0105373       -3.535e-005    
  3.65            -2.2549e-009    0.0107438       -3.385e-005    
  3.7             -1.6219e-009    0.0109538       -3.2397e-005   
  3.75            -1.3892e-009    0.0111621       -3.0974e-005   
  3.8             -2.7061e-009    0.0113708       -2.9606e-005   
  3.85            -1.4526e-009    0.011584        -2.8293e-005   
  3.9             -1.3924e-009    0.011793        -2.701e-005    
  3.95            -2.6503e-009    0.011999        -2.5777e-005   
  4               -2.195e-009     0.012204        -2.4593e-005   
  4.05            -1.5692e-009    0.012412        -2.3452e-005   
  4.1             -1.3906e-009    0.012617        -2.2346e-005   
  4.15            -2.6984e-009    0.012827        -2.1287e-005   
  4.2             -2.4113e-009    0.013028        -2.028e-005    
  4.25            -1.7545e-009    0.013234        -1.9304e-005   
  4.3             -1.4039e-009    0.013438        -1.8372e-005   
  4.35            -1.3844e-009    0.013643        -1.7477e-005   
  4.4             -2.5741e-009    0.01385         -1.6604e-005   
  4.45            -1.9958e-009    0.014055        -1.5794e-005   
  4.5             -1.4671e-009    0.014256        -1.5007e-005   
  4.55            -1.3922e-009    0.014458        -1.4254e-005   
  4.6             -2.666e-009     0.01466         -1.3539e-005   
  4.65            -2.2339e-009    0.01486         -1.2866e-005   
  4.7             -1.5969e-009    0.01506         -1.2211e-005   
  4.75            -1.3883e-009    0.015259        -1.1582e-005   
  4.8             -1.367e-009     0.015463        -1.0986e-005   
  4.85            -2.4573e-009    0.015662        -1.0419e-005   
  4.9             1.6802e-009     0.015855        -9.9121e-006   
  4.95            1.3303e-009     0.016054        -9.3867e-006   
  5               2.8719e-009     0.016249        -8.8962e-006   
END_DB

BEGIN_DB
 ICCAP_VAR VS         0              
 ICCAP_VAR VB         -2.5           
 ICCAP_VAR VD         0.1            

 #VG              IG              ID              IB             
  0               -1.3953e-009    -1.2065e-009    -7.2608e-008   
  0.05            -1.393e-009     3.11e-011       -5.0867e-008   
  0.1             -1.3792e-009    1.732e-010      -4.9914e-008   
  0.15            -2.6824e-009    3.214e-010      -4.9667e-008   
  0.2             -9.888e-010     -2.0663e-009    -7.2761e-008   
  0.25            -1.1431e-009    -2.0319e-009    -8.3718e-008   
  0.3             -1.304e-009     -1.9536e-009    -8.5136e-008   
  0.35            -1.4838e-009    -1.8122e-009    -8.6816e-008   
  0.4             2.624e-010      -1.7237e-009    -8.8768e-008   
  0.45            1.025e-010      -1.8609e-009    -8.6135e-008   
  0.5             -7.68e-011      -1.9916e-009    -8.8019e-008   
  0.55            -3.052e-010     -2.0725e-009    -8.9931e-008   
  0.6             -5.347e-010     -2.0952e-009    -9.1413e-008   
  0.65            -7.388e-010     -2.0932e-009    -9.1606e-008   
  0.7             -8.855e-010     -2.0741e-009    -9.072e-008    
  0.75            -1.0474e-009    -2.0522e-009    -9.0638e-008   
  0.8             -1.2031e-009    -2.0016e-009    -9.2606e-008   
  0.85            1.7604e-009     -1.5179e-009    -9.6035e-008   
  0.9             2.6769e-009     1.4478e-009     -8.5349e-008   
  0.95            2.7753e-009     2.2045e-009     -8.2231e-008   
  1               2.8333e-009     5.8983e-009     -8.3223e-008   
  1.05            -1.4272e-009    2.2707e-008     -9.8102e-008   
  1.1             -1.3882e-009    9.4047e-008     -6.7114e-008   
  1.15            1.9479e-009     3.5538e-007     -1.09398e-007  
  1.2             5.146e-010      1.2997e-006     -9.1786e-008   
  1.25            1.5365e-009     4.0652e-006     -1.04872e-007  
  1.3             6.507e-010      1.105e-005      -1.05159e-007  
  1.35            2.5625e-009     2.4845e-005     -9.8713e-008   
  1.4             1.8142e-009     4.7638e-005     -9.0002e-008   
  1.45            1.3505e-009     7.8439e-005     -9.1056e-008   
  1.5             -1.9987e-009    0.00011585      -9.5799e-008   
  1.55            -2.3234e-009    0.00015448      -1.00188e-007  
  1.6             -2.6859e-009    0.00019384      -9.6051e-008   
  1.65            -2.7427e-009    0.00023203      -9.4464e-008   
  1.7             -2.662e-009     0.00026816      -8.8944e-008   
  1.75            -2.2531e-009    0.00030254      -8.8083e-008   
  1.8             1.5615e-009     0.00033449      -1.00833e-007  
  1.85            1.3215e-009     0.00036434      -8.7034e-008   
  1.9             2.8596e-009     0.00039276      -8.8037e-008   
  1.95            2.5391e-009     0.00042001      -8.9229e-008   
  2               1.8022e-009     0.00044541      -8.9433e-008   
  2.05            1.3511e-009     0.0004695       -8.9975e-008   
  2.1             2.869e-009      0.00049249      -8.6629e-008   
  2.15            2.7276e-009     0.00051471      -9.0472e-008   
  2.2             2.116e-009      0.00053545      -9.0332e-008   
  2.25            1.452e-009      0.0005555       -8.9899e-008   
  2.3             1.3213e-009     0.0005745       -8.6109e-008   
  2.35            2.8355e-009     0.0005929       -8.9196e-008   
  2.4             2.4081e-009     0.0006108       -8.8927e-008   
  2.45            1.646e-009      0.00062773      -8.9848e-008   
  2.5             1.327e-009      0.00064416      -8.9744e-008   
  2.55            2.8687e-009     0.00065981      -8.7588e-008   
  2.6             2.6289e-009     0.00067535      -8.9391e-008   
  2.65            1.9363e-009     0.00069002      -9.1247e-008   
  2.7             1.3855e-009     0.00070429      -9.1206e-008   
  2.75            2.8668e-009     0.00071838      -8.8414e-008   
  2.8             1.7084e-009     0.00073194      -1.06365e-007  
  2.85            1.3307e-009     0.00074479      -9.1349e-008   
  2.9             1.3288e-009     0.00075748      -1.03053e-007  
  2.95            2.8697e-009     0.00076945      -8.809e-008    
  3               2.6253e-009     0.00078147      -9.0279e-008   
  3.05            1.7509e-009     0.00079314      -1.03231e-007  
  3.1             1.3364e-009     0.00080416      -9.1381e-008   
  3.15            1.6556e-009     0.00081521      -1.03865e-007  
  3.2             1.3261e-009     0.00082569      -8.9367e-008   
  3.25            2.8691e-009     0.0008358       -8.8044e-008   
  3.3             2.629e-009      0.00084605      -9.0711e-008   
  3.35            1.9362e-009     0.00085579      -8.8989e-008   
  3.4             1.386e-009      0.00086529      -8.9685e-008   
  3.45            2.8681e-009     0.00087458      -8.7282e-008   
  3.5             2.7827e-009     0.0008838       -8.878e-008    
  3.55            2.2389e-009     0.00089244      -8.7288e-008   
  3.6             1.5235e-009     0.00090102      -8.9041e-008   
  3.65            1.3222e-009     0.00090936      -8.6662e-008   
  3.7             4.217e-010      0.00091759      -6.1241e-008   
  3.75            5.96e-011       0.00092507      -9.7962e-008   
  3.8             1.7165e-009     0.0009334       -1.03114e-007  
  3.85            1.6655e-009     0.00094104      -1.02719e-007  
  3.9             1.3284e-009     0.00094821      -8.7755e-008   
  3.95            2.8682e-009     0.00095538      -8.855e-008    
  4               2.6331e-009     0.00096266      -9.0998e-008   
  4.05            1.945e-009      0.00096945      -9.1917e-008   
  4.1             1.3888e-009     0.0009761       -9.2641e-008   
  4.15            2.8685e-009     0.00098271      -8.8428e-008   
