! VERSION = 6.00
BEGIN_HEADER
 ICCAP_INPUTS
  VG         V  B GROUND SMU4 0.001 LIN        2    0          5          6    1         
  VS         V  E GROUND SMU2 0.1 CON        0
  VD         V  S GROUND SMU1 0.1 LIN        1    0          5          101  0.05      
  VB         V  C GROUND SMU3 0.1 LIN        3    0          -2.5       2    -2.5      
 ICCAP_OUTPUTS
  ID         I  S GROUND SMU1 B
  IB         I  C GROUND SMU3 B
  IG         I  B GROUND SMU4 B
END_HEADER

BEGIN_DB
 ICCAP_VAR VG         0              
 ICCAP_VAR VS         0              
 ICCAP_VAR VB         0              

 #VD              ID              IB              IG             
  0               1.5487e-009     -1.0944e-008    1.1783e-009    
  0.05            1.3886e-009     -9.603e-009     2.0587e-009    
  0.1             2.5276e-009     7.163e-009      8.138e-010     
  0.15            1.8896e-009     1.3536e-008     -1.5968e-009   
  0.2             -1.3192e-009    4.891e-009      2.648e-009     
  0.25            1.1457e-009     2.0117e-008     -1.6142e-009   
  0.3             -1.3189e-009    4.729e-009      2.6522e-009    
  0.35            1.1404e-009     1.9932e-008     -1.6245e-009   
  0.4             -1.3091e-009    4.588e-009      2.6512e-009    
  0.45            1.1364e-009     1.9791e-008     -1.6288e-009   
  0.5             -1.3046e-009    4.437e-009      2.6659e-009    
  0.55            1.1277e-009     1.9627e-008     -1.6432e-009   
  0.6             -1.3019e-009    4.455e-009      2.6729e-009    
  0.65            1.1233e-009     1.9362e-008     -1.6573e-009   
  0.7             -1.296e-009     4.556e-009      2.6796e-009    
  0.75            1.1141e-009     1.9111e-008     -1.6733e-009   
  0.8             -1.4912e-009    -6.203e-009     -1.96e-011     
  0.85            -6.804e-010     -2.5029e-008    2.7113e-009    
  0.9             1.5953e-009     -2.29e-009      1.7895e-009    
  0.95            5.102e-010      1.0687e-008     -2.5607e-009   
  1               -1.0539e-009    -1.9397e-008    2.1884e-009    
  1.05            1.3306e-009     -5.939e-009     2.2125e-009    
  1.1             9.353e-010      1.5216e-008     -2.0532e-009   
  1.15            -1.6589e-009    2.887e-009      -4.178e-010    
  1.2             -9.388e-010     -2.3023e-008    2.4322e-009    
  1.25            1.3729e-009     -4.123e-009     2.1035e-009    
  1.3             2.5382e-009     7.047e-009      8.616e-010     
  1.35            4.553e-010      1.0758e-008     -2.5842e-009   
  1.4             -9.976e-010     -2.1374e-008    2.328e-009     
  1.45            1.3512e-009     -4.781e-009     2.1578e-009    
  1.5             8.72e-010       1.3773e-008     -2.1807e-009   
  1.55            -1.634e-009     2.391e-009      -3.24e-010     
  1.6             -1.6801e-009    -1.0644e-008    -5.154e-010    
  1.65            -9.987e-010     -2.1366e-008    2.3145e-009    
  1.7             1.3506e-009     -4.996e-009     2.1618e-009    
  1.75            8.758e-010      1.3848e-008     -2.1685e-009   
  1.8             -1.2494e-009    -1.1452e-008    2.7127e-009    
  1.85            1.0576e-009     1.7413e-008     -1.8199e-009   
  1.9             -9.155e-010     -9.647e-009     2.4488e-009    
  1.95            1.3801e-009     -4.08e-009      2.0918e-009    
  2               2.542e-009      7.263e-009      8.482e-010     
  2.05            4.489e-010      1.0843e-008     -2.5832e-009   
  2.1             -9.816e-010     -2.1643e-008    2.3444e-009    
  2.15            1.3561e-009     -4.756e-009     2.1469e-009    
  2.2             8.625e-010      1.3568e-008     -2.1992e-009   
  2.25            -1.2414e-009    -1.1593e-008    2.7188e-009    
  2.3             1.6344e-009     -2.191e-009     1.7578e-009    
  2.35            4.99e-010       1.0441e-008     -2.568e-009    
  2.4             -1.032e-009     -2.0139e-008    2.2406e-009    
  2.45            1.3434e-009     -5.531e-009     2.1911e-009    
  2.5             9.217e-010      1.4694e-008     -2.0933e-009   
  2.55            -7.023e-010     -2.5553e-008    2.7039e-009    
  2.6             1.0964e-009     1.8036e-008     -1.7422e-009   
  2.65            -1.4506e-009    -6.729e-009     1.66e-011      
  2.7             -6.441e-010     -2.4783e-008    2.7223e-009    
  2.75            1.6497e-009     -2.143e-009     1.7454e-009    
  2.8             4.914e-010      1.0586e-008     -2.5739e-009   
  2.85            -1.0169e-009    -2.0461e-008    2.2612e-009    
  2.9             1.3477e-009     -5.355e-009     2.1831e-009    
  2.95            9.163e-010      1.4363e-008     -2.1162e-009   
  3               -1.6368e-009    2.521e-009      -3.708e-010    
  3.05            -7.115e-010     -1.0671e-008    2.6873e-009    
  3.1             1.1194e-009     1.8932e-008     -1.6992e-009   
  3.15            -1.2682e-009    4.086e-009      2.6946e-009    
  3.2             1.1123e-009     1.8525e-008     -1.7087e-009   
  3.25            -1.2624e-009    3.938e-009      2.6957e-009    
  3.3             1.1085e-009     1.8459e-008     -1.729e-009    
  3.35            -1.2562e-009    4.069e-009      2.703e-009     
  3.4             1.1034e-009     1.8199e-008     -1.7428e-009   
  3.45            -1.2533e-009    3.73e-009       2.7034e-009    
  3.5             1.101e-009      1.8164e-008     -1.758e-009    
  3.55            -1.2448e-009    3.734e-009      2.7069e-009    
  3.6             1.0925e-009     1.796e-008      -1.7655e-009   
  3.65            -1.433e-009     -6.87e-009      3.1e-011       
  3.7             -6.189e-010     -2.4522e-008    2.7275e-009    
  3.75            1.6839e-009     -2.138e-009     1.7277e-009    
  3.8             4.907e-010      1.0513e-008     -2.5781e-009   
  3.85            -9.925e-010     -2.0904e-008    2.2924e-009    
  3.9             1.3667e-009     -5.026e-009     2.1741e-009    
  3.95            9.147e-010      1.4111e-008     -2.1459e-009   
  4               -6.629e-010     -2.5185e-008    2.71e-009      
  4.05            1.0909e-009     1.765e-008      -1.7986e-009   
  4.1             -1.2275e-009    3.736e-009      2.7127e-009    
  4.15            1.0837e-009     1.7618e-008     -1.8088e-009   
  4.2             -1.2189e-009    3.605e-009      2.7136e-009    
  4.25            1.6389e-009     -2.277e-009     1.7767e-009    
  4.3             5.343e-010      1.0603e-008     -2.566e-009    
  4.35            -1.0126e-009    -1.9682e-008    2.2108e-009    
  4.4             1.3696e-009     -5.756e-009     2.203e-009     
  4.45            9.638e-010      1.4912e-008     -2.078e-009    
  4.5             -6.86e-010      -2.5547e-008    2.6967e-009    
  4.55            1.1372e-009     1.8605e-008     -1.7187e-009   
  4.6             -1.2355e-009    3.955e-009      2.7003e-009    
  4.65            1.1344e-009     1.8275e-008     -1.7348e-009   
  4.7             -1.2265e-009    3.961e-009      2.6993e-009    
  4.75            1.1328e-009     1.8181e-008     -1.7477e-009   
  4.8             -1.4099e-009    -6.819e-009     2.11e-011      
  4.85            -5.972e-010     -2.4723e-008    2.7224e-009    
  4.9             1.7045e-009     -2.208e-009     1.7419e-009    
  4.95            2.4892e-009     8.551e-009      4.812e-010     
  5               9.634e-010      1.4522e-008     -2.1154e-009   
END_DB

BEGIN_DB
 ICCAP_VAR VG         1              
 ICCAP_VAR VS         0              
 ICCAP_VAR VB         0              

 #VD              ID              IB              IG             
  0               -2.037e-006     -1.8407e-008    -7.657e-010    
  0.05            9.5406e-005     1.1247e-008     -3.712e-010    
  0.1             0.00015569      1.0243e-008     -2.5282e-009   
  0.15            0.00019009      1.414e-008      -1.7129e-009   
  0.2             0.00020926      2.5329e-008     -2.3819e-009   
  0.25            0.00021791      7.821e-009      1.878e-009     
  0.3             0.00022648      -2.2911e-008    2.7106e-009    
  0.35            0.0002333       -2.4035e-008    2.1272e-009    
  0.4             0.0002386       -1.0396e-008    -8.363e-010    
  0.45            0.00024539      2.6153e-008     -2.2733e-009   
  0.5             0.00024633      7.412e-009      1.962e-009     
  0.55            0.00025042      -2.449e-008     2.6686e-009    
  0.6             0.00025454      -2.2039e-008    1.9778e-009    
  0.65            0.00025731      -2.5084e-008    2.6307e-009    
  0.7             0.00026123      -2.0912e-008    1.8963e-009    
  0.75            0.00026348      -2.5522e-008    2.5923e-009    
  0.8             0.00026751      -1.9677e-008    1.8194e-009    
  0.85            0.00026976      -2.5662e-008    2.5425e-009    
  0.9             0.00027293      -1.1097e-008    -5.421e-010    
  0.95            0.00027763      6.358e-009      -2.5488e-009   
  1               0.00028113      1.0759e-008     -2.4311e-009   
  1.05            0.00028329      1.6138e-008     -1.5503e-009   
  1.1             0.00028581      2.6108e-008     -2.231e-009    
  1.15            0.00028831      1.9253e-008     -1.3912e-009   
  1.2             0.00029086      1.3482e-008     -1.7851e-009   
  1.25            0.00029363      1.0983e-008     -2.299e-009    
  1.3             0.00029198      7.466e-009      1.9486e-009    
  1.35            0.00029468      -2.4177e-008    2.6737e-009    
  1.4             0.0002972       -2.238e-008     2.0146e-009    
  1.45            0.00030068      -1.0117e-008    -8.947e-010    
  1.5             0.00030437      1.0081e-008     -2.584e-009    
  1.55            0.00030722      2.5919e-008     -2.1414e-009   
  1.6             0.00030881      2.0551e-008     -1.3499e-009   
  1.65            0.00031104      1.4365e-008     -1.6961e-009   
  1.7             0.00031317      1.1244e-008     -2.2164e-009   
  1.75            0.00031496      1.9172e-008     -1.3834e-009   
  1.8             0.00031744      1.3012e-008     -1.7693e-009   
  1.85            0.00031938      1.0315e-008     -2.2886e-009   
  1.9             0.00031765      6.233e-009      1.9557e-009    
  1.95            0.00032058      -1.3363e-008    -3.4e-010      
  2               0.00032508      1.6463e-008     -1.4039e-009   
  2.05            0.00032717      9.187e-009      -1.8154e-009   
  2.1             0.00032952      5.449e-009      -2.3245e-009   
  2.15            0.00033071      2.748e-009      -2.581e-009    
  2.2             0.00033305      2.274e-009      -1.8932e-009   
  2.25            0.00033139      -6.668e-009     2.1638e-009    
  2.3             0.00033345      -2.929e-008     -6.405e-010    
  2.35            0.0003384       7.68e-010       -2.4801e-009   
  2.4             0.00033532      -2.1836e-008    1.781e-009     
  2.45            0.00033798      -4.9797e-008    -1.321e-010    
  2.5             0.00034367      -3.2361e-008    -1.5873e-009   
  2.55            0.00034233      -5.3011e-008    2.2906e-009    
  2.6             0.00034506      -8.404e-008     -8.577e-010    
  2.65            0.00034948      -6.347e-008     -2.2484e-009   
  2.7             0.00034812      -1.2426e-007    -3.59e-011     
  2.75            0.00034929      -1.4781e-007    1.9831e-009    
  2.8             0.00035223      -1.6757e-007    -2.0986e-009   
  2.85            0.00035448      -1.7962e-007    6.11e-010      
  2.9             0.0003538       -2.5056e-007    2.6116e-009    
  2.95            0.0003583       -2.7486e-007    -1.8278e-009   
  3               0.00036076      -3.0023e-007    1.72e-010      
  3.05            0.00035945      -3.8151e-007    1.6336e-009    
  3.1             0.00036262      -4.3272e-007    -2.2662e-009   
  3.15            0.00036406      -4.8207e-007    8.107e-010     
  3.2             0.00036429      -5.9702e-007    2.351e-009     
  3.25            0.00036793      -6.6501e-007    -1.9438e-009   
  3.3             0.00037059      -7.4132e-007    3.887e-010     
  3.35            0.00036984      -8.8755e-007    2.7296e-009    
  3.4             0.00037567      -9.9881e-007    -1.6741e-009   
  3.45            0.0003758       -1.113e-006     -4.25e-011     
  3.5             0.00037625      -1.2745e-006    2.6885e-009    
  3.55            0.00038001      -1.4664e-006    -1.7633e-009   
  3.6             0.00038147      -1.6331e-006    6.61e-011      
  3.65            0.00038064      -1.8726e-006    1.8084e-009    
  3.7             0.00038457      -2.1122e-006    -2.1745e-009   
  3.75            0.00038678      -2.3473e-006    7.128e-010     
  3.8             0.00038631      -2.6949e-006    2.5047e-009    
  3.85            0.00039088      -2.9898e-006    -1.8839e-009   
  3.9             0.00039366      -3.3088e-006    2.759e-010     
  3.95            0.00039258      -3.7354e-006    2.7365e-009    
  4               0.00039968      -4.1547e-006    -1.5835e-009   
  4.05            0.00039998      -4.58e-006      -1.336e-010    
  4.1             0.00039894      -5.1119e-006    2.1853e-009    
  4.15            0.0004037       -5.6851e-006    -2.0123e-009   
  4.2             0.0004069       -6.2373e-006    4.892e-010     
  4.25            0.00040647      -6.9637e-006    2.6983e-009    
  4.3             0.00041279      -7.6426e-006    -1.7534e-009   
  4.35            0.00041432      -8.349e-006     5.86e-011      
  4.4             0.00041442      -9.1983e-006    1.8304e-009    
  4.45            0.00041935      -1.01166e-005   -2.1708e-009   
  4.5             0.00042215      -1.09904e-005   7.069e-010     
  4.55            0.00042499      -1.2004e-005    7.676e-010     
  4.6             0.00042549      -1.3235e-005    2.4288e-009    
  4.65            0.00043143      -1.432e-005     -1.9142e-009   
  4.7             0.00043553      -1.5473e-005    3.341e-010     
  4.75            0.00043555      -1.6885e-005    2.7353e-009    
  4.8             0.00044412      -1.8292e-005    -1.6355e-009   
  4.85            0.0004458       -1.9688e-005    -8.53e-011     
  4.9             0.00044651      -2.129e-005     2.0907e-009    
  4.95            0.00045275      -2.307e-005     -2.0497e-009   
  5               0.00045761      -2.4702e-005    5.528e-010     
END_DB

BEGIN_DB
 ICCAP_VAR VG         2              
 ICCAP_VAR VS         0              
 ICCAP_VAR VB         0              

 #VD              ID              IB              IG             
  0               -9.2095e-006    1.1339e-008     1.0924e-009    
  0.05            0.00053638      -2.0166e-008    -1.4601e-009   
  0.1             0.00105252      1.2812e-008     -1.8565e-009   
  0.15            0.0015448       2.2745e-008     2.4821e-009    
  0.2             0.002013        -1.7331e-008    2.7395e-009    
  0.25            0.0024513       -1.1524e-008    -5.63e-011     
  0.3             0.0028637       1.4843e-008     -1.6757e-009   
  0.35            0.003241        2.5598e-008     -2.3465e-009   
  0.4             0.003582        7.79e-009       1.8972e-009    
  0.45            0.0038898       -2.3703e-008    2.7001e-009    
  0.5             0.0041652       -2.2957e-008    2.0693e-009    
  0.55            0.0044067       -1.0466e-008    -8.573e-010    
  0.6             0.0046158       2.5898e-008     -2.2197e-009   
  0.65            0.0047903       1.9661e-008     -1.3961e-009   
  0.7             0.0049379       1.3099e-008     -1.7839e-009   
  0.75            0.0050606       1.069e-008      -2.2894e-009   
  0.8             0.0051528       7.47e-009       1.9461e-009    
  0.85            0.0052326       -2.4636e-008    2.6696e-009    
  0.9             0.0053006       -2.182e-008     1.9895e-009    
  0.95            0.0053615       -1.003e-008     -8.965e-010    
  1               0.0054108       2.574e-008      -2.142e-009    
  1.05            0.0054508       2.076e-008      -1.3636e-009   
  1.1             0.0054859       1.3986e-008     -1.7084e-009   
  1.15            0.0055162       1.1128e-008     -2.2194e-009   
  1.2             0.0055426       1.9669e-008     -1.3961e-009   
  1.25            0.005567        1.3164e-008     -1.7719e-009   
  1.3             0.0055895       1.0878e-008     -2.2851e-009   
  1.35            0.0056013       7.429e-009      1.943e-009     
  1.4             0.0056191       -2.4594e-008    2.6692e-009    
  1.45            0.0056387       -2.1919e-008    1.9875e-009    
  1.5             0.0056584       -9.963e-009     -8.959e-010    
  1.55            0.005679        2.5707e-008     -2.1534e-009   
  1.6             0.0056928       2.0747e-008     -1.364e-009    
  1.65            0.0057073       1.4104e-008     -1.7126e-009   
  1.7             0.0057208       2.5299e-008     -2.3708e-009   
  1.75            0.0057329       1.7179e-008     -1.4974e-009   
  1.8             0.0057371       7.245e-009      1.0302e-009    
  1.85            0.0057515       -2.0482e-008    1.9036e-009    
  1.9             0.0057609       -2.57e-008      2.5899e-009    
  1.95            0.0057734       -1.9722e-008    1.8329e-009    
  2               0.0057893       -1.0347e-008    -9.701e-010    
  2.05            0.0058034       1.0205e-008     -2.5548e-009   
  2.1             0.0058132       1.2077e-008     -1.7748e-009   
  2.15            0.0058238       8.692e-009      -2.281e-009    
  2.2             0.005832        1.5394e-008     -1.4331e-009   
  2.25            0.0058427       7.591e-009      -1.8445e-009   
  2.3             0.0058523       2.574e-009      -2.3444e-009   
  2.35            0.0058563       -1.7572e-008    -2.5913e-009   
  2.4             0.0058552       -9.267e-009     1.3499e-009    
  2.45            0.0058691       -3.7425e-008    2.6851e-009    
  2.5             0.005885        -4.55e-008      -1.7625e-009   
  2.55            0.0058922       -3.9376e-008    7.19e-011      
  2.6             0.0058931       -8.4204e-008    1.7841e-009    
  2.65            0.0059059       -9.9547e-008    -2.181e-009    
  2.7             0.0059123       -9.486e-008     8.847e-010     
  2.75            0.0059235       -1.5699e-007    -1.4649e-009   
  2.8             0.0059259       -2.0104e-007    2.3371e-009    
  2.85            0.0059358       -2.7668e-007    -9.333e-010    
  2.9             0.0059487       -3.1588e-007    -2.0717e-009   
  2.95            0.0059468       -4.2329e-007    2.0735e-009    
  3               0.0059545       -5.4936e-007    -4.993e-010    
  3.05            0.0059682       -6.4723e-007    -1.3222e-009   
  3.1             0.0059687       -8.196e-007     2.4732e-009    
  3.15            0.0059818       -1.01796e-006   -1.1058e-009   
  3.2             0.0059792       -1.2428e-006    1.5684e-009    
  3.25            0.0059918       -1.4891e-006    -2.3043e-009   
  3.3             0.0059967       -1.772e-006     8.586e-010     
  3.35            0.0060001       -2.1502e-006    2.2658e-009    
  3.4             0.006012        -2.5341e-006    -1.9733e-009   
  3.45            0.0060209       -2.9792e-006    4.324e-010     
  3.5             0.0060201       -3.5382e-006    2.7198e-009    
  3.55            0.0060366       -4.1337e-006    -1.7137e-009   
  3.6             0.0060403       -4.8089e-006    8.8e-012       
  3.65            0.006042        -5.6244e-006    1.9e-009       
  3.7             0.0060547       -6.5116e-006    -2.1285e-009   
  3.75            0.0060624       -7.511e-006     6.516e-010     
  3.8             0.0060633       -8.6874e-006    2.5594e-009    
  3.85            0.0060783       -9.9653e-006    -1.8512e-009   
  3.9             0.0060847       -1.1411e-005    -1.9321e-009   
  3.95            0.0060952       -1.3027e-005    3.631e-010     
  4               0.0060959       -1.4884e-005    2.7407e-009    
  4.05            0.006115        -1.6919e-005    -1.6554e-009   
  4.1             0.0061207       -1.9188e-005    -4.78e-011     
  4.15            0.0061244       -2.1757e-005    2.0124e-009    
