! VERSION = 6.00
BEGIN_HEADER
 ICCAP_INPUTS
  VG         V  B GROUND SMU4 0.001 LIN        2    0          5          6    1         
  VS         V  E GROUND SMU2 0.1 CON        0
  VD         V  S GROUND SMU1 0.1 LIN        1    0          5          101  0.05      
  VB         V  C GROUND SMU3 0.1 LIN        3    0          -2.5       2    -2.5      
 ICCAP_OUTPUTS
  ID         I  S GROUND SMU1 B
  IB         I  C GROUND SMU3 B
  IG         I  B GROUND SMU4 B
END_HEADER

BEGIN_DB
 ICCAP_VAR VG         0              
 ICCAP_VAR VS         0              
 ICCAP_VAR VB         0              

 #VD              ID              IB              IG             
  0               1.7284e-009     4.768e-009      1.215e-009     
  0.05            1.542e-009      -9.666e-009     1.9756e-009    
  0.1             1.4735e-009     2.6107e-008     -2.5183e-009   
  0.15            -1.3359e-009    1.037e-009      2.42e-011      
  0.2             -5.285e-010     -2.5331e-008    2.7314e-009    
  0.25            1.7384e-009     -2.285e-009     1.7213e-009    
  0.3             2.5215e-009     8.373e-009      4.79e-010      
  0.35            1.017e-009      1.4141e-008     -2.0662e-009   
  0.4             -1.0714e-009    2.675e-009      1.7352e-009    
  0.45            1.3876e-009     -8.924e-009     2.3408e-009    
  0.5             1.2296e-009     1.9697e-008     -1.622e-009    
  0.55            -1.1883e-009    4.203e-009      2.6808e-009    
  0.6             1.2309e-009     1.977e-008      -1.6166e-009   
  0.65            -1.1906e-009    4.281e-009      2.6726e-009    
  0.7             1.2363e-009     1.9751e-008     -1.616e-009    
  0.75            -1.1895e-009    4.157e-009      2.6751e-009    
  0.8             1.2387e-009     2.0015e-008     -1.614e-009    
  0.85            -1.3791e-009    -5.911e-009     -4.64e-011     
  0.9             -5.885e-010     -2.5961e-008    2.7104e-009    
  0.95            1.1918e-009     1.845e-008      -1.7039e-009   
  1               -1.1581e-009    3.7e-009        2.7092e-009    
  1.05            1.1973e-009     1.8471e-008     -1.6952e-009   
  1.1             -1.1601e-009    3.626e-009      2.7033e-009    
  1.15            1.2e-009        1.8441e-008     -1.6986e-009   
  1.2             -1.161e-009     3.842e-009      2.7016e-009    
  1.25            1.1998e-009     1.8678e-008     -1.6938e-009   
  1.3             -1.3471e-009    -6.405e-009     -4e-012        
  1.35            -5.442e-010     -2.5557e-008    2.7241e-009    
  1.4             1.7185e-009     -2.336e-009     1.7515e-009    
  1.45            2.5377e-009     8.272e-009      5.055e-010     
  1.5             1.046e-009      1.4689e-008     -2.0301e-009   
  1.55            -1.0766e-009    2.799e-009      2.7258e-009    
  1.6             1.873e-009      -1.838e-009     1.6156e-009    
  1.65            1.2572e-009     2.0071e-008     -1.5877e-009   
  1.7             -1.1968e-009    4.402e-009      2.6621e-009    
  1.75            1.2556e-009     2.0201e-008     -1.5922e-009   
  1.8             -1.1942e-009    4.451e-009      2.6613e-009    
  1.85            1.2586e-009     2.016e-008      -1.5877e-009   
  1.9             -1.1964e-009    4.538e-009      2.6585e-009    
  1.95            1.2586e-009     2.0238e-008     -1.5816e-009   
  2               -1.2018e-009    4.605e-009      2.6565e-009    
  2.05            1.2606e-009     2.0156e-008     -1.5785e-009   
  2.1             -1.1979e-009    4.535e-009      2.6553e-009    
  2.15            1.2662e-009     2.0246e-008     -1.581e-009    
  2.2             -1.2034e-009    4.558e-009      2.6508e-009    
  2.25            1.2673e-009     2.0423e-008     -1.5725e-009   
  2.3             -1.2018e-009    4.722e-009      2.6497e-009    
  2.35            1.2708e-009     2.0415e-008     -1.563e-009    
  2.4             -1.2025e-009    4.736e-009      2.6454e-009    
  2.45            1.274e-009      2.0673e-008     -1.5524e-009   
  2.5             -1.2051e-009    4.779e-009      2.173e-010     
  2.55            -3.743e-010     -2.1257e-008    1.6753e-009    
  2.6             1.3921e-009     -9.274e-009     2.3685e-009    
  2.65            1.2689e-009     2.0253e-008     -1.5762e-009   
  2.7             -1.201e-009     4.605e-009      2.651e-009     
  2.75            1.2722e-009     2.037e-008      -1.5667e-009   
  2.8             -1.1971e-009    4.743e-009      2.6421e-009    
  2.85            1.2779e-009     2.0481e-008     -1.5641e-009   
  2.9             -1.2003e-009    4.759e-009      2.174e-010     
  2.95            -3.671e-010     -2.1064e-008    1.6778e-009    
  3               1.3949e-009     -9.352e-009     2.3667e-009    
  3.05            1.2718e-009     2.0189e-008     -1.5724e-009   
  3.1             -1.1953e-009    4.685e-009      2.6526e-009    
  3.15            1.2758e-009     2.0266e-008     -1.5615e-009   
  3.2             -1.198e-009     4.491e-009      2.198e-010     
  3.25            -3.638e-010     -2.0988e-008    1.687e-009     
  3.3             1.4002e-009     -9.228e-009     2.3653e-009    
  3.35            1.2723e-009     2.0076e-008     -1.5825e-009   
  3.4             -1.1857e-009    4.483e-009      2.6553e-009    
  3.45            1.2759e-009     2.0277e-008     -1.5685e-009   
  3.5             -1.1863e-009    4.676e-009      2.6497e-009    
  3.55            1.2848e-009     2.048e-008      -1.5574e-009   
  3.6             1.214e-010      4.654e-009      -1.3823e-009   
  3.65            2.213e-010      6.659e-009      -2.4402e-009   
  3.7             -5.405e-010     -1.076e-008     2.7156e-009    
  3.75            1.2005e-009     1.7501e-008     -1.7441e-009   
  3.8             -1.1232e-009    3.487e-009      2.712e-009     
  3.85            1.2078e-009     1.7728e-008     -1.7326e-009   
  3.9             -1.3099e-009    -6.546e-009     1.5e-011       
  3.95            -5.045e-010     -2.5222e-008    2.7256e-009    
  4               1.7625e-009     -2.238e-009     1.7361e-009    
  4.05            6.421e-010      1.049e-008      -2.5664e-009   
  4.1             -8.93e-010      -1.9303e-008    2.203e-009     
  4.15            1.4857e-009     -5.408e-009     2.1928e-009    
  4.2             1.0783e-009     1.4326e-008     -2.0383e-009   
  4.25            -1.0389e-009    2.789e-009      2.7213e-009    
  4.3             1.9253e-009     -1.866e-009     1.6091e-009    
  4.35            1.2929e-009     2.0047e-008     -1.5862e-009   
  4.4             1.496e-010      4.303e-009      -1.4002e-009   
  4.45            2.424e-010      6.177e-009      -2.4323e-009   
  4.5             -4.966e-010     -1.071e-008     2.7178e-009    
  4.55            1.75e-009       -2.417e-009     1.7682e-009    
  4.6             6.927e-010      1.059e-008      -2.5595e-009   
  4.65            -8.919e-010     -1.8544e-008    2.1419e-009    
  4.7             1.5049e-009     -5.793e-009     2.2111e-009    
  4.75            1.1271e-009     1.4937e-008     -1.9873e-009   
  4.8             -1.0255e-009    2.837e-009      2.7269e-009    
  4.85            1.8991e-009     -2.026e-009     1.6479e-009    
  4.9             1.3441e-009     2.0708e-008     -1.5489e-009   
  4.95            1.854e-010      4.752e-009      -1.3719e-009   
  5               2.864e-010      6.729e-009      -2.4509e-009   
END_DB

BEGIN_DB
 ICCAP_VAR VG         1              
 ICCAP_VAR VS         0              
 ICCAP_VAR VB         0              

 #VD              ID              IB              IG             
  0               -1.5631e-006    1.0554e-008     1.1921e-009    
  0.05            7.3934e-005     -2.4036e-008    1.4649e-009    
  0.1             0.00012105      -2.4036e-008    -9.787e-010    
  0.15            0.0001475       1.0898e-008     -2.5221e-009   
  0.2             0.00016199      1.4034e-008     -1.7612e-009   
  0.25            0.00017099      1.105e-008      -2.2575e-009   
  0.3             0.0001743       7.551e-009      1.9539e-009    
  0.35            0.0001791       -2.4052e-008    2.6418e-009    
  0.4             0.00018309      -2.1927e-008    1.9595e-009    
  0.45            0.00018638      -2.458e-008     2.6062e-009    
  0.5             0.00018957      -2.0704e-008    1.8736e-009    
  0.55            0.00019221      -2.5015e-008    2.5572e-009    
  0.6             0.00019514      -1.9442e-008    1.7881e-009    
  0.65            0.00019832      -9.801e-009     -9.969e-010    
  0.7             0.00020178      1.0915e-008     -2.5163e-009   
  0.75            0.00020399      1.4197e-008     -1.7367e-009   
  0.8             0.00020655      1.1404e-008     -2.2368e-009   
  0.85            0.00020819      1.9084e-008     -1.3907e-009   
  0.9             0.00021047      1.3831e-008     -1.7937e-009   
  0.95            0.00021253      1.1025e-008     -2.2885e-009   
  1               0.0002115       8.078e-009      1.9374e-009    
  1.05            0.00021354      -2.3781e-008    2.6588e-009    
  1.1             0.0002156       -2.2476e-008    1.994e-009     
  1.15            0.00021843      -1.0096e-008    -8.984e-010    
  1.2             0.00022129      2.5861e-008     -2.1482e-009   
  1.25            0.00022319      2.0383e-008     -1.3422e-009   
  1.3             0.00022497      1.4677e-008     -1.6933e-009   
  1.35            0.00022692      2.5152e-008     -2.3564e-009   
  1.4             0.00022518      7.851e-009      1.8758e-009    
  1.45            0.00022731      -2.2808e-008    2.6902e-009    
  1.5             0.00022885      -2.3674e-008    2.1008e-009    
  1.55            0.00023139      -1.0354e-008    -8.522e-010    
  1.6             0.00023439      9.603e-009      -2.5732e-009   
  1.65            0.00023637      1.2278e-008     -2.0212e-009   
  1.7             0.00023792      1.0627e-008     -2.4438e-009   
  1.75            0.00023906      1.556e-008      -1.5819e-009   
  1.8             0.00024081      1.1548e-008     -2.0847e-009   
  1.85            0.00024223      1.0207e-008     -2.4798e-009   
  1.9             0.00024347      1.4178e-008     -1.6341e-009   
  1.95            0.00024499      1.0099e-008     -2.1476e-009   
  2               0.00024636      8.72e-009       -2.5067e-009   
  2.05            0.00024763      1.1412e-008     -1.694e-009    
  2.1             0.00024939      7.02e-009       -2.209e-009    
  2.15            0.00025047      4.881e-009      -2.5259e-009   
  2.2             0.0002518       5.673e-009      -1.7577e-009   
  2.25            0.00025075      -3.44e-009      2.2077e-009    
  2.3             0.00025237      -2.4796e-008    -7.455e-010    
  2.35            0.00025418      -2.4925e-008    -2.5255e-009   
  2.4             0.000253        -1.638e-008     1.198e-009     
  2.45            0.00025586      -4.4962e-008    2.7203e-009    
  2.5             0.00026005      -4.6654e-008    -1.6347e-009   
  2.55            0.00026035      -3.5622e-008    -7.78e-011     
  2.6             0.00025987      -7.1745e-008    2.0772e-009    
  2.65            0.00026196      -7.8342e-008    -2.0512e-009   
  2.7             0.00026358      -7.4471e-008    5.64e-010      
  2.75            0.00026405      -1.1337e-007    7.89e-011      
  2.8             0.00026477      -1.381e-007     1.7577e-009    
  2.85            0.00026711      -1.5325e-007    -2.1898e-009   
  2.9             0.00026868      -1.6178e-007    7.421e-010     
  2.95            0.00026836      -2.2844e-007    2.4576e-009    
  3               0.00027114      -2.4678e-007    -1.8901e-009   
  3.05            0.00027325      -2.6636e-007    3.095e-010     
  3.1             0.00027225      -3.4263e-007    2.7236e-009    
  3.15            0.00027678      -3.8353e-007    -1.6154e-009   
  3.2             0.00027671      -4.2071e-007    -9.93e-011     
  3.25            0.00027606      -5.1222e-007    2.1231e-009    
  3.3             0.00027845      -5.8287e-007    -2.0318e-009   
  3.35            0.00028079      -6.4499e-007    5.379e-010     
  3.4             0.00027998      -7.7732e-007    2.6561e-009    
  3.45            0.00028367      -8.6677e-007    -1.7806e-009   
  3.5             0.00028475      -9.6032e-007    9.88e-011      
  3.55            0.00028412      -1.12051e-006   1.7384e-009    
  3.6             0.00028495      -1.253e-006     2.6053e-009    
  3.65            0.00029004      -1.4191e-006    -1.3055e-009   
  3.7             0.00029052      -1.5631e-006    -1.4503e-009   
  3.75            0.00028994      -1.7743e-006    2.3438e-009    
  3.8             0.00029257      -2.0211e-006    -9.485e-010    
  3.85            0.00029517      -2.2054e-006    -2.0445e-009   
  3.9             0.00029435      -2.5005e-006    2.0807e-009    
  3.95            0.00029601      -2.8264e-006    -5.325e-010    
  4               0.00029977      -3.0973e-006    -2.5147e-009   
  4.05            0.00029744      -3.4655e-006    1.6912e-009    
  4.1             0.00030018      -3.8795e-006    -4.38e-011     
  4.15            0.00030478      -4.2736e-006    -1.6988e-009   
  4.2             0.00030438      -4.7075e-006    2.2338e-009    
  4.25            0.00030656      -5.241e-006     -7.824e-010    
  4.3             0.00031035      -5.6836e-006    -2.3245e-009   
  4.35            0.0003092       -6.2986e-006    1.8986e-009    
  4.4             0.00031163      -6.965e-006     -2.897e-010    
  4.45            0.0003159       -7.5796e-006    -1.4315e-009   
  4.5             0.00031593      -8.2802e-006    2.355e-009     
  4.55            0.00031941      -9.1064e-006    -9.606e-010    
  4.6             0.00032307      -9.7932e-006    -2.0123e-009   
  4.65            0.00032269      -1.07339e-005   2.0933e-009    
  4.7             0.00032528      -1.1657e-005    2.1445e-009    
  4.75            0.00032767      -1.2731e-005    -6.387e-010    
  4.8             0.00033266      -1.3653e-005    -2.4615e-009   
  4.85            0.00033154      -1.4825e-005    1.7833e-009    
  4.9             0.00033493      -1.6096e-005    -1.376e-010    
  4.95            0.00034077      -1.731e-005     -1.5687e-009   
  5               0.00034158      -1.8567e-005    2.2846e-009    
END_DB

BEGIN_DB
 ICCAP_VAR VG         2              
 ICCAP_VAR VS         0              
 ICCAP_VAR VB         0              

 #VD              ID              IB              IG             
  0               -7.132e-006     2.916e-009      2.1887e-009    
  0.05            0.00042034      -2.3255e-008    -9.321e-010    
  0.1             0.00082541      1.0777e-008     -2.5571e-009   
  0.15            0.0012123       2.2024e-008     2.4964e-009    
  0.2             0.0015796       -1.7516e-008    2.7219e-009    
  0.25            0.0019235       -1.1211e-008    -5.64e-011     
  0.3             0.0022476       1.4563e-008     -1.6673e-009   
  0.35            0.0025438       1.1405e-008     -2.1856e-009   
  0.4             0.0028139       1.9544e-008     -1.3538e-009   
  0.45            0.0030573       1.3694e-008     -1.7224e-009   
  0.5             0.0032731       2.5285e-008     -2.3867e-009   
  0.55            0.0034618       1.6538e-008     -1.4984e-009   
  0.6             0.0036209       6.961e-009      1.0143e-009    
  0.65            0.0037582       -2.1106e-008    1.9181e-009    
  0.7             0.0038732       -2.5225e-008    2.5932e-009    
  0.75            0.0039692       -2.0092e-008    1.8231e-009    
  0.8             0.0040466       -2.5709e-008    2.5347e-009    
  0.85            0.0041123       -1.863e-008     1.7267e-009    
  0.9             0.0041636       -2.5961e-008    2.4665e-009    
  0.95            0.0042091       -1.1119e-008    -5.967e-010    
  1               0.0042506       7.015e-009      -2.5504e-009   
  1.05            0.0042827       1.0717e-008     -2.3515e-009   
  1.1             0.0043027       7.835e-009      1.8805e-009    
  1.15            0.004325        -2.3349e-008    2.6905e-009    
  1.2             0.004346        -2.3452e-008    2.0636e-009    
  1.25            0.0043683       -1.0067e-008    -8.592e-010    
  1.3             0.0043885       2.6223e-008     -2.207e-009    
  1.35            0.0044046       1.9378e-008     -1.3677e-009   
  1.4             0.0044198       1.3454e-008     -1.7518e-009   
  1.45            0.0044341       1.1054e-008     -2.2676e-009   
  1.5             0.0044403       7.726e-009      1.9497e-009    
  1.55            0.0044518       -2.445e-008     2.6573e-009    
  1.6             0.0044642       -2.1682e-008    1.9455e-009    
  1.65            0.0044745       -2.527e-008     2.6086e-009    
  1.7             0.0044862       -2.0281e-008    1.8501e-009    
  1.75            0.0044957       -2.5866e-008    2.5555e-009    
  1.8             0.0045059       -1.8859e-008    1.7555e-009    
  1.85            0.0045196       -9.629e-009     -9.983e-010    
  1.9             0.0045312       1.1097e-008     -2.5167e-009   
  1.95            0.0045392       1.3752e-008     -1.7031e-009   
  2               0.0045486       1.0878e-008     -2.2152e-009   
  2.05            0.0045556       1.8767e-008     -1.3732e-009   
  2.1             0.0045641       1.2136e-008     -1.7568e-009   
  2.15            0.0045726       9.427e-009      -2.2688e-009   
  2.2             0.0045788       1.6e-008        -1.4025e-009   
  2.25            0.0045872       8.777e-009      -1.8235e-009   
  2.3             0.0045948       4.704e-009      -2.3174e-009   
  2.35            0.0046011       1.329e-009      -2.568e-009    
  2.4             0.0046082       -8.57e-010      -1.8805e-009   
  2.45            0.0046094       -1.2284e-008    2.1486e-009    
  2.5             0.0046164       -3.8475e-008    -6.417e-010    
  2.55            0.0046272       -1.3805e-008    -2.4572e-009   
  2.6             0.0046257       -4.4183e-008    1.7828e-009    
  2.65            0.0046327       -8.2155e-008    -1.549e-010    
  2.7             0.0046455       -7.8454e-008    -1.5503e-009   
  2.75            0.004653        -1.3305e-007    -1.2264e-009   
  2.8             0.0046575       -1.4413e-007    -1.526e-009    
  2.85            0.0046574       -2.0246e-007    2.2932e-009    
  2.9             0.0046647       -2.7619e-007    -8.854e-010    
  2.95            0.004675        -3.1105e-007    -2.165e-009    
  3               0.0046735       -4.1494e-007    2.0111e-009    
  3.05            0.0046799       -5.3529e-007    -4.416e-010    
  3.1             0.0046904       -6.2592e-007    -1.3322e-009   
  3.15            0.0046904       -7.8618e-007    2.4316e-009    
  3.2             0.0046998       -9.7074e-007    -1.0637e-009   
  3.25            0.0046984       -1.1849e-006    2.5094e-009    
  3.3             0.0047091       -1.4058e-006    -1.8676e-009   
  3.35            0.0047158       -1.659e-006     2.679e-010     
  3.4             0.0047148       -1.999e-006     2.7225e-009    
  3.45            0.0047293       -2.3551e-006    -1.5803e-009   
  3.5             0.0047316       -2.7504e-006    -1.278e-010    
  3.55            0.0047308       -3.253e-006     2.172e-009     
  3.6             0.0047409       -3.7902e-006    -2.0041e-009   
  3.65            0.0047481       -4.3932e-006    5.064e-010     
  3.7             0.0047472       -5.1254e-006    2.6809e-009    
  3.75            0.0047599       -5.9117e-006    -1.7545e-009   
  3.8             0.004765        -6.7941e-006    7.97e-011      
  3.85            0.0047657       -7.8332e-006    1.7696e-009    
  3.9             0.0047759       -8.9668e-006    -2.1762e-009   
  3.95            0.0047821       -1.02307e-005   7.31e-010      
  4               0.0047876       -1.1661e-005    8.576e-010     
  4.05            0.0047921       -1.3298e-005    2.2484e-009    
  4.1             0.0048029       -1.5077e-005    -1.9729e-009   
  4.15            0.0048122       -1.7057e-005    4.491e-010     
