! VERSION = 6.00
BEGIN_HEADER
 ICCAP_INPUTS
  VG         V  B GROUND SMU4 0.001 LIN        2    0          5          6    1         
  VS         V  E GROUND SMU2 0.1 CON        0
  VD         V  S GROUND SMU1 0.1 LIN        1    0          5          101  0.05      
  VB         V  C GROUND SMU3 0.1 LIN        3    0          -2.5       2    -2.5      
 ICCAP_OUTPUTS
  ID         I  S GROUND SMU1 B
  IB         I  C GROUND SMU3 B
  IG         I  B GROUND SMU4 B
END_HEADER

BEGIN_DB
 ICCAP_VAR VG         0              
 ICCAP_VAR VS         0              
 ICCAP_VAR VB         0              

 #VD              ID              IB              IG             
  0               9.863e-010      1.5126e-008     8.856e-010     
  0.05            -8.059e-010     -2.3861e-008    2.7425e-009    
  0.1             1.4858e-009     -1.633e-009     1.7487e-009    
  0.15            2.998e-010      1.0973e-008     -2.5883e-009   
  0.2             -1.2368e-009    -1.9555e-008    2.2218e-009    
  0.25            2.115e-009      -5.589e-009     1.2726e-009    
  0.3             6.915e-010      1.4461e-008     -2.1918e-009   
  0.35            -8.718e-010     -2.4587e-008    2.7277e-009    
  0.4             9.055e-010      1.8686e-008     -1.7568e-009   
  0.45            -1.9128e-009    4.63e-009       -6.827e-010    
  0.5             -1.1245e-009    -9.19e-009      2.4407e-009    
  0.55            2.2485e-009     -3.989e-009     1.1448e-009    
  0.6             5.665e-010      1.2986e-008     -2.3705e-009   
  0.65            -1.7753e-009    1.866e-009      -1.837e-010    
  0.7             -1.8579e-009    -1.0738e-008    -4.026e-010    
  0.75            -1.9006e-009    -1.0049e-008    -6.201e-010    
  0.8             -1.2619e-009    -1.8599e-008    2.1577e-009    
  0.85            2.0785e-009     -5.997e-009     1.3097e-009    
  0.9             7.204e-010      1.509e-008      -2.1404e-009   
  0.95            -1.8514e-009    2.884e-009      -3.967e-010    
  1               -1.8985e-009    -1.0313e-008    -6.136e-010    
  1.05            -1.0776e-009    -9.522e-009     2.5177e-009    
  1.1             2.738e-010      1.1197e-008     -2.6022e-009   
  1.15            -1.206e-009     -2.0554e-008    2.2921e-009    
  1.2             2.1653e-009     -4.868e-009     1.2338e-009    
  1.25            6.519e-010      1.3814e-008     -2.2559e-009   
  1.3             -1.8228e-009    2.499e-009      -3.015e-010    
  1.35            -1.88e-009      -1.0519e-008    -5.201e-010    
  1.4             -1.2012e-009    -2.0744e-008    2.2986e-009    
  1.45            2.1689e-009     -5.011e-009     1.2291e-009    
  1.5             6.506e-010      1.3974e-008     -2.2578e-009   
  1.55            -1.8206e-009    2.522e-009      -3.005e-010    
  1.6             -1.8787e-009    -1.0445e-008    -5.209e-010    
  1.65            -1.9128e-009    -9.927e-009     -7.319e-010    
  1.7             -1.3166e-009    -1.6158e-008    2.0055e-009    
  1.75            1.9703e-009     -7.236e-009     1.395e-009     
  1.8             7.963e-010      1.656e-008      -1.9997e-009   
  1.85            -1.8742e-009    3.426e-009      -5.12e-010     
  1.9             -1.1937e-009    -2.0949e-008    2.3243e-009    
  1.95            2.1796e-009     -4.883e-009     1.2221e-009    
  2               6.463e-010      1.3845e-008     -2.2698e-009   
  2.05            -1.811e-009     2.527e-009      -2.948e-010    
  2.1             -1.8718e-009    -1.0495e-008    -5.086e-010    
  2.15            -1.1912e-009    -2.0974e-008    2.3162e-009    
  2.2             2.1751e-009     -4.822e-009     1.2181e-009    
  2.25            6.44e-010       1.3671e-008     -2.2658e-009   
  2.3             -1.8113e-009    2.597e-009      -2.889e-010    
  2.35            -1.8714e-009    -1.0503e-008    -5.078e-010    
  2.4             -1.1863e-009    -2.0917e-008    2.3244e-009    
  2.45            2.1848e-009     -4.878e-009     1.216e-009     
  2.5             6.371e-010      1.35e-008       -2.2797e-009   
  2.55            -1.8072e-009    2.542e-009      -2.814e-010    
  2.6             -1.8701e-009    -1.0556e-008    -5.025e-010    
  2.65            -1.1858e-009    -2.1083e-008    2.3274e-009    
  2.7             2.1888e-009     -4.73e-009      1.2126e-009    
  2.75            6.389e-010      1.35e-008       -2.2861e-009   
  2.8             -1.8797e-009    -1.0338e-008    -5.568e-010    
  2.85            -1.2225e-009    -1.9977e-008    2.2515e-009    
  2.9             2.1395e-009     -5.305e-009     1.2571e-009    
  2.95            6.814e-010      1.413e-008      -2.2095e-009   
  3               -1.8267e-009    2.663e-009      -3.393e-010    
  3.05            -1.8795e-009    -1.0381e-008    -5.622e-010    
  3.1             -1.0312e-009    -9.641e-009     2.5753e-009    
  3.15            1.067e-009      2.3277e-008     -1.4553e-009   
  3.2             -1.5797e-009    6.773e-009      9.99e-011      
  3.25            -7.712e-010     -2.3507e-008    2.7466e-009    
  3.3             1.5323e-009     -1.515e-009     1.7098e-009    
  3.35            2.2669e-009     9.404e-009      4.554e-010     
  3.4             7.297e-010      1.4875e-008     -2.1365e-009   
  3.45            -1.8439e-009    2.887e-009      -4.092e-010    
  3.5             -1.8899e-009    -9.967e-009     -6.256e-010    
  3.55            -1.2538e-009    -1.8392e-008    2.1497e-009    
  3.6             2.0787e-009     -5.952e-009     1.3127e-009    
  3.65            7.347e-010      1.5096e-008     -2.1229e-009   
  3.7             -1.8393e-009    2.839e-009      -4.108e-010    
  3.75            -1.8827e-009    -1.0012e-008    -6.278e-010    
  3.8             -1.2524e-009    -1.8329e-008    2.142e-009     
  3.85            2.0724e-009     -6.003e-009     1.3133e-009    
  3.9             7.364e-010      1.4786e-008     -2.127e-009    
  3.95            -1.8375e-009    2.919e-009      -4.157e-010    
  4               -1.884e-009     -9.978e-009     -6.232e-010    
  4.05            -1.2481e-009    -1.8506e-008    2.1572e-009    
  4.1             2.0856e-009     -6.173e-009     1.3118e-009    
  4.15            7.38e-010       1.5125e-008     -2.129e-009    
  4.2             -1.8352e-009    2.785e-009      -4.067e-010    
  4.25            -1.8826e-009    -1.0056e-008    -6.259e-010    
  4.3             -1.2459e-009    -1.8524e-008    2.157e-009     
  4.35            2.0888e-009     -6.229e-009     1.314e-009     
  4.4             7.45e-010       1.5271e-008     -2.1251e-009   
  4.45            -1.8312e-009    2.684e-009      -4.121e-010    
  4.5             -1.8783e-009    -1.0321e-008    -6.279e-010    
  4.55            -1.0617e-009    -9.55e-009      2.5008e-009    
  4.6             3.011e-010      1.0933e-008     -2.5914e-009   
  4.65            -1.1949e-009    -2.0392e-008    2.275e-009     
  4.7             2.1684e-009     -5.29e-009      1.2465e-009    
  4.75            6.909e-010      1.4178e-008     -2.2268e-009   
  4.8             -1.8034e-009    2.603e-009      -3.209e-010    
  4.85            -1.8577e-009    -1.0355e-008    -5.422e-010    
  4.9             -1.1901e-009    -2.0262e-008    2.2661e-009    
  4.95            2.1781e-009     -5.068e-009     1.2496e-009    
  5               6.996e-010      1.4143e-008     -2.2275e-009   
END_DB

BEGIN_DB
 ICCAP_VAR VG         1              
 ICCAP_VAR VS         0              
 ICCAP_VAR VB         0              

 #VD              ID              IB              IG             
  0               5.4189e-007     1.1231e-008     -2.5132e-009   
  0.05            5.573e-005      -2.3723e-008    1.4994e-009    
  0.1             8.995e-005      -1.2057e-008    2.6693e-009    
  0.15            0.000109284     -2.4143e-008    2.2087e-009    
  0.2             0.00012112      -1.062e-008     -2.3816e-009   
  0.25            0.00012854      1.6066e-008     -1.6794e-009   
  0.3             0.00013329      2.5512e-008     -2.3338e-009   
  0.35            0.000135        8.091e-009      1.9525e-009    
  0.4             0.00013821      -2.3295e-008    2.6833e-009    
  0.45            0.00014094      -2.2468e-008    2.0304e-009    
  0.5             0.00014339      -1.1728e-008    2.035e-010     
  0.55            0.00014735      1.2477e-008     -2.1646e-009   
  0.6             0.00014925      2.0824e-008     -1.357e-009    
  0.65            0.00015126      1.5831e-008     -1.712e-009    
  0.7             0.00015341      2.5305e-008     -2.3601e-009   
  0.75            0.00015283      8.681e-009      1.9376e-009    
  0.8             0.00015488      -2.2858e-008    2.6882e-009    
  0.85            0.00015675      -2.2827e-008    2.0733e-009    
  0.9             0.00015797      -1.2021e-008    2.163e-010     
  0.95            0.00016171      1.2148e-008     -2.1948e-009   
  1               0.000163        2.0588e-008     -1.3758e-009   
  1.05            0.00016457      1.5331e-008     -1.7364e-009   
  1.1             0.0001662       1.2002e-008     -2.2297e-009   
  1.15            0.00016744      2.0109e-008     -1.3914e-009   
  1.2             0.00016891      1.4859e-008     -1.7724e-009   
  1.25            0.00017049      2.479e-008      -2.4023e-009   
  1.3             0.00016927      8.583e-009      1.8928e-009    
  1.35            0.00017114      -2.2236e-008    2.7069e-009    
  1.4             0.00017278      -2.346e-008     2.1398e-009    
  1.45            0.00017458      -1.0122e-008    -8.551e-010    
  1.5             0.00017722      2.6089e-008     -2.2516e-009   
  1.55            0.00017811      1.9633e-008     -1.4018e-009   
  1.6             0.00017947      1.4677e-008     -1.8069e-009   
  1.65            0.00018088      1.1481e-008     -2.2884e-009   
  1.7             0.00018174      1.9248e-008     -1.4305e-009   
  1.75            0.00018314      1.4235e-008     -1.8428e-009   
  1.8             0.00018453      1.0854e-008     -2.3174e-009   
  1.85            0.00018327      7.555e-009      1.9691e-009    
  1.9             0.0001846       -2.4183e-008    2.6711e-009    
  1.95            0.00018627      -2.3388e-008    2.0108e-009    
  2               0.00018769      -1.1602e-008    -9.13e-010     
  2.05            0.00018993      8.089e-009      -2.5799e-009   
  2.1             0.00019129      1.0027e-008     -1.9189e-009   
  2.15            0.00019244      5.912e-009      -2.3731e-009   
  2.2             0.00019336      3.716e-009      -2.5887e-009   
  2.25            0.00019461      4.357e-009      -1.9567e-009   
  2.3             0.00019379      -3.958e-009     2.1664e-009    
  2.35            0.00019506      -2.6311e-008    -6.374e-010    
  2.4             0.00019764      4.124e-009      -2.4822e-009   
  2.45            0.0001959       -1.6259e-008    1.8106e-009    
  2.5             0.00019755      -4.244e-008     -1.505e-010    
  2.55            0.00020082      -2.2257e-008    -1.6029e-009   
  2.6             0.00020011      -4.1388e-008    2.3194e-009    
  2.65            0.00020178      -6.9694e-008    -8.826e-010    
  2.7             0.00020425      -4.5252e-008    -2.2162e-009   
  2.75            0.00020298      -7.818e-008     2.0416e-009    
  2.8             0.00020468      -9.642e-008     -2.1021e-009   
  2.85            0.00020526      -1.1598e-007    2.0981e-009    
  2.9             0.00020631      -1.5784e-007    -5.259e-010    
  2.95            0.00020942      -1.5018e-007    -1.3169e-009   
  3               0.00020854      -1.9467e-007    2.5172e-009    
  3.05            0.00021115      -2.4666e-007    -1.1367e-009   
  3.1             0.00021253      -2.5285e-007    -1.7331e-009   
  3.15            0.00021166      -3.1296e-007    2.2594e-009    
  3.2             0.00021306      -3.8247e-007    -7.987e-010    
  3.25            0.00021602      -3.9972e-007    -2.3337e-009   
  3.3             0.00021433      -4.8266e-007    1.9521e-009    
  3.35            0.00021581      -5.759e-007     -3.257e-010    
  3.4             0.00021903      -6.2409e-007    -1.4328e-009   
  3.45            0.00021827      -7.2629e-007    2.404e-009     
  3.5             0.00022042      -8.4637e-007    -9.983e-010    
  3.55            0.00022231      -9.1641e-007    -1.9974e-009   
  3.6             0.00022158      -1.06274e-006   2.1515e-009    
  3.65            0.0002232       -1.1978e-006    4.255e-010     
  3.7             0.00022588      -1.3614e-006    -2.4932e-009   
  3.75            0.00022416      -1.5255e-006    1.7984e-009    
  3.8             0.00022583      -1.74e-006      -1.342e-010    
  3.85            0.00022934      -1.9197e-006    -1.6126e-009   
  3.9             0.00022914      -2.1472e-006    2.3103e-009    
  3.95            0.00023126      -2.4269e-006    -8.725e-010    
  4               0.00023375      -2.6398e-006    -2.2266e-009   
  4.05            0.00023303      -2.9675e-006    2.0307e-009    
  4.1             0.00023497      -3.3283e-006    -4.287e-010    
  4.15            0.00023804      -3.6371e-006    -1.3655e-009   
  4.2             0.00023808      -4.027e-006     2.4641e-009    
  4.25            0.00024111      -4.4808e-006    -1.0673e-009   
  4.3             0.00024323      -4.8525e-006    -1.8582e-009   
  4.35            0.00024319      -5.3755e-006    2.207e-009     
  4.4             0.00024534      -5.9482e-006    -7.142e-010    
  4.45            0.00024866      -6.4271e-006    -2.4178e-009   
  4.5             0.00024791      -7.0648e-006    1.8731e-009    
  4.55            0.00025038      -7.7632e-006    -2.211e-010    
  4.6             0.00025455      -8.4136e-006    -1.5236e-009   
  4.65            0.00025518      -9.1253e-006    2.3553e-009    
  4.7             0.00025835      -9.9831e-006    -9.325e-010    
  4.75            0.00026194      -1.06761e-005   -2.1136e-009   
  4.8             0.00026349      -1.1738e-005    -1.8638e-009   
  4.85            0.00026493      -1.2568e-005    2.1954e-009    
  4.9             0.00026777      -1.3663e-005    -6.993e-010    
  4.95            0.00027229      -1.4576e-005    -2.44e-009     
  5               0.0002722       -1.5744e-005    1.8605e-009    
END_DB

BEGIN_DB
 ICCAP_VAR VG         2              
 ICCAP_VAR VS         0              
 ICCAP_VAR VB         0              

 #VD              ID              IB              IG             
  0               4.4171e-006     1.2205e-008     1.0865e-009    
  0.05            0.0003189       -1.0701e-008    -1.9719e-009   
  0.1             0.00062567      1.1096e-008     -2.4143e-009   
  0.15            0.00091696      8.824e-009      1.8753e-009    
  0.2             0.0011944       -1.8516e-008    -1.3745e-009   
  0.25            0.0014538       1.5418e-008     -1.737e-009    
  0.3             0.0016947       1.1731e-008     -2.2227e-009   
  0.35            0.0019155       2.0016e-008     -1.3892e-009   
  0.4             0.002116        1.5109e-008     -1.7695e-009   
  0.45            0.002296        1.1658e-008     -2.257e-009    
  0.5             0.0024544       1.9594e-008     -1.4069e-009   
  0.55            0.0025932       1.4589e-008     -1.8054e-009   
  0.6             0.0027121       1.1497e-008     -2.2903e-009   
  0.65            0.0028109       1.9316e-008     -1.4285e-009   
  0.7             0.0028945       1.432e-008      -1.8459e-009   
  0.75            0.0029635       2.4287e-008     -2.439e-009    
  0.8             0.0030189       1.7181e-008     -1.5739e-009   
  0.85            0.0030612       7.704e-009      9.939e-010     
  0.9             0.0030991       -2.1764e-008    2.0129e-009    
  0.95            0.0031322       -9.763e-009     -9.125e-010    
  1               0.0031607       2.6155e-008     -2.1458e-009   
  1.05            0.0031807       9.382e-009      6.614e-010     
  1.1             0.0031968       -2.4731e-008    2.5636e-009    
  1.15            0.0032156       -1.9152e-008    1.7928e-009    
  1.2             0.0032298       -2.4849e-008    2.493e-009     
  1.25            0.0032457       -1.0603e-008    -6.117e-010    
  1.3             0.0032617       7.949e-009      -2.6043e-009   
  1.35            0.0032742       1.1124e-008     -2.3591e-009   
  1.4             0.0032794       8.453e-009      1.9339e-009    
  1.45            0.0032896       -2.2767e-008    2.6934e-009    
  1.5             0.0032996       -2.2751e-008    2.0811e-009    
  1.55            0.003309        -1.1987e-008    2.209e-010     
  1.6             0.0033229       1.2237e-008     -2.1903e-009   
  1.65            0.0033304       2.0512e-008     -1.3753e-009   
  1.7             0.0033391       1.5471e-008     -1.7373e-009   
  1.75            0.0033466       1.1914e-008     -2.2303e-009   
  1.8             0.0033537       2.0019e-008     -1.3884e-009   
  1.85            0.003361        1.4925e-008     -1.7736e-009   
  1.9             0.0033684       1.1714e-008     -2.2586e-009   
  1.95            0.0033743       1.9585e-008     -1.4086e-009   
  2               0.0033808       1.4388e-008     -1.8074e-009   
  2.05            0.0033877       1.086e-008      -2.2904e-009   
  2.1             0.0033929       1.8322e-008     -1.4288e-009   
  2.15            0.0033994       1.3031e-008     -1.8387e-009   
  2.2             0.0034056       9.143e-009      -2.3119e-009   
  2.25            0.0034102       1.5432e-008     -1.4511e-009   
  2.3             0.0034159       8.725e-009      -1.8737e-009   
  2.35            0.003422        3.293e-009      -2.3459e-009   
  2.4             0.0034239       -2.0693e-008    -2.0619e-009   
  2.45            0.0034322       -4.947e-009     -2.2628e-009   
  2.5             0.003432        -1.5027e-008    2.0023e-009    
  2.55            0.0034371       -4.3556e-008    -3.94e-010     
  2.6             0.0034466       -2.4812e-008    -1.394e-009    
  2.65            0.0034477       -5.4952e-008    2.4436e-009    
  2.7             0.0034554       -9.0709e-008    -1.0367e-009   
  2.75            0.0034605       -8.3083e-008    -2.61e-009     
  2.8             0.0034664       -1.3273e-007    -1.6731e-009   
  2.85            0.0034677       -1.7017e-007    -7.01e-011     
  2.9             0.0034684       -2.4636e-007    2.0735e-009    
  2.95            0.003476        -2.9968e-007    -2.1e-009      
  3               0.0034808       -3.5516e-007    5.951e-010     
  3.05            0.003481        -4.7667e-007    2.6237e-009    
  3.1             0.0034907       -5.6824e-007    -1.8504e-009   
  3.15            0.0034947       -6.738e-007     1.622e-010     
  3.2             0.0034945       -8.489e-007     1.6546e-009    
  3.25            0.0035022       -1.01005e-006   -2.3009e-009   
  3.3             0.0035056       -1.1954e-006    -2.4461e-009   
  3.35            0.003507        -1.4274e-006    1.8416e-009    
  3.4             0.0035125       -1.7166e-006    -1.893e-010    
  3.45            0.0035215       -1.9995e-006    -1.5535e-009   
  3.5             0.003523        -2.3646e-006    2.3385e-009    
  3.55            0.0035291       -2.7867e-006    -9e-010        
  3.6             0.0035365       -3.216e-006     -2.1597e-009   
  3.65            0.0035365       -3.7569e-006    2.0686e-009    
  3.7             0.0035416       -4.3702e-006    -4.827e-010    
  3.75            0.0035502       -5.0122e-006    -1.3396e-009   
  3.8             0.0035521       -5.7878e-006    2.4978e-009    
  3.85            0.0035611       -6.6537e-006    -1.1013e-009   
  3.9             0.0035675       -7.5815e-006    -1.7826e-009   
  3.95            0.0035691       -8.6716e-006    2.2424e-009    
  4               0.0035759       -9.8881e-006    -7.649e-010    
  4.05            0.0035852       -1.12018e-005   -2.3702e-009   
  4.1             0.0035906       -1.2721e-005    -1.8739e-009   
  4.15            0.0035981       -1.4368e-005    2.125e-010     
