! VERSION = 6.00
BEGIN_HEADER
 ICCAP_INPUTS
  VG         V  B GROUND SMU4 0.001 LIN        1    0          5          101  0.05      
  VS         V  E GROUND SMU2 0.1 CON        0
  VB         V  C GROUND SMU3 0.1 LIN        3    0          -5         3    -2.5      
  VD         V  S GROUND SMU1 0.1 LIN        2    0.1        5          2    4.9       
 ICCAP_OUTPUTS
  IG         I  B GROUND SMU4 B
  ID         I  S GROUND SMU1 B
  IB         I  C GROUND SMU3 B
END_HEADER

BEGIN_DB
 ICCAP_VAR VS         0              
 ICCAP_VAR VB         0              
 ICCAP_VAR VD         0.1            

 #VG              IG              ID              IB             
  0               -1.3842e-009    -8.069e-010     -8.374e-009    
  0.05            -1.3661e-009    4.714e-010      1.2958e-008    
  0.1             -2.6535e-009    6.395e-010      1.479e-008     
  0.15            4.93e-011       -1.6404e-009    5.54e-010      
  0.2             -1.455e-010     -1.7663e-009    -1.3213e-008   
  0.25            -3.6e-010       -1.8195e-009    -1.3787e-008   
  0.3             -5.777e-010     -1.809e-009     -1.3507e-008   
  0.35            1.3192e-009     -8.412e-010     -1.2229e-008   
  0.4             2.8328e-009     1.5952e-009     -9.043e-009    
  0.45            2.854e-009      2.2021e-009     -3.86e-010     
  0.5             2.8453e-009     4.6463e-009     -9.41e-010     
  0.55            1.6951e-009     1.2373e-008     8.354e-009     
  0.6             1.3206e-009     4.7331e-008     -9.669e-009    
  0.65            -1.854e-010     1.6895e-007     9.11e-009      
  0.7             -7.114e-010     5.7971e-007     -1.3629e-008   
  0.75            2.8542e-009     1.8375e-006     1.1411e-008    
  0.8             2.7554e-009     5.1384e-006     -7.63e-010     
  0.85            -2.479e-009     1.2396e-005     8.96e-009      
  0.9             -1.879e-009     2.5265e-005     1.179e-009     
  0.95            -1.4317e-009    4.3936e-005     4.965e-009     
  1               -1.3812e-009    6.71e-005       8.446e-009     
  1.05            -2.6314e-009    9.2889e-005     1.2585e-008    
  1.1             -2.3789e-009    0.00012003      -1.2493e-008   
  1.15            2.1566e-009     0.00014635      -2.5612e-008   
  1.2             1.4588e-009     0.00017207      -8.442e-009    
  1.25            1.3118e-009     0.00019663      -8.546e-009    
  1.3             2.8298e-009     0.00021993      -1.1545e-008   
  1.35            -1.7023e-009    0.00024281      2.1398e-008    
  1.4             -1.3904e-009    0.00026398      6.462e-009     
  1.45            -1.3733e-009    0.00028401      9.711e-009     
  1.5             -2.5387e-009    0.00030324      1.3588e-008    
  1.55            -1.9609e-009    0.00032127      6.8e-010       
  1.6             -1.4539e-009    0.00033866      4.833e-009     
  1.65            -1.3839e-009    0.00035531      8.197e-009     
  1.7             -2.6533e-009    0.00037137      1.2235e-008    
  1.75            -2.2444e-009    0.0003865       3.66e-010      
  1.8             -1.6184e-009    0.00040136      3.451e-009     
  1.85            -1.3854e-009    0.00041561      6.971e-009     
  1.9             -1.3661e-009    0.00042929      1.0258e-008    
  1.95            -2.4819e-009    0.00044264      1.427e-008     
  2               -1.8708e-009    0.00045527      1.183e-009     
  2.05            -1.4328e-009    0.00046767      4.892e-009     
  2.1             -1.3826e-009    0.00047964      8.644e-009     
  2.15            -2.6301e-009    0.00049134      1.2543e-008    
  2.2             -2.1639e-009    0.00050241      5.81e-010      
  2.25            -1.5649e-009    0.00051321      3.778e-009     
  2.3             -1.3851e-009    0.00052399      7.554e-009     
  2.35            -2.6914e-009    0.00053433      1.1106e-008    
  2.4             1.9809e-009     0.00054405      -2.301e-008    
  2.45            1.3922e-009     0.00055376      -9.452e-009    
  2.5             2.8518e-009     0.00056325      -8.783e-009    
  2.55            2.7911e-009     0.00057255      -6.72e-010     
  2.6             2.5232e-009     0.00058147      8.237e-009     
  2.65            -1.8721e-009    0.00059036      2.5301e-008    
  2.7             -1.4271e-009    0.00059886      5.021e-009     
  2.75            -1.3806e-009    0.0006074       8.848e-009     
  2.8             -2.6211e-009    0.00061553      1.2593e-008    
  2.85            -2.1411e-009    0.00062323      4.06e-010      
  2.9             -1.5451e-009    0.00063091      4.013e-009     
  2.95            -1.3848e-009    0.00063845      7.589e-009     
  3               -2.6892e-009    0.00064583      1.1306e-008    
  3.05            1.9622e-009     0.00065276      -2.2779e-008   
  3.1             1.3831e-009     0.00065969      -9.637e-009    
  3.15            2.8541e-009     0.00066654      -8.554e-009    
  3.2             2.7853e-009     0.0006732       -7.28e-010     
  3.25            2.5339e-009     0.00067963      8.305e-009     
  3.3             -1.8467e-009    0.00068613      2.5047e-008    
  3.35            -1.421e-009     0.00069226      5.2e-009       
  3.4             -1.3822e-009    0.00069833      8.902e-009     
  3.45            -2.6169e-009    0.00070434      1.2716e-008    
  3.5             -2.1283e-009    0.00070986      4.29e-010      
  3.55            -1.5335e-009    0.00071548      4.119e-009     
  3.6             -1.3852e-009    0.00072105      7.556e-009     
  3.65            -2.6816e-009    0.00072644      1.1346e-008    
  3.7             1.9397e-009     0.0007315       -2.2401e-008   
  3.75            1.3756e-009     0.00073666      -9.606e-009    
  3.8             2.8537e-009     0.00074174      -8.547e-009    
  3.85            2.7751e-009     0.00074663      -8.08e-010     
  3.9             -1.5679e-009    0.00075116      1.7568e-008    
  3.95            -1.3846e-009    0.00075616      7.619e-009     
  4               -2.6906e-009    0.00076067      1.1234e-008    
  4.05            1.9708e-009     0.00076501      -2.2886e-008   
  4.1             1.3853e-009     0.00076936      -9.37e-009     
  4.15            2.8534e-009     0.00077363      -8.432e-009    
  4.2             2.7921e-009     0.00077781      -7.09e-010     
  4.25            5.574e-010      0.00078193      1.181e-008     
  4.3             -1.8619e-009    0.00078589      2.5146e-008    
  4.35            -1.4208e-009    0.00078964      5.049e-009     
  4.4             -1.3814e-009    0.00079364      8.617e-009     
  4.45            -2.618e-009     0.00079743      1.267e-008     
  4.5             -2.1319e-009    0.00080086      4.13e-010      
  4.55            -1.5398e-009    0.0008044       3.94e-009      
  4.6             -1.3846e-009    0.0008079       7.68e-009      
  4.65            -2.686e-009     0.00081135      1.1481e-008    
  4.7             -1.3877e-009    0.00081464      -9.892e-009    
  4.75            -1.504e-010     0.00081769      -1.1828e-008   
  4.8             -6.642e-010     0.00082098      -1.3559e-008   
  4.85            -1.0556e-009    0.000824        -1.1943e-008   
  4.9             2.178e-010      0.00082663      -1.171e-008    
  4.95            1.4255e-009     0.00082992      -2.1812e-008   
  5               2.8515e-009     0.00083281      -8.465e-009    
END_DB

BEGIN_DB
 ICCAP_VAR VS         0              
 ICCAP_VAR VB         0              
 ICCAP_VAR VD         5              

 #VG              IG              ID              IB             
  0               1.304e-009      1.5691e-009     -1.2324e-008   
  0.05            2.4599e-009     1.5681e-009     -1.5483e-008   
  0.1             -1.3821e-009    1.8307e-009     2.7513e-008    
  0.15            -1.3693e-009    4.945e-010      1.2282e-008    
  0.2             -2.6704e-009    6.463e-010      1.3611e-008    
  0.25            2.0886e-009     -1.1697e-009    -1.0103e-008   
  0.3             2.5525e-009     1.6335e-009     -8.968e-009    
  0.35            -1.3756e-009    2.1969e-009     2.3798e-008    
  0.4             -2.6852e-009    1.6575e-009     1.3199e-008    
  0.45            -9.46e-011      2.2313e-009     -1.3306e-008   
  0.5             2.0839e-009     1.797e-008      7.28e-009      
  0.55            -2.4488e-009    6.1359e-008     9.743e-009     
  0.6             -1.3691e-009    2.3062e-007     -8.833e-009    
  0.65            -2.5187e-009    8.5154e-007     -4.8342e-008   
  0.7             -1.4509e-009    2.7587e-006     -2.0855e-007   
  0.75            -1.3818e-009    8.1446e-006     -5.6113e-007   
  0.8             -2.4923e-009    1.9872e-005     -1.3113e-006   
  0.85            -2.7251e-009    4.2369e-005     -2.7251e-006   
  0.9             -2.711e-009     7.7897e-005     -4.7828e-006   
  0.95            -2.3771e-009    0.00012806      -7.4773e-006   
  1               -1.7391e-009    0.00019202      -1.07244e-005  
  1.05            1.3932e-009     0.00026598      -1.432e-005    
  1.1             2.8542e-009     0.00035429      -1.8081e-005   
  1.15            2.788e-009      0.00045204      -2.2014e-005   
  1.2             2.2971e-009     0.0005558       -2.591e-005    
  1.25            1.5604e-009     0.0006666       -2.9754e-005   
  1.3             1.312e-009      0.00078317      -3.3424e-005   
  1.35            2.8526e-009     0.00090408      -3.688e-005    
  1.4             2.5845e-009     0.00103147      -4.0127e-005   
  1.45            -4.33e-011      0.0011623       -4.3148e-005   
  1.5             4.2e-010        0.0012954       -4.5867e-005   
  1.55            8.441e-010      0.0014296       -4.8325e-005   
  1.6             1.2059e-009     0.0015647       -5.0524e-005   
  1.65            1.6293e-009     0.001702        -5.2441e-005   
  1.7             2.0458e-009     0.0018452       -5.4095e-005   
  1.75            2.41e-009       0.0019892       -5.5504e-005   
  1.8             2.6904e-009     0.0021325       -5.6669e-005   
  1.85            2.8414e-009     0.0022773       -5.7605e-005   
  1.9             2.8317e-009     0.0024239       -5.8321e-005   
  1.95            2.438e-009      0.0025699       -5.8806e-005   
  2               1.6804e-009     0.0027167       -5.9103e-005   
  2.05            1.3216e-009     0.0028648       -5.9203e-005   
  2.1             2.8569e-009     0.0030127       -5.9133e-005   
  2.15            2.6745e-009     0.0031639       -5.8897e-005   
  2.2             2.0233e-009     0.0033131       -5.8516e-005   
  2.25            1.4057e-009     0.0034632       -5.8007e-005   
  2.3             2.8484e-009     0.0036132       -5.7369e-005   
  2.35            2.814e-009      0.0037659       -5.6613e-005   
  2.4             2.3582e-009     0.0039165       -5.5767e-005   
  2.45            1.6094e-009     0.0040669       -5.4831e-005   
  2.5             1.3136e-009     0.0042185       -5.3832e-005   
  2.55            2.859e-009      0.0043692       -5.2729e-005   
  2.6             2.6264e-009     0.004523        -5.1578e-005   
  2.65            1.9296e-009     0.0046742       -5.0383e-005   
  2.7             1.374e-009      0.0048265       -4.9141e-005   
  2.75            2.8546e-009     0.00498         -4.7852e-005   
  2.8             2.7847e-009     0.0051344       -4.6539e-005   
  2.85            2.2808e-009     0.0052856       -4.5222e-005   
  2.9             1.5532e-009     0.005438        -4.3889e-005   
  2.95            1.3143e-009     0.0055896       -4.2567e-005   
  3               2.8502e-009     0.0057406       -4.1197e-005   
  3.05            2.5722e-009     0.0058948       -3.9841e-005   
  3.1             1.8556e-009     0.0060462       -3.8504e-005   
  3.15            1.3583e-009     0.0061979       -3.717e-005    
  3.2             2.8582e-009     0.0063494       -3.5859e-005   
  3.25            2.7566e-009     0.006503        -3.455e-005    
  3.3             2.208e-009      0.0066534       -3.3269e-005   
  3.35            1.5072e-009     0.006805        -3.2009e-005   
  3.4             2.8338e-009     0.0069562       -3.0805e-005   
  3.45            2.8436e-009     0.007109        -2.9558e-005   
  3.5             2.5134e-009     0.00726         -2.8382e-005   
  3.55            1.7854e-009     0.0074098       -2.7231e-005   
  3.6             1.3421e-009     0.0075602       -2.6109e-005   
  3.65            2.8617e-009     0.0077106       -2.5021e-005   
  3.7             2.726e-009      0.0078626       -2.3954e-005   
  3.75            2.1436e-009     0.008012        -2.2928e-005   
  3.8             1.4694e-009     0.008162        -2.1929e-005   
  3.85            1.3155e-009     0.0083106       -2.0996e-005   
  3.9             2.8316e-009     0.0084598       -2.0045e-005   
  3.95            2.4573e-009     0.0086108       -1.9137e-005   
  4               1.7097e-009     0.0087594       -1.827e-005    
  4.05            1.3289e-009     0.0089079       -1.744e-005    
  4.1             2.8653e-009     0.0090556       -1.6638e-005   
  4.15            2.691e-009      0.0092059       -1.5859e-005   
  4.2             2.0558e-009     0.0093534       -1.5113e-005   
  4.25            1.4298e-009     0.0095008       -1.4404e-005   
  4.3             2.8518e-009     0.0096477       -1.3727e-005   
  4.35            2.815e-009      0.0097965       -1.3064e-005   
  4.4             2.389e-009      0.0099451       -1.243e-005    
  4.45            1.6426e-009     0.0100909       -1.1834e-005   
  4.5             1.3214e-009     0.0102376       -1.1261e-005   
  4.55            2.8618e-009     0.010382        -1.0713e-005   
  4.6             2.6438e-009     0.01053         -1.0179e-005   
  4.65            9.531e-010      0.010683        -9.6618e-006   
  4.7             1.079e-009      0.010826        -9.1784e-006   
  4.75            1.4751e-009     0.010966        -8.7217e-006   
  4.8             1.9032e-009     0.011113        -8.2836e-006   
  4.85            2.2942e-009     0.01126         -7.8671e-006   
  4.9             2.6069e-009     0.011403        -7.4681e-006   
  4.95            2.8162e-009     0.011547        -7.0883e-006   
  5               2.8639e-009     0.01169         -6.7269e-006   
END_DB

BEGIN_DB
 ICCAP_VAR VS         0              
 ICCAP_VAR VB         -2.5           
 ICCAP_VAR VD         0.1            

 #VG              IG              ID              IB             
  0               -1.4267e-009    -1.1217e-009    -8.69e-009     
  0.05            -1.3851e-009    1.825e-010      8.461e-009     
  0.1             -1.3832e-009    2.999e-010      1.0209e-008    
  0.15            -2.7143e-009    4.345e-010      1.1824e-008    
  0.2             2.6061e-009     -1.024e-009     -2.6129e-008   
  0.25            2.2992e-009     1.5419e-009     -4.27e-009     
  0.3             -1.3843e-009    1.6434e-009     2.8448e-008    
  0.35            -1.3853e-009    3.139e-010      1.0497e-008    
  0.4             -2.7117e-009    4.492e-010      1.2081e-008    
  0.45            1.3123e-009     -1.0346e-009    -2.5892e-008   
  0.5             2.3137e-009     1.5439e-009     -1.1718e-008   
  0.55            -1.3831e-009    1.6574e-009     2.8512e-008    
  0.6             -1.384e-009     3.293e-010      1.084e-008     
  0.65            -1.3729e-009    4.643e-010      1.2358e-008    
  0.7             -2.6745e-009    6.139e-010      1.3659e-008    
  0.75            -1.54e-010      -1.7381e-009    -1.3169e-008   
  0.8             -3.754e-010     -1.7887e-009    -1.3591e-008   
  0.85            -5.801e-010     -1.7776e-009    -1.3716e-008   
  0.9             1.3203e-009     -7.616e-010     -1.2636e-008   
  0.95            2.847e-009      1.9459e-009     -9.39e-009     
  1               2.8608e-009     4.0021e-009     -4.2e-010      
  1.05            -6.646e-010     1.0579e-008     -2.85e-010     
  1.1             -1.0557e-009    5.4903e-008     -1.1941e-008   
  1.15            -1.958e-009     2.3575e-007     2.828e-008     
  1.2             -9.003e-010     8.9369e-007     -1.3529e-008   
  1.25            2.8564e-009     2.8879e-006     1.0026e-008    
  1.3             -1.8104e-009    8.2532e-006     2.393e-008     
  1.35            2.3892e-009     1.8341e-005     3.761e-009     
  1.4             1.6217e-009     3.4862e-005     -6.677e-009    
  1.45            2.8119e-009     5.7118e-005     -9.479e-009    
  1.5             2.8579e-009     8.3458e-005     4.85e-010      
  1.55            -1.8899e-009    0.000111517     2.5788e-008    
  1.6             -1.3827e-009    0.00013965      4.293e-009     
  1.65            -2.6711e-009    0.0001667       1.1632e-008    
  1.7             -1.4412e-009    0.00019243      -1.0122e-008   
  1.75            2.4357e-009     0.00021595      -2.6903e-008   
  1.8             1.658e-009      0.00023884      -6.208e-009    
  1.85            1.3207e-009     0.00026042      -9.622e-009    
  1.9             2.8619e-009     0.00028063      -9.252e-009    
  1.95            -1.9417e-009    0.00030055      2.674e-008     
  2               -1.4413e-009    0.00031876      4.806e-009     
  2.05            -1.3838e-009    0.00033614      8.34e-009      
  2.1             -2.6407e-009    0.00035275      1.227e-008     
  2.15            -2.1935e-009    0.00036828      5.2e-010       
  2.2             -1.5735e-009    0.00038343      3.427e-009     
  2.25            -1.3821e-009    0.00039796      7.269e-009     
  2.3             -2.6928e-009    0.00041179      1.0778e-008    
  2.35            2.0046e-009     0.00042484      -2.3386e-008   
  2.4             1.3895e-009     0.00043762      -9.444e-009    
  2.45            2.8542e-009     0.00044999      -8.588e-009    
  2.5             2.7887e-009     0.00046206      -6.71e-010     
  2.55            2.5196e-009     0.00047352      8.029e-009     
  2.6             -1.8619e-009    0.00048488      2.5253e-008    
  2.65            -1.418e-009     0.00049562      5.006e-009     
  2.7             -1.3804e-009    0.00050612      8.558e-009     
  2.75            -2.6139e-009    0.00051634      1.2599e-008    
  2.8             -2.1169e-009    0.00052603      3.92e-010      
  2.85            -1.5266e-009    0.0005355       4.199e-009     
  2.9             -1.3803e-009    0.00054474      7.567e-009     
  2.95            -2.6819e-009    0.00055376      1.1336e-008    
  3               -4.221e-010     0.00056228      -1.3026e-008   
  3.05            -8.882e-010     0.00057074      -1.3249e-008   
  3.1             1.5436e-009     0.0005786       -1.5321e-008   
  3.15            1.3128e-009     0.00058684      -8.918e-009    
  3.2             2.8477e-009     0.00059462      -1.0411e-008   
  3.25            -1.7875e-009    0.00060238      2.3484e-008    
  3.3             -1.4012e-009    0.00060972      5.645e-009     
  3.35            -1.3806e-009    0.00061672      8.953e-009     
  3.4             -2.5818e-009    0.00062404      1.3053e-008    
  3.45            -2.039e-009     0.00063068      6.09e-010      
  3.5             -1.4881e-009    0.00063732      4.338e-009     
  3.55            -1.382e-009     0.00064378      8.164e-009     
  3.6             -2.6668e-009    0.00065019      1.1859e-008    
  3.65            -4.91e-010      0.00065619      -1.3268e-008   
  3.7             -9.291e-010     0.0006622       -1.2893e-008   
  3.75            3.265e-010      0.00066762      -1.4147e-008   
  3.8             1.5739e-009     0.00067369      -1.9862e-008   
  3.85            1.3125e-009     0.00067929      -9.068e-009    
  3.9             2.8528e-009     0.00068471      -1.0109e-008   
  3.95            -1.8173e-009    0.00069014      2.4366e-008    
  4               -1.4094e-009    0.00069535      5.375e-009     
  4.05            -1.3799e-009    0.00070049      8.681e-009     
  4.1             -2.5995e-009    0.00070542      1.2755e-008    
  4.15            -2.0799e-009    0.00071014      4.55e-010      
