! VERSION = 6.00
BEGIN_HEADER
 ICCAP_INPUTS
  VG         V  B GROUND SMU4 0.001 LIN        1    0          5          101  0.05      
  VS         V  E GROUND SMU2 0.1 CON        0
  VB         V  C GROUND SMU3 0.1 LIN        3    0          -5         3    -2.5      
  VD         V  S GROUND SMU1 0.1 LIN        2    0.1        5          2    4.9       
 ICCAP_OUTPUTS
  IG         I  B GROUND SMU4 B
  ID         I  S GROUND SMU1 B
  IB         I  C GROUND SMU3 B
END_HEADER

BEGIN_DB
 ICCAP_VAR VS         0              
 ICCAP_VAR VB         0              
 ICCAP_VAR VD         0.1            

 #VG              IG              ID              IB             
  0               1.1112e-009     1.2681e-009     9.157e-009     
  0.05            1.4706e-009     1.9394e-009     -1.3053e-008   
  0.1             -1.8996e-009    9.193e-010      1.7617e-008    
  0.15            -5.743e-010     -1.8157e-009    4.024e-009     
  0.2             2.5555e-009     -9.695e-010     -9.818e-009    
  0.25            -1.6037e-009    1.8233e-009     1.3985e-008    
  0.3             2.119e-010      -1.4149e-009    5.477e-009     
  0.35            1.6922e-009     -4.973e-010     -2.1041e-008   
  0.4             2.4188e-009     1.4987e-009     -9.289e-009    
  0.45            2.921e-010      3.4742e-009     9.444e-009     
  0.5             4.791e-010      6.6936e-009     9.151e-009     
  0.55            -1.7347e-009    1.4912e-008     -1.6172e-008   
  0.6             -2.4911e-009    5.9418e-008     4.555e-009     
  0.65            -2.5087e-009    2.4933e-007     -7.878e-009    
  0.7             -2.0226e-009    7.2014e-007     1.108e-009     
  0.75            -2.132e-009     2.2211e-006     -1.521e-008    
  0.8             2.0483e-009     6.4602e-006     -2.25e-008     
  0.85            -2.2281e-009    1.5355e-005     -3.995e-009    
  0.9             -8.434e-010     3.028e-005      -1.025e-008    
  0.95            2.7113e-009     5.1838e-005     -1.3828e-008   
  1               -1.457e-009     7.9908e-005     1.9076e-008    
  1.05            -2.5867e-009    0.000111415     7.072e-009     
  1.1             -1.0938e-009    0.00014414      -2.4711e-008   
  1.15            5.39e-011       0.0001753       -1.085e-008    
  1.2             2.6362e-009     0.00020647      -2.3857e-008   
  1.25            -1.3484e-009    0.00023718      2.1369e-008    
  1.3             -2.6069e-009    0.00026584      8.566e-009     
  1.35            2.2489e-009     0.00029205      -2.4363e-008   
  1.4             2.3548e-009     0.00031738      -5.352e-009    
  1.45            -1.4159e-009    0.00034196      1.9734e-008    
  1.5             -2.5937e-009    0.00036522      7.481e-009     
  1.55            2.3853e-009     0.00038662      -2.51e-008     
  1.6             1.6894e-009     0.00040775      -4.156e-009    
  1.65            2.5709e-009     0.00042795      -9.255e-009    
  1.7             -2.4126e-009    0.00044777      2.4636e-008    
  1.75            -1.8308e-009    0.0004666       1.496e-009     
  1.8             -1.3501e-009    0.00048432      4.2e-009       
  1.85            -2.6075e-009    0.00050167      8.483e-009     
  1.9             -1.0443e-009    0.00051817      -9.445e-009    
  1.95            2.6354e-009     0.00053337      -2.3917e-008   
  2               -1.3477e-009    0.00054861      2.1332e-008    
  2.05            -2.6158e-009    0.00056379      8.508e-009     
  2.1             2.2556e-009     0.00057776      -2.4484e-008   
  2.15            2.3565e-009     0.00059194      -5.055e-009    
  2.2             -1.4193e-009    0.00060535      1.9684e-008    
  2.25            -2.5951e-009    0.00061821      7.377e-009     
  2.3             -9.811e-010     0.00063099      -9.667e-009    
  2.35            1.731e-010      0.00064297      -1.1441e-008   
  2.4             2.7158e-009     0.00065501      -2.1961e-008   
  2.45            -1.4604e-009    0.00066679      1.8992e-008    
  2.5             -2.5897e-009    0.00067846      6.898e-009     
  2.55            -9.512e-010     0.00068781      -9.915e-009    
  2.6             2.05e-010       0.00069787      -1.1856e-008   
  2.65            2.7258e-009     0.00070898      -2.1161e-008   
  2.7             2.3612e-009     0.00071953      -1.738e-009    
  2.75            1.6787e-009     0.00072843      -4.111e-009    
  2.8             2.5804e-009     0.00073839      -9.32e-009     
  2.85            -2.4111e-009    0.00074816      2.4789e-008    
  2.9             -1.8158e-009    0.00075738      1.626e-009     
  2.95            -1.3513e-009    0.00076549      4.085e-009     
  3               -2.6085e-009    0.0007743       8.52e-009      
  3.05            2.2729e-009     0.00078125      -2.4667e-008   
  3.1             1.5624e-009     0.00078878      -5.094e-009    
  3.15            2.6234e-009     0.0007964       -9.399e-009    
  3.2             -2.3296e-009    0.00080496      2.5569e-008    
  3.25            -1.7093e-009    0.00081128      2.106e-009     
  3.3             -2.5041e-009    0.00081641      4.633e-009     
  3.35            -7.701e-010     0.0008206       -1.0558e-008   
  3.4             2.7358e-009     0.00082402      -1.5686e-008   
  3.45            2.4165e-009     0.00081432      -1.683e-009    
  3.5             2.4364e-009     0.00081805      6.087e-009     
  3.55            -1.3413e-009    0.00081877      2.1672e-008    
  3.6             -2.6133e-009    0.00082304      8.783e-009     
  3.65            2.2364e-009     0.00082737      -2.437e-008    
  3.7             2.3669e-009     0.00083434      -5.415e-009    
  3.75            -1.4103e-009    0.00084052      1.9751e-008    
  3.8             -2.5951e-009    0.0008463       7.599e-009     
  3.85            -9.876e-010     0.00085047      -9.641e-009    
  3.9             1.66e-010       0.00085542      -1.1355e-008   
  3.95            2.7132e-009     0.00086124      -2.22e-008     
  4               -1.4538e-009    0.00086649      1.9076e-008    
  4.05            -2.5864e-009    0.00086718      6.97e-009      
  4.1             2.4479e-009     0.00087154      -2.5077e-008   
  4.15            1.7615e-009     0.0008749       -3.872e-009    
  4.2             2.546e-009      0.00087977      -8.96e-009     
  4.25            -2.3335e-009    0.00087576      1.1211e-008    
  4.3             -1.712e-009     0.00087921      2.119e-009     
  4.35            -2.5016e-009    0.00088407      4.919e-009     
  4.4             -7.656e-010     0.00087941      -1.0622e-008   
  4.45            2.7314e-009     0.00088227      -1.5708e-008   
  4.5             2.4195e-009     0.00087944      -1.719e-009    
  4.55            1.7374e-009     0.0008794       -3.699e-009    
  4.6             2.5489e-009     0.00088414      -9.109e-009    
  4.65            -2.3252e-009    0.00088776      1.1313e-008    
  4.7             -1.7004e-009    0.00089172      2.075e-009     
  4.75            -2.504e-009     0.00089594      4.707e-009     
  4.8             -7.729e-010     0.00089847      -1.0648e-008   
  4.85            2.7316e-009     0.00090257      -1.5461e-008   
  4.9             2.4187e-009     0.00090688      -1.697e-009    
  4.95            1.7354e-009     0.00091092      -3.955e-009    
  5               2.55e-009       0.00091184      -9.083e-009    
END_DB

BEGIN_DB
 ICCAP_VAR VS         0              
 ICCAP_VAR VB         0              
 ICCAP_VAR VD         5              

 #VG              IG              ID              IB             
  0               1.1249e-009     1.3505e-009     1.9258e-008    
  0.05            1.3873e-009     2.087e-009      -1.1649e-008   
  0.1             -2.0201e-009    8.952e-010      1.6224e-008    
  0.15            -4.807e-010     -1.7468e-009    3.314e-009     
  0.2             2.3572e-009     -1.0525e-009    -2.1595e-008   
  0.25            2.169e-009      1.3049e-009     -4.357e-009    
  0.3             -2.162e-009     9.311e-010      1.4852e-008    
  0.35            2.7135e-009     -3.728e-010     -2.4879e-008   
  0.4             -1.7454e-009    2.5453e-009     1.8703e-008    
  0.45            -1.4981e-009    5.4036e-009     3.975e-009     
  0.5             2.6831e-009     1.9864e-008     1.6285e-008    
  0.55            2.7e-009        7.161e-008      -7.413e-009    
  0.6             -1.8875e-009    3.2946e-007     -2.7556e-008   
  0.65            -1.5468e-009    1.0616e-006     -9.6585e-008   
  0.7             1.748e-009      3.327e-006      -2.1973e-007   
  0.75            2.5424e-009     9.7426e-006     -7.3504e-007   
  0.8             -1.7018e-009    2.4855e-005     -1.5758e-006   
  0.85            -1.9484e-009    5.3334e-005     -3.3703e-006   
  0.9             -2.2594e-009    9.9824e-005     -6.0235e-006   
  0.95            -1.6759e-009    0.00016728      -9.569e-006    
  1               2.3097e-009     0.00024858      -1.364e-005    
  1.05            1.606e-009      0.00035286      -1.8268e-005   
  1.1             2.5925e-009     0.00046641      -2.3215e-005   
  1.15            2.7371e-009     0.00059639      -2.7916e-005   
  1.2             2.4726e-009     0.00073093      -3.2828e-005   
  1.25            1.8029e-009     0.00087114      -3.7378e-005   
  1.3             2.5178e-009     0.00101602      -4.1464e-005   
  1.35            1.6165e-009     0.0011731       -4.5579e-005   
  1.4             2.5935e-009     0.0013267       -4.9078e-005   
  1.45            2.7373e-009     0.0014935       -5.246e-005    
  1.5             2.4823e-009     0.0016511       -5.5024e-005   
  1.55            1.8094e-009     0.0018034       -5.761e-005    
  1.6             2.5129e-009     0.00198         -5.9806e-005   
  1.65            2.7283e-009     0.00215         -6.1621e-005   
  1.7             2.6088e-009     0.0022998       -6.3193e-005   
  1.75            2.0199e-009     0.002469        -6.4436e-005   
  1.8             2.4297e-009     0.0026349       -6.5422e-005   
  1.85            2.6954e-009     0.0028165       -6.612e-005    
  1.9             2.692e-009      0.0029751       -6.661e-005    
  1.95            2.2291e-009     0.003148        -6.6843e-005   
  2               2.3548e-009     0.0033093       -6.6801e-005   
  2.05            2.6338e-009     0.0034782       -6.6669e-005   
  2.1             2.7303e-009     0.0036537       -6.6336e-005   
  2.15            2.4129e-009     0.0038264       -6.5852e-005   
  2.2             1.7177e-009     0.0039939       -6.5217e-005   
  2.25            2.5519e-009     0.0041626       -6.4358e-005   
  2.3             2.7379e-009     0.0043344       -6.3456e-005   
  2.35            2.5582e-009     0.0045026       -6.238e-005    
  2.4             1.9211e-009     0.0046791       -6.1262e-005   
  2.45            2.4673e-009     0.0048493       -6.0078e-005   
  2.5             2.7128e-009     0.0050317       -5.8898e-005   
  2.55            2.6607e-009     0.0052091       -5.7681e-005   
  2.6             2.1361e-009     0.0053822       -5.6289e-005   
  2.65            2.3834e-009     0.0055539       -5.4844e-005   
  2.7             2.6628e-009     0.005732        -5.3369e-005   
  2.75            2.7211e-009     0.0059011       -5.1949e-005   
  2.8             2.3353e-009     0.0060763       -5.0358e-005   
  2.85            1.623e-009      0.0062439       -4.8915e-005   
  2.9             2.5837e-009     0.0064276       -4.7378e-005   
  2.95            2.7411e-009     0.0066001       -4.592e-005    
  3               2.4918e-009     0.0067771       -4.4373e-005   
  3.05            1.828e-009      0.0069555       -4.2851e-005   
  3.1             2.5083e-009     0.0071325       -4.1398e-005   
  3.15            2.7274e-009     0.0073042       -3.9981e-005   
  3.2             2.6182e-009     0.0074859       -3.8534e-005   
  3.25            2.0476e-009     0.0076645       -3.7086e-005   
  3.3             2.4239e-009     0.007845        -3.573e-005    
  3.35            2.6905e-009     0.0080278       -3.443e-005    
  3.4             2.6928e-009     0.0082059       -3.3079e-005   
  3.45            2.2446e-009     0.0083798       -3.17e-005     
  3.5             2.352e-009      0.0085628       -3.0439e-005   
  3.55            2.6263e-009     0.0087509       -2.9264e-005   
  3.6             2.7291e-009     0.0089273       -2.8069e-005   
  3.65            2.4205e-009     0.0091094       -2.6897e-005   
  3.7             1.7329e-009     0.0092905       -2.5788e-005   
  3.75            2.5485e-009     0.0094729       -2.4679e-005   
  3.8             2.7337e-009     0.0096505       -2.3632e-005   
  3.85            2.558e-009      0.0098324       -2.2603e-005   
  3.9             1.9353e-009     0.0100178       -2.1584e-005   
  3.95            2.4624e-009     0.0102074       -2.0666e-005   
  4               2.7113e-009     0.0103884       -1.98e-005     
  4.05            2.6602e-009     0.0105713       -1.8937e-005   
  4.1             2.1463e-009     0.0107541       -1.8103e-005   
  4.15            2.3877e-009     0.010939        -1.729e-005    
  4.2             2.6575e-009     0.0111232       -1.6503e-005   
  4.25            2.7212e-009     0.0113075       -1.5776e-005   
  4.3             -1.2427e-009    0.011508        -1.5116e-005   
  4.35            -1.6378e-009    0.011696        -1.4463e-005   
  4.4             -1.9081e-009    0.01188         -1.381e-005    
  4.45            -2.1908e-009    0.012061        -1.319e-005    
  4.5             -2.5073e-009    0.012236        -1.2555e-005   
  4.55            -2.6038e-009    0.012413        -1.1954e-005   
  4.6             -2.4277e-009    0.012594        -1.1396e-005   
  4.65            -1.8571e-009    0.012779        -1.0889e-005   
  4.7             -1.3597e-009    0.012961        -1.038e-005    
  4.75            2.2067e-009     0.013134        -9.8999e-006   
  4.8             2.3725e-009     0.013316        -9.4401e-006   
  4.85            2.6511e-009     0.013497        -8.9787e-006   
  4.9             2.7301e-009     0.013688        -8.6062e-006   
  4.95            2.3827e-009     0.013876        -8.223e-006    
  5               1.6862e-009     0.014065        -7.8651e-006   
END_DB

BEGIN_DB
 ICCAP_VAR VS         0              
 ICCAP_VAR VB         -2.5           
 ICCAP_VAR VD         0.1            

 #VG              IG              ID              IB             
  0               8.594e-010      1.0297e-009     1.7586e-008    
  0.05            2.6961e-009     -8.33e-010      -2.5355e-008   
  0.1             -1.6594e-009    1.0374e-009     1.9725e-008    
  0.15            2.6816e-009     -1.4044e-009    4.955e-009     
  0.2             -1.7952e-009    1.7158e-009     1.7356e-008    
  0.25            2.7191e-009     -1.3641e-009    4.123e-009     
  0.3             -1.7534e-009    1.0001e-009     1.8509e-008    
  0.35            2.7106e-009     -1.3762e-009    4.534e-009     
  0.4             -1.7057e-009    1.0177e-009     1.8954e-008    
  0.45            2.6959e-009     -1.3864e-009    4.563e-009     
  0.5             -1.6719e-009    1.0388e-009     1.9509e-008    
  0.55            2.682e-009      -1.4002e-009    5.017e-009     
  0.6             -1.6341e-009    1.0554e-009     2.0121e-008    
  0.65            2.6653e-009     -1.4129e-009    5.042e-009     
  0.7             -1.5909e-009    1.0754e-009     2.065e-008     
  0.75            2.035e-010      -1.4259e-009    5.435e-009     
  0.8             1.6874e-009     -5.891e-010     -2.1226e-008   
  0.85            1.5704e-009     1.8446e-009     -9.329e-009    
  0.9             1.7441e-009     1.7343e-009     8.593e-009     
  0.95            -2.5867e-009    1.3438e-009     1.1117e-008    
  1               2.2511e-009     3.0451e-009     -1.9858e-008   
  1.05            -2.559e-009     1.6848e-008     -1.0764e-008   
  1.1             -9.008e-010     7.4406e-008     -1.0183e-008   
  1.15            -2.2895e-009    2.9771e-007     7.75e-009      
  1.2             -1.7143e-009    1.1086e-006     -9.037e-009    
  1.25            -7.081e-010     3.6188e-006     -1.069e-008    
  1.3             -1.0635e-009    9.7499e-006     -9.107e-009    
  1.35            1.8877e-009     2.1663e-005     -1.4506e-008   
  1.4             -2.3061e-009    4.1561e-005     1.1506e-008    
  1.45            -1.6571e-009    6.8044e-005     2.38e-009      
  1.5             -2.509e-009     9.8581e-005     4.849e-009     
  1.55            -2.4435e-009    0.00013103      -1.0734e-008   
  1.6             -6.71e-010      0.00016317      -1.0722e-008   
  1.65            -1.0419e-009    0.00019409      -9.27e-009     
  1.7             1.065e-010      0.00022286      -1.0949e-008   
  1.75            2.6857e-009     0.00025017      -2.3263e-008   
  1.8             -1.3816e-009    0.00027627      2.0049e-008    
  1.85            -2.5935e-009    0.00030059      7.811e-009     
  1.9             -1.0164e-009    0.00032319      -9.414e-009    
  1.95            1.325e-010      0.00034399      -1.1063e-008   
  2               2.702e-009      0.00036399      -2.2618e-008   
  2.05            -1.404e-009     0.00038343      1.9423e-008    
  2.1             -2.5884e-009    0.00040149      7.544e-009     
  2.15            -9.917e-010     0.00041853      -9.657e-009    
  2.2             1.621e-010      0.0004344       -1.1166e-008   
  2.25            2.7102e-009     0.00045008      -2.2172e-008   
  2.3             -1.4283e-009    0.00046531      1.8854e-008    
  2.35            -2.5777e-009    0.00047969      6.989e-009     
  2.4             2.4359e-009     0.00049335      -2.5339e-008   
  2.45            1.7094e-009     0.00050665      -3.958e-009    
  2.5             2.5502e-009     0.00051907      -9.193e-009    
  2.55            -2.3005e-009    0.00053166      1.154e-008     
  2.6             -1.6607e-009    0.00054352      2.409e-009     
  2.65            -2.5043e-009    0.00055445      4.818e-009     
  2.7             2.061e-010      0.00056534      -1.1737e-008   
  2.75            2.7293e-009     0.00057609      -2.1178e-008   
  2.8             2.3676e-009     0.00058637      -1.791e-009    
  2.85            1.6608e-009     0.0005964       -4.371e-009    
  2.9             2.5711e-009     0.00060585      -9.364e-009    
  2.95            -2.2686e-009    0.00061583      1.1724e-008    
  3               -1.6209e-009    0.00062445      2.529e-009     
  3.05            -2.5216e-009    0.00063308      5.058e-009     
  3.1             2.6217e-009     0.00064168      -2.427e-008    
  3.15            5.874e-010      0.00064985      9.47e-009      
  3.2             -1.5967e-009    0.0006581       1.6902e-008    
  3.25            -2.5306e-009    0.00066572      5.434e-009     
  3.3             2.5895e-009     0.00067322      -2.456e-008    
  3.35            6.089e-010      0.00068061      9.481e-009     
  3.4             -1.555e-009     0.00068775      1.724e-008     
  3.45            -2.5458e-009    0.0006941       5.61e-009      
  3.5             2.5689e-009     0.00070088      -2.4808e-008   
  3.55            6.417e-010      0.00070739      9.376e-009     
  3.6             -1.524e-009     0.00071421      1.7641e-008    
  3.65            -2.5546e-009    0.00072041      5.92e-009      
  3.7             2.5361e-009     0.00072648      -2.5092e-008   
  3.75            6.675e-010      0.00073235      9.343e-009     
  3.8             -1.486e-009     0.0007384       1.7962e-008    
  3.85            -2.5593e-009    0.00074438      6.256e-009     
  3.9             2.5019e-009     0.00074985      -2.5134e-008   
  3.95            -2.4829e-009    0.00075521      1.0985e-008    
  4               -1.9309e-009    0.00076039      1.174e-009     
  4.05            -1.3964e-009    0.00076536      3.74e-009      
  4.1             -2.5909e-009    0.00077073      7.426e-009     
  4.15            2.3883e-009     0.00077556      -2.5491e-008   
