! VERSION = 6.00
BEGIN_HEADER
 ICCAP_INPUTS
  VG         V  B GROUND SMU4 0.001 LIN        1    0          5          101  0.05      
  VS         V  E GROUND SMU2 0.1 CON        0
  VB         V  C GROUND SMU3 0.1 LIN        3    0          -5         3    -2.5      
  VD         V  S GROUND SMU1 0.1 LIN        2    0.1        5          2    4.9       
 ICCAP_OUTPUTS
  IG         I  B GROUND SMU4 B
  ID         I  S GROUND SMU1 B
  IB         I  C GROUND SMU3 B
END_HEADER

BEGIN_DB
 ICCAP_VAR VS         0              
 ICCAP_VAR VB         0              
 ICCAP_VAR VD         0.1            

 #VG              IG              ID              IB             
  0               -6.315e-010     -6.27e-010      -2.4867e-008   
  0.05            -2.3792e-009    4.036e-010      1.2298e-008    
  0.1             -1.1398e-009    -2.0022e-009    2.034e-009     
  0.15            2.048e-010      -1.6717e-009    -1.0843e-008   
  0.2             1.7029e-009     -8.451e-010     -2.1369e-008   
  0.25            7.139e-010      2.2235e-009     -9.059e-009    
  0.3             -1.7266e-009    7.821e-010      1.8826e-008    
  0.35            -1.6e-011       -1.7439e-009    -5.915e-009    
  0.4             2.7511e-009     -7.53e-010      -2.4927e-008   
  0.45            -1.9741e-009    2.3349e-009     2.0079e-008    
  0.5             -1.6768e-009    2.9801e-009     3.242e-009     
  0.55            2.4324e-009     1.3185e-008     1.2144e-008    
  0.6             5.762e-010      4.6348e-008     9.203e-009     
  0.65            1.5717e-009     1.5506e-007     -2.5075e-008   
  0.7             1.9796e-009     5.1448e-007     8.262e-009     
  0.75            -2.3431e-009    1.6022e-006     -1.6481e-008   
  0.8             -1.72e-009      4.4428e-006     1.968e-009     
  0.85            -1.3218e-009    1.05995e-005    4.129e-009     
  0.9             1.771e-009      2.1272e-005     4.835e-009     
  0.95            2.5313e-009     3.6817e-005     -8.712e-009    
  1               -2.3425e-009    5.6873e-005     1.0936e-008    
  1.05            -1.6864e-009    7.8688e-005     2.217e-009     
  1.1             -2.4743e-009    0.000101242     3.961e-009     
  1.15            -2.4781e-009    0.00012397      -1.0473e-008   
  1.2             -7.628e-010     0.0001452       -1.0664e-008   
  1.25            2.755e-009      0.00016548      -1.5195e-008   
  1.3             2.4292e-009     0.00018507      -1.947e-009    
  1.35            1.7287e-009     0.00020325      -3.833e-009    
  1.4             2.5352e-009     0.00022053      -8.819e-009    
  1.45            -2.3259e-009    0.00023729      1.0871e-008    
  1.5             -1.6846e-009    0.00025259      2.206e-009     
  1.55            -2.5781e-009    0.0002673       -5.744e-009    
  1.6             2.429e-009      0.00028105      -2.5432e-008   
  1.65            1.7167e-009     0.00029442      -4.261e-009    
  1.7             2.5441e-009     0.00030716      -8.926e-009    
  1.75            -2.31e-009      0.00031972      1.1049e-008    
  1.8             -1.6653e-009    0.00033121      2.371e-009     
  1.85            -2.4869e-009    0.0003425       4.261e-009     
  1.9             -7.91e-010      0.00035317      -1.0518e-008   
  1.95            2.7564e-009     0.00036342      -1.4475e-008   
  2               2.3916e-009     0.0003736       -2.192e-009    
  2.05            1.6883e-009     0.00038324      -4.1e-009      
  2.1             2.5496e-009     0.0003925       -8.933e-009    
  2.15            -2.2953e-009    0.00040184      1.1054e-008    
  2.2             -1.6492e-009    0.00041038      2.404e-009     
  2.25            -2.4952e-009    0.0004189       4.402e-009     
  2.3             -8.003e-010     0.00042696      -1.0429e-008   
  2.35            2.7542e-009     0.00043472      -1.4312e-008   
  2.4             2.3788e-009     0.00044265      -2.138e-009    
  2.45            1.6712e-009     0.00045008      -4.171e-009    
  2.5             2.556e-009      0.00045728      -8.982e-009    
  2.55            -2.4289e-009    0.00046443      2.5207e-008    
  2.6             -1.8081e-009    0.00047125      1.648e-009     
  2.65            -1.3506e-009    0.00047801      3.528e-009     
  2.7             -2.6023e-009    0.00048461      7.723e-009     
  2.75            2.278e-009      0.00049086      -2.5005e-008   
  2.8             1.5649e-009     0.00049705      -4.741e-009    
  2.85            2.605e-009      0.00050303      -9.126e-009    
  2.9             -2.3466e-009    0.00050901      2.5854e-008    
  2.95            -1.6972e-009    0.00051449      2.219e-009     
  3               -2.474e-009     0.00051996      4.12e-009      
  3.05            -7.645e-010     0.00052534      -1.0587e-008   
  3.1             2.7634e-009     0.00053042      -1.4994e-008   
  3.15            2.431e-009      0.00053576      -2.147e-009    
  3.2             1.7331e-009     0.00054066      -4.095e-009    
  3.25            2.5354e-009     0.00054537      -8.773e-009    
  3.3             -2.3326e-009    0.00055022      1.0959e-008    
  3.35            -1.6768e-009    0.00055466      2.289e-009     
  3.4             -2.4816e-009    0.00055916      4.247e-009     
  3.45            -7.734e-010     0.00056341      -1.0511e-008   
  3.5             2.7564e-009     0.00056752      -1.4897e-008   
  3.55            2.4175e-009     0.00057209      -1.985e-009    
  3.6             1.7192e-009     0.00057611      -3.989e-009    
  3.65            2.54e-009       0.00057998      -8.959e-009    
  3.7             -2.3186e-009    0.00058412      1.0863e-008    
  3.75            -7.882e-010     0.0005876       -1.0501e-008   
  3.8             2.7596e-009     0.00059126      -1.4617e-008   
  3.85            2.3939e-009     0.00059503      -2.166e-009    
  3.9             1.699e-009      0.0005985       -4.122e-009    
  3.95            2.5525e-009     0.00060188      -9.027e-009    
  4               -2.2994e-009    0.00060535      1.1213e-008    
  4.05            -1.6559e-009    0.00060847      2.285e-009     
  4.1             -2.5913e-009    0.00061171      -5.623e-009    
  4.15            -9.931e-010     0.00061475      -9.586e-009    
  4.2             1.607e-010      0.00061767      -1.1183e-008   
  4.25            2.7364e-009     0.00062079      -2.2348e-008   
  4.3             -1.4434e-009    0.00062391      1.8586e-008    
  4.35            -2.571e-009     0.00062675      6.225e-009     
  4.4             2.4534e-009     0.00062951      -2.5487e-008   
  4.45            1.7444e-009     0.00063213      -3.966e-009    
  4.5             2.531e-009      0.0006349       -8.849e-009    
  4.55            -2.3334e-009    0.00063764      1.0882e-008    
  4.6             -1.6896e-009    0.00063988      2.086e-009     
  4.65            -2.48e-009      0.00064233      4.119e-009     
  4.7             -7.729e-010     0.00064475      -1.0614e-008   
  4.75            2.7565e-009     0.000647        -1.507e-008    
  4.8             2.423e-009      0.00064957      -2.086e-009    
  4.85            1.7223e-009     0.00065174      -3.911e-009    
  4.9             2.5382e-009     0.00065393      -8.828e-009    
  4.95            -2.3239e-009    0.00065624      1.0971e-008    
  5               -1.6756e-009    0.00065811      2.198e-009     
END_DB

BEGIN_DB
 ICCAP_VAR VS         0              
 ICCAP_VAR VB         0              
 ICCAP_VAR VD         5              

 #VG              IG              ID              IB             
  0               8.679e-010      8.061e-010      1.6405e-008    
  0.05            2.7349e-009     -1.0331e-009    -2.5007e-008   
  0.1             -1.7407e-009    7.636e-010      1.8545e-008    
  0.15            -6.769e-010     -2.0513e-009    4.197e-009     
  0.2             2.0913e-009     -1.4189e-009    -1.7143e-008   
  0.25            4.827e-010      2.1422e-009     -6.533e-009    
  0.3             -2.1042e-009    6.496e-010      1.474e-008     
  0.35            -4.139e-010     -1.7611e-009    2.753e-009     
  0.4             2.69e-009       -1.676e-010     -1.0149e-008   
  0.45            -1.6149e-009    4.4558e-009     1.9954e-008    
  0.5             2.7457e-009     1.4093e-008     1.892e-008     
  0.55            2.6295e-009     5.1216e-008     -5.664e-009    
  0.6             2.7369e-009     1.9456e-007     -2.4605e-008   
  0.65            2.6395e-009     6.9165e-007     -5.4481e-008   
  0.7             2.7165e-009     2.2839e-006     -1.5584e-007   
  0.75            2.6717e-009     6.704e-006      -4.7025e-007   
  0.8             1.7569e-009     1.7115e-005     -1.10585e-006  
  0.85            -2.6015e-009    3.62e-005       -2.2877e-006   
  0.9             -2.5395e-009    6.6396e-005     -4.0831e-006   
  0.95            -2.0573e-009    0.000109189     -6.4068e-006   
  1               -2.5711e-009    0.0001635       -9.1537e-006   
  1.05            2.2655e-009     0.00022722      -1.2204e-005   
  1.1             1.5562e-009     0.00030158      -1.543e-005    
  1.15            2.6147e-009     0.00038494      -1.8821e-005   
  1.2             2.7472e-009     0.00047443      -2.2109e-005   
  1.25            2.4426e-009     0.00056937      -2.5341e-005   
  1.3             1.7569e-009     0.00066832      -2.8419e-005   
  1.35            2.5311e-009     0.00077213      -3.1342e-005   
  1.4             2.745e-009      0.0008804       -3.4015e-005   
  1.45            2.5899e-009     0.00099111      -3.6505e-005   
  1.5             1.9781e-009     0.0011039       -3.8749e-005   
  1.55            -2.3863e-009    0.0012229       -4.0761e-005   
  1.6             -1.7626e-009    0.0013397       -4.2568e-005   
  1.65            -1.3316e-009    0.0014595       -4.4095e-005   
  1.7             -2.6058e-009    0.0015807       -4.537e-005    
  1.75            -2.5007e-009    0.001702        -4.6462e-005   
  1.8             -1.9629e-009    0.0018265       -4.7313e-005   
  1.85            -1.4176e-009    0.0019517       -4.7962e-005   
  1.9             -2.5771e-009    0.0020779       -4.841e-005    
  1.95            -2.5734e-009    0.0022031       -4.8697e-005   
  2               -2.1583e-009    0.0023311       -4.8795e-005   
  2.05            -1.5452e-009    0.0024593       -4.873e-005    
  2.1             -2.5283e-009    0.002588        -4.8518e-005   
  2.15            -2.6078e-009    0.0027166       -4.8189e-005   
  2.2             -2.3494e-009    0.002846        -4.7716e-005   
  2.25            -1.7162e-009    0.0029769       -4.714e-005    
  2.3             -2.464e-009     0.0031077       -4.6457e-005   
  2.35            -2.6063e-009    0.0032372       -4.5698e-005   
  2.4             -2.488e-009     0.003368        -4.4845e-005   
  2.45            -1.9288e-009    0.0035005       -4.3938e-005   
  2.5             -1.3992e-009    0.003633        -4.2961e-005   
  2.55            -2.5777e-009    0.003765        -4.1929e-005   
  2.6             -2.5662e-009    0.0038957       -4.0869e-005   
  2.65            -2.1354e-009    0.0040284       -3.9758e-005   
  2.7             -1.5245e-009    0.0041615       -3.8616e-005   
  2.75            -2.5324e-009    0.0042934       -3.7445e-005   
  2.8             -2.6074e-009    0.0044281       -3.6283e-005   
  2.85            -2.3262e-009    0.0045601       -3.5084e-005   
  2.9             -1.6945e-009    0.0046938       -3.3902e-005   
  2.95            -2.4765e-009    0.0048278       -3.2725e-005   
  3               -2.6147e-009    0.0049603       -3.1553e-005   
  3.05            -2.4704e-009    0.0050928       -3.0381e-005   
  3.1             -1.8953e-009    0.0052263       -2.9215e-005   
  3.15            -1.3805e-009    0.0053601       -2.8074e-005   
  3.2             -2.5848e-009    0.005494        -2.6957e-005   
  3.25            -2.5615e-009    0.0056264       -2.5874e-005   
  3.3             -2.1153e-009    0.0057625       -2.4812e-005   
  3.35            -1.5056e-009    0.0058957       -2.3755e-005   
  3.4             -2.5434e-009    0.0060303       -2.2742e-005   
  3.45            -2.602e-009     0.0061623       -2.1749e-005   
  3.5             -2.2986e-009    0.006295        -2.0774e-005   
  3.55            -1.6645e-009    0.0064286       -1.9825e-005   
  3.6             -2.4848e-009    0.0065625       -1.8922e-005   
  3.65            -2.6076e-009    0.0066934       -1.8037e-005   
  3.7             -2.4506e-009    0.006827        -1.7191e-005   
  3.75            -1.8714e-009    0.0069595       -1.6361e-005   
  3.8             -1.373e-009     0.007092        -1.5566e-005   
  3.85            -2.5865e-009    0.0072247       -1.4801e-005   
  3.9             -2.5467e-009    0.0073547       -1.4076e-005   
  3.95            -2.0773e-009    0.007487        -1.3368e-005   
  4               -1.4813e-009    0.0076203       -1.2697e-005   
  4.05            -2.5468e-009    0.0077521       -1.2053e-005   
  4.1             -2.5994e-009    0.0078818       -1.1439e-005   
  4.15            -2.2786e-009    0.0080149       -1.0851e-005   
  4.2             -1.6451e-009    0.0081466       -1.0287e-005   
  4.25            2.6069e-009     0.0082749       -9.781e-006    
  4.3             1.9683e-009     0.0084101       -9.2766e-006   
  4.35            2.4371e-009     0.0085403       -8.7937e-006   
  4.4             2.7062e-009     0.0086743       -8.3116e-006   
  4.45            2.7045e-009     0.0088049       -7.8719e-006   
  4.5             2.1978e-009     0.0089352       -7.4579e-006   
  4.55            2.3584e-009     0.0090658       -7.0601e-006   
  4.6             2.6377e-009     0.0091974       -6.6703e-006   
  4.65            2.7506e-009     0.0093264       -6.3093e-006   
  4.7             2.4068e-009     0.0094547       -5.965e-006    
  4.75            1.7132e-009     0.0095851       -5.6463e-006   
  4.8             2.5433e-009     0.0097161       -5.3417e-006   
  4.85            2.7542e-009     0.009848        -5.039e-006    
  4.9             2.5795e-009     0.0099765       -4.7619e-006   
  4.95            1.9289e-009     0.0101059       -4.498e-006    
  5               2.4552e-009     0.010238        -4.2516e-006   
END_DB

BEGIN_DB
 ICCAP_VAR VS         0              
 ICCAP_VAR VB         -2.5           
 ICCAP_VAR VD         0.1            

 #VG              IG              ID              IB             
  0               -2.6133e-009    -1.9935e-009    -0.00043067    
  0.05            -8.354e-010     -2.081e-009     -0.00047746    
  0.1             -9.749e-010     -2.073e-009     -0.00052464    
  0.15            -1.1129e-009    -2.0225e-009    -0.00057381    
  0.2             1.6551e-009     -1.5412e-009    -0.00062452    
  0.25            7.17e-010       2.2115e-009     -0.00067551    
  0.3             8.916e-010      2.2367e-009     -0.0007287     
  0.35            1.0298e-009     2.1993e-009     -0.00078273    
  0.4             -1.5574e-009    1.5895e-009     -0.00083775    
  0.45            -8.263e-010     -2.0803e-009    -0.00089491    
  0.5             -9.611e-010     -2.0783e-009    -0.00095122    
  0.55            -1.0995e-009    -2.0306e-009    -0.00100903    
  0.6             -1.2448e-009    -1.9031e-009    -0.00106791    
  0.65            2.7388e-009     -1.6034e-009    -0.00112737    
  0.7             -6.51e-010      -2.0491e-009    -0.0011872     
  0.75            -8.365e-010     -2.0745e-009    -0.0012472     
  0.8             -9.754e-010     -2.0368e-009    -0.0013084     
  0.85            1.9292e-009     -1.2913e-009    -0.0013703     
  0.9             2.3179e-009     1.87e-009       -0.0014314     
  0.95            2.42e-009       5.4443e-009     -0.0014934     
  1               -2.4211e-009    2.3342e-008     -0.0015579     
  1.05            -1.7928e-009    1.03713e-007    -0.001621      
  1.1             8.612e-010      4.3311e-007     -0.0016828     
  1.15            -1.8995e-009    1.7076e-006     -0.0017475     
  1.2             -1.3883e-009    5.3428e-006     -0.0018104     
  1.25            1.5884e-009     1.3777e-005     -0.0018727     
  1.3             2.5856e-009     2.966e-005      -0.0019332     
  1.35            2.7558e-009     5.4179e-005     -0.0019943     
  1.4             2.4702e-009     8.5623e-005     -0.0020549     
  1.45            2.723e-009      0.00012168      -0.0021148     
  1.5             2.2227e-009     0.00016073      -0.0021734     
  1.55            2.3414e-009     0.0001998       -0.0022316     
  1.6             2.6141e-009     0.00023868      -0.0022878     
  1.65            2.7625e-009     0.00027618      -0.0023431     
  1.7             2.4501e-009     0.00031199      -0.002397      
  1.75            1.762e-009      0.00034627      -0.0024497     
  1.8             2.5086e-009     0.00037903      -0.0025009     
  1.85            2.7476e-009     0.00041073      -0.00255       
  1.9             2.6196e-009     0.00044084      -0.0025984     
  1.95            1.9953e-009     0.00046996      -0.0026448     
  2               2.4114e-009     0.00049777      -0.0026903     
  2.05            2.686e-009      0.00052504      -0.002734      
  2.1             2.7251e-009     0.00055112      -0.0027771     
  2.15            2.238e-009      0.00057604      -0.0028186     
  2.2             1.5624e-009     0.0006004       -0.0028585     
  2.25            2.5969e-009     0.00062371      -0.0028978     
  2.3             2.764e-009      0.00064707      -0.0029353     
  2.35            2.4649e-009     0.00066934      -0.002972      
  2.4             1.7781e-009     0.00069093      -0.0030075     
  2.45            2.5006e-009     0.00071188      -0.0030424     
  2.5             2.7448e-009     0.00073243      -0.0030755     
  2.55            2.6332e-009     0.00075252      -0.0031085     
  2.6             2.0145e-009     0.00077159      -0.0031401     
  2.65            2.4089e-009     0.00079048      -0.0031711     
  2.7             2.6762e-009     0.000809        -0.003201      
  2.75            2.7323e-009     0.00082703      -0.0032304     
  2.8             2.2608e-009     0.00084487      -0.0032594     
  2.85            1.5748e-009     0.00086186      -0.0032867     
  2.9             2.5836e-009     0.00087837      -0.0033137     
  2.95            2.7615e-009     0.00089503      -0.0033396     
  3               2.4708e-009     0.00091099      -0.0033653     
  3.05            1.7867e-009     0.00092658      -0.0033899     
  3.1             2.4903e-009     0.00094155      -0.0034143     
  3.15            2.7409e-009     0.00095665      -0.0034377     
  3.2             2.6355e-009     0.0009713       -0.0034606     
  3.25            2.0285e-009     0.0009853       -0.0034831     
  3.3             2.3975e-009     0.00099946      -0.0035048     
  3.35            2.6762e-009     0.00101302      -0.0035258     
  3.4             2.7338e-009     0.00102632      -0.0035466     
  3.45            2.2758e-009     0.00103917      -0.0035668     
  3.5             1.5893e-009     0.0010521       -0.0035866     
  3.55            2.5808e-009     0.00106417      -0.0036058     
  3.6             2.7587e-009     0.00107642      -0.0036245     
  3.65            2.4825e-009     0.00108838      -0.0036427     
  3.7             1.7974e-009     0.00110001      -0.0036599     
  3.75            2.4835e-009     0.00111135      -0.0036773     
  3.8             2.741e-009      0.00112272      -0.0036941     
  3.85            2.6388e-009     0.00113357      -0.0037107     
  3.9             -1.6861e-009    0.0011449       -0.0037271     
  3.95            -2.4713e-009    0.001155        -0.003743      
  4               -2.6143e-009    0.0011651       -0.0037583     
  4.05            -2.4621e-009    0.001175        -0.0037731     
  4.1             -1.8733e-009    0.0011848       -0.0037877     
  4.15            -1.3823e-009    0.0011948       -0.003802      
