! VERSION = 6.00
BEGIN_HEADER
 ICCAP_INPUTS
  VG         V  B GROUND SMU4 0.001 LIN        2    0          5          6    1         
  VS         V  E GROUND SMU2 0.1 CON        0
  VD         V  S GROUND SMU1 0.1 LIN        1    0          5          101  0.05      
  VB         V  C GROUND SMU3 0.1 LIN        3    0          -2.5       2    -2.5      
 ICCAP_OUTPUTS
  ID         I  S GROUND SMU1 B
  IB         I  C GROUND SMU3 B
  IG         I  B GROUND SMU4 B
END_HEADER

BEGIN_DB
 ICCAP_VAR VG         0              
 ICCAP_VAR VS         0              
 ICCAP_VAR VB         0              

 #VD              ID              IB              IG             
  0               -3.788e-010     -2.1847e-008    2.8262e-009    
  0.05            1.811e-009      2.0091e-008     -2.042e-009    
  0.1             -1.9914e-009    4.538e-009      -6.298e-010    
  0.15            -1.9779e-009    -1.2143e-008    -8.227e-010    
  0.2             -1.2393e-009    -1.0691e-008    2.5413e-009    
  0.25            1.3665e-009     -5.337e-009     2.3561e-009    
  0.3             1.5322e-009     2.8198e-008     -1.3872e-009   
  0.35            1.758e-010      1.1244e-008     -1.3871e-009   
  0.4             3.171e-010      1.2533e-008     -2.7065e-009   
  0.45            -1.2577e-009    -2.4485e-008    2.5104e-009    
  0.5             1.3677e-009     -5.404e-009     2.376e-009     
  0.55            8.127e-010      1.7218e-008     -2.3533e-009   
  0.6             -1.9717e-009    2.699e-009      -3.763e-010    
  0.65            -1.9894e-009    -1.3659e-008    -5.884e-010    
  0.7             -1.9801e-009    -1.2413e-008    -7.921e-010    
  0.75            -1.2047e-009    -1.0971e-008    2.5822e-009    
  0.8             1.3702e-009     -4.634e-009     2.3268e-009    
  0.85            1.5074e-009     2.8141e-008     -1.3877e-009   
  0.9             1.509e-010      1.1085e-008     -1.3875e-009   
  0.95            2.953e-010      1.2372e-008     -1.3747e-009   
  1               4.398e-010      1.3565e-008     -2.6727e-009   
  1.05            -1.921e-009     -1.3158e-008    -1.767e-010    
  1.1             -1.9762e-009    -1.3536e-008    -3.923e-010    
  1.15            -1.9852e-009    -1.3289e-008    -6.121e-010    
  1.2             -1.9763e-009    -1.1949e-008    -8.066e-010    
  1.25            -1.2208e-009    -1.0614e-008    1.3178e-009    
  1.3             1.3701e-009     -1.1932e-008    2.3404e-009    
  1.35            1.5245e-009     2.8451e-008     -1.3874e-009   
  1.4             1.689e-010      1.1212e-008     -1.3887e-009   
  1.45            3.089e-010      1.2371e-008     -2.7123e-009   
  1.5             -1.2435e-009    -2.5049e-008    1.317e-009     
  1.55            1.3706e-009     -1.2431e-008    2.3545e-009    
  1.6             1.5393e-009     2.848e-008      -1.3861e-009   
  1.65            1.868e-010      1.1281e-008     -1.3868e-009   
  1.7             3.227e-010      1.2626e-008     -1.3692e-009   
  1.75            4.859e-010      1.4066e-008     -2.6587e-009   
  1.8             -1.7761e-009    5.45e-010       6.67e-011      
  1.85            -8.342e-010     -2.4544e-008    1.5044e-009    
  1.9             1.6602e-009     -8.848e-009     1.9081e-009    
  1.95            2.5259e-009     1.1934e-008     5.244e-010     
  2               2.5505e-009     1.0907e-008     7.061e-010     
  2.05            2.5601e-009     9.302e-009      8.642e-010     
  2.1             1.9466e-009     1.4709e-008     -1.7715e-009   
  2.15            -1.9724e-009    5.979e-009      -8.227e-010    
  2.2             -1.2294e-009    -1.0522e-008    1.3168e-009    
  2.25            1.3726e-009     -1.2454e-008    2.354e-009     
  2.3             1.5417e-009     2.8439e-008     -1.3851e-009   
  2.35            1.85e-010       1.1404e-008     -1.3873e-009   
  2.4             3.257e-010      1.2462e-008     -1.3688e-009   
  2.45            4.868e-010      1.4033e-008     -2.6614e-009   
  2.5             -1.7697e-009    5.53e-010       7.28e-011      
  2.55            -1.8995e-009    -1.3042e-008    -1.288e-010    
  2.6             -1.9661e-009    -1.3483e-008    -3.498e-010    
  2.65            -1.9821e-009    -1.3518e-008    -5.663e-010    
  2.7             -1.9712e-009    -1.2295e-008    -7.698e-010    
  2.75            -1.1865e-009    -1.085e-008     1.3174e-009    
  2.8             1.3771e-009     -1.1463e-008    2.3115e-009    
  2.85            1.4987e-009     2.8193e-008     -1.3876e-009   
  2.9             1.531e-010      1.0643e-008     -1.3884e-009   
  2.95            2.878e-010      1.2297e-008     -1.377e-009    
  3               4.439e-010      1.3362e-008     -2.6766e-009   
  3.05            -1.9076e-009    -1.3156e-008    -1.59e-010     
  3.1             -1.9654e-009    -1.3547e-008    -3.828e-010    
  3.15            -1.9791e-009    -1.3448e-008    -5.916e-010    
  3.2             -1.9681e-009    -1.2077e-008    -7.989e-010    
  3.25            -1.2038e-009    -1.066e-008     1.3179e-009    
  3.3             1.3776e-009     -1.1876e-008    2.3326e-009    
  3.35            1.5241e-009     2.8394e-008     -1.3852e-009   
  3.4             1.707e-010      1.0857e-008     -1.3891e-009   
  3.45            3.111e-010      1.2461e-008     -2.7121e-009   
  3.5             -1.2295e-009    -2.5188e-008    2.5472e-009    
  3.55            1.3815e-009     -5.429e-009     2.3528e-009    
  3.6             1.55e-009       2.8501e-008     -1.385e-009    
  3.65            1.918e-010      1.1313e-008     -1.3877e-009   
  3.7             3.35e-010       1.2631e-008     -1.3697e-009   
  3.75            4.948e-010      1.419e-008      -2.6582e-009   
  3.8             -1.7628e-009    4.31e-010       7.07e-011      
  3.85            -1.8895e-009    -1.3085e-008    -1.301e-010    
  3.9             -1.9563e-009    -1.358e-008     -3.597e-010    
  3.95            -1.9721e-009    -1.3528e-008    -5.773e-010    
  4               -1.9589e-009    -1.2302e-008    -7.783e-010    
  4.05            -1.1828e-009    -1.0769e-008    1.3179e-009    
  4.1             1.3892e-009     -1.1322e-008    2.3177e-009    
  4.15            1.5217e-009     2.8394e-008     -1.3853e-009   
  4.2             1.795e-010      1.0922e-008     -1.3872e-009   
  4.25            3.141e-010      1.2267e-008     -1.3743e-009   
  4.3             4.675e-010      1.3678e-008     -2.6784e-009   
  4.35            -1.897e-009     -1.3169e-008    -1.773e-010    
  4.4             -1.9538e-009    -1.3655e-008    -4.03e-010     
  4.45            -1.9609e-009    -1.3378e-008    -6.104e-010    
  4.5             -1.9481e-009    -1.203e-008     -8.118e-010    
  4.55            -1.1987e-009    -1.0508e-008    1.3171e-009    
  4.6             1.3997e-009     -1.2148e-008    2.3458e-009    
  4.65            1.5639e-009     2.8336e-008     -1.3864e-009   
  4.7             2.128e-010      1.1113e-008     -1.3868e-009   
  4.75            3.536e-010      1.2592e-008     -1.3703e-009   
  4.8             5.182e-010      1.4112e-008     -2.6665e-009   
  4.85            -1.7407e-009    5.29e-010       7.33e-011      
  4.9             -7.928e-010     -2.458e-008     1.502e-009     
  4.95            1.3354e-009     -8.761e-009     2.7692e-009    
  5               2.5673e-009     1.198e-008      5.197e-010     
END_DB

BEGIN_DB
 ICCAP_VAR VG         1              
 ICCAP_VAR VS         0              
 ICCAP_VAR VB         0              

 #VD              ID              IB              IG             
  0               -4.3143e-007    -9.39e-009      2.854e-009     
  0.05            4.9242e-005     1.0131e-008     -2.1853e-009   
  0.1             8.0051e-005     2.442e-008      -1.3925e-009   
  0.15            9.7154e-005     2.7087e-008     -1.3647e-009   
  0.2             0.000105982     1.1644e-008     8.226e-010     
  0.25            0.000110901     -2.5457e-008    1.3237e-009    
  0.3             0.00011615      -2.7082e-008    -1.3041e-009   
  0.35            0.00011951      2.2499e-008     -1.7568e-009   
  0.4             0.00012047      9.622e-009      1.0336e-009    
  0.45            0.00012258      -2.6221e-008    2.2614e-009    
  0.5             0.00012496      -1.3359e-008    -9.314e-010    
  0.55            0.00012784      2.8125e-008     -1.3909e-009   
  0.6             0.00012837      1.2022e-008     6.544e-010     
  0.65            0.00012884      -2.4706e-008    1.3304e-009    
  0.7             0.00013124      -1.3207e-008    -4.866e-010    
  0.75            0.00013331      6.894e-009      -1.3858e-009   
  0.8             0.00013492      2.1108e-008     -1.6877e-009   
  0.85            0.00013477      9.245e-009      1.0752e-009    
  0.9             0.00013607      -2.5221e-008    2.1637e-009    
  0.95            0.00013769      -1.2962e-008    -9.714e-010    
  1               0.00014015      2.8488e-008     -1.3893e-009   
  1.05            0.00014008      1.1983e-008     7.079e-010     
  1.1             0.00014032      -2.5534e-008    1.3206e-009    
  1.15            0.00014212      -1.3445e-008    -5.413e-010    
  1.2             0.00014406      7.137e-009      -1.3853e-009   
  1.25            0.00014458      1.1887e-008     5.327e-010     
  1.3             0.00014472      -9.239e-009     1.3183e-009    
  1.35            0.000148        -1.1908e-008    -1.714e-009    
  1.4             0.00014857      1.0134e-008     -2.101e-010    
  1.45            0.00014778      -1.8601e-008    2.4602e-009    
  1.5             0.00014955      -1.3632e-008    -8.267e-010    
  1.55            0.00015176      2.6469e-008     -1.3856e-009   
  1.6             0.00015155      1.1855e-008     5.271e-010     
  1.65            0.00015153      -9.278e-009     1.3179e-009    
  1.7             0.00015486      -1.1983e-008    -1.7137e-009   
  1.75            0.00015507      9.878e-009      -2.052e-010    
  1.8             0.00015448      -1.9014e-008    2.4624e-009    
  1.85            0.00015635      -1.3961e-008    -8.299e-010    
  1.9             0.00015811      8.236e-009      -1.3837e-009   
  1.95            0.00015802      1.0844e-008     7.798e-010     
  2               0.00015806      -2.7929e-008    1.317e-009     
  2.05            0.00016131      -1.3984e-008    -1.7163e-009   
  2.1             0.00016167      1.4547e-008     -1.9121e-009   
  2.15            0.0001628       1.0782e-008     -2.4291e-009   
  2.2             0.00016364      6.177e-009      -2.6754e-009   
  2.25            0.00016424      9.866e-009      -1.9889e-009   
  2.3             0.00016531      4.378e-009      -2.4821e-009   
  2.35            0.00016508      -1.7879e-008    -2.7247e-009   
  2.4             0.00016689      -1.404e-009     -2.4352e-009   
  2.45            0.00016595      -1.0713e-008    2.1677e-009    
  2.5             0.00016722      -3.8931e-008    -4.267e-010    
  2.55            0.00016934      -1.2212e-008    -1.501e-009    
  2.6             0.00016851      -3.1048e-008    2.6799e-009    
  2.65            0.00017004      -6.0121e-008    -1.1048e-009   
  2.7             0.00017165      -3.0138e-008    -1.3772e-009   
  2.75            0.00017088      -6.9669e-008    2.8631e-009    
  2.8             0.0001739       -9.6889e-008    -1.7582e-009   
  2.85            0.00017372      -9.2477e-008    -1.63e-010     
  2.9             0.00017367      -1.142e-007     4.674e-010     
  2.95            0.00017594      -1.3056e-007    -2.6268e-009   
  3               0.00017393      -1.5604e-007    1.9536e-009    
  3.05            0.00017559      -2.0781e-007    -1.356e-010    
  3.1             0.00017816      -2.0997e-007    -1.7552e-009   
  3.15            0.00017751      -2.5544e-007    2.5352e-009    
  3.2             0.00017884      -3.1986e-007    -9.098e-010    
  3.25            0.00018064      -3.2256e-007    -1.3879e-009   
  3.3             0.0001797       -3.9871e-007    2.85e-009      
  3.35            0.00018265      -4.7682e-007    -1.5449e-009   
  3.4             0.00018318      -5.1581e-007    -1.5043e-009   
  3.45            0.00018236      -5.9441e-007    2.6771e-009    
  3.5             0.00018396      -7.0146e-007    -1.1019e-009   
  3.55            0.00018573      -7.471e-007     -1.3775e-009   
  3.6             0.00018493      -8.8115e-007    2.8645e-009    
  3.65            0.00018815      -1.01533e-006   -1.7546e-009   
  3.7             0.000188        -1.11714e-006   -1.663e-010    
  3.75            0.00018785      -1.2622e-006    2.8581e-009    
  3.8             0.00019039      -1.4381e-006    -1.8468e-009   
  3.85            0.00019061      -1.5832e-006    -4.92e-011     
  3.9             0.00019005      -1.7969e-006    2.1647e-009    
  3.95            0.00019189      -1.9997e-006    -2.3277e-009   
  4               0.00019313      -2.1921e-006    6.794e-010     
  4.05            0.00019294      -2.4906e-006    1.3261e-009    
  4.1             0.00019562      -2.7438e-006    -2.7399e-009   
  4.15            0.00019495      -2.9992e-006    1.2742e-009    
  4.2             0.0001967       -3.3591e-006    1.7404e-009    
  4.25            0.00019875      -3.6874e-006    -2.5469e-009   
  4.3             0.0001998       -4.0119e-006    8.839e-010     
  4.35            0.00020028      -4.4867e-006    2.5471e-009    
  4.4             0.00020243      -4.8817e-006    -2.1269e-009   
  4.45            0.00020416      -5.2912e-006    4.429e-010     
  4.5             0.00020397      -5.8316e-006    1.45e-009      
  4.55            0.00020687      -6.3618e-006    -2.6956e-009   
  4.6             0.00020752      -6.8611e-006    1.0736e-009    
  4.65            0.00020901      -7.559e-006     2.178e-009     
  4.7             0.00021124      -8.146e-006     -2.3287e-009   
  4.75            0.00021315      -8.7503e-006    6.769e-010     
  4.8             0.00021346      -9.5702e-006    1.3262e-009    
  4.85            0.0002169       -1.03154e-005   -2.7375e-009   
  4.9             0.00021668      -1.10245e-005   1.274e-009     
  4.95            0.00021816      -1.1826e-005    1.3413e-009    
  5               0.00022098      -1.2792e-005    1.6259e-009    
END_DB

BEGIN_DB
 ICCAP_VAR VG         2              
 ICCAP_VAR VS         0              
 ICCAP_VAR VB         0              

 #VD              ID              IB              IG             
  0               -2.9264e-006    -1.2644e-008    -1.073e-010    
  0.05            0.00023804      1.011e-009      -1.4669e-009   
  0.1             0.00046995      2.8011e-008     -1.379e-009    
  0.15            0.00069171      1.1343e-008     8.627e-010     
  0.2             0.00090322      -2.7434e-008    2.5657e-009    
  0.25            0.00110296      -1.3675e-008    -7.467e-010    
  0.3             0.0012901       1.0609e-008     -4.13e-011     
  0.35            0.0014645       1.7171e-008     -1.8621e-009   
  0.4             0.0016234       1.0305e-008     9.674e-010     
  0.45            0.0017671       -2.6693e-008    2.3795e-009    
  0.5             0.0018964       -1.3591e-008    -8.64e-010     
  0.55            0.0020106       2.765e-008      -1.3953e-009   
  0.6             0.0021084       1.1932e-008     5.626e-010     
  0.65            0.0021886       -8.635e-009     2.8349e-009    
  0.7             0.0022612       -1.0031e-008    -1.4944e-009   
  0.75            0.0023175       1.5415e-008     -1.529e-009    
  0.8             0.0023637       2.8705e-008     -1.3929e-009   
  0.85            0.0023996       1.175e-008      7.843e-010     
  0.9             0.0024281       -2.7071e-008    1.326e-009     
  0.95            0.0024586       -1.0989e-008    -1.7108e-009   
  1               0.0024772       1.0183e-008     -2.065e-010    
  1.05            0.0024906       -1.8452e-008    2.4337e-009    
  1.1             0.0025081       -1.3562e-008    -8.284e-010    
  1.15            0.0025237       2.7266e-008     -1.3946e-009   
  1.2             0.0025333       1.1902e-008     5.265e-010     
  1.25            0.002541        -8.856e-009     2.8216e-009    
  1.3             0.0025493       -1.1434e-008    2.207e-010     
  1.35            0.0025632       1.5813e-008     -2.292e-009    
  1.4             0.0025678       1.1833e-008     7.179e-010     
  1.45            0.0025732       -2.661e-008     1.3276e-009    
  1.5             0.0025822       -1.3592e-008    -5.773e-010    
  1.55            0.002591        7.336e-009      -1.395e-009    
  1.6             0.0025912       9.288e-009      1.5998e-009    
  1.65            0.0025996       -1.1389e-008    2.307e-010     
  1.7             0.0026097       1.5885e-008     -2.2959e-009   
  1.75            0.0026134       1.1854e-008     7.199e-010     
  1.8             0.0026167       -2.6534e-008    1.3299e-009    
  1.85            0.0026279       -1.0791e-008    -1.6512e-009   
  1.9             0.0026313       1.155e-008      -2.671e-010    
  1.95            0.0026314       -1.817e-008     2.5406e-009    
  2               0.0026382       -1.3751e-008    -7.608e-010    
  2.05            0.0026451       8.188e-009      -1.3958e-009   
  2.1             0.0026474       1.1574e-008     7.098e-010     
  2.15            0.0026487       -2.6964e-008    1.3324e-009    
  2.2             0.0026596       -1.1811e-008    -1.6415e-009   
  2.25            0.0026624       1.4677e-008     -1.9979e-009   
  2.3             0.0026663       1.1147e-008     -2.5074e-009   
  2.35            0.0026703       1.4611e-008     -1.5834e-009   
  2.4             0.0026738       9.946e-009      -2.0913e-009   
  2.45            0.0026774       4.343e-009      -2.5583e-009   
  2.5             0.0026805       -1.9322e-008    -2.7334e-009   
  2.55            0.0026798       -1.0224e-008    1.4501e-009    
  2.6             0.0026853       -3.9889e-008    1.4988e-009    
  2.65            0.0026911       -4.5205e-008    -2.6617e-009   
  2.7             0.0026937       -3.9222e-008    1.0297e-009    
  2.75            0.0026959       -9.0894e-008    2.2422e-009    
  2.8             0.0027005       -9.5757e-008    -2.2853e-009   
  2.85            0.0027039       -1.005e-007     -2.7226e-009   
  2.9             0.0027097       -1.349e-007     -1.8871e-009   
  2.95            0.0027112       -1.7541e-007    1.92e-011      
  3               0.0027112       -2.5304e-007    2.0164e-009    
  3.05            0.0027161       -3.0334e-007    -2.3898e-009   
  3.1             0.0027202       -3.5375e-007    7.328e-010     
  3.15            0.0027202       -4.7655e-007    1.329e-009     
  3.2             0.0027266       -5.581e-007     -2.7293e-009   
  3.25            0.0027257       -6.6175e-007    1.3317e-009    
  3.3             0.0027302       -8.2599e-007    1.6415e-009    
  3.35            0.0027365       -9.8143e-007    -2.5872e-009   
  3.4             0.0027393       -1.1731e-006    -6.674e-010    
  3.45            0.0027448       -1.3559e-006    -1.4088e-009   
  3.5             0.0027448       -1.6196e-006    2.7672e-009    
  3.55            0.0027511       -1.9244e-006    -1.2828e-009   
  3.6             0.0027543       -2.2169e-006    -1.7764e-009   
  3.65            0.0027546       -2.6085e-006    2.5186e-009    
  3.7             0.0027586       -3.0497e-006    -8.844e-010    
  3.75            0.0027648       -3.4937e-006    -1.3947e-009   
  3.8             0.0027649       -4.0559e-006    2.8367e-009    
  3.85            0.0027728       -4.6801e-006    -1.5018e-009   
  3.9             0.0027746       -5.3395e-006    -1.5221e-009   
  3.95            0.0027756       -6.1231e-006    2.6477e-009    
  4               0.0027808       -7.0041e-006    -1.0714e-009   
  4.05            0.0027866       -7.9346e-006    -1.3873e-009   
  4.1             0.0027885       -9.0379e-006    2.8774e-009    
  4.15            0.0027976       -1.02494e-005   -1.7152e-009   
