! VERSION = 6.00
BEGIN_HEADER
 ICCAP_INPUTS
  VG         V  B GROUND SMU4 0.001 LIN        2    0          5          6    1         
  VS         V  E GROUND SMU2 0.1 CON        0
  VD         V  S GROUND SMU1 0.1 LIN        1    0          5          101  0.05      
  VB         V  C GROUND SMU3 0.1 LIN        3    0          -2.5       2    -2.5      
 ICCAP_OUTPUTS
  ID         I  S GROUND SMU1 B
  IB         I  C GROUND SMU3 B
  IG         I  B GROUND SMU4 B
END_HEADER

BEGIN_DB
 ICCAP_VAR VG         0              
 ICCAP_VAR VS         0              
 ICCAP_VAR VB         0              

 #VD              ID              IB              IG             
  0               8.429e-010      1.9365e-008     8.655e-010     
  0.05            -1.0704e-009    -2.4792e-008    2.6353e-009    
  0.1             2.1027e-009     9.225e-009      3.038e-010     
  0.15            5.092e-010      1.276e-008      -2.3243e-009   
  0.2             -1.8614e-009    2.192e-009      -2.169e-010    
  0.25            -1.934e-009     -1.0504e-008    -4.29e-010     
  0.3             -1.2301e-009    -2.185e-008     2.4029e-009    
  0.35            2.15e-009       -3.91e-009      1.1538e-009    
  0.4             4.883e-010      1.2627e-008     -2.3546e-009   
  0.45            -1.8445e-009    1.844e-009      -1.865e-010    
  0.5             -1.0681e-009    -2.4785e-008    2.6346e-009    
  0.55            9.238e-010      2.1908e-008     -1.5666e-009   
  0.6             -2.0073e-009    5.691e-009      -8.325e-010    
  0.65            -7.216e-010     -2.0209e-008    1.8316e-009    
  0.7             2.2592e-009     -8.577e-009     6.471e-010     
  0.75            7.811e-010      1.7957e-008     -1.8501e-009   
  0.8             -1.9763e-009    4.159e-009      -6.104e-010    
  0.85            -2.0078e-009    -9.39e-009      -8.053e-010    
  0.9             -1.4383e-009    -1.4591e-008    1.8835e-009    
  0.95            2.2468e-009     -8.302e-009     6.149e-010     
  1               7.603e-010      1.7538e-008     -1.8956e-009   
  1.05            -1.9647e-009    4.033e-009      -5.724e-010    
  1.1             -2.0058e-009    -9.497e-009     -7.782e-010    
  1.15            -1.425e-009     -1.5266e-008    1.9285e-009    
  1.2             2.2356e-009     -7.903e-009     5.861e-010     
  1.25            7.355e-010      1.6996e-008     -1.9394e-009   
  1.3             -1.9619e-009    3.712e-009      -5.357e-010    
  1.35            -5.223e-010     -1.679e-008     2.2751e-009    
  1.4             2.0712e-009     -4.714e-009     1.23e-009      
  1.45            5.649e-010      1.3675e-008     -2.2466e-009   
  1.5             -1.5122e-009    -1.1807e-008    2.7418e-009    
  1.55            2.2964e-009     -1.694e-009     8.164e-010     
  1.6             9.045e-010      2.1315e-008     -1.6055e-009   
  1.65            -2.0072e-009    5.397e-009      -8.011e-010    
  1.7             -1.4358e-009    -1.4705e-008    1.8958e-009    
  1.75            2.2461e-009     -8.331e-009     6.109e-010     
  1.8             7.584e-010      1.7382e-008     -1.8998e-009   
  1.85            -1.967e-009     3.825e-009      -5.629e-010    
  1.9             -5.484e-010     -1.7081e-008    2.2399e-009    
  1.95            2.0506e-009     -5.191e-009     1.2516e-009    
  2               5.866e-010      1.4024e-008     -2.2116e-009   
  2.05            -1.8973e-009    2.533e-009      -3.13e-010     
  2.1             -1.9557e-009    -1.0193e-008    -5.26e-010     
  2.15            -1.2845e-009    -2.0262e-008    2.2964e-009    
  2.2             2.0842e-009     -4.659e-009     1.2163e-009    
  2.25            5.54e-010       1.3257e-008     -2.2631e-009   
  2.3             -1.8835e-009    2.241e-009      -2.689e-010    
  2.35            -1.9471e-009    -1.0396e-008    -4.825e-010    
  2.4             -1.2557e-009    -2.0972e-008    2.3481e-009    
  2.45            2.1129e-009     -4.161e-009     1.1862e-009    
  2.5             5.177e-010      1.2846e-008     -2.3042e-009   
  2.55            -1.8588e-009    2.039e-009      -2.237e-010    
  2.6             -1.941e-009     -1.0397e-008    -4.407e-010    
  2.65            -1.2254e-009    -2.183e-008     2.4016e-009    
  2.7             2.1494e-009     -3.822e-009     1.153e-009     
  2.75            4.841e-010      1.2668e-008     -2.3509e-009   
  2.8             -1.8428e-009    1.967e-009      -1.806e-010    
  2.85            -1.0619e-009    -2.479e-008     2.6313e-009    
  2.9             9.251e-010      2.1902e-008     -1.5726e-009   
  2.95            -2.0051e-009    5.65e-009       -8.271e-010    
  3               -1.4441e-009    -1.4177e-008    1.851e-009     
  3.05            2.2594e-009     -8.618e-009     6.345e-010     
  3.1             7.821e-010      1.8092e-008     -1.8637e-009   
  3.15            -1.9708e-009    3.76e-009       -5.968e-010    
  3.2             -2.0032e-009    -9.54e-009      -7.943e-010    
  3.25            -1.4302e-009    -1.4853e-008    1.9019e-009    
  3.3             2.2444e-009     -8.262e-009     6.01e-010      
  3.35            7.518e-010      1.7517e-008     -1.9238e-009   
  3.4             -1.9641e-009    3.544e-009      -5.566e-010    
  3.45            -2.0001e-009    -9.682e-009     -7.643e-010    
  3.5             -1.4114e-009    -1.56e-008      1.9677e-009    
  3.55            2.2307e-009     -7.611e-009     5.704e-010     
  3.6             7.238e-010      1.6829e-008     -1.9704e-009   
  3.65            -1.9502e-009    3.558e-009      -5.157e-010    
  3.7             -1.2744e-009    -2.0382e-008    2.312e-009     
  3.75            2.0954e-009     -4.433e-009     1.21e-009      
  3.8             5.517e-010      1.3392e-008     -2.269e-009    
  3.85            -1.8731e-009    2.362e-009      -2.585e-010    
  3.9             -1.9399e-009    -1.0389e-008    -4.671e-010    
  3.95            -1.2455e-009    -2.1146e-008    2.3531e-009    
  4               2.1323e-009     -4.189e-009     1.1777e-009    
  4.05            1.2021e-009     2.5613e-008     -2.4473e-009   
  4.1             -1.7783e-009    1.382e-009      -8.14e-011     
  4.15            -9.917e-010     -2.4825e-008    2.6972e-009    
  4.2             8.76e-010       2.0317e-008     -1.6887e-009   
  4.25            -1.9941e-009    4.837e-009      -7.43e-010     
  4.3             -1.3987e-009    -1.602e-008     1.9879e-009    
  4.35            2.2274e-009     -7.234e-009     5.521e-010     
  4.4             7.193e-010      1.6597e-008     -1.9946e-009   
  4.45            -1.9399e-009    3.348e-009      -4.978e-010    
  4.5             -1.2568e-009    -2.0716e-008    2.3216e-009    
  4.55            2.1084e-009     -4.455e-009     1.1989e-009    
  4.6             5.384e-010      1.3041e-008     -2.2877e-009   
  4.65            -1.9449e-009    -1.022e-008     -5.329e-010    
  4.7             -1.2723e-009    -2.0111e-008    2.283e-009     
  4.75            2.0952e-009     -4.631e-009     1.2177e-009    
  4.8             5.671e-010      1.345e-008      -2.2517e-009   
  4.85            -1.8668e-009    2.364e-009      -2.728e-010    
  4.9             -1.9384e-009    -1.0319e-008    -4.928e-010    
  4.95            -1.2417e-009    -2.103e-008     2.3422e-009    
  5               2.1267e-009     -4.254e-009     1.1921e-009    
END_DB

BEGIN_DB
 ICCAP_VAR VG         1              
 ICCAP_VAR VS         0              
 ICCAP_VAR VB         0              

 #VD              ID              IB              IG             
  0               4.0185e-007     -2.3292e-008    1.1635e-009    
  0.05            3.0733e-005     9.356e-009      -2.5274e-009   
  0.1             4.9758e-005     1.7485e-008     -1.5253e-009   
  0.15            6.0066e-005     2.5866e-008     -2.3383e-009   
  0.2             6.5039e-005     1.6839e-008     -1.5947e-009   
  0.25            6.7351e-005     2.5137e-008     -2.4104e-009   
  0.3             6.8633e-005     1.5884e-008     -1.6736e-009   
  0.35            6.952e-005      1.1156e-008     -2.3404e-009   
  0.4             6.9989e-005     1.6676e-008     -1.5967e-009   
  0.45            7.0478e-005     2.5293e-008     -2.411e-009    
  0.5             7.0973e-005     1.5735e-008     -1.6723e-009   
  0.55            7.1334e-005     1.1254e-008     -2.3422e-009   
  0.6             7.1604e-005     1.6743e-008     -1.595e-009    
  0.65            7.2033e-005     2.5331e-008     -2.4043e-009   
  0.7             7.223e-005      1.585e-008      -1.6808e-009   
  0.75            7.2504e-005     1.1108e-008     -2.3408e-009   
  0.8             7.2745e-005     1.66e-008       -1.6045e-009   
  0.85            7.3039e-005     2.5351e-008     -2.4099e-009   
  0.9             7.3282e-005     1.572e-008      -1.6833e-009   
  0.95            7.3516e-005     1.105e-008      -2.3367e-009   
  1               7.3663e-005     1.6787e-008     -1.6065e-009   
  1.05            7.3973e-005     2.5287e-008     -2.4098e-009   
  1.1             7.4162e-005     1.5623e-008     -1.6829e-009   
  1.15            7.4339e-005     2.4637e-008     -2.4691e-009   
  1.2             7.4517e-005     1.4543e-008     -1.778e-009    
  1.25            7.4794e-005     1.1004e-008     -2.4131e-009   
  1.3             7.4913e-005     1.5779e-008     -1.6927e-009   
  1.35            7.5091e-005     1.1122e-008     -2.3462e-009   
  1.4             7.5217e-005     1.6565e-008     -1.6043e-009   
  1.45            7.531e-005      2.5301e-008     -2.4176e-009   
  1.5             7.5585e-005     1.5705e-008     -1.6914e-009   
  1.55            7.5832e-005     1.0995e-008     -2.3486e-009   
  1.6             7.5794e-005     1.6578e-008     -1.6129e-009   
  1.65            7.6014e-005     2.5277e-008     -2.4156e-009   
  1.7             7.6139e-005     1.5564e-008     -1.6925e-009   
  1.75            7.6345e-005     1.0966e-008     -2.3533e-009   
  1.8             7.646e-005      1.6553e-008     -1.6146e-009   
  1.85            7.6606e-005     2.5033e-008     -2.4202e-009   
  1.9             7.674e-005      1.5287e-008     -1.6984e-009   
  1.95            7.6858e-005     1.0912e-008     -2.3489e-009   
  2               7.6991e-005     1.6028e-008     -1.6129e-009   
  2.05            7.7141e-005     1.0475e-008     -2.2805e-009   
  2.1             7.725e-005      1.6372e-008     -1.5493e-009   
  2.15            7.7362e-005     1.0398e-008     -2.2041e-009   
  2.2             7.6377e-005     6.094e-009      1.9333e-009    
  2.25            7.7292e-005     -1.3739e-008    -1.632e-010    
  2.3             7.7781e-005     1.1507e-008     -1.7475e-009   
  2.35            7.7804e-005     6.128e-009      -2.3917e-009   
  2.4             7.791e-005      9.61e-009       -1.6626e-009   
  2.45            7.8087e-005     3.072e-009      -2.3207e-009   
  2.5             7.754e-005      -1.8898e-008    -1.9961e-009   
  2.55            7.8185e-005     -1.466e-009     -2.5074e-009   
  2.6             7.78e-005       -2.2365e-008    -2.5367e-009   
  2.65            7.7359e-005     -1.1752e-008    1.0417e-009    
  2.7             7.8052e-005     -4.6417e-008    2.1221e-009    
  2.75            7.8193e-005     -3.7084e-008    -1.9918e-009   
  2.8             7.8414e-005     -2.4281e-008    3.077e-010     
  2.85            7.8177e-005     -5.9407e-008    1.6285e-009    
  2.9             7.8449e-005     -5.659e-008     -2.2056e-009   
  2.95            7.8432e-005     -4.7198e-008    6.178e-010     
  3               7.8505e-005     -8.9927e-008    2.7035e-009    
  3.05            7.9069e-005     -8.8044e-008    -1.7013e-009   
  3.1             7.9428e-005     -7.868e-008     -1.376e-010    
  3.15            7.8821e-005     -1.1353e-007    2.5606e-009    
  3.2             7.9522e-005     -1.3006e-007    -1.097e-009    
  3.25            7.9904e-005     -1.1373e-007    -1.9772e-009   
  3.3             7.9026e-005     -1.5096e-007    2.0578e-009    
  3.35            7.9832e-005     -1.9414e-007    -3.27e-010     
  3.4             8.0145e-005     -1.9057e-007    -1.5591e-009   
  3.45            7.9383e-005     -2.2875e-007    2.2635e-009    
  3.5             8.0193e-005     -2.8093e-007    -6.755e-010    
  3.55            8.0606e-005     -2.8118e-007    -1.3221e-009   
  3.6             7.9805e-005     -3.3703e-007    2.4366e-009    
  3.65            8.0707e-005     -3.9963e-007    -9.503e-010    
  3.7             8.1069e-005     -4.1011e-007    -2.2467e-009   
  3.75            8.0185e-005     -4.813e-007     1.8939e-009    
  3.8             8.1165e-005     -5.6323e-007    -1.144e-010    
  3.85            8.1715e-005     -6.0102e-007    -1.8024e-009   
  3.9             8.095e-005      -6.7628e-007    2.1423e-009    
  3.95            8.176e-005      -7.7869e-007    -4.704e-010    
  4               8.221e-005      -8.2903e-007    -1.4394e-009   
  4.05            8.1546e-005     -9.3233e-007    2.3238e-009    
  4.1             8.2501e-005     -1.05954e-006   -8.046e-010    
  4.15            8.1636e-005     -1.1821e-006    1.5593e-009    
  4.2             8.259e-005      -1.2915e-006    -2.2488e-009   
  4.25            8.2514e-005     -1.3938e-006    6.701e-010     
  4.3             8.272e-005      -1.5769e-006    2.6604e-009    
  4.35            8.3796e-005     -1.7121e-006    -1.7423e-009   
  4.4             8.3991e-005     -1.8433e-006    -9.23e-011     
  4.45            8.3596e-005     -2.0502e-006    2.3299e-009    
  4.5             8.4771e-005     -2.2329e-006    -1.9176e-009   
  4.55            8.5137e-005     -2.4007e-006    1.816e-010     
  4.6             8.4878e-005     -2.6527e-006    1.8361e-009    
  4.65            8.6063e-005     -2.8726e-006    -2.1054e-009   
  4.7             8.6282e-005     -3.0745e-006    4.878e-010     
  4.75            8.6399e-005     -3.3838e-006    2.7446e-009    
  4.8             8.7884e-005     -3.6361e-006    -1.5858e-009   
  4.85            8.8068e-005     -3.8792e-006    -1.3572e-009   
  4.9             8.83e-005       -4.1733e-006    2.3885e-009    
  4.95            8.9711e-005     -4.5485e-006    -8.991e-010    
  5               9.0064e-005     -4.8095e-006    -2.3335e-009   
END_DB

BEGIN_DB
 ICCAP_VAR VG         2              
 ICCAP_VAR VS         0              
 ICCAP_VAR VB         0              

 #VD              ID              IB              IG             
  0               2.5885e-006     1.0669e-008     1.1272e-009    
  0.05            0.00018965      -2.4192e-008    -1.0444e-009   
  0.1             0.00037003      1.1101e-008     -2.4824e-009   
  0.15            0.00054057      1.6321e-008     -1.6801e-009   
  0.2             0.00070118      2.5236e-008     -2.3056e-009   
  0.25            0.00085057      8.587e-009      1.949e-009     
  0.3             0.00098916      -2.3335e-008    2.6696e-009    
  0.35            0.00111687      -2.1769e-008    2.0449e-009    
  0.4             0.0012331       1.594e-009      2.3422e-009    
  0.45            0.0013383       -2.0181e-008    1.8934e-009    
  0.5             0.0014315       -2.4352e-008    2.5502e-009    
  0.55            0.0015142       -1.878e-008     1.8059e-009    
  0.6             0.0015854       -2.4612e-008    2.4876e-009    
  0.65            0.0016462       -1.7642e-008    1.7169e-009    
  0.7             0.0016956       -2.458e-008     2.4124e-009    
  0.75            0.0017389       -1.0421e-008    -6.695e-010    
  0.8             0.0017711       2.422e-008      -2.4502e-009   
  0.85            0.0017968       1.6944e-008     -1.6228e-009   
  0.9             0.0018166       2.5365e-008     -2.2583e-009   
  0.95            0.0018323       1.9969e-008     -1.4343e-009   
  1               0.0018446       1.4055e-008     -1.8345e-009   
  1.05            0.0018546       2.4315e-008     -2.4239e-009   
  1.1             0.0018623       1.7535e-008     -1.594e-009    
  1.15            0.0018654       7.82e-009       9.94e-010      
  1.2             0.0018709       -1.0471e-008    2.6413e-009    
  1.25            0.0018772       -2.1084e-008    1.9835e-009    
  1.3             0.0018815       -2.4106e-008    2.5956e-009    
  1.35            0.0018854       -1.9865e-008    1.8937e-009    
  1.4             0.0018916       -9.555e-009     -9.733e-010    
  1.45            0.0018945       1.1369e-008     -2.5432e-009   
  1.5             0.0018974       1.4532e-008     -1.8012e-009   
  1.55            0.0019002       2.4475e-008     -2.4094e-009   
  1.6             0.0019022       1.7704e-008     -1.5786e-009   
  1.65            0.0019027       7.905e-009      1.0044e-009    
  1.7             0.0019048       -2.1078e-008    2.0017e-009    
  1.75            0.0019085       -1.1973e-008    1.851e-010     
  1.8             0.0019127       1.1984e-008     -2.1268e-009   
  1.85            0.0019125       9.206e-009      6.62e-010      
  1.9             0.0019136       -2.4322e-008    2.5481e-009    
  1.95            0.0019167       -1.8873e-008    1.8118e-009    
  2               0.0019181       -2.461e-008     2.4883e-009    
  2.05            0.00192         -1.7665e-008    1.7187e-009    
  2.1             0.0019209       -2.4775e-008    2.4247e-009    
  2.15            0.0019252       -1.0548e-008    -6.547e-010    
  2.2             0.0019276       8.291e-009      -2.6092e-009   
  2.25            0.001929        2.4053e-008     -2.43e-009     
  2.3             0.0019304       1.6857e-008     -1.5917e-009   
  2.35            0.0019321       1.1456e-008     -2.0689e-009   
  2.4             0.0019335       9.522e-009      -2.4691e-009   
  2.45            0.0019352       1.4098e-008     -1.6365e-009   
  2.5             0.0019369       8.535e-009      -2.1176e-009   
  2.55            0.0019379       5.656e-009      -2.4979e-009   
  2.6             0.0019389       7.958e-009      -1.6856e-009   
  2.65            0.0019388       -4.644e-009     2.2776e-009    
  2.7             0.0019416       -2.6742e-008    -8.296e-010    
  2.75            0.0019433       2.342e-009      -2.2896e-009   
  2.8             0.0019418       -2.3731e-008    1.9714e-009    
  2.85            0.0019451       -5.3758e-008    -3.496e-010    
  2.9             0.0019467       -3.7327e-008    -1.4264e-009   
  2.95            0.0019459       -6.9727e-008    2.4069e-009    
  3               0.0019479       -1.07195e-007   3.166e-010     
  3.05            0.001945        -1.5216e-007    2.1203e-009    
  3.1             0.0019509       -1.6918e-007    -2.0721e-009   
  3.15            0.0019511       -1.9259e-007    5.608e-010     
  3.2             0.0019505       -2.7554e-007    2.6599e-009    
  3.25            0.0019552       -3.2124e-007    -1.8281e-009   
  3.3             0.0019547       -3.7272e-007    1.278e-010     
  3.35            0.0019542       -4.8405e-007    1.7405e-009    
  3.4             0.0019585       -5.7223e-007    -2.2521e-009   
  3.45            0.0019581       -6.6978e-007    7.869e-010     
  3.5             0.0019588       -8.3565e-007    2.4197e-009    
  3.55            0.0019625       -9.7305e-007    -1.9515e-009   
  3.6             0.0019641       -1.13076e-006   3.651e-010     
  3.65            0.0019632       -1.3448e-006    2.1866e-009    
  3.7             0.0019673       -1.5816e-006    -2.0356e-009   
  3.75            0.0019681       -1.8274e-006    5.042e-010     
  3.8             0.0019687       -2.1561e-006    2.6993e-009    
  3.85            0.001973        -2.4824e-006    -1.7942e-009   
  3.9             0.0019746       -2.847e-006     8.65e-011      
  3.95            0.0019748       -3.3033e-006    1.8287e-009    
  4               0.0019805       -3.7818e-006    -2.2106e-009   
  4.05            0.0019811       -4.3097e-006    7.41e-010      
  4.1             0.0019834       -4.9534e-006    2.4833e-009    
  4.15            0.001989        -5.6234e-006    -1.9236e-009   
