! VERSION = 6.00
BEGIN_HEADER
 ICCAP_INPUTS
  VG         V  B GROUND SMU4 0.001 LIN        1    0          5          101  0.05      
  VS         V  E GROUND SMU2 0.1 CON        0
  VB         V  C GROUND SMU3 0.1 LIN        3    0          -5         3    -2.5      
  VD         V  S GROUND SMU1 0.1 LIN        2    0.1        5          2    4.9       
 ICCAP_OUTPUTS
  IG         I  B GROUND SMU4 B
  ID         I  S GROUND SMU1 B
  IB         I  C GROUND SMU3 B
END_HEADER

BEGIN_DB
 ICCAP_VAR VS         0              
 ICCAP_VAR VB         0              
 ICCAP_VAR VD         0.1            

 #VG              IG              ID              IB             
  0               -2.106e-010     1.5361e-009     -1.5206e-008   
  0.05            -1.5244e-009    1.2816e-009     2.0867e-008    
  0.1             -1.3503e-009    1.415e-010      5.147e-009     
  0.15            -2.4712e-009    2.453e-010      7.495e-009     
  0.2             2.6789e-009     -6.003e-010     -1.0405e-008   
  0.25            -1.6326e-009    1.2476e-009     1.9361e-008    
  0.3             2.659e-009      -1.1407e-009    4.402e-009     
  0.35            -1.5872e-009    1.3867e-009     1.9787e-008    
  0.4             -1.3824e-009    5.831e-010      4.755e-009     
  0.45            -2.4511e-009    1.9003e-009     6.512e-009     
  0.5             -5.042e-010     4.3887e-009     -1.0728e-008   
  0.55            2.3349e-009     2.2644e-008     1.117e-008     
  0.6             -1.3673e-009    8.4251e-008     1.9354e-008    
  0.65            1.257e-009      2.7626e-007     -2.0224e-008   
  0.7             -1.7839e-009    1.0367e-006     1.3216e-008    
  0.75            -2.2143e-009    3.1422e-006     -1.5858e-008   
  0.8             1.7404e-009     9.0829e-006     -1.902e-008    
  0.85            -2.146e-009     2.2267e-005     -4.804e-009    
  0.9             2.5419e-009     4.4359e-005     -2.5462e-008   
  0.95            -2.4992e-009    7.8793e-005     1.1056e-008    
  1               -1.4291e-009    0.00012155      1.024e-009     
  1.05            -2.526e-009     0.00016903      6.026e-009     
  1.1             2.4289e-009     0.00021711      -2.5849e-008   
  1.15            1.7112e-009     0.00026721      -4.314e-009    
  1.2             2.4887e-009     0.00031459      -9.139e-009    
  1.25            -2.2934e-009    0.00036122      1.0705e-008    
  1.3             -1.6482e-009    0.00040409      1.917e-009     
  1.35            -2.445e-009     0.00044523      4.224e-009     
  1.4             -7.788e-010     0.00048374      -1.0723e-008   
  1.45            2.7111e-009     0.00052021      -1.4623e-008   
  1.5             -1.4709e-009    0.00055649      1.699e-008     
  1.55            -2.5106e-009    0.00059006      5.58e-009      
  1.6             -9.036e-010     0.00062194      -1.0189e-008   
  1.65            2.6516e-009     0.00065218      -1.2121e-008   
  1.7             -1.3421e-009    0.00068272      2.0123e-008    
  1.75            -2.5565e-009    0.00071118      7.729e-009     
  1.8             2.2733e-009     0.00073778      -2.5267e-008   
  1.85            2.3049e-009     0.00076434      -5.174e-009    
  1.9             -1.4106e-009    0.0007903       1.8206e-008    
  1.95            -2.5305e-009    0.00081497      6.549e-009     
  2               -9.563e-010     0.00083842      -9.856e-009    
  2.05            1.849e-010      0.0008607       -1.159e-008    
  2.1             2.6994e-009     0.00088343      -2.1966e-008   
  2.15            -1.4336e-009    0.00090562      1.782e-008     
  2.2             -2.5255e-009    0.00092649      6.2e-009       
  2.25            -9.412e-010     0.00094655      -1.0092e-008   
  2.3             2.029e-010      0.00096572      -1.1731e-008   
  2.35            2.708e-009      0.0009854       -2.1471e-008   
  2.4             2.323e-009      0.00100444      -2.356e-009    
  2.45            2.2789e-009     0.00102256      -4.724e-009    
  2.5             -1.4544e-009    0.00104054      1.7449e-008    
  2.55            -2.517e-009     0.00105766      5.748e-009     
  2.6             -9.205e-010     0.00107432      -1.0172e-008   
  2.65            2.6378e-009     0.00109009      -1.1992e-008   
  2.7             -1.3338e-009    0.00110694      2.0557e-008    
  2.75            -2.5578e-009    0.00112248      7.698e-009     
  2.8             2.242e-009      0.00113766      -2.4966e-008   
  2.85            -6.36e-011      0.0011531       -1.2487e-008   
  2.9             -2.4422e-009    0.001168        1.061e-008     
  2.95            -1.8712e-009    0.001182        1.066e-009     
  3               -1.3622e-009    0.0011958       3.089e-009     
  3.05            -2.5435e-009    0.0012094       7.256e-009     
  3.1             -9.961e-010     0.0012226       -9.695e-009    
  3.15            2.6482e-009     0.0012352       -2.379e-008    
  3.2             -1.3486e-009    0.0012479       1.9934e-008    
  3.25            -2.5516e-009    0.0012603       7.504e-009     
  3.3             -1.0195e-009    0.0012722       -9.593e-009    
  3.35            2.627e-009      0.0012839       -2.4016e-008   
  3.4             -1.3317e-009    0.0012956       2.0386e-008    
  3.45            -2.5573e-009    0.0013069       7.803e-009     
  3.5             -1.0463e-009    0.0013177       -9.506e-009    
  3.55            2.5986e-009     0.0013282       -2.4397e-008   
  3.6             -2.5267e-009    0.001339        2.1165e-008    
  3.65            2.7029e-009     0.001349        -1.7782e-008   
  3.7             2.4915e-009     0.0013595       -1.938e-009    
  3.75            -2.4772e-009    0.0013694       1.0733e-008    
  3.8             -1.955e-009     0.0013786       7.61e-010      
  3.85            -1.4065e-009    0.0013879       2.948e-009     
  3.9             -2.5339e-009    0.0013974       6.576e-009     
  3.95            2.3988e-009     0.0014063       -2.5465e-008   
  4               1.7027e-009     0.0014151       -4.473e-009    
  4.05            2.5111e-009     0.0014233       -9.34e-009     
  4.1             -2.2697e-009    0.0014324       1.0838e-008    
  4.15            -1.636e-009     0.0014401       2.065e-009     
  4.2             -2.4585e-009    0.0014482       4.508e-009     
  4.25            -7.953e-010     0.001456        -1.0769e-008   
  4.3             -1.1347e-009    0.0014638       -8.916e-009    
  4.35            2.5053e-009     0.0014715       -2.5505e-008   
  4.4             6.646e-010      0.0014787       8.704e-009     
  4.45            -1.4594e-009    0.0014864       1.7345e-008    
  4.5             -2.5166e-009    0.0014932       5.9e-009       
  4.55            2.4617e-009     0.0015004       -2.5549e-008   
  4.6             1.7666e-009     0.0015071       -4.069e-009    
  4.65            2.4764e-009     0.0015136       -8.972e-009    
  4.7             -2.3297e-009    0.0015203       1.0661e-008    
  4.75            -1.6926e-009    0.0015257       1.652e-009     
  4.8             -2.4343e-009    0.0015322       3.999e-009     
  4.85            -7.451e-010     0.0015384       -1.0774e-008   
  4.9             -1.0914e-009    0.0015444       -9.125e-009    
  4.95            2.5512e-009     0.00155         -2.5269e-008   
  5               -2.5002e-009    0.0015559       1.1192e-008    
END_DB

BEGIN_DB
 ICCAP_VAR VS         0              
 ICCAP_VAR VB         0              
 ICCAP_VAR VD         5              

 #VG              IG              ID              IB             
  0               1.1422e-009     1.7861e-009     -1.1028e-008   
  0.05            2.1277e-009     1.5459e-009     -1.0482e-008   
  0.1             -2.1676e-009    1.0618e-009     1.3549e-008    
  0.15            2.6941e-009     -4.782e-010     -2.4906e-008   
  0.2             -1.7648e-009    1.2688e-009     1.767e-008     
  0.25            2.6834e-009     -1.0413e-009    3.822e-009     
  0.3             -1.7306e-009    1.397e-009      1.8275e-008    
  0.35            -1.4849e-009    5.84e-010       3.783e-009     
  0.4             -2.4088e-009    1.9378e-009     5.526e-009     
  0.45            -4.015e-010     4.8976e-009     -1.1584e-008   
  0.5             1.9503e-009     2.5891e-008     6.74e-009      
  0.55            -2.1492e-009    9.9184e-008     3.909e-009     
  0.6             -1.8809e-009    3.7508e-007     -2.2343e-008   
  0.65            4.78e-011       1.2946e-006     -1.0766e-007   
  0.7             -4.113e-010     4.3761e-006     -3.2053e-007   
  0.75            2.3973e-009     1.2912e-005     -8.959e-007    
  0.8             -2.2741e-009    3.3239e-005     -2.1386e-006   
  0.85            -2.5138e-009    7.2587e-005     -4.5648e-006   
  0.9             -1.5706e-009    0.00013683      -8.156e-006    
  0.95            2.5714e-009     0.00022551      -1.3047e-005   
  1               1.9575e-009     0.00034263      -1.8647e-005   
  1.05            2.4096e-009     0.00048298      -2.5196e-005   
  1.1             2.6646e-009     0.0006454       -3.2074e-005   
  1.15            2.6509e-009     0.00082811      -3.9355e-005   
  1.2             2.1619e-009     0.0010221       -4.6456e-005   
  1.25            -1.8564e-009    0.001235        -5.3666e-005   
  1.3             -1.3549e-009    0.0014525       -6.0252e-005   
  1.35            -2.5522e-009    0.0016814       -6.6532e-005   
  1.4             -2.4932e-009    0.0019139       -7.2446e-005   
  1.45            -2.0268e-009    0.0021584       -7.7875e-005   
  1.5             -1.4597e-009    0.0024076       -8.2829e-005   
  1.55            -2.5232e-009    0.0026614       -8.7267e-005   
  1.6             -2.5504e-009    0.0029167       -9.1253e-005   
  1.65            -2.2042e-009    0.003179        -9.4697e-005   
  1.7             -1.5928e-009    0.0034443       -9.7684e-005   
  1.75            -2.4811e-009    0.0037134       -0.000100222   
  1.8             -2.5702e-009    0.003981        -0.000102297   
  1.85            -2.3573e-009    0.0042532       -0.000103925   
  1.9             -1.7576e-009    0.0045293       -0.000105153   
  1.95            -2.4153e-009    0.004806        -0.000106003   
  2               -2.5672e-009    0.0050815       -0.00010651    
  2.05            -2.4713e-009    0.0053597       -0.000106642   
  2.1             -1.9493e-009    0.0056409       -0.000106471   
  2.15            -1.3992e-009    0.0059226       -0.00010601    
  2.2             -2.5322e-009    0.0062054       -0.000105282   
  2.25            -2.5417e-009    0.0064841       -0.000104318   
  2.3             -2.1373e-009    0.0067686       -0.000103121   
  2.35            -1.5283e-009    0.0070527       -0.00010173    
  2.4             -2.4955e-009    0.0073376       -0.000100166   
  2.45            -2.5683e-009    0.0076197       -9.8444e-005   
  2.5             -2.3054e-009    0.0079049       -9.6581e-005   
  2.55            -1.687e-009     0.0081919       -9.4582e-005   
  2.6             -2.4392e-009    0.0084784       -9.2497e-005   
  2.65            -2.5696e-009    0.0087618       -9.0331e-005   
  2.7             -2.4348e-009    0.0090484       -8.8077e-005   
  2.75            -1.878e-009     0.0093355       -8.5762e-005   
  2.8             -1.3622e-009    0.0096257       -8.3349e-005   
  2.85            -2.5436e-009    0.0099135       -8.0955e-005   
  2.9             -2.5186e-009    0.0101957       -7.8544e-005   
  2.95            -2.0624e-009    0.0104828       -7.6095e-005   
  3               -2.14e-011      0.010776        -7.3659e-005   
  3.05            -7.411e-010     0.011058        -7.1239e-005   
  3.1             -1.0826e-009    0.011349        -6.882e-005    
  3.15            -1.4643e-009    0.011637        -6.6422e-005   
  3.2             -1.7856e-009    0.011919        -6.4049e-005   
  3.25            -2.0341e-009    0.012201        -6.1688e-005   
  3.3             -2.3618e-009    0.012486        -5.9375e-005   
  3.35            -2.5442e-009    0.01277         -5.7115e-005   
  3.4             -2.517e-009     0.013054        -5.49e-005     
  3.45            -2.0875e-009    0.013338        -5.2716e-005   
  3.5             -1.5023e-009    0.013624        -5.0595e-005   
  3.55            -2.5107e-009    0.013905        -4.8517e-005   
  3.6             -2.5581e-009    0.014185        -4.6525e-005   
  3.65            -2.2638e-009    0.014469        -4.457e-005    
  3.7             -1.6554e-009    0.014754        -4.2662e-005   
  3.75            -2.4612e-009    0.015033        -4.0827e-005   
  3.8             -2.5687e-009    0.015317        -3.9053e-005   
  3.85            -2.4012e-009    0.015593        -3.7316e-005   
  3.9             -1.8293e-009    0.015873        -3.5635e-005   
  3.95            -1.3521e-009    0.016153        -3.4037e-005   
  4               -2.5528e-009    0.016435        -3.2482e-005   
  4.05            -2.4914e-009    0.016707        -3.1004e-005   
  4.1             -2.0257e-009    0.01699         -2.9582e-005   
  4.15            -1.4544e-009    0.017269        -2.8211e-005   
  4.2             -2.5215e-009    0.017547        -2.6893e-005   
  4.25            -2.5489e-009    0.017819        -2.563e-005    
  4.3             -2.2109e-009    0.0181          -2.4409e-005   
  4.35            -1.5946e-009    0.018374        -2.3235e-005   
  4.4             -2.4717e-009    0.018654        -2.211e-005    
  4.45            -2.5649e-009    0.018927        -2.1075e-005   
  4.5             -2.3553e-009    0.019205        -2.0061e-005   
  4.55            -1.7762e-009    0.01948         -1.9085e-005   
  4.6             -2.4058e-009    0.019754        -1.8148e-005   
  4.65            -2.5588e-009    0.020022        -1.727e-005    
  4.7             -2.4631e-009    0.020296        -1.6411e-005   
  4.75            -1.9621e-009    0.020569        -1.5601e-005   
  4.8             -1.4138e-009    0.020842        -1.4826e-005   
  4.85            -2.5255e-009    0.021112        -1.4085e-005   
  4.9             -2.5262e-009    0.021377        -1.3379e-005   
  4.95            -2.1453e-009    0.02165         -1.2702e-005   
  5               -1.5503e-009    0.021921        -1.2057e-005   
END_DB

BEGIN_DB
 ICCAP_VAR VS         0              
 ICCAP_VAR VB         -2.5           
 ICCAP_VAR VD         0.1            

 #VG              IG              ID              IB             
  0               1.1522e-009     1.6503e-009     1.7024e-008    
  0.05            2.1095e-009     1.505e-009      -1.0312e-008   
  0.1             -2.1988e-009    9.929e-010      1.3484e-008    
  0.15            2.702e-009      -1.1016e-009    -1.1691e-008   
  0.2             1.7736e-009     1.754e-009      -2.236e-009    
  0.25            -2.5442e-009    6.633e-010      1.0356e-008    
  0.3             2.1401e-009     -9.279e-010     -1.8728e-008   
  0.35            2.2264e-009     1.4678e-009     -6.229e-009    
  0.4             -1.9524e-009    1.1281e-009     1.5969e-008    
  0.45            2.7101e-009     -1.0703e-009    2.873e-009     
  0.5             1.7011e-009     1.8292e-009     -2.074e-009    
  0.55            -2.5632e-009    6.145e-010      1.0456e-008    
  0.6             2.2547e-009     -8.74e-010      -2.042e-008    
  0.65            2.1768e-009     1.4857e-009     -5.441e-009    
  0.7             -2.0626e-009    1.0663e-009     1.4699e-008    
  0.75            1.7211e-009     -1.041e-009     2.602e-009     
  0.8             2.3677e-009     1.432e-009      -9.401e-009    
  0.85            -1.589e-009     1.3528e-009     2.0189e-008    
  0.9             -1.3919e-009    3.764e-010      4.908e-009     
  0.95            -2.4609e-009    1.3683e-009     6.821e-009     
  1               -5.115e-010     3.5453e-009     -1.0851e-008   
  1.05            2.3386e-009     2.3933e-008     1.1154e-008    
  1.1             -1.3838e-009    1.03357e-007    1.9506e-008    
  1.15            1.2525e-009     4.0786e-007     -2.0441e-008   
  1.2             -2.5584e-009    1.6141e-006     -1.0966e-008   
  1.25            -1.0093e-009    5.3085e-006     -9.83e-009     
  1.3             1.9245e-009     1.4451e-005     -1.3631e-008   
  1.35            -2.3447e-009    3.4002e-005     2.4879e-008    
  1.4             -1.7319e-009    6.4643e-005     1.327e-009     
  1.45            -2.4353e-009    0.000106076     3.901e-009     
  1.5             -1.6061e-009    0.0001548       -1.7239e-008   
  1.55            1.683e-009      0.00020439      -1.8093e-008   
  1.6             2.5326e-009     0.0002554       -9.452e-009    
  1.65            -2.2471e-009    0.00030646      1.092e-008     
  1.7             -8.03e-010      0.00035295      -1.0812e-008   
  1.75            -1.1343e-009    0.00039834      -8.973e-009    
  1.8             2.6e-012        0.00043929      -1.1167e-008   
  1.85            2.5604e-009     0.00047927      -2.4903e-008   
  1.9             -2.5141e-009    0.00051803      2.218e-008     
  1.95            2.7157e-009     0.00055285      -1.6833e-008   
  2               2.4495e-009     0.00058707      -2.066e-009    
  2.05            2.3668e-009     0.00061902      5.918e-009     
  2.1             -1.3569e-009    0.00065055      2.014e-008     
  2.15            -2.5638e-009    0.00067991      7.691e-009     
  2.2             2.279e-009      0.00070734      -2.4924e-008   
  2.25            2.3005e-009     0.00073457      -5.034e-009    
  2.3             -1.4338e-009    0.00076097      1.8453e-008    
  2.35            -2.5362e-009    0.00078594      6.374e-009     
  2.4             -9.388e-010     0.00080975      -1.0145e-008   
  2.45            2.045e-010      0.00083221      -1.204e-008    
  2.5             2.6997e-009     0.00085502      -2.1675e-008   
  2.55            -1.4732e-009    0.00087723      1.7609e-008    
  2.6             -2.5286e-009    0.00089812      5.815e-009     
  2.65            2.4629e-009     0.00091796      -2.5229e-008   
  2.7             -2.4557e-009    0.00093825      1.0628e-008    
  2.75            -1.9081e-009    0.00095699      8.61e-010      
  2.8             -1.387e-009     0.00097581      3.173e-009     
  2.85            -2.5484e-009    0.000994        6.916e-009     
  2.9             2.3561e-009     0.00101106      -2.5471e-008   
  2.95            1.666e-009      0.0010282       -4.606e-009    
  3               2.5314e-009     0.00104447      -9.509e-009    
  3.05            -2.2575e-009    0.0010612       1.0935e-008    
  3.1             -1.6288e-009    0.00107639      1.953e-009     
  3.15            -2.4725e-009    0.00109171      4.503e-009     
  3.2             -7.992e-010     0.00110638      -1.0765e-008   
  3.25            2.6996e-009     0.00112042      -1.4783e-008   
  3.3             -1.4708e-009    0.0011352       1.7635e-008    
  3.35            2.3953e-009     0.0011492       6.005e-009     
  3.4             1.6932e-009     0.001163        -4.357e-009    
  3.45            2.5175e-009     0.0011758       -9.312e-009    
  3.5             -2.279e-009     0.0011889       1.0746e-008    
  3.55            -7.846e-010     0.001201        -1.085e-008    
  3.6             2.7046e-009     0.0012129       -1.497e-008    
  3.65            2.35e-009       0.0012251       -2.254e-009    
  3.7             1.6734e-009     0.0012365       -4.422e-009    
  3.75            2.5321e-009     0.0012479       -9.421e-009    
  3.8             -2.2472e-009    0.0012594       1.0991e-008    
  3.85            -8.01e-010      0.0012697       -1.0741e-008   
  3.9             2.699e-009      0.0012797       -1.4569e-008   
  3.95            2.313e-009      0.0012905       -2.354e-009    
  4               1.6293e-009     0.0013005       -4.627e-009    
  4.05            2.5425e-009     0.0013101       -9.485e-009    
  4.1             -2.2241e-009    0.00132         1.1158e-008    
  4.15            -8.175e-010     0.001329        -1.0672e-008   
