! VERSION = 6.00
BEGIN_HEADER
 ICCAP_INPUTS
  VG         V  B GROUND SMU4 0.001 LIN        1    0          5          101  0.05      
  VS         V  E GROUND SMU2 0.1 CON        0
  VB         V  C GROUND SMU3 0.1 LIN        3    0          -5         3    -2.5      
  VD         V  S GROUND SMU1 0.1 LIN        2    0.1        5          2    4.9       
 ICCAP_OUTPUTS
  IG         I  B GROUND SMU4 B
  ID         I  S GROUND SMU1 B
  IB         I  C GROUND SMU3 B
END_HEADER

BEGIN_DB
 ICCAP_VAR VS         0              
 ICCAP_VAR VB         0              
 ICCAP_VAR VD         0.1            

 #VG              IG              ID              IB             
  0               2.6714e-009     -2.304e-010     -1.9337e-008   
  0.05            -1.6779e-009    1.0613e-009     1.9698e-008    
  0.1             2.6754e-009     -1.3673e-009    5.064e-009     
  0.15            -1.6731e-009    1.067e-009      1.9777e-008    
  0.2             2.6729e-009     -1.361e-009     5.021e-009     
  0.25            -1.6761e-009    1.077e-009      1.9894e-008    
  0.3             2.6693e-009     -1.3381e-009    5.198e-009     
  0.35            -1.666e-009     1.1718e-009     1.9972e-008    
  0.4             -1.4479e-009    2.445e-010      5.198e-009     
  0.45            -1.3241e-009    1.2281e-009     6.86e-009      
  0.5             -2.5432e-009    4.6109e-009     8.658e-009     
  0.55            2.7187e-009     1.5294e-008     2.0052e-008    
  0.6             2.625e-009      5.2443e-008     -1.107e-009    
  0.65            -5.64e-010      1.9951e-007     1.0822e-008    
  0.7             1.8643e-009     7.3601e-007     -2.0249e-008   
  0.75            2.3139e-009     2.0158e-006     1.5455e-008    
  0.8             -1.4915e-009    5.9728e-006     1.8414e-008    
  0.85            1.5758e-009     1.3203e-005     -2.2101e-008   
  0.9             1.9648e-009     2.6843e-005     8.145e-009     
  0.95            -2.3386e-009    4.6894e-005     2.5416e-008    
  1               -1.736e-009     7.1286e-005     1.957e-009     
  1.05            -2.4712e-009    9.8412e-005     4.516e-009     
  1.1             -1.3992e-009    0.00012684      -2.2844e-008   
  1.15            2.1532e-009     0.00015371      -2.3654e-008   
  1.2             2.3774e-009     0.00018049      -5.876e-009    
  1.25            -1.3804e-009    0.00020648      2.0157e-008    
  1.3             -2.5921e-009    0.00023073      7.794e-009     
  1.35            2.3587e-009     0.00025307      -2.5226e-008   
  1.4             1.6644e-009     0.00027496      -4.284e-009    
  1.45            2.5618e-009     0.00029552      -9.399e-009    
  1.5             -2.2883e-009    0.00031558      1.1483e-008    
  1.55            -1.6612e-009    0.00033401      2.301e-009     
  1.6             -2.495e-009     0.00035191      4.85e-009      
  1.65            -7.775e-010     0.00036875      -1.0539e-008   
  1.7             2.7285e-009     0.0003848       -1.5443e-008   
  1.75            2.4221e-009     0.00040073      -1.724e-009    
  1.8             1.7547e-009     0.00041566      -3.902e-009    
  1.85            2.5246e-009     0.00043007      -9.034e-009    
  1.9             -2.3536e-009    0.00044451      1.0995e-008    
  1.95            -1.7448e-009    0.00045769      2.003e-009     
  2               -2.4648e-009    0.00047076      4.427e-009     
  2.05            -7.167e-010     0.00048317      -1.0574e-008   
  2.1             2.7368e-009     0.00049507      -1.6977e-008   
  2.15            2.4899e-009     0.00050705      -1.481e-009    
  2.2             6.754e-010      0.00051839      9.349e-009     
  2.25            -1.5031e-009    0.00052953      1.8269e-008    
  2.3             -2.555e-009     0.00054019      6.318e-009     
  2.35            -8.973e-010     0.00055048      -1.0059e-008   
  2.4             2.681e-009      0.00056031      -1.2816e-008   
  2.45            -1.4003e-009    0.00057067      1.9738e-008    
  2.5             -2.5858e-009    0.00058018      7.512e-009     
  2.55            -9.813e-010     0.0005894       -9.65e-009     
  2.6             1.743e-010      0.000598        -1.1566e-008   
  2.65            2.7122e-009     0.00060705      -2.142e-008    
  2.7             -1.4836e-009    0.00061588      1.836e-008     
  2.75            -2.5594e-009    0.0006241       6.384e-009     
  2.8             2.5089e-009     0.00063213      -2.4935e-008   
  2.85            6.824e-010      0.00064009      9.246e-009     
  2.9             -1.5015e-009    0.00064797      1.8116e-008    
  2.95            -2.553e-009     0.00065537      6.3e-009       
  3               2.531e-009      0.00066261      -2.4794e-008   
  3.05            -2.5064e-009    0.00066998      1.1044e-008    
  3.1             -2.0186e-009    0.00067672      1.148e-009     
  3.15            -1.4549e-009    0.00068358      3.451e-009     
  3.2             -2.5641e-009    0.00069038      6.7e-009       
  3.25            -9.249e-010     0.00069675      -9.925e-009    
  3.3             2.661e-009      0.00070262      -1.2446e-008   
  3.35            -1.3791e-009    0.0007093       2.0459e-008    
  3.4             -2.5891e-009    0.00071529      7.975e-009     
  3.45            2.3508e-009     0.00072104      -2.5085e-008   
  3.5             1.666e-009      0.00072687      -4.365e-009    
  3.55            2.5641e-009     0.00073229      -9.455e-009    
  3.6             -2.2763e-009    0.00073817      1.1504e-008    
  3.65            -8.039e-010     0.00074324      -1.0358e-008   
  3.7             2.7213e-009     0.00074812      -1.5188e-008   
  3.75            2.3882e-009     0.00075378      -1.695e-009    
  3.8             1.7189e-009     0.00075874      -4.02e-009     
  3.85            2.5414e-009     0.00076347      -9.285e-009    
  3.9             -2.4386e-009    0.0007683       2.4272e-008    
  3.95            -1.8944e-009    0.00077287      1.413e-009     
  4               -1.0056e-009    0.00077734      -9.532e-009    
  4.05            1.501e-010      0.00078145      -1.1407e-008   
  4.1             2.6978e-009     0.00078622      -2.2062e-008   
  4.15            -1.4536e-009    0.00079064      1.8977e-008    
  4.2             -2.5715e-009    0.0007946       7.036e-009     
  4.25            -9.443e-010     0.00079854      -9.901e-009    
  4.3             2.121e-010      0.00080215      -1.2099e-008   
  4.35            2.7235e-009     0.00080647      -2.0855e-008   
  4.4             2.4118e-009     0.00081008      -1.652e-009    
  4.45            1.7494e-009     0.00081401      -3.837e-009    
  4.5             2.5345e-009     0.00081738      -9.139e-009    
  4.55            -2.3405e-009    0.00082127      1.1167e-008    
  4.6             -1.7331e-009    0.00082432      1.932e-009     
  4.65            -2.4718e-009    0.00082776      4.637e-009     
  4.7             -7.307e-010     0.000831        -1.0611e-008   
  4.75            2.7318e-009     0.00083415      -1.6635e-008   
  4.8             2.4681e-009     0.00083759      -1.582e-009    
  4.85            -2.482e-009     0.00084004      1.3053e-008    
  4.9             -1.9641e-009    0.00084343      1.182e-009     
  4.95            -1.4232e-009    0.00084621      3.642e-009     
  5               -2.5785e-009    0.00084911      7.251e-009     
END_DB

BEGIN_DB
 ICCAP_VAR VS         0              
 ICCAP_VAR VB         0              
 ICCAP_VAR VD         5              

 #VG              IG              ID              IB             
  0               -2.311e-010     9.279e-010      -2.4038e-008   
  0.05            -1.6142e-009    1.1344e-009     2.0581e-008    
  0.1             2.6589e-009     -1.3385e-009    5.324e-009     
  0.15            -1.6066e-009    1.1468e-009     2.0568e-008    
  0.2             2.149e-010      -1.3378e-009    5.401e-009     
  0.25            1.7219e-009     -4.86e-010      -2.0745e-008   
  0.3             2.3881e-009     1.3402e-009     -9.333e-009    
  0.35            -1.6111e-009    1.534e-009      2.03e-008      
  0.4             -1.4138e-009    1.4099e-009     5.169e-009     
  0.45            -2.4854e-009    5.6837e-009     6.558e-009     
  0.5             2.3785e-009     1.9988e-008     1.0426e-008    
  0.55            -2.542e-009     8.4084e-008     4.006e-009     
  0.6             -2.4297e-009    3.2143e-007     -1.7036e-008   
  0.65            -1.6971e-009    1.0449e-006     -9.4596e-008   
  0.7             1.2156e-009     3.2996e-006     -2.2715e-007   
  0.75            2.7361e-009     9.7276e-006     -7.0293e-007   
  0.8             -2.0487e-009    2.3195e-005     -1.5259e-006   
  0.85            -2.3789e-009    4.8965e-005     -3.1558e-006   
  0.9             -2.582e-009     8.9587e-005     -5.5073e-006   
  0.95            -2.486e-009     0.0001466       -8.5496e-006   
  1               2.6961e-009     0.00021674      -1.2118e-005   
  1.05            2.6766e-009     0.00030365      -1.6153e-005   
  1.1             2.1951e-009     0.00039994      -2.0362e-005   
  1.15            2.3539e-009     0.00050651      -2.4655e-005   
  1.2             2.6269e-009     0.00062262      -2.8887e-005   
  1.25            2.7269e-009     0.00074562      -3.3018e-005   
  1.3             2.4204e-009     0.00087169      -3.6905e-005   
  1.35            1.7448e-009     0.00100287      -4.0557e-005   
  1.4             -2.5996e-009    0.00114         -4.4007e-005   
  1.45            -2.5085e-009    0.00128         -4.7122e-005   
  1.5             -2.0158e-009    0.0014217       -4.9897e-005   
  1.55            -1.4509e-009    0.0015674       -5.241e-005    
  1.6             -2.568e-009     0.0017143       -5.4588e-005   
  1.65            -2.5783e-009    0.0018589       -5.6482e-005   
  1.7             -2.2426e-009    0.0020099       -5.8086e-005   
  1.75            -1.6256e-009    0.0021604       -5.942e-005    
  1.8             -2.5088e-009    0.0023136       -6.0516e-005   
  1.85            -2.6047e-009    0.002465        -6.1345e-005   
  1.9             -2.418e-009     0.0026167       -6.1918e-005   
  1.95            -1.8515e-009    0.0027721       -6.2303e-005   
  2               -1.3648e-009    0.0029277       -6.2468e-005   
  2.05            -2.5933e-009    0.0030827       -6.242e-005    
  2.1             -2.5324e-009    0.0032368       -6.2251e-005   
  2.15            -2.0849e-009    0.003392        -6.1879e-005   
  2.2             -1.499e-009     0.0035483       -6.1375e-005   
  2.25            -2.549e-009     0.0037053       -6.0711e-005   
  2.3             -2.5857e-009    0.0038584       -5.9963e-005   
  2.35            -2.2969e-009    0.0040154       -5.9078e-005   
  2.4             -1.6846e-009    0.0041759       -5.8097e-005   
  2.45            -2.4866e-009    0.0043333       -5.7036e-005   
  2.5             -2.6076e-009    0.00449         -5.5904e-005   
  2.55            -2.4547e-009    0.0046489       -5.4693e-005   
  2.6             -1.9228e-009    0.0048069       -5.3434e-005   
  2.65            -1.3895e-009    0.0049648       -5.2108e-005   
  2.7             -2.5857e-009    0.0051227       -5.0765e-005   
  2.75            -2.5503e-009    0.0052791       -4.9387e-005   
  2.8             -2.1525e-009    0.0054383       -4.7983e-005   
  2.85            -1.5396e-009    0.0055964       -4.6552e-005   
  2.9             -2.5401e-009    0.0057562       -4.5127e-005   
  2.95            -2.5931e-009    0.0059124       -4.3699e-005   
  3               -2.3408e-009    0.006071        -4.2248e-005   
  3.05            -1.7483e-009    0.0062296       -4.0814e-005   
  3.1             -2.4704e-009    0.0063875       -3.9399e-005   
  3.15            -2.6046e-009    0.0065445       -3.7995e-005   
  3.2             -2.4818e-009    0.0067034       -3.6611e-005   
  3.25            -1.967e-009     0.0068636       -3.5236e-005   
  3.3             -1.4189e-009    0.0070214       -3.3897e-005   
  3.35            -2.5774e-009    0.0071806       -3.2567e-005   
  3.4             -2.5613e-009    0.0073372       -3.1283e-005   
  3.45            -2.1871e-009    0.0074963       -3.0019e-005   
  3.5             -1.5789e-009    0.0076553       -2.8785e-005   
  3.55            -2.5259e-009    0.0078133       -2.7583e-005   
  3.6             -2.6001e-009    0.0079702       -2.6421e-005   
  3.65            -2.3717e-009    0.0081281       -2.5284e-005   
  3.7             -1.7747e-009    0.008288        -2.419e-005    
  3.75            -1.3307e-009    0.008445        -2.312e-005    
  3.8             -2.6013e-009    0.008603        -2.2082e-005   
  3.85            -2.5009e-009    0.0087577       -2.1093e-005   
  3.9             -2.0066e-009    0.0089162       -2.0127e-005   
  3.95            -1.4421e-009    0.0090729       -1.9193e-005   
  4               -2.5681e-009    0.0092301       -1.8304e-005   
  4.05            -2.5725e-009    0.0093858       -1.7457e-005   
  4.1             -2.2154e-009    0.009545        -1.663e-005    
  4.15            -1.6044e-009    0.0097034       -1.5823e-005   
  4.2             -2.5121e-009    0.0098602       -1.5064e-005   
  4.25            -2.6039e-009    0.0100133       -1.4339e-005   
  4.3             -2.4037e-009    0.0101706       -1.3637e-005   
  4.35            -1.8161e-009    0.0103271       -1.297e-005    
  4.4             -1.3472e-009    0.0104867       -1.2344e-005   
  4.45            -2.5991e-009    0.0106435       -1.1745e-005   
  4.5             -2.5165e-009    0.0107965       -1.1169e-005   
  4.55            -2.0516e-009    0.0109518       -1.0615e-005   
  4.6             -1.4644e-009    0.0111058       -1.0071e-005   
  4.65            -5.178e-010     0.011258        -9.5894e-006   
  4.7             -1.6444e-009    0.011416        -9.0984e-006   
  4.75            -1.9066e-009    0.011568        -8.6373e-006   
  4.8             -2.1907e-009    0.011723        -8.1931e-006   
  4.85            -2.5011e-009    0.011875        -7.7713e-006   
  4.9             -2.6007e-009    0.012027        -7.3645e-006   
  4.95            -2.44e-009      0.012177        -6.9788e-006   
  5               -1.8916e-009    0.012333        -6.614e-006    
END_DB

BEGIN_DB
 ICCAP_VAR VS         0              
 ICCAP_VAR VB         -2.5           
 ICCAP_VAR VD         0.1            

 #VG              IG              ID              IB             
  0               1.0827e-009     1.3033e-009     9.841e-009     
  0.05            1.5552e-009     1.8652e-009     -1.4216e-008   
  0.1             1.7208e-009     1.6291e-009     8.579e-009     
  0.15            -2.5873e-009    4.332e-010      1.103e-008     
  0.2             2.0827e-009     -4.026e-010     -1.8489e-008   
  0.25            2.2737e-009     1.2658e-009     -6.671e-009    
  0.3             -1.9023e-009    9.777e-010      1.743e-008     
  0.35            -5.701e-010     -1.7406e-009    3.745e-009     
  0.4             2.2493e-009     -1.0852e-009    -2.0027e-008   
  0.45            2.2105e-009     1.2865e-009     -5.152e-009    
  0.5             -2.0561e-009    9.011e-010      1.6021e-008    
  0.55            -4.507e-010     -1.7156e-009    3.329e-009     
  0.6             2.3918e-009     -1.0123e-009    -2.2296e-008   
  0.65            2.14e-009       1.3137e-009     -4.191e-009    
  0.7             -2.2083e-009    8.17e-010       1.4173e-008    
  0.75            -3.34e-010      -1.6794e-009    2.618e-009     
  0.8             -5.47e-010      -1.7265e-009    -1.0454e-008   
  0.85            2.2901e-009     -1.0301e-009    -2.0643e-008   
  0.9             2.1904e-009     1.4443e-009     -4.839e-009    
  0.95            -2.0951e-009    1.7038e-009     1.5559e-008    
  1               -1.8022e-009    3.3372e-009     3.214e-009     
  1.05            2.3125e-009     1.6005e-008     1.1032e-008    
  1.1             -1.4794e-009    7.4055e-008     1.8218e-008    
  1.15            4.325e-010      2.767e-007      -9.513e-009    
  1.2             -1.8039e-009    1.07809e-006    1.4654e-008    
  1.25            -2.2418e-009    3.1963e-006     -1.6203e-008   
  1.3             1.7992e-009     8.9132e-006     -1.9451e-008   
  1.35            -2.0238e-009    2.0288e-005     -6.061e-009    
  1.4             -1.4362e-009    3.81e-005       3.234e-009     
  1.45            -2.5719e-009    6.1985e-005     6.853e-009     
  1.5             -9.526e-010     8.9597e-005     -9.846e-009    
  1.55            -2.4361e-009    0.0001185       -1.0754e-008   
  1.6             -6.753e-010     0.0001474       -1.0693e-008   
  1.65            -1.0398e-009    0.00017565      -9.382e-009    
  1.7             2.6421e-009     0.00020149      -2.3912e-008   
  1.75            -1.3423e-009    0.00022722      2.098e-008     
  1.8             -2.5957e-009    0.00025087      8.505e-009     
  1.85            2.2675e-009     0.00027243      -2.485e-008    
  1.9             2.3402e-009     0.00029355      -5.217e-009    
  1.95            -1.4171e-009    0.00031373      1.9237e-008    
  2               -2.5786e-009    0.00033248      7.465e-009     
  2.05            2.4068e-009     0.00034985      -2.5354e-008   
  2.1             1.7009e-009     0.00036688      -4.22e-009     
  2.15            2.5477e-009     0.00038301      -9.344e-009    
  2.2             -2.4263e-009    0.0003988       2.4584e-008    
  2.25            -1.8449e-009    0.00041351      1.408e-009     
  2.3             -1.3499e-009    0.00042767      4.05e-009      
  2.35            -2.5941e-009    0.00044134      8.291e-009     
  2.4             2.3008e-009     0.00045432      -2.4976e-008   
  2.45            1.5939e-009     0.00046702      -5.005e-009    
  2.5             2.5971e-009     0.00047914      -9.467e-009    
  2.55            -2.1946e-009    0.0004912       1.2126e-008    
  2.6             1.437e-010      0.00050202      -1.124e-008    
  2.65            2.7011e-009     0.00051315      -2.2295e-008   
  2.7             -1.4223e-009    0.00052395      1.9252e-008    
  2.75            -2.5771e-009    0.00053425      7.196e-009     
  2.8             -9.748e-010     0.0005441       -9.791e-009    
  2.85            1.788e-010      0.00055329      -1.1588e-008   
  2.9             2.7124e-009     0.00056289      -2.1699e-008   
  2.95            -1.4636e-009    0.0005722       1.8511e-008    
  3               -2.5639e-009    0.00058103      6.583e-009     
  3.05            -9.378e-010     0.00058951      -9.885e-009    
  3.1             2.101e-010      0.00059742      -1.198e-008    
  3.15            2.7234e-009     0.0006058       -2.0823e-008   
  3.2             2.3892e-009     0.00061384      -1.702e-009    
  3.25            1.6879e-009     0.00062136      -4.162e-009    
  3.3             2.5545e-009     0.00062887      -9.298e-009    
  3.35            -2.2959e-009    0.00063634      1.1534e-008    
  3.4             -1.6542e-009    0.00064321      2.345e-009     
  3.45            -2.4989e-009    0.00065026      5.052e-009     
  3.5             -7.984e-010     0.00065691      -1.0454e-008   
  3.55            2.7231e-009     0.00066315      -1.4895e-008   
  3.6             2.3758e-009     0.00066982      -1.863e-009    
  3.65            1.6886e-009     0.00067608      -4.213e-009    
  3.7             2.5532e-009     0.00068197      -9.414e-009    
  3.75            -2.2895e-009    0.00068832      1.1571e-008    
  3.8             -1.6511e-009    0.0006938       2.297e-009     
  3.85            -2.5024e-009    0.00069942      5.109e-009     
  3.9             -8.014e-010     0.00070484      -1.0407e-008   
  3.95            2.7168e-009     0.00071001      -1.4762e-008   
  4               2.3597e-009     0.00071553      -1.758e-009    
  4.05            1.6652e-009     0.0007206       -4.346e-009    
  4.1             2.5627e-009     0.0007255       -9.406e-009    
  4.15            -2.2791e-009    0.00073067      1.1507e-008    
