! VERSION = 6.00
BEGIN_HEADER
 ICCAP_INPUTS
  VG         V  B GROUND SMU4 0.001 LIN        1    0          5          101  0.05      
  VS         V  E GROUND SMU2 0.1 CON        0
  VB         V  C GROUND SMU3 0.1 LIN        3    0          -5         3    -2.5      
  VD         V  S GROUND SMU1 0.1 LIN        2    0.1        5          2    4.9       
 ICCAP_OUTPUTS
  IG         I  B GROUND SMU4 B
  ID         I  S GROUND SMU1 B
  IB         I  C GROUND SMU3 B
END_HEADER

BEGIN_DB
 ICCAP_VAR VS         0              
 ICCAP_VAR VB         0              
 ICCAP_VAR VD         0.1            

 #VG              IG              ID              IB             
  0               1.6815e-009     2.273e-009      2.044e-009     
  0.05            2.6943e-009     1.3274e-009     -9.541e-009    
  0.1             3.854e-010      2.4854e-009     1.1974e-008    
  0.15            5.818e-010      2.531e-009      1.1424e-008    
  0.2             -1.3824e-009    1.7291e-009     2.4179e-008    
  0.25            -2.6853e-009    4.034e-010      1.2962e-008    
  0.3             -1.218e-010     -1.8736e-009    -1.2906e-008   
  0.35            -3.56e-010      -1.8799e-009    -1.3571e-008   
  0.4             1.393e-009      -5.855e-010     -1.3465e-008   
  0.45            2.809e-009      2.3723e-009     -8.432e-009    
  0.5             2.8477e-009     5.257e-009      4.91e-010      
  0.55            -1.3735e-009    1.5146e-008     -1.346e-008    
  0.6             -2.5096e-009    5.8393e-008     1.3683e-008    
  0.65            7.094e-010      2.0122e-007     -1.6044e-008   
  0.7             -1.6394e-009    7.3255e-007     1.9682e-008    
  0.75            -2.6632e-009    2.2133e-006     -1.9224e-008   
  0.8             -1.7527e-009    6.4657e-006     -1.2109e-008   
  0.85            1.6751e-009     1.4839e-005     -2.6515e-008   
  0.9             2.0971e-009     3.0743e-005     9.62e-009      
  0.95            -1.3825e-009    5.415e-005      2.5804e-008    
  1               -2.6887e-009    8.2575e-005     1.111e-008     
  1.05            -1.6297e-009    0.00011435      -1.2828e-008   
  1.1             -1.3794e-009    0.00014727      6.926e-009     
  1.15            -1.3662e-009    0.00017924      1.0652e-008    
  1.2             -2.4562e-009    0.00020981      1.4682e-008    
  1.25            -1.7996e-009    0.00023869      1.6e-009       
  1.3             -1.4032e-009    0.00026601      5.453e-009     
  1.35            -1.3802e-009    0.00029195      8.959e-009     
  1.4             -2.5787e-009    0.00031629      1.313e-008     
  1.45            -2.0163e-009    0.00033907      5.78e-010      
  1.5             -1.4637e-009    0.00036077      4.611e-009     
  1.55            -1.3853e-009    0.00038136      8.154e-009     
  1.6             -2.6497e-009    0.000401        1.2159e-008    
  1.65            -2.218e-009     0.00041946      5.49e-010      
  1.7             -1.5769e-009    0.00043724      3.566e-009     
  1.75            -1.3815e-009    0.00045426      7.29e-009      
  1.8             -2.6905e-009    0.00047059      1.0904e-008    
  1.85            -4.077e-010     0.00048587      -1.2852e-008   
  1.9             -8.864e-010     0.00050097      -1.3362e-008   
  1.95            1.5444e-009     0.00051487      -1.5226e-008   
  2               1.3139e-009     0.00052901      -8.864e-009    
  2.05            2.8455e-009     0.00054235      -1.0667e-008   
  2.1             -1.7351e-009    0.00055553      2.2137e-008    
  2.15            -1.3905e-009    0.00056799      6.219e-009     
  2.2             -1.3764e-009    0.00058006      9.593e-009     
  2.25            -2.5249e-009    0.00059186      1.3509e-008    
  2.3             -1.9188e-009    0.00060292      9.18e-010      
  2.35            -1.4337e-009    0.00061379      4.894e-009     
  2.4             -1.3854e-009    0.0006244       8.717e-009     
  2.45            -2.6209e-009    0.00063473      1.2533e-008    
  2.5             -2.1188e-009    0.00064448      5.05e-010      
  2.55            -1.5214e-009    0.00065417      4.315e-009     
  2.6             -1.3822e-009    0.00066346      8.057e-009     
  2.65            -2.6728e-009    0.00067274      1.1901e-008    
  2.7             -4.841e-010     0.00068138      -1.32e-008     
  2.75            -9.4e-010       0.00069011      -1.2736e-008   
  2.8             3.199e-010      0.00069802      -1.388e-008    
  2.85            1.5419e-009     0.00070649      -2.0027e-008   
  2.9             1.3137e-009     0.00071433      -8.756e-009    
  2.95            2.8411e-009     0.00072207      -1.0712e-008   
  3               -1.7284e-009    0.00072956      2.1924e-008    
  3.05            -1.3925e-009    0.00073697      6.27e-009      
  3.1             -1.3747e-009    0.00074391      9.792e-009     
  3.15            -2.5196e-009    0.00075118      1.3562e-008    
  3.2             -1.9125e-009    0.00075767      1.181e-009     
  3.25            -1.4324e-009    0.00076428      4.961e-009     
  3.3             -1.3855e-009    0.00077068      8.406e-009     
  3.35            -2.6218e-009    0.00077702      1.2431e-008    
  3.4             -2.116e-009     0.00078292      4.57e-010      
  3.45            -1.5209e-009    0.00078889      4.299e-009     
  3.5             -1.3864e-009    0.00079457      7.935e-009     
  3.55            -2.6731e-009    0.00080032      1.1771e-008    
  3.6             -4.829e-010     0.00080566      -1.3172e-008   
  3.65            -9.395e-010     0.000811        -1.2813e-008   
  3.7             3.227e-010      0.00081581      -1.3783e-008   
  3.75            1.5406e-009     0.00082136      -1.9992e-008   
  3.8             1.3136e-009     0.00082615      -8.945e-009    
  3.85            2.8467e-009     0.00083104      -1.0564e-008   
  3.9             -1.7316e-009    0.00083576      2.2212e-008    
  3.95            -1.3884e-009    0.00084047      6.182e-009     
  4               -2.7094e-009    0.00084499      9.796e-009     
  4.05            2.1584e-009     0.00084947      -2.5404e-008   
  4.1             1.4401e-009     0.00085368      -8.685e-009    
  4.15            2.8486e-009     0.00085778      -8.463e-009    
  4.2             2.8131e-009     0.00086196      -5.42e-010     
  4.25            5.285e-010      0.00086587      1.1682e-008    
  4.3             -1.8975e-009    0.00086989      2.6082e-008    
  4.35            -1.425e-009     0.0008735       5.1e-009       
  4.4             -1.3843e-009    0.0008774       8.501e-009     
  4.45            -2.6071e-009    0.00088108      1.2503e-008    
  4.5             -2.0899e-009    0.00088449      3.73e-010      
  4.55            -1.5016e-009    0.0008879       4.559e-009     
  4.6             -1.382e-009     0.00089122      8.047e-009     
  4.65            -2.669e-009     0.00089464      1.1889e-008    
  4.7             1.7886e-009     0.00089752      -2.0035e-008   
  4.75            1.3274e-009     0.00090076      -9.854e-009    
  4.8             2.8609e-009     0.0009038       -9.019e-009    
  4.85            2.692e-009      0.00090687      -1.084e-009    
  4.9             2.0212e-009     0.00090968      -3.467e-009    
  4.95            1.3944e-009     0.00091249      -9.193e-009    
  5               2.8526e-009     0.00091531      -8.296e-009    
END_DB

BEGIN_DB
 ICCAP_VAR VS         0              
 ICCAP_VAR VB         0              
 ICCAP_VAR VD         5              

 #VG              IG              ID              IB             
  0               1.3161e-009     1.594e-009      -1.3737e-008   
  0.05            2.3564e-009     1.4111e-009     -1.248e-008    
  0.1             -1.3862e-009    1.5868e-009     2.8943e-008    
  0.15            -1.3873e-009    2.414e-010      1.1523e-008    
  0.2             -2.6972e-009    3.945e-010      1.2587e-008    
  0.25            2.4393e-009     -1.2231e-009    -2.3517e-008   
  0.3             2.4153e-009     1.4932e-009     -6.682e-009    
  0.35            -1.3895e-009    1.9579e-009     2.8433e-008    
  0.4             -1.3818e-009    1.5265e-009     1.1797e-008    
  0.45            -2.6813e-009    5.1529e-009     1.2841e-008    
  0.5             1.8417e-009     1.8494e-008     1.5495e-008    
  0.55            1.3418e-009     6.6575e-008     -1.5503e-008   
  0.6             2.8524e-009     2.5259e-007     -2.9833e-008   
  0.65            2.6273e-009     9.0476e-007     -7.2201e-008   
  0.7             2.619e-009      3.1238e-006     -2.1686e-007   
  0.75            1.859e-009      9.1426e-006     -6.5645e-007   
  0.8             -2.7334e-009    2.3542e-005     -1.5475e-006   
  0.85            -2.6852e-009    5.055e-005      -3.2716e-006   
  0.9             -2.3979e-009    9.395e-005      -5.7951e-006   
  0.95            -2.7312e-009    0.00015459      -9.0889e-006   
  1               2.8639e-009     0.00022958      -1.2918e-005   
  1.05            2.6637e-009     0.00032272      -1.7285e-005   
  1.1             1.9488e-009     0.00042778      -2.1954e-005   
  1.15            1.3708e-009     0.00054327      -2.6697e-005   
  1.2             2.8566e-009     0.00066738      -3.1306e-005   
  1.25            2.7846e-009     0.00080104      -3.5833e-005   
  1.3             2.2286e-009     0.00093861      -4.012e-005    
  1.35            1.4864e-009     0.00108176      -4.4203e-005   
  1.4             -1.5164e-009    0.0012347       -4.8093e-005   
  1.45            -1.3867e-009    0.0013869       -5.1455e-005   
  1.5             -2.6755e-009    0.0015432       -5.4554e-005   
  1.55            -2.3205e-009    0.0016993       -5.7346e-005   
  1.6             -1.6537e-009    0.0018613       -5.979e-005    
  1.65            -1.3856e-009    0.002024        -6.1895e-005   
  1.7             -2.7037e-009    0.002189        -6.3679e-005   
  1.75            -2.4907e-009    0.0023533       -6.5186e-005   
  1.8             -1.8514e-009    0.0025228       -6.6378e-005   
  1.85            -1.4136e-009    0.0026909       -6.7279e-005   
  1.9             -1.3876e-009    0.0028619       -6.7913e-005   
  1.95            -2.6108e-009    0.0030328       -6.8302e-005   
  2               -2.0884e-009    0.0032031       -6.8474e-005   
  2.05            -1.4949e-009    0.003375        -6.8402e-005   
  2.1             -1.3858e-009    0.0035487       -6.8134e-005   
  2.15            -2.6695e-009    0.0037229       -6.7683e-005   
  2.2             -2.2919e-009    0.0038952       -6.7077e-005   
  2.25            -1.6362e-009    0.00407         -6.6305e-005   
  2.3             -1.3846e-009    0.0042446       -6.5379e-005   
  2.35            -2.6991e-009    0.0044204       -6.4339e-005   
  2.4             -2.4712e-009    0.0045934       -6.3202e-005   
  2.45            -1.8391e-009    0.0047701       -6.1954e-005   
  2.5             -1.4105e-009    0.0049454       -6.0616e-005   
  2.55            -1.3846e-009    0.0051223       -5.9205e-005   
  2.6             -2.6009e-009    0.0052985       -5.7748e-005   
  2.65            -2.0679e-009    0.0054732       -5.6226e-005   
  2.7             -1.478e-009     0.0056493       -5.4672e-005   
  2.75            -1.3861e-009    0.0058287       -5.3053e-005   
  2.8             -2.6644e-009    0.006006        -5.144e-005    
  2.85            -2.2774e-009    0.0061806       -4.981e-005    
  2.9             -1.6276e-009    0.0063579       -4.8179e-005   
  2.95            -1.3859e-009    0.0065343       -4.6542e-005   
  3               -2.6976e-009    0.0067117       -4.4907e-005   
  3.05            -2.4543e-009    0.0068857       -4.3286e-005   
  3.1             -1.8248e-009    0.0070622       -4.1674e-005   
  3.15            -1.4063e-009    0.0072388       -4.0079e-005   
  3.2             -1.3862e-009    0.0074151       -3.8511e-005   
  3.25            -2.5962e-009    0.0075918       -3.6968e-005   
  3.3             -2.0469e-009    0.0077652       -3.5465e-005   
  3.35            -1.4797e-009    0.0079413       -3.3985e-005   
  3.4             -1.3868e-009    0.008117        -3.2539e-005   
  3.45            -2.6667e-009    0.0082929       -3.1124e-005   
  3.5             -2.2765e-009    0.0084664       -2.976e-005    
  3.55            -1.6142e-009    0.0086413       -2.8431e-005   
  3.6             -1.384e-009     0.0088168       -2.7138e-005   
  3.65            -1.3684e-009    0.0089918       -2.5889e-005   
  3.7             -2.465e-009     0.0091659       -2.4676e-005   
  3.75            -1.8084e-009    0.0093387       -2.3509e-005   
  3.8             -1.4067e-009    0.0095125       -2.2376e-005   
  3.85            -1.3844e-009    0.0096863       -2.1293e-005   
  3.9             -2.5952e-009    0.00986         -2.0251e-005   
  3.95            -2.0473e-009    0.010031        -1.9247e-005   
  4               -1.4767e-009    0.0102038       -1.8281e-005   
  4.05            -1.3871e-009    0.0103762       -1.7355e-005   
  4.1             -2.6621e-009    0.010549        -1.646e-005    
  4.15            -2.2635e-009    0.0107189       -1.5624e-005   
  4.2             -1.6065e-009    0.0108908       -1.4811e-005   
  4.25            -1.3826e-009    0.0110618       -1.4037e-005   
  4.3             -1.3664e-009    0.0112342       -1.3294e-005   
  4.35            2.2259e-009     0.011408        -1.2585e-005   
  4.4             1.4862e-009     0.011579        -1.193e-005    
  4.45            1.3189e-009     0.011747        -1.1291e-005   
  4.5             2.8464e-009     0.011915        -1.068e-005    
  4.55            2.4697e-009     0.012084        -1.0086e-005   
  4.6             -1.5004e-009    0.012254        -9.5081e-006   
  4.65            -1.3885e-009    0.012425        -8.9849e-006   
  4.7             -2.6714e-009    0.01259         -8.4789e-006   
  4.75            -2.2964e-009    0.012758        -8.0151e-006   
  4.8             -1.6243e-009    0.012924        -7.5582e-006   
  4.85            -1.3811e-009    0.013092        -7.1286e-006   
  4.9             -1.3697e-009    0.01326         -6.7221e-006   
  4.95            -2.481e-009     0.013423        -6.321e-006    
  5               -1.8277e-009    0.013579        -5.9488e-006   
END_DB

BEGIN_DB
 ICCAP_VAR VS         0              
 ICCAP_VAR VB         -2.5           
 ICCAP_VAR VD         0.1            

 #VG              IG              ID              IB             
  0               1.0691e-009     1.3008e-009     -1.2254e-008   
  0.05            1.8995e-009     -6.163e-010     -2.0038e-008   
  0.1             2.6125e-009     1.3744e-009     -9.499e-009    
  0.15            1.3095e-009     2.4296e-009     1.0122e-008    
  0.2             -1.3938e-009    1.4863e-009     2.8712e-008    
  0.25            -1.3959e-009    1.442e-010      1.0282e-008    
  0.3             -1.3823e-009    2.911e-010      1.2534e-008    
  0.35            -2.6917e-009    4.477e-010      1.3642e-008    
  0.4             2.0455e-009     -1.3702e-009    -1.0214e-008   
  0.45            2.5715e-009     1.3851e-009     -8.97e-009     
  0.5             -1.3854e-009    1.773e-009      2.1567e-008    
  0.55            -2.6922e-009    4.572e-010      1.3806e-008    
  0.6             2.0336e-009     -1.3741e-009    -9.807e-009    
  0.65            2.5764e-009     1.3853e-009     -8.922e-009    
  0.7             -1.3866e-009    1.7803e-009     2.1429e-008    
  0.75            -2.6904e-009    4.632e-010      1.3831e-008    
  0.8             2.0219e-009     -1.3691e-009    -1.0273e-008   
  0.85            2.5777e-009     1.4159e-009     -9.128e-009    
  0.9             -1.3834e-009    1.9267e-009     2.1096e-008    
  0.95            -2.6886e-009    1.1551e-009     1.3996e-008    
  1               -1.2267e-009    1.2419e-009     -1.0306e-008   
  1.05            2.8609e-009     1.5057e-008     2.5708e-008    
  1.1             -1.7096e-009    6.6381e-008     2.1255e-008    
  1.15            1.1796e-009     2.5791e-007     -1.8917e-008   
  1.2             -1.3955e-009    1.04548e-006    2.7566e-008    
  1.25            -2.7294e-009    3.3937e-006     -2.706e-008    
  1.3             1.3212e-009     9.443e-006      -2.718e-008    
  1.35            -1.509e-010     2.2179e-005     -9.214e-009    
  1.4             -1.4104e-009    4.2682e-005     2.3762e-008    
  1.45            -1.3907e-009    7.0157e-005     9.018e-009     
  1.5             -2.5907e-009    0.000102134     1.325e-008     
  1.55            -1.5805e-009    0.00013604      3.87e-010      
  1.6             -1.3937e-009    0.0001695       7.293e-009     
  1.65            -2.7059e-009    0.00020182      1.1304e-008    
  1.7             1.9431e-009     0.00023136      -2.2329e-008   
  1.75            1.3821e-009     0.00025977      -9.438e-009    
  1.8             2.8662e-009     0.00028635      -8.693e-009    
  1.85            2.7814e-009     0.00031163      -9.06e-010     
  1.9             2.5563e-009     0.00033497      8.486e-009     
  1.95            -1.7525e-009    0.00035729      2.2516e-008    
  2               -1.4075e-009    0.00037791      5.589e-009     
  2.05            -1.385e-009     0.0003976       9.304e-009     
  2.1             -2.5691e-009    0.00041617      1.3254e-008    
  2.15            -1.9653e-009    0.00043352      8.14e-010      
  2.2             -1.4674e-009    0.00045028      4.548e-009     
  2.25            -1.3954e-009    0.00046626      8.199e-009     
  2.3             -2.6666e-009    0.00048164      1.2625e-008    
  2.35            -2.1889e-009    0.00049602      4.75e-010      
  2.4             -1.5789e-009    0.0005101       3.413e-009     
  2.45            -1.3979e-009    0.00052352      6.967e-009     
  2.5             -2.7123e-009    0.00053644      1.1057e-008    
  2.55            1.9478e-009     0.00054861      -2.2271e-008   
  2.6             1.388e-009      0.00056049      -9.467e-009    
  2.65            2.8654e-009     0.00057204      -8.883e-009    
  2.7             2.7857e-009     0.00058332      -8.18e-010     
  2.75            2.5467e-009     0.00059421      8.57e-009      
  2.8             -1.7669e-009    0.00060476      2.2624e-008    
  2.85            -1.4132e-009    0.00061477      5.328e-009     
  2.9             -1.3867e-009    0.00062457      9.29e-009      
  2.95            -2.5731e-009    0.0006341       1.3251e-008    
  3               -1.9797e-009    0.00064294      6.91e-010      
  3.05            -1.4732e-009    0.00065183      4.517e-009     
  3.1             -1.3982e-009    0.00066044      8.113e-009     
  3.15            -2.6744e-009    0.00066885      1.251e-008     
  3.2             -2.2069e-009    0.0006767       5.33e-010      
  3.25            -1.5897e-009    0.0006846       3.492e-009     
  3.3             -1.3972e-009    0.0006923       6.963e-009     
  3.35            -2.713e-009     0.0006997       1.0789e-008    
  3.4             1.9741e-009     0.00070669      -2.2776e-008   
  3.45            1.395e-009      0.00071371      -9.255e-009    
  3.5             2.864e-009      0.00072046      -8.661e-009    
  3.55            2.7971e-009     0.00072711      -8.17e-010     
  3.6             5.89e-010       0.00073363      1.1865e-008    
  3.65            9.85e-010       0.0007398       9.922e-009     
  3.7             -2.083e-010     0.00074575      1.0639e-008    
  3.75            -1.4435e-009    0.00075195      2.1876e-008    
  3.8             -1.3936e-009    0.00075777      8.703e-009     
  3.85            -2.6381e-009    0.00076344      1.2722e-008    
  3.9             -2.1169e-009    0.00076874      5.48e-010      
  3.95            -1.5246e-009    0.00077409      4.062e-009     
  4               -1.3929e-009    0.00077926      7.558e-009     
  4.05            -2.6954e-009    0.00078447      1.157e-008     
  4.1             -1.4387e-009    0.00078938      -1.0187e-008   
  4.15            -2.091e-010     0.00079407      -1.222e-008    
