! VERSION = 6.00
BEGIN_HEADER
 ICCAP_INPUTS
  VG         V  B GROUND SMU4 0.001 LIN        2    0          5          6    1         
  VS         V  E GROUND SMU2 0.1 CON        0
  VD         V  S GROUND SMU1 0.1 LIN        1    0          5          101  0.05      
  VB         V  C GROUND SMU3 0.1 LIN        3    0          -2.5       2    -2.5      
 ICCAP_OUTPUTS
  ID         I  S GROUND SMU1 B
  IB         I  C GROUND SMU3 B
  IG         I  B GROUND SMU4 B
END_HEADER

BEGIN_DB
 ICCAP_VAR VG         0              
 ICCAP_VAR VS         0              
 ICCAP_VAR VB         0              

 #VD              ID              IB              IG             
  0               -8.887e-010     -1.8733e-008    -1.0022e-009   
  0.05            8.176e-010      2.0834e-008     -1.6256e-009   
  0.1             -2.0935e-009    4.938e-009      -7.732e-010    
  0.15            -1.4832e-009    -1.5169e-008    1.944e-009     
  0.2             2.1768e-009     -7.639e-009     5.642e-010     
  0.25            6.394e-010      1.6817e-008     -1.9829e-009   
  0.3             -2.0446e-009    3.388e-009      -4.985e-010    
  0.35            -1.336e-009     -2.0859e-008    2.3401e-009    
  0.4             2.0623e-009     -4.385e-009     3.193e-010     
  0.45            4.416e-010      1.3115e-008     -2.3157e-009   
  0.5             -2.0492e-009    -1.0514e-008    -5.09e-010     
  0.55            -2.0927e-009    -1.0036e-008    -7.105e-010    
  0.6             -2.0926e-009    -9.374e-009     -8.754e-010    
  0.65            -1.531e-009     -1.3018e-008    1.7538e-009    
  0.7             2.2191e-009     -8.983e-009     6.856e-010     
  0.75            7.321e-010      1.8687e-008     -1.795e-009    
  0.8             -2.0731e-009    4.206e-009      -6.354e-010    
  0.85            -6.737e-010     -1.8178e-008    2.1461e-009    
  0.9             2.1236e-009     -5.75e-009      4.384e-010     
  0.95            5.44e-010       1.4682e-008     -2.1617e-009   
  1               -2.0057e-009    2.798e-009      -3.636e-010    
  1.05            -2.0615e-009    -1.0176e-008    -5.7e-010      
  1.1             -2.0936e-009    -9.821e-009     -7.663e-010    
  1.15            -1.4809e-009    -1.5375e-008    1.9588e-009    
  1.2             2.1747e-009     -7.455e-009     5.608e-010     
  1.25            6.388e-010      1.6723e-008     -1.9836e-009   
  1.3             -2.0428e-009    3.409e-009      -4.969e-010    
  1.35            -1.3296e-009    -2.1097e-008    2.3506e-009    
  1.4             2.0634e-009     -4.664e-009     3.145e-010     
  1.45            4.429e-010      1.3085e-008     -2.3229e-009   
  1.5             -1.9692e-009    2.072e-009      -1.1724e-009   
  1.55            -1.0704e-009    -2.4861e-008    2.714e-009     
  1.6             7.874e-010      1.9995e-008     -1.6856e-009   
  1.65            -2.0874e-009    4.453e-009      -7.227e-010    
  1.7             -1.4596e-009    -1.6326e-008    2.0212e-009    
  1.75            2.1599e-009     -6.882e-009     5.157e-010     
  1.8             6.096e-010      1.5935e-008     -2.0426e-009   
  1.85            -2.0312e-009    2.911e-009      -4.454e-010    
  1.9             -1.3005e-009    -2.1819e-008    2.4046e-009    
  1.95            2.0407e-009     -4.052e-009     2.81e-010      
  2               2.1349e-009     9.199e-009      4.53e-010      
  2.05            5.588e-010      1.4812e-008     -2.1332e-009   
  2.1             -2.0088e-009    2.788e-009      -3.766e-010    
  2.15            -2.0631e-009    -1.017e-008     -5.829e-010    
  2.2             -6.356e-010     -1.7419e-008    2.2277e-009    
  2.25            2.1042e-009     -5.261e-009     3.982e-010     
  2.3             5.081e-010      1.3962e-008     -2.2183e-009   
  2.35            -1.9851e-009    2.575e-009      -3.075e-010    
  2.4             -2.049e-009     -1.0312e-008    -5.171e-010    
  2.45            -5.718e-010     -1.6754e-008    2.3212e-009    
  2.5             2.0745e-009     -4.544e-009     3.344e-010     
  2.55            4.607e-010      1.3299e-008     -2.295e-009    
  2.6             -1.9565e-009    2.261e-009      -2.423e-010    
  2.65            -2.0356e-009    -1.0485e-008    -4.47e-010     
  2.7             -2.0772e-009    -9.862e-009     -6.52e-010     
  2.75            -6.808e-010     -1.8354e-008    2.1239e-009    
  2.8             2.1303e-009     -6.183e-009     4.571e-010     
  2.85            5.599e-010      1.4828e-008     -2.1373e-009   
  2.9             -2.0102e-009    2.757e-009      -3.819e-010    
  2.95            -2.0629e-009    -1.0091e-008    -5.875e-010    
  3               -6.353e-010     -1.7513e-008    2.2249e-009    
  3.05            2.1034e-009     -5.175e-009     3.988e-010     
  3.1             5.111e-010      1.4022e-008     -2.2162e-009   
  3.15            -1.9838e-009    2.617e-009      -3.099e-010    
  3.2             -2.0463e-009    -1.0326e-008    -5.204e-010    
  3.25            -1.3482e-009    -2.0438e-008    2.3096e-009    
  3.3             2.0736e-009     -4.654e-009     3.35e-010      
  3.35            4.656e-010      1.3402e-008     -2.2922e-009   
  3.4             -2.052e-009     -1.0343e-008    -5.354e-010    
  3.45            -1.3562e-009    -2.0374e-008    2.2997e-009    
  3.5             2.0792e-009     -4.789e-009     3.498e-010     
  3.55            2.1681e-009     8.823e-009      5.301e-010     
  3.6             6.221e-010      1.6239e-008     -2.0226e-009   
  3.65            -2.0324e-009    3.026e-009      -4.74e-010     
  3.7             -1.3154e-009    -2.1407e-008    2.3797e-009    
  3.75            2.0558e-009     -4.432e-009     2.964e-010     
  3.8             2.146e-009      9.049e-009      4.779e-010     
  3.85            5.759e-010      1.5379e-008     -2.1019e-009   
  3.9             -1.0605e-009    -2.5062e-008    2.7201e-009    
  3.95            7.851e-010      1.9534e-008     -1.6909e-009   
  4               -2.0772e-009    4.411e-009      -7.164e-010    
  4.05            -1.4522e-009    -1.6204e-008    2.0334e-009    
  4.1             2.157e-009      -6.661e-009     5.142e-010     
  4.15            6.074e-010      1.5955e-008     -2.0481e-009   
  4.2             -2.0251e-009    3.21e-009       -4.6e-010      
  4.25            -1.303e-009     -2.1917e-008    2.4029e-009    
  4.3             2.0449e-009     -4.103e-009     2.844e-010     
  4.35            2.1378e-009     9.13e-009       4.662e-010     
  4.4             5.724e-010      1.4981e-008     -2.1209e-009   
  4.45            -2.0077e-009    2.988e-009      -3.969e-010    
  4.5             -2.0554e-009    -1.0274e-008    -5.996e-010    
  4.55            -2.0843e-009    -9.633e-009     -8.026e-010    
  4.6             -1.4873e-009    -1.4343e-008    1.8895e-009    
  4.65            2.1866e-009     -7.955e-009     5.98e-010      
  4.7             6.757e-010      1.7004e-008     -1.9218e-009   
  4.75            -2.0442e-009    3.694e-009      -5.47e-010     
  4.8             -1.3574e-009    -1.9974e-008    2.2827e-009    
  4.85            2.0853e-009     -5.037e-009     3.58e-010      
  4.9             4.894e-010      1.3587e-008     -2.2666e-009   
  4.95            -1.9637e-009    2.522e-009      -2.865e-010    
  5               -2.0302e-009    -1.0468e-008    -4.914e-010    
END_DB

BEGIN_DB
 ICCAP_VAR VG         1              
 ICCAP_VAR VS         0              
 ICCAP_VAR VB         0              

 #VD              ID              IB              IG             
  0               -4.624e-007     -1.072e-008     9.572e-010     
  0.05            3.4943e-005     1.9637e-008     -1.0071e-009   
  0.1             5.6537e-005     1.025e-008      -2.5973e-009   
  0.15            6.8727e-005     2.5565e-008     -2.2968e-009   
  0.2             7.5535e-005     1.7357e-008     -1.5629e-009   
  0.25            7.9882e-005     1.1313e-008     -2.2218e-009   
  0.3             8.1614e-005     8.229e-009      1.9037e-009    
  0.35            8.391e-005      -2.0962e-008    2.7588e-009    
  0.4             8.5748e-005     -2.502e-008     2.4707e-009    
  0.45            8.7552e-005     -1.9708e-008    1.8513e-009    
  0.5             8.9297e-005     -9.954e-009     -8.984e-010    
  0.55            9.1193e-005     2.5403e-008     -2.3402e-009   
  0.6             9.2349e-005     1.6792e-008     -1.6137e-009   
  0.65            9.3701e-005     1.0921e-008     -2.2738e-009   
  0.7             9.4649e-005     1.761e-008      -1.5422e-009   
  0.75            9.5802e-005     2.5287e-008     -2.3554e-009   
  0.8             9.676e-005      1.6737e-008     -1.6289e-009   
  0.85            9.7941e-005     1.0922e-008     -2.2802e-009   
  0.9             9.8699e-005     1.7602e-008     -1.5547e-009   
  0.95            9.973e-005      2.5209e-008     -2.3595e-009   
  1               0.000100602     1.6633e-008     -1.6297e-009   
  1.05            0.000101571     2.4579e-008     -2.4257e-009   
  1.1             0.000102423     1.5433e-008     -1.72e-009     
  1.15            0.000103395     1.0741e-008     -2.3618e-009   
  1.2             0.000104051     1.6658e-008     -1.6443e-009   
  1.25            0.000105084     1.0981e-008     -2.2959e-009   
  1.3             0.000105712     1.758e-008      -1.5697e-009   
  1.35            0.000106569     2.5062e-008     -2.3689e-009   
  1.4             0.000107267     1.6431e-008     -1.6477e-009   
  1.45            0.000108098     2.4561e-008     -2.4421e-009   
  1.5             0.000108877     1.5202e-008     -1.736e-009    
  1.55            0.000109767     1.0662e-008     -2.3811e-009   
  1.6             0.000110312     1.6158e-008     -1.6585e-009   
  1.65            0.000111244     1.0749e-008     -2.3169e-009   
  1.7             0.00011179      1.7099e-008     -1.5896e-009   
  1.75            0.000112672     1.13e-008       -2.2513e-009   
  1.8             0.000113213     1.7606e-008     -1.5225e-009   
  1.85            0.000114073     1.1568e-008     -2.1728e-009   
  1.9             0.000113265     7.523e-009      1.9413e-009    
  1.95            0.00011476      -1.1196e-008    -2.4851e-009   
  2               0.00011605      1.7446e-008     -1.5002e-009   
  2.05            0.00011527      6.09e-009       1.059e-009     
  2.1             0.00011637      -2.22e-008      1.8929e-009    
  2.15            0.00011746      -1.2538e-008    -9.726e-010    
  2.2             0.00011871      6.726e-009      -2.5674e-009   
  2.25            0.00011944      8.848e-009      -1.8238e-009   
  2.3             0.00012021      3.744e-009      -2.3071e-009   
  2.35            0.00012057      1.221e-009      -2.5824e-009   
  2.4             0.00012142      1.829e-009      -1.8728e-009   
  2.45            0.00012084      -7.917e-009     2.1883e-009    
  2.5             0.00012156      -2.9598e-008    -6.86e-010     
  2.55            0.00012331      1.099e-009      -2.4454e-009   
  2.6             0.00012222      -2.0287e-008    1.8315e-009    
  2.65            0.00012329      -4.6535e-008    -1.836e-010    
  2.7             0.00012506      -2.5733e-008    -1.554e-009    
  2.75            0.00012462      -4.5566e-008    2.3413e-009    
  2.8             0.00012557      -7.3016e-008    -9.101e-010    
  2.85            0.00012699      -4.8451e-008    -2.169e-009    
  2.9             0.00012632      -8.0254e-008    2.0412e-009    
  2.95            0.00012725      -1.2946e-007    2.7586e-009    
  3               0.00012898      -1.3264e-007    -1.6537e-009   
  3.05            0.00012926      -1.3318e-007    -7.69e-011     
  3.1             0.00012876      -1.8266e-007    2.1099e-009    
  3.15            0.00012986      -2.0307e-007    -2.0699e-009   
  3.2             0.00013065      -2.1497e-007    5.652e-010     
  3.25            0.00013046      -2.8411e-007    2.6678e-009    
  3.3             0.00013223      -3.0795e-007    -1.8219e-009   
  3.35            0.000133        -3.3074e-007    1.352e-010     
  3.4             0.00013254      -4.079e-007     1.7221e-009    
  3.45            0.00013369      -4.535e-007     -2.2604e-009   
  3.5             0.00013425      -4.9548e-007    7.929e-010     
  3.55            0.00013429      -6.0136e-007    2.4108e-009    
  3.6             0.00013578      -6.5851e-007    -1.944e-009    
  3.65            0.0001367       -7.2141e-007    3.692e-010     
  3.7             0.00013648      -8.4843e-007    2.7602e-009    
  3.75            0.0001386       -9.3955e-007    -1.6927e-009   
  3.8             0.0001387       -1.0286e-006    -3.73e-011     
  3.85            0.00013879      -1.1523e-006    2.7649e-009    
  3.9             0.00014078      -1.3133e-006    -1.6056e-009   
  3.95            0.00014081      -1.4361e-006    -1.217e-010    
  4               0.00014045      -1.6254e-006    2.2106e-009    
  4.05            0.00014207      -1.8075e-006    -2.0284e-009   
  4.1             0.00014321      -1.9759e-006    5.037e-010     
  4.15            0.00014289      -2.2301e-006    2.7048e-009    
  4.2             0.00014509      -2.4443e-006    -1.7861e-009   
  4.25            0.00014581      -2.6635e-006    8.72e-011      
  4.3             0.00014556      -2.9609e-006    1.8165e-009    
  4.35            0.00014722      -3.253e-006     -2.2101e-009   
  4.4             0.00014805      -3.5286e-006    7.438e-010     
  4.45            0.0001483       -3.9276e-006    2.4885e-009    
  4.5             0.00015027      -4.2566e-006    -1.9097e-009   
  4.55            0.00015161      -4.5983e-006    3.102e-010     
  4.6             0.00015139      -5.051e-006     1.4671e-009    
  4.65            0.00015338      -5.4839e-006    -2.4025e-009   
  4.7             0.00015392      -5.8977e-006    9.426e-010     
  4.75            0.00015494      -6.4719e-006    2.1445e-009    
  4.8             0.00015685      -6.9539e-006    -2.0555e-009   
  4.85            0.00015838      -7.4458e-006    5.478e-010     
  4.9             0.00015848      -8.1089e-006    2.6792e-009    
  4.95            0.00016126      -8.6886e-006    -1.807e-009    
  5               0.00016242      -9.2751e-006    1.213e-010     
END_DB

BEGIN_DB
 ICCAP_VAR VG         2              
 ICCAP_VAR VS         0              
 ICCAP_VAR VB         0              

 #VD              ID              IB              IG             
  0               -2.8871e-006    -1.0567e-008    1.625e-009     
  0.05            0.00018452      -1.0395e-008    -2.5126e-009   
  0.1             0.00036203      1.9197e-008     -1.4372e-009   
  0.15            0.00053167      7.593e-009      1.0955e-009    
  0.2             0.00069359      -1.8671e-008    1.7892e-009    
  0.25            0.00084646      -9.68e-009      -1.0133e-009   
  0.3             0.00098977      1.096e-008      -2.5486e-009   
  0.35            0.00112237      1.4888e-008     -1.7327e-009   
  0.4             0.0012441       6.118e-009      -2.5478e-009   
  0.45            0.0013544       2.0465e-008     -1.3708e-009   
  0.5             0.0014528       1.4585e-008     -1.7425e-009   
  0.55            0.0015399       1.116e-008      -2.2533e-009   
  0.6             0.0016133       8.252e-009      1.9878e-009    
  0.65            0.0016769       -2.4282e-008    2.6633e-009    
  0.7             0.0017314       -2.0912e-008    1.9248e-009    
  0.75            0.0017757       -1.1099e-008    1.581e-010     
  0.8             0.0018157       1.2294e-008     -2.0864e-009   
  0.85            0.0018457       1.0856e-008     -2.4946e-009   
  0.9             0.0018703       1.6097e-008     -1.637e-009    
  0.95            0.0018906       1.208e-008      -2.1392e-009   
  1               0.0019076       2.1099e-008     -1.3465e-009   
  1.05            0.0019218       1.5521e-008     -1.6868e-009   
  1.1             0.0019344       1.1641e-008     -2.2031e-009   
  1.15            0.0019451       2.0646e-008     -1.3696e-009   
  1.2             0.0019548       1.4838e-008     -1.7418e-009   
  1.25            0.0019636       1.1521e-008     -2.25e-009     
  1.3             0.0019707       1.9802e-008     -1.3976e-009   
  1.35            0.0019781       1.4232e-008     -1.7902e-009   
  1.4             0.0019847       2.5024e-008     -2.4381e-009   
  1.45            0.0019907       1.7124e-008     -1.5475e-009   
  1.5             0.0019971       1.2398e-008     -2.0407e-009   
  1.55            0.0020011       8.942e-009      7.274e-010     
  1.6             0.0020042       -2.5411e-008    2.5125e-009    
  1.65            0.0020102       -1.7329e-008    1.6922e-009    
  1.7             0.0020141       -2.5521e-008    2.4371e-009    
  1.75            0.0020203       -1.0449e-008    -6.554e-010    
  1.8             0.0020264       7.807e-009      -2.6198e-009   
  1.85            0.0020311       1.0725e-008     -2.3148e-009   
  1.9             0.0020319       8.176e-009      1.9443e-009    
  1.95            0.0020359       -2.3898e-008    2.6981e-009    
  2               0.00204         -2.2061e-008    2.0086e-009    
  2.05            0.002043        -1.1685e-008    1.896e-010     
  2.1             0.0020505       1.1597e-008     -2.1561e-009   
  2.15            0.0020535       2.036e-008      -1.3525e-009   
  2.2             0.0020576       1.4353e-008     -1.6998e-009   
  2.25            0.002061        9.998e-009      -2.2129e-009   
  2.3             0.0020645       8.767e-009      -2.556e-009    
  2.35            0.0020673       1.0943e-008     -1.7521e-009   
  2.4             0.002071        6.014e-009      -2.2627e-009   
  2.45            0.0020735       3.111e-009      -2.5701e-009   
  2.5             0.0020767       3.255e-009      -1.8044e-009   
  2.55            0.0020773       -8.291e-009     2.2177e-009    
  2.6             0.0020808       -3.2114e-008    -7.27e-010     
  2.65            0.0020853       -4.329e-009     -2.4156e-009   
  2.7             0.0020847       -3.1326e-008    1.8614e-009    
  2.75            0.002088        -6.3954e-008    -2.285e-010    
  2.8             0.0020935       -5.1877e-008    -1.4893e-009   
  2.85            0.0020941       -8.4558e-008    2.3638e-009    
  2.9             0.0020971       -1.4241e-007    8.464e-010     
  2.95            0.0021012       -1.4529e-007    -1.3313e-009   
  3               0.0021019       -1.8253e-007    2.4927e-009    
  3.05            0.0021062       -2.4502e-007    -1.0985e-009   
  3.1             0.0021094       -2.6973e-007    -1.7966e-009   
  3.15            0.0021094       -3.5301e-007    2.2252e-009    
  3.2             0.0021121       -4.5016e-007    -7.34e-010     
  3.25            0.0021169       -5.0887e-007    -2.4068e-009   
  3.3             0.0021155       -6.3519e-007    1.8669e-009    
  3.35            0.0021192       -7.8208e-007    -2.447e-010    
  3.4             0.0021243       -9.0107e-007    -1.4867e-009   
  3.45            0.0021243       -1.08418e-006   2.3721e-009    
  3.5             0.0021258       -1.3029e-006    2.7705e-009    
  3.55            0.0021323       -1.5193e-006    -1.6668e-009   
  3.6             0.0021334       -1.7555e-006    -4.96e-011     
  3.65            0.0021341       -2.0738e-006    2.0677e-009    
  3.7             0.0021382       -2.3972e-006    -2.0924e-009   
  3.75            0.0021415       -2.757e-006     5.873e-010     
  3.8             0.0021416       -3.213e-006     2.6554e-009    
  3.85            0.0021471       -3.6761e-006    -1.8335e-009   
  3.9             0.0021503       -4.1952e-006    1.58e-010      
  3.95            0.0021508       -4.8251e-006    1.6624e-009    
  4               0.0021559       -5.4902e-006    -2.2798e-009   
  4.05            0.0021582       -6.2298e-006    8.146e-010     
  4.1             0.0021602       -7.1e-006       2.3784e-009    
  4.15            0.0021655       -8.0221e-006    -1.9615e-009   
