! VERSION = 6.00
BEGIN_HEADER
 ICCAP_INPUTS
  VG         V  B GROUND SMU4 0.001 LIN        1    0          5          101  0.05      
  VS         V  E GROUND SMU2 0.1 CON        0
  VB         V  C GROUND SMU3 0.1 LIN        3    0          -5         3    -2.5      
  VD         V  S GROUND SMU1 0.1 LIN        2    0.1        5          2    4.9       
 ICCAP_OUTPUTS
  IG         I  B GROUND SMU4 B
  ID         I  S GROUND SMU1 B
  IB         I  C GROUND SMU3 B
END_HEADER

BEGIN_DB
 ICCAP_VAR VS         0              
 ICCAP_VAR VB         0              
 ICCAP_VAR VD         0.1            

 #VG              IG              ID              IB             
  0               9.342e-010      1.5417e-009     1.3114e-008    
  0.05            2.644e-009      1.5159e-009     -1.9676e-008   
  0.1             -2.3688e-009    1.089e-009      1.2637e-008    
  0.15            -9.98e-011      -1.1957e-009    1.274e-009     
  0.2             2.6654e-009     -3.749e-010     -2.5516e-008   
  0.25            -1.7015e-009    1.4744e-009     1.8776e-008    
  0.3             -1.4982e-009    3.505e-010      3.882e-009     
  0.35            -1.3599e-009    5.62e-010       5.274e-009     
  0.4             -2.48e-009      1.1056e-009     7.217e-009     
  0.45            -4.897e-010     8.461e-010      -1.102e-008    
  0.5             2.3613e-009     7.4208e-009     -2.2117e-008   
  0.55            -1.8368e-009    2.8275e-008     -1.7779e-008   
  0.6             -9.21e-010      1.0933e-007     1.1e-008       
  0.65            -2.5676e-009    3.8794e-007     7.289e-009     
  0.7             -1.5446e-009    1.3303e-006     -9.18e-009     
  0.75            1.8366e-009     4.1425e-006     -2.0197e-008   
  0.8             1.5609e-009     1.0961e-005     -2.174e-008    
  0.85            1.9409e-009     2.5793e-005     7.456e-009     
  0.9             -2.2258e-009    5.1938e-005     1.1724e-008    
  0.95            -8.017e-010     8.7755e-005     -1.0836e-008   
  1               -1.561e-009     0.00013387      -1.7597e-008   
  1.05            1.7901e-009     0.00018183      -1.9602e-008   
  1.1             2.4707e-009     0.00023305      -8.452e-009    
  1.15            -2.4133e-009    0.00028562      1.0654e-008    
  1.2             -1.8557e-009    0.00033411      1.123e-009     
  1.25            -1.3804e-009    0.00038089      3.273e-009     
  1.3             -2.5533e-009    0.00042534      6.708e-009     
  1.35            -9.396e-010     0.00046693      -1.017e-008    
  1.4             2.6451e-009     0.0005058       -1.2201e-008   
  1.45            -1.3723e-009    0.00054496      1.9641e-008    
  1.5             -2.5544e-009    0.00058108      6.926e-009     
  1.55            -9.538e-010     0.00061505      -1.0029e-008   
  1.6             2.165e-010      0.00064717      -1.1887e-008   
  1.65            2.7193e-009     0.00067883      -2.1024e-008   
  1.7             2.4268e-009     0.00070936      -2.247e-009    
  1.75            1.7886e-009     0.0007381       -3.892e-009    
  1.8             2.4623e-009     0.00076587      -8.386e-009    
  1.85            -2.4283e-009    0.0007933       1.0752e-008    
  1.9             -1.8724e-009    0.00081883      1.14e-009      
  1.95            -1.3883e-009    0.00084375      2.924e-009     
  2               -2.5472e-009    0.00086802      6.388e-009     
  2.05            2.4544e-009     0.00089074      -2.6009e-008   
  2.1             1.7952e-009     0.00091346      -3.857e-009    
  2.15            2.4601e-009     0.00093521      -8.17e-009     
  2.2             6.23e-010       0.00095673      8.988e-009     
  2.25            -1.5512e-009    0.0009775       1.6336e-008    
  2.3             -2.4931e-009    0.00099728      4.689e-009     
  2.35            -8.041e-010     0.00101653      -1.0615e-008   
  2.4             2.7167e-009     0.00103498      -1.471e-008    
  2.45            2.401e-009      0.00105384      -2.374e-009    
  2.5             1.7519e-009     0.00107152      -3.969e-009    
  2.55            2.4709e-009     0.00108884      -8.599e-009    
  2.6             -2.405e-009     0.00110625      1.0757e-008    
  2.65            -1.8342e-009    0.00112225      1.232e-009     
  2.7             -1.3742e-009    0.00113843      3.062e-009     
  2.75            1.8575e-009     0.0011546       1.2094e-008    
  2.8             2.4331e-009     0.0011702       -7.559e-009    
  2.85            5.883e-010      0.0011854       9.127e-009     
  2.9             -1.583e-009     0.0011999       1.5895e-008    
  2.95            -2.4768e-009    0.0012138       4.213e-009     
  3               -7.788e-010     0.0012275       -1.088e-008    
  3.05            2.7211e-009     0.0012408       -1.5385e-008   
  3.1             2.4415e-009     0.0012544       -2.197e-009    
  3.15            -2.4865e-009    0.0012673       1.1138e-008    
  3.2             -1.9846e-009    0.0012794       1.056e-009     
  3.25            -1.4499e-009    0.0012918       2.708e-009     
  3.3             -2.5209e-009    0.0013039       5.51e-009      
  3.35            2.5462e-009     0.0013155       -2.5768e-008   
  3.4             5.986e-010      0.001327        9.013e-009     
  3.45            -1.5686e-009    0.0013383       1.607e-008     
  3.5             -2.4794e-009    0.001349        4.467e-009     
  3.55            -7.891e-010     0.0013596       -1.0805e-008   
  3.6             2.7205e-009     0.0013698       -1.5098e-008   
  3.65            2.422e-009      0.0013804       -2.338e-009    
  3.7             -2.4779e-009    0.0013905       1.1043e-008    
  3.75            -1.9573e-009    0.0013997       1.067e-009     
  3.8             -1.4381e-009    0.0014094       2.613e-009     
  3.85            -2.5257e-009    0.001419        5.608e-009     
  3.9             2.5187e-009     0.0014279       -2.592e-008    
  3.95            -2.5204e-009    0.001437        1.1083e-008    
  4               2.7188e-009     0.0014454       -1.6886e-008   
  4.05            2.5129e-009     0.0014542       -2.081e-009    
  4.1             6.123e-010      0.0014624       9.015e-009     
  4.15            -1.5626e-009    0.0014707       1.6317e-008    
  4.2             -2.4829e-009    0.0014786       4.677e-009     
  4.25            -7.947e-010     0.0014864       -1.0617e-008   
  4.3             2.7236e-009     0.0014934       -1.4867e-008   
  4.35            2.3999e-009     0.0015017       -2.376e-009    
  4.4             1.7615e-009     0.0015092       -3.897e-009    
  4.45            2.4605e-009     0.0015161       -8.384e-009    
  4.5             -2.4146e-009    0.0015235       1.0713e-008    
  4.55            -1.8354e-009    0.0015295       1.205e-009     
  4.6             -1.3784e-009    0.0015363       3.164e-009     
  4.65            -2.5498e-009    0.0015433       6.627e-009     
  4.7             -9.392e-010     0.0015494       -1.0098e-008   
  4.75            2.6489e-009     0.001555        -1.2028e-008   
  4.8             -1.3669e-009    0.0015618       2.0218e-008    
  4.85            -2.5532e-009    0.0015679       7.015e-009     
  4.9             2.3846e-009     0.0015736       -2.6076e-008   
  4.95            1.7277e-009     0.0015794       -4.112e-009    
  5               2.4764e-009     0.0015851       -8.658e-009    
END_DB

BEGIN_DB
 ICCAP_VAR VS         0              
 ICCAP_VAR VB         0              
 ICCAP_VAR VD         5              

 #VG              IG              ID              IB             
  0               1.0406e-009     1.5304e-009     -1.7965e-008   
  0.05            2.3381e-009     1.7308e-009     -1.4452e-008   
  0.1             -1.6433e-009    1.5784e-009     2.0231e-008    
  0.15            -1.05e-011      -1.0147e-009    -6.42e-009     
  0.2             2.7059e-009     1.5724e-009     -2.5521e-008   
  0.25            2.6114e-009     1.5787e-009     -2.509e-009    
  0.3             -1.6034e-009    1.7656e-009     2.0992e-008    
  0.35            2.3719e-009     2.1005e-009     -6.313e-009    
  0.4             2.141e-009      3.7226e-009     -4.045e-009    
  0.45            2.3467e-009     1.0556e-008     1.0399e-008    
  0.5             -1.3952e-009    3.684e-008      1.7648e-008    
  0.55            2.6053e-009     1.3103e-007     -2.0541e-008   
  0.6             2.7158e-009     4.8677e-007     -3.8648e-008   
  0.65            -4.495e-010     1.7663e-006     -1.314e-007    
  0.7             -1.423e-010     6.0197e-006     -3.9581e-007   
  0.75            -2.4216e-009    1.6667e-005     -1.08653e-006  
  0.8             2.7227e-009     4.0624e-005     -2.6426e-006   
  0.85            2.5294e-009     8.5613e-005     -5.2896e-006   
  0.9             1.9128e-009     0.00015587      -9.2233e-006   
  0.95            -2.4655e-009    0.00025589      -1.4295e-005   
  1               -1.9537e-009    0.00037897      -2.0606e-005   
  1.05            -1.4659e-009    0.00052738      -2.7405e-005   
  1.1             -2.5156e-009    0.00069604      -3.4554e-005   
  1.15            -2.5803e-009    0.00088326      -4.201e-005    
  1.2             -2.271e-009     0.00108421      -4.9236e-005   
  1.25            2.2694e-009     0.0012952       -5.6318e-005   
  1.3             2.5275e-009     0.00152         -6.2879e-005   
  1.35            2.7216e-009     0.0017528       -6.9282e-005   
  1.4             2.535e-009      0.0019924       -7.5282e-005   
  1.45            1.9712e-009     0.0022379       -8.0772e-005   
  1.5             2.3584e-009     0.0024885       -8.5782e-005   
  1.55            2.6353e-009     0.0027465       -9.0225e-005   
  1.6             2.6982e-009     0.003007        -9.426e-005    
  1.65            2.3178e-009     0.00327         -9.7746e-005   
  1.7             1.7114e-009     0.0035357       -0.000100751   
  1.75            2.4775e-009     0.0038046       -0.000103305   
  1.8             2.7156e-009     0.0040787       -0.000105366   
  1.85            2.5843e-009     0.0043518       -0.000107026   
  1.9             2.0474e-009     0.0046263       -0.000108263   
  1.95            2.3266e-009     0.004902        -0.000109116   
  2               2.6038e-009     0.0051816       -0.000109599   
  2.05            2.7129e-009     0.0054608       -0.000109745   
  2.1             2.3847e-009     0.0057402       -0.000109572   
  2.15            1.7881e-009     0.0060196       -0.000109119   
  2.2             2.4438e-009     0.0063011       -0.000108389   
  2.25            2.7006e-009     0.006585        -0.000107409   
  2.3             2.6245e-009     0.0068676       -0.000106217   
  2.35            2.1323e-009     0.0071501       -0.000104816   
  2.4             2.3002e-009     0.0074322       -0.000103238   
  2.45            2.5714e-009     0.0077172       -0.000101493   
  2.5             2.7236e-009     0.008002        -9.9606e-005   
  2.55            2.451e-009      0.0082852       -9.7592e-005   
  2.6             1.8607e-009     0.0085688       -9.5477e-005   
  2.65            2.4065e-009     0.0088523       -9.3267e-005   
  2.7             2.6775e-009     0.009139        -9.098e-005    
  2.75            2.6582e-009     0.0094236       -8.8625e-005   
  2.8             2.2039e-009     0.0097115       -8.6198e-005   
  2.85            2.2752e-009     0.0099952       -8.3766e-005   
  2.9             2.5392e-009     0.010281        -8.1304e-005   
  2.95            3.177e-010      0.010576        -7.8829e-005   
  3               2.439e-010      0.01086         -7.6266e-005   
  3.05            6.513e-010      0.011144        -7.3795e-005   
  3.1             9.974e-010      0.011422        -7.1338e-005   
  3.15            1.3124e-009     0.011702        -6.8895e-005   
  3.2             1.6966e-009     0.011988        -6.6482e-005   
  3.25            2.0628e-009     0.012273        -6.4093e-005   
  3.3             2.2937e-009     0.012557        -6.1742e-005   
  3.35            2.556e-009      0.012841        -5.9433e-005   
  3.4             2.7284e-009     0.013121        -5.7158e-005   
  3.45            2.4813e-009     0.013403        -5.4926e-005   
  3.5             1.9033e-009     0.013684        -5.2757e-005   
  3.55            2.3833e-009     0.013963        -5.0626e-005   
  3.6             2.6599e-009     0.014246        -4.8562e-005   
  3.65            2.6783e-009     0.014528        -4.6542e-005   
  3.7             2.2546e-009     0.014804        -4.459e-005    
  3.75            2.2625e-009     0.015084        -4.2696e-005   
  3.8             2.5217e-009     0.015365        -4.0847e-005   
  3.85            2.7208e-009     0.015645        -3.9079e-005   
  3.9             2.5406e-009     0.015923        -3.7357e-005   
  3.95            1.9799e-009     0.016199        -3.5694e-005   
  4               2.353e-009      0.016473        -3.4094e-005   
  4.05            2.6292e-009     0.016753        -3.2546e-005   
  4.1             2.7028e-009     0.01703         -3.1055e-005   
  4.15            2.318e-009      0.017304        -2.9629e-005   
  4.2             1.7291e-009     0.017577        -2.8251e-005   
  4.25            2.4692e-009     0.017851        -2.6933e-005   
  4.3             2.7158e-009     0.018129        -2.5663e-005   
  4.35            2.5909e-009     0.0184          -2.4445e-005   
  4.4             2.0632e-009     0.018677        -2.3267e-005   
  4.45            2.3237e-009     0.018949        -2.2152e-005   
  4.5             2.6016e-009     0.019219        -2.1079e-005   
  4.55            2.7223e-009     0.019491        -2.0059e-005   
  4.6             2.3995e-009     0.019762        -1.9084e-005   
  4.65            1.8095e-009     0.020031        -1.8155e-005   
  4.7             2.4369e-009     0.020297        -1.7257e-005   
  4.75            2.6995e-009     0.020567        -1.6397e-005   
  4.8             2.6362e-009     0.020838        -1.5583e-005   
  4.85            2.1449e-009     0.021102        -1.4801e-005   
  4.9             2.298e-009      0.021369        -1.4057e-005   
  4.95            2.5711e-009     0.021635        -1.333e-005    
  5               2.7311e-009     0.021899        -1.2652e-005   
END_DB

BEGIN_DB
 ICCAP_VAR VS         0              
 ICCAP_VAR VB         -2.5           
 ICCAP_VAR VD         0.1            

 #VG              IG              ID              IB             
  0               9.528e-010      1.6475e-009     1.1121e-008    
  0.05            2.5627e-009     1.5982e-009     -1.8308e-008   
  0.1             -2.5538e-009    1.7107e-009     2.5468e-008    
  0.15            2.1288e-009     -6.639e-010     -1.8015e-008   
  0.2             2.2032e-009     1.739e-009      -5.439e-009    
  0.25            -2.0236e-009    1.325e-009      1.4574e-008    
  0.3             2.7203e-009     -7.924e-010     2.523e-009     
  0.35            2.7169e-009     1.4912e-009     -1.973e-009    
  0.4             1.732e-009      2.0372e-009     -2.402e-009    
  0.45            -2.5752e-009    8.892e-010      1.0527e-008    
  0.5             2.2468e-009     -6.079e-010     -1.9909e-008   
  0.55            2.1544e-009     1.7631e-009     -4.641e-009    
  0.6             -2.1306e-009    1.2716e-009     1.3332e-008    
  0.65            1.8419e-009     -7.554e-010     2.145e-009     
  0.7             2.2971e-009     1.7077e-009     -7.674e-009    
  0.75            -1.7559e-009    1.4692e-009     1.7897e-008    
  0.8             2.5517e-009     -4.14e-010      -2.4548e-008   
  0.85            -1.4973e-009    1.6569e-009     2.2549e-008    
  0.9             -1.3639e-009    7.273e-010      4.935e-009     
  0.95            -2.4601e-009    1.842e-009      7.086e-009     
  1               -5.012e-010     4.6541e-009     -1.0593e-008   
  1.05            2.296e-009      2.8057e-008     1.0716e-008    
  1.1             2.7296e-009     1.1636e-007     2.438e-009     
  1.15            2.4698e-009     4.9014e-007     -2.181e-009    
  1.2             1.9658e-009     1.8471e-006     1.0456e-008    
  1.25            -2.2985e-009    6.2714e-006     2.5659e-008    
  1.3             2.4282e-009     1.6551e-005     -1.1178e-008   
  1.35            5.924e-010      3.7479e-005     8.647e-009     
  1.4             -1.5688e-009    7.0349e-005     1.6298e-008    
  1.45            -2.4672e-009    0.000113761     4.461e-009     
  1.5             -2.293e-009     0.00016379      -1.0936e-008   
  1.55            -4.674e-010     0.00021604      -1.1083e-008   
  1.6             1.9322e-009     0.00026879      -2.08e-008     
  1.65            2.3796e-009     0.0003203       -6.805e-009    
  1.7             -1.3517e-009    0.00037015      2.216e-008     
  1.75            -2.5732e-009    0.0004164       7.883e-009     
  1.8             2.2508e-009     0.00045864      -2.4674e-008   
  1.85            2.2692e-009     0.00049989      -4.395e-009    
  1.9             -1.4984e-009    0.00053931      1.7754e-008    
  1.95            -2.4994e-009    0.00057579      4.915e-009     
  2               2.529e-009      0.0006096       -2.559e-008    
  2.05            -2.5309e-009    0.00064336      2.3004e-008    
  2.1             2.7321e-009     0.00067408      -1.7241e-008   
  2.15            2.5186e-009     0.00070437      -2.1e-009      
  2.2             -2.5333e-009    0.0007333       2.2996e-008    
  2.25            2.73e-009       0.00076014      -1.7207e-008   
  2.3             2.5117e-009     0.00078676      -2.033e-009    
  2.35            -2.5279e-009    0.00081227      2.3088e-008    
  2.4             2.728e-009      0.00083618      -1.7187e-008   
  2.45            2.5166e-009     0.00085994      -2.013e-009    
  2.5             5.826e-010      0.00088256      8.705e-009     
  2.55            -1.5829e-009    0.00090473      1.6076e-008    
  2.6             -2.4626e-009    0.00092567      4.206e-009     
  2.65            -7.784e-010     0.00094585      -1.0584e-008   
  2.7             2.7271e-009     0.00096538      -1.4901e-008   
  2.75            2.3778e-009     0.00098497      -2.36e-009     
  2.8             1.7619e-009     0.00100375      -3.767e-009    
  2.85            2.4551e-009     0.00102174      -8.225e-009    
  2.9             -2.3897e-009    0.00103969      1.0454e-008    
  2.95            -1.8083e-009    0.0010563       1.173e-009     
  3               -1.3789e-009    0.0010728       3.054e-009     
  3.05            -2.5456e-009    0.00108919      6.835e-009     
  3.1             2.3791e-009     0.00110439      -2.5613e-008   
  3.15            1.7407e-009     0.00111971      -3.902e-009    
  3.2             2.4658e-009     0.00113448      -8.697e-009    
  3.25            2.6404e-009     0.0011492       1.0325e-008    
  3.3             -1.3856e-009    0.0011637       2.0359e-008    
  3.35            -2.5461e-009    0.0011775       6.821e-009     
  3.4             2.3787e-009     0.0011906       -2.5591e-008   
  3.45            1.7291e-009     0.0012038       -3.811e-009    
  3.5             2.4697e-009     0.0012163       -8.778e-009    
  3.55            -2.365e-009     0.0012291       1.0426e-008    
  3.6             -1.7862e-009    0.0012408       1.252e-009     
  3.65            -1.3645e-009    0.0012526       3.116e-009     
  3.7             -2.5547e-009    0.0012643       7.101e-009     
  3.75            2.3536e-009     0.0012751       -2.545e-008    
  3.8             1.7057e-009     0.0012861       -4.046e-009    
  3.85            2.4824e-009     0.0012967       -9.021e-009    
  3.9             -2.3471e-009    0.0013075       1.0498e-008    
  3.95            -1.7588e-009    0.0013174       1.341e-009     
  4               2.247e-009      0.0013272       -2.4841e-008   
  4.05            2.2845e-009     0.0013372       -4.491e-009    
  4.1             -1.4831e-009    0.0013464       1.7806e-008    
  4.15            -2.5091e-009    0.0013557       5.218e-009     
