! VERSION = 6.00
BEGIN_HEADER
 ICCAP_INPUTS
  VG         V  B GROUND SMU4 0.001 LIN        2    0          5          6    1         
  VS         V  E GROUND SMU2 0.1 CON        0
  VD         V  S GROUND SMU1 0.1 LIN        1    0          5          101  0.05      
  VB         V  C GROUND SMU3 0.1 LIN        3    0          -2.5       2    -2.5      
 ICCAP_OUTPUTS
  ID         I  S GROUND SMU1 B
  IB         I  C GROUND SMU3 B
  IG         I  B GROUND SMU4 B
END_HEADER

BEGIN_DB
 ICCAP_VAR VG         0              
 ICCAP_VAR VS         0              
 ICCAP_VAR VB         0              

 #VD              ID              IB              IG             
  0               1.6662e-009     -1.3651e-008    1.3185e-009    
  0.05            1.4723e-009     -9.1e-009       2.1761e-009    
  0.1             2.6134e-009     9.645e-009      8.048e-010     
  0.15            1.9498e-009     1.6717e-008     -1.8871e-009   
  0.2             -1.9094e-009    5.119e-009      -7.396e-010    
  0.25            -1.1059e-009    -1.1047e-008    1.3145e-009    
  0.3             1.4392e-009     -1.0671e-008    2.2695e-009    
  0.35            2.6157e-009     9.018e-009      9.001e-010     
  0.4             2.0333e-009     1.3415e-008     -1.7066e-009   
  0.45            -1.5455e-009    6.361e-009      2.637e-010     
  0.5             -1.6763e-009    -1.1819e-008    1.119e-010     
  0.55            -1.801e-009     -1.2755e-008    -5.55e-011     
  0.6             -1.8861e-009    -1.3495e-008    -2.645e-010    
  0.65            -1.9131e-009    -1.3752e-008    -4.774e-010    
  0.7             -1.9079e-009    -1.2996e-008    -6.852e-010    
  0.75            -1.0662e-009    -1.1453e-008    1.3137e-009    
  0.8             1.4505e-009     -9.839e-009     2.2322e-009    
  0.85            2.6199e-009     9.016e-009      8.619e-010     
  0.9             2.0027e-009     1.4597e-008     -1.7724e-009   
  0.95            -1.5098e-009    5.935e-009      2.976e-010     
  1               -5.679e-010     -2.0261e-008    1.9277e-009    
  1.05            1.4252e-009     -9.686e-009     2.6076e-009    
  1.1             2.4919e-009     1.1847e-008     2.073e-010     
  1.15            2.5577e-009     1.2095e-008     3.96e-010      
  1.2             2.5965e-009     1.1584e-008     5.796e-010     
  1.25            1.7812e-009     2.5195e-008     -1.3828e-009   
  1.3             4.258e-010      1.2787e-008     -1.3638e-009   
  1.35            5.842e-010      1.4682e-008     -2.648e-009    
  1.4             -1.7198e-009    3.88e-010       4.91e-011      
  1.45            -7.73e-010      -2.4744e-008    1.485e-009     
  1.5             1.3662e-009     -8.587e-009     2.7682e-009    
  1.55            2.5866e-009     1.1917e-008     5.185e-010     
  1.6             1.7332e-009     2.6881e-008     -1.3842e-009   
  1.65            3.815e-010      1.2479e-008     -1.3706e-009   
  1.7             5.337e-010      1.3895e-008     -2.6653e-009   
  1.75            -1.6755e-009    4.09e-010       1.025e-010     
  1.8             -7.29e-010      -2.387e-008     1.5529e-009    
  1.85            1.3824e-009     -8.897e-009     2.742e-009     
  1.9             2.5773e-009     1.2056e-008     4.604e-010     
  1.95            2.6069e-009     1.1548e-008     6.382e-010     
  2               1.8216e-009     2.2995e-008     -1.379e-009    
  2.05            4.821e-010      1.3362e-008     -2.6834e-009   
  2.1             -1.8214e-009    -1.2869e-008    -1.092e-010    
  2.15            -1.8901e-009    -1.3473e-008    -3.246e-010    
  2.2             -1.9115e-009    -1.3527e-008    -5.288e-010    
  2.25            -1.904e-009     -1.2583e-008    -7.309e-010    
  2.3             -1.0861e-009    -1.1228e-008    1.3126e-009    
  2.35            1.45e-009       -1.0458e-008    2.2639e-009    
  2.4             2.6289e-009     9.117e-009      8.989e-010     
  2.45            2.036e-009      1.3963e-008     -1.7266e-009   
  2.5             -1.5371e-009    6.291e-009      2.677e-010     
  2.55            -5.86e-010      -2.0738e-008    1.8577e-009    
  2.6             1.4254e-009     -9.87e-009      2.6294e-009    
  2.65            2.5127e-009     1.179e-008      2.371e-010     
  2.7             2.5753e-009     1.191e-008      4.33e-010      
  2.75            2.6107e-009     1.125e-008      6.124e-010     
  2.8             1.8088e-009     2.3924e-008     -1.3792e-009   
  2.85            4.657e-010      1.3152e-008     -2.6865e-009   
  2.9             -1.8047e-009    -1.2765e-008    -8.13e-011     
  2.95            -1.8789e-009    -1.3439e-008    -2.926e-010    
  3               -1.9052e-009    -1.3527e-008    -5.022e-010    
  3.05            -1.8994e-009    -1.2819e-008    -7.035e-010    
  3.1             -1.066e-009     -1.1608e-008    2.6776e-009    
  3.15            1.4555e-009     -3.41e-009      2.2473e-009    
  3.2             2.6312e-009     9.19e-009       8.781e-010     
  3.25            2.0245e-009     1.4282e-008     -1.7505e-009   
  3.3             -1.5198e-009    5.961e-009      2.767e-010     
  3.35            -5.66e-010      -2.051e-008     1.8872e-009    
  3.4             1.4331e-009     -9.725e-009     2.6154e-009    
  3.45            2.5078e-009     1.1723e-008     2.265e-010     
  3.5             2.573e-009      1.1922e-008     4.116e-010     
  3.55            2.6143e-009     1.1453e-008     5.956e-010     
  3.6             1.8e-009        2.4574e-008     -1.3786e-009   
  3.65            4.615e-010      1.2851e-008     -2.6888e-009   
  3.7             -1.206e-009     -2.3295e-008    2.4317e-009    
  3.75            1.4548e-009     -6.241e-009     2.4041e-009    
  3.8             1.6675e-009     2.8329e-008     -1.382e-009    
  3.85            3.163e-010      1.1668e-008     -1.379e-009    
  3.9             4.536e-010      1.2928e-008     -2.6896e-009   
  3.95            -1.192e-009     -2.3588e-008    2.4475e-009    
  4               1.4604e-009     -6.225e-009     2.3957e-009    
  4.05            1.663e-009      2.8355e-008     -1.3816e-009   
  4.1             3.12e-010       1.1714e-008     -1.3783e-009   
  4.15            4.486e-010      1.2626e-008     -2.6952e-009   
  4.2             -1.1811e-009    -2.3614e-008    2.4622e-009    
  4.25            1.4673e-009     -5.79e-009      2.3836e-009    
  4.3             1.6629e-009     2.8246e-008     -1.384e-009    
  4.35            3.116e-010      1.1436e-008     -1.3794e-009   
  4.4             4.522e-010      1.2633e-008     -2.6973e-009   
  4.45            -1.7429e-009    -1.2448e-008    -2.92e-011     
  4.5             -7.939e-010     -2.5559e-008    1.4243e-009    
  4.55            1.3735e-009     -8.498e-009     2.7939e-009    
  4.6             2.6344e-009     1.1757e-008     5.941e-010     
  4.65            2.6577e-009     1.025e-008      7.645e-010     
  4.7             1.9541e-009     1.8149e-008     -1.9511e-009   
  4.75            -1.8637e-009    4.668e-009      -6.873e-010    
  4.8             -1.0142e-009    -1.1791e-008    1.3167e-009    
  4.85            1.5044e-009     -1.0092e-008    2.2353e-009    
  4.9             2.6631e-009     9.273e-009      8.587e-010     
  4.95            2.0543e-009     1.4799e-008     -1.7795e-009   
  5               -1.4633e-009    5.69e-009       2.943e-010     
END_DB

BEGIN_DB
 ICCAP_VAR VG         1              
 ICCAP_VAR VS         0              
 ICCAP_VAR VB         0              

 #VD              ID              IB              IG             
  0               -4.1803e-007    2.0848e-008     -1.3705e-009   
  0.05            4.3109e-005     -1.3696e-008    2.8358e-009    
  0.1             6.9276e-005     -1.377e-008     3.19e-010      
  0.15            8.5394e-005     1.3116e-008     -2.5679e-009   
  0.2             9.379e-005      2.7924e-008     -1.3713e-009   
  0.25            9.8244e-005     1.1896e-008     7.444e-010     
  0.3             0.000101205     -2.4377e-008    1.3477e-009    
  0.35            0.000104327     -2.5115e-008    2.1394e-009    
  0.4             0.000106907     -1.336e-008     -8.766e-010    
  0.45            0.000109817     2.518e-008      -1.3888e-009   
  0.5             0.00011164      2.6126e-008     -1.9142e-009   
  0.55            0.000112203     1.1419e-008     8.391e-010     
  0.6             0.00011326      -7.35e-009      1.5453e-009    
  0.65            0.00011555      -1.271e-008     -2.7408e-009   
  0.7             0.00011742      1.4591e-008     -1.4867e-009   
  0.75            0.00011932      2.8104e-008     -1.3727e-009   
  0.8             0.00012053      1.4636e-008     -2.4253e-009   
  0.85            0.00012064      1.1861e-008     6.2e-010       
  0.9             0.00012125      -2.4456e-008    1.3427e-009    
  0.95            0.00012302      -1.2943e-008    -4.395e-010    
  1               0.0001249       6.448e-009      -1.3882e-009   
  1.05            0.00012633      2.2431e-008     -1.7549e-009   
  1.1             0.00012613      9.716e-009      1.0408e-009    
  1.15            0.00012737      -2.592e-008     2.255e-009     
  1.2             0.00012869      -1.3354e-008    -9.321e-010    
  1.25            0.00013098      2.7616e-008     -1.384e-009    
  1.3             0.00013077      1.1953e-008     6.462e-010     
  1.35            0.00013086      -2.468e-008     1.3331e-009    
  1.4             0.00013235      -2.0995e-008    1.8584e-009    
  1.45            0.00013394      -1.1552e-008    -1.1062e-009   
  1.5             0.00013576      1.2197e-008     -2.6434e-009   
  1.55            0.00013672      2.8057e-008     -2.0716e-009   
  1.6             0.00013627      1.152e-008      8.639e-010     
  1.65            0.00013705      -2.6994e-008    2.5634e-009    
  1.7             0.00013813      -1.3723e-008    -7.415e-010    
  1.75            0.00014008      8.509e-009      -1.3839e-009   
  1.8             0.00014008      1.1706e-008     6.887e-010     
  1.85            0.00014041      -2.5658e-008    1.3233e-009    
  1.9             0.00014162      -1.3915e-008    -5.215e-010    
  1.95            0.00014337      6.394e-009      -1.3837e-009   
  2               0.00014446      1.8953e-008     -1.6677e-009   
  2.05            0.0001438       7.273e-009      1.096e-009     
  2.1             0.00014486      -2.7374e-008    2.1367e-009    
  2.15            0.00014619      -1.6545e-008    -9.831e-010    
  2.2             0.00014783      6.235e-009      -2.6945e-009   
  2.25            0.0001486       1.0192e-008     -2.1045e-009   
  2.3             0.00014962      4.421e-009      -2.5487e-009   
  2.35            0.00014932      -1.772e-008     -2.74e-009     
  2.4             0.00015123      -8.89e-010      -2.5077e-009   
  2.45            0.00015101      -6.334e-009     5.423e-010     
  2.5             0.00015053      -4.6031e-008    1.3846e-009    
  2.55            0.00015249      -3.7415e-008    -2.7232e-009   
  2.6             0.0001522       -2.5951e-008    1.1494e-009    
  2.65            0.00015345      -6.5717e-008    2.0133e-009    
  2.7             0.00015444      -6.1366e-008    -2.4039e-009   
  2.75            0.00015537      -5.019e-008     7.491e-010     
  2.8             0.00015525      -1.00821e-007   1.3173e-009    
  2.85            0.00015706      -9.6239e-008    -2.7443e-009   
  2.9             0.00015618      -9.6905e-008    1.3418e-009    
  2.95            0.0001586       -1.1222e-007    2.61e-011      
  3               0.00016015      -1.2797e-007    -1.9691e-009   
  3.05            0.00015961      -1.6097e-007    2.4286e-009    
  3.1             0.00016052      -2.116e-007     -7.839e-010    
  3.15            0.00016246      -2.022e-007     -1.3885e-009   
  3.2             0.00016167      -2.5615e-007    2.8149e-009    
  3.25            0.00016414      -3.1545e-007    -1.3806e-009   
  3.3             0.00016475      -3.2955e-007    -1.6629e-009   
  3.35            0.00016426      -3.92e-007      2.5771e-009    
  3.4             0.00016545      -4.7269e-007    -9.654e-010    
  3.45            0.0001671       -4.9114e-007    -1.384e-009    
  3.5             0.00016634      -5.875e-007     2.857e-009     
  3.55            0.00016913      -6.8821e-007    -1.5931e-009   
  3.6             0.0001693       -7.4982e-007    -1.4671e-009   
  3.65            0.00016883      -8.4926e-007    2.7016e-009    
  3.7             0.00017045      -9.8538e-007    -1.1446e-009   
  3.75            0.00017229      -1.05785e-006   -1.3672e-009   
  3.8             0.00017055      -1.2189e-006    1.2631e-009    
  3.85            0.00017187      -1.4045e-006    1.782e-009     
  3.9             0.00017366      -1.5534e-006    -2.5267e-009   
  3.95            0.00017446      -1.7006e-006    8.654e-010     
  4               0.00017466      -1.9521e-006    1.315e-009     
  4.05            0.0001766       -2.1423e-006    -2.7366e-009   
  4.1             0.00017563      -2.3454e-006    1.4658e-009    
  4.15            0.00017749      -2.6294e-006    3.249e-010     
  4.2             0.00018071      -2.8759e-006    -2.4651e-009   
  4.25            0.00017997      -3.1585e-006    2.1339e-009    
  4.3             0.00018149      -3.5189e-006    -3.603e-010    
  4.35            0.00018384      -3.8283e-006    -1.5449e-009   
  4.4             0.0001838       -4.2014e-006    2.638e-009     
  4.45            0.00018578      -4.6483e-006    -1.0528e-009   
  4.5             0.00018772      -4.9854e-006    -1.3782e-009   
  4.55            0.00018754      -5.488e-006     2.8626e-009    
  4.6             0.00019104      -6.0397e-006    -1.6963e-009   
  4.65            0.00019154      -6.527e-006     -2.224e-010    
  4.7             0.00019109      -7.1231e-006    2.4742e-009    
  4.75            0.00019359      -7.7482e-006    -2.1519e-009   
  4.8             0.00019557      -8.3241e-006    4.69e-010      
  4.85            0.00019572      -9.0715e-006    1.4312e-009    
  4.9             0.00019888      -9.8051e-006    -2.707e-009    
  4.95            0.00019947      -1.04823e-005   1.0974e-009    
  5               0.00020142      -1.14204e-005   2.1238e-009    
END_DB

BEGIN_DB
 ICCAP_VAR VG         2              
 ICCAP_VAR VS         0              
 ICCAP_VAR VB         0              

 #VD              ID              IB              IG             
  0               -2.9326e-006    -8.788e-009     -1.5854e-009   
  0.05            0.00023335      1.1447e-008     2.7756e-009    
  0.1             0.00045996      -1.5162e-008    1.537e-009     
  0.15            0.00067714      -2.6633e-008    2.3581e-009    
  0.2             0.00088347      -1.3389e-008    -8.747e-010    
  0.25            0.0010776       2.7018e-008     -1.3814e-009   
  0.3             0.0012587       -1.8504e-008    -1.8882e-009   
  0.35            0.0014257       2.5835e-008     -1.3793e-009   
  0.4             0.0015768       1.1701e-008     5.128e-010     
  0.45            0.0017122       -9.148e-009     1.3121e-009    
  0.5             0.0018343       -1.3482e-008    -6.128e-010    
  0.55            0.001941        8.024e-009      -1.382e-009    
  0.6             0.002031        1.1825e-008     5.807e-010     
  0.65            0.0021061       -8.574e-009     2.8418e-009    
  0.7             0.0021696       -1.1065e-008    1.806e-010     
  0.75            0.0022256       1.6373e-008     -2.2415e-009   
  0.8             0.0022668       1.2e-008        7.694e-010     
  0.85            0.0022996       -2.6203e-008    1.3133e-009    
  0.9             0.0023302       -1.348e-008     -6.082e-010    
  0.95            0.0023555       7.923e-009      -1.3814e-009   
  1               0.0023751       1.7516e-008     -1.5741e-009   
  1.05            0.0023928       2.8254e-008     -1.3823e-009   
  1.1             0.0024046       1.1958e-008     7.512e-010     
  1.15            0.0024157       -2.591e-008     1.3144e-009    
  1.2             0.0024288       -1.34e-008      -5.871e-010    
  1.25            0.0024408       7.682e-009      -1.3809e-009   
  1.3             0.0024485       1.1803e-008     5.558e-010     
  1.35            0.0024545       -8.929e-009     1.3132e-009    
  1.4             0.0024679       -1.2092e-008    -1.7268e-009   
  1.45            0.002474        1.0036e-008     -1.887e-010    
  1.5             0.0024771       -1.8921e-008    2.4332e-009    
  1.55            0.0024862       -1.3449e-008    -8.386e-010    
  1.6             0.0024943       2.6273e-008     -1.3797e-009   
  1.65            0.002498        1.1766e-008     5.324e-010     
  1.7             0.0025018       -8.842e-009     1.3119e-009    
  1.75            0.0025125       -1.1912e-008    -1.7045e-009   
  1.8             0.0025159       1.0535e-008     -2.065e-010    
  1.85            0.0025175       -1.8521e-008    2.4626e-009    
  1.9             0.0025245       -1.3585e-008    -8.213e-010    
  1.95            0.0025315       8.77e-009       -1.3809e-009   
  2               0.0025341       1.1648e-008     7.628e-010     
  2.05            0.0025369       -2.6508e-008    1.3133e-009    
  2.1             0.0025466       -1.2345e-008    -1.6862e-009   
  2.15            0.0025494       1.6439e-008     -1.9549e-009   
  2.2             0.0025541       1.2783e-008     -2.4551e-009   
  2.25            0.0025572       1.8991e-008     -1.7012e-009   
  2.3             0.0025578       5.713e-009      1.0663e-009    
  2.35            0.0025619       -3.0691e-008    2.1987e-009    
  2.4             0.002567        -1.6898e-008    -2.304e-009    
  2.45            0.002573        4.353e-009      -2.3584e-009   
  2.5             0.0025731       -6.992e-009     2.2063e-009    
  2.55            0.002577        -3.501e-008     -4.734e-010    
  2.6             0.0025834       -9.143e-009     -1.4725e-009   
  2.65            0.0025838       -3.1698e-008    2.696e-009     
  2.7             0.0025891       -6.511e-008     -1.1355e-009   
  2.75            0.0025935       -4.3814e-008    -1.3697e-009   
  2.8             0.0025935       -9.146e-008     1.3122e-009    
  2.85            0.0025976       -1.2517e-007    -2.7273e-009   
  2.9             0.0025961       -1.4412e-007    1.5662e-009    
  2.95            0.0026013       -2.0688e-007    2.606e-010     
  3               0.0026089       -2.2827e-007    -2.3659e-009   
  3.05            0.0026085       -2.9469e-007    2.2046e-009    
  3.1             0.0026121       -3.872e-007     -4.732e-010    
  3.15            0.0026174       -4.3777e-007    -1.4806e-009   
  3.2             0.0026178       -5.4893e-007    2.6943e-009    
  3.25            0.0026226       -6.844e-007     -1.13e-009     
  3.3             0.0026265       -7.8236e-007    -1.3704e-009   
  3.35            0.0026266       -9.671e-007     2.8592e-009    
  3.4             0.0026271       -1.142e-006     1.3216e-009    
  3.45            0.0026311       -1.3796e-006    1.6755e-009    
  3.5             0.0026368       -1.6086e-006    -2.5812e-009   
  3.55            0.0026392       -1.8656e-006    9.206e-010     
  3.6             0.002641        -2.2169e-006    2.477e-009     
  3.65            0.0026459       -2.5615e-006    -2.1477e-009   
  3.7             0.0026493       -2.9458e-006    4.746e-010     
  3.75            0.0026496       -3.4371e-006    1.4278e-009    
  3.8             0.002656        -3.9446e-006    -2.7037e-009   
  3.85            0.0026575       -4.5144e-006    1.0961e-009    
  3.9             0.0026609       -5.206e-006     2.1257e-009    
  3.95            0.0026663       -5.9282e-006    -2.3417e-009   
  4               0.00267         -6.7376e-006    6.884e-010     
  4.05            0.0026718       -7.6968e-006    1.3207e-009    
  4.1             0.0026784       -8.7137e-006    -2.739e-009    
  4.15            0.0026792       -9.8512e-006    1.2772e-009    
