! VERSION = 6.00
BEGIN_HEADER
 ICCAP_INPUTS
  VG         V  B GROUND SMU4 0.001 LIN        1    0          5          101  0.05      
  VS         V  E GROUND SMU2 0.1 CON        0
  VB         V  C GROUND SMU3 0.1 LIN        3    0          -5         3    -2.5      
  VD         V  S GROUND SMU1 0.1 LIN        2    0.1        5          2    4.9       
 ICCAP_OUTPUTS
  IG         I  B GROUND SMU4 B
  ID         I  S GROUND SMU1 B
  IB         I  C GROUND SMU3 B
END_HEADER

BEGIN_DB
 ICCAP_VAR VS         0              
 ICCAP_VAR VB         0              
 ICCAP_VAR VD         0.1            

 #VG              IG              ID              IB             
  0               2.53e-009       2.7399e-009     -1.3283e-008   
  0.05            2.3281e-009     1.6201e-009     -5.13e-009     
  0.1             -1.376e-009     1.7713e-009     2.852e-008     
  0.15            -1.3801e-009    4.555e-010      1.131e-008     
  0.2             -1.364e-009     6.004e-010      1.2402e-008    
  0.25            -2.6506e-009    7.62e-010       1.4183e-008    
  0.3             7.73e-011       -1.4627e-009    4.79e-010      
  0.35            -1.147e-010     -1.5436e-009    -1.3025e-008   
  0.4             -3.388e-010     -1.4613e-009    -1.3543e-008   
  0.45            2.8434e-009     2.135e-009      -1.3509e-008   
  0.5             -1.3816e-009    4.7567e-009     2.648e-008     
  0.55            2.4247e-009     1.1188e-008     8.187e-009     
  0.6             1.6462e-009     3.7895e-008     -6.428e-009    
  0.65            3.297e-010      1.3424e-007     4.917e-009     
  0.7             1.5575e-009     4.6237e-007     -2.0072e-008   
  0.75            2.4581e-009     1.4354e-006     1.6684e-008    
  0.8             -1.3581e-009    4.2226e-006     2.7166e-008    
  0.85            -2.4263e-009    1.00606e-005    1.4845e-008    
  0.9             2.7322e-009     1.9884e-005     -1.0146e-008   
  0.95            2.5618e-009     3.4611e-005     8.272e-009     
  1               -1.7173e-009    5.3083e-005     2.2091e-008    
  1.05            -1.384e-009     7.347e-005      6.157e-009     
  1.1             -1.3757e-009    9.4788e-005     9.296e-009     
  1.15            2.472e-010      0.00011541      1.6601e-008    
  1.2             7.022e-010      0.00013503      1.1973e-008    
  1.25            -1.6492e-009    0.00015395      2.0139e-008    
  1.3             -1.3767e-009    0.00017158      6.834e-009     
  1.35            -1.3672e-009    0.00018829      1.0036e-008    
  1.4             -2.4931e-009    0.000204        1.4122e-008    
  1.45            -1.8832e-009    0.0002187       1.045e-009     
  1.5             -1.427e-009     0.0002327       4.942e-009     
  1.55            -1.3807e-009    0.00024595      8.408e-009     
  1.6             -2.6209e-009    0.0002586       1.258e-008     
  1.65            -2.1642e-009    0.00027046      5.12e-010      
  1.7             -1.5447e-009    0.00028194      3.79e-009      
  1.75            -1.3779e-009    0.00029285      7.372e-009     
  1.8             -2.6806e-009    0.00030338      1.1167e-008    
  1.85            -3.971e-010     0.00031316      -1.2829e-008   
  1.9             -8.678e-010     0.00032289      -1.3477e-008   
  1.95            1.5733e-009     0.00033184      -1.5871e-008   
  2               1.3102e-009     0.0003409       -9.11e-009     
  2.05            2.8411e-009     0.00034943      -9.937e-009    
  2.1             -1.8115e-009    0.00035802      2.4428e-008    
  2.15            -1.4024e-009    0.00036596      5.369e-009     
  2.2             -1.3791e-009    0.00037369      8.967e-009     
  2.25            -2.5881e-009    0.0003812       1.2829e-008    
  2.3             -2.0631e-009    0.00038833      5.41e-010      
  2.35            -1.4926e-009    0.00039532      4.487e-009     
  2.4             -1.3801e-009    0.00040213      8.088e-009     
  2.45            -2.6629e-009    0.00040874      1.1844e-008    
  2.5             1.8343e-009     0.00041486      -2.0849e-008   
  2.55            1.3399e-009     0.0004211       -9.772e-009    
  2.6             2.8453e-009     0.00042708      -8.88e-009     
  2.65            -1.8685e-009    0.00043316      1.7561e-008    
  2.7             -1.4136e-009    0.00043874      5.091e-009     
  2.75            -1.381e-009     0.00044439      8.39e-009      
  2.8             -2.6123e-009    0.0004498       1.283e-008     
  2.85            -2.1299e-009    0.00045495      4.58e-010      
  2.9             -1.5243e-009    0.00046001      4.077e-009     
  2.95            -1.3767e-009    0.00046494      7.755e-009     
  3               -2.6706e-009    0.00046982      1.1397e-008    
  3.05            -1.4036e-009    0.00047444      -9.892e-009    
  3.1             1.3132e-009     0.00047895      -2.7262e-008   
  3.15            2.7942e-009     0.00048336      -1.3179e-008   
  3.2             2.5063e-009     0.00048771      8.097e-009     
  3.25            -1.8566e-009    0.00049207      2.5567e-008    
  3.3             -1.4082e-009    0.00049616      5.248e-009     
  3.35            -1.3836e-009    0.00050023      8.477e-009     
  3.4             -2.6111e-009    0.00050419      1.284e-008     
  3.45            -2.1103e-009    0.00050798      3.7e-010       
  3.5             -1.5095e-009    0.00051165      4.292e-009     
  3.55            -1.379e-009     0.00051535      7.56e-009      
  3.6             -2.671e-009     0.00051889      1.1581e-008    
  3.65            -4.399e-010     0.00052227      -1.314e-008    
  3.7             -8.937e-010     0.00052573      -1.3337e-008   
  3.75            1.5151e-009     0.00052878      -1.4972e-008   
  3.8             1.3135e-009     0.00053218      -8.737e-009    
  3.85            2.8371e-009     0.00053543      -1.0574e-008   
  3.9             -1.754e-009     0.00053851      2.3069e-008    
  3.95            -1.3878e-009    0.00054156      5.636e-009     
  4               -1.3821e-009    0.00054453      9.113e-009     
  4.05            -2.581e-009     0.00054749      1.3456e-008    
  4.1             -2.0128e-009    0.00055014      7.08e-010      
  4.15            -1.4613e-009    0.00055291      4.558e-009     
  4.2             -1.3841e-009    0.00055563      7.863e-009     
  4.25            -2.662e-009     0.00055833      1.2059e-008    
  4.3             -5.064e-010     0.00056076      -1.3542e-008   
  4.35            -9.363e-010     0.00056332      -1.2772e-008   
  4.4             3.319e-010      0.00056555      -1.3308e-008   
  4.45            1.5352e-009     0.00056819      -1.9397e-008   
  4.5             1.3142e-009     0.00057045      -8.965e-009    
  4.55            2.8416e-009     0.00057276      -1.0237e-008   
  4.6             -1.7807e-009    0.00057501      2.3959e-008    
  4.65            -1.3928e-009    0.00057724      5.594e-009     
  4.7             -1.3849e-009    0.00057934      8.788e-009     
  4.75            -2.6026e-009    0.00058154      1.3249e-008    
  4.8             -2.0463e-009    0.00058343      5.47e-010      
  4.85            -1.4711e-009    0.00058545      4.439e-009     
  4.9             -1.3824e-009    0.00058738      7.752e-009     
  4.95            -2.6713e-009    0.00058938      1.1873e-008    
  5               -4.795e-010     0.00059112      -1.3433e-008   
END_DB

BEGIN_DB
 ICCAP_VAR VS         0              
 ICCAP_VAR VB         0              
 ICCAP_VAR VD         5              

 #VG              IG              ID              IB             
  0               -2.6308e-009    -1.3355e-009    8.515e-009     
  0.05            1.5852e-009     -1.1526e-009    -1.1146e-008   
  0.1             2.6957e-009     1.678e-009      -9.182e-009    
  0.15            4.16e-010       2.8103e-009     1.2235e-008    
  0.2             5.979e-010      2.8443e-009     1.1523e-008    
  0.25            7.654e-010      2.8756e-009     9.768e-009     
  0.3             -1.8804e-009    2.2308e-009     1.6488e-008    
  0.35            -1.6066e-009    3.052e-010      4.835e-009     
  0.4             -1.4497e-009    1.0057e-009     6.058e-009     
  0.45            -1.3895e-009    3.4444e-009     7.373e-009     
  0.5             2.5676e-009     1.1864e-008     -1.522e-009    
  0.55            1.7675e-009     4.578e-008      -8.596e-009    
  0.6             2.7976e-009     1.7083e-007     -2.366e-008    
  0.65            2.859e-009      6.1014e-007     -4.6293e-008   
  0.7             6.769e-010      2.048e-006      -1.4173e-007   
  0.75            1.0579e-009     5.9959e-006     -3.9889e-007   
  0.8             -2.3818e-009    1.512e-005      -9.7402e-007   
  0.85            2.4002e-009     3.2327e-005     -2.0239e-006   
  0.9             2.6622e-009     5.9586e-005     -3.5272e-006   
  0.95            2.8098e-009     9.7904e-005     -5.5667e-006   
  1               2.8341e-009     0.00014632      -7.9789e-006   
  1.05            2.8044e-009     0.0002054       -1.07073e-005  
  1.1             -2.0091e-009    0.00027428      -1.3628e-005   
  1.15            -1.4593e-009    0.000348        -1.6602e-005   
  1.2             -1.3897e-009    0.00042789      -1.9482e-005   
  1.25            -2.677e-009     0.0005131       -2.2282e-005   
  1.3             -2.2792e-009    0.00060118      -2.5011e-005   
  1.35            -1.619e-009     0.00069422      -2.7551e-005   
  1.4             -1.3855e-009    0.00078988      -2.99e-005     
  1.45            -2.7028e-009    0.00088843      -3.205e-005    
  1.5             -2.5134e-009    0.00098783      -3.4027e-005   
  1.55            -1.8806e-009    0.00109086      -3.5792e-005   
  1.6             1.8408e-009     0.0011936       -3.7344e-005   
  1.65            1.3582e-009     0.001299        -3.8671e-005   
  1.7             2.8433e-009     0.0014054       -3.9818e-005   
  1.75            2.7764e-009     0.001515        -4.0779e-005   
  1.8             2.1747e-009     0.0016237       -4.1566e-005   
  1.85            1.4735e-009     0.0017334       -4.2174e-005   
  1.9             1.3252e-009     0.0018436       -4.2606e-005   
  1.95            2.8574e-009     0.0019545       -4.2879e-005   
  2               2.4895e-009     0.0020681       -4.3012e-005   
  2.05            1.7052e-009     0.0021803       -4.3003e-005   
  2.1             1.3383e-009     0.002293        -4.2865e-005   
  2.15            2.857e-009      0.0024062       -4.2606e-005   
  2.2             2.721e-009      0.0025215       -4.2243e-005   
  2.25            2.0316e-009     0.002635        -4.1782e-005   
  2.3             1.4176e-009     0.0027495       -4.1234e-005   
  2.35            1.3299e-009     0.0028635       -4.0607e-005   
  2.4             2.8512e-009     0.0029784       -3.9905e-005   
  2.45            2.3521e-009     0.0030945       -3.9134e-005   
  2.5             1.5862e-009     0.0032097       -3.8312e-005   
  2.55            1.3304e-009     0.0033249       -3.7448e-005   
  2.6             2.8704e-009     0.0034396       -3.6534e-005   
  2.65            2.629e-009      0.0035571       -3.559e-005    
  2.7             1.8812e-009     0.0036727       -3.4625e-005   
  2.75            1.3738e-009     0.0037902       -3.3615e-005   
  2.8             2.8382e-009     0.0039058       -3.2613e-005   
  2.85            2.8125e-009     0.0040235       -3.1586e-005   
  2.9             2.2174e-009     0.0041384       -3.0561e-005   
  2.95            1.5035e-009     0.0042545       -2.9531e-005   
  3               1.331e-009      0.0043702       -2.8512e-005   
  3.05            2.8704e-009     0.0044851       -2.7486e-005   
  3.1             2.5296e-009     0.0046025       -2.6469e-005   
  3.15            1.7521e-009     0.0047181       -2.5464e-005   
  3.2             1.352e-009      0.0048338       -2.4479e-005   
  3.25            2.8532e-009     0.0049487       -2.3507e-005   
  3.3             2.7636e-009     0.0050662       -2.254e-005    
  3.35            2.0926e-009     0.0051813       -2.1608e-005   
  3.4             1.4479e-009     0.0052966       -2.0693e-005   
  3.45            1.3316e-009     0.0054116       -1.9804e-005   
  3.5             2.8647e-009     0.0055262       -1.8934e-005   
  3.55            2.4362e-009     0.005643        -1.8085e-005   
  3.6             1.6591e-009     0.0057575       -1.726e-005    
  3.65            1.3376e-009     0.0058724       -1.6468e-005   
  3.7             2.8677e-009     0.0059861       -1.5699e-005   
  3.75            2.6967e-009     0.0061022       -1.4945e-005   
  3.8             1.977e-009      0.0062164       -1.4227e-005   
  3.85            1.408e-009      0.0063296       -1.3534e-005   
  3.9             1.3315e-009     0.0064436       -1.2874e-005   
  3.95            2.8477e-009     0.0065568       -1.2226e-005   
  4               2.3243e-009     0.0066716       -1.1608e-005   
  4.05            1.5792e-009     0.0067851       -1.1014e-005   
  4.1             1.3318e-009     0.0068974       -1.0453e-005   
  4.15            -1.7289e-009    0.007014        -9.8878e-006   
  4.2             -1.4033e-009    0.0071266       -9.3707e-006   
  4.25            -1.3932e-009    0.0072397       -8.8751e-006   
  4.3             -2.6095e-009    0.0073519       -8.396e-006    
  4.35            -2.0035e-009    0.0074632       -7.9573e-006   
  4.4             -1.4694e-009    0.0075767       -7.5157e-006   
  4.45            -1.3963e-009    0.0076888       -7.1019e-006   
  4.5             -2.6935e-009    0.0078003       -6.7058e-006   
  4.55            -2.3208e-009    0.0079103       -6.343e-006    
  4.6             -1.6447e-009    0.0080215       -5.9891e-006   
  4.65            -1.3933e-009    0.0081322       -5.6478e-006   
  4.7             -1.3855e-009    0.0082434       -5.3288e-006   
  4.75            -2.5753e-009    0.0083527       -5.0189e-006   
  4.8             -1.937e-009     0.0084618       -4.7359e-006   
  4.85            -1.44e-009      0.008571        -4.4577e-006   
  4.9             -1.3959e-009    0.0086813       -4.1962e-006   
  4.95            -2.6789e-009    0.008791        -3.9421e-006   
  5               -2.2489e-009    0.0088991       -3.7186e-006   
END_DB

BEGIN_DB
 ICCAP_VAR VS         0              
 ICCAP_VAR VB         -2.5           
 ICCAP_VAR VD         0.1            

 #VG              IG              ID              IB             
  0               1.3162e-009     1.7303e-009     -1.295e-008    
  0.05            2.3604e-009     1.6897e-009     -1.3031e-008   
  0.1             -1.3833e-009    1.8374e-009     2.8744e-008    
  0.15            -1.3857e-009    5.076e-010      1.1356e-008    
  0.2             -1.3695e-009    6.439e-010      1.2739e-008    
  0.25            -2.6608e-009    8.003e-010      1.4331e-008    
  0.3             8.26e-011       -1.4444e-009    4.07e-010      
  0.35            1.5146e-009     -4.916e-010     -2.4604e-008   
  0.4             2.7354e-009     1.6272e-009     -8.861e-009    
  0.45            4.848e-010      2.8019e-009     1.2029e-008    
  0.5             6.587e-010      2.8307e-009     1.1071e-008    
  0.55            8.19e-010       2.8474e-009     9.534e-009     
  0.6             -1.8354e-009    2.1991e-009     1.581e-008     
  0.65            -1.5844e-009    9.33e-011       5.178e-009     
  0.7             -1.4431e-009    2e-010          7.137e-009     
  0.75            -1.3872e-009    3.092e-010      8.12e-009      
  0.8             -1.3811e-009    4.213e-010      9.437e-009     
  0.85            -1.3846e-009    5.531e-010      1.1486e-008    
  0.9             -1.3668e-009    7.659e-010      1.2837e-008    
  0.95            -2.654e-009     1.2922e-009     1.4603e-008    
  1               -2.5432e-009    1.9304e-009     4.99e-010      
  1.05            1.3372e-009     1.1094e-008     -1.4597e-008   
  1.1             2.8414e-009     4.3956e-008     -8.766e-009    
  1.15            -1.452e-010     1.7792e-007     8.731e-009     
  1.2             -6.606e-010     6.7504e-007     -1.3846e-008   
  1.25            2.8314e-009     2.2154e-006     1.1755e-008    
  1.3             2.7938e-009     6.2434e-006     -6.92e-010     
  1.35            -1.828e-009     1.4654e-005     2.6486e-008    
  1.4             -7.248e-010     2.7696e-005     -1.3868e-008   
  1.45            -1.0907e-009    4.5552e-005     -1.1205e-008   
  1.5             1.837e-010      6.5586e-005     -1.105e-008    
  1.55            1.3949e-009     8.7282e-005     -2.2436e-008   
  1.6             2.8394e-009     0.000108866     -8.628e-009    
  1.65            2.3423e-009     0.00012984      -8.21e-010     
  1.7             1.5867e-009     0.00014951      -6.919e-009    
  1.75            2.8007e-009     0.00016785      -9.215e-009    
  1.8             2.8434e-009     0.00018529      2.13e-010      
  1.85            -1.8771e-009    0.00020164      2.5657e-008    
  1.9             -1.4233e-009    0.00021672      4.986e-009     
  1.95            -1.3825e-009    0.00023096      8.524e-009     
  2               -2.6233e-009    0.0002444       1.2627e-008    
  2.05            -2.1716e-009    0.00025687      5.59e-010      
  2.1             -1.5667e-009    0.00026891      3.729e-009     
  2.15            -1.3773e-009    0.00028031      7.223e-009     
  2.2             -2.6864e-009    0.00029115      1.0843e-008    
  2.25            2.0288e-009     0.00030124      -2.4087e-008   
  2.3             1.3959e-009     0.00031109      -9.185e-009    
  2.35            2.8265e-009     0.00032043      -8.508e-009    
  2.4             2.805e-009      0.00032964      -6.35e-010     
  2.45            -1.6259e-009    0.00033835      1.9455e-008    
  2.5             -1.3762e-009    0.00034682      6.816e-009     
  2.55            -2.6927e-009    0.0003548       1.0227e-008    
  2.6             2.1099e-009     0.0003624       -2.5386e-008   
  2.65            1.4316e-009     0.00036983      -8.644e-009    
  2.7             1.3141e-009     0.000377        -8.256e-009    
  2.75            2.8196e-009     0.00038406      -1.1588e-008   
  2.8             -1.6868e-009    0.00039089      2.1091e-008    
  2.85            -1.3822e-009    0.00039747      6.234e-009     
  2.9             -1.3747e-009    0.00040376      9.579e-009     
  2.95            -2.5478e-009    0.00040993      1.3604e-008    
  3               -1.9789e-009    0.00041571      5.28e-010      
  3.05            -1.4562e-009    0.00042144      4.728e-009     
  3.1             -1.3811e-009    0.00042701      8.244e-009     
  3.15            -2.6605e-009    0.00043249      1.1808e-008    
  3.2             -2.2948e-009    0.00043762      4.82e-010      
  3.25            -1.6497e-009    0.00044275      3.005e-009     
  3.3             -1.3811e-009    0.00044771      6.535e-009     
  3.35            -2.6959e-009    0.00045249      9.651e-009     
  3.4             2.1653e-009     0.00045712      -2.5984e-008   
  3.45            1.4579e-009     0.00046159      -8.445e-009    
  3.5             2.8186e-009     0.00046604      -8.601e-009    
  3.55            2.8293e-009     0.00047039      -3.73e-010     
  3.6             -1.7204e-009    0.0004746       2.2288e-008    
  3.65            -1.3852e-009    0.00047879      5.896e-009     
  3.7             -1.3788e-009    0.00048277      9.137e-009     
  3.75            -2.5753e-009    0.00048668      1.3537e-008    
  3.8             -2.012e-009     0.00049037      6.51e-010      
  3.85            -1.4674e-009    0.00049407      4.412e-009     
  3.9             -1.3827e-009    0.00049768      7.833e-009     
  3.95            -2.666e-009     0.00050121      1.1765e-008    
  4               -4.712e-010     0.00050451      -1.3433e-008   
  4.05            -9.124e-010     0.00050785      -1.3516e-008   
  4.1             1.4977e-009     0.00051085      -1.443e-008    
  4.15            1.3133e-009     0.00051421      -8.806e-009    
