! VERSION = 6.00
BEGIN_HEADER
 ICCAP_INPUTS
  VG         V  B GROUND SMU4 0.001 LIN        1    0          5          101  0.05      
  VS         V  E GROUND SMU2 0.1 CON        0
  VB         V  C GROUND SMU3 0.1 LIN        3    0          -5         3    -2.5      
  VD         V  S GROUND SMU1 0.1 LIN        2    0.1        5          2    4.9       
 ICCAP_OUTPUTS
  IG         I  B GROUND SMU4 B
  ID         I  S GROUND SMU1 B
  IB         I  C GROUND SMU3 B
END_HEADER

BEGIN_DB
 ICCAP_VAR VS         0              
 ICCAP_VAR VB         0              
 ICCAP_VAR VD         0.1            

 #VG              IG              ID              IB             
  0               -6.561e-010     -5.729e-010     -2.5944e-008   
  0.05            -2.5118e-009    4.349e-010      1.1249e-008    
  0.1             -1.045e-010     -1.7841e-009    8.97e-010      
  0.15            -3.009e-010     -1.8804e-009    -1.1086e-008   
  0.2             -4.969e-010     -1.9416e-009    -1.0758e-008   
  0.25            -6.774e-010     -1.9846e-009    -1.0114e-008   
  0.3             2.2147e-009     -1.3026e-009    -1.9194e-008   
  0.35            1.2789e-009     2.197e-009      -6.736e-009    
  0.4             -2.2471e-009    1.101e-009      1.2925e-008    
  0.45            2.3516e-009     2.14e-009       -1.0338e-008   
  0.5             -1.691e-009     7.0182e-009     1.9451e-008    
  0.55            2.3346e-009     2.1637e-008     1.0919e-008    
  0.6             -1.4532e-009    8.2013e-008     1.8564e-008    
  0.65            1.2835e-009     2.6372e-007     -2.1867e-008   
  0.7             -1.848e-009     9.9159e-007     1.3266e-008    
  0.75            -2.2078e-009    2.9e-006        -1.5628e-008   
  0.8             1.9334e-009     7.9596e-006     -2.1511e-008   
  0.85            -2.193e-009     1.8073e-005     -6.119e-009    
  0.9             -9.019e-010     3.3593e-005     -1.0238e-008   
  0.95            2.7678e-009     5.4576e-005     -1.3542e-008   
  1               -1.4332e-009    8.0666e-005     1.85e-008      
  1.05            -2.5936e-009    0.000108743     6.574e-009     
  1.1             -1.0971e-009    0.00013766      -2.6447e-008   
  1.15            2.6903e-009     0.00016607      -2.5981e-008   
  1.2             5.635e-010      0.00019498      9.082e-009     
  1.25            -1.6425e-009    0.0002225       1.4766e-008    
  1.3             -2.498e-009     0.00024905      4.397e-009     
  1.35            -8.139e-010     0.00027444      -1.0674e-008   
  1.4             2.8011e-009     0.00029896      -1.5277e-008   
  1.45            2.4571e-009     0.00032322      -2.53e-009     
  1.5             1.7707e-009     0.00034616      -4.58e-009     
  1.55            2.4989e-009     0.00036834      -9.272e-009    
  1.6             -2.418e-009     0.00039051      1.0545e-008    
  1.65            -1.7637e-009    0.00041097      1.452e-009     
  1.7             -1.3387e-009    0.00043103      3.611e-009     
  1.75            -2.6385e-009    0.00045039      8.209e-009     
  1.8             2.3231e-009     0.00046874      -2.588e-008    
  1.85            1.6332e-009     0.00048707      -5.528e-009    
  1.9             2.5674e-009     0.00050449      -9.68e-009     
  1.95            -2.4497e-009    0.00052195      2.5939e-008    
  2               -1.8148e-009    0.0005384       1.298e-009     
  2.05            -1.3581e-009    0.00055431      3.462e-009     
  2.1             -2.6307e-009    0.00057         7.834e-009     
  2.15            2.3738e-009     0.00058473      -2.6299e-008   
  2.2             1.6756e-009     0.00059971      -5.257e-009    
  2.25            2.5468e-009     0.00061389      -9.578e-009    
  2.3             -2.3246e-009    0.00062824      1.0576e-008    
  2.35            -1.6703e-009    0.00064151      1.772e-009     
  2.4             -2.4756e-009    0.00065465      3.975e-009     
  2.45            -7.824e-010     0.00066722      -1.0668e-008   
  2.5             1.6175e-009     0.00067921      -1.5964e-008   
  2.55            2.5791e-009     0.00069134      -9.693e-009    
  2.6             -2.4227e-009    0.00070321      2.6254e-008    
  2.65            -1.7685e-009    0.00071438      1.456e-009     
  2.7             2.2748e-009     0.00072583      -2.5445e-008   
  2.75            1.5845e-009     0.00073681      -5.872e-009    
  2.8             2.5866e-009     0.00074746      -9.671e-009    
  2.85            -2.4139e-009    0.00075788      2.6276e-008    
  2.9             -1.7551e-009    0.00076755      1.44e-009      
  2.95            -1.3366e-009    0.00077756      3.431e-009     
  3               -2.6376e-009    0.0007871       8.436e-009     
  3.05            2.3182e-009     0.00079641      -2.5808e-008   
  3.1             1.6304e-009     0.00080573      -5.515e-009    
  3.15            2.5689e-009     0.00081448      -9.636e-009    
  3.2             -2.4428e-009    0.00082332      2.6066e-008    
  3.25            -1.7996e-009    0.0008313       1.364e-009     
  3.3             -1.3523e-009    0.00083957      3.499e-009     
  3.35            -2.6342e-009    0.00084792      7.928e-009     
  3.4             2.3657e-009     0.0008552       -2.6323e-008   
  3.45            1.6639e-009     0.00086317      -5.246e-009    
  3.5             2.553e-009      0.00087056      -9.611e-009    
  3.55            -2.3242e-009    0.0008781       1.0476e-008    
  3.6             -1.6671e-009    0.00088446      1.852e-009     
  3.65            -2.4834e-009    0.00089171      4.097e-009     
  3.7             -7.881e-010     0.00089841      -1.0812e-008   
  3.75            1.6183e-009     0.00090466      -1.5928e-008   
  3.8             2.5844e-009     0.00091129      -9.693e-009    
  3.85            -2.4211e-009    0.00091734      2.6199e-008    
  3.9             -1.7624e-009    0.00092346      1.443e-009     
  3.95            -2.441e-009     0.0009294       3.565e-009     
  4               -7.136e-010     0.00093515      -1.0973e-008   
  4.05            1.7175e-009     0.00094089      -1.7801e-008   
  4.1             2.5365e-009     0.00094613      -9.52e-009     
  4.15            -2.3579e-009    0.00095168      1.0536e-008    
  4.2             -1.7027e-009    0.00095681      1.668e-009     
  4.25            -2.471e-009     0.00096194      4.149e-009     
  4.3             -7.693e-010     0.00096645      -1.0741e-008   
  4.35            1.6555e-009     0.00097134      -1.6632e-008   
  4.4             2.5739e-009     0.00097673      -9.684e-009    
  4.45            -2.4429e-009    0.00098159      2.5854e-008    
  4.5             -1.8092e-009    0.00098575      1.301e-009     
  4.55            -2.5678e-009    0.00099052      -6.891e-009    
  4.6             -9.134e-010     0.00099483      -1.028e-008    
  4.65            2.7606e-009     0.00099786      -1.3276e-008   
  4.7             -1.4271e-009    0.00100284      1.9233e-008    
  4.75            -2.5988e-009    0.00100654      6.873e-009     
  4.8             2.4927e-009     0.00101009      -2.6771e-008   
  4.85            1.8078e-009     0.00101386      -4.537e-009    
  4.9             2.4913e-009     0.00101772      -9.079e-009    
  4.95            -2.4326e-009    0.00102139      1.0374e-008    
  5               -1.7921e-009    0.00102456      1.305e-009     
END_DB

BEGIN_DB
 ICCAP_VAR VS         0              
 ICCAP_VAR VB         0              
 ICCAP_VAR VD         5              

 #VG              IG              ID              IB             
  0               9.095e-010      9.102e-010      1.6512e-008    
  0.05            2.7805e-009     -9.285e-010     -2.5823e-008   
  0.1             8.242e-010      2.3505e-009     -2.358e-009    
  0.15            -1.629e-009     9.307e-010      2.0598e-008    
  0.2             -8.039e-010     -2.0033e-009    4.77e-009      
  0.25            2.013e-009      -1.3718e-009    -1.6404e-008   
  0.3             1.3911e-009     2.0017e-009     -8.05e-009     
  0.35            -2.0636e-009    9.277e-010      1.5112e-008    
  0.4             -1.7824e-009    2.352e-010      2.328e-009     
  0.45            -2.4663e-009    1.5164e-009     -6.775e-009    
  0.5             -4.595e-010     6.449e-009      -1.1675e-008   
  0.55            2.6702e-009     3.0546e-008     1.4522e-008    
  0.6             -1.1398e-009    1.0914e-007     6.69e-009      
  0.65            -1.4991e-009    3.9897e-007     -3.9216e-008   
  0.7             -9.5e-010       1.3197e-006     -8.7044e-008   
  0.75            2.6425e-009     4.1813e-006     -2.9669e-007   
  0.8             -2.1012e-009    1.1889e-005     -7.3444e-007   
  0.85            -1.9908e-009    2.6336e-005     -1.6233e-006   
  0.9             -2.3124e-009    5.2136e-005     -3.0483e-006   
  0.95            -2.5762e-009    9.0899e-005     -5.0534e-006   
  1               -2.204e-009     0.00014363      -7.5516e-006   
  1.05            -1.5955e-009    0.00021095      -1.05159e-005  
  1.1             2.7506e-009     0.00028986      -1.3807e-005   
  1.15            2.3046e-009     0.00038642      -1.7234e-005   
  1.2             1.6389e-009     0.00049316      -2.0836e-005   
  1.25            2.5865e-009     0.00061236      -2.4465e-005   
  1.3             2.7787e-009     0.00074442      -2.7971e-005   
  1.35            2.568e-009      0.00088614      -3.1373e-005   
  1.4             1.9547e-009     0.00103653      -3.4565e-005   
  1.45            -2.2446e-009    0.0012014       -3.7528e-005   
  1.5             -1.614e-009     0.0013699       -4.0246e-005   
  1.55            -2.531e-009     0.0015463       -4.2593e-005   
  1.6             -2.658e-009     0.0017288       -4.4638e-005   
  1.65            -2.4659e-009    0.0019199       -4.6341e-005   
  1.7             -1.8957e-009    0.0021177       -4.7719e-005   
  1.75            -1.3883e-009    0.0023205       -4.8784e-005   
  1.8             -2.6183e-009    0.0025293       -4.9523e-005   
  1.85            -2.612e-009     0.00274         -4.9977e-005   
  1.9             -2.194e-009     0.0029585       -5.0141e-005   
  1.95            -1.579e-009     0.0031814       -5.0048e-005   
  2               -2.5376e-009    0.0034077       -4.9708e-005   
  2.05            -2.6553e-009    0.0036345       -4.9157e-005   
  2.1             -2.4453e-009    0.0038683       -4.8393e-005   
  2.15            -1.8591e-009    0.004106        -4.7421e-005   
  2.2             -1.372e-009     0.0043466       -4.6319e-005   
  2.25            -2.6263e-009    0.0045896       -4.5098e-005   
  2.3             -2.6055e-009    0.0048326       -4.3769e-005   
  2.35            -2.1666e-009    0.0050821       -4.2312e-005   
  2.4             -1.556e-009     0.0053345       -4.0801e-005   
  2.45            -2.552e-009     0.0055874       -3.9212e-005   
  2.5             -2.6576e-009    0.0058403       -3.7579e-005   
  2.55            -2.4277e-009    0.0060986       -3.5937e-005   
  2.6             -1.8373e-009    0.0063601       -3.4285e-005   
  2.65            -1.3549e-009    0.0066223       -3.2604e-005   
  2.7             -2.6347e-009    0.0068862       -3.0949e-005   
  2.75            -2.5913e-009    0.0071487       -2.9244e-005   
  2.8             -2.1291e-009    0.0074205       -2.762e-005    
  2.85            -1.5251e-009    0.0076902       -2.6033e-005   
  2.9             -2.56e-009      0.0079597       -2.4465e-005   
  2.95            -2.6575e-009    0.0082286       -2.2977e-005   
  3               -2.3943e-009    0.0085014       -2.1499e-005   
  3.05            -1.779e-009     0.0087767       -2.0089e-005   
  3.1             -1.3305e-009    0.0090515       -1.8736e-005   
  3.15            -2.6404e-009    0.0093282       -1.7443e-005   
  3.2             -2.5809e-009    0.0096014       -1.6201e-005   
  3.25            -2.0855e-009    0.0098802       -1.5014e-005   
  3.3             -1.4804e-009    0.0101592       -1.3876e-005   
  3.35            -2.5719e-009    0.0104384       -1.2811e-005   
  3.4             -2.659e-009     0.0107156       -1.1817e-005   
  3.45            -2.3662e-009    0.010997        -1.0843e-005   
  3.5             -8.973e-010     0.011285        -9.9842e-006   
  3.55            -1.0857e-009    0.011567        -9.138e-006    
  3.6             -1.4463e-009    0.011853        -8.3368e-006   
  3.65            -1.7651e-009    0.012133        -7.5799e-006   
  3.7             -1.9967e-009    0.012412        -6.91e-006     
  3.75            -2.3163e-009    0.012695        -6.283e-006    
  3.8             -2.5707e-009    0.012976        -5.6906e-006   
  3.85            -2.6587e-009    0.013258        -5.155e-006    
  3.9             -2.3733e-009    0.013543        -4.653e-006    
  3.95            -1.7366e-009    0.013827        -4.1956e-006   
  4               -2.4696e-009    0.014111        -3.7916e-006   
  4.05            -2.6476e-009    0.014393        -3.4015e-006   
  4.1             -2.5617e-009    0.014676        -3.0474e-006   
  4.15            -2.0434e-009    0.014959        -2.7346e-006   
  4.2             -1.4662e-009    0.015243        -2.4497e-006   
  4.25            -2.5774e-009    0.015527        -2.189e-006    
  4.3             -2.6528e-009    0.01581         -1.9513e-006   
  4.35            -2.338e-009     0.016093        -1.7344e-006   
  4.4             -1.7046e-009    0.016379        -1.5308e-006   
  4.45            -2.4846e-009    0.016664        -1.3523e-006   
  4.5             -2.6534e-009    0.016942        -1.2124e-006   
  4.55            -2.5442e-009    0.017223        -1.0416e-006   
  4.6             2.2767e-009     0.017501        -8.7982e-007   
  4.65            2.5322e-009     0.017784        -7.6667e-007   
  4.7             2.7721e-009     0.018065        -6.6616e-007   
  4.75            2.6684e-009     0.018346        -5.8266e-007   
  4.8             2.0703e-009     0.018624        -5.0061e-007   
  4.85            2.3916e-009     0.018902        -4.3773e-007   
  4.9             2.6807e-009     0.019186        -3.5772e-007   
  4.95            2.7838e-009     0.019465        -3.084e-007    
  5               2.3798e-009     0.019744        -2.6218e-007   
END_DB

BEGIN_DB
 ICCAP_VAR VS         0              
 ICCAP_VAR VB         -2.5           
 ICCAP_VAR VD         0.1            

 #VG              IG              ID              IB             
  0               9.445e-010      9.329e-010      1.3752e-008    
  0.05            1.5884e-009     -8.35e-010      -2.4487e-008   
  0.1             7.849e-010      2.329e-009      -9.615e-009    
  0.15            -1.6587e-009    8.866e-010      1.9766e-008    
  0.2             -7.556e-010     -2.0086e-009    4.036e-009     
  0.25            2.0586e-009     -1.3718e-009    -1.6638e-008   
  0.3             1.3423e-009     1.972e-009      -7.483e-009    
  0.35            -2.1214e-009    6.729e-010      1.3824e-008    
  0.4             -4.357e-010     -1.9179e-009    2.203e-009     
  0.45            -6.205e-010     -1.9748e-009    -1.0321e-008   
  0.5             2.2836e-009     -1.2983e-009    -2.0118e-008   
  0.55            1.2235e-009     2.1324e-009     -6.019e-009    
  0.6             -2.3263e-009    5.696e-010      1.1943e-008    
  0.65            -2.796e-010     -1.8624e-009    1.734e-009     
  0.7             -4.774e-010     -1.9339e-009    -1.0869e-008   
  0.75            -6.541e-010     -1.9875e-009    -1.0196e-008   
  0.8             -8.203e-010     -2.0242e-009    -9.726e-009    
  0.85            1.9422e-009     -1.4054e-009    -1.5115e-008   
  0.9             1.401e-009      1.8914e-009     -8.194e-009    
  0.95            -2.015e-009     7.256e-010      1.4823e-008    
  1               -5.138e-010     -1.9256e-009    2.295e-009     
  1.05            -6.865e-010     -1.9339e-009    -1.0366e-008   
  1.1             2.175e-009      -1.0333e-009    -1.8628e-008   
  1.15            1.8768e-009     2.1576e-009     -6.602e-009    
  1.2             1.617e-009      8.0069e-009     -8.663e-009    
  1.25            -2.5248e-009    3.4823e-008     -2.6955e-008   
  1.3             4.905e-010      1.651e-007      -1.085e-008    
  1.35            -1.7607e-009    7.1762e-007     1.3566e-008    
  1.4             -2.2307e-009    2.636e-006      -1.5893e-008   
  1.45            1.8703e-009     8.306e-006      -2.0247e-008   
  1.5             -2.3302e-009    2.0583e-005     -4.833e-009    
  1.55            -1.6705e-009    3.9655e-005     1.653e-009     
  1.6             -2.6056e-009    6.426e-005      -6.121e-009    
  1.65            2.4962e-009     9.1538e-005     -2.6981e-008   
  1.7             2.705e-010      0.00012163      1.1829e-008    
  1.75            6.716e-010      0.00015076      8.654e-009     
  1.8             -1.5218e-009    0.0001797       1.6784e-008    
  1.85            -2.5558e-009    0.00020768      5.332e-009     
  1.9             -8.902e-010     0.00023448      -1.0539e-008   
  1.95            2.7719e-009     0.00026006      -1.3704e-008   
  2               -1.4478e-009    0.00028591      1.8206e-008    
  2.05            -2.5858e-009    0.00030997      6.24e-009      
  2.1             -9.423e-010     0.00033298      -1.0247e-008   
  2.15            2.407e-010      0.00035474      -1.2785e-008   
  2.2             1.4751e-009     0.00037645      -2.109e-008    
  2.25            2.6606e-009     0.00039716      -9.457e-009    
  2.3             -2.1164e-009    0.00041776      1.1613e-008    
  2.35            -1.4968e-009    0.00043681      2.388e-009     
  2.4             -2.5628e-009    0.00045531      5.383e-009     
  2.45            -8.981e-010     0.00047315      -1.0235e-008   
  2.5             2.762e-009      0.00049005      -1.3726e-008   
  2.55            -1.4407e-009    0.00050729      1.84e-008      
  2.6             -2.5902e-009    0.00052358      6.276e-009     
  2.65            -9.467e-010     0.0005391       -1.0296e-008   
  2.7             2.303e-010      0.00055374      -1.2723e-008   
  2.75            1.4628e-009     0.0005688       -2.1194e-008   
  2.8             2.6709e-009     0.00058323      -9.416e-009    
  2.85            -2.0952e-009    0.0005976       1.17e-008      
  2.9             -9.306e-010     0.00061074      -1.0391e-008   
  2.95            2.7378e-009     0.00062315      -1.295e-008    
  3               -1.4084e-009    0.00063618      1.9425e-008    
  3.05            -2.6084e-009    0.00064867      7.099e-009     
  3.1             -9.834e-010     0.00066034      -1.0102e-008   
  3.15            1.955e-010      0.00067146      -1.2358e-008   
  3.2             2.7825e-009     0.00068298      -2.199e-008    
  3.25            2.4666e-009     0.00069408      -2.472e-009    
  3.3             1.8129e-009     0.00070441      -4.696e-009    
  3.35            2.5069e-009     0.00071475      -9.459e-009    
  3.4             -2.4318e-009    0.00072475      1.0244e-008    
  3.45            -1.8218e-009    0.00073455      1.163e-009     
  3.5             2.327e-009      0.00074393      -2.5703e-008   
  3.55            1.6436e-009     0.00075295      -5.856e-009    
  3.6             2.5864e-009     0.00076156      -9.959e-009    
  3.65            -2.2902e-009    0.00077113      1.0922e-008    
  3.7             -8.343e-010     0.00077928      -1.0669e-008   
  3.75            2.7762e-009     0.00078688      -1.5508e-008   
  3.8             2.4402e-009     0.00079526      -2.491e-009    
  3.85            1.7811e-009     0.00080298      -4.819e-009    
  3.9             2.5223e-009     0.00081072      -9.509e-009    
  3.95            -2.4055e-009    0.00081839      1.0384e-008    
  4               -1.794e-009     0.0008255       1.312e-009     
  4.05            -2.5837e-009    0.00083273      -6.685e-009    
  4.1             -9.241e-010     0.00083936      -1.048e-008    
  4.15            2.7361e-009     0.0008457       -1.3385e-008   
