! VERSION = 6.00
BEGIN_HEADER
 ICCAP_INPUTS
  VG         V  B GROUND SMU4 0.001 LIN        1    0          5          101  0.05      
  VS         V  E GROUND SMU2 0.1 CON        0
  VB         V  C GROUND SMU3 0.1 LIN        3    0          -5         3    -2.5      
  VD         V  S GROUND SMU1 0.1 LIN        2    0.1        5          2    4.9       
 ICCAP_OUTPUTS
  IG         I  B GROUND SMU4 B
  ID         I  S GROUND SMU1 B
  IB         I  C GROUND SMU3 B
END_HEADER

BEGIN_DB
 ICCAP_VAR VS         0              
 ICCAP_VAR VB         0              
 ICCAP_VAR VD         0.1            

 #VG              IG              ID              IB             
  0               6.009e-010      6.741e-010      1.1269e-008    
  0.05            2.5754e-009     -3.628e-010     -1.4827e-008   
  0.1             -1.4729e-009    9.217e-010      2.2849e-008    
  0.15            -8.728e-010     -2.0477e-009    6.299e-009     
  0.2             1.7562e-009     -1.5045e-009    -1.2809e-008   
  0.25            6.651e-010      2.2214e-009     -8.716e-009    
  0.3             -1.838e-009     7.673e-010      1.7706e-008    
  0.35            -6.049e-010     -1.9405e-009    3.885e-009     
  0.4             2.5576e-009     -8.802e-010     -9.361e-009    
  0.45            -1.46e-009      2.0241e-009     2.2917e-008    
  0.5             -2.4687e-009    3.5852e-009     6.481e-009     
  0.55            2.6498e-009     1.4039e-008     1.6924e-008    
  0.6             -2.2882e-009    5.254e-008      2.6237e-008    
  0.65            6.666e-010      1.7633e-007     -1.3299e-008   
  0.7             -1.4978e-009    6.3031e-007     1.7888e-008    
  0.75            -2.4212e-009    1.8166e-006     -1.844e-008    
  0.8             -6.019e-010     4.885e-006      -1.0596e-008   
  0.85            1.8121e-009     1.09209e-005    -1.9344e-008   
  0.9             -2.2565e-009    2.067e-005      -4.354e-009    
  0.95            -1.6176e-009    3.354e-005      2.492e-009     
  1               -2.5204e-009    4.9009e-005     5.005e-009     
  1.05            -8.02e-010      6.5827e-005     -1.0277e-008   
  1.1             2.7448e-009     8.3205e-005     -1.4655e-008   
  1.15            2.4056e-009     0.000101522     -1.711e-009    
  1.2             1.8531e-009     0.00011947      8.561e-009     
  1.25            2.4932e-009     0.00013719      -7.936e-009    
  1.3             -2.4374e-009    0.00015522      1.099e-008     
  1.35            -1.856e-009     0.00017223      1.51e-009      
  1.4             -1.3715e-009    0.00018903      4.046e-009     
  1.45            -2.6015e-009    0.00020553      7.836e-009     
  1.5             -1.0069e-009    0.00022143      -9.4e-009      
  1.55            1.58e-010       0.00023672      -1.1173e-008   
  1.6             2.7305e-009     0.00025214      -2.1952e-008   
  1.65            -1.4609e-009    0.00026753      1.8546e-008    
  1.7             -2.5725e-009    0.00028214      6.441e-009     
  1.75            -9.237e-010     0.00029633      -9.957e-009    
  1.8             2.6841e-009     0.00031009      -1.2038e-008   
  1.85            -1.3832e-009    0.00032426      2.0152e-008    
  1.9             -2.6015e-009    0.00033766      7.649e-009     
  1.95            -9.971e-010     0.00035064      -9.473e-009    
  2               1.667e-010      0.00036315      -1.1235e-008   
  2.05            2.7333e-009     0.00037591      -2.1826e-008   
  2.1             -1.4712e-009    0.00038861      1.8268e-008    
  2.15            -2.5722e-009    0.00040069      6.292e-009     
  2.2             -9.142e-010     0.00041246      -1.005e-008    
  2.25            2.6943e-009     0.0004237       -1.2132e-008   
  2.3             -1.395e-009     0.0004356       1.974e-008     
  2.35            -2.6016e-009    0.00044677      7.587e-009     
  2.4             -9.868e-010     0.00045774      -9.585e-009    
  2.45            1.787e-010      0.00046815      -1.1249e-008   
  2.5             2.7335e-009     0.00047887      -2.1403e-008   
  2.55            2.3625e-009     0.00048936      -1.819e-009    
  2.6             1.6793e-009     0.00049944      -4.129e-009    
  2.65            2.5661e-009     0.00050929      -9.131e-009    
  2.7             -2.3203e-009    0.00051941      1.1275e-008    
  2.75            -1.6969e-009    0.00052869      2.165e-009     
  2.8             -2.4988e-009    0.00053814      4.777e-009     
  2.85            -7.517e-010     0.00054719      -1.0547e-008   
  2.9             1.6067e-009     0.00055615      -1.6022e-008   
  2.95            2.6071e-009     0.00056497      -9.341e-009    
  3               -2.3891e-009    0.00057395      2.5402e-008    
  3.05            -1.7861e-009    0.00058223      1.843e-009     
  3.1             -1.34e-009      0.00059064      4.382e-009     
  3.15            -2.6114e-009    0.00059888      8.365e-009     
  3.2             -1.0451e-009    0.00060678      -9.406e-009    
  3.25            2.6689e-009     0.00061449      -2.3704e-008   
  3.3             -1.3652e-009    0.00062241      2.0678e-008    
  3.35            -2.6057e-009    0.00062986      8.002e-009     
  3.4             2.3486e-009     0.00063707      -2.5352e-008   
  3.45            1.6472e-009     0.00064443      -4.354e-009    
  3.5             2.5768e-009     0.00065137      -9.309e-009    
  3.55            -2.2915e-009    0.00065865      1.1506e-008    
  3.6             -1.6596e-009    0.00066511      2.396e-009     
  3.65            -2.5107e-009    0.00067184      4.856e-009     
  3.7             -7.838e-010     0.00067828      -1.0408e-008   
  3.75            2.7447e-009     0.00068456      -1.5336e-008   
  3.8             2.4473e-009     0.00069104      -1.683e-009    
  3.85            -2.4763e-009    0.00069728      1.1009e-008    
  3.9             -1.9266e-009    0.00070294      1.164e-009     
  3.95            -1.401e-009     0.00070881      3.554e-009     
  4               -2.5935e-009    0.00071471      7.178e-009     
  4.05            2.4357e-009     0.00072021      -2.5346e-008   
  4.1             1.7342e-009     0.00072571      -3.922e-009    
  4.15            2.5414e-009     0.00073113      -8.988e-009    
  4.2             -2.3623e-009    0.00073658      1.1296e-008    
  4.25            -1.7473e-009    0.00074139      1.909e-009     
  4.3             -1.3281e-009    0.00074647      4.28e-009      
  4.35            -2.6121e-009    0.00075144      8.484e-009     
  4.4             2.2729e-009     0.00075614      -2.4898e-008   
  4.45            1.5652e-009     0.00076093      -5.12e-009     
  4.5             2.6126e-009     0.00076537      -9.381e-009    
  4.55            -2.3696e-009    0.00077003      2.539e-008     
  4.6             -1.7659e-009    0.0007742       1.905e-009     
  4.65            -1.3341e-009    0.00077851      4.476e-009     
  4.7             -2.6121e-009    0.00078271      8.607e-009     
  4.75            -1.058e-009     0.00078669      -9.222e-009    
  4.8             2.6605e-009     0.00079068      -2.3875e-008   
  4.85            -1.3578e-009    0.00079466      2.094e-008     
  4.9             -2.6047e-009    0.00079842      8.123e-009     
  4.95            2.3264e-009     0.00080207      -2.5125e-008   
  5               1.6138e-009     0.00080569      -4.806e-009    
END_DB

BEGIN_DB
 ICCAP_VAR VS         0              
 ICCAP_VAR VB         0              
 ICCAP_VAR VD         5              

 #VG              IG              ID              IB             
  0               1.2053e-009     1.2989e-009     -1.0513e-008   
  0.05            1.1415e-009     2.1417e-009     -9.289e-009    
  0.1             -2.5201e-009    1.1208e-009     2.6363e-008    
  0.15            -1.99e-011      -1.7888e-009    1.455e-009     
  0.2             2.7475e-009     -9.723e-010     -2.5058e-008   
  0.25            -1.818e-009     7.691e-010      1.7755e-008    
  0.3             -6.128e-010     -1.9796e-009    4.102e-009     
  0.35            2.2002e-009     -1.2386e-009    -1.8565e-008   
  0.4             2.241e-009      1.4417e-009     -5.385e-009    
  0.45            -2.0457e-009    2.2409e-009     1.5565e-008    
  0.5             -1.7637e-009    5.0589e-009     2.591e-009     
  0.55            2.3193e-009     1.9964e-008     9.526e-009     
  0.6             -1.5014e-009    7.5384e-008     1.2513e-008    
  0.65            4.986e-010      2.5884e-007     -2.9954e-008   
  0.7             8.877e-010      8.5433e-007     -5.2651e-008   
  0.75            -9.458e-010     2.7964e-006     -1.9405e-007   
  0.8             -2.4431e-009    7.6703e-006     -4.462e-007    
  0.85            2.6638e-009     1.7148e-005     -1.10049e-006  
  0.9             -2.5298e-009    3.489e-005      -2.0462e-006   
  0.95            -2.6195e-009    6.2279e-005     -3.5558e-006   
  1               -2.4063e-009    0.000100784     -5.4186e-006   
  1.05            -2.4407e-009    0.00015013      -7.6709e-006   
  1.1             -2.6082e-009    0.0002115       -1.02115e-005  
  1.15            2.7382e-009     0.00028084      -1.2822e-005   
  1.2             2.3517e-009     0.00036238      -1.5577e-005   
  1.25            1.6871e-009     0.00045098      -1.8282e-005   
  1.3             2.5619e-009     0.00054389      -2.1015e-005   
  1.35            2.7594e-009     0.00064499      -2.3444e-005   
  1.4             2.5781e-009     0.00075339      -2.5854e-005   
  1.45            1.9641e-009     0.00086033      -2.7968e-005   
  1.5             2.4448e-009     0.00096115      -2.9597e-005   
  1.55            2.7041e-009     0.0010783       -3.1363e-005   
  1.6             -2.5821e-009    0.0012028       -3.2846e-005   
  1.65            -2.2009e-009    0.001348        -3.4432e-005   
  1.7             -1.599e-009     0.0014721       -3.5726e-005   
  1.75            -2.5246e-009    0.0015909       -3.6375e-005   
  1.8             -2.6209e-009    0.0017285       -3.7272e-005   
  1.85            -2.4087e-009    0.0018468       -3.7537e-005   
  1.9             -1.8336e-009    0.0019724       -3.7921e-005   
  1.95            -1.3747e-009    0.0021077       -3.8076e-005   
  2               -2.6107e-009    0.0022516       -3.8017e-005   
  2.05            -2.5535e-009    0.0023886       -3.7937e-005   
  2.1             -2.0967e-009    0.00253         -3.7639e-005   
  2.15            -1.5154e-009    0.0026725       -3.7259e-005   
  2.2             -2.551e-009     0.0028094       -3.6741e-005   
  2.25            -2.6112e-009    0.0029463       -3.6138e-005   
  2.3             -2.3286e-009    0.0030939       -3.5454e-005   
  2.35            -1.7341e-009    0.0032377       -3.4719e-005   
  2.4             -1.3313e-009    0.0033873       -3.3913e-005   
  2.45            -2.6206e-009    0.0035351       -3.3049e-005   
  2.5             -2.4986e-009    0.0036819       -3.2158e-005   
  2.55            -1.9802e-009    0.0038315       -3.1207e-005   
  2.6             -1.4481e-009    0.003983        -3.0235e-005   
  2.65            -2.5758e-009    0.0041317       -2.9223e-005   
  2.7             -2.5892e-009    0.0042821       -2.8222e-005   
  2.75            -2.2339e-009    0.0044345       -2.7193e-005   
  2.8             -1.6253e-009    0.0045902       -2.6161e-005   
  2.85            -2.5097e-009    0.0047453       -2.5122e-005   
  2.9             -2.623e-009     0.0048994       -2.4102e-005   
  2.95            -2.4329e-009    0.0050551       -2.3082e-005   
  3               -1.8693e-009    0.0052134       -2.2073e-005   
  3.05            -1.3917e-009    0.0053719       -2.1066e-005   
  3.1             -2.5971e-009    0.0055281       -2.0095e-005   
  3.15            -2.5647e-009    0.0056849       -1.9144e-005   
  3.2             -2.1225e-009    0.0058443       -1.8207e-005   
  3.25            -1.5429e-009    0.006005        -1.7294e-005   
  3.3             -2.5388e-009    0.0061629       -1.6407e-005   
  3.35            -2.6184e-009    0.0063215       -1.5558e-005   
  3.4             -2.3606e-009    0.006483        -1.4728e-005   
  3.45            -1.7681e-009    0.0066453       -1.3922e-005   
  3.5             -1.3498e-009    0.0068071       -1.3148e-005   
  3.55            -2.6135e-009    0.0069695       -1.2405e-005   
  3.6             -2.5223e-009    0.0071292       -1.1698e-005   
  3.65            -2.0292e-009    0.0072941       -1.1013e-005   
  3.7             -1.47e-009      0.0074579       -1.0356e-005   
  3.75            2.4157e-009     0.0076172       -9.7487e-006   
  3.8             1.7416e-009     0.0077824       -9.1538e-006   
  3.85            2.5284e-009     0.0079453       -8.5881e-006   
  3.9             2.748e-009      0.0081115       -8.0398e-006   
  3.95            2.6003e-009     0.0082749       -7.5295e-006   
  4               2.0166e-009     0.00844         -7.0441e-006   
  4.05            2.4186e-009     0.0086044       -6.5857e-006   
  4.1             2.6872e-009     0.00877         -6.1379e-006   
  4.15            2.7176e-009     0.0089384       -5.7272e-006   
  4.2             2.3007e-009     0.0091029       -5.3391e-006   
  4.25            1.6291e-009     0.0092681       -4.9752e-006   
  4.3             2.5801e-009     0.0094325       -4.6337e-006   
  4.35            2.7548e-009     0.0095997       -4.2959e-006   
  4.4             2.537e-009      0.009765        -3.9964e-006   
  4.45            1.9053e-009     0.0099293       -3.7123e-006   
  4.5             2.4629e-009     0.0100945       -3.4461e-006   
  4.55            2.7159e-009     0.0102619       -3.1868e-006   
  4.6             2.6876e-009     0.0104284       -2.9573e-006   
  4.65            2.1932e-009     0.0105922       -2.7385e-006   
  4.7             2.3638e-009     0.0107569       -2.5347e-006   
  4.75            2.6327e-009     0.0109221       -2.3311e-006   
  4.8             2.7514e-009     0.0110879       -2.1541e-006   
  4.85            2.4521e-009     0.0112515       -1.9902e-006   
  4.9             -2.4892e-009    0.011417        -1.8345e-006   
  4.95            -2.6198e-009    0.011581        -1.6872e-006   
  5               -2.4938e-009    0.011743        -1.5466e-006   
END_DB

BEGIN_DB
 ICCAP_VAR VS         0              
 ICCAP_VAR VB         -2.5           
 ICCAP_VAR VD         0.1            

 #VG              IG              ID              IB             
  0               1.023e-009      9.932e-010      2.6132e-008    
  0.05            2.4019e-009     -4.811e-010     -1.5415e-008   
  0.1             1.1491e-009     2.112e-009      -4.035e-009    
  0.15            -2.5024e-009    1.1201e-009     2.618e-008     
  0.2             -1.0257e-009    -2.0279e-009    1.324e-009     
  0.25            2.7372e-009     -1.5773e-009    -1.1286e-008   
  0.3             8.452e-010      2.2603e-009     -2.029e-009    
  0.35            -1.5537e-009    8.806e-010      2.1935e-008    
  0.4             -8.203e-010     -2.056e-009     5.358e-009     
  0.45            1.8558e-009     -1.4781e-009    -1.382e-008    
  0.5             6.033e-010      2.1968e-009     -8.018e-009    
  0.55            -1.9084e-009    7.002e-010      1.7055e-008    
  0.6             -5.384e-010     -2.0066e-009    3.27e-009      
  0.65            2.2823e-009     -1.3208e-009    -1.9945e-008   
  0.7             3.422e-010      2.0799e-009     -4.6e-009      
  0.75            -2.2845e-009    4.865e-010      1.295e-008     
  0.8             -2.442e-010     -1.9175e-009    2.18e-009      
  0.85            -4.461e-010     -1.9841e-009    -1.0422e-008   
  0.9             2.4111e-009     -1.2586e-009    -2.1777e-008   
  0.95            1.1452e-009     2.1308e-009     -3.962e-009    
  1               -2.5028e-009    1.1285e-009     2.6045e-008    
  1.05            -3.09e-011      -1.7304e-009    1.31e-009      
  1.1             2.7418e-009     -6.653e-010     -2.5094e-008   
  1.15            -1.7875e-009    2.3769e-009     1.8259e-008    
  1.2             -1.5519e-009    7.0877e-009     3.826e-009     
  1.25            2.7269e-009     3.125e-008      2.5298e-008    
  1.3             9.32e-011       1.1703e-007     6.116e-009     
  1.35            2.6949e-009     4.461e-007      -2.3873e-008   
  1.4             1.9838e-009     1.5791e-006     1.1251e-008    
  1.45            -2.3468e-009    5.0569e-006     2.5935e-008    
  1.5             2.3802e-009     1.197e-005      2.626e-009     
  1.55            1.6817e-009     2.3288e-005     -4.24e-009     
  1.6             2.5566e-009     3.8022e-005     -9.15e-009     
  1.65            -2.3139e-009    5.538e-005      1.1334e-008    
  1.7             -1.6759e-009    7.3224e-005     2.356e-009     
  1.75            -2.4943e-009    9.1548e-005     4.448e-009     
  1.8             -7.621e-010     0.000109621     -1.0492e-008   
  1.85            -1.688e-009     0.00012803      -1.4715e-008   
  1.9             2.7542e-009     0.00014523      -1.5829e-008   
  1.95            2.4791e-009     0.00016266      -1.686e-009    
  2               1.8041e-009     0.00017947      -3.715e-009    
  2.05            2.5031e-009     0.00019591      -8.273e-009    
  2.1             -2.4079e-009    0.00021245      1.124e-008     
  2.15            -1.7858e-009    0.00022794      1.802e-009     
  2.2             -1.3445e-009    0.0002432       3.802e-009     
  2.25            -2.6083e-009    0.00025814      8.421e-009     
  2.3             2.2882e-009     0.0002723       -2.5043e-008   
  2.35            1.5888e-009     0.0002865       -4.762e-009    
  2.4             2.5945e-009     0.00030042      -9.312e-009    
  2.45            -2.3763e-009    0.00031431      2.5721e-008    
  2.5             -1.7478e-009    0.00032731      1.726e-009     
  2.55            -1.3402e-009    0.00034018      4.08e-009      
  2.6             -2.6189e-009    0.0003528       8.503e-009     
  2.65            2.2513e-009     0.00036472      -2.4776e-008   
  2.7             2.3451e-009     0.00037679      -4.955e-009    
  2.75            -1.4324e-009    0.00038871      1.9114e-008    
  2.8             -2.577e-009     0.00040014      6.626e-009     
  2.85            2.4472e-009     0.00041105      -2.5483e-008   
  2.9             1.7553e-009     0.00042206      -3.588e-009    
  2.95            2.5137e-009     0.00043275      -8.52e-009     
  3               -2.364e-009     0.0004435       1.0928e-008    
  3.05            -1.741e-009     0.00045351      1.885e-009     
  3.1             -1.3411e-009    0.00046356      4.037e-009     
  3.15            -2.617e-009     0.0004734       8.732e-009     
  3.2             2.2427e-009     0.00048271      -2.437e-008    
  3.25            2.3413e-009     0.00049216      -4.889e-009    
  3.3             -1.4361e-009    0.00050146      1.9332e-008    
  3.35            -2.5785e-009    0.00051041      6.786e-009     
  3.4             -9.501e-010     0.00051904      -9.642e-009    
  3.45            2.074e-010      0.00052731      -1.1777e-008   
  3.5             2.754e-009      0.0005359       -2.1602e-008   
  3.55            2.3771e-009     0.00054423      -1.967e-009    
  3.6             1.701e-009      0.00055216      -3.822e-009    
  3.65            2.5381e-009     0.00055995      -8.948e-009    
  3.7             -2.4528e-009    0.00056784      2.5177e-008    
  3.75            -1.8692e-009    0.00057521      1.505e-009     
  3.8             -1.3848e-009    0.00058255      3.467e-009     
  3.85            -2.5958e-009    0.00058985      7.435e-009     
  3.9             2.3503e-009     0.00059669      -2.5158e-008   
  3.95            1.6658e-009     0.00060362      -4.263e-009    
  4               2.5512e-009     0.00061026      -9.176e-009    
  4.05            -2.4194e-009    0.00061697      2.5418e-008    
  4.1             -1.8249e-009    0.00062322      1.622e-009     
  4.15            -1.3707e-009    0.00062959      3.783e-009     
