! VERSION = 6.00
BEGIN_HEADER
 ICCAP_INPUTS
  VG         V  B GROUND SMU4 0.001 LIN        2    0          5          6    1         
  VS         V  E GROUND SMU2 0.1 CON        0
  VD         V  S GROUND SMU1 0.1 LIN        1    0          5          101  0.05      
  VB         V  C GROUND SMU3 0.1 LIN        3    0          -2.5       2    -2.5      
 ICCAP_OUTPUTS
  ID         I  S GROUND SMU1 B
  IB         I  C GROUND SMU3 B
  IG         I  B GROUND SMU4 B
END_HEADER

BEGIN_DB
 ICCAP_VAR VG         0              
 ICCAP_VAR VS         0              
 ICCAP_VAR VB         0              

 #VD              ID              IB              IG             
  0               1.5087e-009     -1.0512e-008    1.1823e-009    
  0.05            1.3202e-009     -9.004e-009     2.0531e-009    
  0.1             2.4531e-009     7.881e-009      8.132e-010     
  0.15            1.0814e-009     2.0641e-008     -1.6129e-009   
  0.2             -1.4012e-009    5.526e-009      2.166e-010     
  0.25            -5.687e-010     -2.064e-008     1.7437e-009    
  0.3             1.8836e-009     -9.205e-009     1.5307e-009    
  0.35            1.6369e-009     8.655e-009      1.6964e-009    
  0.4             1.1089e-009     2.1193e-008     -1.5647e-009   
  0.45            -1.4186e-009    5.783e-009      1.87e-010      
  0.5             -5.924e-010     -2.1268e-008    1.6809e-009    
  0.55            1.8232e-009     -9.429e-009     1.5676e-009    
  0.6             1.595e-009      8.769e-009      1.7332e-009    
  0.65            3.953e-010      1.1014e-008     -2.5771e-009   
  0.7             -1.1068e-009    -2.0564e-008    2.2953e-009    
  0.75            2.271e-009      -4.971e-009     1.2204e-009    
  0.8             7.407e-010      1.3819e-008     -2.2777e-009   
  0.85            -1.6841e-009    2.341e-009      -2.534e-010    
  0.9             -1.7457e-009    -1.0545e-008    -4.552e-010    
  0.95            -1.0488e-009    -2.2272e-008    2.4084e-009    
  1               1.2825e-009     -3.939e-009     2.1356e-009    
  1.05            7.74e-010       1.4222e-008     -2.2235e-009   
  1.1             -1.7015e-009    2.489e-009      -2.918e-010    
  1.15            -1.755e-009     -1.0454e-008    -5.027e-010    
  1.2             -1.0744e-009    -2.1463e-008    2.3465e-009    
  1.25            2.3009e-009     -4.337e-009     1.185e-009     
  1.3             1.3772e-009     2.6211e-008     -2.4457e-009   
  1.35            -1.589e-009     1.342e-009      -6.76e-011     
  1.4             -7.939e-010     -2.4736e-008    2.6951e-009    
  1.45            1.6803e-009     1.967e-008      -1.9163e-009   
  1.5             -1.7629e-009    3.769e-009      -5.626e-010    
  1.55            -9.191e-010     -9.63e-009      2.5768e-009    
  1.6             1.1413e-009     2.2169e-008     -1.5041e-009   
  1.65            -1.4423e-009    6.485e-009      1.434e-010     
  1.7             -6.185e-010     -2.2163e-008    1.5952e-009    
  1.75            1.7665e-009     -9.425e-009     1.6188e-009    
  1.8             1.0614e-009     1.9871e-008     -1.6739e-009   
  1.85            -1.3788e-009    5.155e-009      2.6688e-009    
  1.9             1.064e-009      1.9861e-008     -1.6613e-009   
  1.95            -1.3806e-009    5.068e-009      2.665e-009     
  2               1.0697e-009     2.0009e-008     -1.649e-009    
  2.05            -1.3825e-009    5.222e-009      2.6568e-009    
  2.1             1.0747e-009     2.0192e-008     -1.643e-009    
  2.15            -1.3886e-009    5.178e-009      2.656e-009     
  2.2             1.077e-009      2.0176e-008     -1.6338e-009   
  2.25            -1.3881e-009    5.351e-009      2.6522e-009    
  2.3             1.0815e-009     2.0326e-008     -1.6239e-009   
  2.35            -1.3928e-009    5.428e-009      2.6485e-009    
  2.4             1.0876e-009     2.0478e-008     -1.6137e-009   
  2.45            -1.3955e-009    5.411e-009      2.163e-010     
  2.5             -5.596e-010     -2.0657e-008    1.7409e-009    
  2.55            1.8883e-009     -9.248e-009     1.5326e-009    
  2.6             1.644e-009      8.658e-009      1.6993e-009    
  2.65            1.1138e-009     2.1176e-008     -1.5605e-009   
  2.7             -1.4142e-009    5.842e-009      1.832e-010     
  2.75            -5.876e-010     -2.1285e-008    1.6735e-009    
  2.8             1.8236e-009     -9.407e-009     1.5705e-009    
  2.85            1.5898e-009     8.207e-009      1.7376e-009    
  2.9             2.3638e-009     9.045e-009      4.714e-010     
  2.95            8.398e-010      1.5183e-008     -2.1259e-009   
  3               -1.7237e-009    2.928e-009      -3.952e-010    
  3.05            -1.7671e-009    -1.0069e-008    -5.945e-010    
  3.1             -1.123e-009     -1.9632e-008    2.229e-009     
  3.15            1.2604e-009     -5.201e-009     2.213e-009     
  3.2             8.709e-010      1.5911e-008     -2.0639e-009   
  3.25            -1.7313e-009    3.347e-009      -4.473e-010    
  3.3             -1.0249e-009    -2.2634e-008    2.4208e-009    
  3.35            1.2942e-009     -3.959e-009     2.1263e-009    
  3.4             7.754e-010      1.3809e-008     -2.2456e-009   
  3.45            -1.6888e-009    2.486e-009      -2.941e-010    
  3.5             -1.7436e-009    -1.0516e-008    -4.962e-010    
  3.55            -1.054e-009     -2.1699e-008    2.3587e-009    
  3.6             1.287e-009      -4.226e-009     2.1572e-009    
  3.65            8.078e-010      1.4351e-008     -2.1883e-009   
  3.7             -7.419e-010     -2.4756e-008    2.7188e-009    
  3.75            1.6488e-009     2.118e-008      -1.9979e-009   
  3.8             -1.7396e-009    3.378e-009      -4.92e-010     
  3.85            -1.0523e-009    -2.1697e-008    2.3661e-009    
  3.9             1.291e-009      -4.539e-009     2.1558e-009    
  3.95            8.157e-010      1.4285e-008     -2.19e-009     
  4               -1.6993e-009    2.72e-009       -3.355e-010    
  4.05            -1.7443e-009    -1.0229e-008    -5.449e-010    
  4.1             -1.0762e-009    -2.0843e-008    2.3006e-009    
  4.15            1.285e-009      -4.741e-009     2.1841e-009    
  4.2             8.506e-010      1.4996e-008     -2.1306e-009   
  4.25            -1.706e-009     3.088e-009      -3.899e-010    
  4.3             -1.7493e-009    -1.0041e-008    -5.909e-010    
  4.35            -1.0963e-009    -1.968e-008     2.2429e-009    
  4.4             1.2818e-009     -5.246e-009     2.2103e-009    
  4.45            8.932e-010      1.5623e-008     -2.0749e-009   
  4.5             -1.7114e-009    3.174e-009      -4.344e-010    
  4.55            -9.984e-010     -2.2721e-008    2.4264e-009    
  4.6             2.4801e-009     5.869e-009      7.394e-010     
  4.65            1.0665e-009     1.9004e-008     -1.7198e-009   
  4.7             -1.3239e-009    4.708e-009      2.6859e-009    
  4.75            1.0747e-009     1.9089e-008     -1.7162e-009   
  4.8             -1.3212e-009    4.871e-009      2.6838e-009    
  4.85            1.0795e-009     1.9352e-008     -1.7083e-009   
  4.9             -1.3179e-009    4.767e-009      2.6833e-009    
  4.95            1.0902e-009     1.921e-008      -1.7088e-009   
  5               -1.3205e-009    4.692e-009      2.6746e-009    
END_DB

BEGIN_DB
 ICCAP_VAR VG         1              
 ICCAP_VAR VS         0              
 ICCAP_VAR VB         0              

 #VD              ID              IB              IG             
  0               4.888e-007      -1.1641e-008    2.7055e-009    
  0.05            4.2633e-005     2.6325e-008     -1.487e-009    
  0.1             6.8514e-005     1.2659e-008     -2.0837e-009   
  0.15            8.3208e-005     1.9594e-008     -1.4032e-009   
  0.2             9.0523e-005     7.668e-009      1.0305e-009    
  0.25            9.5862e-005     -2.3571e-008    2.1524e-009    
  0.3             9.9755e-005     -1.0568e-008    -7.325e-010    
  0.35            0.0001031       7.803e-009      -2.5917e-009   
  0.4             0.000105341     1.3123e-008     -2.4887e-009   
  0.45            0.000107653     1.4484e-008     -1.8463e-009   
  0.5             0.000108206     9.087e-009      7.369e-010     
  0.55            0.000109778     -2.4187e-008    2.6072e-009    
  0.6             0.000111658     -2.3047e-008    2.0986e-009    
  0.65            0.000113177     -1.0511e-008    -7.704e-010    
  0.7             0.00011417      2.3875e-008     1.3623e-009    
  0.75            0.000115        -9.238e-009     2.5503e-009    
  0.8             0.00011717      -1.3761e-008    2.6974e-009    
  0.85            0.00011798      -2.3715e-008    2.1654e-009    
  0.9             0.00011938      -1.0158e-008    -8.416e-010    
  0.95            0.00012221      2.5842e-008     -2.2793e-009   
  1               0.00012287      1.917e-008      -1.4266e-009   
  1.05            0.00012411      1.4428e-008     -1.8579e-009   
  1.1             0.00012505      2.4082e-008     -2.4474e-009   
  1.15            0.00012624      1.7068e-008     -1.6156e-009   
  1.2             0.0001271       2.5737e-008     -2.2712e-009   
  1.25            0.00012615      8.619e-009      1.9859e-009    
  1.3             0.00012787      -2.3606e-008    2.6456e-009    
  1.35            0.00012872      -1.7858e-008    1.7801e-009    
  1.4             0.00013052      -9.513e-009     -1.0212e-009   
  1.45            0.000132        1.1171e-008     -2.5133e-009   
  1.5             0.00013302      1.5683e-008     -1.7375e-009   
  1.55            0.0001341       2.4915e-008     -2.3682e-009   
  1.6             0.00013264      8.738e-009      1.9027e-009    
  1.65            0.00013451      -2.2437e-008    2.6896e-009    
  1.7             0.00013517      -2.3535e-008    2.1365e-009    
  1.75            0.00013634      -1.0269e-008    -8.551e-010    
  1.8             0.00013806      9.993e-009      -2.5935e-009   
  1.85            0.00013941      1.2639e-008     -2.055e-009    
  1.9             0.00013891      8.488e-009      7.226e-010     
  1.95            0.00013924      -2.5698e-008    2.4963e-009    
  2               0.00014019      -1.1975e-008    -5.898e-010    
  2.05            0.0001419       5.736e-009      -2.591e-009    
  2.1             0.00014343      8.329e-009      -2.3889e-009   
  2.15            0.00014429      1.4105e-008     -1.5308e-009   
  2.2             0.00014523      8.24e-009       -2.0096e-009   
  2.25            0.00014577      4.127e-009      -2.4273e-009   
  2.3             0.00014659      8.488e-009      -1.5872e-009   
  2.35            0.00014574      -4.414e-009     2.3118e-009    
  2.4             0.00014741      -2.4631e-008    -8.828e-010    
  2.45            0.00014741      -2.4151e-008    -2.6004e-009   
  2.5             0.00014683      -1.5245e-008    1.3472e-009    
  2.55            0.00014918      -4.2162e-008    2.6844e-009    
  2.6             0.00015064      -4.6249e-008    -1.7754e-009   
  2.65            0.00015195      -3.4037e-008    5.55e-011      
  2.7             0.00015142      -7.0742e-008    1.8562e-009    
  2.75            0.00015227      -7.2915e-008    -2.1856e-009   
  2.8             0.00015315      -6.7701e-008    7.13e-010      
  2.85            0.00015371      -1.1705e-007    2.5134e-009    
  2.9             0.00015421      -1.0057e-007    -2.0064e-009   
  2.95            0.00015466      -1.1964e-007    2.1279e-009    
  3               0.00015609      -1.6128e-007    -5.817e-010    
  3.05            0.00015824      -1.5167e-007    -2.5077e-009   
  3.1             0.00015639      -1.951e-007     1.7524e-009    
  3.15            0.00015853      -2.4851e-007    -7.32e-011     
  3.2             0.0001605       -2.5783e-007    -1.6849e-009   
  3.25            0.00015942      -3.0813e-007    2.2671e-009    
  3.3             0.00016119      -3.7433e-007    -8.2e-010      
  3.35            0.00016273      -3.882e-007     -2.3049e-009   
  3.4             0.00016135      -4.665e-007     1.9614e-009    
  3.45            0.00016345      -5.5425e-007    -3.386e-010    
  3.5             0.0001654       -5.957e-007     -1.4316e-009   
  3.55            0.0001642       -6.911e-007     2.396e-009     
  3.6             0.00016613      -8.0209e-007    -9.935e-010    
  3.65            0.00016836      -8.6446e-007    -1.9961e-009   
  3.7             0.00016689      -9.9718e-007    2.1333e-009    
  3.75            0.00016877      -1.1244e-006    1.683e-010     
  3.8             0.00016817      -1.2938e-006    1.669e-009     
  3.85            0.0001702       -1.442e-006     -2.2892e-009   
  3.9             0.00017091      -1.5877e-006    8.205e-010     
  3.95            0.00017125      -1.8202e-006    2.3551e-009    
  4               0.00017344      -2.0007e-006    -1.9634e-009   
  4.05            0.00017496      -2.1934e-006    3.979e-010     
  4.1             0.00017454      -2.476e-006     2.7135e-009    
  4.15            0.00017773      -2.7283e-006    -1.7081e-009   
  4.2             0.00017863      -2.982e-006     -2.31e-011     
  4.25            0.00017843      -3.3222e-006    2.008e-009     
  4.3             0.00018075      -3.6619e-006    -2.1169e-009   
  4.35            0.00018206      -3.9826e-006    6.265e-010     
  4.4             0.00018223      -4.4381e-006    2.5934e-009    
  4.45            0.00018539      -4.8346e-006    -1.8494e-009   
  4.5             0.00018726      -5.2424e-006    1.845e-010     
  4.55            0.0001871       -5.7736e-006    1.6391e-009    
  4.6             0.00019004      -6.2913e-006    -2.2976e-009   
  4.65            0.00019145      -6.7943e-006    8.303e-010     
  4.7             0.00019251      -7.4771e-006    2.343e-009     
  4.75            0.00019565      -8.0628e-006    -1.9686e-009   
  4.8             0.00019788      -8.6659e-006    4.136e-010     
  4.85            0.00019863      -9.4691e-006    2.7077e-009    
  4.9             0.00020285      -1.02066e-005   -1.7168e-009   
  4.95            0.00020462      -1.09358e-005   -7.3e-012      
  5               0.00020683      -1.1749e-005    5.85e-011      
END_DB

BEGIN_DB
 ICCAP_VAR VG         2              
 ICCAP_VAR VS         0              
 ICCAP_VAR VB         0              

 #VD              ID              IB              IG             
  0               2.9199e-006     -2.4081e-008    -8.819e-010    
  0.05            0.00020857      1.5282e-008     4.49e-010      
  0.1             0.0004094       -2.2521e-008    2.7135e-009    
  0.15            0.00060165      -2.3865e-008    2.1605e-009    
  0.2             0.00078461      -9.98e-009      -8.392e-010    
  0.25            0.00095757      2.651e-008      -2.2793e-009   
  0.3             0.00111951      8.383e-009      1.9676e-009    
  0.35            0.0012709       -1.5783e-008    -2.4549e-009   
  0.4             0.0014086       9.537e-009      3.86e-010      
  0.45            0.0015321       -2.1491e-008    2.7283e-009    
  0.5             0.0016447       -2.4964e-008    2.2572e-009    
  0.55            0.0017447       -1.0341e-008    -7.852e-010    
  0.6             0.0018295       2.5898e-008     -2.3479e-009   
  0.65            0.0019          8.469e-009      1.9105e-009    
  0.7             0.0019614       -2.3071e-008    2.6971e-009    
  0.75            0.0020111       -2.3044e-008    2.0866e-009    
  0.8             0.0020545       -1.0036e-008    -8.404e-010    
  0.85            0.0020897       2.659e-008      -2.2272e-009   
  0.9             0.0021167       1.9837e-008     -1.391e-009    
  0.95            0.0021367       1.3984e-008     -1.783e-009    
  1               0.0021568       1.1347e-008     -2.2851e-009   
  1.05            0.0021716       1.8937e-008     -1.4218e-009   
  1.1             0.0021891       1.3742e-008     -1.8472e-009   
  1.15            0.0022004       1.1229e-008     -2.3401e-009   
  1.2             0.0022067       8.51e-009       1.9204e-009    
  1.25            0.0022169       -2.3417e-008    2.6953e-009    
  1.3             0.0022256       -2.2746e-008    2.0604e-009    
  1.35            0.002235        -9.789e-009     -8.707e-010    
  1.4             0.0022456       2.6605e-008     -2.2097e-009   
  1.45            0.0022499       9.387e-009      6.057e-010     
  1.5             0.0022543       -2.4793e-008    2.6223e-009    
  1.55            0.0022626       -2.0308e-008    1.8752e-009    
  1.6             0.0022685       -2.5132e-008    2.5724e-009    
  1.65            0.002274        -1.9132e-008    1.7914e-009    
  1.7             0.0022783       -2.5401e-008    2.5163e-009    
  1.75            0.0022868       -1.0569e-008    -5.782e-010    
  1.8             0.0022934       7.261e-009      -2.5805e-009   
  1.85            0.0022981       1.1153e-008     -2.3987e-009   
  1.9             0.0023025       1.7441e-008     -1.5188e-009   
  1.95            0.0023032       7.423e-009      1.0237e-009    
  2               0.0023084       -2.1195e-008    1.942e-009     
  2.05            0.0023101       -2.4979e-008    2.6148e-009    
  2.1             0.0023162       -2.0516e-008    1.864e-009     
  2.15            0.0023197       -2.5732e-008    2.5644e-009    
  2.2             0.0023258       -1.1661e-008    -5.33e-010     
  2.25            0.0023322       5.229e-009      -2.5685e-009   
  2.3             0.0023354       8.15e-009       -2.4411e-009   
  2.35            0.0023386       1.3053e-008     -1.5642e-009   
  2.4             0.0023434       6.775e-009      -2.0705e-009   
  2.45            0.002347        2.37e-009       -2.4789e-009   
  2.5             0.0023506       -1.8263e-008    -2.5734e-009   
  2.55            0.0023521       -1.0489e-008    1.2524e-009    
  2.6             0.0023571       -3.8892e-008    2.727e-009     
  2.65            0.0023637       -4.3491e-008    -1.6962e-009   
  2.7             0.0023664       -3.5485e-008    -2.94e-011     
  2.75            0.0023676       -7.7172e-008    2.0056e-009    
  2.8             0.0023719       -8.8447e-008    -2.1063e-009   
  2.85            0.0023746       -9.4858e-008    6.16e-010      
  2.9             0.0023782       -1.2459e-007    2.231e-010     
  2.95            0.0023782       -1.8988e-007    1.5631e-009    
  3               0.0023838       -2.2297e-007    -2.3304e-009   
  3.05            0.0023859       -2.6134e-007    8.69e-010      
  3.1             0.0023887       -3.5942e-007    2.2783e-009    
  3.15            0.0023939       -4.2104e-007    -1.9955e-009   
  3.2             0.0023975       -4.9393e-007    4.562e-010     
  3.25            0.0023977       -6.3248e-007    2.7131e-009    
  3.3             0.0024048       -7.4649e-007    -1.7473e-009   
  3.35            0.0024068       -8.7306e-007    3.17e-011      
  3.4             0.0024068       -1.06883e-006   1.9008e-009    
  3.45            0.0024109       -1.2423e-006    1.4767e-009    
  3.5             0.002415        -1.4863e-006    1.593e-010     
  3.55            0.0024222       -1.7208e-006    -2.0972e-009   
  3.6             0.0024239       -2.0192e-006    2.0832e-009    
  3.65            0.0024255       -2.3679e-006    -5.139e-010    
  3.7             0.0024303       -2.7189e-006    -1.3148e-009   
  3.75            0.002432        -3.1614e-006    2.5017e-009    
  3.8             0.0024389       -3.6585e-006    -1.1209e-009   
  3.85            0.002441        -4.1735e-006    -1.7505e-009   
  3.9             0.0024425       -4.8041e-006    2.2385e-009    
  3.95            0.0024474       -5.5071e-006    -7.628e-010    
  4               0.0024532       -6.2498e-006    -2.376e-009    
  4.05            0.0024546       -7.1254e-006    1.8965e-009    
  4.1             0.0024599       -8.1091e-006    -2.616e-010    
  4.15            0.0024673       -9.157e-006     -1.4759e-009   
