! VERSION = 6.00
BEGIN_HEADER
 ICCAP_INPUTS
  VG         V  B GROUND SMU4 0.001 LIN        2    0          5          6    1         
  VS         V  E GROUND SMU2 0.1 CON        0
  VD         V  S GROUND SMU1 0.1 LIN        1    0          5          101  0.05      
  VB         V  C GROUND SMU3 0.1 LIN        3    0          -2.5       2    -2.5      
 ICCAP_OUTPUTS
  ID         I  S GROUND SMU1 B
  IB         I  C GROUND SMU3 B
  IG         I  B GROUND SMU4 B
END_HEADER

BEGIN_DB
 ICCAP_VAR VG         0              
 ICCAP_VAR VS         0              
 ICCAP_VAR VB         0              

 #VD              ID              IB              IG             
  0               -3.891e-010     -2.2696e-008    2.7279e-009    
  0.05            8.987e-010      1.7627e-008     -1.7558e-009   
  0.1             -1.8713e-009    3.961e-009      -6.567e-010    
  0.15            -1.088e-009     -9.391e-009     2.463e-009     
  0.2             2.2822e-009     -4.243e-009     1.1178e-009    
  0.25            5.431e-010      1.198e-008      -2.4069e-009   
  0.3             -1.7203e-009    1.358e-009      -1.336e-010    
  0.35            -9.407e-010     -2.6179e-008    2.6781e-009    
  0.4             9.832e-010      2.0265e-008     -1.5837e-009   
  0.45            -1.4965e-009    4.816e-009      2.147e-010     
  0.5             -6.764e-010     -2.1342e-008    1.6688e-009    
  0.55            1.7143e-009     -9.401e-009     1.5443e-009    
  0.6             1.4693e-009     7.491e-009      1.7142e-009    
  0.65            3.053e-010      1.0725e-008     -2.5864e-009   
  0.7             -1.2037e-009    -1.9986e-008    2.2386e-009    
  0.75            2.1474e-009     -5.767e-009     1.2481e-009    
  0.8             6.778e-010      1.3239e-008     -2.216e-009    
  0.85            -1.4168e-009    -1.1486e-008    2.732e-009     
  0.9             1.4241e-009     -2.206e-009     1.7843e-009    
  0.95            3.518e-010      1.0472e-008     -2.5661e-009   
  1               -1.2499e-009    -1.8337e-008    2.1315e-009    
  1.05            2.0766e-009     -6.298e-009     1.3028e-009    
  1.1             7.253e-010      1.3851e-008     -2.1258e-009   
  1.15            -1.8117e-009    2.486e-009      -3.95e-010     
  1.2             -1.8591e-009    -1.0254e-008    -6.008e-010    
  1.25            -1.2293e-009    -1.8888e-008    2.1695e-009    
  1.3             2.1067e-009     -5.909e-009     1.2781e-009    
  1.35            7.049e-010      1.3392e-008     -2.1669e-009   
  1.4             -1.8039e-009    2.473e-009      -3.621e-010    
  1.45            -1.8546e-009    -1.0474e-008    -5.662e-010    
  1.5             -1.0266e-009    -9.857e-009     2.5601e-009    
  1.55            2.44e-010       1.1165e-008     -2.5927e-009   
  1.6             -1.1465e-009    -2.1906e-008    2.3664e-009    
  1.65            2.2306e-009     -4.641e-009     1.1773e-009    
  1.7             6.092e-010      1.2482e-008     -2.3277e-009   
  1.75            -1.7566e-009    1.821e-009      -2.215e-010    
  1.8             -1.8275e-009    -1.0978e-008    -4.314e-010    
  1.85            -1.8653e-009    -1.0138e-008    -6.374e-010    
  1.9             -1.2503e-009    -1.8121e-008    2.1158e-009    
  1.95            2.0749e-009     -6.651e-009     1.311e-009     
  2               7.337e-010      1.4044e-008     -2.1225e-009   
  2.05            -8.854e-010     -2.578e-008     2.7107e-009    
  2.1             9.402e-010      1.8541e-008     -1.6921e-009   
  2.15            -1.4558e-009    4.364e-009      2.6966e-009    
  2.2             9.586e-010      1.9377e-008     -1.6406e-009   
  2.25            -1.4685e-009    4.536e-009      2.6802e-009    
  2.3             9.822e-010      2.016e-008      -1.5935e-009   
  2.35            -1.4872e-009    4.697e-009      2.185e-010     
  2.4             -6.661e-010     -2.134e-008     1.6793e-009    
  2.45            1.7252e-009     -9.403e-009     1.54e-009      
  2.5             1.4833e-009     7.863e-009      1.7181e-009    
  2.55            3.074e-010      1.0764e-008     -2.5857e-009   
  2.6             -1.2028e-009    -1.9796e-008    2.2398e-009    
  2.65            2.1544e-009     -5.473e-009     1.2426e-009    
  2.7             6.833e-010      1.3093e-008     -2.2156e-009   
  2.75            -8.311e-010     -2.5413e-008    2.7339e-009    
  2.8             1.4283e-009     -2.26e-009      1.7824e-009    
  2.85            3.597e-010      1.0656e-008     -2.5653e-009   
  2.9             -1.2428e-009    -1.818e-008     2.127e-009     
  2.95            2.0747e-009     -6.268e-009     1.3048e-009    
  3               7.335e-010      1.3848e-008     -2.112e-009    
  3.05            -1.8068e-009    2.772e-009      -3.992e-010    
  3.1             -1.8552e-009    -1.0244e-008    -6.128e-010    
  3.15            -1.228e-009     -1.8646e-008    2.164e-009     
  3.2             2.1023e-009     -6.028e-009     1.2853e-009    
  3.25            7.203e-010      1.3386e-008     -2.1504e-009   
  3.3             -8.647e-010     -2.5796e-008    2.7236e-009    
  3.35            9.298e-010      1.8227e-008     -1.7206e-009   
  3.4             -1.8655e-009    4.155e-009      -6.842e-010    
  3.45            -1.0982e-009    -9.45e-009      2.4311e-009    
  3.5             2.2719e-009     -4.222e-009     1.14e-009      
  3.55            5.787e-010      1.2285e-008     -2.3788e-009   
  3.6             -1.7251e-009    1.682e-009      -1.696e-010    
  3.65            -9.566e-010     -2.6024e-008    2.653e-009     
  3.7             1.0186e-009     2.0948e-008     -1.5416e-009   
  3.75            -1.5006e-009    5.039e-009      1.869e-010     
  3.8             -6.857e-010     -2.2047e-008    1.6122e-009    
  3.85            1.6778e-009     -9.551e-009     1.5821e-009    
  3.9             9.651e-010      1.9103e-008     -1.65e-009     
  3.95            -1.4587e-009    4.285e-009      2.69e-009      
  4               9.886e-010      1.9718e-008     -1.6056e-009   
  4.05            -1.4733e-009    4.705e-009      2.272e-010     
  4.1             -6.513e-010     -2.0966e-008    1.6956e-009    
  4.15            1.7556e-009     -9.411e-009     1.5395e-009    
  4.2             1.51e-009       7.911e-009      1.7059e-009    
  4.25            3.158e-010      1.0881e-008     -2.588e-009    
  4.3             -1.1795e-009    -2.0141e-008    2.2482e-009    
  4.35            2.1782e-009     -5.604e-009     1.2392e-009    
  4.4             6.894e-010      1.3151e-008     -2.2271e-009   
  4.45            -1.8412e-009    -1.0417e-008    -5.899e-010    
  4.5             -1.1999e-009    -1.9202e-008    2.1874e-009    
  4.55            2.1379e-009     -5.806e-009     1.2741e-009    
  4.6             7.252e-010      1.354e-008      -2.1681e-009   
  4.65            -8.364e-010     -2.5721e-008    2.7306e-009    
  4.7             9.348e-010      1.7883e-008     -1.736e-009    
  4.75            -1.419e-009     3.918e-009      2.714e-009     
  4.8             9.627e-010      1.8663e-008     -1.6908e-009   
  4.85            -1.4341e-009    4.048e-009      2.6997e-009    
  4.9             9.861e-010      1.9347e-008     -1.6398e-009   
  4.95            -1.445e-009     4.537e-009      2.6795e-009    
  5               1.0129e-009     2.0012e-008     -1.5955e-009   
END_DB

BEGIN_DB
 ICCAP_VAR VG         1              
 ICCAP_VAR VS         0              
 ICCAP_VAR VB         0              

 #VD              ID              IB              IG             
  0               -1.1244e-006    1.8535e-008     9.418e-010     
  0.05            5.1663e-005     -2.356e-008     1.516e-009     
  0.1             8.3702e-005     -1.1946e-008    2.154e-010     
  0.15            0.00010195      1.0668e-008     -2.3477e-009   
  0.2             0.000109963     1.5869e-008     -1.595e-009    
  0.25            0.00011271      1.1131e-008     2.6066e-009    
  0.3             0.00011517      -1.2049e-008    2.214e-010     
  0.35            0.00011776      1.1611e-008     -2.1938e-009   
  0.4             0.00011864      2.0108e-008     -1.364e-009    
  0.45            0.00011953      1.4402e-008     -1.7289e-009   
  0.5             0.00012044      1.1216e-008     -2.2395e-009   
  0.55            0.00012087      1.9415e-008     -1.3862e-009   
  0.6             0.0001216       1.3906e-008     -1.7778e-009   
  0.65            0.00012231      1.0879e-008     -2.2816e-009   
  0.7             0.00012105      7.413e-009      1.9692e-009    
  0.75            0.0001218       -2.432e-008     2.6611e-009    
  0.8             0.00012241      -2.1915e-008    1.9529e-009    
  0.85            0.00012266      -2.4953e-008    2.6204e-009    
  0.9             0.00012331      -2.0478e-008    1.859e-009     
  0.95            0.00012338      -2.5571e-008    2.5605e-009    
  1               0.00012424      -1.8947e-008    1.7569e-009    
  1.05            0.00012412      -2.5891e-008    2.4882e-009    
  1.1             0.00012492      -1.7405e-008    2.7413e-009    
  1.15            0.00012523      -2.5916e-008    2.4159e-009    
  1.2             0.00012549      -1.0986e-008    -6.701e-010    
  1.25            0.00012682      7.766e-009      -2.5845e-009   
  1.3             0.00012755      1.1113e-008     -2.2982e-009   
  1.35            0.00012601      7.511e-009      1.9573e-009    
  1.4             0.00012656      -2.4151e-008    2.6692e-009    
  1.45            0.00012699      -2.2188e-008    1.9766e-009    
  1.5             0.00012711      -2.4859e-008    2.6257e-009    
  1.55            0.00012766      -2.0787e-008    1.8709e-009    
  1.6             0.00012758      -2.5305e-008    2.5635e-009    
  1.65            0.0001284       -1.933e-008     1.7716e-009    
  1.7             0.00012844      -2.5887e-008    2.5049e-009    
  1.75            0.00012882      -1.1098e-008    -5.899e-010    
  1.8             0.00012996      6.829e-009      -2.5675e-009   
  1.85            0.00013062      1.0336e-008     -2.3776e-009   
  1.9             0.00012886      7.485e-009      1.8917e-009    
  1.95            0.00012958      -2.3557e-008    2.7069e-009    
  2               0.0001299       -1.2163e-008    -3.046e-010    
  2.05            0.00013142      1.7279e-008     -1.4324e-009   
  2.1             0.00013178      1.131e-008      -1.8646e-009   
  2.15            0.00013201      8.116e-009      -2.3481e-009   
  2.2             0.00013202      1.424e-008      -1.4632e-009   
  2.25            0.00013241      8.197e-009      -1.9182e-009   
  2.3             0.0001327       4.417e-009      -2.3862e-009   
  2.35            0.00013254      1.984e-009      -2.586e-009    
  2.4             0.0001331       2.309e-009      -1.9679e-009   
  2.45            0.00013171      -6.146e-009     2.1333e-009    
  2.5             0.0001321       -2.7555e-008    -6.08e-010     
  2.55            0.00013374      3.392e-009      -2.5008e-009   
  2.6             0.00013158      -1.6935e-008    1.7644e-009    
  2.65            0.00013263      -4.2533e-008    -1.12e-010     
  2.7             0.00013414      -2.2331e-008    -1.6111e-009   
  2.75            0.00013292      -3.9333e-008    2.2857e-009    
  2.8             0.00013348      -6.5601e-008    -8.523e-010    
  2.85            0.000135        -3.9104e-008    -2.2585e-009   
  2.9             0.00013325      -7.0356e-008    1.9866e-009    
  2.95            0.00013425      -1.03514e-007   9.091e-010     
  3               0.00013349      -1.1949e-007    2.6321e-009    
  3.05            0.00013492      -1.3697e-007    -1.8302e-009   
  3.1             0.00013524      -1.3762e-007    1.69e-010      
  3.15            0.00013454      -1.8924e-007    1.6337e-009    
  3.2             0.00013512      -2.0655e-007    -2.2785e-009   
  3.25            0.0001352       -2.1878e-007    8.275e-010     
  3.3             0.00013532      -2.8861e-007    2.3444e-009    
  3.35            0.00013579      -3.0947e-007    -1.9608e-009   
  3.4             0.00013657      -3.314e-007     4.088e-010     
  3.45            0.00013563      -4.1231e-007    2.731e-009     
  3.5             0.0001374       -4.5284e-007    -1.7103e-009   
  3.55            0.00013737      -4.9001e-007    -9.6e-012      
  3.6             0.00013661      -5.818e-007     1.9443e-009    
  3.65            0.00013717      -6.4976e-007    -2.1219e-009   
  3.7             0.00013768      -7.0848e-007    6.486e-010     
  3.75            0.00013729      -8.391e-007     2.5811e-009    
  3.8             0.00013847      -9.184e-007     -1.8541e-009   
  3.85            0.00013929      -1.00157e-006   2.169e-010     
  3.9             0.00013943      -1.1215e-006    -1.9751e-009   
  3.95            0.00013856      -1.2481e-006    2.1333e-009    
  4               0.00013903      -1.4138e-006    -6.076e-010    
  4.05            0.00014048      -1.5255e-006    -2.5063e-009   
  4.1             0.00013897      -1.7083e-006    1.7605e-009    
  4.15            0.00013975      -1.9193e-006    -1.048e-010    
  4.2             0.00014165      -2.0901e-006    -1.6145e-009   
  4.25            0.0001411       -2.3018e-006    2.2811e-009    
  4.3             0.0001419       -2.5629e-006    -8.491e-010    
  4.35            0.00014334      -2.7468e-006    -2.2568e-009   
  4.4             0.00014244      -3.0475e-006    1.9875e-009    
  4.45            0.00014324      -3.371e-006     -3.864e-010    
  4.5             0.00014489      -3.636e-006     -1.3714e-009   
  4.55            0.00014454      -3.9708e-006    2.4219e-009    
  4.6             0.00014609      -4.3584e-006    -1.0374e-009   
  4.65            0.00014706      -4.6505e-006    -1.8924e-009   
  4.7             0.00014676      -5.0946e-006    2.1722e-009    
  4.75            0.00014754      -5.567e-006     -6.648e-010    
  4.8             0.00014957      -5.9343e-006    -2.4684e-009   
  4.85            0.00014856      -6.4463e-006    1.8081e-009    
  4.9             0.00014983      -7.0049e-006    -1.645e-010    
  4.95            0.00015224      -7.5043e-006    -1.5482e-009   
  5               0.00015218      -8.0419e-006    2.3106e-009    
END_DB

BEGIN_DB
 ICCAP_VAR VG         2              
 ICCAP_VAR VS         0              
 ICCAP_VAR VB         0              

 #VD              ID              IB              IG             
  0               -5.4772e-006    2.587e-008      8.895e-010     
  0.05            0.0003194       -2.5944e-008    -1.0723e-009   
  0.1             0.00062372      1.084e-008      -2.4741e-009   
  0.15            0.00091147      1.558e-008      -1.5906e-009   
  0.2             0.0011832       -6.114e-009     -2.4814e-009   
  0.25            0.001436        1.9743e-008     -1.3861e-009   
  0.3             0.0016712       1.3305e-008     -1.7594e-009   
  0.35            0.0018876       1.0865e-008     -2.2734e-009   
  0.4             0.0020826       7.323e-009      1.9613e-009    
  0.45            0.0022594       -2.5017e-008    2.6719e-009    
  0.5             0.0024182       -2.1231e-008    1.9333e-009    
  0.55            0.0025572       -2.5656e-008    2.6186e-009    
  0.6             0.0026785       -1.9808e-008    1.8404e-009    
  0.65            0.00278         -2.6028e-008    2.5496e-009    
  0.7             0.0028663       -1.8206e-008    1.7444e-009    
  0.75            0.0029341       -2.6121e-008    2.4791e-009    
  0.8             0.0029917       -1.0977e-008    -5.963e-010    
  0.85            0.0030392       7.156e-009      -2.57e-009     
  0.9             0.0030732       1.0513e-008     -2.3537e-009   
  0.95            0.0030934       7.892e-009      1.894e-009     
  1               0.0031139       -2.3799e-008    2.7138e-009    
  1.05            0.0031308       -2.2753e-008    2.0606e-009    
  1.1             0.0031436       -1.2251e-008    2.6728e-009    
  1.15            0.0031543       -2.1464e-008    1.9625e-009    
  1.2             0.0031633       -2.5473e-008    2.6362e-009    
  1.25            0.0031727       -2.0164e-008    1.8678e-009    
  1.3             0.0031793       -2.5879e-008    2.5761e-009    
  1.35            0.003187        -1.8681e-008    1.7706e-009    
  1.4             0.0031961       -9.61e-009      -1.0038e-009   
  1.45            0.0032037       1.1241e-008     -2.54e-009     
  1.5             0.0032081       1.3943e-008     -1.7023e-009   
  1.55            0.0032133       1.1123e-008     -2.2187e-009   
  1.6             0.0032173       1.981e-008      -1.3848e-009   
  1.65            0.003222        1.3444e-008     -1.7494e-009   
  1.7             0.0032253       2.5634e-008     -2.4211e-009   
  1.75            0.0032292       1.6619e-008     -1.5176e-009   
  1.8             0.0032337       1.1912e-008     -1.9918e-009   
  1.85            0.0032341       8.418e-009      7.287e-010     
  1.9             0.0032337       -2.6295e-008    2.4814e-009    
  1.95            0.0032388       -1.105e-008     -6.055e-010    
  2               0.0032461       7.263e-009      -2.5694e-009   
  2.05            0.00325         1.047e-008      -2.3568e-009   
  2.1             0.0032466       7.433e-009      1.9011e-009    
  2.15            0.0032486       -2.4152e-008    2.7123e-009    
  2.2             0.0032521       -2.3125e-008    2.049e-009     
  2.25            0.003258        -1.0556e-008    -8.764e-010    
  2.3             0.0032633       9.086e-009      -2.5998e-009   
  2.35            0.0032665       1.0579e-008     -1.9633e-009   
  2.4             0.0032689       8.195e-009      -2.4321e-009   
  2.45            0.0032706       1.2478e-008     -1.5357e-009   
  2.5             0.0032736       5.975e-009      -2.0162e-009   
  2.55            0.0032759       1.999e-009      -2.4641e-009   
  2.6             0.0032749       -1.8713e-008    -2.5618e-009   
  2.65            0.003271        -1.0989e-008    1.2665e-009    
  2.7             0.0032756       -3.9763e-008    2.7378e-009    
  2.75            0.0032845       -4.6929e-008    -1.7116e-009   
  2.8             0.0032844       -4.0161e-008    4.3e-012       
  2.85            0.0032821       -8.3201e-008    1.9167e-009    
  2.9             0.0032874       -9.8699e-008    -2.1243e-009   
  2.95            0.0032885       -9.241e-008     -9.016e-010    
  3               0.003288        -1.6216e-007    2.4328e-009    
  3.05            0.0032957       -2.0696e-007    -1.0737e-009   
  3.1             0.0032979       -2.2974e-007    -1.8045e-009   
  3.15            0.0032955       -3.1096e-007    2.1972e-009    
  3.2             0.0032981       -4.0739e-007    -7.139e-010    
  3.25            0.0033038       -4.6657e-007    -2.4148e-009   
  3.3             0.003299        -5.9629e-007    1.8485e-009    
  3.35            0.0033019       -7.4793e-007    -2.176e-010    
  3.4             0.0033097       -8.753e-007     -1.4956e-009   
  3.45            0.0033073       -1.06835e-006   2.3314e-009    
  3.5             0.0033075       -1.3044e-006    2.7247e-009    
  3.55            0.0033164       -1.5381e-006    -1.7405e-009   
  3.6             0.0033168       -1.7988e-006    3.98e-011      
  3.65            0.0033149       -2.1471e-006    1.8501e-009    
  3.7             0.0033208       -2.5076e-006    -2.1553e-009   
  3.75            0.0033239       -2.9113e-006    6.909e-010     
  3.8             0.0033225       -3.4231e-006    2.5368e-009    
  3.85            0.0033298       -3.9507e-006    -1.8791e-009   
  3.9             0.003334        -4.5444e-006    2.623e-010     
  3.95            0.0033318       -5.2631e-006    2.7472e-009    
  4               0.0033433       -6.0337e-006    -1.5913e-009   
  4.05            0.0033442       -6.8903e-006    -1.329e-010    
  4.1             0.0033433       -7.8976e-006    2.1864e-009    
  4.15            0.0033516       -8.989e-006     -2.0201e-009   
