! VERSION = 6.00
BEGIN_HEADER
 ICCAP_INPUTS
  VG         V  B GROUND SMU4 0.001 LIN        2    0          5          6    1         
  VS         V  E GROUND SMU2 0.1 CON        0
  VD         V  S GROUND SMU1 0.1 LIN        1    0          5          101  0.05      
  VB         V  C GROUND SMU3 0.1 LIN        3    0          -2.5       2    -2.5      
 ICCAP_OUTPUTS
  ID         I  S GROUND SMU1 B
  IB         I  C GROUND SMU3 B
  IG         I  B GROUND SMU4 B
END_HEADER

BEGIN_DB
 ICCAP_VAR VG         0              
 ICCAP_VAR VS         0              
 ICCAP_VAR VB         0              

 #VD              ID              IB              IG             
  0               -1.2958e-009    1.2719e-008     -1.4517e-009   
  0.05            8.54e-011       1.3992e-008     -1.4444e-009   
  0.1             2.645e-010      1.6163e-008     -2.9137e-009   
  0.15            -2.3427e-009    -1.0069e-008    -1.3398e-009   
  0.2             -2.0494e-009    -1.123e-008     2.684e-010     
  0.25            -2.2097e-009    -1.252e-008     8.92e-011      
  0.3             -2.3766e-009    -1.3815e-008    -1.163e-010    
  0.35            -2.4824e-009    -1.4343e-008    -3.83e-010     
  0.4             -2.4987e-009    -1.4313e-008    -6.336e-010    
  0.45            -2.4726e-009    -1.2752e-008    -8.806e-010    
  0.5             -2.43e-009      -1.1255e-008    -1.063e-009    
  0.55            -1.8768e-009    -1.4439e-008    1.8992e-009    
  0.6             1.9082e-009     -1.142e-008     1.89e-009      
  0.65            2.6177e-009     1.2627e-008     3.803e-010     
  0.7             2.6684e-009     1.2637e-008     6.072e-010     
  0.75            2.685e-009      1.0985e-008     8.171e-010     
  0.8             1.8696e-009     2.0836e-008     -1.4205e-009   
  0.85            4.097e-010      1.8208e-008     -2.8391e-009   
  0.9             -2.3896e-009    1.079e-009      -1.2322e-009   
  0.95            -2.2927e-009    -1.0278e-008    -1.4279e-009   
  1               -2.1163e-009    -1.1372e-008    -1.6314e-009   
  1.05            -1.5101e-009    -3.0104e-008    1.3682e-009    
  1.1             9.1e-011        -1.1256e-008    3.1495e-009    
  1.15            1.9042e-009     -1.117e-009     1.8966e-009    
  1.2             1.5604e-009     1.0338e-008     2.081e-009     
  1.25            2.6689e-009     1.2678e-008     6.057e-010     
  1.3             2.6859e-009     1.0959e-008     8.243e-010     
  1.35            1.873e-009      2.0627e-008     -1.4231e-009   
  1.4             4.123e-010      1.7927e-008     -2.8407e-009   
  1.45            -2.388e-009     1.22e-009       -1.2346e-009   
  1.5             -2.2924e-009    -1.0289e-008    -1.4257e-009   
  1.55            -2.1168e-009    -1.1178e-008    -1.6268e-009   
  1.6             -1.5137e-009    -3.0074e-008    1.368e-009     
  1.65            9.14e-011       -1.1378e-008    3.1452e-009    
  1.7             1.9085e-009     -1.099e-009     1.8902e-009    
  1.75            2.6195e-009     1.2659e-008     3.804e-010     
  1.8             2.6695e-009     1.2351e-008     6.096e-010     
  1.85            2.682e-009      1.0694e-008     8.189e-010     
  1.9             1.8748e-009     2.0779e-008     -1.4258e-009   
  1.95            4.127e-010      1.8143e-008     -2.8384e-009   
  2               -2.3839e-009    1.1e-009        -1.2296e-009   
  2.05            -2.2934e-009    -1.0308e-008    -1.421e-009    
  2.1             -2.13e-009      -1.1191e-008    -1.6281e-009   
  2.15            -1.5121e-009    -3.0167e-008    1.3691e-009    
  2.2             9.28e-011       -1.1147e-008    3.1436e-009    
  2.25            1.9138e-009     -1.136e-009     1.8903e-009    
  2.3             2.6197e-009     1.2708e-008     3.761e-010     
  2.35            2.6686e-009     1.2726e-008     6.001e-010     
  2.4             2.6837e-009     1.1131e-008     8.106e-010     
  2.45            1.8673e-009     2.0972e-008     -1.4245e-009   
  2.5             4.099e-010      1.8004e-008     -2.8402e-009   
  2.55            -2.3869e-009    1.196e-009      -1.2253e-009   
  2.6             -2.3e-009       -1.02e-008      -1.4164e-009   
  2.65            -2.1308e-009    -1.1042e-008    -1.6276e-009   
  2.7             -2.2678e-009    -1.2976e-008    2.41e-011      
  2.75            -2.4231e-009    -1.4198e-008    -2.131e-010    
  2.8             -2.4924e-009    -1.4451e-008    -4.723e-010    
  2.85            -2.4879e-009    -1.4164e-008    -7.305e-010    
  2.9             -2.4534e-009    -1.2365e-008    -9.494e-010    
  2.95            -2.4121e-009    -1.1011e-008    -1.126e-009    
  3               -1.9026e-009    -1.3055e-008    1.7796e-009    
  3.05            1.7844e-009     -1.1414e-008    1.9635e-009    
  3.1             2.6465e-009     1.2843e-008     4.577e-010     
  3.15            2.6824e-009     1.2339e-008     6.803e-010     
  3.2             2.6837e-009     1.0374e-008     8.813e-010     
  3.25            1.9305e-009     1.8182e-008     -1.9595e-009   
  3.3             -1.8069e-009    6.471e-009      -1.8911e-009   
  3.35            -2.4539e-009    -1.4274e-008    -2.903e-010    
  3.4             -2.4939e-009    -1.4498e-008    -5.639e-010    
  3.45            -2.4761e-009    -1.3811e-008    -8.021e-010    
  3.5             -2.4392e-009    -1.1828e-008    -1.0067e-009   
  3.55            -1.8474e-009    -1.5691e-008    2.0232e-009    
  3.6             2.0106e-009     -1.122e-008     1.8299e-009    
  3.65            1.6524e-009     1.0481e-008     2.0233e-009    
  3.7             2.6646e-009     1.2841e-008     5.375e-010     
  3.75            2.6831e-009     1.1237e-008     7.525e-010     
  3.8             2.6765e-009     9.484e-009      9.462e-010     
  3.85            1.9857e-009     1.601e-008      -1.8528e-009   
  3.9             -1.7069e-009    6.891e-009      -1.9481e-009   
  3.95            -2.473e-009     -1.435e-008     -3.829e-010    
  4               -2.4876e-009    -1.4276e-008    -6.442e-010    
  4.05            -2.4609e-009    -1.2586e-008    -8.852e-010    
  4.1             -2.4155e-009    -1.1058e-008    -1.0707e-009   
  4.15            -1.8741e-009    -1.4223e-008    1.8859e-009    
  4.2             1.8807e-009     -1.1566e-008    1.8988e-009    
  4.25            2.628e-009      1.2796e-008     3.97e-010      
  4.3             2.676e-009      1.2295e-008     6.171e-010     
  4.35            1.7378e-009     2.8554e-008     -1.4476e-009   
  4.4             2.364e-010      1.5673e-008     -1.4177e-009   
  4.45            4.297e-010      1.8224e-008     -2.8323e-009   
  4.5             -2.3719e-009    1.078e-009      -1.2418e-009   
  4.55            -2.2749e-009    -1.0977e-008    -1.4355e-009   
  4.6             -2.1013e-009    -1.2263e-008    -1.642e-009    
  4.65            -2.2778e-009    -1.3065e-008    4.3e-012       
  4.7             -2.4206e-009    -1.4258e-008    -2.366e-010    
  4.75            -2.4873e-009    -1.4507e-008    -4.937e-010    
  4.8             -2.4779e-009    -1.3789e-008    -7.442e-010    
  4.85            -2.4385e-009    -1.1834e-008    -9.676e-010    
  4.9             -2.3944e-009    -1.0638e-008    -1.1445e-009   
  4.95            -1.9069e-009    -1.2644e-008    4.386e-010     
  5               -2.0271e-009    -1.1165e-008    2.83e-010      
END_DB

BEGIN_DB
 ICCAP_VAR VG         1              
 ICCAP_VAR VS         0              
 ICCAP_VAR VB         0              

 #VD              ID              IB              IG             
  0               -4.7038e-007    -1.3957e-008    1.0441e-009    
  0.05            3.0588e-005     8.585e-009      -1.4515e-009   
  0.1             4.9078e-005     1.2933e-008     7.919e-010     
  0.15            5.9114e-005     -1.0142e-008    1.3752e-009    
  0.2             6.6162e-005     -1.2181e-008    -1.8193e-009   
  0.25            6.9507e-005     1.602e-008      -3.664e-010    
  0.3             7.0789e-005     -1.58e-008      3.0329e-009    
  0.35            7.3222e-005     -1.3629e-008    -3.851e-010    
  0.4             7.5588e-005     2.1571e-008     -1.7905e-009   
  0.45            7.6024e-005     1.0496e-008     1.0652e-009    
  0.5             7.7251e-005     -3.1464e-008    1.3757e-009    
  0.55            7.9666e-005     -1.1211e-008    -1.8456e-009   
  0.6             8.0537e-005     1.462e-008      -3.433e-010    
  0.65            8.0236e-005     -1.6954e-008    3.0056e-009    
  0.7             8.2238e-005     -1.2849e-008    -2.1148e-009   
  0.75            8.346e-005      2.1866e-008     -1.7328e-009   
  0.8             8.332e-005      1.0476e-008     1.0983e-009    
  0.85            8.4183e-005     -3.135e-008     1.3739e-009    
  0.9             8.6316e-005     -1.1461e-008    -1.8871e-009   
  0.95            8.6912e-005     1.367e-008      -3.071e-010    
  1               8.6304e-005     -1.7831e-008    2.9763e-009    
  1.05            8.7655e-005     -1.4042e-008    -4.859e-010    
  1.1             8.9239e-005     2.2186e-008     -1.6978e-009   
  1.15            8.8797e-005     1.0191e-008     1.1341e-009    
  1.2             8.9566e-005     -3.1048e-008    1.3729e-009    
  1.25            9.1592e-005     -1.1488e-008    -1.9221e-009   
  1.3             9.2038e-005     1.2886e-008     -2.751e-010    
  1.35            9.133e-005      -1.8627e-008    2.9344e-009    
  1.4             9.2613e-005     -1.4126e-008    -5.271e-010    
  1.45            9.4112e-005     2.2442e-008     -1.654e-009    
  1.5             9.3465e-005     9.683e-009      1.1613e-009    
  1.55            9.423e-005      -3.0714e-008    1.3713e-009    
  1.6             9.6177e-005     -1.2679e-008    -1.9502e-009   
  1.65            9.6618e-005     1.1553e-008     -2.485e-010    
  1.7             9.5735e-005     -1.993e-008     2.8985e-009    
  1.75            9.7042e-005     -1.4431e-008    -5.709e-010    
  1.8             9.8445e-005     2.2785e-008     -1.6214e-009   
  1.85            9.7676e-005     9.139e-009      1.1925e-009    
  1.9             9.8495e-005     -3.0885e-008    1.3692e-009    
  1.95            0.000100322     -1.3491e-008    -1.9843e-009   
  2               0.000100754     1.008e-008      -2.137e-010    
  2.05            9.9807e-005     -2.1882e-008    2.8493e-009    
  2.1             0.000101227     -1.3906e-008    -2.2019e-009   
  2.15            0.000102424     2.0755e-008     -1.5885e-009   
  2.2             0.000101497     5.706e-009      1.2227e-009    
  2.25            0.000102367     -3.4581e-008    1.3632e-009    
  2.3             0.000104104     -1.9032e-008    -2.0085e-009   
  2.35            0.000104514     1.365e-008      -1.9767e-009   
  2.4             0.000105265     6.233e-009      -2.7171e-009   
  2.45            0.000105632     9.093e-009      -1.8707e-009   
  2.5             0.000105102     -7.506e-009     2.7026e-009    
  2.55            0.000105852     -3.432e-008     -7.447e-010    
  2.6             0.000107236     9.43e-010       -1.5134e-009   
  2.65            0.000106392     -2.1209e-008    2.9536e-009    
  2.7             0.000107436     -4.9201e-008    -1.0739e-009   
  2.75            0.00010883      -1.1177e-008    -1.4521e-009   
  2.8             0.000107836     -4.2961e-008    3.1102e-009    
  2.85            0.00010879      -7.2055e-008    7.839e-010     
  2.9             0.00010914      -6.0562e-008    9.46e-010      
  2.95            0.0001097       -7.523e-008     -2.9479e-009   
  3               0.00011042      -1.01803e-007   -2.2564e-009   
  3.05            0.000111        -1.2483e-007    -3.0243e-009   
  3.1             0.0001101       -1.2658e-007    1.5019e-009    
  3.15            0.00011134      -1.7491e-007    4.161e-010     
  3.2             0.00011333      -1.6595e-007    -2.7614e-009   
  3.25            0.00011203      -1.9735e-007    2.2292e-009    
  3.3             0.00011303      -2.5288e-007    -3.043e-010    
  3.35            0.00011481      -2.5114e-007    -1.7148e-009   
  3.4             0.00011405      -3.0283e-007    2.9018e-009    
  3.45            0.00011504      -3.6986e-007    -1.121e-009    
  3.5             0.00011667      -3.6809e-007    -1.4525e-009   
  3.55            0.00011556      -4.5276e-007    3.1434e-009    
  3.6             0.00011783      -5.3319e-007    -1.8297e-009   
  3.65            0.00011822      -5.7331e-007    -2.473e-010    
  3.7             0.00011682      -6.8259e-007    2.7173e-009    
  3.75            0.00011813      -7.5604e-007    -2.3578e-009   
  3.8             0.00011894      -8.1882e-007    5.231e-010     
  3.85            0.00011876      -9.6272e-007    1.4931e-009    
  3.9             0.0001202       -1.06015e-006   -3.0033e-009   
  3.95            0.0001207       -1.1795e-006    -9.811e-010    
  4               0.00012187      -1.2532e-006    -1.4515e-009   
  4.05            0.00012122      -1.421e-006     3.1452e-009    
  4.1             0.00012356      -1.605e-006     -1.6679e-009   
  4.15            0.00012371      -1.736e-006     -1.6021e-009   
  4.2             0.00012344      -1.9328e-006    2.9732e-009    
  4.25            0.00012479      -2.1663e-006    -1.2119e-009   
  4.3             0.00012595      -2.3084e-006    -1.443e-009    
  4.35            0.00012562      -2.5814e-006    3.1453e-009    
  4.4             0.00012791      -2.8693e-006    -1.9327e-009   
  4.45            0.00012813      -3.1104e-006    -1.565e-010    
  4.5             0.00012747      -3.4379e-006    2.5435e-009    
  4.55            0.00012902      -3.7536e-006    -2.445e-009    
  4.6             0.00013         -4.0367e-006    6.335e-010     
  4.65            0.00012994      -4.4611e-006    1.4201e-009    
  4.7             0.00013208      -4.8361e-006    -3.0274e-009   
  4.75            0.00013179      -5.1796e-006    1.3175e-009    
  4.8             0.0001332       -5.6882e-006    2.0388e-009    
  4.85            0.00013479      -6.1193e-006    -2.7164e-009   
  4.9             0.00013568      -6.5302e-006    9.035e-010     
  4.95            0.00013603      -7.1594e-006    1.3674e-009    
  5               0.00013831      -7.6635e-006    -3.0157e-009   
END_DB

BEGIN_DB
 ICCAP_VAR VG         2              
 ICCAP_VAR VS         0              
 ICCAP_VAR VB         0              

 #VD              ID              IB              IG             
  0               -3.0141e-006    -1.4232e-008    1.7384e-009    
  0.05            0.00017848      -1.2533e-008    -3.0238e-009   
  0.1             0.00034993      1.2967e-008     -2.503e-010    
  0.15            0.00051336      -2.1466e-008    2.7283e-009    
  0.2             0.00066906      -1.4418e-008    -8.722e-010    
  0.25            0.00081527      9.275e-009      -1.4501e-009   
  0.3             0.00095082      1.2744e-008     8.231e-010     
  0.35            0.00107528      -2.9698e-008    1.3702e-009    
  0.4             0.0011901       1.9105e-008     2.2013e-009    
  0.45            0.0012938       -1.2962e-008    -1.1391e-009   
  0.5             0.0013855       3.2529e-008     -1.4477e-009   
  0.55            0.0014643       1.2757e-008     8.516e-010     
  0.6             0.0015317       -3.0153e-008    1.3664e-009    
  0.65            0.0015936       -1.1159e-008    -1.8873e-009   
  0.7             0.0016417       1.1304e-008     -2.021e-010    
  0.75            0.0016793       -2.2114e-008    2.6382e-009    
  0.8             0.0017145       -1.4459e-008    -9.332e-010    
  0.85            0.0017436       3.0841e-008     -1.4496e-009   
  0.9             0.0017611       9.311e-009      1.7694e-009    
  0.95            0.0017812       -1.232e-008     2.165e-010     
  1               0.0018004       1.9337e-008     -2.4518e-009   
  1.05            0.0018122       1.2672e-008     8.199e-010     
  1.1             0.0018218       -2.9625e-008    1.3695e-009    
  1.15            0.0018339       -1.4264e-008    -6.577e-010    
  1.2             0.0018447       8.185e-009      -1.449e-009    
  1.25            0.0018474       1.0552e-008     1.8001e-009    
  1.3             0.0018569       -1.1917e-008    1.853e-010     
  1.35            0.0018677       1.968e-008      -2.4071e-009   
  1.4             0.0018723       1.2617e-008     8.475e-010     
  1.45            0.0018764       -3.0017e-008    1.368e-009     
  1.5             0.0018868       -1.2176e-008    -1.8804e-009   
  1.55            0.0018902       1.144e-008      -2.065e-010    
  1.6             0.0018921       -2.22e-008      2.641e-009     
  1.65            0.0018998       -1.4469e-008    -9.259e-010    
  1.7             0.0019055       3.0639e-008     -1.4489e-009   
  1.75            0.0019043       1.0239e-008     1.7571e-009    
  1.8             0.0019105       -1.2473e-008    2.233e-010     
  1.85            0.0019184       1.9005e-008     -2.4555e-009   
  1.9             0.0019203       1.2636e-008     8.098e-010     
  1.95            0.0019224       -2.9686e-008    1.3712e-009    
  2               0.0019279       -1.443e-008     -6.497e-010    
  2.05            0.0019331       8.027e-009      -1.4499e-009   
  2.1             0.0019355       1.2114e-008     6.366e-010     
  2.15            0.0019368       -1.1489e-008    1.3668e-009    
  2.2             0.0019449       -1.3467e-008    -1.9414e-009   
  2.25            0.001947        1.9931e-008     -1.9439e-009   
  2.3             0.0019503       1.5637e-008     -2.5161e-009   
  2.35            0.0019541       9.924e-009      -2.863e-009    
  2.4             0.0019564       1.5187e-008     -1.997e-009    
  2.45            0.0019598       9.028e-009      -2.5628e-009   
  2.5             0.0019625       1.297e-009      -2.8849e-009   
  2.55            0.0019596       -6.623e-009     2.046e-009     
  2.6             0.0019635       -3.5881e-008    -5.24e-011     
  2.65            0.0019698       -2.7428e-008    -1.6273e-009   
  2.7             0.0019705       -3.5053e-008    2.9477e-009    
  2.75            0.0019742       -6.9229e-008    -1.1803e-009   
  2.8             0.0019779       -4.151e-008     -1.4439e-009   
  2.85            0.0019789       -8.143e-008     1.0417e-009    
  2.9             0.001983        -1.1681e-007    -1.7765e-009   
  2.95            0.0019836       -1.4376e-007    2.8514e-009    
  3               0.0019866       -2.0356e-007    -1.0553e-009   
  3.05            0.0019909       -2.0385e-007    -1.4502e-009   
  3.1             0.0019899       -2.8503e-007    3.1476e-009    
  3.15            0.0019964       -3.6532e-007    -1.7637e-009   
  3.2             0.0019975       -4.1499e-007    -3.06e-010     
  3.25            0.001996        -5.3883e-007    2.8112e-009    
  3.3             0.0020007       -6.3182e-007    -2.3031e-009   
  3.35            0.0020027       -7.2875e-007    4.402e-010     
  3.4             0.0020026       -9.0313e-007    1.5699e-009    
  3.45            0.0020077       -1.0473e-006    -2.9529e-009   
  3.5             0.0020093       -1.2128e-006    -2.4255e-009   
  3.55            0.0020113       -1.42e-006      2.4857e-009    
  3.6             0.0020143       -1.6812e-006    -6.25e-010     
  3.65            0.0020186       -1.9143e-006    -1.5131e-009   
  3.7             0.0020179       -2.2357e-006    3.0497e-009    
  3.75            0.0020229       -2.6037e-006    -1.3467e-009   
  3.8             0.0020258       -2.9535e-006    -1.412e-009    
  3.85            0.0020264       -3.4278e-006    3.1113e-009    
  3.9             0.0020317       -3.9353e-006    -2.0518e-009   
  3.95            0.0020335       -4.4726e-006    -1.43e-011     
  4               0.0020331       -5.1277e-006    2.2745e-009    
  4.05            0.0020379       -5.8157e-006    -2.583e-009    
  4.1             0.0020408       -6.5733e-006    7.847e-010     
  4.15            0.0020422       -7.4795e-006    1.3774e-009    
