! VERSION = 6.00
BEGIN_HEADER
 ICCAP_INPUTS
  VG         V  B GROUND SMU4 0.001 LIN        2    0          5          6    1         
  VS         V  E GROUND SMU2 0.1 CON        0
  VD         V  S GROUND SMU1 0.1 LIN        1    0          5          101  0.05      
  VB         V  C GROUND SMU3 0.1 LIN        3    0          -2.5       2    -2.5      
 ICCAP_OUTPUTS
  ID         I  S GROUND SMU1 B
  IB         I  C GROUND SMU3 B
  IG         I  B GROUND SMU4 B
END_HEADER

BEGIN_DB
 ICCAP_VAR VG         0              
 ICCAP_VAR VS         0              
 ICCAP_VAR VB         0              

 #VD              ID              IB              IG             
  0               -9.123e-010     -1.9228e-008    -1.1075e-009   
  0.05            -2.0676e-009    7.134e-009      -9.244e-010    
  0.1             -1.5336e-009    -1.4341e-008    1.8901e-009    
  0.15            1.9286e-009     -9.694e-009     1.665e-009     
  0.2             1.6352e-009     1.0358e-008     1.8423e-009    
  0.25            2.4099e-009     1.2019e-008     4.468e-010     
  0.3             2.445e-009      1.129e-008      6.417e-010     
  0.35            2.4582e-009     9.682e-009      8.119e-010     
  0.4             1.8129e-009     1.6232e-008     -1.8476e-009   
  0.45            -2.0899e-009    5.35e-009       -7.783e-010    
  0.5             -2.0639e-009    -1.0876e-008    -9.317e-010    
  0.55            -1.5413e-009    -1.4196e-008    1.8594e-009    
  0.6             1.9006e-009     -9.707e-009     1.6809e-009    
  0.65            1.6165e-009     9.893e-009      1.8649e-009    
  0.7             2.4169e-009     1.1803e-008     4.689e-010     
  0.75            1.5522e-009     2.7132e-008     -1.3907e-009   
  0.8             1.911e-010      1.2382e-008     -1.3768e-009   
  0.85            3.511e-010      1.385e-008      -2.676e-009    
  0.9             -2.0495e-009    4.82e-010       -1.0121e-009   
  0.95            -1.5748e-009    -1.2092e-008    1.6854e-009    
  1               1.7536e-009     -9.479e-009     1.7732e-009    
  1.05            1.7274e-009     1.939e-008      -2.0044e-009   
  1.1             -2.086e-009     4.61e-009       -6.656e-010    
  1.15            -2.0705e-009    -1.1746e-008    -8.516e-010    
  1.2             -2.0535e-009    -1.022e-008     -1.0013e-009   
  1.25            -1.5664e-009    -1.2216e-008    1.7107e-009    
  1.3             1.7759e-009     -9.58e-009      1.757e-009     
  1.35            2.3858e-009     1.218e-008      3.589e-010     
  1.4             2.4255e-009     1.1599e-008     5.562e-010     
  1.45            1.609e-009      2.4966e-008     -1.3939e-009   
  1.5             2.499e-010      1.3183e-008     -2.7042e-009   
  1.55            -1.3798e-009    -2.2971e-008    1.3221e-009    
  1.6             4.92e-011       -1.4296e-008    2.8627e-009    
  1.65            1.6063e-009     2.5216e-008     -1.3935e-009   
  1.7             2.537e-010      1.3218e-008     -2.7029e-009   
  1.75            -1.9791e-009    -1.2953e-008    -5.92e-011     
  1.8             -2.0627e-009    -1.3621e-008    -2.929e-010    
  1.85            -2.0827e-009    -1.371e-008     -5.197e-010    
  1.9             -2.0748e-009    -1.2633e-008    -7.3e-010      
  1.95            -2.0581e-009    -1.095e-008     -8.93e-010     
  2               -1.5155e-009    -1.4786e-008    1.9373e-009    
  2.05            1.972e-009      -9.468e-009     1.6352e-009    
  2.1             1.6752e-009     1.002e-008      1.8026e-009    
  2.15            2.4045e-009     1.202e-008      4.208e-010     
  2.2             2.4353e-009     1.1158e-008     6.146e-010     
  2.25            1.6539e-009     2.3047e-008     -1.3903e-009   
  2.3             3.07e-010       1.3656e-008     -2.6939e-009   
  2.35            -1.4136e-009    -2.1343e-008    2.3398e-009    
  2.4             2.2503e-009     -7.04e-009      1.4089e-009    
  2.45            1.4498e-009     2.8759e-008     -1.3931e-009   
  2.5             9.24e-011       1.158e-008      -1.3957e-009   
  2.55            2.412e-010      1.3235e-008     -2.7062e-009   
  2.6             -1.3646e-009    -2.355e-008     2.4595e-009    
  2.65            2.3226e-009     -6.126e-009     1.3326e-009    
  2.7             1.3911e-009     2.8879e-008     -1.3945e-009   
  2.75            3.57e-011       1.0655e-008     -1.3964e-009   
  2.8             1.816e-010      1.2575e-008     -1.3854e-009   
  2.85            3.4e-010        1.3964e-008     -2.6925e-009   
  2.9             -1.4257e-009    -2.0183e-008    2.2851e-009    
  2.95            2.2183e-009     -7.567e-009     1.4342e-009    
  3               1.4771e-009     2.8588e-008     -1.3939e-009   
  3.05            1.177e-010      1.1889e-008     -1.3939e-009   
  3.1             2.702e-010      1.3447e-008     -2.7059e-009   
  3.15            -1.9792e-009    -1.3082e-008    -7.9e-011      
  3.2             -2.0592e-009    -1.3781e-008    -2.986e-010    
  3.25            -2.0767e-009    -1.3682e-008    -5.23e-010     
  3.3             -2.0661e-009    -1.2869e-008    -7.337e-010    
  3.35            -2.0532e-009    -1.0874e-008    -9.008e-010    
  3.4             -1.5139e-009    -1.4348e-008    1.928e-009     
  3.45            1.9669e-009     -9.502e-009     1.6339e-009    
  3.5             1.6718e-009     9.95e-009       1.8077e-009    
  3.55            2.4116e-009     1.2048e-008     4.273e-010     
  3.6             2.4443e-009     1.1168e-008     6.145e-010     
  3.65            1.6535e-009     2.3059e-008     -1.3893e-009   
  3.7             3.178e-010      1.3537e-008     -2.6912e-009   
  3.75            -1.4062e-009    -2.1531e-008    2.3456e-009    
  3.8             2.2671e-009     -7.069e-009     1.3991e-009    
  3.85            1.4517e-009     2.8821e-008     -1.3926e-009   
  3.9             9.56e-011       1.1427e-008     -1.3939e-009   
  3.95            2.421e-010      1.3081e-008     -2.7081e-009   
  4               -1.3572e-009    -2.398e-008     1.3247e-009    
  4.05            8.19e-011       -1.3729e-008    2.8675e-009    
  4.1             1.601e-009      2.612e-008      -1.3961e-009   
  4.15            2.401e-010      1.2913e-008     -1.3767e-009   
  4.2             4.097e-010      1.4678e-008     -2.6683e-009   
  4.25            -2.0372e-009    4.56e-010       -1.0513e-009   
  4.3             -1.581e-009     -1.1396e-008    1.6181e-009    
  4.35            1.7001e-009     -9.321e-009     1.8071e-009    
  4.4             1.7663e-009     1.7573e-008     -1.9404e-009   
  4.45            -2.0577e-009    4.786e-009      -6.998e-010    
  4.5             -2.0443e-009    -1.1386e-008    -8.76e-010     
  4.55            -1.4917e-009    -1.4934e-008    1.9675e-009    
  4.6             2.023e-009      -9.291e-009     1.6079e-009    
  4.65            1.7175e-009     1.0177e-008     1.7844e-009    
  4.7             2.4168e-009     1.208e-008      3.989e-010     
  4.75            2.4532e-009     1.1343e-008     5.916e-010     
  4.8             1.6513e-009     2.3972e-008     -1.3924e-009   
  4.85            3.105e-010      1.3566e-008     -2.7016e-009   
  4.9             -1.975e-009     -1.322e-008     -1.009e-010    
  4.95            -2.0433e-009    -1.3788e-008    -3.333e-010    
  5               -2.0552e-009    -1.3551e-008    -5.566e-010    
END_DB

BEGIN_DB
 ICCAP_VAR VG         1              
 ICCAP_VAR VS         0              
 ICCAP_VAR VB         0              

 #VD              ID              IB              IG             
  0               -4.7029e-007    -6.137e-009     4.445e-010     
  0.05            5.8033e-005     1.9328e-008     -1.0989e-009   
  0.1             9.4462e-005     2.8727e-008     -1.3949e-009   
  0.15            0.000114912     1.2029e-008     6.055e-010     
  0.2             0.00012748      -2.763e-008     -1.3306e-009   
  0.25            0.00013466      2.141e-008      -1.7248e-009   
  0.3             0.00013793      8.991e-009      1.0564e-009    
  0.35            0.00014174      -2.5836e-008    2.1975e-009    
  0.4             0.00014529      -1.2652e-008    -9.587e-010    
  0.45            0.00014896      2.8765e-008     -1.3966e-009   
  0.5             0.00015014      1.2001e-008     6.844e-010     
  0.55            0.00015179      -2.5521e-008    1.3285e-009    
  0.6             0.00015437      -1.3647e-008    -5.304e-010    
  0.65            0.00015732      7.073e-009      -1.3904e-009   
  0.7             0.00015839      1.1958e-008     5.28e-010      
  0.75            0.0001591       -9.145e-009     1.3245e-009    
  0.8             0.00016336      -1.2172e-008    -1.7188e-009   
  0.85            0.00016458      1.7299e-008     -1.8823e-009   
  0.9             0.00016616      2.6276e-008     -1.3915e-009   
  0.95            0.00016427      1.0125e-008     1.5837e-009    
  1               0.00016702      -1.1587e-008    2.489e-010     
  1.05            0.0001709       1.6035e-008     -2.336e-009    
  1.1             0.00017085      1.1892e-008     7.107e-010     
  1.15            0.00017172      -2.5965e-008    1.3267e-009    
  1.2             0.00017391      -1.373e-008     -5.592e-010    
  1.25            0.00017595      7.173e-009      -1.3923e-009   
  1.3             0.00017683      1.2006e-008     5.494e-010     
  1.35            0.00017666      -8.933e-009     1.324e-009     
  1.4             0.00018083      -1.2247e-008    -1.737e-009    
  1.45            0.00018162      1.7482e-008     -1.857e-009    
  1.5             0.00018281      2.6585e-008     -1.3918e-009   
  1.55            0.00018282      1.2028e-008     5.39e-010      
  1.6             0.00018303      -8.781e-009     1.3248e-009    
  1.65            0.00018716      -1.2312e-008    -1.7289e-009   
  1.7             0.00018777      1.7149e-008     -1.861e-009    
  1.75            0.00018879      2.6304e-008     -1.3915e-009   
  1.8             0.00018881      1.1642e-008     5.341e-010     
  1.85            0.00018865      -9.534e-009     1.3245e-009    
  1.9             0.00019283      -1.3102e-008    -1.7288e-009   
  1.95            0.00019341      1.6181e-008     -1.8661e-009   
  2               0.00019471      1.3513e-008     -2.4021e-009   
  2.05            0.00019538      1.5841e-008     -1.6015e-009   
  2.1             0.00019684      1.3053e-008     -2.1269e-009   
  2.15            0.00019806      8.881e-009      -2.5746e-009   
  2.2             0.00019876      1.144e-008      -1.6485e-009   
  2.25            0.00019816      -1.26e-010      2.594e-009     
  2.3             0.00019971      -2.3703e-008    -9.804e-010    
  2.35            0.00020077      -2.0217e-008    -2.7233e-009   
  2.4             0.00020266      -9.601e-009     -8.4e-011      
  2.45            0.00020184      -4.2741e-008    2.2108e-009    
  2.5             0.00020335      -3.9031e-008    -2.3129e-009   
  2.55            0.00020479      -2.4679e-008    6.532e-010     
  2.6             0.00020457      -7.0663e-008    1.333e-009     
  2.65            0.00020691      -6.381e-008     -2.7326e-009   
  2.7             0.00020609      -5.8981e-008    1.271e-009     
  2.75            0.0002077       -9.9766e-008    1.742e-009     
  2.8             0.00020958      -1.0708e-007    4.813e-010     
  2.85            0.00021065      -1.3811e-007    6.416e-010     
  2.9             0.00021035      -1.6259e-007    1.3368e-009    
  2.95            0.00021301      -1.7075e-007    -2.7335e-009   
  3               0.00021198      -1.8136e-007    1.2652e-009    
  3.05            0.0002141       -2.4126e-007    1.7604e-009    
  3.1             0.00021564      -2.6885e-007    -2.5449e-009   
  3.15            0.00021676      -2.8815e-007    8.751e-010     
  3.2             0.00021654      -3.7646e-007    1.3247e-009    
  3.25            0.00021894      -4.0681e-007    -2.7238e-009   
  3.3             0.000217        -4.4778e-007    1.5079e-009    
  3.35            0.00021931      -5.383e-007     3.082e-010     
  3.4             0.00022333      -5.8586e-007    -2.4352e-009   
  3.45            0.00022198      -6.7348e-007    2.1732e-009    
  3.5             0.00022354      -7.924e-007     -4.3e-010      
  3.55            0.00022626      -8.6107e-007    -1.486e-009    
  3.6             0.00022537      -9.8568e-007    2.6923e-009    
  3.65            0.00022699      -1.1157e-006    7.272e-010     
  3.7             0.00022659      -1.3049e-006    1.3255e-009    
  3.75            0.00022959      -1.4475e-006    -2.7342e-009   
  3.8             0.00022814      -1.5987e-006    1.3416e-009    
  3.85            0.00023017      -1.8271e-006    1.6254e-009    
  3.9             0.00023272      -2.0342e-006    -2.6091e-009   
  3.95            0.00023364      -2.2346e-006    9.433e-010     
  4               0.00023416      -2.5536e-006    1.3237e-009    
  4.05            0.00023666      -2.805e-006     -2.717e-009    
  4.1             0.00023485      -3.0731e-006    1.5981e-009    
  4.15            0.00023729      -3.4346e-006    2.434e-010     
  4.2             0.0002418       -3.7739e-006    -2.3199e-009   
  4.25            0.00024147      -4.1511e-006    2.2463e-009    
  4.3             0.00024304      -4.6165e-006    -5.351e-010    
  4.35            0.00024607      -5.0204e-006    -1.4386e-009   
  4.4             0.00024565      -5.4989e-006    2.7399e-009    
  4.45            0.00024876      -6.0923e-006    -1.1995e-009   
  4.5             0.00025087      -6.5541e-006    -1.3668e-009   
  4.55            0.000251        -7.2266e-006    2.8572e-009    
  4.6             0.00025487      -7.9464e-006    -1.8448e-009   
  4.65            0.00025574      -8.592e-006     -5.67e-011     
  4.7             0.00025554      -9.3663e-006    2.1699e-009    
  4.75            0.00025852      -1.01828e-005   -2.3376e-009   
  4.8             0.00026079      -1.09424e-005   6.848e-010     
  4.85            0.00026306      -1.183e-005     6.497e-010     
  4.9             0.00026342      -1.2898e-005    1.3332e-009    
  4.95            0.00026773      -1.3898e-005    -2.741e-009    
  5               0.00026762      -1.4847e-005    1.2586e-009    
END_DB

BEGIN_DB
 ICCAP_VAR VG         2              
 ICCAP_VAR VS         0              
 ICCAP_VAR VB         0              

 #VD              ID              IB              IG             
  0               -3.9063e-006    2.3918e-008     8.412e-010     
  0.05            0.00031935      -1.31e-008      -2.4594e-009   
  0.1             0.00062995      1.1586e-008     7.975e-010     
  0.15            0.00092648      -2.7089e-008    1.3245e-009    
  0.2             0.0012087       1.5521e-008     2.1598e-009    
  0.25            0.0014733       -1.2721e-008    -9.762e-010    
  0.3             0.0017202       2.8688e-008     -1.3957e-009   
  0.35            0.0019461       1.1894e-008     7.122e-010     
  0.4             0.0021508       -2.6083e-008    1.3247e-009    
  0.45            0.0023369       -1.3744e-008    -5.677e-010    
  0.5             0.0025023       7.314e-009      -1.392e-009    
  0.55            0.0026441       1.2e-008        5.554e-010     
  0.6             0.0027647       -8.746e-009     1.3225e-009    
  0.65            0.0028733       -1.2231e-008    -1.7454e-009   
  0.7             0.0029581       1.7551e-008     -1.8254e-009   
  0.75            0.0030298       2.6726e-008     -1.3913e-009   
  0.8             0.0030869       1.1939e-008     5.626e-010     
  0.85            0.0031309       -8.877e-009     1.3234e-009    
  0.9             0.0031768       -1.2412e-008    -1.7471e-009   
  0.95            0.0032068       1.7547e-008     -1.8309e-009   
  1               0.0032344       2.7028e-008     -1.3909e-009   
  1.05            0.0032552       1.197e-008      5.647e-010     
  1.1             0.0032709       -8.962e-009     1.3246e-009    
  1.15            0.0032956       -1.2384e-008    -1.7508e-009   
  1.2             0.0033087       1.7458e-008     -1.8272e-009   
  1.25            0.0033236       2.6852e-008     -1.3918e-009   
  1.3             0.0033332       1.1923e-008     5.619e-010     
  1.35            0.0033415       -8.738e-009     1.3245e-009    
  1.4             0.00336         -1.2184e-008    -1.7485e-009   
  1.45            0.0033679       1.7736e-008     -1.8275e-009   
  1.5             0.0033776       1.5774e-008     -2.3637e-009   
  1.55            0.0033837       1.1974e-008     6.89e-010      
  1.6             0.003388        -2.5445e-008    1.3247e-009    
  1.65            0.0033993       -1.3619e-008    -5.421e-010    
  1.7             0.0034103       7.182e-009      -1.3893e-009   
  1.75            0.0034161       1.1876e-008     5.355e-010     
  1.8             0.0034194       -9.075e-009     1.3225e-009    
  1.85            0.0034343       -1.225e-008     -1.7279e-009   
  1.9             0.0034387       1.7271e-008     -1.8764e-009   
  1.95            0.003446        2.6153e-008     -1.3905e-009   
  2               0.0034497       1.155e-008      5.384e-010     
  2.05            0.0034519       -9.423e-009     1.3215e-009    
  2.1             0.0034655       -1.2996e-008    -1.7299e-009   
  2.15            0.0034689       1.6236e-008     -1.8757e-009   
  2.2             0.0034749       1.3371e-008     -2.3982e-009   
  2.25            0.0034803       1.5311e-008     -1.6091e-009   
  2.3             0.0034853       1.173e-008      -2.1264e-009   
  2.35            0.0034913       5.859e-009      -2.5621e-009   
  2.4             0.0034933       -1.7259e-008    -2.7341e-009   
  2.45            0.003501        -1.837e-009     -2.5002e-009   
  2.5             0.0035001       -1.272e-008     2.1226e-009    
  2.55            0.0035064       -4.3634e-008    -3.51e-010     
  2.6             0.0035137       -2.3146e-008    -1.5455e-009   
  2.65            0.0035148       -4.9586e-008    2.6582e-009    
  2.7             0.0035213       -8.7704e-008    -1.0655e-009   
  2.75            0.0035275       -7.1821e-008    -1.384e-009    
  2.8             0.00353         -1.4156e-007    -2.0416e-009   
  2.85            0.0035338       -1.5682e-007    3.002e-010     
  2.9             0.0035341       -2.3365e-007    1.5903e-009    
  2.95            0.0035416       -2.7901e-007    -2.6365e-009   
  3               0.003544        -3.2701e-007    9.796e-010     
  3.05            0.0035468       -4.4454e-007    2.3626e-009    
  3.1             0.0035527       -5.2546e-007    -2.2375e-009   
  3.15            0.0035576       -6.1846e-007    5.769e-010     
  3.2             0.0035572       -7.8853e-007    1.3601e-009    
  3.25            0.0035657       -9.3235e-007    -2.7388e-009   
  3.3             0.0035658       -1.10045e-006   1.1963e-009    
  3.35            0.0035699       -1.3332e-006    1.3185e-009    
  3.4             0.0035777       -1.5779e-006    -2.7446e-009   
  3.45            0.0035756       -1.8489e-006    1.3531e-009    
  3.5             0.0035809       -2.203e-006     1.6177e-009    
  3.55            0.0035884       -2.5675e-006    -2.6183e-009   
  3.6             0.0035913       -2.9756e-006    9.608e-010     
  3.65            0.0035939       -3.498e-006     1.3156e-009    
  3.7             0.0036015       -4.0297e-006    -2.7214e-009   
  3.75            0.0035986       -4.6429e-006    1.6098e-009    
  3.8             0.0036055       -5.3691e-006    2.229e-010     
  3.85            0.0036171       -6.136e-006     -2.291e-009    
  3.9             0.0036177       -7.0375e-006    2.2663e-009    
  3.95            0.0036228       -8.058e-006     -5.599e-010    
  4               0.0036312       -9.1501e-006    -1.4406e-009   
  4.05            0.0036318       -1.04192e-005   2.7519e-009    
  4.1             0.0036397       -1.1815e-005    -2.3563e-009   
  4.15            0.003643        -1.3368e-005    2.2198e-009    
