! VERSION = 6.00
BEGIN_HEADER
 ICCAP_INPUTS
  VG         V  B GROUND SMU4 0.001 LIN        2    0          5          6    1         
  VS         V  E GROUND SMU2 0.1 CON        0
  VD         V  S GROUND SMU1 0.1 LIN        1    0          5          101  0.05      
  VB         V  C GROUND SMU3 0.1 LIN        3    0          -2.5       2    -2.5      
 ICCAP_OUTPUTS
  ID         I  S GROUND SMU1 B
  IB         I  C GROUND SMU3 B
  IG         I  B GROUND SMU4 B
END_HEADER

BEGIN_DB
 ICCAP_VAR VG         0              
 ICCAP_VAR VS         0              
 ICCAP_VAR VB         0              

 #VD              ID              IB              IG             
  0               -3.853e-010     -1.7588e-008    -4.103e-010    
  0.05            7.207e-010      1.4955e-008     -2.0606e-009   
  0.1             -1.9364e-009    2.871e-009      -5.149e-010    
  0.15            -1.9938e-009    -9.941e-009     -6.842e-010    
  0.2             -1.3339e-009    -1.987e-008     2.247e-009     
  0.25            2.1037e-009     -6.646e-009     1.2629e-009    
  0.3             5.933e-010      1.2243e-008     -2.3101e-009   
  0.35            -1.9648e-009    -1.0484e-008    -5.94e-010     
  0.4             -1.2829e-009    -2.2025e-008    2.3706e-009    
  0.45            2.1788e-009     -5.783e-009     1.1881e-009    
  0.5             5.253e-010      1.1686e-008     -2.4157e-009   
  0.55            -1.8233e-009    1.474e-009      -2.11e-010     
  0.6             -1.9046e-009    -1.0936e-008    -3.987e-010    
  0.65            -1.9646e-009    -1.0432e-008    -5.812e-010    
  0.7             -1.2779e-009    -2.2161e-008    2.388e-009     
  0.75            2.1888e-009     -5.631e-009     1.1787e-009    
  0.8             5.156e-010      1.1609e-008     -2.4208e-009   
  0.85            -1.8179e-009    1.209e-009      -2.057e-010    
  0.9             -1.0519e-009    -2.6666e-008    2.7323e-009    
  0.95            8.862e-010      1.9628e-008     -1.6887e-009   
  1               -2.0117e-009    4.781e-009      -7.57e-010     
  1.05            -1.3743e-009    -1.7888e-008    2.1165e-009    
  1.1             2.0197e-009     -7.572e-009     1.3336e-009    
  1.15            6.497e-010      1.3281e-008     -2.2007e-009   
  1.2             -1.9915e-009    -1.0177e-008    -6.724e-010    
  1.25            -1.3291e-009    -2.0029e-008    2.2563e-009    
  1.3             2.1117e-009     -6.38e-009      1.2553e-009    
  1.35            5.897e-010      1.2222e-008     -2.3217e-009   
  1.4             -1.8617e-009    1.788e-009      -3.012e-010    
  1.45            -1.931e-009     -1.0835e-008    -4.906e-010    
  1.5             -1.9823e-009    -1.0463e-008    -6.635e-010    
  1.55            -1.3196e-009    -2.0361e-008    2.2689e-009    
  1.6             2.1189e-009     -6.425e-009     1.2459e-009    
  1.65            5.809e-010      1.2222e-008     -2.3323e-009   
  1.7             -1.9588e-009    -1.049e-008     -5.786e-010    
  1.75            -2.0094e-009    -9.715e-009     -7.401e-010    
  1.8             -1.3605e-009    -1.8406e-008    2.1428e-009    
  1.85            2.041e-009      -7.183e-009     1.3207e-009    
  1.9             6.393e-010      1.3082e-008     -2.2236e-009   
  1.95            -1.9848e-009    -1.0215e-008    -6.586e-010    
  2               -1.3172e-009    -2.0425e-008    2.2734e-009    
  2.05            2.1312e-009     -6.233e-009     1.2392e-009    
  2.1             5.781e-010      1.2111e-008     -2.337e-009    
  2.15            -1.9536e-009    -1.066e-008     -5.753e-010    
  2.2             -1.2667e-009    -2.2284e-008    2.3981e-009    
  2.25            2.2028e-009     -5.429e-009     1.174e-009     
  2.3             5.086e-010      1.1578e-008     -2.4321e-009   
  2.35            -1.8073e-009    1.304e-009      -1.94e-010     
  2.4             -1.8937e-009    -1.0978e-008    -3.82e-010     
  2.45            -1.9512e-009    -1.0538e-008    -5.62e-010     
  2.5             -2.0033e-009    -9.826e-009     -7.331e-010    
  2.55            -1.3537e-009    -1.8504e-008    2.1634e-009    
  2.6             2.0582e-009     -7.154e-009     1.3071e-009    
  2.65            6.319e-010      1.2758e-008     -2.2397e-009   
  2.7             -1.9767e-009    -1.0299e-008    -6.447e-010    
  2.75            -1.3086e-009    -2.0734e-008    2.3025e-009    
  2.8             2.1443e-009     -6.141e-009     1.2306e-009    
  2.85            5.698e-010      1.2118e-008     -2.351e-009    
  2.9             -1.8467e-009    1.75e-009       -2.766e-010    
  2.95            -1.9177e-009    -1.0926e-008    -4.595e-010    
  3               -1.9717e-009    -1.0499e-008    -6.34e-010     
  3.05            -2.016e-009     -9.73e-009      -7.96e-010     
  3.1             -1.3864e-009    -1.6879e-008    2.0548e-009    
  3.15            1.9811e-009     -7.845e-009     1.3648e-009    
  3.2             6.841e-010      1.408e-008      -2.1408e-009   
  3.25            -1.9979e-009    -9.903e-009     -7.204e-010    
  3.3             -1.3458e-009    -1.9012e-008    2.1836e-009    
  3.35            2.0724e-009     -7.035e-009     1.2958e-009    
  3.4             6.284e-010      1.2755e-008     -2.259e-009    
  3.45            -1.9703e-009    -1.0536e-008    -6.342e-010    
  3.5             -2.0141e-009    -9.8e-009       -7.941e-010    
  3.55            -1.2405e-009    -9.077e-009     2.451e-009     
  3.6             2.2328e-009     -5.323e-009     1.1459e-009    
  3.65            4.927e-010      1.1313e-008     -2.4701e-009   
  3.7             -1.7885e-009    9.93e-010       -1.58e-010     
  3.75            -1.0174e-009    -2.6599e-008    2.7559e-009    
  3.8             8.66e-010       1.8726e-008     -1.737e-009    
  3.85            -1.9921e-009    4.464e-009      -7.209e-010    
  3.9             -2.0236e-009    -9.459e-009     -8.665e-010    
  3.95            -1.416e-009     -1.4905e-008    1.9115e-009    
  4               1.8728e-009     -8.982e-009     1.4447e-009    
  4.05            7.563e-010      1.53e-008       -2.007e-009    
  4.1             -1.9326e-009    2.959e-009      -5.488e-010    
  4.15            -1.9888e-009    -1.0218e-008    -7.163e-010    
  4.2             -2.0199e-009    -9.5e-009       -8.585e-010    
  4.25            -1.41e-009      -1.5272e-008    1.9282e-009    
  4.3             1.8882e-009     -8.778e-009     1.434e-009     
  4.35            7.495e-010      1.54e-008       -2.0136e-009   
  4.4             -1.9314e-009    3.167e-009      -5.375e-010    
  4.45            -1.9866e-009    -9.945e-009     -7.08e-010     
  4.5             -1.3332e-009    -1.937e-008     2.2086e-009    
  4.55            2.096e-009      -6.988e-009     1.2831e-009    
  4.6             6.251e-010      1.2549e-008     -2.2814e-009   
  4.65            -1.957e-009     -1.0366e-008    -6.174e-010    
  4.7             -2.0057e-009    -9.491e-009     -7.84e-010     
  4.75            -1.3699e-009    -1.7377e-008    2.0791e-009    
  4.8             2.0062e-009     -7.867e-009     1.3528e-009    
  4.85            6.855e-010      1.3585e-008     -2.1661e-009   
  4.9             -1.8922e-009    2.216e-009      -4.35e-010     
  4.95            -1.9509e-009    -1.0618e-008    -6.067e-010    
  5               -1.9974e-009    -9.843e-009     -7.724e-010    
END_DB

BEGIN_DB
 ICCAP_VAR VG         1              
 ICCAP_VAR VS         0              
 ICCAP_VAR VB         0              

 #VD              ID              IB              IG             
  0               -1.0161e-006    -1.1981e-008    2.7862e-009    
  0.05            4.8898e-005     -2.1399e-008    9.471e-010     
  0.1             7.9346e-005     -2.6179e-008    2.3671e-009    
  0.15            9.5789e-005     -1.7957e-008    1.7242e-009    
  0.2             0.000104255     -9.898e-009     -9.885e-010    
  0.25            0.000108178     9.792e-009      -2.6638e-009   
  0.3             0.00011026      1.0726e-008     -2.2761e-009   
  0.35            0.000111386     1.6755e-008     -1.5187e-009   
  0.4             0.000112469     1.0965e-008     -2.2236e-009   
  0.45            0.000113127     1.7453e-008     -1.4819e-009   
  0.5             0.000113945     1.1216e-008     -2.1687e-009   
  0.55            0.00011292      1.8387e-008     2.7416e-009    
  0.6             0.0001141       -2.3421e-008    2.0823e-009    
  0.65            0.00011452      -1.0205e-008    -9.139e-010    
  0.7             0.00011592      1.0211e-008     -2.6594e-009   
  0.75            0.00011658      1.1543e-008     -2.0326e-009   
  0.8             0.00011698      1.0321e-008     -2.5173e-009   
  0.85            0.00011727      1.5266e-008     -1.6043e-009   
  0.9             0.00011776      1.1263e-008     -2.1549e-009   
  0.95            0.00011726      8.755e-009      6.738e-010     
  1               0.00011692      -2.6602e-008    2.626e-009     
  1.05            0.00011746      -1.1081e-008    -5.672e-010    
  1.1             0.00011893      2.2469e-008     -1.3253e-009   
  1.15            0.00011929      1.4829e-008     -1.6637e-009   
  1.2             0.00011973      1.1004e-008     -2.2159e-009   
  1.25            0.00011927      8.898e-009      6.409e-010     
  1.3             0.00011872      -2.6291e-008    2.6688e-009    
  1.35            0.00011951      -2.1074e-008    1.9108e-009    
  1.4             0.00011962      -2.6531e-008    2.6323e-009    
  1.45            0.00011977      -1.1059e-008    -5.607e-010    
  1.5             0.00012127      2.2445e-008     -1.3259e-009   
  1.55            0.00012151      1.4665e-008     -1.6635e-009   
  1.6             0.00012209      2.6282e-008     -2.3909e-009   
  1.65            0.00012207      1.7505e-008     -1.4737e-009   
  1.7             0.00012241      1.1861e-008     -1.9687e-009   
  1.75            0.00012264      1.0369e-008     -2.4815e-009   
  1.8             0.00012278      1.576e-008      -1.5588e-009   
  1.85            0.00012312      1.118e-008      -2.0867e-009   
  1.9             0.00012236      8.115e-009      7.144e-010     
  1.95            0.00012188      -2.7544e-008    2.5861e-009    
  2               0.00012242      -1.1992e-008    -6.137e-010    
  2.05            0.00012365      5.889e-009      -2.6e-009      
  2.1             0.00012415      8.444e-009      -2.499e-009    
  2.15            0.00012427      1.3039e-008     -1.5773e-009   
  2.2             0.00012455      7.638e-009      -2.1129e-009   
  2.25            0.00012468      5.713e-009      -2.5612e-009   
  2.3             0.00012478      7.897e-009      -1.6675e-009   
  2.35            0.00012511      2.557e-009      -2.2213e-009   
  2.4             0.0001253       1.94e-010       -2.6074e-009   
  2.45            0.00012442      -2.0832e-008    -2.5543e-009   
  2.5             0.00012441      -1.9891e-008    -2.643e-009    
  2.55            0.00012337      -1.2604e-008    1.6297e-009    
  2.6             0.00012448      -3.8038e-008    1.7e-012       
  2.65            0.00012563      -3.0618e-008    -1.5202e-009   
  2.7             0.00012488      -3.2314e-008    2.3047e-009    
  2.75            0.00012551      -5.7587e-008    -9.302e-010    
  2.8             0.00012653      -3.0194e-008    -2.2336e-009   
  2.85            0.00012518      -6.0125e-008    2.0287e-009    
  2.9             0.00012563      -9.1444e-008    -4.914e-010    
  2.95            0.00012718      -7.2957e-008    -1.3639e-009   
  3               0.00012762      -1.2087e-007    -1.4431e-009   
  3.05            0.00012726      -1.1421e-007    -1.3893e-009   
  3.1             0.00012627      -1.4229e-007    2.3946e-009    
  3.15            0.00012712      -1.8189e-007    -1.0509e-009   
  3.2             0.00012836      -1.7271e-007    -1.9751e-009   
  3.25            0.00012677      -2.2028e-007    2.1394e-009    
  3.3             0.00012693      -2.7296e-007    -6.603e-010    
  3.35            0.00012862      -2.7251e-007    -2.576e-009    
  3.4             0.00012661      -3.2983e-007    1.7677e-009    
  3.45            0.00012762      -3.9779e-007    -1.403e-010    
  3.5             0.00012921      -4.231e-007     -1.6748e-009   
  3.55            0.00012807      -4.8548e-007    2.2505e-009    
  3.6             0.00012842      -5.6824e-007    -8.464e-010    
  3.65            0.00012982      -5.9563e-007    -2.3782e-009   
  3.7             0.00012835      -6.9402e-007    1.9408e-009    
  3.75            0.00012892      -8.0147e-007    -3.705e-010    
  3.8             0.00013066      -8.6187e-007    -1.4488e-009   
  3.85            0.00012952      -9.7367e-007    2.3497e-009    
  3.9             0.00013043      -1.10625e-006   -1.001e-009    
  3.95            0.0001308       -1.2225e-006    -1.3662e-009   
  4               0.00013032      -1.338e-006     2.4022e-009    
  4.05            0.00013146      -1.5068e-006    -1.0665e-009   
  4.1             0.0001321       -1.6128e-006    -1.9441e-009   
  4.15            0.00013137      -1.8096e-006    2.1488e-009    
  4.2             0.00013164      -2.0244e-006    -6.785e-010    
  4.25            0.00013317      -2.1714e-006    -2.5618e-009   
  4.3             0.00013185      -2.4059e-006    1.7827e-009    
  4.35            0.00013271      -2.6693e-006    -1.605e-010    
  4.4             0.00013449      -2.8927e-006    -1.6496e-009   
  4.45            0.00013398      -3.1478e-006    2.2625e-009    
  4.5             0.00013465      -3.4676e-006    -8.616e-010    
  4.55            0.00013612      -3.6965e-006    -2.3509e-009   
  4.6             0.00013527      -4.0536e-006    1.9551e-009    
  4.65            0.00013595      -4.4405e-006    -3.874e-010    
  4.7             0.00013784      -4.7624e-006    -1.4282e-009   
  4.75            0.00013746      -5.1406e-006    2.3572e-009    
  4.8             0.0001388       -5.5979e-006    -1.0124e-009   
  4.85            0.00013997      -5.9334e-006    -2.0542e-009   
  4.9             0.00013956      -6.4434e-006    2.1026e-009    
  4.95            0.00014022      -6.9822e-006    -6.021e-010    
  5               0.00014238      -7.4076e-006    -1.3052e-009   
END_DB

BEGIN_DB
 ICCAP_VAR VG         2              
 ICCAP_VAR VS         0              
 ICCAP_VAR VB         0              

 #VD              ID              IB              IG             
  0               -4.6357e-006    -2.6243e-008    -9.315e-010    
  0.05            0.00026615      1.1475e-008     3.095e-010     
  0.1             0.00052199      -2.0946e-008    1.5207e-009    
  0.15            0.00076709      -2.5397e-008    2.2501e-009    
  0.2             0.00100109      -1.0405e-008    -8.21e-010     
  0.25            0.0012224       1.2212e-008     -6.37e-011     
  0.3             0.001433        1.3011e-008     -1.7813e-009   
  0.35            0.0016288       2.5768e-008     -2.4843e-009   
  0.4             0.0018113       1.5813e-008     -1.5618e-009   
  0.45            0.001979        1.1044e-008     -2.0885e-009   
  0.5             0.0021322       8.49e-009       6.991e-010     
  0.55            0.0022683       -2.6938e-008    2.5848e-009    
  0.6             0.0023925       -1.103e-008     -6e-010        
  0.65            0.0025033       2.3626e-008     -2.6193e-009   
  0.7             0.0025967       1.2828e-008     -1.7745e-009   
  0.75            0.0026751       2.5932e-008     -2.4819e-009   
  0.8             0.0027399       1.5791e-008     -1.56e-009     
  0.85            0.0027927       2.653e-008      -2.2741e-009   
  0.9             0.0028332       8.941e-009      5.877e-010     
  0.95            0.0028597       -2.6395e-008    2.7064e-009    
  1               0.0028861       -2.1745e-008    1.986e-009     
  1.05            0.0029052       -2.6546e-008    2.6826e-009    
  1.1             0.0029209       -1.106e-008     -5.079e-010    
  1.15            0.0029382       2.1719e-008     -1.3565e-009   
  1.2             0.0029479       1.3632e-008     -1.7237e-009   
  1.25            0.0029565       2.6227e-008     -2.4431e-009   
  1.3             0.0029639       1.6518e-008     -1.5235e-009   
  1.35            0.0029655       6.748e-009      1.0171e-009    
  1.4             0.002972        -2.1507e-008    1.9769e-009    
  1.45            0.0029795       -9.604e-009     -9.537e-010    
  1.5             0.0029875       1.0874e-008     -2.6654e-009   
  1.55            0.0029926       1.158e-008      -1.9396e-009   
  1.6             0.0029969       1.0464e-008     -2.4661e-009   
  1.65            0.0030001       1.6248e-008     -1.5373e-009   
  1.7             0.0030048       1.1196e-008     -2.0558e-009   
  1.75            0.0030065       8.29e-009       7.149e-010     
  1.8             0.003005        -2.7152e-008    2.5617e-009    
  1.85            0.0030105       -1.0958e-008    -6.095e-010    
  1.9             0.0030167       7.121e-009      -2.6071e-009   
  1.95            0.0030208       1.0424e-008     -2.4832e-009   
  2               0.0030234       1.5755e-008     -1.5591e-009   
  2.05            0.0030262       1.0802e-008     -2.0951e-009   
  2.1             0.0030279       8.426e-009      6.901e-010     
  2.15            0.0030258       -2.7161e-008    2.5832e-009    
  2.2             0.0030287       -1.1227e-008    -5.909e-010    
  2.25            0.0030365       2.3485e-008     -2.6242e-009   
  2.3             0.0030395       1.2198e-008     -1.7721e-009   
  2.35            0.0030426       9.915e-009      -2.3291e-009   
  2.4             0.0030436       1.7584e-008     -1.4353e-009   
  2.45            0.0030468       9.778e-009      -1.8815e-009   
  2.5             0.0030491       7.159e-009      -2.419e-009    
  2.55            0.0030504       1.1782e-008     -1.5024e-009   
  2.6             0.0030538       3.281e-009      -2.0028e-009   
  2.65            0.0030509       -4.149e-009     2.1222e-009    
  2.7             0.0030529       -2.7798e-008    -6.204e-010    
  2.75            0.0030602       2.37e-010       -2.5966e-009   
  2.8             0.003054        -2.4961e-008    1.7418e-009    
  2.85            0.0030568       -5.839e-008     -1.13e-010     
  2.9             0.0030647       -4.9947e-008    -1.6911e-009   
  2.95            0.0030628       -7.9146e-008    2.2425e-009    
  3               0.0030659       -1.3412e-007    7.385e-010     
  3.05            0.0030704       -1.4011e-007    -2.6248e-009   
  3.1             0.0030641       -1.8291e-007    1.3037e-009    
  3.15            0.0030692       -2.5671e-007    2.7806e-009    
  3.2             0.003077        -3.178e-007     -1.7393e-009   
  3.25            0.0030759       -3.7438e-007    3.33e-011      
  3.3             0.0030746       -4.9119e-007    1.9539e-009    
  3.35            0.0030797       -5.9286e-007    -2.1317e-009   
  3.4             0.003083        -7.0312e-007    6.568e-010     
  3.45            0.0030806       -8.8629e-007    2.6473e-009    
  3.5             0.003087        -1.04517e-006   -1.8472e-009   
  3.55            0.0030909       -1.2256e-006    -2.524e-009    
  3.6             0.0030861       -1.4603e-006    1.8201e-009    
  3.65            0.0030889       -1.7458e-006    -2.191e-010    
  3.7             0.0030963       -2.0259e-006    -1.5775e-009   
  3.75            0.0030948       -2.3823e-006    2.2855e-009    
  3.8             0.0030981       -2.7927e-006    -8.983e-010    
  3.85            0.0031041       -3.2073e-006    -2.2861e-009   
  3.9             0.003101        -3.7296e-006    1.9969e-009    
  3.95            0.0031039       -4.3161e-006    -4.457e-010    
  4               0.0031111       -4.9314e-006    -1.3869e-009   
  4.05            0.0031107       -5.6663e-006    2.3891e-009    
  4.1             0.0031167       -6.4859e-006    -1.0496e-009   
  4.15            0.0031205       -7.3568e-006    -1.9767e-009   
