! VERSION = 6.00
BEGIN_HEADER
 ICCAP_INPUTS
  VG         V  B GROUND SMU4 0.001 LIN        1    0          5          101  0.05      
  VS         V  E GROUND SMU2 0.1 CON        0
  VB         V  C GROUND SMU3 0.1 LIN        3    0          -5         3    -2.5      
  VD         V  S GROUND SMU1 0.1 LIN        2    0.1        5          2    4.9       
 ICCAP_OUTPUTS
  IG         I  B GROUND SMU4 B
  ID         I  S GROUND SMU1 B
  IB         I  C GROUND SMU3 B
END_HEADER

BEGIN_DB
 ICCAP_VAR VS         0              
 ICCAP_VAR VB         0              
 ICCAP_VAR VD         0.1            

 #VG              IG              ID              IB             
  0               -1.2533e-009    -9.94e-010      -9.439e-009    
  0.05            -2.583e-009     1.271e-010      1.0359e-008    
  0.1             2.5864e-009     -1.028e-009     -2.5325e-008   
  0.15            3.656e-010      2.209e-009      9.021e-009     
  0.2             -2.2779e-009    6.457e-010      1.2861e-008    
  0.25            -2.606e-010     -1.762e-009     2.055e-009     
  0.3             -4.58e-010      -1.7933e-009    -1.0891e-008   
  0.35            2.6616e-009     -8.094e-010     -1.0069e-008   
  0.4             -1.5792e-009    1.501e-009      2.0178e-008    
  0.45            -1.3933e-009    1.6125e-009     4.77e-009      
  0.5             -2.4602e-009    6.4159e-009     6.533e-009     
  0.55            2.5896e-009     2.3203e-008     1.5068e-008    
  0.6             -2.3636e-009    8.7653e-008     2.5858e-008    
  0.65            6.117e-010      2.9327e-007     -1.276e-008    
  0.7             -1.5381e-009    1.05709e-006    1.6438e-008    
  0.75            -2.3481e-009    3.1029e-006     -1.7688e-008   
  0.8             -5.49e-010      8.3054e-006     -1.1023e-008   
  0.85            2.5508e-009     1.8518e-005     -1.1123e-008   
  0.9             -2.2971e-009    3.5478e-005     1.1017e-008    
  0.95            -1.6581e-009    5.774e-005      2.015e-009     
  1               -2.4616e-009    8.4571e-005     4.239e-009     
  1.05            -1.386e-010     0.00011413      -1.0915e-008   
  1.1             -2.5485e-009    0.00014511      1.1087e-008    
  1.15            2.7382e-009     0.00017587      -1.6829e-008   
  1.2             2.5069e-009     0.00020726      -2.002e-009    
  1.25            6.566e-010      0.00023824      8.795e-009     
  1.3             -1.4944e-009    0.00026842      1.6958e-008    
  1.35            -2.5228e-009    0.00029786      5.29e-009      
  1.4             2.5553e-009     0.0003259       -2.5838e-008   
  1.45            6.367e-010      0.00035464      8.908e-009     
  1.5             -1.5261e-009    0.0003822       1.66e-008      
  1.55            -2.512e-009     0.00040887      5.112e-009     
  1.6             2.5822e-009     0.00043442      -2.5695e-008   
  1.65            -2.5469e-009    0.00046067      1.1099e-008    
  1.7             -2.078e-009     0.00048522      7.25e-010      
  1.75            -1.4866e-009    0.00050967      2.559e-009     
  1.8             -2.5238e-009    0.00053353      5.331e-009     
  1.85            2.5622e-009     0.00055628      -2.5876e-008   
  1.9             6.358e-010      0.00057953      8.898e-009     
  1.95            -1.5228e-009    0.0006019       1.646e-008     
  2               -2.5129e-009    0.00062353      5.094e-009     
  2.05            2.5823e-009     0.00064432      -2.5538e-008   
  2.1             -2.5459e-009    0.00066573      2.2371e-008    
  2.15            -4.852e-010     0.00068567      -1.1176e-008   
  2.2             1.9634e-009     0.00070567      -2.1798e-008   
  2.25            2.4254e-009     0.00072523      -7.66e-009     
  2.3             -2.4876e-009    0.00074491      1.0824e-008    
  2.35            -1.9183e-009    0.00076328      1.076e-009     
  2.4             -1.3956e-009    0.00078174      3.098e-009     
  2.45            -2.5573e-009    0.00079992      6.509e-009     
  2.5             -9.611e-010     0.00081739      -1.0054e-008   
  2.55            2.037e-010      0.00083399      -1.1732e-008   
  2.6             2.7421e-009     0.00085137      -2.1447e-008   
  2.65            2.3851e-009     0.00086822      -2.256e-009    
  2.7             1.6915e-009     0.00088435      -4.578e-009    
  2.75            2.519e-009      0.00090028      -9.283e-009    
  2.8             -2.3316e-009    0.00091662      1.0915e-008    
  2.85            -1.6982e-009    0.00093145      1.779e-009     
  2.9             -2.4482e-009    0.00094661      3.91e-009      
  2.95            -7.317e-010     0.00096107      -1.1e-008      
  3               -1.0756e-009    0.0009756       -9.31e-009     
  3.05            2.6292e-009     0.00098953      -2.5177e-008   
  3.1             -2.5704e-009    0.00100363      2.1339e-008    
  3.15            1.7031e-009     0.00101685      -1.8157e-008   
  3.2             2.5198e-009     0.00103016      -9.189e-009    
  3.25            -2.3323e-009    0.00104361      1.0967e-008    
  3.3             -1.6905e-009    0.00105586      1.846e-009     
  3.35            -2.4511e-009    0.00106845      4.066e-009     
  3.4             -7.331e-010     0.00108047      -1.0917e-008   
  3.45            2.7421e-009     0.0010923       -1.6327e-008   
  3.5             2.4758e-009     0.0011044       -2.16e-009     
  3.55            1.8015e-009     0.00111562      -3.997e-009    
  3.6             2.4727e-009     0.0011268       -8.52e-009     
  3.65            -2.4155e-009    0.00113819      1.0526e-008    
  3.7             1.7545e-009     0.0011494       1.41e-009      
  3.75            2.5095e-009     0.0011597       -9.006e-009    
  3.8             -2.3644e-009    0.0011705       1.0735e-008    
  3.85            -1.7322e-009    0.00118         1.658e-009     
  3.9             -2.4405e-009    0.0011899       3.813e-009     
  3.95            -7.019e-010     0.0011994       -1.1026e-008   
  4               -1.0523e-009    0.001209        -9.413e-009    
  4.05            2.6454e-009     0.0012181       -2.4667e-008   
  4.1             -1.3417e-009    0.0012274       2.0661e-008    
  4.15            -2.5848e-009    0.001236        7.755e-009     
  4.2             2.3031e-009     0.0012448       -2.5547e-008   
  4.25            1.5952e-009     0.001253        -5.166e-009    
  4.3             2.5678e-009     0.001261        -9.581e-009    
  4.35            -2.2496e-009    0.0012695       1.1219e-008    
  4.4             -8.215e-010     0.0012772       -1.073e-008    
  4.45            2.7306e-009     0.0012843       -1.4447e-008   
  4.5             2.3605e-009     0.0012924       -2.268e-009    
  4.55            1.6767e-009     0.0012998       -4.744e-009    
  4.6             2.5354e-009     0.0013066       -9.403e-009    
  4.65            -2.3188e-009    0.0013142       1.0996e-008    
  4.7             -7.739e-010     0.0013206       -1.0895e-008   
  4.75            2.7371e-009     0.0013269       -1.5693e-008   
  4.8             2.4336e-009     0.0013339       -2.125e-009    
  4.85            1.7674e-009     0.0013398       -4.064e-009    
  4.9             2.5025e-009     0.0013463       -9.181e-009    
  4.95            -2.3743e-009    0.0013525       1.0634e-008    
  5               -1.7593e-009    0.001358        1.405e-009     
END_DB

BEGIN_DB
 ICCAP_VAR VS         0              
 ICCAP_VAR VB         0              
 ICCAP_VAR VD         5              

 #VG              IG              ID              IB             
  0               9.379e-010      1.0878e-009     1.1397e-008    
  0.05            1.906e-009      -5.576e-010     -1.9789e-008   
  0.1             1.4012e-009     1.9415e-009     -7.748e-009    
  0.15            -1.9507e-009    8.367e-010      1.558e-008     
  0.2             -4.88e-010      -1.8046e-009    2.746e-009     
  0.25            2.332e-009      -1.1037e-009    -2.1065e-008   
  0.3             1.1657e-009     2.3066e-009     -4.698e-009    
  0.35            -2.3355e-009    8.348e-010      1.1895e-008    
  0.4             -2.0752e-009    3.21e-010       1.61e-009      
  0.45            -1.8032e-009    2.2772e-009     2.142e-009     
  0.5             -1.5804e-009    9.2562e-009     2.407e-009     
  0.55            2.3588e-009     3.3841e-008     8.606e-009     
  0.6             1.9829e-009     1.1928e-007     -1.8159e-008   
  0.65            2.3909e-009     4.2774e-007     -4.0103e-008   
  0.7             -1.2483e-009    1.4969e-006     -1.09784e-007  
  0.75            1.6668e-009     4.5811e-006     -3.2107e-007   
  0.8             -2.6037e-009    1.2775e-005     -7.9356e-007   
  0.85            -1.9054e-009    2.8547e-005     -1.7588e-006   
  0.9             -1.4099e-009    5.6012e-005     -3.2804e-006   
  0.95            -2.5581e-009    9.704e-005      -5.3905e-006   
  1               -2.5526e-009    0.00015237      -8.081e-006    
  1.05            -2.5817e-009    0.00022152      -1.12251e-005  
  1.1             2.0999e-009     0.00030502      -1.4659e-005   
  1.15            2.3524e-009     0.00040546      -1.8437e-005   
  1.2             2.6298e-009     0.00051793      -2.2303e-005   
  1.25            2.7371e-009     0.00064201      -2.6265e-005   
  1.3             2.3524e-009     0.00077873      -3.0189e-005   
  1.35            1.6879e-009     0.00092524      -3.4012e-005   
  1.4             2.5175e-009     0.00108153      -3.7689e-005   
  1.45            -1.964e-009     0.0012513       -4.1117e-005   
  1.5             -2.2664e-009    0.0014263       -4.4393e-005   
  1.55            -2.5204e-009    0.0016085       -4.7312e-005   
  1.6             -2.6012e-009    0.0017976       -4.9937e-005   
  1.65            -2.3128e-009    0.0019942       -5.2246e-005   
  1.7             -1.7109e-009    0.0021973       -5.4262e-005   
  1.75            -2.4325e-009    0.0024054       -5.5977e-005   
  1.8             -2.6009e-009    0.0026171       -5.7388e-005   
  1.85            -2.493e-009     0.002834        -5.8486e-005   
  1.9             -1.9531e-009    0.0030572       -5.9314e-005   
  1.95            -1.4323e-009    0.0032836       -5.987e-005    
  2               -2.5447e-009    0.0035142       -6.0157e-005   
  2.05            -2.5852e-009    0.0037448       -6.0235e-005   
  2.1             -2.2038e-009    0.0039822       -6.0056e-005   
  2.15            -1.6043e-009    0.0042225       -5.9679e-005   
  2.2             -2.478e-009     0.0044651       -5.911e-005    
  2.25            -2.6093e-009    0.0047077       -5.8382e-005   
  2.3             -2.4142e-009    0.0049549       -5.7484e-005   
  2.35            -1.8288e-009    0.0052062       -5.6447e-005   
  2.4             -1.3742e-009    0.0054581       -5.5285e-005   
  2.45            -2.5765e-009    0.0057126       -5.4018e-005   
  2.5             -2.547e-009     0.0059653       -5.267e-005    
  2.55            -2.1022e-009    0.0062243       -5.1228e-005   
  2.6             -1.5228e-009    0.0064842       -4.9728e-005   
  2.65            -2.5141e-009    0.0067456       -4.8169e-005   
  2.7             -2.6039e-009    0.0070062       -4.658e-005    
  2.75            -2.3327e-009    0.0072697       -4.4958e-005   
  2.8             -1.7374e-009    0.0075401       -4.3289e-005   
  2.85            -2.4291e-009    0.0078078       -4.1631e-005   
  2.9             -2.5939e-009    0.0080732       -3.9986e-005   
  2.95            -2.4982e-009    0.0083411       -3.8337e-005   
  3               -1.9836e-009    0.0086121       -3.6694e-005   
  3.05            -1.4523e-009    0.0088831       -3.5075e-005   
  3.1             -2.546e-009     0.0091543       -3.3478e-005   
  3.15            -2.5853e-009    0.009424        -3.1917e-005   
  3.2             -2.2201e-009    0.0096976       -3.0382e-005   
  3.25            -1.6264e-009    0.0099717       -2.888e-005    
  3.3             -2.4771e-009    0.0102469       -2.7418e-005   
  3.35            -2.608e-009     0.010519        -2.6008e-005   
  3.4             -2.4238e-009    0.0107942       -2.4633e-005   
  3.45            -1.8635e-009    0.0110713       -2.3301e-005   
  3.5             -1.3827e-009    0.0113471       -2.2015e-005   
  3.55            -1.8735e-009    0.011636        -2.0814e-005   
  3.6             -1.3855e-009    0.01191         -1.9595e-005   
  3.65            -2.576e-009     0.012187        -1.8455e-005   
  3.7             -2.5454e-009    0.012461        -1.7371e-005   
  3.75            -2.1054e-009    0.01274         -1.6327e-005   
  3.8             -1.529e-009     0.013019        -1.5325e-005   
  3.85            -2.5129e-009    0.013294        -1.4375e-005   
  3.9             -2.6043e-009    0.01357         -1.3476e-005   
  3.95            -2.3257e-009    0.013849        -1.2618e-005   
  4               -1.7425e-009    0.014127        -1.1799e-005   
  4.05            -2.4286e-009    0.014405        -1.1027e-005   
  4.1             -2.5953e-009    0.014679        -1.0305e-005   
  4.15            2.5626e-009     0.01495         -9.6412e-006   
  4.2             1.9314e-009     0.01523         -8.9827e-006   
  4.25            2.4168e-009     0.015504        -8.3685e-006   
  4.3             2.6904e-009     0.015785        -7.7836e-006   
  4.35            2.6844e-009     0.016062        -7.2402e-006   
  4.4             2.2036e-009     0.016339        -6.7234e-006   
  4.45            2.3204e-009     0.016615        -6.2445e-006   
  4.5             2.6022e-009     0.016891        -5.7856e-006   
  4.55            2.7413e-009     0.017167        -5.3634e-006   
  4.6             2.4498e-009     0.017442        -4.9743e-006   
  4.65            1.8078e-009     0.017713        -4.6071e-006   
  4.7             2.4711e-009     0.017989        -4.2617e-006   
  4.75            2.7228e-009     0.018264        -3.9291e-006   
  4.8             2.6281e-009     0.018533        -3.631e-006    
  4.85            2.0743e-009     0.018807        -3.3497e-006   
  4.9             2.3635e-009     0.019079        -3.0888e-006   
  4.95            2.6453e-009     0.019354        -2.8314e-006   
  5               2.7249e-009     0.019624        -2.6078e-006   
END_DB

BEGIN_DB
 ICCAP_VAR VS         0              
 ICCAP_VAR VB         -2.5           
 ICCAP_VAR VD         0.1            

 #VG              IG              ID              IB             
  0               2.6746e-009     -3.229e-010     -1.9726e-008   
  0.05            -1.6747e-009    9.586e-010      1.9157e-008    
  0.1             2.6752e-009     -1.4556e-009    4.265e-009     
  0.15            -1.6733e-009    9.64e-010       1.9174e-008    
  0.2             2.6781e-009     -1.4565e-009    4.464e-009     
  0.25            -1.6598e-009    9.653e-010      1.9269e-008    
  0.3             2.6759e-009     -1.4599e-009    4.475e-009     
  0.35            -1.6495e-009    9.702e-010      1.9327e-008    
  0.4             2.6724e-009     -1.4618e-009    4.412e-009     
  0.45            -1.6451e-009    9.756e-010      1.9366e-008    
  0.5             2.6755e-009     -1.4673e-009    4.437e-009     
  0.55            -1.6348e-009    9.794e-010      1.9474e-008    
  0.6             2.6711e-009     -1.4692e-009    4.487e-009     
  0.65            -1.6249e-009    9.808e-010      1.9559e-008    
  0.7             2.666e-009      -1.468e-009     4.618e-009     
  0.75            -1.6153e-009    9.814e-010      1.972e-008     
  0.8             2.6645e-009     -1.4698e-009    4.542e-009     
  0.85            -1.6203e-009    9.88e-010       1.9859e-008    
  0.9             2.6592e-009     -1.471e-009     4.666e-009     
  0.95            -1.6136e-009    9.903e-010      2.0061e-008    
  1               2.6604e-009     -1.4587e-009    4.743e-009     
  1.05            -1.605e-009     1.0714e-009     1.992e-008     
  1.1             -1.4118e-009    2.167e-010      4.674e-009     
  1.15            -2.4592e-009    1.9125e-009     6.61e-009      
  1.2             -4.759e-010     7.5677e-009     -1.0905e-008   
  1.25            2.324e-009      4.3776e-008     1.0819e-008    
  1.3             1.7698e-009     1.8993e-007     2.202e-009     
  1.35            2.5129e-009     7.7785e-007     -9.166e-009    
  1.4             1.1704e-009     2.8764e-006     4.069e-009     
  1.45            -2.0093e-009    9.2567e-006     1.2445e-008    
  1.5             2.6505e-009     2.1539e-005     8.39e-010      
  1.55            -1.3498e-009    4.1979e-005     2.0327e-008    
  1.6             -2.5784e-009    6.7872e-005     7.848e-009     
  1.65            2.3164e-009     9.6491e-005     -2.5521e-008   
  1.7             2.6291e-009     0.00012783      -5.445e-009    
  1.75            -1.3354e-009    0.00016034      2.0976e-008    
  1.8             -2.585e-009     0.00019192      8.075e-009     
  1.85            2.2676e-009     0.00022238      -2.5155e-008   
  1.9             2.3286e-009     0.00025295      -5.58e-009     
  1.95            -1.4371e-009    0.00028328      1.8234e-008    
  2               -2.5506e-009    0.00031238      6.337e-009     
  2.05            2.4694e-009     0.00033985      -2.5923e-008   
  2.1             1.7781e-009     0.00036763      -4.018e-009    
  2.15            2.498e-009      0.00039436      -9.028e-009    
  2.2             -2.3818e-009    0.00042107      1.0664e-008    
  2.25            -1.7691e-009    0.00044626      1.399e-009     
  2.3             -2.4296e-009    0.00047095      3.566e-009     
  2.35            -6.83e-010      0.00049476      -1.1062e-008   
  2.4             1.6754e-009     0.0005181       -1.7634e-008   
  2.45            2.5496e-009     0.00054098      -9.515e-009    
  2.5             -2.2846e-009    0.00056398      1.1055e-008    
  2.55            -1.6597e-009    0.00058539      1.731e-009     
  2.6             -2.4742e-009    0.00060675      4.459e-009     
  2.65            -7.697e-010     0.00062722      -1.0882e-008   
  2.7             2.7325e-009     0.00064721      -1.5708e-008   
  2.75            2.4316e-009     0.00066735      -2.238e-009    
  2.8             1.7497e-009     0.00068686      -4.221e-009    
  2.85            2.5101e-009     0.00070558      -9.301e-009    
  2.9             -2.3635e-009    0.00072455      1.0632e-008    
  2.95            -1.7429e-009    0.00074214      1.594e-009     
  3               -2.4438e-009    0.00075984      3.896e-009     
  3.05            -7.059e-010     0.00077678      -1.1024e-008   
  3.1             -1.0616e-009    0.00079372      -9.477e-009    
  3.15            2.6338e-009     0.00080985      -2.4842e-008   
  3.2             -1.3342e-009    0.00082626      2.115e-008     
  3.25            -2.5817e-009    0.00084183      7.849e-009     
  3.3             2.2547e-009     0.00085691      -2.5072e-008   
  3.35            2.324e-009      0.00087194      -5.558e-009    
  3.4             -1.4256e-009    0.00088682      1.858e-008     
  3.45            -2.5485e-009    0.00090108      6.249e-009     
  3.5             2.4427e-009     0.00091474      -2.6065e-008   
  3.55            1.7516e-009     0.0009285       -4.04e-009     
  3.6             2.4935e-009     0.0009418       -8.964e-009    
  3.65            -2.3572e-009    0.00095521      1.062e-008     
  3.7             -1.7329e-009    0.00096771      1.626e-009     
  3.75            -2.4297e-009    0.00098023      3.531e-009     
  3.8             -7.05e-010      0.00099217      -1.0902e-008   
  3.85            -1.053e-009     0.00100429      -9.508e-009    
  3.9             2.6273e-009     0.00101579      -2.4953e-008   
  3.95            -1.3401e-009    0.00102735      2.1081e-008    
  4               -2.5878e-009    0.00103853      7.911e-009     
  4.05            2.2554e-009     0.0010491       -2.4991e-008   
  4.1             2.3132e-009     0.00105986      -5.101e-009    
  4.15            -1.4388e-009    0.00107028      1.8467e-008    
