! VERSION = 6.00
BEGIN_HEADER
 ICCAP_INPUTS
  VG         V  B GROUND SMU4 0.001 LIN        1    0          5          101  0.05      
  VS         V  E GROUND SMU2 0.1 CON        0
  VB         V  C GROUND SMU3 0.1 LIN        3    0          -5         3    -2.5      
  VD         V  S GROUND SMU1 0.1 LIN        2    0.1        5          2    4.9       
 ICCAP_OUTPUTS
  IG         I  B GROUND SMU4 B
  ID         I  S GROUND SMU1 B
  IB         I  C GROUND SMU3 B
END_HEADER

BEGIN_DB
 ICCAP_VAR VS         0              
 ICCAP_VAR VB         0              
 ICCAP_VAR VD         0.1            

 #VG              IG              ID              IB             
  0               1.3132e-009     1.6527e-009     1.8522e-008    
  0.05            2.3414e-009     1.6364e-009     -1.282e-008    
  0.1             -1.3814e-009    1.8143e-009     2.8677e-008    
  0.15            -1.3837e-009    5.143e-010      1.1857e-008    
  0.2             -2.6765e-009    6.776e-010      1.3219e-008    
  0.25            -8.34e-011      -1.5432e-009    -1.3305e-008   
  0.3             -3.203e-010     -1.6127e-009    -1.3683e-008   
  0.35            1.4091e-009     -5.363e-010     -1.3713e-008   
  0.4             2.7535e-009     1.6527e-009     -8.279e-009    
  0.45            -1.4219e-009    1.941e-009      2.6863e-008    
  0.5             -1.3815e-009    1.4161e-009     8.319e-009     
  0.55            -1.3846e-009    4.5355e-009     1.0234e-008    
  0.6             1.5774e-009     1.3788e-008     9.092e-009     
  0.65            2.1435e-009     5.0571e-008     8.502e-009     
  0.7             -1.603e-010     3.1975e-007     8.588e-009     
  0.75            -6.855e-010     3.9378e-007     -1.3852e-008   
  0.8             1.8127e-009     1.03378e-006    -2.0301e-008   
  0.85            2.5988e-009     2.3733e-006     1.7388e-008    
  0.9             1.5573e-009     4.9389e-006     9.143e-009     
  0.95            1.9817e-009     8.5183e-006     1.0345e-008    
  1               -2.696e-009     1.3429e-005     1.1904e-008    
  1.05            -1.0602e-009    1.892e-005      -1.1615e-008   
  1.1             -1.4657e-009    2.5006e-005     -1.0033e-008   
  1.15            -2.84e-010      3.076e-005      -1.261e-008    
  1.2             -7.902e-010     3.666e-005      -1.375e-008    
  1.25            -1.1656e-009    4.234e-005      -1.0763e-008   
  1.3             8.41e-011       4.7597e-005     -1.0579e-008   
  1.35            -4.284e-010     5.2923e-005     -1.3452e-008   
  1.4             -8.91e-010      5.7922e-005     -1.3355e-008   
  1.45            -1.27e-009      6.2796e-005     -1.0258e-008   
  1.5             -1.6915e-009    6.7442e-005     -1.1249e-008   
  1.55            -5.649e-010     7.1749e-005     -1.3695e-008   
  1.6             -9.901e-010     7.6036e-005     -1.2226e-008   
  1.65            2.754e-010      8.0027e-005     -1.2299e-008   
  1.7             1.4523e-009     8.4032e-005     -2.0892e-008   
  1.75            2.8069e-009     8.786e-005      -8.498e-009    
  1.8             2.8084e-009     9.161e-005      -4.27e-010     
  1.85            -1.6098e-009    9.5208e-005     1.8946e-008    
  1.9             -1.3826e-009    9.873e-005      6.497e-009     
  1.95            -2.6845e-009    0.000102101     1.0338e-008    
  2               1.9942e-009     0.000105259     -2.3489e-008   
  2.05            1.3822e-009     0.000108437     -9.042e-009    
  2.1             2.824e-009      0.000111517     -8.258e-009    
  2.15            -2.6715e-009    0.00011471      -7.22e-010     
  2.2             -8.07e-010      0.00011762      -1.3647e-008   
  2.25            -1.1735e-009    0.0001205       -1.0724e-008   
  2.3             7.4e-011        0.00012316      -1.0552e-008   
  2.35            1.3283e-009     0.00012592      -2.5154e-008   
  2.4             2.8362e-009     0.00012868      -8.953e-009    
  2.45            -1.9167e-009    0.00013123      2.6835e-008    
  2.5             -1.4276e-009    0.00013368      4.704e-009     
  2.55            -1.3875e-009    0.00013616      8.491e-009     
  2.6             -2.6217e-009    0.00013856      1.2789e-008    
  2.65            -2.123e-009     0.00014085      7.1e-010       
  2.7             -1.515e-009     0.00014317      4.1e-009       
  2.75            -1.3815e-009    0.00014544      7.462e-009     
  2.8             -2.6688e-009    0.00014761      1.1507e-008    
  2.85            -1.4163e-009    0.00014973      -1.0037e-008   
  2.9             -2.192e-010     0.00015177      -1.2177e-008   
  2.95            -7.323e-010     0.00015383      -1.3736e-008   
  3               -1.1194e-009    0.00015581      -1.1043e-008   
  3.05            -1.5394e-009    0.00015781      -1.044e-008    
  3.1             2.2039e-009     0.00015965      -2.6034e-008   
  3.15            1.4697e-009     0.00016151      -7.772e-009    
  3.2             2.7994e-009     0.00016332      -8.506e-009    
  3.25            2.8191e-009     0.00016514      -3.44e-010     
  3.3             -1.6517e-009    0.00016686      2.0064e-008    
  3.35            -1.3846e-009    0.00016858      6.391e-009     
  3.4             -2.6807e-009    0.00017026      1.0063e-008    
  3.45            2.0514e-009     0.00017188      -2.4558e-008   
  3.5             1.403e-009      0.00017345      -8.84e-009     
  3.55            2.8175e-009     0.00017504      -8.385e-009    
  3.6             2.7899e-009     0.00017657      -6.55e-010     
  3.65            5.531e-010      0.00017808      1.2075e-008    
  3.7             -1.801e-009     0.00017954      2.4263e-008    
  3.75            -1.4e-009       0.00018098      5.122e-009     
  3.8             -1.3811e-009    0.00018239      8.642e-009     
  3.85            -2.5742e-009    0.00018376      1.3588e-008    
  3.9             -1.9825e-009    0.00018506      6.15e-010      
  3.95            -1.4559e-009    0.00018639      4.523e-009     
  4               -1.3861e-009    0.00018766      8.165e-009     
  4.05            -2.6432e-009    0.00018895      1.2328e-008    
  4.1             -2.2024e-009    0.00019013      6.34e-010      
  4.15            -1.5606e-009    0.00019136      3.601e-009     
  4.2             -1.3783e-009    0.00019253      6.975e-009     
  4.25            -2.6775e-009    0.00019368      1.1062e-008    
  4.3             -1.3651e-009    0.00019482      -1.0028e-008   
  4.35            2.4829e-009     0.0001959       -2.7499e-008   
  4.4             1.6843e-009     0.00019695      -5.608e-009    
  4.45            1.3207e-009     0.00019802      -9.548e-009    
  4.5             2.8383e-009     0.00019907      -9.139e-009    
  4.55            1.2219e-009     0.00020007      8.68e-009      
  4.6             -1.3842e-009    0.00020109      2.8307e-008    
  4.65            -2.6447e-009    0.00020204      1.2361e-008    
  4.7             -2.1845e-009    0.00020295      4.66e-010      
  4.75            -1.5561e-009    0.00020388      3.624e-009     
  4.8             -1.3787e-009    0.00020479      7.07e-009      
  4.85            -2.6768e-009    0.00020567      1.1099e-008    
  4.9             -1.374e-009     0.0002066       -1.0191e-008   
  4.95            2.4765e-009     0.00020737      -2.7342e-008   
  5               1.6691e-009     0.00020817      -5.669e-009    
END_DB

BEGIN_DB
 ICCAP_VAR VS         0              
 ICCAP_VAR VB         0              
 ICCAP_VAR VD         5              

 #VG              IG              ID              IB             
  0               1.3062e-009     1.7498e-009     -1.3533e-008   
  0.05            2.8334e-009     1.4807e-009     -1.2166e-008   
  0.1             -1.377e-009     1.9832e-009     2.7571e-008    
  0.15            -1.3637e-009    6.825e-010      1.2089e-008    
  0.2             -2.6403e-009    8.433e-010      1.3896e-008    
  0.25            8.68e-011       -1.3642e-009    3.29e-010      
  0.3             1.4808e-009     -4.318e-010     -2.4603e-008   
  0.35            2.7479e-009     1.7193e-009     -8.605e-009    
  0.4             5.398e-010      3.0368e-009     1.2025e-008    
  0.45            -1.3766e-009    2.7106e-009     2.5155e-008    
  0.5             -2.6644e-009    3.3312e-009     1.25e-008      
  0.55            1.5227e-009     1.0899e-008     -1.0165e-008   
  0.6             1.3039e-009     3.4557e-008     -1.1428e-008   
  0.65            -1.0163e-009    1.105e-007      8.762e-009     
  0.7             -1.4295e-009    3.4795e-007     -3.3577e-008   
  0.75            -1.822e-009     9.8913e-007     -7.8698e-008   
  0.8             -2.6423e-009    2.5112e-006     -1.9363e-007   
  0.85            -2.2942e-009    5.706e-006      -3.6445e-007   
  0.9             -1.6418e-009    1.12799e-005    -6.8518e-007   
  0.95            -2.4149e-009    1.9573e-005     -1.1282e-006   
  1               -2.6971e-009    3.1034e-005     -1.7475e-006   
  1.05            -2.6919e-009    4.5367e-005     -2.4417e-006   
  1.1             -2.54e-009      6.2753e-005     -3.2213e-006   
  1.15            -1.9937e-009    8.2469e-005     -4.0424e-006   
  1.2             -1.4535e-009    0.000104292     -4.8799e-006   
  1.25            2.6121e-009     0.0001273       -5.7071e-006   
  1.3             1.8904e-009     0.00015261      -6.5314e-006   
  1.35            1.3468e-009     0.00017937      -7.3492e-006   
  1.4             2.8341e-009     0.00020715      -8.1011e-006   
  1.45            2.7266e-009     0.00023656      -8.8159e-006   
  1.5             2.1389e-009     0.00026647      -9.4818e-006   
  1.55            1.4407e-009     0.00029731      -1.01048e-005  
  1.6             2.8162e-009     0.0003289       -1.06604e-005  
  1.65            2.7962e-009     0.00036171      -1.115e-005    
  1.7             -2.0059e-009    0.0003952       -1.158e-005    
  1.75            -1.4521e-009    0.00042871      -1.198e-005    
  1.8             -1.3755e-009    0.00046282      -1.2301e-005   
  1.85            -2.6219e-009    0.0004974       -1.2568e-005   
  1.9             -2.1933e-009    0.00053179      -1.2806e-005   
  1.95            -1.5606e-009    0.00056707      -1.2979e-005   
  2               -1.3725e-009    0.00060269      -1.3096e-005   
  2.05            -2.6667e-009    0.00063863      -1.3172e-005   
  2.1             -2.3797e-009    0.00067422      -1.322e-005    
  2.15            -1.7362e-009    0.00071066      -1.3223e-005   
  2.2             -1.3855e-009    0.00074717      -1.3174e-005   
  2.25            -2.6853e-009    0.00078396      -1.3097e-005   
  2.3             -2.5171e-009    0.0008204       -1.3006e-005   
  2.35            -1.9456e-009    0.00085767      -1.2875e-005   
  2.4             -1.4342e-009    0.00089481      -1.2712e-005   
  2.45            -1.3771e-009    0.00093227      -1.2534e-005   
  2.5             -2.6159e-009    0.00096965      -1.2327e-005   
  2.55            -2.165e-009     0.00100691      -1.2116e-005   
  2.6             -1.5435e-009    0.00104457      -1.1879e-005   
  2.65            -1.3707e-009    0.00108226      -1.1622e-005   
  2.7             -2.6615e-009    0.0011202       -1.1363e-005   
  2.75            2.8338e-009     0.0011579       -1.1089e-005   
  2.8             2.687e-009      0.0011963       -1.0826e-005   
  2.85            2.0501e-009     0.001234        -1.0541e-005   
  2.9             1.4021e-009     0.0012718       -1.0254e-005   
  2.95            -1.3692e-009    0.0013107       -9.9326e-006   
  3               -2.5105e-009    0.001349        -9.6411e-006   
  3.05            -1.9209e-009    0.0013866       -9.3502e-006   
  3.1             -1.4292e-009    0.0014248       -9.0463e-006   
  3.15            -1.3772e-009    0.001463        -8.7449e-006   
  3.2             -2.6098e-009    0.0015014       -8.4484e-006   
  3.25            -2.1237e-009    0.0015391       -8.1642e-006   
  3.3             -1.5046e-009    0.0015773       -7.8708e-006   
  3.35            -1.3775e-009    0.0016154       -7.5848e-006   
  3.4             -2.6569e-009    0.0016537       -7.3004e-006   
  3.45            -2.3104e-009    0.0016917       -7.0354e-006   
  3.5             -1.6434e-009    0.0017297       -6.7617e-006   
  3.55            -1.3813e-009    0.001768        -6.4946e-006   
  3.6             -2.6806e-009    0.0018058       -6.2348e-006   
  3.65            -2.4735e-009    0.001844        -5.9909e-006   
  3.7             -1.8255e-009    0.0018817       -5.7442e-006   
  3.75            -1.406e-009     0.0019198       -5.4987e-006   
  3.8             -1.3827e-009    0.0019578       -5.2638e-006   
  3.85            -2.5961e-009    0.0019957       -5.0356e-006   
  3.9             -2.0412e-009    0.0020334       -4.8286e-006   
  3.95            -1.4709e-009    0.0020711       -4.6182e-006   
  4               -1.381e-009     0.0021093       -4.4108e-006   
  4.05            -2.6556e-009    0.002147        -4.213e-006    
  4.1             -2.2492e-009    0.0021845       -4.0342e-006   
  4.15            -1.594e-009     0.0022221       -3.8519e-006   
  4.2             -1.3763e-009    0.0022599       -3.671e-006    
  4.25            -2.6838e-009    0.0022974       -3.5009e-006   
  4.3             -2.4304e-009    0.0023346       -3.3486e-006   
  4.35            -1.7754e-009    0.002372        -3.1901e-006   
  4.4             -1.3955e-009    0.0024099       -3.0368e-006   
  4.45            -1.3792e-009    0.0024474       -2.8892e-006   
  4.5             -2.5679e-009    0.0024848       -2.7483e-006   
  4.55            -1.9946e-009    0.0025215       -2.6309e-006   
  4.6             -1.4486e-009    0.0025588       -2.4994e-006   
  4.65            -1.3807e-009    0.0025957       -2.3782e-006   
  4.7             -2.6383e-009    0.0026328       -2.2599e-006   
  4.75            -2.203e-009     0.0026693       -2.1591e-006   
  4.8             -1.5577e-009    0.0027061       -2.054e-006    
  4.85            -1.3733e-009    0.0027429       -1.9469e-006   
  4.9             -2.6701e-009    0.0027797       -1.8468e-006   
  4.95            -2.3827e-009    0.0028157       -1.7665e-006   
  5               -1.7389e-009    0.0028525       -1.6771e-006   
END_DB

BEGIN_DB
 ICCAP_VAR VS         0              
 ICCAP_VAR VB         -2.5           
 ICCAP_VAR VD         0.1            

 #VG              IG              ID              IB             
  0               -1.3819e-009    -6.372e-010     1.2055e-008    
  0.05            -1.3644e-009    6.798e-010      1.2913e-008    
  0.1             -2.6479e-009    8.453e-010      1.4457e-008    
  0.15            5.79e-011       -1.4192e-009    4.1e-010       
  0.2             -1.558e-010     -1.5464e-009    -1.3656e-008   
  0.25            -3.884e-010     -1.5961e-009    -1.3749e-008   
  0.3             1.3731e-009     -5.662e-010     -1.3703e-008   
  0.35            2.7775e-009     1.5957e-009     -8.725e-009    
  0.4             6.588e-010      2.8502e-009     1.1189e-008    
  0.45            8.306e-010      2.8714e-009     9.247e-009     
  0.5             -1.7651e-009    2.2372e-009     1.4335e-008    
  0.55            -1.5187e-009    1.777e-010      5.486e-009     
  0.6             -1.4107e-009    2.806e-010      7.463e-009     
  0.65            -1.3717e-009    3.824e-010      8.394e-009     
  0.7             -1.378e-009     5.021e-010      1.0347e-008    
  0.75            -1.3682e-009    6.362e-010      1.2167e-008    
  0.8             -2.6501e-009    7.92e-010       1.3439e-008    
  0.85            -1.64e-010      -1.5351e-009    -1.3241e-008   
  0.9             -3.854e-010     -1.5871e-009    -1.3776e-008   
  0.95            1.3674e-009     -5.292e-010     -1.3528e-008   
  1               2.7894e-009     1.7844e-009     -8.704e-009    
  1.05            -1.4054e-009    2.5813e-009     2.6687e-008    
  1.1             -1.3708e-009    4.7695e-009     8.779e-009     
  1.15            2.0529e-009     1.8088e-008     2.1086e-008    
  1.2             1.4078e-009     6.0092e-008     -8.946e-009    
  1.25            1.503e-010      1.8316e-007     6.762e-009     
  1.3             1.3455e-009     5.235e-007      -2.3238e-008   
  1.35            2.8309e-009     1.3694e-006     2.6953e-008    
  1.4             -1.3727e-009    3.2956e-006     2.8445e-008    
  1.45            -2.529e-009     6.4257e-006     1.3313e-008    
  1.5             -1.9517e-009    1.08848e-005    8.16e-010      
  1.55            2.5104e-009     1.6337e-005     2.797e-009     
  1.6             1.7312e-009     2.2452e-005     -5.44e-009     
  1.65            1.319e-009      2.8733e-005     -9.775e-009    
  1.7             2.8339e-009     3.4895e-005     -8.834e-009    
  1.75            2.6688e-009     4.1057e-005     -1.184e-009    
  1.8             2.0162e-009     4.6609e-005     -3.266e-009    
  1.85            1.3862e-009     5.205e-005      -9.268e-009    
  1.9             2.8301e-009     5.7224e-005     -8.628e-009    
  1.95            2.7785e-009     6.2201e-005     -7.92e-010     
  2               2.4996e-009     6.6906e-005     7.906e-009     
  2.05            -1.8333e-009    7.1442e-005     2.4992e-008    
  2.1             -1.4026e-009    7.5731e-005     5.171e-009     
  2.15            -1.3765e-009    7.9852e-005     8.653e-009     
  2.2             -2.5808e-009    8.3821e-005     1.28e-008      
  2.25            -2.0606e-009    8.7563e-005     5.91e-010      
  2.3             -1.4857e-009    9.1221e-005     4.492e-009     
  2.35            -1.3732e-009    9.4749e-005     8.108e-009     
  2.4             -2.6495e-009    9.8202e-005     1.1725e-008    
  2.45            -1.4627e-009    0.000101467     -1.0181e-008   
  2.5             -2.536e-010     0.000104555     -1.2267e-008   
  2.55            -7.69e-010      0.000107653     -1.3803e-008   
  2.6             -1.1473e-009    0.00011066      -1.0838e-008   
  2.65            1.194e-010      0.000113455     -1.0544e-008   
  2.7             -1.0735e-009    0.00011646      -2.4234e-008   
  2.75            1.883e-010      0.00011911      -1.1104e-008   
  2.8             1.3784e-009     0.00012183      -2.2303e-008   
  2.85            2.8298e-009     0.00012443      -8.639e-009    
  2.9             2.7498e-009     0.00012697      -7.39e-010     
  2.95            2.5207e-009     0.0001294       8.092e-009     
  3               -1.7777e-009    0.00013182      2.3668e-008    
  3.05            -1.3872e-009    0.0001341       5.56e-009      
  3.1             -1.369e-009     0.00013639      8.838e-009     
  3.15            -2.5457e-009    0.0001386       1.2958e-008    
  3.2             -1.9856e-009    0.0001407       5.52e-010      
  3.25            -1.4541e-009    0.0001428       4.494e-009     
  3.3             -1.3727e-009    0.00014483      8.23e-009      
  3.35            -2.6273e-009    0.00014685      1.1986e-008    
  3.4             -2.2103e-009    0.00014875      3.12e-010      
  3.45            -1.5815e-009    0.00015066      3.385e-009     
  3.5             -1.3704e-009    0.00015251      7.252e-009     
  3.55            -2.6724e-009    0.00015432      1.0947e-008    
  3.6             1.9758e-009     0.00015603      -2.3266e-008   
  3.65            1.3654e-009     0.00015776      -9.551e-009    
  3.7             2.8334e-009     0.00015941      -8.432e-009    
  3.75            2.7542e-009     0.00016108      -8.63e-010     
  3.8             2.52e-009       0.00016268      8.109e-009     
  3.85            -1.7788e-009    0.00016429      2.376e-008     
  3.9             -1.3897e-009    0.00016579      5.611e-009     
  3.95            -1.3703e-009    0.00016731      9.084e-009     
  4               -2.5466e-009    0.00016879      1.2963e-008    
  4.05            -1.9906e-009    0.0001702       5.86e-010      
  4.1             -1.4529e-009    0.00017158      4.776e-009     
  4.15            -1.3741e-009    0.00017295      8.186e-009     
