! VERSION = 6.00
BEGIN_HEADER
 ICCAP_INPUTS
  VG         V  B GROUND SMU4 0.001 LIN        1    0          5          101  0.05      
  VS         V  E GROUND SMU2 0.1 CON        0
  VB         V  C GROUND SMU3 0.1 LIN        3    0          -5         3    -2.5      
  VD         V  S GROUND SMU1 0.1 LIN        2    0.1        5          2    4.9       
 ICCAP_OUTPUTS
  IG         I  B GROUND SMU4 B
  ID         I  S GROUND SMU1 B
  IB         I  C GROUND SMU3 B
END_HEADER

BEGIN_DB
 ICCAP_VAR VS         0              
 ICCAP_VAR VB         0              
 ICCAP_VAR VD         0.1            

 #VG              IG              ID              IB             
  0               2.7416e-009     -4.955e-010     -2.2116e-008   
  0.05            8.052e-010      2.2872e-009     -1.677e-009    
  0.1             -1.6344e-009    1.6486e-009     1.4375e-008    
  0.15            -7.644e-010     -2.0041e-009    5.17e-009      
  0.2             1.9855e-009     -1.4069e-009    -1.584e-008    
  0.25            1.3912e-009     1.9069e-009     -7.351e-009    
  0.3             -2.055e-009     7.222e-010      1.5969e-008    
  0.35            -4.524e-010     -1.858e-009     3.298e-009     
  0.4             2.4313e-009     -8.763e-010     -2.2582e-008   
  0.45            2.1549e-009     1.8737e-009     -3.91e-009     
  0.5             1.8643e-009     4.8961e-009     -5.649e-009    
  0.55            -2.5802e-009    1.2867e-008     -1.8024e-008   
  0.6             2.5087e-009     5.7811e-008     -2.4947e-008   
  0.65            -7.326e-010     1.907e-007      1.1041e-008    
  0.7             1.6483e-009     6.982e-007      -1.6811e-008   
  0.75            2.4003e-009     1.8965e-006     1.7328e-008    
  0.8             -1.3864e-009    5.3036e-006     2.025e-008     
  0.85            -7.18e-010      1.1435e-005     1.9318e-008    
  0.9             -1.5911e-009    2.1185e-005     1.9585e-008    
  0.95            -2.5417e-009    3.4378e-005     5.555e-009     
  1               2.6122e-009     4.9626e-005     -2.4181e-008   
  1.05            5.792e-010      6.7119e-005     9.397e-009     
  1.1             -1.632e-009     8.5191e-005     1.6688e-008    
  1.15            -2.5271e-009    0.000103786     5.206e-009     
  1.2             -1.2438e-009    0.00012223      -2.5113e-008   
  1.25            2.4209e-009     0.00013998      -2.5186e-008   
  1.3             1.7344e-009     0.00015764      -4.1e-009      
  1.35            2.5451e-009     0.00017499      -8.966e-009    
  1.4             -2.3493e-009    0.0001926       1.1206e-008    
  1.45            -1.7511e-009    0.00020928      1.883e-009     
  1.5             -1.3306e-009    0.00022562      4.599e-009     
  1.55            -2.6114e-009    0.00024152      8.841e-009     
  1.6             2.2733e-009     0.0002568       -2.4586e-008   
  1.65            1.5715e-009     0.00027215      -4.976e-009    
  1.7             2.6112e-009     0.00028691      -9.339e-009    
  1.75            -2.3695e-009    0.00030178      2.5193e-008    
  1.8             -1.7742e-009    0.00031613      1.691e-009     
  1.85            -1.342e-009     0.0003301       4.437e-009     
  1.9             -2.6134e-009    0.0003438       8.538e-009     
  1.95            2.3042e-009     0.00035687      -2.4882e-008   
  2               1.6061e-009     0.00036997      -4.66e-009     
  2.05            2.6008e-009     0.00038272      -9.431e-009    
  2.1             -2.3924e-009    0.00039555      2.4962e-008    
  2.15            -1.8088e-009    0.00040791      1.52e-009      
  2.2             -1.3543e-009    0.00041993      4.311e-009     
  2.25            -2.6092e-009    0.00043178      8.457e-009     
  2.3             2.3315e-009     0.00044318      -2.4924e-008   
  2.35            1.6331e-009     0.00045454      -4.722e-009    
  2.4             2.5914e-009     0.00046573      -9.331e-009    
  2.45            -2.4082e-009    0.00047692      2.4836e-008    
  2.5             -1.8351e-009    0.00048754      1.461e-009     
  2.55            -1.3639e-009    0.00049804      3.997e-009     
  2.6             -2.6066e-009    0.00050836      8.132e-009     
  2.65            2.3528e-009     0.00051835      -2.4977e-008   
  2.7             1.6596e-009     0.00052822      -4.402e-009    
  2.75            2.5792e-009     0.00053782      -9.252e-009    
  2.8             -2.292e-009     0.00054766      1.154e-008     
  2.85            -1.6737e-009    0.00055677      2.223e-009     
  2.9             -2.5094e-009    0.000566        4.872e-009     
  2.95            2.6715e-009     0.00057462      -1.2159e-008   
  3               -1.3841e-009    0.00058368      2.0309e-008    
  3.05            -2.6073e-009    0.0005923       7.733e-009     
  3.1             -9.972e-010     0.00060076      -9.537e-009    
  3.15            1.653e-010      0.00060862      -1.1357e-008   
  3.2             2.7209e-009     0.00061698      -2.1986e-008   
  3.25            -1.4779e-009    0.00062502      1.8633e-008    
  3.3             -2.5762e-009    0.00063279      6.508e-009     
  3.35            -9.122e-010     0.00064038      -1.0001e-008   
  3.4             2.6837e-009     0.00064752      -1.2402e-008   
  3.45            -1.4041e-009    0.00065512      2.0044e-008    
  3.5             -2.6006e-009    0.00066231      7.535e-009     
  3.55            -9.8e-010       0.0006693       -9.586e-009    
  3.6             1.813e-010      0.00067585      -1.1589e-008   
  3.65            2.7252e-009     0.0006828       -2.1377e-008   
  3.7             2.3643e-009     0.00068946      -1.69e-009     
  3.75            1.6923e-009     0.00069577      -4.24e-009     
  3.8             2.5649e-009     0.00070201      -9.187e-009    
  3.85            -2.4413e-009    0.00070833      2.4331e-008    
  3.9             -1.8961e-009    0.00071424      1.358e-009     
  3.95            -1.3901e-009    0.00072011      3.695e-009     
  4               -2.6014e-009    0.00072604      7.731e-009     
  4.05            2.4019e-009     0.00073164      -2.5258e-008   
  4.1             1.7229e-009     0.00073715      -4.074e-009    
  4.15            2.5537e-009     0.00074259      -8.961e-009    
  4.2             -2.332e-009     0.0007481       1.1267e-008    
  4.25            -1.7269e-009    0.000753        2.1e-009       
  4.3             -2.4896e-009    0.00075808      4.396e-009     
  4.35            -7.329e-010     0.00076302      -1.0784e-008   
  4.4             2.7432e-009     0.00076771      -1.6724e-008   
  4.45            2.5017e-009     0.00077262      -1.553e-009    
  4.5             -2.5024e-009    0.0007772       1.1018e-008    
  4.55            -2.0052e-009    0.00078157      1.231e-009     
  4.6             -1.4519e-009    0.00078594      3.304e-009     
  4.65            -2.5816e-009    0.0007903       6.642e-009     
  4.7             -9.265e-010     0.00079452      -1.004e-008    
  4.75            2.6756e-009     0.00079825      -1.2191e-008   
  4.8             -1.3898e-009    0.00080253      2.0516e-008    
  4.85            -2.6057e-009    0.0008064       7.843e-009     
  4.9             -9.963e-010     0.00081014      -9.602e-009    
  4.95            1.668e-010      0.0008135       -1.1411e-008   
  5               2.7172e-009     0.00081749      -2.18e-008     
END_DB

BEGIN_DB
 ICCAP_VAR VS         0              
 ICCAP_VAR VB         0              
 ICCAP_VAR VD         5              

 #VG              IG              ID              IB             
  0               1.1344e-009     1.1716e-009     8.282e-009     
  0.05            2.7353e-009     -1.05e-011      -1.1203e-008   
  0.1             7.998e-010      2.3071e-009     -1.728e-009    
  0.15            -1.6406e-009    1.6619e-009     1.4473e-008    
  0.2             -7.724e-010     -1.9879e-009    5.174e-009     
  0.25            1.962e-009      -1.3837e-009    -1.5791e-008   
  0.3             1.4032e-009     1.9233e-009     -7.401e-009    
  0.35            -2.0116e-009    8.776e-010      1.649e-008     
  0.4             1.668e-009      -9.649e-010     3.104e-009     
  0.45            2.4159e-009     2.22e-009       -9.501e-009    
  0.5             -1.5847e-009    7.5059e-009     2.0787e-008    
  0.55            2.4193e-009     2.0993e-008     1.084e-008     
  0.6             -2.5152e-009    8.1912e-008     5.047e-009     
  0.65            -2.5103e-009    2.9603e-007     -1.321e-008    
  0.7             -2.0173e-009    9.0632e-007     -6.9969e-008   
  0.75            -2.5537e-009    2.9489e-006     -1.9699e-007   
  0.8             -2.1303e-009    7.4405e-006     -5.0072e-007   
  0.85            -1.8951e-009    1.6735e-005     -1.0076e-006   
  0.9             -2.1699e-009    3.2723e-005     -1.9466e-006   
  0.95            -2.4899e-009    5.6544e-005     -3.1986e-006   
  1               -2.6163e-009    8.8857e-005     -4.7827e-006   
  1.05            8.62e-010       0.00012894      -6.6781e-006   
  1.1             1.1934e-009     0.00017819      -8.6723e-006   
  1.15            1.5803e-009     0.00023616      -1.0888e-005   
  1.2             -2.1788e-009    0.00030322      -1.3264e-005   
  1.25            -1.5714e-009    0.0003762       -1.5617e-005   
  1.3             -2.5463e-009    0.00045636      -1.7956e-005   
  1.35            -2.6111e-009    0.00054237      -2.0266e-005   
  1.4             -2.3661e-009    0.00063518      -2.2449e-005   
  1.45            -1.7849e-009    0.00073335      -2.452e-005    
  1.5             -1.3423e-009    0.00083633      -2.6454e-005   
  1.55            -2.612e-009     0.0009441       -2.8216e-005   
  1.6             -2.5093e-009    0.00105576      -2.9831e-005   
  1.65            2.4839e-009     0.0011699       -3.128e-005    
  1.7             1.841e-009      0.0012899       -3.249e-005    
  1.75            2.5017e-009     0.0014124       -3.3562e-005   
  1.8             2.7255e-009     0.0015404       -3.443e-005    
  1.85            2.6426e-009     0.0016694       -3.5143e-005   
  1.9             2.1101e-009     0.0018012       -3.5688e-005   
  1.95            2.3959e-009     0.001935        -3.606e-005    
  2               2.666e-009      0.0020728       -3.6268e-005   
  2.05            2.7191e-009     0.002212        -3.6346e-005   
  2.1             2.3628e-009     0.0023528       -3.6284e-005   
  2.15            1.69e-009       0.002495        -3.61e-005     
  2.2             2.5717e-009     0.0026394       -3.5792e-005   
  2.25            2.7412e-009     0.0027869       -3.5371e-005   
  2.3             2.5546e-009     0.0029343       -3.4869e-005   
  2.35            1.949e-009      0.0030845       -3.4274e-005   
  2.4             2.4589e-009     0.0032368       -3.3592e-005   
  2.45            2.712e-009      0.0033896       -3.2851e-005   
  2.5             2.6794e-009     0.003543        -3.2062e-005   
  2.55            2.2141e-009     0.0036976       -3.1213e-005   
  2.6             1.5539e-009     0.0038532       -3.0321e-005   
  2.65            2.6245e-009     0.004009        -2.9403e-005   
  2.7             2.7368e-009     0.0041683       -2.8453e-005   
  2.75            2.4406e-009     0.0043256       -2.749e-005    
  2.8             1.7842e-009     0.0044851       -2.6509e-005   
  2.85            2.526e-009      0.0046445       -2.5521e-005   
  2.9             2.7404e-009     0.0048069       -2.4526e-005   
  2.95            2.6188e-009     0.0049679       -2.3543e-005   
  3               2.0628e-009     0.0051294       -2.256e-005    
  3.05            2.4196e-009     0.0052915       -2.1583e-005   
  3.1             2.6871e-009     0.0054569       -2.0624e-005   
  3.15            2.7107e-009     0.0056204       -1.968e-005    
  3.2             2.3126e-009     0.0057836       -1.8761e-005   
  3.25            1.6343e-009     0.0059482       -1.7853e-005   
  3.3             2.5902e-009     0.006112        -1.697e-005    
  3.35            2.7449e-009     0.0062794       -1.611e-005    
  3.4             2.5213e-009     0.0064451       -1.528e-005    
  3.45            1.8934e-009     0.006611        -1.4475e-005   
  3.5             2.4835e-009     0.0067771       -1.3693e-005   
  3.55            2.7249e-009     0.0069449       -1.2939e-005   
  3.6             2.6626e-009     0.007111        -1.2219e-005   
  3.65            2.1695e-009     0.0072775       -1.1527e-005   
  3.7             2.3799e-009     0.0074443       -1.0859e-005   
  3.75            2.6517e-009     0.0076122       -1.0213e-005   
  3.8             -2.5177e-009    0.0077825       -9.5897e-006   
  3.85            -2.0345e-009    0.00795         -9.0173e-006   
  3.9             -1.4684e-009    0.0081173       -8.4617e-006   
  3.95            -2.5764e-009    0.0082847       -7.9311e-006   
  4               -2.5874e-009    0.0084521       -7.4385e-006   
  4.05            -2.2621e-009    0.0086193       -6.9604e-006   
  4.1             -1.6616e-009    0.0087866       -6.5095e-006   
  4.15            -2.5203e-009    0.0089566       -6.0745e-006   
  4.2             -2.6179e-009    0.0091235       -5.6796e-006   
  4.25            -2.4361e-009    0.0092902       -5.2957e-006   
  4.3             -1.8855e-009    0.009458        -4.9355e-006   
  4.35            -1.3866e-009    0.0096248       -4.5976e-006   
  4.4             -2.6059e-009    0.0097916       -4.2728e-006   
  4.45            -2.5515e-009    0.0099579       -3.9833e-006   
  4.5             -2.1327e-009    0.0101244       -3.6994e-006   
  4.55            -1.5385e-009    0.0102904       -3.4352e-006   
  4.6             -2.5601e-009    0.0104563       -3.1853e-006   
  4.65            -2.604e-009     0.0106212       -2.962e-006    
  4.7             -2.338e-009     0.0107873       -2.7408e-006   
  4.75            -1.7447e-009    0.0109526       -2.5359e-006   
  4.8             -1.3295e-009    0.0111175       -2.3427e-006   
  4.85            -2.6181e-009    0.0112823       -2.16e-006     
  4.9             2.0145e-009     0.011444        -2.0027e-006   
  4.95            2.3034e-009     0.011607        -1.8413e-006   
  5               2.5696e-009     0.01177         -1.6949e-006   
END_DB

BEGIN_DB
 ICCAP_VAR VS         0              
 ICCAP_VAR VB         -2.5           
 ICCAP_VAR VD         0.1            

 #VG              IG              ID              IB             
  0               2.7276e-009     -4.958e-010     -2.2078e-008   
  0.05            8.167e-010      2.2894e-009     -1.628e-009    
  0.1             -1.6217e-009    9.039e-010      2.0545e-008    
  0.15            -7.864e-010     -1.9973e-009    5.329e-009     
  0.2             1.9552e-009     -1.4202e-009    -1.5411e-008   
  0.25            5.683e-010      2.2317e-009     -7.556e-009    
  0.3             -2.0024e-009    7.223e-010      1.6901e-008    
  0.35            -4.858e-010     -1.9526e-009    3.312e-009     
  0.4             2.3675e-009     -1.2567e-009    -2.1617e-008   
  0.45            1.1772e-009     2.1395e-009     -4.216e-009    
  0.5             -2.3471e-009    5.049e-010      1.3166e-008    
  0.55            -1.903e-010     -1.8544e-009    1.868e-009     
  0.6             -3.886e-010     -1.9316e-009    -1.0627e-008   
  0.65            -5.854e-010     -1.9739e-009    -1.0341e-008   
  0.7             -7.762e-010     -1.9963e-009    -9.628e-009    
  0.75            1.9642e-009     -1.4173e-009    -1.5635e-008   
  0.8             5.634e-010      2.2322e-009     -7.539e-009    
  0.85            -2.0031e-009    7.198e-010      1.6759e-008    
  0.9             -4.852e-010     -1.9525e-009    3.273e-009     
  0.95            2.3779e-009     -1.2485e-009    -2.1596e-008   
  1               1.1785e-009     2.151e-009      -4.135e-009    
  1.05            -2.3529e-009    5.611e-010      1.3143e-008    
  1.1             -1.758e-010     -1.5984e-009    1.931e-009     
  1.15            2.6325e-009     2.0061e-009     -2.4978e-008   
  1.2             -1.592e-009     7.3187e-009     2.1022e-008    
  1.25            2.3382e-009     2.8016e-008     1.1359e-008    
  1.3             2.7391e-009     1.2725e-007     3.25e-009      
  1.35            2.4513e-009     4.7136e-007     -1.532e-009    
  1.4             2.0788e-009     1.7403e-006     1.1282e-008    
  1.45            1.0223e-009     5.2911e-006     7.568e-009     
  1.5             -2.39e-010      1.2926e-005     1.0951e-008    
  1.55            -7.241e-010     2.4773e-005     -1.0579e-008   
  1.6             -1.0733e-009    4.0053e-005     -9.178e-009    
  1.65            2.622e-009      5.6853e-005     -2.3983e-008   
  1.7             -1.345e-009     7.5403e-005     2.1504e-008    
  1.75            -2.6098e-009    9.419e-005      8.803e-009     
  1.8             2.2715e-009     0.000112526     -2.4402e-008   
  1.85            2.5899e-009     0.00013095      -5.508e-009    
  1.9             -1.3261e-009    0.00014929      2.2121e-008    
  1.95            -2.6126e-009    0.00016693      9.097e-009     
  2               2.2112e-009     0.00018394      -2.3935e-008   
  2.05            2.3751e-009     0.00020055      -5.449e-009    
  2.1             -1.4128e-009    0.00021717      1.9854e-008    
  2.15            -2.5916e-009    0.0002331       7.598e-009     
  2.2             -9.829e-010     0.00024871      -9.6e-009      
  2.25            1.815e-010      0.00026352      -1.1595e-008   
  2.3             2.7212e-009     0.00027829      -2.159e-008    
  2.35            2.3492e-009     0.00029273      -1.803e-009    
  2.4             1.6731e-009     0.00030691      -4.333e-009    
  2.45            2.5786e-009     0.00032048      -9.475e-009    
  2.5             -2.4097e-009    0.00033418      2.4521e-008    
  2.55            -1.839e-009     0.00034718      1.433e-009     
  2.6             -1.3693e-009    0.00035993      3.907e-009     
  2.65            -2.6047e-009    0.00037241      8.233e-009     
  2.7             2.3361e-009     0.00038445      -2.4881e-008   
  2.75            1.6453e-009     0.00039624      -4.529e-009    
  2.8             2.5854e-009     0.00040779      -9.514e-009    
  2.85            -2.2614e-009    0.00041941      1.1734e-008    
  2.9             -8.201e-010     0.00043047      -1.0389e-008   
  2.95            2.7175e-009     0.00044106      -1.4613e-008   
  3               2.3698e-009     0.00045178      -1.719e-009    
  3.05            1.6907e-009     0.00046205      -4.156e-009    
  3.1             2.5649e-009     0.00047213      -9.352e-009    
  3.15            -2.3045e-009    0.00048234      1.1341e-008    
  3.2             -1.6958e-009    0.00049183      2.047e-009     
  3.25            -2.5025e-009    0.00050142      4.69e-009      
  3.3             -7.71e-010      0.00051067      -1.0525e-008   
  3.35            2.7323e-009     0.0005196       -1.5716e-008   
  3.4             2.4435e-009     0.00052849      -1.586e-009    
  3.45            1.778e-009      0.00053717      -3.733e-009    
  3.5             2.5291e-009     0.00054558      -8.985e-009    
  3.55            -2.3631e-009    0.0005541       1.0971e-008    
  3.6             -1.7639e-009    0.00056199      1.744e-009     
  3.65            -1.334e-009     0.00057001      4.435e-009     
  3.7             -2.6036e-009    0.00057775      8.704e-009     
  3.75            2.2672e-009     0.00058525      -2.4606e-008   
  3.8             1.5642e-009     0.00059266      -4.979e-009    
  3.85            2.6133e-009     0.00059974      -9.494e-009    
  3.9             -2.1956e-009    0.00060708      1.2304e-008    
  3.95            -1.5818e-009    0.00061387      2.674e-009     
  4               -2.5379e-009    0.00062068      5.514e-009     
  4.05            -8.446e-010     0.00062731      -1.0208e-008   
  4.1             2.7149e-009     0.00063347      -1.3995e-008   
  4.15            -1.4755e-009    0.00064018      1.8498e-008    
