! VERSION = 6.00
BEGIN_HEADER
 ICCAP_INPUTS
  VG         V  B GROUND SMU4 0.001 LIN        1    0          5          101  0.05      
  VS         V  E GROUND SMU2 0.1 CON        0
  VB         V  C GROUND SMU3 0.1 LIN        3    0          -5         3    -2.5      
  VD         V  S GROUND SMU1 0.1 LIN        2    0.1        5          2    4.9       
 ICCAP_OUTPUTS
  IG         I  B GROUND SMU4 B
  ID         I  S GROUND SMU1 B
  IB         I  C GROUND SMU3 B
END_HEADER

BEGIN_DB
 ICCAP_VAR VS         0              
 ICCAP_VAR VB         0              
 ICCAP_VAR VD         0.1            

 #VG              IG              ID              IB             
  0               -8.989e-010     -4.493e-010     -1.8607e-008   
  0.05            -2.4471e-009    1.4034e-009     2.6251e-008    
  0.1             -6.8e-011       -1.5415e-009    1.246e-009     
  0.15            2.6879e-009     -7.429e-010     -2.4779e-008   
  0.2             -1.7212e-009    1.0755e-009     1.9108e-008    
  0.25            2.6871e-009     -1.2986e-009    4.64e-009      
  0.3             -1.7148e-009    1.1058e-009     1.9419e-008    
  0.35            2.6824e-009     -1.2268e-009    4.744e-009     
  0.4             -1.6957e-009    1.3922e-009     1.9472e-008    
  0.45            -1.4668e-009    1.0052e-009     4.831e-009     
  0.5             -2.44e-009      4.0266e-009     6.542e-009     
  0.55            2.6382e-009     1.5228e-008     1.7107e-008    
  0.6             -2.0932e-009    5.5038e-008     1.2766e-008    
  0.65            8.11e-010       1.8955e-007     -1.4829e-008   
  0.7             -1.3599e-009    6.8621e-007     2.0658e-008    
  0.75            -2.4964e-009    2.0275e-006     -2.0392e-008   
  0.8             -8.026e-010     5.6314e-006     -1.0437e-008   
  0.85            1.7719e-009     1.3014e-005     -1.6919e-008   
  0.9             7.566e-010      2.6252e-005     8.858e-009     
  0.95            -1.3946e-009    4.5103e-005     1.5105e-008    
  1               -2.5625e-009    6.8247e-005     7.293e-009     
  1.05            2.4023e-009     9.3098e-005     -2.5483e-008   
  1.1             2.0349e-009     0.00012006      -1.339e-009    
  1.15            2.4071e-009     0.00014655      -6.771e-009    
  1.2             -1.3276e-009    0.0001728       2.1637e-008    
  1.25            -2.5819e-009    0.00019761      8.497e-009     
  1.3             2.2368e-009     0.00022064      -2.4728e-008   
  1.35            2.3352e-009     0.00024333      -5.026e-009    
  1.4             -1.5257e-009    0.00026526      1.8871e-008    
  1.45            -2.5158e-009    0.00028576      5.525e-009     
  1.5             2.5695e-009     0.0003049       -2.4956e-008   
  1.55            -2.5274e-009    0.00032422      2.3025e-008    
  1.6             -2.051e-009     0.00034214      1.217e-009     
  1.65            -1.4652e-009    0.00035962      3.284e-009     
  1.7             -2.5371e-009    0.00037633      6.063e-009     
  1.75            -9.088e-010     0.00039233      -9.959e-009    
  1.8             2.6787e-009     0.00040752      -1.2083e-008   
  1.85            -1.3726e-009    0.00042314      2.0161e-008    
  1.9             -2.5732e-009    0.00043772      7.793e-009     
  1.95            -1.0045e-009    0.00045172      -9.435e-009    
  2               2.6773e-009     0.00046515      -2.3685e-008   
  2.05            -1.372e-009     0.00047875      2.0028e-008    
  2.1             -2.5726e-009    0.00049168      7.636e-009     
  2.15            2.3461e-009     0.00050389      -2.5579e-008   
  2.2             1.633e-009      0.00051615      -4.26e-009     
  2.25            2.5519e-009     0.00052797      -9.311e-009    
  2.3             -2.4025e-009    0.00053974      2.5403e-008    
  2.35            -1.7986e-009    0.00055088      1.633e-009     
  2.4             -1.339e-009     0.00056204      4.004e-009     
  2.45            -2.5791e-009    0.00057279      8.201e-009     
  2.5             2.2861e-009     0.00058302      -2.5174e-008   
  2.55            2.3178e-009     0.00059325      -4.704e-009    
  2.6             -1.5661e-009    0.00060335      1.9508e-008    
  2.65            -2.5074e-009    0.0006129       5.287e-009     
  2.7             2.5966e-009     0.00062231      -2.4842e-008   
  2.75            5.903e-010      0.00063166      9.435e-009     
  2.8             -1.5668e-009    0.00064078      1.6603e-008    
  2.85            -2.5021e-009    0.00064951      5.265e-009     
  2.9             2.593e-009      0.00065801      -2.512e-008    
  2.95            5.914e-010      0.00066656      9.371e-009     
  3               -1.5701e-009    0.00067488      1.9439e-008    
  3.05            -2.5016e-009    0.00068286      5.297e-009     
  3.1             2.5911e-009     0.00069069      -2.493e-008    
  3.15            5.864e-010      0.00069846      9.347e-009     
  3.2             -1.5724e-009    0.00070606      1.9566e-008    
  3.25            -2.5002e-009    0.00071335      5.22e-009      
  3.3             2.5982e-009     0.00072048      -2.4987e-008   
  3.35            5.86e-010       0.00072765      9.382e-009     
  3.4             -1.5757e-009    0.00073475      1.6543e-008    
  3.45            -2.5031e-009    0.00074126      5.207e-009     
  3.5             2.5994e-009     0.00074776      -2.4815e-008   
  3.55            5.831e-010      0.00075437      9.403e-009     
  3.6             -1.5736e-009    0.0007608       1.9556e-008    
  3.65            -2.5024e-009    0.00076693      5.199e-009     
  3.7             2.5961e-009     0.00077283      -2.4811e-008   
  3.75            5.855e-010      0.00077882      9.335e-009     
  3.8             -1.5791e-009    0.00078471      1.9547e-008    
  3.85            -2.4992e-009    0.00079033      5.223e-009     
  3.9             2.6003e-009     0.00079585      -2.495e-008    
  3.95            5.822e-010      0.00080132      9.324e-009     
  4               -1.5786e-009    0.00080683      1.6513e-008    
  4.05            -2.4991e-009    0.00081192      5.169e-009     
  4.1             2.601e-009      0.00081697      -2.4969e-008   
  4.15            5.769e-010      0.00082209      9.423e-009     
  4.2             -1.5845e-009    0.00082703      1.6416e-008    
  4.25            -2.4975e-009    0.00083168      5.174e-009     
  4.3             2.6014e-009     0.00083631      -2.4656e-008   
  4.35            5.807e-010      0.00084092      9.464e-009     
  4.4             -1.5847e-009    0.00084551      1.637e-008     
  4.45            -2.4965e-009    0.00084973      5.202e-009     
  4.5             -8.322e-010     0.00085394      -1.0102e-008   
  4.55            2.7142e-009     0.00085792      -1.3584e-008   
  4.6             -1.5923e-009    0.00086243      1.9961e-008    
  4.65            -2.4994e-009    0.0008663       5.231e-009     
  4.7             2.6136e-009     0.00087025      -2.4688e-008   
  4.75            5.732e-010      0.00087412      9.481e-009     
  4.8             -1.5936e-009    0.00087797      1.6387e-008    
  4.85            -2.4952e-009    0.00088146      4.983e-009     
  4.9             2.6157e-009     0.00088503      -2.4632e-008   
  4.95            5.728e-010      0.00088857      9.431e-009     
  5               -1.6008e-009    0.00089209      1.6434e-008    
END_DB

BEGIN_DB
 ICCAP_VAR VS         0              
 ICCAP_VAR VB         0              
 ICCAP_VAR VD         5              

 #VG              IG              ID              IB             
  0               -1.0194e-009    -5.556e-010     -1.3568e-008   
  0.05            -1.8485e-009    1.0414e-009     1.7446e-008    
  0.1             2.7234e-009     -1.2247e-009    3.721e-009     
  0.15            1.7686e-009     1.6335e-009     -1.922e-009    
  0.2             -2.5736e-009    5.402e-010      1.0999e-008    
  0.25            2.1701e-009     -1.0179e-009    -1.8559e-008   
  0.3             2.2201e-009     1.4272e-009     -5.648e-009    
  0.35            -1.997e-009     1.3059e-009     1.5867e-008    
  0.4             -1.7027e-009    1.107e-009      3.111e-009     
  0.45            -1.4848e-009    4.8125e-009     3.884e-009     
  0.5             2.7093e-009     1.9276e-008     1.8157e-008    
  0.55            2.6325e-009     7.0614e-008     -7.103e-009    
  0.6             2.4706e-009     2.7238e-007     -2.878e-008    
  0.65            1.7792e-009     9.6333e-007     -7.8395e-008   
  0.7             2.4527e-009     3.1386e-006     -2.1788e-007   
  0.75            2.7072e-009     8.9458e-006     -6.1931e-007   
  0.8             -2.0194e-009    2.1813e-005     -1.4278e-006   
  0.85            -2.3427e-009    4.545e-005      -2.9167e-006   
  0.9             -2.5572e-009    8.2379e-005     -5.0561e-006   
  0.95            -2.4649e-009    0.00013364      -7.8113e-006   
  1               -1.907e-009     0.000199        -1.11289e-005  
  1.05            2.732e-009      0.00027539      -1.4794e-005   
  1.1             2.5176e-009     0.00036506      -1.8616e-005   
  1.15            1.8675e-009     0.00046321      -2.2625e-005   
  1.2             2.4449e-009     0.00056984      -2.665e-005    
  1.25            2.6979e-009     0.00068469      -3.0537e-005   
  1.3             2.6511e-009     0.00080443      -3.4339e-005   
  1.35            2.1122e-009     0.00092917      -3.7926e-005   
  1.4             2.3611e-009     0.00105833      -4.1305e-005   
  1.45            -1.9079e-009    0.0011938       -4.4427e-005   
  1.5             -2.1904e-009    0.0013301       -4.7343e-005   
  1.55            -2.4852e-009    0.0014698       -4.9923e-005   
  1.6             -2.5993e-009    0.0016112       -5.2225e-005   
  1.65            -2.4227e-009    0.001755        -5.4251e-005   
  1.7             -1.8352e-009    0.0019022       -5.602e-005    
  1.75            -1.3611e-009    0.00205         -5.7524e-005   
  1.8             -2.5749e-009    0.0021999       -5.8769e-005   
  1.85            -2.5335e-009    0.002348        -5.9796e-005   
  1.9             -2.0486e-009    0.0025007       -6.0584e-005   
  1.95            -1.4675e-009    0.0026538       -6.1156e-005   
  2               -2.5368e-009    0.0028077       -6.1511e-005   
  2.05            -2.582e-009     0.0029596       -6.1701e-005   
  2.1             -2.2572e-009    0.0031148       -6.1681e-005   
  2.15            -1.632e-009     0.0032711       -6.1501e-005   
  2.2             -2.4791e-009    0.0034273       -6.1178e-005   
  2.25            -2.5947e-009    0.0035823       -6.072e-005    
  2.3             -2.4223e-009    0.0037389       -6.0123e-005   
  2.35            -1.8378e-009    0.0038966       -5.9402e-005   
  2.4             -1.3615e-009    0.004057        -5.8575e-005   
  2.45            -2.5799e-009    0.0042151       -5.7651e-005   
  2.5             -2.531e-009     0.004371        -5.6664e-005   
  2.55            -2.0665e-009    0.0045298       -5.5587e-005   
  2.6             -1.4737e-009    0.0046887       -5.4451e-005   
  2.65            -2.5337e-009    0.0048468       -5.3256e-005   
  2.7             -2.5781e-009    0.0050036       -5.2029e-005   
  2.75            -2.2617e-009    0.0051624       -5.0749e-005   
  2.8             -1.6451e-009    0.0053216       -4.9439e-005   
  2.85            -2.4843e-009    0.0054809       -4.8108e-005   
  2.9             -2.5936e-009    0.0056379       -4.6777e-005   
  2.95            -2.4251e-009    0.0057964       -4.5417e-005   
  3               -1.8424e-009    0.0059552       -4.4048e-005   
  3.05            -1.3572e-009    0.0061144       -4.2685e-005   
  3.1             -2.5789e-009    0.0062726       -4.1314e-005   
  3.15            -2.5283e-009    0.0064292       -3.9966e-005   
  3.2             -2.0699e-009    0.0065877       -3.8623e-005   
  3.25            -1.4725e-009    0.0067465       -3.729e-005    
  3.3             -2.5385e-009    0.0069044       -3.5981e-005   
  3.35            -2.5824e-009    0.0070604       -3.4695e-005   
  3.4             -2.2589e-009    0.0072177       -3.3425e-005   
  3.45            -1.632e-009     0.0073762       -3.2178e-005   
  3.5             -2.4874e-009    0.0075337       -3.0955e-005   
  3.55            -2.5938e-009    0.0076896       -2.9774e-005   
  3.6             -2.4117e-009    0.0078461       -2.861e-005    
  3.65            -1.8355e-009    0.0080032       -2.7473e-005   
  3.7             -1.3533e-009    0.0081601       -2.6384e-005   
  3.75            -2.5769e-009    0.0083166       -2.5303e-005   
  3.8             -2.5245e-009    0.0084702       -2.4265e-005   
  3.85            -2.0476e-009    0.0086262       -2.3261e-005   
  3.9             -1.4595e-009    0.0087825       -2.2279e-005   
  3.95            -2.5419e-009    0.0089376       -2.1335e-005   
  4               -2.5782e-009    0.009091        -2.0432e-005   
  4.05            -2.2385e-009    0.0092455       -1.9548e-005   
  4.1             -1.6133e-009    0.0094004       -1.8698e-005   
  4.15            -2.4889e-009    0.0095568       -1.7866e-005   
  4.2             -2.5965e-009    0.0097093       -1.7085e-005   
  4.25            -2.3948e-009    0.0098623       -1.633e-005    
  4.3             -1.7973e-009    0.0100158       -1.5598e-005   
  4.35            -1.3399e-009    0.0101685       -1.4898e-005   
  4.4             -2.5826e-009    0.0103212       -1.4223e-005   
  4.45            -2.5094e-009    0.0104714       -1.3591e-005   
  4.5             -2.0024e-009    0.0106232       -1.2969e-005   
  4.55            -1.4374e-009    0.0107753       -1.2373e-005   
  4.6             -2.5412e-009    0.0109262       -1.1801e-005   
  4.65            -2.5701e-009    0.0110744       -1.1267e-005   
  4.7             -2.2105e-009    0.0112252       -1.074e-005    
  4.75            -1.5861e-009    0.0113748       -1.0238e-005   
  4.8             1.9738e-009     0.01152         -9.7904e-006   
  4.85            2.4295e-009     0.01167         -9.3237e-006   
  4.9             2.6922e-009     0.01182         -8.8745e-006   
  4.95            2.6877e-009     0.011969        -8.4524e-006   
  5               2.1894e-009     0.012115        -8.0488e-006   
END_DB

BEGIN_DB
 ICCAP_VAR VS         0              
 ICCAP_VAR VB         -2.5           
 ICCAP_VAR VD         0.1            

 #VG              IG              ID              IB             
  0               2.5549e-009     2.5223e-009     -1.5581e-008   
  0.05            3.751e-010      2.3793e-009     9.313e-009     
  0.1             -2.2392e-009    8.281e-010      1.3822e-008    
  0.15            2.6869e-009     -7.268e-010     -1.021e-008    
  0.2             -1.6719e-009    1.1136e-009     1.947e-008     
  0.25            2.6806e-009     -1.299e-009     4.736e-009     
  0.3             -1.8233e-009    1.772e-009      1.7941e-008    
  0.35            2.7145e-009     -1.255e-009     4.176e-009     
  0.4             1.7882e-009     1.5889e-009     -1.889e-009    
  0.45            -2.5578e-009    5.28e-010       1.1032e-008    
  0.5             2.1391e-009     -1.0805e-009    -1.8213e-008   
  0.55            2.2383e-009     1.3176e-009     -5.927e-009    
  0.6             -1.9683e-009    9.762e-010      1.646e-008     
  0.65            -5.116e-010     -1.6729e-009    3.58e-009      
  0.7             2.3206e-009     -1.0006e-009    -2.0791e-008   
  0.75            2.1672e-009     1.3438e-009     -4.4e-009      
  0.8             -2.131e-009     9.005e-010      1.4441e-008    
  0.85            -3.775e-010     -1.6035e-009    2.921e-009     
  0.9             2.6882e-009     -5.66e-010      -1.0114e-008   
  0.95            -1.6533e-009    1.9227e-009     1.9711e-008    
  1               -1.4329e-009    3.6549e-009     4.798e-009     
  1.05            2.642e-009      1.7031e-008     2.6032e-008    
  1.1             -1.3499e-009    7.3145e-008     2.096e-008     
  1.15            1.2968e-009     2.8225e-007     -2.0879e-008   
  1.2             -1.7612e-009    1.10578e-006    1.454e-008     
  1.25            -2.2406e-009    3.4526e-006     -1.6042e-008   
  1.3             1.7555e-009     9.2226e-006     -1.8603e-008   
  1.35            -1.9883e-009    2.0683e-005     -5.812e-009    
  1.4             -1.4211e-009    3.7995e-005     3.231e-009     
  1.45            -2.5555e-009    6.0838e-005     6.726e-009     
  1.5             2.4385e-009     8.6145e-005     -2.5425e-008   
  1.55            -1.133e-009     0.00011453      -2.5497e-008   
  1.6             2.5288e-009     0.00014123      -2.5343e-008   
  1.65            6.492e-010      0.00016835      9.238e-009     
  1.7             -1.501e-009     0.00019419      1.765e-008     
  1.75            -2.5299e-009    0.00021845      5.872e-009     
  1.8             2.52e-009       0.00024095      -2.5273e-008   
  1.85            6.568e-010      0.00026318      9.239e-009     
  1.9             -1.4896e-009    0.00028407      1.7772e-008    
  1.95            -2.5385e-009    0.0003037       6.023e-009     
  2               2.5296e-009     0.00032201      -2.5185e-008   
  2.05            -2.5002e-009    0.00034052      1.1419e-008    
  2.1             -1.996e-009     0.00035741      1.209e-009     
  2.15            -1.4349e-009    0.00037401      3.202e-009     
  2.2             -2.5554e-009    0.0003899       6.729e-009     
  2.25            2.4567e-009     0.00040467      -2.5231e-008   
  2.3             1.7739e-009     0.00041943      -3.806e-009    
  2.35            2.5071e-009     0.00043345      -8.906e-009    
  2.4             -2.3503e-009    0.00044781      1.0948e-008    
  2.45            -1.7409e-009    0.00046076      1.995e-009     
  2.5             -2.4531e-009    0.00047355      4.575e-009     
  2.55            -7.316e-010     0.00048577      -1.0558e-008   
  2.6             2.7214e-009     0.0004976       -1.6533e-008   
  2.65            2.4613e-009     0.00050951      -1.624e-009    
  2.7             -2.4674e-009    0.00052098      1.1085e-008    
  2.75            -1.9375e-009    0.0005317       1.286e-009     
  2.8             -1.404e-009     0.00054245      3.577e-009     
  2.85            -2.5665e-009    0.00055295      7.289e-009     
  2.9             2.4075e-009     0.00056284      -2.5273e-008   
  2.95            1.7073e-009     0.00057277      -4.186e-009    
  3               2.5322e-009     0.00058223      -9.312e-009    
  3.05            -2.429e-009     0.00059189      2.4482e-008    
  3.1             -1.8684e-009    0.00060078      1.503e-009     
  3.15            -1.3638e-009    0.00060964      3.857e-009     
  3.2             -2.5807e-009    0.00061843      7.861e-009     
  3.25            2.342e-009      0.00062677      -2.5223e-008   
  3.3             1.6312e-009     0.00063507      -4.552e-009    
  3.35            2.5636e-009     0.00064298      -9.484e-009    
  3.4             -2.3857e-009    0.00065105      2.4927e-008    
  3.45            -1.7962e-009    0.00065853      1.728e-009     
  3.5             -2.4372e-009    0.00066608      4.257e-009     
  3.55            -6.939e-010     0.00067331      -1.0671e-008   
  3.6             -1.0461e-009    0.00068052      -9.205e-009    
  3.65            2.6215e-009     0.00068746      -2.3729e-008   
  3.7             -1.3462e-009    0.00069442      2.105e-008     
  3.75            -2.5851e-009    0.00070104      8.514e-009     
  3.8             2.2624e-009     0.00070745      -2.4408e-008   
  3.85            2.3282e-009     0.00071386      -5.282e-009    
  3.9             -1.5678e-009    0.00072012      1.9586e-008    
  3.95            -2.5294e-009    0.00072611      5.7e-009       
  4               2.5612e-009     0.00073209      -2.4388e-008   
  4.05            6.25e-010       0.00073793      9.364e-009     
  4.1             -1.5563e-009    0.00074376      1.7537e-008    
  4.15            -2.5292e-009    0.00074928      5.755e-009     
