! VERSION = 6.00
BEGIN_HEADER
 ICCAP_INPUTS
  VG         V  B GROUND SMU4 0.001 LIN        2    0          5          6    1         
  VS         V  E GROUND SMU2 0.1 CON        0
  VD         V  S GROUND SMU1 0.1 LIN        1    0          5          101  0.05      
  VB         V  C GROUND SMU3 0.1 LIN        3    0          -2.5       2    -2.5      
 ICCAP_OUTPUTS
  ID         I  S GROUND SMU1 B
  IB         I  C GROUND SMU3 B
  IG         I  B GROUND SMU4 B
END_HEADER

BEGIN_DB
 ICCAP_VAR VG         0              
 ICCAP_VAR VS         0              
 ICCAP_VAR VB         0              

 #VD              ID              IB              IG             
  0               1.6194e-009     8.019e-009      1.3133e-009    
  0.05            1.5479e-009     -1.2754e-008    2.3603e-009    
  0.1             1.7123e-009     2.8353e-008     -1.3835e-009   
  0.15            3.899e-010      1.1591e-008     -1.3814e-009   
  0.2             5.348e-010      1.285e-008      -2.6956e-009   
  0.25            -1.098e-009     -2.3223e-008    2.4243e-009    
  0.3             1.5511e-009     -6.294e-009     2.4026e-009    
  0.35            1.7623e-009     2.802e-008      -1.384e-009    
  0.4             4.324e-010      1.2031e-008     -1.3775e-009   
  0.45            5.81e-010       1.3149e-008     -2.6843e-009   
  0.5             -1.1915e-009    -9.755e-009     2.1289e-009    
  0.55            1.5457e-009     -8.611e-009     2.5367e-009    
  0.6             1.9034e-009     2.3829e-008     -1.3797e-009   
  0.65            5.811e-010      1.3207e-008     -2.6811e-009   
  0.7             -1.1906e-009    -9.891e-009     2.1389e-009    
  0.75            1.5476e-009     -8.503e-009     2.53e-009      
  0.8             1.9005e-009     2.3981e-008     -1.3778e-009   
  0.85            5.809e-010      1.323e-008      -2.683e-009    
  0.9             -1.1209e-009    -2.1954e-008    2.3568e-009    
  0.95            1.5537e-009     -6.857e-009     2.4444e-009    
  1               1.8073e-009     2.7399e-008     -1.3849e-009   
  1.05            4.765e-010      1.2369e-008     -1.3716e-009   
  1.1             6.282e-010      1.3698e-008     -2.6695e-009   
  1.15            -1.1518e-009    -2.0236e-008    2.2675e-009    
  1.2             1.5539e-009     -7.652e-009     2.4796e-009    
  1.25            1.8472e-009     2.6348e-008     -1.3845e-009   
  1.3             5.161e-010      1.2566e-008     -2.7003e-009   
  1.35            -1.0739e-009    -2.4053e-008    1.3137e-009    
  1.4             1.5559e-009     -1.3149e-008    2.3833e-009    
  1.45            1.0211e-009     1.7628e-008     -2.302e-009    
  1.5             -1.7784e-009    2.9e-009        -4.098e-010    
  1.55            -1.7851e-009    -1.3223e-008    -6.273e-010    
  1.6             -9.098e-010     -1.1734e-008    1.3166e-009    
  1.65            1.5753e-009     -9.817e-009     2.2107e-009    
  1.7             2.7274e-009     9.311e-009      8.518e-010     
  1.75            2.1116e-009     1.4672e-008     -1.7639e-009   
  1.8             -1.4036e-009    5.95e-009       2.857e-010     
  1.85            -4.625e-010     -2.06e-008      1.8639e-009    
  1.9             1.5365e-009     -9.84e-009      2.6293e-009    
  1.95            2.6182e-009     1.194e-008      2.627e-010     
  2               2.68e-009       1.207e-008      4.607e-010     
  2.05            1.8166e-009     2.7363e-008     -1.3846e-009   
  2.1             4.827e-010      1.2327e-008     -1.3704e-009   
  2.15            6.4e-010        1.3886e-008     -2.6653e-009   
  2.2             -1.551e-009     4.53e-010       1.006e-010     
  2.25            -1.6865e-009    -1.2907e-008    -8.4e-011      
  2.3             -1.7625e-009    -1.3499e-008    -3.155e-010    
  2.35            -1.7818e-009    -1.3431e-008    -5.392e-010    
  2.4             -8.367e-010     -1.245e-008     1.3316e-009    
  2.45            1.6201e-009     -9.11e-009      2.1461e-009    
  2.5             2.7289e-009     1.0277e-008     7.835e-010     
  2.55            2.0535e-009     1.7099e-008     -1.882e-009    
  2.6             -1.349e-009     5.211e-009      1.5009e-009    
  2.65            1.4846e-009     -8.701e-009     2.7635e-009    
  2.7             2.6985e-009     1.206e-008      5.291e-010     
  2.75            1.8688e-009     2.5722e-008     -1.3829e-009   
  2.8             5.373e-010      1.2727e-008     -1.3608e-009   
  2.85            7.033e-010      1.4489e-008     -2.637e-009    
  2.9             -1.5946e-009    5.21e-010       4.45e-011      
  2.95            -1.7148e-009    -1.3246e-008    -1.686e-010    
  3               -1.7683e-009    -1.3562e-008    -3.989e-010    
  3.05            -1.7747e-009    -1.3254e-008    -6.162e-010    
  3.1             -8.983e-010     -1.187e-008     1.3186e-009    
  3.15            1.5906e-009     -9.732e-009     2.2037e-009    
  3.2             2.7418e-009     9.482e-009      8.479e-010     
  3.25            2.115e-009      1.5041e-008     -1.7745e-009   
  3.3             -1.3885e-009    6.076e-009      2.936e-010     
  3.35            -4.481e-010     -2.0597e-008    1.8674e-009    
  3.4             1.5505e-009     -9.905e-009     2.622e-009     
  3.45            2.6277e-009     1.1814e-008     2.556e-010     
  3.5             2.6929e-009     1.1827e-008     4.629e-010     
  3.55            1.8281e-009     2.7329e-008     -1.3833e-009   
  3.6             5.005e-010      1.2202e-008     -1.3701e-009   
  3.65            6.532e-010      1.3738e-008     -2.6641e-009   
  3.7             -1.5355e-009    4.07e-010       9.35e-011      
  3.75            -1.669e-009     -1.2889e-008    -9.83e-011     
  3.8             -1.744e-009     -1.3455e-008    -3.209e-010    
  3.85            -1.763e-009     -1.3472e-008    -5.403e-010    
  3.9             -8.27e-010      -1.2861e-008    1.3303e-009    
  3.95            1.4138e-009     -9.048e-009     2.8417e-009    
  4               2.3085e-009     -3.48e-010      1.6011e-009    
  4.05            2.0228e-009     1.0423e-008     1.7832e-009    
  4.1             2.6884e-009     1.1958e-008     3.918e-010     
  4.15            2.736e-009      1.1449e-008     5.875e-010     
  4.2             1.928e-009      2.4023e-008     -1.3782e-009   
  4.25            6.148e-010      1.3264e-008     -2.6814e-009   
  4.3             -1.6545e-009    -1.2846e-008    -1.013e-010    
  4.35            -1.7298e-009    -1.3516e-008    -3.335e-010    
  4.4             -1.7477e-009    -1.3398e-008    -5.558e-010    
  4.45            -8.138e-010     -1.2324e-008    1.3269e-009    
  4.5             1.4365e-009     -9.26e-009      2.8408e-009    
  4.55            2.3091e-009     -3.98e-010      1.6103e-009    
  4.6             2.0359e-009     1.0433e-008     1.7868e-009    
  4.65            2.0604e-009     1.8735e-008     -1.9642e-009   
  4.7             -1.2758e-009    4.632e-009      1.5559e-009    
  4.75            1.553e-009      -9.182e-009     2.7359e-009    
  4.8             2.7412e-009     1.1926e-008     4.752e-010     
  4.85            1.8814e-009     2.6981e-008     -1.3843e-009   
  4.9             5.621e-010      1.2226e-008     -1.3695e-009   
  4.95            7.229e-010      1.3961e-008     -2.6593e-009   
  5               -1.6643e-009    -1.324e-008     -2.038e-010    
END_DB

BEGIN_DB
 ICCAP_VAR VG         1              
 ICCAP_VAR VS         0              
 ICCAP_VAR VB         0              

 #VD              ID              IB              IG             
  0               -5.2291e-007    -1.3431e-008    9.871e-010     
  0.05            3.7878e-005     -5.346e-009     -1.3852e-009   
  0.1             6.1372e-005     1.197e-008      5.176e-010     
  0.15            7.4118e-005     -9.846e-009     1.3211e-009    
  0.2             8.1553e-005     -2.4542e-008    2.056e-009     
  0.25            8.6313e-005     -1.3583e-008    -9.098e-010    
  0.3             9.011e-005      2.6053e-008     -1.3811e-009   
  0.35            9.2414e-005     2.4582e-008     -1.817e-009    
  0.4             9.3542e-005     1.1119e-008     8.934e-010     
  0.45            9.4972e-005     -2.6495e-008    1.3119e-009    
  0.5             9.6898e-005     -1.3294e-008    -4.914e-010    
  0.55            9.9076e-005     1.933e-008      -1.5478e-009   
  0.6             9.9226e-005     9.215e-009      1.0651e-009    
  0.65            0.000100558     -2.7119e-008    2.3928e-009    
  0.7             0.000102044     -1.3748e-008    -7.378e-010    
  0.75            0.000103698     7.828e-009      -1.382e-009    
  0.8             0.000105018     2.2075e-008     -1.7262e-009   
  0.85            0.000106213     1.5042e-008     -2.4268e-009   
  0.9             0.000105677     1.0063e-008     2.0418e-009    
  0.95            0.00010692      -2.0162e-008    1.5105e-009    
  1               0.000108805     -1.0586e-008    -1.1908e-009   
  1.05            0.000110184     2.871e-008      -1.379e-009    
  1.1             0.000110247     1.2101e-008     7.121e-010     
  1.15            0.000110429     -8.545e-009     1.3153e-009    
  1.2             0.000112051     -1.3463e-008    -5.5e-010      
  1.25            0.000113742     1.9926e-008     -1.5057e-009   
  1.3             0.000113224     8.914e-009      1.1095e-009    
  1.35            0.0001145       -1.3152e-008    2.71e-011      
  1.4             0.0001164       1.7446e-008     -1.9508e-009   
  1.45            0.00011611      1.0632e-008     9.283e-010     
  1.5             0.00011695      -2.7239e-008    1.3158e-009    
  1.55            0.00011789      -1.3686e-008    -8.245e-010    
  1.6             0.00011952      8.793e-009      -1.3827e-009   
  1.65            0.00011948      1.1787e-008     7.828e-010     
  1.7             0.00011964      -2.6629e-008    1.3121e-009    
  1.75            0.00012221      -1.2088e-008    -1.7116e-009   
  1.8             0.00012267      9.562e-009      -1.988e-010    
  1.85            0.00012198      -1.9462e-008    2.4384e-009    
  1.9             0.00012338      -1.4098e-008    -8.355e-010    
  1.95            0.00012491      8.044e-009      -1.3831e-009   
  2               0.00012486      1.0614e-008     7.933e-010     
  2.05            0.00012469      -2.8396e-008    1.3131e-009    
  2.1             0.00012739      -1.4495e-008    -1.7231e-009   
  2.15            0.00012767      1.4312e-008     -1.8732e-009   
  2.2             0.00012856      1.09e-008       -2.3961e-009   
  2.25            0.00012928      5.869e-009      -2.661e-009    
  2.3             0.00012983      9.469e-009      -1.9458e-009   
  2.35            0.00013064      4.412e-009      -2.4443e-009   
  2.4             0.00013039      -1.8011e-008    -2.7122e-009   
  2.45            0.00013194      -1.328e-009     -2.3798e-009   
  2.5             0.00013125      -1.223e-008     2.1858e-009    
  2.55            0.00013218      -3.9333e-008    -4.644e-010    
  2.6             0.00013391      -1.1309e-008    -1.4664e-009   
  2.65            0.00013321      -2.9966e-008    2.6926e-009    
  2.7             0.00013443      -5.869e-008     -1.1349e-009   
  2.75            0.00013598      -2.899e-008     -1.3714e-009   
  2.8             0.00013531      -6.8042e-008    2.8497e-009    
  2.85            0.00013754      -9.4861e-008    -1.7842e-009   
  2.9             0.0001377       -8.8343e-008    -1.232e-010    
  2.95            0.00013738      -1.3254e-007    7.064e-010     
  3               0.00013727      -1.6115e-007    1.3138e-009    
  3.05            0.00013891      -1.6573e-007    -2.7259e-009   
  3.1             0.00013824      -1.7465e-007    1.3128e-009    
  3.15            0.00013977      -2.3047e-007    1.661e-009     
  3.2             0.00014078      -2.5646e-007    -2.5761e-009   
  3.25            0.00014128      -2.7216e-007    9.255e-010     
  3.3             0.00014154      -3.5492e-007    1.3142e-009    
  3.35            0.00014301      -3.798e-007     -2.7087e-009   
  3.4             0.00014184      -4.1498e-007    1.5489e-009    
  3.45            0.00014328      -4.9778e-007    2.661e-010     
  3.5             0.00014591      -5.3694e-007    -2.3583e-009   
  3.55            0.00014519      -6.153e-007     2.203e-009     
  3.6             0.00014598      -7.2264e-007    -4.737e-010    
  3.65            0.00014799      -7.7646e-007    -1.4576e-009   
  3.7             0.00014732      -8.8642e-007    2.7002e-009    
  3.75            0.00014873      -1.02463e-006   -1.1461e-009   
  3.8             0.00015018      -1.09875e-006   -1.3671e-009   
  3.85            0.000149        -1.2619e-006    1.1752e-009    
  3.9             0.00015004      -1.454e-006     1.9293e-009    
  3.95            0.00015135      -1.6001e-006    -2.4436e-009   
  4               0.00015215      -1.7462e-006    7.956e-010     
  4.05            0.00015215      -1.994e-006     1.3117e-009    
  4.1             0.00015425      -2.188e-006     -2.7262e-009   
  4.15            0.00015331      -2.387e-006     1.3906e-009    
  4.2             0.00015475      -2.672e-006     1.5499e-009    
  4.25            0.00015675      -2.942e-006     -2.6339e-009   
  4.3             0.00015732      -3.1927e-006    9.908e-010     
  4.35            0.00015787      -3.5769e-006    2.3217e-009    
  4.4             0.00015952      -3.8822e-006    -2.2338e-009   
  4.45            0.00016084      -4.2032e-006    5.882e-010     
  4.5             0.00016078      -4.6502e-006    1.3535e-009    
  4.55            0.00016314      -5.0631e-006    -2.7221e-009   
  4.6             0.00016304      -5.4503e-006    1.1911e-009    
  4.65            0.00016461      -5.9942e-006    1.8995e-009    
  4.7             0.00016645      -6.4712e-006    -2.4582e-009   
  4.75            0.00016769      -6.9399e-006    8.108e-010     
  4.8             0.00016846      -7.6065e-006    1.3127e-009    
  4.85            0.0001707       -8.1756e-006    -2.7292e-009   
  4.9             0.00017012      -8.7295e-006    1.4152e-009    
  4.95            0.0001722       -9.447e-006     1.5211e-009    
  5               0.00017487      -1.01659e-005   -2.6461e-009   
END_DB

BEGIN_DB
 ICCAP_VAR VG         2              
 ICCAP_VAR VS         0              
 ICCAP_VAR VB         0              

 #VD              ID              IB              IG             
  0               -2.7041e-006    1.1935e-008     -1.677e-010    
  0.05            0.0002112       1.45e-009       -1.4387e-009   
  0.1             0.00041643      2.703e-008      -1.3597e-009   
  0.15            0.00061072      2.7033e-008     -1.3853e-009   
  0.2             0.00079672      1.1883e-008     5.91e-010      
  0.25            0.00096884      -8.983e-009     1.315e-009     
  0.3             0.00113054      -1.2072e-008    -1.7647e-009   
  0.35            0.0012776       1.0906e-008     -1.207e-009    
  0.4             0.0014107       2.5796e-008     -1.9202e-009   
  0.45            0.0015297       2.5803e-008     -1.3875e-009   
  0.5             0.0016308       9.719e-009      1.5524e-009    
  0.55            0.0017219       -1.248e-008     2.652e-010     
  0.6             0.0018019       1.5352e-008     -2.3544e-009   
  0.65            0.001865        1.1892e-008     6.752e-010     
  0.7             0.0019166       -2.5269e-008    1.3255e-009    
  0.75            0.0019626       -1.3341e-008    -5.131e-010    
  0.8             0.0019996       7.192e-009      -1.3844e-009   
  0.85            0.0020282       1.1686e-008     5e-010         
  0.9             0.0020501       -9.424e-009     1.316e-009     
  0.95            0.0020712       -1.3473e-008    -6.031e-010    
  1               0.0020895       7.913e-009      -1.3842e-009   
  1.05            0.0021023       1.1771e-008     5.895e-010     
  1.1             0.0021126       -8.818e-009     2.8399e-009    
  1.15            0.0021276       -9.92e-009      -1.5205e-009   
  1.2             0.0021356       1.5395e-008     -1.5164e-009   
  1.25            0.0021455       2.8349e-008     -1.3783e-009   
  1.3             0.0021515       1.1953e-008     8.106e-010     
  1.35            0.0021568       -2.6648e-008    2.6232e-009    
  1.4             0.002165        -1.3596e-008    -6.752e-010    
  1.45            0.0021734       8.367e-009      -1.3853e-009   
  1.5             0.0021783       1.1977e-008     6.455e-010     
  1.55            0.0021818       -2.4818e-008    1.3362e-009    
  1.6             0.0021877       -2.0729e-008    1.8369e-009    
  1.65            0.002195        -1.1541e-008    -1.115e-009    
  1.7             0.002201        2.7768e-008     -2.0722e-009   
  1.75            0.0022035       1.1537e-008     8.646e-010     
  1.8             0.0022071       -2.6769e-008    2.5505e-009    
  1.85            0.0022131       -1.3689e-008    -7.478e-010    
  1.9             0.0022191       8.313e-009      -1.3834e-009   
  1.95            0.0022214       1.1758e-008     7.033e-010     
  2               0.0022238       -2.5893e-008    1.3197e-009    
  2.05            0.002229        -1.3706e-008    -5.385e-010    
  2.1             0.0022346       6.967e-009      -1.3845e-009   
  2.15            0.0022375       1.0837e-008     5.285e-010     
  2.2             0.002238        -2.4482e-008    1.3881e-009    
  2.25            0.0022467       -1.2504e-008    -1.4634e-009   
  2.3             0.0022493       1.2512e-008     -2.272e-009    
  2.35            0.0022527       7.321e-009      -2.6194e-009   
  2.4             0.0022553       1.0219e-008     -1.8122e-009   
  2.45            0.0022568       -3.128e-009     2.4988e-009    
  2.5             0.0022604       -2.9226e-008    -8.698e-010    
  2.55            0.0022656       5.061e-009      -1.3838e-009   
  2.6             0.0022651       -2.491e-008     2.8346e-009    
  2.65            0.0022718       -5.1413e-008    -1.4951e-009   
  2.7             0.0022731       -3.8735e-008    -1.5359e-009   
  2.75            0.0022742       -6.4562e-008    2.6466e-009    
  2.8             0.0022772       -1.05564e-007   -3.749e-010    
  2.85            0.0022819       -1.0114e-007    -1.5314e-009   
  2.9             0.0022826       -1.4705e-007    2.653e-009     
  2.95            0.0022865       -2.072e-007     -1.0705e-009   
  3               0.0022901       -2.1712e-007    -1.3762e-009   
  3.05            0.0022905       -3.0219e-007    2.8638e-009    
  3.1             0.0022971       -3.8604e-007    -1.7257e-009   
  3.15            0.0022981       -4.4885e-007    -1.873e-010    
  3.2             0.002297        -5.7636e-007    2.3997e-009    
  3.25            0.0023016       -6.8358e-007    -2.1895e-009   
  3.3             0.0023051       -7.9638e-007    5.235e-010     
  3.35            0.0023043       -9.8666e-007    1.3865e-009    
  3.4             0.0023089       -1.1376e-006    2.5276e-009    
  3.45            0.0023121       -1.3656e-006    -9.078e-010    
  3.5             0.0023167       -1.5632e-006    -1.3862e-009   
  3.55            0.0023162       -1.8548e-006    2.8432e-009    
  3.6             0.0023229       -2.1786e-006    -1.5433e-009   
  3.65            0.0023242       -2.5034e-006    -1.5016e-009   
  3.7             0.0023251       -2.914e-006     2.6744e-009    
  3.75            0.0023294       -3.3797e-006    -1.1041e-009   
  3.8             0.0023335       -3.8482e-006    -1.3719e-009   
  3.85            0.0023338       -4.4416e-006    2.8601e-009    
  3.9             0.0023403       -5.0942e-006    -1.759e-009    
  3.95            0.0023417       -5.7922e-006    -1.574e-010    
  4               0.0023422       -6.6195e-006    2.3422e-009    
  4.05            0.0023472       -7.5064e-006    -2.2209e-009   
  4.1             0.0023515       -8.4802e-006    5.642e-010     
  4.15            0.0023522       -9.6168e-006    1.3654e-009    
