! VERSION = 6.00
BEGIN_HEADER
 ICCAP_INPUTS
  VU1        V  E GROUND SMU1 0.1 CON        0
  VU2        V  S GROUND SMU4 0.1 CON        0
  VN         V  B GROUND SMU3 0.015 CON        0
  VP         V  C GROUND SMU2 0.015 LIN        1    -0.5       0.5        101  0.01      
 ICCAP_OUTPUTS
  IP         I  C GROUND SMU2 B
  IN         I  B GROUND SMU3 B
END_HEADER

BEGIN_DB
 ICCAP_VAR VU1        0              
 ICCAP_VAR VU2        0              
 ICCAP_VAR VN         0              

 #VP              IP              IN             
  -0.5            -0.0003003      0.00030015     
  -0.49           -0.00029412     0.00029407     
  -0.48           -0.000288       0.00028798     
  -0.47           -0.00028194     0.00028191     
  -0.46           -0.00027584     0.00027588     
  -0.45           -0.00026977     0.00026989     
  -0.44           -0.00026379     0.0002638      
  -0.43           -0.00025774     0.00025783     
  -0.42           -0.00025163     0.00025176     
  -0.41           -0.00024565     0.00024576     
  -0.4            -0.00023961     0.00023972     
  -0.39           -0.00023362     0.0002337      
  -0.38           -0.0002276      0.00022768     
  -0.37           -0.00022157     0.0002217      
  -0.36           -0.00021553     0.00021563     
  -0.35           -0.0002095      0.00020959     
  -0.34           -0.00020352     0.00020364     
  -0.33           -0.00019758     0.00019761     
  -0.32           -0.00019153     0.00019162     
  -0.31           -0.00018542     0.00018557     
  -0.3            -0.00017952     0.00017964     
  -0.29           -0.0001735      0.00017362     
  -0.28           -0.00016749     0.00016759     
  -0.27           -0.00016149     0.00016161     
  -0.26           -0.00015553     0.00015569     
  -0.25           -0.00014953     0.00014963     
  -0.24           -0.00014351     0.0001436      
  -0.23           -0.00013747     0.00013763     
  -0.22           -0.00013158     0.00013165     
  -0.21           -0.0001256      0.00012568     
  -0.2            -0.00011954     0.00011965     
  -0.19           -0.00011357     0.00011365     
  -0.18           -0.00010757     0.00010768     
  -0.17           -0.0001016      0.00010171     
  -0.16           -9.5703e-005    9.5756e-005    
  -0.15           -8.9708e-005    8.9687e-005    
  -0.14           -8.3686e-005    8.3728e-005    
  -0.13           -7.7766e-005    7.776e-005     
  -0.12           -7.1794e-005    7.1783e-005    
  -0.11           -6.577e-005     6.5783e-005    
  -0.1            -5.9793e-005    5.9796e-005    
  -0.09           -5.3837e-005    5.3846e-005    
  -0.08           -4.7848e-005    4.7915e-005    
  -0.07           -4.1866e-005    4.19e-005      
  -0.06           -3.59e-005      3.5875e-005    
  -0.05           -2.9923e-005    2.995e-005     
  -0.04           -2.3908e-005    2.396e-005     
  -0.03           -1.7971e-005    1.7984e-005    
  -0.02           -1.1974e-005    1.1997e-005    
  -0.01           -6.0249e-006    6.0294e-006    
  0               1.8258e-008     -1.9271e-008   
  0.01            5.9575e-006     -5.9493e-006   
  0.02            1.1946e-005     -1.1936e-005   
  0.03            1.7923e-005     -1.7939e-005   
  0.04            2.393e-005      -2.3887e-005   
  0.05            2.9836e-005     -2.9824e-005   
  0.06            3.5783e-005     -3.5799e-005   
  0.07            4.1786e-005     -4.1768e-005   
  0.08            4.7749e-005     -4.7746e-005   
  0.09            5.3684e-005     -5.3677e-005   
  0.1             5.9659e-005     -5.9586e-005   
  0.11            6.5623e-005     -6.5587e-005   
  0.12            7.1568e-005     -7.1594e-005   
  0.13            7.7519e-005     -7.7505e-005   
  0.14            8.3534e-005     -8.3488e-005   
  0.15            8.9458e-005     -8.9451e-005   
  0.16            9.5442e-005     -9.5421e-005   
  0.17            0.00010135      -0.000101341   
  0.18            0.00010733      -0.00010723    
  0.19            0.00011329      -0.00011315    
  0.2             0.00011927      -0.00011916    
  0.21            0.00012517      -0.0001251     
  0.22            0.00013115      -0.00013099    
  0.23            0.00013704      -0.000137      
  0.24            0.00014304      -0.00014293    
  0.25            0.00014904      -0.00014892    
  0.26            0.00015494      -0.00015482    
  0.27            0.00016088      -0.00016076    
  0.28            0.00016684      -0.00016673    
  0.29            0.00017279      -0.00017267    
  0.3             0.00017868      -0.00017854    
  0.31            0.00018468      -0.00018457    
  0.32            0.00019062      -0.00019055    
  0.33            0.00019658      -0.00019644    
  0.34            0.00020243      -0.00020234    
  0.35            0.00020838      -0.00020828    
  0.36            0.0002144       -0.00021426    
  0.37            0.00022032      -0.0002202     
  0.38            0.00022621      -0.00022608    
  0.39            0.00023215      -0.00023204    
  0.4             0.0002381       -0.00023798    
  0.41            0.00024404      -0.00024386    
  0.42            0.00024993      -0.00024981    
  0.43            0.00025587      -0.00025581    
  0.44            0.00026186      -0.00026172    
  0.45            0.00026778      -0.00026768    
  0.46            0.00027367      -0.00027358    
  0.47            0.00027962      -0.00027947    
  0.48            0.00028552      -0.00028543    
  0.49            0.00029149      -0.00029137    
  0.5             0.00029742      -0.00029731    
END_DB

