! VERSION = 6.00
BEGIN_HEADER
 ICCAP_INPUTS
  VG         V  B GROUND SMU4 0.001 LIN        1    0          -5         101  -0.05     
  VS         V  E GROUND SMU2 0.1 CON        0
  VB         V  C GROUND SMU3 0.1 LIN        3    0          5          3    2.5       
  VD         V  S GROUND SMU1 0.1 LIN        2    -0.1       -5         2    -4.9      
  SUB        V  D GROUND VSU1 0.1 CON        0
 ICCAP_OUTPUTS
  IG         I  B GROUND SMU4 B
  ID         I  S GROUND SMU1 B
  IB         I  C GROUND SMU3 B
END_HEADER

BEGIN_DB
 ICCAP_VAR VS         0              
 ICCAP_VAR VB         0              
 ICCAP_VAR VD         -0.1           
 ICCAP_VAR SUB        0              

 #VG              IG              ID              IB             
  0               8.54e-011       -9.496e-010     3.622e-010     
  -0.05           -7.563e-010     -1.4541e-009    1.2803e-009    
  -0.1            7.903e-010      1.4395e-009     -1.1428e-009   
  -0.15           -1.3515e-009    7.177e-010      1.3836e-009    
  -0.2            -8.09e-010      -1.4534e-009    9.583e-010     
  -0.25           8.38e-010       1.4303e-009     -1.2391e-009   
  -0.3            -8.437e-010     -1.4372e-009    1.429e-009     
  -0.35           8.731e-010      1.4149e-009     -1.2893e-009   
  -0.4            -8.771e-010     -1.4158e-009    1.4681e-009    
  -0.45           9.041e-010      1.3841e-009     -1.3255e-009   
  -0.5            1.4178e-009     -1.52e-009      1.4878e-009    
  -0.55           -1.4323e-009    9.212e-010      1.3454e-009    
  -0.6            -6.318e-010     -1.4989e-009    8.091e-010     
  -0.65           1.4145e-009     -5.651e-010     -1.3193e-009   
  -0.7            -1.4252e-009    1.305e-009      -6.691e-010    
  -0.75           -1.0474e-009    -1.6626e-009    8.61e-010      
  -0.8            1.4877e-009     -2.3732e-009    -1.0948e-009   
  -0.85           -1.4884e-009    -8.2222e-009    1.3857e-009    
  -0.9            1.471e-009      -3.8008e-008    1.3916e-009    
  -0.95           1.416e-009      -1.6108e-007    1.0526e-009    
  -1              1.4032e-009     -6.2269e-007    -6.393e-010    
  -1.05           1.0457e-009     -2.1458e-006    1.411e-009     
  -1.1            -1.4873e-009    -5.9857e-006    1.421e-009     
  -1.15           -1.431e-009     -1.3927e-005    -1.1262e-009   
  -1.2            -1.4135e-009    -2.6089e-005    8.425e-010     
  -1.25           -1.3684e-009    -4.1203e-005    8.92e-010      
  -1.3            -1.3813e-009    -5.6979e-005    9.38e-010      
  -1.35           1.4103e-009     -7.2179e-005    -1.3355e-009   
  -1.4            1.3833e-009     -8.5576e-005    -6.912e-010    
  -1.45           1.3321e-009     -9.7685e-005    -7.421e-010    
  -1.5            -1.4288e-009    -0.00010825     1.4769e-009    
  -1.55           7.399e-010      -0.00011809     5.033e-010     
  -1.6            1.3673e-009     -0.00012688     -1.2864e-009   
  -1.65           1.3971e-009     -0.00013491     -7.685e-010    
  -1.7            -1.4316e-009    -0.00014214     1.4881e-009    
  -1.75           -1.4027e-009    -0.00014889     8.656e-010     
  -1.8            -1.3297e-009    -0.00015518     9.167e-010     
  -1.85           1.4174e-009     -0.00016123     -1.3233e-009   
  -1.9            1.4037e-009     -0.00016669     -6.667e-010    
  -1.95           1.3647e-009     -0.00017182     -7.161e-010    
  -2              1.3895e-009     -0.00017665     -7.631e-010    
  -2.05           -1.428e-009     -0.00018112     1.4887e-009    
  -2.1            -1.402e-009     -0.00018539     8.613e-010     
  -2.15           -1.3174e-009    -0.00018943     9.128e-010     
  -2.2            1.4154e-009     -0.00019339     -1.3194e-009   
  -2.25           1.4015e-009     -0.00019701     -6.614e-010    
  -2.3            1.3653e-009     -0.00020055     -7.121e-010    
  -2.35           1.3738e-009     -0.00020387     -7.584e-010    
  -2.4            -1.4245e-009    -0.00020701     1.4885e-009    
  -2.45           -1.4015e-009    -0.00021007     8.575e-010     
  -2.5            -1.3065e-009    -0.00021299     9.073e-010     
  -2.55           1.4142e-009     -0.0002159      -1.3138e-009   
  -2.6            1.4039e-009     -0.00021859     -6.583e-010    
  -2.65           1.3693e-009     -0.00022118     -7.076e-010    
  -2.7            1.3634e-009     -0.00022369     -7.534e-010    
  -2.75           -1.4298e-009    -0.00022606     1.4871e-009    
  -2.8            -1.4072e-009    -0.00022839     8.549e-010     
  -2.85           -1.3592e-009    -0.00023063     9.033e-010     
  -2.9            -1.4099e-009    -0.0002328      9.489e-010     
  -2.95           1.41e-009       -0.00023497     -1.3326e-009   
  -3              1.3762e-009     -0.00023695     -7.031e-010    
  -3.05           1.3578e-009     -0.00023891     -7.518e-010    
  -3.1            -1.4307e-009    -0.00024081     1.4873e-009    
  -3.15           -1.4125e-009    -0.00024266     8.509e-010     
  -3.2            -1.3611e-009    -0.00024447     8.999e-010     
  -3.25           -1.4065e-009    -0.00024621     9.418e-010     
  -3.3            1.4095e-009     -0.00024799     -1.3352e-009   
  -3.35           1.376e-009      -0.00024958     -7.004e-010    
  -3.4            1.3484e-009     -0.00025119     -7.485e-010    
  -3.45           -1.4345e-009    -0.00025272     1.4847e-009    
  -3.5            -1.414e-009     -0.00025425     8.495e-010     
  -3.55           -1.3657e-009    -0.00025572     8.975e-010     
  -3.6            -1.4008e-009    -0.00025715     9.414e-010     
  -3.65           1.412e-009      -0.00025859     -1.3336e-009   
  -3.7            1.3814e-009     -0.00025994     -6.991e-010    
  -3.75           1.3418e-009     -0.00026128     -7.445e-010    
  -3.8            -1.4344e-009    -0.00026255     1.4818e-009    
  -3.85           -1.4136e-009    -0.00026387     8.444e-010     
  -3.9            -1.369e-009     -0.00026506     8.939e-010     
  -3.95           -1.3905e-009    -0.00026628     9.381e-010     
  -4              1.4128e-009     -0.00026748     -1.3351e-009   
  -4.05           1.3822e-009     -0.00026863     -6.967e-010    
  -4.1            1.3337e-009     -0.0002698      -7.435e-010    
  -4.15           -1.4364e-009    -0.00027089     1.4802e-009    
  -4.2            -1.4151e-009    -0.00027194     8.43e-010      
  -4.25           -1.3724e-009    -0.00027297     8.908e-010     
  -4.3            -1.3853e-009    -0.00027401     9.378e-010     
  -4.35           1.4123e-009     -0.00027505     -1.3349e-009   
  -4.4            1.3856e-009     -0.00027604     -6.927e-010    
  -4.45           1.3279e-009     -0.00027702     -7.41e-010     
  -4.5            -1.4352e-009    -0.00027793     1.48e-009      
  -4.55           -1.4145e-009    -0.00027887     8.385e-010     
  -4.6            -1.375e-009     -0.00027975     8.9e-010       
  -4.65           -1.3785e-009    -0.00028065     9.326e-010     
  -4.7            1.4135e-009     -0.00028156     -1.3325e-009   
  -4.75           1.3847e-009     -0.0002824      -6.896e-010    
  -4.8            1.3207e-009     -0.00028325     -7.383e-010    
  -4.85           -1.4349e-009    -0.00028406     1.4772e-009    
  -4.9            -1.4214e-009    -0.00028486     8.343e-010     
  -4.95           -1.3818e-009    -0.00028568     8.876e-010     
  -5              -1.3747e-009    -0.00028642     9.333e-010     
END_DB

BEGIN_DB
 ICCAP_VAR VS         0              
 ICCAP_VAR VB         0              
 ICCAP_VAR VD         -5             
 ICCAP_VAR SUB        0              

 #VG              IG              ID              IB             
  0               -2.888e-010     6.301e-010      1.64e-011      
  -0.05           9.038e-010      1.401e-009      -1.3292e-009   
  -0.1            1.4231e-009     -1.5137e-009    1.4912e-009    
  -0.15           -1.4361e-009    9.227e-010      1.3595e-009    
  -0.2            -6.201e-010     -1.4854e-009    8.073e-010     
  -0.25           6.544e-010      1.4647e-009     -1.3208e-009   
  -0.3            -1.4354e-009    5.634e-010      1.4565e-009    
  -0.35           -6.841e-010     -1.4609e-009    8.573e-010     
  -0.4            1.4091e-009     -5.995e-010     -1.2821e-009   
  -0.45           7.376e-010      1.4445e-009     -7.172e-010    
  -0.5            -1.4048e-009    6.503e-010      1.412e-009     
  -0.55           -7.601e-010     -1.4628e-009    9.209e-010     
  -0.6            -1.3655e-009    1.5547e-009     -1.1549e-009   
  -0.65           -8e-010         -1.5242e-009    9.488e-010     
  -0.7            1.4438e-009     -6.259e-010     -1.2235e-009   
  -0.75           -1.4371e-009    -1.7011e-009    1.4668e-009    
  -0.8            -1.4419e-009    -5.582e-009     7.385e-010     
  -0.85           1.4893e-009     -2.0643e-008    1.414e-009     
  -0.9            -1.4441e-009    -9.0364e-008    1.3818e-009    
  -0.95           -1.4155e-009    -3.6614e-007    -6.533e-010    
  -1              -9.965e-010     -1.3376e-006    -1.18e-009     
  -1.05           1.3438e-009     -4.2628e-006    -1.2816e-009   
  -1.1            1.4341e-009     -1.12106e-005   -7.838e-010    
  -1.15           -1.5293e-009    -2.434e-005     9.712e-010     
  -1.2            1.3523e-009     -4.6281e-005    -1.2857e-009   
  -1.25           1.4002e-009     -9.4349e-005    -1.4397e-006   
  -1.3            1.4263e-009     -0.00013392     -3.1725e-006   
  -1.35           1.5191e-009     -0.00018283     -3.3198e-006   
  -1.4            1.435e-009      -0.00024134     -3.9334e-006   
  -1.45           1.4211e-009     -0.0003085      -4.471e-006    
  -1.5            1.3561e-009     -0.00038569     -4.7732e-006   
  -1.55           1.5117e-009     -0.00046953     -4.9919e-006   
  -1.6            1.4698e-009     -0.00056073     -5.1631e-006   
  -1.65           1.4204e-009     -0.00065994     -5.3658e-006   
  -1.7            1.3998e-009     -0.00076528     -5.5166e-006   
  -1.75           1.4421e-009     -0.00087489     -5.539e-006    
  -1.8            1.5108e-009     -0.00099395     -5.5402e-006   
  -1.85           1.4259e-009     -0.00111811     -5.6115e-006   
  -1.9            1.4214e-009     -0.0012436      -5.6956e-006   
  -1.95           1.3982e-009     -0.0013763      -5.6804e-006   
  -2              1.4613e-009     -0.0015106      -5.6054e-006   
  -2.05           1.5019e-009     -0.0016517      -5.5441e-006   
  -2.1            1.4245e-009     -0.0017935      -5.5357e-006   
  -2.15           1.4174e-009     -0.0019417      -5.5484e-006   
  -2.2            1.3537e-009     -0.0020917      -5.4229e-006   
  -2.25           1.521e-009      -0.0022445      -5.3138e-006   
  -2.3            1.4553e-009     -0.0024001      -5.2154e-006   
  -2.35           1.4207e-009     -0.0025594      -5.1854e-006   
  -2.4            1.3861e-009     -0.0027196      -5.0656e-006   
  -2.45           1.4816e-009     -0.0028833      -4.8977e-006   
  -2.5            1.4945e-009     -0.0030483      -4.7401e-006   
  -2.55           1.423e-009      -0.0032165      -4.6275e-006   
  -2.6            1.4173e-009     -0.0033857      -4.5138e-006   
  -2.65           1.388e-009      -0.003554       -4.2883e-006   
  -2.7            1.5224e-009     -0.0037246      -4.0466e-006   
  -2.75           1.4441e-009     -0.003901       -3.8284e-006   
  -2.8            1.4198e-009     -0.0040733      -3.6351e-006   
  -2.85           1.3743e-009     -0.0042489      -3.3633e-006   
  -2.9            1.4994e-009     -0.0044247      -3.0476e-006   
  -2.95           1.4846e-009     -0.0045994      -2.6926e-006   
  -3              1.4216e-009     -0.0047773      -2.3777e-006   
  -3.05           1.4085e-009     -0.0049531      -2.0329e-006   
  -3.1            1.4122e-009     -0.0051309      -1.6131e-006   
  -3.15           1.5225e-009     -0.0053104      -1.1884e-006   
  -3.2            -7.079e-010     -0.0054915      -9.9509e-007   
  -3.25           -8.409e-010     -0.005676       -6.1945e-007   
  -3.3            -9.633e-010     -0.0058532      -2.6805e-007   
  -3.35           1.3695e-009     -0.0060282      -1.9659e-008   
  -3.4            1.0842e-009     -0.0062507      1.43e-010      
  -3.45           -1.4722e-009    -0.0064322      1.4151e-009    
  -3.5            -1.4504e-009    -0.0066142      6.625e-010     
  -3.55           -1.4373e-009    -0.0067936      7.253e-010     
  -3.6            -1.4306e-009    -0.0069713      7.823e-010     
  -3.65           -1.4168e-009    -0.0071458      8.365e-010     
  -3.7            -1.379e-009     -0.0073148      8.859e-010     
  -3.75           -1.3685e-009    -0.0074797      9.297e-010     
  -3.8            1.4132e-009     -0.0076437      -1.3317e-009   
  -3.85           1.3871e-009     -0.0077924      -6.829e-010    
  -3.9            1.3054e-009     -0.0079362      -7.308e-010    
  -3.95           -1.433e-009     -0.0080696      1.4735e-009    
  -4              -1.4207e-009    -0.0081974      8.275e-010     
  -4.05           -1.3877e-009    -0.0083178      8.798e-010     
  -4.1            -1.3515e-009    -0.0084324      9.265e-010     
  -4.15           1.4134e-009     -0.0085414      -1.3306e-009   
  -4.2            1.3923e-009     -0.0086424      -6.787e-010    
  -4.25           1.2911e-009     -0.0087384      -7.241e-010    
  -4.3            -1.4336e-009    -0.0088278      1.4697e-009    
  -4.35           -1.4238e-009    -0.0089133      8.223e-010     
  -4.4            -1.3941e-009    -0.0089946      8.731e-010     
  -4.45           -1.3387e-009    -0.0090714      9.205e-010     
  -4.5            1.4148e-009     -0.0091465      -1.3279e-009   
  -4.55           1.4019e-009     -0.0092153      -6.728e-010    
  -4.6            1.3629e-009     -0.0092822      -7.229e-010    
  -4.65           1.3964e-009     -0.0093456      -7.679e-010    
  -4.7            -1.4344e-009    -0.0094056      1.4898e-009    
  -4.75           -1.4066e-009    -0.0094625      8.691e-010     
  -4.8            -1.3285e-009    -0.0094999      9.2e-010       
  -4.85           1.4242e-009     -0.009549       -1.3245e-009   
  -4.9            1.4139e-009     -0.0095822      -6.686e-010    
  -4.95           1.3702e-009     -0.0096366      -7.189e-010    
  -5              1.3896e-009     -0.0096906      -7.661e-010    
END_DB

BEGIN_DB
 ICCAP_VAR VS         0              
 ICCAP_VAR VB         2.5            
 ICCAP_VAR VD         -0.1           
 ICCAP_VAR SUB        0              

 #VG              IG              ID              IB             
  0               1.0886e-009     4.403e-010      -1.2029e-009   
  -0.05           -8.886e-010     -1.4183e-009    1.4862e-009    
  -0.1            -1.4322e-009    1.5134e-009     -1.3246e-009   
  -0.15           -5.915e-010     -1.5053e-009    7.867e-010     
  -0.2            6.187e-010      1.4875e-009     -1.3285e-009   
  -0.25           -1.435e-009     9.482e-010      1.3493e-009    
  -0.3            -6.48e-010      -1.4724e-009    8.36e-010      
  -0.35           1.417e-009      -5.629e-010     -1.3001e-009   
  -0.4            6.972e-010      1.4504e-009     -6.799e-010    
  -0.45           -1.4258e-009    6.078e-010      1.4444e-009    
  -0.5            -7.222e-010     -1.4537e-009    8.953e-010     
  -0.55           7.52e-010       1.4429e-009     -1.0684e-009   
  -0.6            -1.3909e-009    6.717e-010      1.4111e-009    
  -0.65           -7.747e-010     -1.4532e-009    9.373e-010     
  -0.7            8.014e-010      1.441e-009      -1.1735e-009   
  -0.75           -1.4871e-009    7.344e-010      1.3879e-009    
  -0.8            -8.236e-010     -1.4484e-009    6.219e-010     
  -0.85           8.52e-010       1.4299e-009     -1.2532e-009   
  -0.9            -8.561e-010     -1.4395e-009    1.4521e-009    
  -0.95           8.841e-010      1.4133e-009     -1.3019e-009   
  -1              -8.873e-010     -1.4144e-009    1.4888e-009    
  -1.05           -1.4341e-009    1.5164e-009     -1.3269e-009   
  -1.1            -5.897e-010     -1.5091e-009    7.846e-010     
  -1.15           6.176e-010      1.4756e-009     -1.327e-009    
  -1.2            -1.4408e-009    8.981e-010      1.351e-009     
  -1.25           -1.0043e-009    -1.4783e-009    8.35e-010      
  -1.3            1.4088e-009     -1.9298e-009    -1.2696e-009   
  -1.35           1.4162e-009     -6.4567e-009    -7.163e-010    
  -1.4            -1.5038e-009    -3.4894e-008    -1.3215e-009   
  -1.45           -1.4515e-009    -1.5595e-007    -7.726e-010    
  -1.5            -1.4341e-009    -6.6199e-007    6.77e-010      
  -1.55           -9.006e-010     -2.3522e-006    -9.884e-010    
  -1.6            1.4286e-009     -6.7325e-006    -1.323e-009    
  -1.65           -1.4377e-009    -1.4952e-005    -6.213e-010    
  -1.7            -1.4462e-009    -2.721e-005     6.969e-010     
  -1.75           -1.4531e-009    -4.1742e-005    7.641e-010     
  -1.8            -1.45e-009      -5.658e-005     8.231e-010     
  -1.85           -1.4133e-009    -7.0463e-005    8.762e-010     
  -1.9            -1.3239e-009    -8.2803e-005    9.229e-010     
  -1.95           1.4389e-009     -9.3898e-005    -1.3051e-009   
  -2              1.4225e-009     -0.000103559    -6.601e-010    
  -2.05           1.3787e-009     -0.000112255    -7.093e-010    
  -2.1            6.638e-010      -0.00012013     1.3928e-009    
  -2.15           -1.3928e-009    -0.00012714     1.4407e-009    
  -2.2            -1.3766e-009    -0.00013369     9.405e-010     
  -2.25           1.4359e-009     -0.0001398      -1.3215e-009   
  -2.3            1.4097e-009     -0.00014541     -6.779e-010    
  -2.35           1.3531e-009     -0.00015058     -7.281e-010    
  -2.4            1.4107e-009     -0.00015542     -7.691e-010    
  -2.45           -1.4478e-009    -0.00015991     1.3868e-009    
  -2.5            -1.44e-009      -0.00016419     8.424e-010     
  -2.55           -1.3957e-009    -0.00016824     8.972e-010     
  -2.6            -1.3739e-009    -0.00017207     9.429e-010     
  -2.65           1.4353e-009     -0.00017576     -1.3243e-009   
  -2.7            1.4178e-009     -0.00017919     -6.786e-010    
  -2.75           1.3561e-009     -0.00018247     -7.286e-010    
  -2.8            1.4139e-009     -0.00018561     -7.707e-010    
  -2.85           -1.4534e-009    -0.00018857     1.394e-009     
  -2.9            -1.4413e-009    -0.00019142     8.44e-010      
  -2.95           -1.39e-009      -0.00019419     8.981e-010     
  -3              -1.3744e-009    -0.00019681     9.41e-010      
  -3.05           1.4407e-009     -0.00019939     -1.324e-009    
  -3.1            1.4113e-009     -0.00020183     -6.811e-010    
  -3.15           1.3029e-009     -0.00020415     -7.296e-010    
  -3.2            -1.4458e-009    -0.00020641     1.393e-009     
  -3.25           -1.4572e-009    -0.00020858     7.898e-010     
  -3.3            -1.4434e-009    -0.00021067     8.468e-010     
  -3.35           -1.3943e-009    -0.00021272     9e-010         
  -3.4            -1.3725e-009    -0.0002147      9.422e-010     
  -3.45           1.4418e-009     -0.00021663     -1.3215e-009   
  -3.5            1.4147e-009     -0.00021848     -6.794e-010    
  -3.55           1.2975e-009     -0.00022029     -7.292e-010    
  -3.6            -1.4565e-009    -0.00022196     1.477e-009     
  -3.65           -1.4501e-009    -0.00022367     8.301e-010     
  -3.7            -1.4101e-009    -0.00022532     8.842e-010     
  -3.75           -1.3366e-009    -0.00022689     9.289e-010     
  -3.8            1.4398e-009     -0.00022848     -1.3162e-009   
  -3.85           1.4231e-009     -0.00022999     -6.639e-010    
  -3.9            1.3756e-009     -0.00023142     -7.147e-010    
  -3.95           1.3825e-009     -0.00023287     -7.598e-010    
  -4              -1.4566e-009    -0.00023425     1.395e-009     
  -4.05           -1.4494e-009    -0.00023559     8.294e-010     
