! VERSION = 6.00
BEGIN_HEADER
 ICCAP_INPUTS
  VG         V  B GROUND SMU4 0.001 LIN        2    0          -5         6    -1        
  VS         V  E GROUND SMU1 0.1 CON        0
  VD         V  S GROUND SMU3 0.1 LIN        1    0          -5         101  -0.05     
  VB         V  C GROUND SMU2 0.1 LIN        3    0          2.5        2    2.5       
  SUB        V  D GROUND VSU1 0.1 CON        0
 ICCAP_OUTPUTS
  ID         I  S GROUND SMU3 B
  IB         I  C GROUND SMU2 B
  IG         I  B GROUND SMU4 B
END_HEADER

BEGIN_DB
 ICCAP_VAR VG         0              
 ICCAP_VAR VS         0              
 ICCAP_VAR VB         0              
 ICCAP_VAR SUB        0              

 #VD              ID              IB              IG             
  0               4.4e-011        7.063e-010      -3.628e-010    
  -0.05           -1.3878e-009    -6.532e-010     1.4036e-009    
  -0.1            -7.391e-010     1.6049e-009     1.015e-009     
  -0.15           1.3308e-009     8.338e-010      -1.4019e-009   
  -0.2            8.178e-010      -1.9416e-009    -7.363e-010    
  -0.25           -1.3162e-009    -8.524e-010     1.3623e-009    
  -0.3            -8.395e-010     1.9488e-009     7.832e-010     
  -0.35           1.2726e-009     4.295e-010      -1.4452e-009   
  -0.4            -1.3552e-009    -4.757e-010     1.4091e-009    
  -0.45           1.3974e-009     6.22e-010       -1.4221e-009   
  -0.5            7.033e-010      -1.6908e-009    -9.508e-010    
  -0.55           -1.3728e-009    -7.104e-010     1.4034e-009    
  -0.6            -7.675e-010     1.957e-009      6.962e-010     
  -0.65           1.3393e-009     8.139e-010      -1.4061e-009   
  -0.7            8.092e-010      -1.9441e-009    -7.25e-010     
  -0.75           -1.3242e-009    -8.38e-010      1.3727e-009    
  -0.8            -8.308e-010     1.9506e-009     7.767e-010     
  -0.85           1.2565e-009     4.099e-010      -1.4521e-009   
  -0.9            -1.3436e-009    -4.62e-010      1.4086e-009    
  -0.95           1.3965e-009     6.032e-010      -1.4215e-009   
  -1              6.907e-010      -1.7143e-009    -9.41e-010     
  -1.05           -1.383e-009     -6.921e-010     1.4014e-009    
  -1.1            -7.58e-010      1.5611e-009     1.0428e-009    
  -1.15           1.3173e-009     8.67e-010       -1.3882e-009   
  -1.2            8.368e-010      -1.9476e-009    -7.567e-010    
  -1.25           -1.2297e-009    -3.456e-010     1.4456e-009    
  -1.3            1.3383e-009     4.996e-010      -1.4252e-009   
  -1.35           -1.3985e-009    -5.453e-010     1.4015e-009    
  -1.4            -6.782e-010     1.7441e-009     9.499e-010     
  -1.45           1.3761e-009     7.184e-010      -1.4221e-009   
  -1.5            7.614e-010      -1.5434e-009    -1.0196e-009   
  -1.55           -1.3306e-009    -8.139e-010     1.3829e-009    
  -1.6            -8.207e-010     1.9518e-009     7.615e-010     
  -1.65           1.2288e-009     3.902e-010      -1.4595e-009   
  -1.7            -1.3235e-009    -4.396e-010     1.4131e-009    
  -1.75           1.3929e-009     5.86e-010       -1.4154e-009   
  -1.8            6.782e-010      -1.7444e-009    -9.311e-010    
  -1.85           -1.385e-009     -6.687e-010     1.4033e-009    
  -1.9            -7.45e-010      1.5866e-009     1.0238e-009    
  -1.95           1.3213e-009     8.473e-010      -1.3963e-009   
  -2              8.252e-010      -1.9437e-009    -7.429e-010    
  -2.05           -1.2032e-009    -3.263e-010     1.4513e-009    
  -2.1            1.3196e-009     4.815e-010      -1.4316e-009   
  -2.15           -1.3902e-009    -5.272e-010     1.4031e-009    
  -2.2            -6.613e-010     1.7764e-009     9.401e-010     
  -2.25           1.3822e-009     7.006e-010      -1.4211e-009   
  -2.3            7.482e-010      -1.5778e-009    -1.0024e-009   
  -2.35           -1.3416e-009    -7.924e-010     1.3866e-009    
  -2.4            -8.097e-010     1.9533e-009     7.475e-010     
  -2.45           1.2031e-009     3.664e-010      -1.4707e-009   
  -2.5            -1.305e-009     -4.181e-010     1.4186e-009    
  -2.55           1.3829e-009     5.639e-010      -1.4195e-009   
  -2.6            6.632e-010      -1.7697e-009    -9.172e-010    
  -2.65           -1.3991e-009    -6.466e-010     1.4058e-009    
  -2.7            -7.34e-010      1.6105e-009     1.0083e-009    
  -2.75           1.3332e-009     8.255e-010      -1.406e-009    
  -2.8            8.162e-010      -1.9474e-009    -7.306e-010    
  -2.85           -1.3236e-009    -8.442e-010     1.3694e-009    
  -2.9            -8.35e-010      1.9533e-009     7.815e-010     
  -2.95           1.2607e-009     4.195e-010      -1.4503e-009   
  -3              -1.3538e-009    -4.672e-010     1.4114e-009    
  -3.05           1.4001e-009     6.135e-010      -1.4166e-009   
  -3.1            6.985e-010      -1.6978e-009    -9.473e-010    
  -3.15           -1.3782e-009    -7.011e-010     1.4052e-009    
  -3.2            -7.63e-010      1.9568e-009     6.894e-010     
  -3.25           1.343e-009      8.091e-010      -1.413e-009    
  -3.3            8.08e-010       -1.9441e-009    -7.209e-010    
  -3.35           -1.3289e-009    -8.281e-010     1.3744e-009    
  -3.4            -8.266e-010     1.9492e-009     7.724e-010     
  -3.45           1.2431e-009     4.01e-010       -1.454e-009    
  -3.5            -1.3407e-009    -4.52e-010      1.4104e-009    
  -3.55           1.3994e-009     5.987e-010      -1.4171e-009   
  -3.6            6.87e-010       -1.7186e-009    -9.394e-010    
  -3.65           -1.3821e-009    -6.857e-010     1.4071e-009    
  -3.7            -7.541e-010     1.566e-009      1.0378e-009    
  -3.75           1.3184e-009     8.599e-010      -1.3943e-009   
  -3.8            8.34e-010       -1.9496e-009    -7.536e-010    
  -3.85           -1.2234e-009    -3.397e-010     1.4483e-009    
  -3.9            1.3335e-009     4.913e-010      -1.4299e-009   
  -3.95           -1.3984e-009    -5.444e-010     1.4017e-009    
  -4              -6.744e-010     1.7552e-009     9.448e-010     
  -4.05           1.3757e-009     7.14e-010       -1.4221e-009   
  -4.1            7.595e-010      -1.5546e-009    -1.0124e-009   
  -4.15           -1.3357e-009    -8.052e-010     1.3851e-009    
  -4.2            -8.161e-010     1.9528e-009     7.593e-010     
  -4.25           1.2214e-009     3.817e-010      -1.4637e-009   
  -4.3            -1.3209e-009    -4.323e-010     1.422e-009     
  -4.35           1.3889e-009     5.8e-010        -1.4225e-009   
  -4.4            6.75e-010       -1.7543e-009    -9.273e-010    
  -4.45           -1.3876e-009    -6.626e-010     1.4059e-009    
  -4.5            -7.425e-010     1.5909e-009     1.0208e-009    
  -4.55           1.3328e-009     8.4e-010        -1.4026e-009   
  -4.6            8.232e-010      -1.9478e-009    -7.402e-010    
  -4.65           -1.1949e-009    -3.163e-010     1.4597e-009    
  -4.7            1.3122e-009     4.719e-010      -1.435e-009    
  -4.75           -1.3874e-009    -5.214e-010     1.403e-009     
  -4.8            -6.606e-010     1.7853e-009     9.34e-010      
  -4.85           1.385e-009      6.918e-010      -1.4212e-009   
  -4.9            7.442e-010      -1.5823e-009    -9.964e-010    
  -4.95           -1.3489e-009    -7.867e-010     1.3894e-009    
  -5              -8.059e-010     1.9518e-009     7.426e-010     
END_DB

BEGIN_DB
 ICCAP_VAR VG         -1             
 ICCAP_VAR VS         0              
 ICCAP_VAR VB         0              
 ICCAP_VAR SUB        0              

 #VD              ID              IB              IG             
  0               -2.1375e-010    1.6105e-009     2.838e-010     
  -0.05           -5.0765e-007    1.2763e-009     -1.4333e-009   
  -0.1            -6.1275e-007    1.9197e-009     8.74e-010      
  -0.15           -6.2751e-007    -1.284e-009     1.4127e-009    
  -0.2            -6.4309e-007    -1.8105e-009    -9.051e-010    
  -0.25           -6.7692e-007    1.3984e-009     -1.376e-009    
  -0.3            -6.9477e-007    1.6978e-009     9.582e-010     
  -0.35           -6.941e-007     -1.4419e-009    1.4124e-009    
  -0.4            -7.0259e-007    -1.9483e-009    -6.943e-010    
  -0.45           -7.2269e-007    1.1427e-009     -1.4108e-009   
  -0.5            -7.4039e-007    1.9685e-009     7.674e-010     
  -0.55           -7.3736e-007    -1.1598e-009    1.4158e-009    
  -0.6            -7.4582e-007    -1.9606e-009    -8.111e-010    
  -0.65           -7.7559e-007    1.2742e-009     -1.435e-009    
  -0.7            -7.8839e-007    1.9243e-009     8.714e-010     
  -0.75           -7.7809e-007    -1.2789e-009    1.4132e-009    
  -0.8            -7.8465e-007    -1.8199e-009    -9.035e-010    
  -0.85           -8.1747e-007    1.3952e-009     -1.3811e-009   
  -0.9            -8.3143e-007    1.7037e-009     9.548e-010     
  -0.95           -8.2508e-007    -1.4367e-009    1.4107e-009    
  -1              -8.2949e-007    -1.9455e-009    -6.926e-010    
  -1.05           -8.482e-007     1.1389e-009     -1.4163e-009   
  -1.1            -8.6476e-007    1.973e-009      7.671e-010     
  -1.15           -8.5719e-007    -1.1559e-009    1.41e-009      
  -1.2            -8.6373e-007    -1.9595e-009    -8.102e-010    
  -1.25           -8.9512e-007    1.272e-009      -1.4349e-009   
  -1.3            -9.0714e-007    1.927e-009      8.698e-010     
  -1.35           -8.8875e-007    -1.2769e-009    1.413e-009     
  -1.4            -8.9496e-007    -1.8252e-009    -9.013e-010    
  -1.45           -9.293e-007     1.3902e-009     -1.386e-009    
  -1.5            -9.4177e-007    1.713e-009      9.539e-010     
  -1.55           -9.3052e-007    -1.4303e-009    1.4157e-009    
  -1.6            -9.3531e-007    -1.9433e-009    -6.899e-010    
  -1.65           -9.5367e-007    1.13e-009       -1.4103e-009   
  -1.7            -9.7153e-007    1.9608e-009     7.612e-010     
  -1.75           -9.6103e-007    -1.1509e-009    1.4069e-009    
  -1.8            -9.6557e-007    -1.9498e-009    -8.017e-010    
  -1.85           -9.9536e-007    1.265e-009      -1.4267e-009   
  -1.9            -1.0064e-006    1.9286e-009     8.654e-010     
  -1.95           -9.8677e-007    -1.2721e-009    1.4106e-009    
  -2              -9.9209e-007    -1.8343e-009    -8.98e-010     
  -2.05           -1.02602e-006   1.3871e-009     -1.3875e-009   
  -2.1            -1.0398e-006    1.7241e-009     9.528e-010     
  -2.15           -1.02469e-006   -1.427e-009     1.4156e-009    
  -2.2            -1.02691e-006   -1.9416e-009    -6.843e-010    
  -2.25           -1.04715e-006   1.1279e-009     -1.416e-009    
  -2.3            -1.0628e-006    1.9678e-009     7.582e-010     
  -2.35           -1.05058e-006   -1.1454e-009    1.411e-009     
  -2.4            -1.05296e-006   -1.9569e-009    -8.016e-010    
  -2.45           -1.08569e-006   1.2628e-009     -1.4327e-009   
  -2.5            -1.09601e-006   1.9221e-009     8.664e-010     
  -2.55           -1.07371e-006   -1.269e-009     1.4071e-009    
  -2.6            -1.07746e-006   -1.8215e-009    -8.967e-010    
  -2.65           -1.11219e-006   1.3841e-009     -1.3825e-009   
  -2.7            -1.12562e-006   1.708e-009      9.504e-010     
  -2.75           -1.11107e-006   -1.4196e-009    1.4176e-009    
  -2.8            -1.1093e-006    -1.9464e-009    -6.821e-010    
  -2.85           -1.144e-006     1.4001e-009     -1.4507e-009   
  -2.9            -1.1556e-006    2.0124e-009     -1.4239e-009   
  -2.95           -1.1508e-006    1.9609e-009     7.03e-010      
  -3              -1.1513e-006    -9.587e-010     1.4318e-009    
  -3.05           -1.1384e-006    -1.971e-009     1.4149e-009    
  -3.1            -1.1523e-006    -1.9559e-009    -7.158e-010    
  -3.15           -1.1642e-006    1.0474e-009     -1.4276e-009   
  -3.2            -1.1908e-006    1.9752e-009     5.952e-010     
  -3.25           -1.1796e-006    -8.135e-010     1.3908e-009    
  -3.3            -1.1687e-006    -1.9011e-009    -8.603e-010    
  -3.35           -1.2036e-006    1.2485e-009     -1.4346e-009   
  -3.4            -1.2091e-006    1.976e-009      7.715e-010     
  -3.45           -1.2044e-006    -1.0543e-009    1.405e-009     
  -3.5            -1.1967e-006    -1.943e-009     -6.341e-010    
  -3.55           -1.213e-006     9.296e-010      -1.3559e-009   
  -3.6            -1.2425e-006    1.8477e-009     9.064e-010     
  -3.65           -1.2157e-006    -1.2392e-009    1.4226e-009    
  -3.7            -1.2226e-006    -1.9616e-009    -8e-010        
  -3.75           -1.2437e-006    1.1653e-009     -1.4209e-009   
  -3.8            -1.2612e-006    1.9638e-009     6.828e-010     
  -3.85           -1.2555e-006    -9.304e-010     1.434e-009     
  -3.9            -1.2392e-006    -1.9732e-009    1.4142e-009    
  -3.95           -1.2562e-006    -1.9578e-009    -7.026e-010    
  -4              -1.2669e-006    1.0324e-009     -1.4308e-009   
  -4.05           -1.2977e-006    1.9778e-009     -1.43e-009     
  -4.1            -1.2955e-006    1.9743e-009     7.441e-010     
  -4.15           -1.292e-006     -1.0173e-009    1.4095e-009    
  -4.2            -1.2761e-006    -1.9479e-009    -6.036e-010    
  -4.25           -1.2995e-006    8.877e-010      -1.3871e-009   
  -4.3            -1.3241e-006    1.8968e-009     8.878e-010     
  -4.35           -1.2966e-006    -1.2098e-009    1.4244e-009    
  -4.4            -1.304e-006     -1.9683e-009    -7.742e-010    
  -4.45           -1.3221e-006    1.1295e-009     -1.4158e-009   
  -4.5            -1.3427e-006    1.9659e-009     6.623e-010     
  -4.55           -1.3364e-006    -9.046e-010     1.4441e-009    
  -4.6            -1.3171e-006    -1.9874e-009    1.4035e-009    
  -4.65           -1.3331e-006    -1.9425e-009    -6.767e-010    
  -4.7            -1.3474e-006    9.906e-010      -1.4375e-009   
  -4.75           -1.3816e-006    1.9927e-009     -1.4229e-009   
  -4.8            -1.3725e-006    1.9636e-009     7.159e-010     
  -4.85           -1.3715e-006    -9.731e-010     1.4182e-009    
  -4.9            -1.3529e-006    -1.9551e-009    1.4128e-009    
  -4.95           -1.3669e-006    -1.959e-009     -7.28e-010     
  -5              -1.3819e-006    1.0638e-009     -1.4214e-009   
END_DB

BEGIN_DB
 ICCAP_VAR VG         -2             
 ICCAP_VAR VS         0              
 ICCAP_VAR VB         0              
 ICCAP_VAR SUB        0              

 #VD              ID              IB              IG             
  0               1.06049e-007    -1.9645e-009    -2.52e-011     
  -0.05           -7.8442e-005    5.465e-010      -1.4173e-009   
  -0.1            -0.00015427     2.0843e-009     -1.4201e-009   
  -0.15           -0.00022869     1.9722e-009     8.331e-010     
  -0.2            -0.00030128     -1.3794e-009    1.4249e-009    
  -0.25           -0.00037247     -1.9689e-009    -7.947e-010    
  -0.3            -0.00044198     1.387e-009      -1.3874e-009   
  -0.35           -0.00050939     2.0899e-009     -1.4281e-009   
  -0.4            -0.00057479     1.9707e-009     8.279e-010     
  -0.45           -0.00063777     -1.368e-009     1.4334e-009    
  -0.5            -0.00069896     -1.9733e-009    -7.866e-010    
  -0.55           -0.00075835     1.3815e-009     -1.3933e-009   
  -0.6            -0.00081479     2.0956e-009     -1.4288e-009   
  -0.65           -0.00086847     1.9772e-009     8.2e-010       
  -0.7            -0.00091869     -1.3583e-009    1.4342e-009    
  -0.75           -0.00096678     -1.9754e-009    -7.804e-010    
  -0.8            -0.00101267     1.3678e-009     -1.4001e-009   
  -0.85           -0.00105442     2.0979e-009     -1.433e-009    
  -0.9            -0.00109241     1.9829e-009     8.159e-010     
  -0.95           -0.00112568     -1.3473e-009    1.4378e-009    
  -1              -0.0011575      2.0258e-009     -1.4177e-009   
  -1.05           -0.0011847      1.9079e-009     8.82e-010      
  -1.1            -0.0012069      -1.4869e-009    1.4073e-009    
  -1.15           -0.0012263      -1.9328e-009    -8.454e-010    
  -1.2            -0.0012446      1.4802e-009     -1.4216e-009   
  -1.25           -0.0012584      1.9691e-009     8.344e-010     
  -1.3            -0.0012676      -1.3799e-009    1.421e-009     
  -1.35           -0.0012768      -1.9722e-009    -7.938e-010    
  -1.4            -0.0012864      1.3822e-009     -1.3851e-009   
  -1.45           -0.0012922      2.0853e-009     -1.4221e-009   
  -1.5            -0.001297       1.9754e-009     8.297e-010     
  -1.55           -0.0012989      -1.3675e-009    1.4256e-009    
  -1.6            -0.0013028      -1.976e-009     -7.868e-010    
  -1.65           -0.0013084      1.378e-009      -1.3911e-009   
  -1.7            -0.0013113      2.0883e-009     -1.4245e-009   
  -1.75           -0.0013137      1.9814e-009     8.23e-010      
  -1.8            -0.0013137      -1.3566e-009    1.4339e-009    
  -1.85           -0.0013165      -1.9765e-009    -7.817e-010    
  -1.9            -0.001321       1.3697e-009     -1.4006e-009   
  -1.95           -0.0013236      2.0928e-009     -1.4256e-009   
  -2              -0.0013251      1.9782e-009     8.137e-010     
  -2.05           -0.0013246      -1.3508e-009    1.4367e-009    
  -2.1            -0.0013268      -1.9715e-009    -7.723e-010    
  -2.15           -0.0013315      1.3635e-009     -1.4014e-009   
  -2.2            -0.0013331      2.099e-009      -1.4322e-009   
  -2.25           -0.0013342      1.9813e-009     8.069e-010     
  -2.3            -0.0013334      -1.3418e-009    1.4427e-009    
  -2.35           -0.0013353      -1.9743e-009    -7.691e-010    
  -2.4            -0.0013395      1.354e-009      -1.4124e-009   
  -2.45           -0.0013413      2.098e-009      -1.4372e-009   
  -2.5            -0.001342       1.9867e-009     8.031e-010     
  -2.55           -0.0013411      -1.3335e-009    1.3773e-009    
  -2.6            -0.0013421      -2.0685e-009    1.4189e-009    
  -2.65           -0.001344       -1.963e-009     -8.113e-010    
  -2.7            -0.0013479      1.4139e-009     -1.4382e-009   
  -2.75           -0.0013488      1.9866e-009     7.971e-010     
  -2.8            -0.0013473      -1.3217e-009    1.3838e-009    
  -2.85           -0.0013488      -2.0635e-009    1.4196e-009    
  -2.9            -0.0013505      -1.9641e-009    -8.034e-010    
  -2.95           -0.0013542      1.4013e-009     -1.4455e-009   
  -3              -0.0013549      1.9856e-009     7.893e-010     
  -3.05           -0.0013536      -1.3102e-009    1.387e-009     
  -3.1            -0.0013544      -2.0729e-009    1.4209e-009    
  -3.15           -0.0013562      -1.9702e-009    -7.96e-010     
  -3.2            -0.0013597      1.3943e-009     -1.3795e-009   
  -3.25           -0.0013609      2.0796e-009     -1.4241e-009   
  -3.3            -0.0013616      1.9716e-009     8.298e-010     
  -3.35           -0.0013599      -1.3769e-009    1.4233e-009    
  -3.4            -0.0013614      -1.9726e-009    -7.899e-010    
  -3.45           -0.0013648      1.3811e-009     -1.3896e-009   
  -3.5            -0.0013656      2.0882e-009     -1.4231e-009   
  -3.55           -0.0013665      1.9739e-009     8.262e-010     
  -3.6            -0.001365       -1.3617e-009    1.4285e-009    
  -3.65           -0.001366       -1.9726e-009    -7.835e-010    
  -3.7            -0.0013696      1.3739e-009     -1.3945e-009   
  -3.75           -0.0013705      2.0897e-009     -1.4298e-009   
  -3.8            -0.001371       1.9773e-009     8.173e-010     
  -3.85           -0.0013692      -1.3568e-009    1.4338e-009    
  -3.9            -0.0013706      -1.9761e-009    -7.78e-010     
  -3.95           -0.001374       1.3679e-009     -1.4019e-009   
  -4              -0.0013749      2.0931e-009     -1.4273e-009   
  -4.05           -0.0013752      1.9827e-009     8.127e-010     
