! VERSION = 6.00
BEGIN_HEADER
 ICCAP_INPUTS
  VG         V  B GROUND SMU4 0.001 LIN        1    0          -5         101  -0.05     
  VS         V  E GROUND SMU2 0.1 CON        0
  VB         V  C GROUND SMU3 0.1 LIN        3    0          5          3    2.5       
  VD         V  S GROUND SMU1 0.1 LIN        2    -0.1       -5         2    -4.9      
  SUB        V  D GROUND VSU1 0.1 CON        0
 ICCAP_OUTPUTS
  IG         I  B GROUND SMU4 B
  ID         I  S GROUND SMU1 B
  IB         I  C GROUND SMU3 B
END_HEADER

BEGIN_DB
 ICCAP_VAR VS         0              
 ICCAP_VAR VB         0              
 ICCAP_VAR VD         -0.1           
 ICCAP_VAR SUB        0              

 #VG              IG              ID              IB             
  0               1.472e-010      1.2657e-009     -7.754e-010    
  -0.05           6.501e-010      1.4932e-009     -9.094e-010    
  -0.1            -1.4354e-009    5.644e-010      1.4779e-009    
  -0.15           -6.908e-010     -1.48e-009      8.575e-010     
  -0.2            1.41e-009       -6.147e-010     -1.2901e-009   
  -0.25           7.491e-010      1.4556e-009     -7.133e-010    
  -0.3            -1.3906e-009    6.755e-010      1.4164e-009    
  -0.35           -7.806e-010     -1.4614e-009    9.306e-010     
  -0.4            8.158e-010      1.4445e-009     -1.1703e-009   
  -0.45           -1.5037e-009    7.564e-010      1.3796e-009    
  -0.5            -8.426e-010     -1.4485e-009    6.43e-010      
  -0.55           8.797e-010      1.4172e-009     -1.2787e-009   
  -0.6            -8.903e-010     -1.4226e-009    1.4786e-009    
  -0.65           -1.4444e-009    1.5158e-009     -1.3243e-009   
  -0.7            -9.666e-010     -1.4051e-009    7.886e-010     
  -0.75           1.418e-009      -1.0086e-009    -1.3111e-009   
  -0.8            1.4215e-009     -1.5056e-009    -6.852e-010    
  -0.85           1.4225e-009     -7.6611e-009    -6.655e-010    
  -0.9            -1.3879e-009    -3.478e-008     -1.2968e-009   
  -0.95           -1.4932e-009    -1.3778e-007    -7.48e-010     
  -1              -1.4582e-009    -5.3998e-007    6.615e-010     
  -1.05           -9.04e-010      -1.8603e-006    -9.697e-010    
  -1.1            1.4146e-009     -5.4674e-006    -1.3312e-009   
  -1.15           -1.4498e-009    -1.2647e-005    -6.622e-010    
  -1.2            -1.4415e-009    -2.4089e-005    7.648e-010     
  -1.25           -1.4266e-009    -3.8237e-005    8.228e-010     
  -1.3            -1.3915e-009    -5.2804e-005    8.763e-010     
  -1.35           -1.3558e-009    -6.623e-005     9.258e-010     
  -1.4            1.4195e-009     -7.8296e-005    -1.3242e-009   
  -1.45           1.3938e-009     -8.858e-005     -6.776e-010    
  -1.5            1.3164e-009     -9.7575e-005    -7.29e-010     
  -1.55           -1.4379e-009    -0.000105319    1.482e-009     
  -1.6            -1.4174e-009    -0.000112374    8.42e-010      
  -1.65           -1.433e-009     -0.00011875     6.69e-010      
  -1.7            -1.4057e-009    -0.00012452     8.581e-010     
  -1.75           -1.3518e-009    -0.00012971     9.108e-010     
  -1.8            -1.4366e-009    -0.00013452     9.569e-010     
  -1.85           1.404e-009      -0.00013906     -1.3304e-009   
  -1.9            1.3582e-009     -0.00014317     -7.13e-010     
  -1.95           1.4015e-009     -0.00014701     -7.606e-010    
  -2              -1.4367e-009    -0.00015047     1.3606e-009    
  -2.05           -1.4153e-009    -0.00015376     8.441e-010     
  -2.1            -1.3734e-009    -0.00015682     8.981e-010     
  -2.15           -1.4049e-009    -0.00015973     9.446e-010     
  -2.2            1.4153e-009     -0.00016261     -1.3319e-009   
  -2.25           1.3752e-009     -0.00016519     -6.981e-010    
  -2.3            1.3702e-009     -0.00016773     -7.497e-010    
  -2.35           -1.4324e-009    -0.00017006     1.4975e-009    
  -2.4            -1.4039e-009    -0.00017232     8.643e-010     
  -2.45           -1.3251e-009    -0.00017446     9.175e-010     
  -2.5            1.4202e-009     -0.00017654     -1.3186e-009   
  -2.55           1.4038e-009     -0.00017842     -6.642e-010    
  -2.6            1.3533e-009     -0.00018029     -7.187e-010    
  -2.65           1.4128e-009     -0.000182       -7.645e-010    
  -2.7            -1.4347e-009    -0.00018371     1.3581e-009    
  -2.75           -1.4163e-009    -0.00018527     8.476e-010     
  -2.8            -1.3642e-009    -0.00018682     9.008e-010     
  -2.85           -1.4156e-009    -0.0001883      9.488e-010     
  -2.9            1.4099e-009     -0.00018989     -1.3337e-009   
  -2.95           1.3704e-009     -0.00019132     -7.023e-010    
  -3              1.3811e-009     -0.0001926      -7.536e-010    
  -3.05           -1.4317e-009    -0.00019399     1.4983e-009    
  -3.1            -1.3956e-009    -0.0001952      8.707e-010     
  -3.15           -1.3355e-009    -0.00019642     9.194e-010     
  -3.2            1.4218e-009     -0.00019766     -1.323e-009    
  -3.25           1.3943e-009     -0.00019877     -6.713e-010    
  -3.3            1.3455e-009     -0.00019986     -7.214e-010    
  -3.35           1.4252e-009     -0.0002009      -7.691e-010    
  -3.4            -1.4389e-009    -0.00020192     1.3592e-009    
  -3.45           -1.4119e-009    -0.00020302     8.546e-010     
  -3.5            -1.3587e-009    -0.00020394     9.07e-010      
  -3.55           -1.4231e-009    -0.00020491     9.514e-010     
  -3.6            1.4122e-009     -0.0002059      -1.3313e-009   
  -3.65           1.3619e-009     -0.00020683     -7.087e-010    
  -3.7            1.3959e-009     -0.00020772     -7.565e-010    
  -3.75           -1.4299e-009    -0.00020856     1.4986e-009    
  -3.8            -1.3953e-009    -0.00020942     8.748e-010     
  -3.85           -1.3501e-009    -0.00021019     9.244e-010     
  -3.9            1.4212e-009     -0.00021098     -1.3231e-009   
  -3.95           1.3927e-009     -0.00021177     -6.746e-010    
  -4              1.3158e-009     -0.00021255     -7.279e-010    
  -4.05           -1.4373e-009    -0.00021323     1.4824e-009    
  -4.1            -1.4209e-009    -0.0002139      8.44e-010      
  -4.15           -1.3713e-009    -0.00021458     8.956e-010     
  -4.2            -1.4034e-009    -0.00021524     9.443e-010     
  -4.25           1.4167e-009     -0.000216       -1.3323e-009   
  -4.3            1.3761e-009     -0.00021664     -6.984e-010    
  -4.35           1.3664e-009     -0.00021722     -7.481e-010    
  -4.4            -1.4344e-009    -0.0002179      1.497e-009     
  -4.45           -1.4034e-009    -0.00021848     8.669e-010     
  -4.5            -1.3293e-009    -0.00021911     9.172e-010     
  -4.55           1.4238e-009     -0.00021975     -1.3207e-009   
  -4.6            1.4015e-009     -0.00022027     -6.667e-010    
  -4.65           1.3507e-009     -0.00022078     -7.192e-010    
  -4.7            1.4151e-009     -0.00022135     -7.679e-010    
  -4.75           -1.4376e-009    -0.00022193     1.3598e-009    
  -4.8            -1.4138e-009    -0.00022239     8.499e-010     
  -4.85           -1.36e-009      -0.00022297     9.039e-010     
  -4.9            -1.4194e-009    -0.0002234      9.5e-010       
  -4.95           1.411e-009      -0.00022395     -1.3325e-009   
  -5              1.3657e-009     -0.00022439     -7.048e-010    
END_DB

BEGIN_DB
 ICCAP_VAR VS         0              
 ICCAP_VAR VB         0              
 ICCAP_VAR VD         -5             
 ICCAP_VAR SUB        0              

 #VG              IG              ID              IB             
  0               -1.569e-010     1.3771e-009     -8.223e-010    
  -0.05           8.301e-010      1.4371e-009     -1.2036e-009   
  -0.1            -8.41e-010      -1.4491e-009    1.415e-009     
  -0.15           8.8e-010        1.4236e-009     -1.2788e-009   
  -0.2            -8.867e-010     -1.4217e-009    1.4792e-009    
  -0.25           5.788e-010      1.5387e-009     -1.3277e-009   
  -0.3            -1.4416e-009    9.241e-010      1.3499e-009    
  -0.35           -6.291e-010     -1.5141e-009    8.058e-010     
  -0.4            6.629e-010      1.4819e-009     -1.3206e-009   
  -0.45           -1.4308e-009    9.854e-010      1.2995e-009    
  -0.5            -7.069e-010     -1.4776e-009    8.704e-010     
  -0.55           7.412e-010      1.4467e-009     -1.0236e-009   
  -0.6            -1.3928e-009    6.541e-010      1.4189e-009    
  -0.65           -7.732e-010     -1.5235e-009    9.304e-010     
  -0.7            1.4799e-009     -5.725e-010     -1.1617e-009   
  -0.75           -1.4539e-009    -1.6686e-009    1.4422e-009    
  -0.8            -1.4615e-009    -5.4079e-009    7.242e-010     
  -0.85           -1.5493e-009    -2.2196e-008    -1.3026e-009   
  -0.9            1.4911e-009     -8.9747e-008    -1.2682e-009   
  -0.95           1.427e-009      -3.5886e-007    9.005e-010     
  -1              -1.4368e-009    -1.2854e-006    -1.2823e-009   
  -1.05           1.4136e-009     -4.0739e-006    -1.3288e-009   
  -1.1            1.3726e-009     -1.06713e-005   -7.088e-010    
  -1.15           -8.162e-010     -2.3085e-005    1.3682e-009    
  -1.2            1.4262e-009     -4.3556e-005    -1.232e-009    
  -1.25           -1.4391e-009    -9.0516e-005    -1.619e-006    
  -1.3            -1.5116e-009    -0.00012497     -2.994e-006    
  -1.35           -1.4412e-009    -0.00016806     -3.7977e-006   
  -1.4            -1.4153e-009    -0.00021956     -4.4856e-006   
  -1.45           -1.4623e-009    -0.00027852     -4.9596e-006   
  -1.5            -1.5331e-009    -0.00034461     -5.3001e-006   
  -1.55           -1.4523e-009    -0.00041752     -5.599e-006    
  -1.6            -1.4358e-009    -0.00049655     -5.9063e-006   
  -1.65           -1.3843e-009    -0.00057999     -6.0412e-006   
  -1.7            -1.5523e-009    -0.00066819     -6.1336e-006   
  -1.75           -1.4737e-009    -0.00076093     -6.1548e-006   
  -1.8            -1.4415e-009    -0.00085868     -6.2927e-006   
  -1.85           -1.3713e-009    -0.00096159     -6.3439e-006   
  -1.9            -1.5333e-009    -0.00106558     -6.3376e-006   
  -1.95           1.5345e-009     -0.0011749      -6.4024e-006   
  -2              1.442e-009      -0.0012865      -6.2653e-006   
  -2.05           1.4214e-009     -0.0013982      -6.3946e-006   
  -2.1            1.3635e-009     -0.0015166      -6.2901e-006   
  -2.15           1.5457e-009     -0.0016356      -6.3302e-006   
  -2.2            1.4619e-009     -0.0017567      -6.2384e-006   
  -2.25           1.4267e-009     -0.0018794      -6.2609e-006   
  -2.3            1.3712e-009     -0.0020039      -6.0969e-006   
  -2.35           1.5225e-009     -0.0021298      -6.0867e-006   
  -2.4            1.4974e-009     -0.0022609      -5.857e-006    
  -2.45           1.4266e-009     -0.0023923      -5.8024e-006   
  -2.5            1.4027e-009     -0.0025235      -5.6788e-006   
  -2.55           1.4687e-009     -0.0026593      -5.5033e-006   
  -2.6            1.5268e-009     -0.0027946      -5.2632e-006   
  -2.65           1.4335e-009     -0.0029272      -5.1123e-006   
  -2.7            1.4199e-009     -0.0030629      -4.9104e-006   
  -2.75           1.3921e-009     -0.0032006      -4.6343e-006   
  -2.8            1.5463e-009     -0.0033413      -4.3592e-006   
  -2.85           1.4537e-009     -0.0034826      -4.0939e-006   
  -2.9            1.4225e-009     -0.0036231      -3.8407e-006   
  -2.95           1.353e-009      -0.0037655      -3.4746e-006   
  -3              1.5308e-009     -0.003904       -3.095e-006    
  -3.05           1.4914e-009     -0.004044       -2.6654e-006   
  -3.1            1.4263e-009     -0.0041922      -2.3155e-006   
  -3.15           1.3908e-009     -0.0043313      -1.8747e-006   
  -3.2            1.4864e-009     -0.0044726      -1.4125e-006   
  -3.25           1.5196e-009     -0.004617       -1.0266e-006   
  -3.3            -8.449e-010     -0.0047641      -8.8969e-007   
  -3.35           -9.733e-010     -0.0048948      -4.0795e-007   
  -3.4            -1.1713e-009    -0.0050418      -1.9267e-007   
  -3.45           1.521e-009      -0.0051937      -2.0674e-008   
  -3.5            1.4253e-009     -0.0053718      -1.2028e-009   
  -3.55           1.4168e-009     -0.0055172      -6.316e-010    
  -3.6            1.3864e-009     -0.0056616      -6.86e-010     
  -3.65           1.3456e-009     -0.0058006      -7.389e-010    
  -3.7            -1.4351e-009    -0.005939       1.4929e-009    
  -3.75           -1.4117e-009    -0.0060807      8.558e-010     
  -3.8            -1.3565e-009    -0.0062169      9.081e-010     
  -3.85           -1.4341e-009    -0.0063424      9.568e-010     
  -3.9            1.4082e-009     -0.0064631      -1.3323e-009   
  -3.95           1.3635e-009     -0.0065882      -7.101e-010    
  -4              1.402e-009      -0.0067041      -7.611e-010    
  -4.05           -1.4404e-009    -0.0068011      1.3635e-009    
  -4.1            -1.4199e-009    -0.0068971      8.423e-010     
  -4.15           -1.3732e-009    -0.0069797      8.969e-010     
  -4.2            -1.4061e-009    -0.0070775      9.465e-010     
  -4.25           1.4155e-009     -0.0071708      -1.333e-009    
  -4.3            1.3757e-009     -0.007251       -7.014e-010    
  -4.35           1.375e-009      -0.0073314      -7.492e-010    
  -4.4            -1.4335e-009    -0.0073955      1.5006e-009    
  -4.45           -1.3999e-009    -0.0074622      8.685e-010     
  -4.5            -1.3349e-009    -0.0075296      9.205e-010     
  -4.55           1.4206e-009     -0.007595       -1.3222e-009   
  -4.6            1.4019e-009     -0.0076641      -6.705e-010    
  -4.65           1.3455e-009     -0.0077187      -7.253e-010    
  -4.7            1.4286e-009     -0.0077693      -7.711e-010    
  -4.75           -1.4346e-009    -0.0078067      1.359e-009     
  -4.8            -1.4116e-009    -0.0078572      8.588e-010     
  -4.85           -1.3569e-009    -0.0079093      9.107e-010     
  -4.9            -1.437e-009     -0.0079551      9.587e-010     
  -4.95           1.4086e-009     -0.0079893      -1.3312e-009   
  -5              1.3619e-009     -0.0080332      -7.126e-010    
END_DB

BEGIN_DB
 ICCAP_VAR VS         0              
 ICCAP_VAR VB         2.5            
 ICCAP_VAR VD         -0.1           
 ICCAP_VAR SUB        0              

 #VG              IG              ID              IB             
  0               3.295e-010      -1.0265e-009    4.567e-010     
  -0.05           -5.976e-010     -1.5225e-009    1.505e-009     
  -0.1            6.313e-010      1.4953e-009     -1.3199e-009   
  -0.15           -1.4442e-009    9.636e-010      1.3444e-009    
  -0.2            -6.768e-010     -1.4775e-009    8.509e-010     
  -0.25           1.4221e-009     -5.972e-010     -1.2828e-009   
  -0.3            7.298e-010      1.4525e-009     -6.949e-010    
  -0.35           -1.4095e-009    6.605e-010      1.4243e-009    
  -0.4            -7.71e-010      -1.4623e-009    9.308e-010     
  -0.45           8.021e-010      1.4502e-009     -1.1434e-009   
  -0.5            -1.5063e-009    7.422e-010      1.3876e-009    
  -0.55           -8.378e-010     -1.4553e-009    6.379e-010     
  -0.6            8.696e-010      1.4354e-009     -1.2631e-009   
  -0.65           -8.817e-010     -1.4311e-009    1.4754e-009    
  -0.7            9.14e-010       1.3994e-009     -1.3145e-009   
  -0.75           -1.4444e-009    8.731e-010      1.3733e-009    
  -0.8            1.4278e-009     -1.5494e-009    7.632e-010     
  -0.85           -1.4366e-009    9.22e-010       1.3634e-009    
  -0.9            -6.31e-010      -1.5092e-009    8.095e-010     
  -0.95           1.4269e-009     -5.434e-010     -1.3135e-009   
  -1              6.86e-010       1.4707e-009     -6.582e-010    
  -1.05           -1.4302e-009    6.092e-010      1.4643e-009    
  -1.1            -7.275e-010     -1.4681e-009    8.955e-010     
  -1.15           7.596e-010      1.441e-009      -1.0606e-009   
  -1.2            -1.3846e-009    6.399e-010      1.4107e-009    
  -1.25           -7.955e-010     -1.7412e-009    9.515e-010     
  -1.3            1.4669e-009     -1.827e-009     -1.1975e-009   
  -1.35           -1.4635e-009    -6.6066e-009    1.3763e-009    
  -1.4            1.4007e-009     -3.6095e-008    1.4743e-009    
  -1.45           1.4107e-009     -1.7552e-007    8.706e-010     
  -1.5            1.3564e-009     -7.1592e-007    -7.133e-010    
  -1.55           1.2332e-009     -2.4295e-006    1.5075e-009    
  -1.6            -1.4419e-009    -6.6621e-006    1.3796e-009    
  -1.65           1.3659e-009     -1.4786e-005    6.93e-010      
  -1.7            1.4105e-009     -2.6462e-005    -7.59e-010     
  -1.75           -1.438e-009     -3.9767e-005    1.3699e-009    
  -1.8            -1.4218e-009    -5.3085e-005    8.532e-010     
  -1.85           -1.3737e-009    -6.5371e-005    9.069e-010     
  -1.9            -1.4172e-009    -7.5933e-005    9.565e-010     
  -1.95           1.4153e-009     -8.5298e-005    -1.3252e-009   
  -2              1.3759e-009     -9.3312e-005    -6.951e-010    
  -2.05           1.3833e-009     -0.000100348    -7.466e-010    
  -2.1            -1.439e-009     -0.000106531    1.3716e-009    
  -2.15           -1.4286e-009    -0.000112122    8.389e-010     
  -2.2            -1.428e-009     -0.00011722     7.055e-010     
  -2.25           -1.3884e-009    -0.00012186     8.907e-010     
  -2.3            -1.3841e-009    -0.00012609     9.45e-010      
  -2.35           1.4221e-009     -0.00013012     -1.3263e-009   
  -2.4            1.3895e-009     -0.00013371     -6.806e-010    
  -2.45           1.3501e-009     -0.00013713     -7.338e-010    
  -2.5            -1.4354e-009    -0.00014025     1.5003e-009    
  -2.55           -1.4149e-009    -0.00014321     8.591e-010     
  -2.6            -1.3637e-009    -0.00014597     9.141e-010     
  -2.65           -1.4303e-009    -0.00014858     9.639e-010     
  -2.7            1.4133e-009     -0.00015112     -1.3271e-009   
  -2.75           1.3685e-009     -0.00015348     -7.016e-010    
  -2.8            1.3998e-009     -0.0001557      -7.538e-010    
  -2.85           -1.4357e-009    -0.0001578      1.3665e-009    
  -2.9            -1.4248e-009    -0.00015978     8.455e-010     
  -2.95           -1.379e-009     -0.00016172     8.998e-010     
  -3              -1.3979e-009    -0.00016352     9.514e-010     
  -3.05           1.4172e-009     -0.00016536     -1.3248e-009   
  -3.1            1.3836e-009     -0.00016704     -6.887e-010    
  -3.15           1.3645e-009     -0.0001687      -7.413e-010    
  -3.2            -1.4395e-009    -0.00017008     1.3696e-009    
  -3.25           -1.4313e-009    -0.00017158     8.303e-010     
  -3.3            -1.3947e-009    -0.00017306     8.855e-010     
  -3.35           -1.3696e-009    -0.00017439     9.373e-010     
  -3.4            1.4173e-009     -0.0001758      -1.3221e-009   
  -3.45           1.3962e-009     -0.00017703     -6.758e-010    
  -3.5            1.3364e-009     -0.00017832     -7.291e-010    
  -3.55           -1.4364e-009    -0.00017946     1.4955e-009    
  -3.6            -1.4205e-009    -0.00018067     8.554e-010     
  -3.65           -1.3684e-009    -0.00018179     9.083e-010     
  -3.7            -1.4226e-009    -0.00018282     9.585e-010     
  -3.75           1.4119e-009     -0.00018394     -1.3262e-009   
  -3.8            1.3734e-009     -0.00018498     -6.969e-010    
  -3.85           1.3887e-009     -0.00018596     -7.481e-010    
  -3.9            -1.4338e-009    -0.00018686     1.5069e-009    
  -3.95           -1.4046e-009    -0.00018784     8.768e-010     
  -4              -1.347e-009     -0.00018875     9.285e-010     
  -4.05           1.4189e-009     -0.00018961     -1.32e-009     
