! VERSION = 6.00
BEGIN_HEADER
 ICCAP_INPUTS
  VG         V  B GROUND SMU4 0.001 LIN        1    0          -5         101  -0.05     
  VS         V  E GROUND SMU2 0.1 CON        0
  VB         V  C GROUND SMU3 0.1 LIN        3    0          5          3    2.5       
  VD         V  S GROUND SMU1 0.1 LIN        2    -0.1       -5         2    -4.9      
  SUB        V  D GROUND VSU1 0.1 CON        0
 ICCAP_OUTPUTS
  IG         I  B GROUND SMU4 B
  ID         I  S GROUND SMU1 B
  IB         I  C GROUND SMU3 B
END_HEADER

BEGIN_DB
 ICCAP_VAR VS         0              
 ICCAP_VAR VB         0              
 ICCAP_VAR VD         -0.1           
 ICCAP_VAR SUB        0              

 #VG              IG              ID              IB             
  0               3.754e-010      -5.111e-010     4.44e-011      
  -0.05           -6.283e-010     -1.4672e-009    1.4832e-009    
  -0.1            6.635e-010      1.4536e-009     -1.3231e-009   
  -0.15           -1.4437e-009    5.73e-010       1.4557e-009    
  -0.2            -6.962e-010     -1.4544e-009    8.765e-010     
  -0.25           1.4178e-009     -6.136e-010     -1.2825e-009   
  -0.3            7.542e-010      1.4431e-009     -7.443e-010    
  -0.35           -1.4003e-009    6.693e-010      1.4022e-009    
  -0.4            -7.813e-010     -1.4659e-009    9.415e-010     
  -0.45           8.152e-010      1.4509e-009     -1.2032e-009   
  -0.5            -1.4644e-009    7.408e-010      1.3816e-009    
  -0.55           -8.381e-010     -1.4664e-009    6.276e-010     
  -0.6            8.717e-010      1.4344e-009     -1.3003e-009   
  -0.65           -8.763e-010     -1.4657e-009    1.4748e-009    
  -0.7            1.4194e-009     -5.319e-010     -1.3426e-009   
  -0.75           -1.4378e-009    5.163e-010      1.3909e-009    
  -0.8            4.573e-010      -3.703e-008     7.886e-010     
  -0.85           1.3382e-009     -1.3057e-008    -3.11e-011     
  -0.9            1.4335e-009     -3.0451e-008    1.3942e-009    
  -0.95           1.4275e-009     -1.3121e-007    1.3726e-009    
  -1              -1.4352e-009    -5.128e-007     1.4709e-009    
  -1.05           -1.4356e-009    -1.782e-006     6.856e-010     
  -1.1            4.062e-010      -5.308e-006     7.53e-010      
  -1.15           -8.455e-010     -1.6755e-005    -2.88e-010     
  -1.2            1.439e-009      -2.4125e-005    -1.3126e-009   
  -1.25           1.4413e-009     -3.8252e-005    -6.503e-010    
  -1.3            1.4087e-009     -5.2559e-005    -7.074e-010    
  -1.35           1.3272e-009     -6.5649e-005    -7.561e-010    
  -1.4            -1.4602e-009    -7.6846e-005    1.487e-009     
  -1.45           -1.4441e-009    -8.6723e-005    8.483e-010     
  -1.5            -1.386e-009     -9.5316e-005    9.021e-010     
  -1.55           -1.3878e-009    -0.00010378     9.45e-010      
  -1.6            1.4416e-009     -0.000110617    -1.3387e-009   
  -1.65           -5.959e-010     -0.00011567     -2.817e-010    
  -1.7            -1.4394e-009    -0.00012101     1.3896e-009    
  -1.75           -1.4333e-009    -0.0001259      6.488e-010     
  -1.8            -1.4469e-009    -0.0001304      7.151e-010     
  -1.85           -1.4579e-009    -0.0001346      7.866e-010     
  -1.9            -1.4438e-009    -0.00013838     8.469e-010     
  -1.95           -1.3896e-009    -0.00014194     8.988e-010     
  -2              -1.3822e-009    -0.00014544     9.449e-010     
  -2.05           1.4409e-009     -0.000149       -1.3433e-009   
  -2.1            1.4042e-009     -0.00015125     -7.088e-010    
  -2.15           1.3265e-009     -0.00015393     -7.588e-010    
  -2.2            -1.4605e-009    -0.00015643     1.4866e-009    
  -2.25           -1.4416e-009    -0.00015885     8.486e-010     
  -2.3            -1.3867e-009    -0.00016113     9.026e-010     
  -2.35           -1.3888e-009    -0.00016328     9.458e-010     
  -2.4            1.4413e-009     -0.0001654      -1.3419e-009   
  -2.45           1.4018e-009     -0.00016737     -7.103e-010    
  -2.5            1.3359e-009     -0.00016921     -7.593e-010    
  -2.55           -1.4584e-009    -0.00017101     1.4852e-009    
  -2.6            -1.4386e-009    -0.00017266     8.516e-010     
  -2.65           -1.3788e-009    -0.00017428     9.043e-010     
  -2.7            -1.3954e-009    -0.00017583     9.493e-010     
  -2.75           1.4403e-009     -0.0001774      -1.3404e-009   
  -2.8            1.4006e-009     -0.00017888     -7.16e-010     
  -2.85           1.3395e-009     -0.00018025     -7.648e-010    
  -2.9            -1.46e-009      -0.00018152     1.4855e-009    
  -2.95           -1.4367e-009    -0.00018281     8.542e-010     
  -3              -1.3764e-009    -0.00018404     9.092e-010     
  -3.05           -1.4039e-009    -0.00018524     9.514e-010     
  -3.1            1.4405e-009     -0.00018641     -1.3396e-009   
  -3.15           1.3971e-009     -0.00018753     -7.203e-010    
  -3.2            1.3487e-009     -0.00018863     -7.664e-010    
  -3.25           -1.4589e-009    -0.00018964     1.4903e-009    
  -3.3            -1.4334e-009    -0.00019064     8.599e-010     
  -3.35           -1.368e-009     -0.00019163     9.128e-010     
  -3.4            -1.4115e-009    -0.00019274     9.536e-010     
  -3.45           1.4365e-009     -0.00019364     -1.3401e-009   
  -3.5            1.3908e-009     -0.00019441     -7.227e-010    
  -3.55           1.3645e-009     -0.00019533     -7.702e-010    
  -3.6            -1.4579e-009    -0.00019615     1.4053e-009    
  -3.65           -1.4524e-009    -0.000197       8.25e-010      
  -3.7            -1.4129e-009    -0.00019773     8.813e-010     
  -3.75           -1.3375e-009    -0.00019853     9.285e-010     
  -3.8            1.4438e-009     -0.00019932     -1.3306e-009   
  -3.85           1.4205e-009     -0.00020005     -6.901e-010    
  -3.9            1.3547e-009     -0.00020079     -7.403e-010    
  -3.95           1.4052e-009     -0.00020149     -7.834e-010    
  -4              -1.4631e-009    -0.00020215     1.4026e-009    
  -4.05           -1.438e-009     -0.00020283     8.483e-010     
  -4.1            -1.3768e-009    -0.00020346     9.019e-010     
  -4.15           -1.3854e-009    -0.00020409     9.414e-010     
  -4.2            1.442e-009      -0.00020474     -1.3298e-009   
  -4.25           1.3958e-009     -0.00020532     -7.114e-010    
  -4.3            1.3319e-009     -0.00020589     -7.583e-010    
  -4.35           -1.4612e-009    -0.00020647     1.4075e-009    
  -4.4            -1.4586e-009    -0.00020704     8.125e-010     
  -4.45           -1.4191e-009    -0.00020757     8.682e-010     
  -4.5            -1.3069e-009    -0.00020815     9.192e-010     
  -4.55           1.4483e-009     -0.00020866     -1.3202e-009   
  -4.6            1.4296e-009     -0.00020917     -6.778e-010    
  -4.65           1.3722e-009     -0.00020968     -7.306e-010    
  -4.7            1.3779e-009     -0.00021018     -7.726e-010    
  -4.75           -1.4629e-009    -0.00021064     1.4057e-009    
  -4.8            -1.4458e-009    -0.00021123     8.353e-010     
  -4.85           -1.3983e-009    -0.00021159     8.872e-010     
  -4.9            -1.3517e-009    -0.00021202     9.315e-010     
  -4.95           1.4456e-009     -0.00021251     -1.3308e-009   
  -5              1.4114e-009     -0.00021293     -6.962e-010    
END_DB

BEGIN_DB
 ICCAP_VAR VS         0              
 ICCAP_VAR VB         0              
 ICCAP_VAR VD         -5             
 ICCAP_VAR SUB        0              

 #VG              IG              ID              IB             
  0               -2.653e-010     6.834e-010      -4.07e-011     
  -0.05           8.89e-010       1.4265e-009     -1.3259e-009   
  -0.1            -1.438e-009     8.425e-010      1.4065e-009    
  -0.15           -9.047e-010     -1.3907e-009    7.207e-010     
  -0.2            6.026e-010      1.4689e-009     -1.3329e-009   
  -0.25           -1.4587e-009    9.427e-010      1.3693e-009    
  -0.3            -6.433e-010     -1.4657e-009    8.391e-010     
  -0.35           6.857e-010      1.4572e-009     -1.2949e-009   
  -0.4            -1.4496e-009    5.872e-010      1.4235e-009    
  -0.45           -7.168e-010     -1.4708e-009    8.913e-010     
  -0.5            7.585e-010      1.4664e-009     -1.0835e-009   
  -0.55           -1.3825e-009    6.649e-010      1.4036e-009    
  -0.6            -7.863e-010     -1.4983e-009    9.355e-010     
  -0.65           -1.4515e-009    1.4914e-009     -1.2097e-009   
  -0.7            -8.617e-010     -1.6776e-009    6.548e-010     
  -0.75           1.4427e-009     -1.4168e-009    -1.3156e-009   
  -0.8            -1.4545e-009    -3.3365e-009    1.4012e-009    
  -0.85           -1.4294e-009    -1.9397e-008    -1.3272e-009   
  -0.9            -1.0445e-009    -7.8824e-008    -1.0272e-009   
  -0.95           -7.913e-010     -3.1811e-007    1.4008e-009    
  -1              1.1508e-009     -1.2725e-006    1.4849e-009    
  -1.05           -1.4374e-009    -3.7793e-006    1.3947e-009    
  -1.1            -1.4465e-009    -1.01215e-005   7.118e-010     
  -1.15           -1.4536e-009    -2.2504e-005    -1.0768e-009   
  -1.2            -1.4474e-009    -4.2708e-005    8.263e-010     
  -1.25           -1.4332e-009    -8.7566e-005    -9.659e-007    
  -1.3            -1.4344e-009    -0.0001236      -2.1483e-006   
  -1.35           -1.4455e-009    -0.00016831     -2.8345e-006   
  -1.4            -1.504e-009     -0.000221       -3.3968e-006   
  -1.45           -1.4327e-009    -0.00028076     -3.8891e-006   
  -1.5            -1.4454e-009    -0.00034841     -4.2603e-006   
  -1.55           -1.3439e-009    -0.00042292     -4.4762e-006   
  -1.6            -1.5246e-009    -0.00050277     -4.6124e-006   
  -1.65           -1.4547e-009    -0.00058915     -4.7677e-006   
  -1.7            -1.4389e-009    -0.00069274     -4.9336e-006   
  -1.75           -1.3995e-009    -0.00077594     -4.9935e-006   
  -1.8            -1.4907e-009    -0.00087625     -5.0111e-006   
  -1.85           -1.491e-009     -0.00098249     -5.0025e-006   
  -1.9            -1.4338e-009    -0.00109008     -5.0871e-006   
  -1.95           1.506e-009      -0.0012036      -5.0984e-006   
  -2              1.4255e-009     -0.0013182      -5.0076e-006   
  -2.05           1.428e-009      -0.0014354      -5.0288e-006   
  -2.1            1.3503e-009     -0.0015574      -4.9379e-006   
  -2.15           1.5223e-009     -0.0016803      -4.8326e-006   
  -2.2            1.4562e-009     -0.0018053      -4.7539e-006   
  -2.25           1.4263e-009     -0.001933       -4.7567e-006   
  -2.3            1.3839e-009     -0.002064       -4.6606e-006   
  -2.35           1.4908e-009     -0.0021952      -4.5332e-006   
  -2.4            1.4884e-009     -0.0023307      -4.3617e-006   
  -2.45           1.4231e-009     -0.0024652      -4.2864e-006   
  -2.5            1.4126e-009     -0.0026039      -4.1678e-006   
  -2.55           1.4159e-009     -0.0027399      -3.9879e-006   
  -2.6            1.5103e-009     -0.0028787      -3.7545e-006   
  -2.65           1.435e-009      -0.0030233      -3.5873e-006   
  -2.7            1.4241e-009     -0.0031643      -3.4292e-006   
  -2.75           1.3106e-009     -0.003307       -3.1577e-006   
  -2.8            1.5199e-009     -0.0034507      -2.8373e-006   
  -2.85           1.4632e-009     -0.0035962      -2.5311e-006   
  -2.9            1.4216e-009     -0.0037401      -2.2558e-006   
  -2.95           1.3899e-009     -0.0038834      -1.9116e-006   
  -3              1.471e-009      -0.0040295      -1.5072e-006   
  -3.05           1.4939e-009     -0.0041759      -1.0937e-006   
  -3.1            -1.025e-009     -0.0043228      -8.9632e-007   
  -3.15           -1.2826e-009    -0.0044695      -4.5161e-007   
  -3.2            -1.5146e-009    -0.0046219      -1.1268e-007   
  -3.25           1.4435e-009     -0.004785       -1.3944e-008   
  -3.3            1.4437e-009     -0.0049583      -8.385e-010    
  -3.35           -1.4362e-009    -0.0051087      1.4715e-009    
  -3.4            -1.4355e-009    -0.0052607      8.245e-010     
  -3.45           -1.4036e-009    -0.0054096      8.803e-010     
  -3.5            -1.3446e-009    -0.0055602      9.296e-010     
  -3.55           1.4256e-009     -0.005712       -1.3444e-009   
  -3.6            1.4082e-009     -0.0058562      -6.898e-010    
  -3.65           1.2936e-009     -0.0059956      -7.451e-010    
  -3.7            -1.4405e-009    -0.00613        1.4807e-009    
  -3.75           -1.4329e-009    -0.0062614      8.36e-010      
  -3.8            -1.3946e-009    -0.0063844      8.926e-010     
  -3.85           -1.3667e-009    -0.0064991      9.383e-010     
  -3.9            1.4278e-009     -0.0066122      -1.3503e-009   
  -3.95           1.402e-009      -0.0067137      -7.022e-010    
  -4              1.3219e-009     -0.0068089      -7.545e-010    
  -4.05           -1.4396e-009    -0.0068972      1.4902e-009    
  -4.1            -1.4245e-009    -0.0069799      8.473e-010     
  -4.15           -1.3784e-009    -0.0070577      9.009e-010     
  -4.2            -1.3921e-009    -0.0071318      9.472e-010     
  -4.25           1.4261e-009     -0.0072037      -1.3497e-009   
  -4.3            1.3885e-009     -0.0072687      -7.144e-010    
  -4.35           1.3456e-009     -0.0073312      -7.647e-010    
  -4.4            -1.442e-009     -0.0073857      1.4949e-009    
  -4.45           -1.4225e-009    -0.0074414      8.609e-010     
  -4.5            -1.364e-009     -0.0074941      9.147e-010     
  -4.55           -1.425e-009     -0.0075439      9.583e-010     
  -4.6            1.4235e-009     -0.0075935      -1.3413e-009   
  -4.65           1.3778e-009     -0.0076379      -7.269e-010    
  -4.7            1.3804e-009     -0.0076816      -7.752e-010    
  -4.75           -1.447e-009     -0.0077237      1.3915e-009    
  -4.8            -1.4367e-009    -0.0077648      8.345e-010     
  -4.85           -1.3952e-009    -0.007802       8.912e-010     
  -4.9            -1.3684e-009    -0.0078386      9.378e-010     
  -4.95           1.4313e-009     -0.0078746      -1.3461e-009   
  -5              1.4039e-009     -0.0079095      -7.017e-010    
END_DB

BEGIN_DB
 ICCAP_VAR VS         0              
 ICCAP_VAR VB         2.5            
 ICCAP_VAR VD         -0.1           
 ICCAP_VAR SUB        0              

 #VG              IG              ID              IB             
  0               -1.3064e-009    -2.385e-010     1.2873e-009    
  -0.05           7.731e-010      1.4653e-009     -1.1149e-009   
  -0.1            -1.3545e-009    6.946e-010      1.4225e-009    
  -0.15           -7.999e-010     -1.4687e-009    9.501e-010     
  -0.2            8.331e-010      1.4453e-009     -1.2269e-009   
  -0.25           -1.4634e-009    7.778e-010      1.414e-009     
  -0.3            -8.548e-010     -1.4314e-009    6.6e-010       
  -0.35           8.843e-010      1.4004e-009     -1.2982e-009   
  -0.4            -1.4547e-009    8.501e-010      1.4053e-009    
  -0.45           1.4443e-009     -1.5222e-009    7.41e-010      
  -0.5            -1.4556e-009    8.945e-010      1.3873e-009    
  -0.55           1.4457e-009     -1.497e-009     7.952e-010     
  -0.6            6.243e-010      1.4788e-009     -6.364e-010    
  -0.65           -1.4469e-009    9.457e-010      1.3444e-009    
  -0.7            -6.692e-010     -1.4805e-009    8.575e-010     
  -0.75           1.4152e-009     -5.742e-010     -1.2872e-009   
  -0.8            7.282e-010      1.4716e-009     -7.133e-010    
  -0.85           -1.3997e-009    6.382e-010      1.4299e-009    
  -0.9            -7.632e-010     -1.4757e-009    9.23e-010      
  -0.95           7.95e-010       1.4599e-009     -1.1561e-009   
  -1              -1.4722e-009    7.248e-010      1.4179e-009    
  -1.05           8.351e-010      1.4439e-009     -1.2341e-009   
  -1.1            -1.4617e-009    7.838e-010      1.4112e-009    
  -1.15           -8.599e-010     -1.4391e-009    6.678e-010     
  -1.2            -1.4579e-009    1.4666e-009     -1.3057e-009   
  -1.25           -9.269e-010     -1.565e-009     7.733e-010     
  -1.3            9.204e-010      6.75e-010       1.4163e-009    
  -1.35           -1.4733e-009    -5.3518e-009    1.3851e-009    
  -1.4            1.457e-009      -3.0945e-008    1.4124e-009    
  -1.45           1.426e-009      -1.5084e-007    1.1207e-009    
  -1.5            1.3768e-009     -6.2858e-007    -7.062e-010    
  -1.55           1.1506e-009     -2.2169e-006    1.4724e-009    
  -1.6            -1.4494e-009    -6.2247e-006    1.4145e-009    
  -1.65           1.3935e-009     -1.423e-005     6.362e-010     
  -1.7            1.3122e-009     -2.5817e-005    -7.436e-010    
  -1.75           -1.458e-009     -3.9042e-005    1.4085e-009    
  -1.8            -1.4413e-009    -5.2281e-005    8.157e-010     
  -1.85           -1.4059e-009    -6.4448e-005    8.711e-010     
  -1.9            -1.3073e-009    -7.4717e-005    9.173e-010     
  -1.95           1.4369e-009     -8.3789e-005    -1.3047e-009   
  -2              1.4073e-009     -9.1486e-005    -6.744e-010    
  -2.05           1.2603e-009     -9.826e-005     -7.213e-010    
  -2.1            -1.4546e-009    -0.000104152    1.4127e-009    
  -2.15           -1.4494e-009    -0.000109508    7.907e-010     
  -2.2            -1.4515e-009    -0.0001144      1.4182e-009    
  -2.25           -1.4464e-009    -0.00011874     8.07e-010      
  -2.3            -1.4152e-009    -0.00012278     8.61e-010      
  -2.35           -1.2853e-009    -0.00012649     9.082e-010     
  -2.4            1.441e-009      -0.00012997     -1.298e-009    
  -2.45           1.4165e-009     -0.00013315     -6.628e-010    
  -2.5            1.3693e-009     -0.00013613     -7.117e-010    
  -2.55           1.3604e-009     -0.00013889     -7.57e-010     
  -2.6            -1.4568e-009    -0.00014148     1.4054e-009    
  -2.65           -1.4371e-009    -0.00014394     8.361e-010     
  -2.7            -1.3882e-009    -0.00014625     8.924e-010     
  -2.75           -1.35e-009      -0.00014843     9.35e-010      
  -2.8            1.4398e-009     -0.00015054     -1.3181e-009   
  -2.85           1.4086e-009     -0.00015252     -6.948e-010    
  -2.9            1.3082e-009     -0.00015441     -7.424e-010    
  -2.95           -1.4587e-009    -0.00015618     1.4121e-009    
  -3              -1.4579e-009    -0.00015789     8.105e-010     
  -3.05           -1.426e-009     -0.00015952     8.673e-010     
  -3.1            -1.2976e-009    -0.00016108     9.171e-010     
  -3.15           1.4477e-009     -0.0001626      -1.3143e-009   
  -3.2            1.4307e-009     -0.00016405     -6.682e-010    
  -3.25           1.3768e-009     -0.00016542     -7.217e-010    
  -3.3            1.3715e-009     -0.0001668      -7.657e-010    
  -3.35           -1.4575e-009    -0.00016805     1.41e-009      
  -3.4            -1.4439e-009    -0.00016931     8.41e-010      
  -3.45           -1.3967e-009    -0.00017049     8.97e-010      
  -3.5            -1.3666e-009    -0.00017163     9.404e-010     
  -3.55           1.4441e-009     -0.00017278     -1.3272e-009   
  -3.6            1.4049e-009     -0.00017385     -6.973e-010    
  -3.65           1.3158e-009     -0.00017488     -7.468e-010    
  -3.7            -1.4548e-009    -0.00017583     1.4104e-009    
  -3.75           -1.4561e-009    -0.00017681     8.121e-010     
  -3.8            -1.4254e-009    -0.00017775     8.718e-010     
  -3.85           -1.3075e-009    -0.0001787      9.191e-010     
  -3.9            1.4454e-009     -0.00017959     -1.318e-009    
  -3.95           1.4289e-009     -0.00018044     -6.718e-010    
  -4              1.3759e-009     -0.0001813      -7.241e-010    
  -4.05           1.3786e-009     -0.00018211     -7.698e-010    
