! VERSION = 6.00
BEGIN_HEADER
 ICCAP_INPUTS
  VG         V  B GROUND SMU4 0.001 LIN        2    0          -5         6    -1        
  VS         V  E GROUND SMU2 0.1 CON        0
  VD         V  S GROUND SMU1 0.1 LIN        1    0          -5         101  -0.05     
  VB         V  C GROUND SMU3 0.1 LIN        3    0          2.5        2    2.5       
  SUB        V  D GROUND VSU1 0.1 CON        0
 ICCAP_OUTPUTS
  ID         I  S GROUND SMU1 B
  IB         I  C GROUND SMU3 B
  IG         I  B GROUND SMU4 B
END_HEADER

BEGIN_DB
 ICCAP_VAR VG         0              
 ICCAP_VAR VS         0              
 ICCAP_VAR VB         0              
 ICCAP_VAR SUB        0              

 #VD              ID              IB              IG             
  0               -1.1465e-009    7.967e-010      -5.5e-012      
  -0.05           -1.4491e-009    1.1932e-009     -7.086e-010    
  -0.1            -6.305e-010     -1.278e-009     1.4001e-009    
  -0.15           1.5389e-009     -7.499e-010     -1.3969e-009   
  -0.2            -1.4475e-009    9.336e-010      -7.723e-010    
  -0.25           1.4326e-009     -1.194e-009     8.053e-010     
  -0.3            7.369e-010      1.3838e-009     -1.4715e-009   
  -0.35           -1.4467e-009    6.227e-010      -8.305e-010    
  -0.4            1.4268e-009     -1.2908e-009    8.645e-010     
  -0.45           -1.4314e-009    1.4688e-009     -8.71e-010     
  -0.5            1.3975e-009     -1.3373e-009    9.033e-010     
  -0.55           -1.5038e-009    1.4941e-009     1.418e-009     
  -0.6            1.4787e-009     -6.26e-010      6.1e-010       
  -0.65           9.393e-010      1.3552e-009     -1.4301e-009   
  -0.7            -1.4642e-009    8.295e-010      -6.465e-010    
  -0.75           -5.62e-010      -1.3121e-009    1.4181e-009    
  -0.8            1.4378e-009     -7.027e-010     7.044e-010     
  -0.85           6.185e-010      1.4302e-009     -1.4207e-009   
  -0.9            -1.4443e-009    9.037e-010      -7.351e-010    
  -0.95           1.4395e-009     -1.1232e-009    7.71e-010      
  -1              6.933e-010      1.394e-009      -1.3712e-009   
  -1.05           -1.4509e-009    9.512e-010      -7.979e-010    
  -1.1            1.4357e-009     -1.2417e-009    8.329e-010     
  -1.15           -1.4457e-009    1.4272e-009     -8.396e-010    
  -1.2            1.4241e-009     -1.3029e-009    8.714e-010     
  -1.25           -1.4247e-009    1.479e-009      -8.774e-010    
  -1.3            1.5039e-009     -1.345e-009     -1.426e-009    
  -1.35           -1.4952e-009    7.795e-010      1.4156e-009    
  -1.4            1.4704e-009     -6.34e-010      6.238e-010     
  -1.45           9.499e-010      1.3521e-009     -1.4314e-009   
  -1.5            -1.4573e-009    8.401e-010      -6.583e-010    
  -1.55           -5.738e-010     -1.3083e-009    1.4147e-009    
  -1.6            1.4368e-009     -7.113e-010     7.153e-010     
  -1.65           6.332e-010      1.4287e-009     -1.411e-009    
  -1.7            -1.4489e-009    9.117e-010      -7.443e-010    
  -1.75           1.5596e-009     -1.1442e-009    -1.3794e-009   
  -1.8            -1.4486e-009    9.468e-010      -7.897e-010    
  -1.85           1.4373e-009     -1.2259e-009    8.244e-010     
  -1.9            7.619e-010      1.3798e-009     -1.461e-009    
  -1.95           -1.4405e-009    6.475e-010      -8.486e-010    
  -2              1.413e-009      -1.3127e-009    8.794e-010     
  -2.05           -1.4129e-009    1.48e-009       -8.873e-010    
  -2.1            1.5049e-009     -1.3439e-009    -1.4258e-009   
  -2.15           -1.4939e-009    7.899e-010      -5.977e-010    
  -2.2            1.4699e-009     -1.3419e-009    6.346e-010     
  -2.25           9.552e-010      1.3429e-009     -1.4323e-009   
  -2.3            -1.4557e-009    8.503e-010      -6.691e-010    
  -2.35           -5.876e-010     -1.3047e-009    1.4128e-009    
  -2.4            1.441e-009      -7.209e-010     7.267e-010     
  -2.45           6.436e-010      1.4214e-009     -1.4066e-009   
  -2.5            -1.449e-009     9.178e-010      -7.545e-010    
  -2.55           1.4374e-009     -1.1615e-009    7.9e-010       
  -2.6            7.205e-010      1.3908e-009     -1.4865e-009   
  -2.65           1.433e-009      -1.2406e-009    8.319e-010     
  -2.7            -1.4433e-009    1.4269e-009     -8.403e-010    
  -2.75           1.4221e-009     -1.3041e-009    8.716e-010     
  -2.8            -1.4248e-009    1.4762e-009     -8.776e-010    
  -2.85           1.5105e-009     -1.3443e-009    -1.4308e-009   
  -2.9            -1.5015e-009    7.801e-010      1.4199e-009    
  -2.95           1.4796e-009     -6.366e-010     6.223e-010     
  -3              9.468e-010      1.352e-009      -1.4313e-009   
  -3.05           -1.4618e-009    8.381e-010      -6.597e-010    
  -3.1            -5.753e-010     -1.3106e-009    1.4184e-009    
  -3.15           1.4386e-009     -7.115e-010     7.154e-010     
  -3.2            6.315e-010      1.4288e-009     -1.414e-009    
  -3.25           -1.4475e-009    9.119e-010      -7.448e-010    
  -3.3            1.4396e-009     -1.1449e-009    7.824e-010     
  -3.35           7.093e-010      1.3952e-009     -1.3608e-009   
  -3.4            -1.4534e-009    9.618e-010      -8.069e-010    
  -3.45           1.436e-009      -1.2559e-009    8.429e-010     
  -3.5            -1.4471e-009    1.4432e-009     -8.491e-010    
  -3.55           1.4218e-009     -1.3178e-009    8.821e-010     
  -3.6            -1.4202e-009    1.4887e-009     -8.89e-010     
  -3.65           1.5e-009        -1.3507e-009    -1.4259e-009   
  -3.7            -1.487e-009     7.896e-010      -5.978e-010    
  -3.75           1.4622e-009     -1.34e-009      6.331e-010     
  -3.8            9.572e-010      1.3448e-009     -1.4323e-009   
  -3.85           -1.4506e-009    8.507e-010      -6.698e-010    
  -3.9            -5.898e-010     -1.2991e-009    1.4198e-009    
  -3.95           1.4344e-009     -7.214e-010     7.286e-010     
  -4              6.44e-010       1.4138e-009     -1.4115e-009   
  -4.05           -1.4475e-009    9.215e-010      -7.566e-010    
  -4.1            1.4394e-009     -1.1721e-009    7.95e-010      
  -4.15           7.224e-010      1.3853e-009     -1.4814e-009   
  -4.2            1.438e-009      -1.2453e-009    8.364e-010     
  -4.25           -1.447e-009     1.4342e-009     -8.452e-010    
  -4.3            1.4268e-009     -1.3089e-009    8.771e-010     
  -4.35           -1.4255e-009    1.4833e-009     -8.839e-010    
  -4.4            1.4989e-009     -1.3462e-009    -1.4272e-009   
  -4.45           -1.4886e-009    7.84e-010       -5.907e-010    
  -4.5            1.4694e-009     -1.3436e-009    6.257e-010     
  -4.55           9.542e-010      1.3502e-009     -1.4339e-009   
  -4.6            -1.457e-009     8.45e-010       -6.652e-010    
  -4.65           -5.794e-010     -1.3039e-009    1.4185e-009    
  -4.7            1.4351e-009     -7.172e-010     7.209e-010     
  -4.75           6.385e-010      1.4213e-009     -1.4167e-009   
  -4.8            -1.4498e-009    9.179e-010      -7.512e-010    
  -4.85           1.4399e-009     -1.1577e-009    7.867e-010     
  -4.9            7.137e-010      1.3873e-009     -1.3548e-009   
  -4.95           -1.4554e-009    9.647e-010      -8.152e-010    
  -5              1.4383e-009     -1.2689e-009    8.491e-010     
END_DB

BEGIN_DB
 ICCAP_VAR VG         -1             
 ICCAP_VAR VS         0              
 ICCAP_VAR VB         0              
 ICCAP_VAR SUB        0              

 #VD              ID              IB              IG             
  0               -1.4779e-008    7.552e-010      -1.0503e-009   
  -0.05           -4.2794e-007    -1.3145e-009    6.553e-010     
  -0.1            -5.1784e-007    -8.04e-010      1.4557e-009    
  -0.15           -5.4684e-007    -1.1115e-009    1.4292e-009    
  -0.2            -5.5606e-007    -1.3141e-009    1.3827e-009    
  -0.25           -5.7475e-007    -1.346e-009     1.419e-009     
  -0.3            -5.8195e-007    -1.3026e-009    1.4198e-009    
  -0.35           -5.933e-007     -1.1893e-009    1.4214e-009    
  -0.4            -6.0554e-007    -1.2886e-009    1.4767e-009    
  -0.45           -6.1689e-007    -1.3486e-009    1.4195e-009    
  -0.5            -6.2475e-007    -1.2943e-009    1.4193e-009    
  -0.55           -6.3617e-007    -1.1751e-009    1.4247e-009    
  -0.6            -6.4256e-007    -1.2917e-009    1.3494e-009    
  -0.65           -6.5208e-007    -1.341e-009     1.4107e-009    
  -0.7            -6.6463e-007    -1.3328e-009    1.4217e-009    
  -0.75           -6.8241e-007    -1.2376e-009    1.4187e-009    
  -0.8            -6.7992e-007    -1.0997e-009    1.4342e-009    
  -0.85           -6.8694e-007    -1.3167e-009    1.3874e-009    
  -0.9            -6.9629e-007    -1.3469e-009    1.4215e-009    
  -0.95           -7.0561e-007    -1.2932e-009    1.4222e-009    
  -1              -7.143e-007     -1.1696e-009    1.4229e-009    
  -1.05           -7.1874e-007    -1.2918e-009    1.4757e-009    
  -1.1            -7.3018e-007    -1.3477e-009    1.4221e-009    
  -1.15           -7.3779e-007    -1.2848e-009    1.4208e-009    
  -1.2            -7.4357e-007    -1.1672e-009    1.4247e-009    
  -1.25           -7.5484e-007    -1.2989e-009    1.3568e-009    
  -1.3            -7.5902e-007    -1.3431e-009    1.4117e-009    
  -1.35           -7.8422e-007    -1.3279e-009    1.4223e-009    
  -1.4            -7.7573e-007    -1.2324e-009    1.4171e-009    
  -1.45           -7.84e-007      -1.0872e-009    1.4379e-009    
  -1.5            -7.9348e-007    -1.3171e-009    1.3914e-009    
  -1.55           -8.0074e-007    -1.3471e-009    1.4242e-009    
  -1.6            -8.0549e-007    -1.2866e-009    1.4199e-009    
  -1.65           -8.1142e-007    -1.1633e-009    1.4251e-009    
  -1.7            -8.1995e-007    -1.2972e-009    1.3591e-009    
  -1.75           -8.2708e-007    -1.3414e-009    1.4138e-009    
  -1.8            -8.3552e-007    -1.3282e-009    1.4242e-009    
  -1.85           -8.4147e-007    -1.2325e-009    1.4192e-009    
  -1.9            -8.4856e-007    -1.087e-009     1.439e-009     
  -1.95           -8.913e-007     -1.3195e-009    1.3949e-009    
  -2              -8.6179e-007    -1.3465e-009    1.42e-009      
  -2.05           -8.6859e-007    -1.2876e-009    1.4191e-009    
  -2.1            -8.766e-007     -1.1625e-009    1.428e-009     
  -2.15           -8.874e-007     -1.299e-009     1.3586e-009    
  -2.2            -8.9474e-007    -1.3418e-009    1.4122e-009    
  -2.25           -8.9452e-007    -1.3231e-009    1.424e-009     
  -2.3            -9.0139e-007    -1.2285e-009    1.4163e-009    
  -2.35           -9.0758e-007    -1.0855e-009    1.4351e-009    
  -2.4            -9.1487e-007    -1.3184e-009    1.3927e-009    
  -2.45           -9.1769e-007    -1.3457e-009    1.4229e-009    
  -2.5            -9.2711e-007    -1.2868e-009    1.4191e-009    
  -2.55           -9.3645e-007    -1.1638e-009    1.4226e-009    
  -2.6            -9.4485e-007    -1.2976e-009    1.3591e-009    
  -2.65           -9.4468e-007    -1.3398e-009    1.4127e-009    
  -2.7            -9.5276e-007    -1.3261e-009    1.4212e-009    
  -2.75           -9.5836e-007    -1.2317e-009    1.4216e-009    
  -2.8            -9.6222e-007    -1.0857e-009    1.4405e-009    
  -2.85           -9.6976e-007    -1.3211e-009    1.3925e-009    
  -2.9            -9.7427e-007    -1.3484e-009    1.4228e-009    
  -2.95           -9.8158e-007    -1.2858e-009    1.42e-009      
  -3              -9.8637e-007    -1.1639e-009    1.4249e-009    
  -3.05           -9.9432e-007    -1.2987e-009    1.3594e-009    
  -3.1            -9.9937e-007    -1.3412e-009    1.4139e-009    
  -3.15           -1.01229e-006   -1.3258e-009    1.4237e-009    
  -3.2            -1.01039e-006   -1.2287e-009    1.4203e-009    
  -3.25           -1.01579e-006   -1.0843e-009    1.4323e-009    
  -3.3            -1.0203e-006    -1.3181e-009    1.3945e-009    
  -3.35           -1.02696e-006   -1.3452e-009    1.4239e-009    
  -3.4            -1.03235e-006   -1.2843e-009    1.4202e-009    
  -3.45           -1.03932e-006   -1.1625e-009    1.4218e-009    
  -3.5            -1.04228e-006   -1.298e-009     1.3593e-009    
  -3.55           -1.04472e-006   -1.3424e-009    1.412e-009     
  -3.6            -1.0564e-006    -1.3251e-009    1.4206e-009    
  -3.65           -1.05799e-006   -1.2281e-009    1.4177e-009    
  -3.7            -1.06767e-006   -1.0853e-009    1.4417e-009    
  -3.75           -1.0832e-006    -1.3208e-009    1.3939e-009    
  -3.8            -1.07481e-006   -1.3469e-009    1.4239e-009    
  -3.85           -1.08206e-006   -1.2853e-009    1.4199e-009    
  -3.9            -1.08981e-006   -1.1591e-009    1.4263e-009    
  -3.95           -1.09219e-006   -1.2953e-009    1.36e-009      
  -4              -1.09761e-006   -1.3413e-009    1.4156e-009    
  -4.05           -1.10351e-006   -1.3288e-009    1.4242e-009    
  -4.1            -1.10796e-006   -1.2283e-009    1.419e-009     
  -4.15           -1.11535e-006   -1.0849e-009    1.4396e-009    
  -4.2            -1.12221e-006   -1.3206e-009    1.3908e-009    
  -4.25           -1.12934e-006   -1.3467e-009    1.4213e-009    
  -4.3            -1.129e-006     -1.2843e-009    1.4196e-009    
  -4.35           -1.113e-006     -1.1591e-009    -1.4915e-009   
  -4.4            -1.1158e-006    1.4109e-009     -1.4231e-009   
  -4.45           -1.1243e-006    1.4657e-009     -1.3973e-009   
  -4.5            -1.1254e-006    1.4391e-009     -1.4305e-009   
  -4.55           -1.1361e-006    1.4489e-009     -1.3805e-009   
  -4.6            -1.1383e-006    1.4602e-009     -1.4307e-009   
  -4.65           -1.1411e-006    1.4352e-009     -1.3602e-009   
  -4.7            -1.148e-006     1.4757e-009     -1.4332e-009   
  -4.75           -1.1505e-006    1.422e-009      -1.4713e-009   
  -4.8            -1.1606e-006    1.45e-009       -1.4328e-009   
  -4.85           -1.1634e-006    1.4398e-009     -1.3649e-009   
  -4.9            -1.2071e-006    1.4732e-009     -1.4316e-009   
  -4.95           -1.1709e-006    1.4256e-009     -1.4766e-009   
  -5              -1.1748e-006    1.4472e-009     -1.4298e-009   
END_DB

BEGIN_DB
 ICCAP_VAR VG         -2             
 ICCAP_VAR VS         0              
 ICCAP_VAR VB         0              
 ICCAP_VAR SUB        0              

 #VD              ID              IB              IG             
  0               -1.5017e-006    -4.2e-012       -5.768e-010    
  -0.05           -7.7072e-005    1.3847e-009     -8.279e-010    
  -0.1            -0.00015138     1.4828e-009     -1.389e-009    
  -0.15           -0.00022416     1.415e-009      -1.4589e-009   
  -0.2            -0.00029553     1.4087e-009     -1.4523e-009   
  -0.25           -0.00036524     1.4027e-009     -1.4501e-009   
  -0.3            -0.00043328     1.3999e-009     -1.4401e-009   
  -0.35           -0.00049957     1.3914e-009     -1.4386e-009   
  -0.4            -0.00056413     1.3939e-009     -1.4372e-009   
  -0.45           -0.00062681     1.3923e-009     -1.4324e-009   
  -0.5            -0.00068719     1.3865e-009     -1.4304e-009   
  -0.55           -0.00074568     1.383e-009      -1.4254e-009   
  -0.6            -0.00080193     1.405e-009      -1.4272e-009   
  -0.65           -0.00085547     1.4701e-009     -1.4359e-009   
  -0.7            -0.00090687     1.3868e-009     -1.4375e-009   
  -0.75           -0.00095539     1.3874e-009     -1.4375e-009   
  -0.8            -0.00100096     1.3847e-009     -1.4393e-009   
  -0.85           -0.00104351     1.3849e-009     -1.4392e-009   
  -0.9            -0.00108288     1.3781e-009     -1.4369e-009   
  -0.95           -0.00111831     1.3784e-009     -1.4377e-009   
  -1              -0.0011514      1.3435e-009     1.4296e-009    
  -1.05           -0.0011804      -1.2147e-009    1.4191e-009    
  -1.1            -0.0012056      -1.2939e-009    1.4235e-009    
  -1.15           -0.0012275      -1.343e-009     1.4283e-009    
  -1.2            -0.0012464      -1.3412e-009    1.4197e-009    
  -1.25           -0.0012614      -1.3111e-009    1.3851e-009    
  -1.3            -0.0012743      -1.2737e-009    1.469e-009     
  -1.35           -0.001285       -1.081e-009     1.4342e-009    
  -1.4            -0.0012932      -1.1865e-009    1.4207e-009    
  -1.45           -0.0013003      -1.2755e-009    1.4235e-009    
  -1.5            -0.0013061      -1.3331e-009    1.4287e-009    
  -1.55           -0.0013113      -1.3481e-009    1.4237e-009    
  -1.6            -0.0013151      -1.3202e-009    1.3964e-009    
  -1.65           -0.0013184      -1.2858e-009    1.3397e-009    
  -1.7            -0.0013219      -1.1347e-009    1.428e-009     
  -1.75           -0.0013246      -1.2339e-009    1.4226e-009    
  -1.8            -0.0013274      -1.3068e-009    1.4256e-009    
  -1.85           -0.0013297      -1.3464e-009    1.4293e-009    
  -1.9            -0.0013322      -1.3367e-009    1.4131e-009    
  -1.95           -0.0013348      -1.2969e-009    1.3723e-009    
  -2              -0.0013364      -1.0855e-009    1.4358e-009    
  -2.05           -0.0013386      -1.1891e-009    1.4238e-009    
  -2.1            -0.0013413      -1.2777e-009    1.4243e-009    
  -2.15           -0.0013427      -1.3392e-009    1.4331e-009    
  -2.2            -0.0013431      -1.3574e-009    1.4256e-009    
  -2.25           -0.0013436      -1.3614e-009    1.4008e-009    
  -2.3            -0.0013442      -1.4582e-009    1.3864e-009    
  -2.35           -0.001345       -2.0205e-009    1.4654e-009    
  -2.4            -0.001345       -3.7046e-009    1.4362e-009    
  -2.45           -0.00135        -6.1289e-009    -8.247e-010    
  -2.5            -0.0013302      -8.3122e-008    1.4267e-009    
  -2.55           -0.0013301      -1.5149e-007    1.5207e-009    
  -2.6            -0.0013373      -3.501e-007     -7.573e-010    
  -2.65           -0.0013375      -4.8107e-007    -1.4442e-009   
  -2.7            -0.0013433      -6.8123e-007    8.998e-010     
  -2.75           -0.0013417      -8.8161e-007    1.428e-009     
  -2.8            -0.0013431      -1.05976e-006   -1.0118e-009   
  -2.85           -0.0013467      -1.119e-006     -1.424e-009    
  -2.9            -0.0013507      -1.5119e-006    9.781e-010     
  -2.95           -0.0013554      -1.7167e-006    1.423e-009     
  -3              -0.0013556      -1.9096e-006    -1.1718e-009   
  -3.05           -0.0013617      -2.1271e-006    -1.4241e-009   
  -3.1            -0.0013627      -2.3386e-006    9.38e-010      
  -3.15           -0.0013641      -2.5453e-006    1.4341e-009    
  -3.2            -0.0013648      -2.6948e-006    -1.0753e-009   
  -3.25           -0.0013687      -2.8827e-006    -1.4453e-009   
  -3.3            -0.0013715      -3.0665e-006    8.956e-010     
  -3.35           -0.0013736      -3.263e-006     1.4284e-009    
  -3.4            -0.0013734      -3.3598e-006    -1.0034e-009   
  -3.45           -0.0013762      -3.5169e-006    -1.4102e-009   
  -3.5            -0.0013785      -3.6029e-006    1.2389e-009    
  -3.55           -0.0013794      -3.7091e-006    1.4177e-009    
  -3.6            -0.0013807      -3.9023e-006    -9.524e-010    
  -3.65           -0.0013832      -4.0209e-006    -1.443e-009    
  -3.7            -0.0013854      -4.1045e-006    1.1338e-009    
  -3.75           -0.0013855      -4.1527e-006    1.4225e-009    
  -3.8            -0.0013872      -4.3155e-006    -9.082e-010    
  -3.85           -0.0013889      -4.4151e-006    -1.4405e-009   
  -3.9            -0.0013912      -4.4647e-006    1.0511e-009    
  -3.95           -0.0013911      -4.5062e-006    1.4556e-009    
  -4              -0.001391       -4.6272e-006    -8.648e-010    
  -4.05           -0.0013932      -4.717e-006     -1.4266e-009   
