! VERSION = 6.00
BEGIN_HEADER
 ICCAP_INPUTS
  VG         V  B GROUND SMU4 0.001 LIN        1    0          -5         101  -0.05     
  VS         V  E GROUND SMU1 0.1 CON        0
  VB         V  C GROUND SMU2 0.1 LIN        3    0          5          3    2.5       
  VD         V  S GROUND SMU3 0.1 LIN        2    -0.1       -5         2    -4.9      
  SUB        V  D GROUND VSU1 0.1 CON        0
 ICCAP_OUTPUTS
  IG         I  B GROUND SMU4 B
  ID         I  S GROUND SMU3 B
  IB         I  C GROUND SMU2 B
END_HEADER

BEGIN_DB
 ICCAP_VAR VS         0              
 ICCAP_VAR VB         0              
 ICCAP_VAR VD         -0.1           
 ICCAP_VAR SUB        0              

 #VG              IG              ID              IB             
  0               -2.8e-010       -3.902e-010     1.4217e-009    
  -0.05           1.4012e-009     -1.3987e-009    -5.3e-010      
  -0.1            9.394e-010      -6.598e-010     1.7719e-009    
  -0.15           -1.4291e-009    1.3716e-009     7.024e-010     
  -0.2            -1.0041e-009    7.528e-010      -1.5576e-009   
  -0.25           1.4027e-009     -1.3216e-009    -7.878e-010    
  -0.3            7.523e-010      -8.15e-010      1.9673e-009    
  -0.35           -1.4526e-009    1.2079e-009     3.699e-010     
  -0.4            1.4057e-009     -1.3179e-009    -4.266e-010    
  -0.45           -1.4066e-009    1.3929e-009     5.712e-010     
  -0.5            -9.245e-010     6.63e-010       -1.767e-009    
  -0.55           1.4154e-009     -1.3958e-009    -6.456e-010    
  -0.6            1.0092e-009     -7.431e-010     1.5904e-009    
  -0.65           -1.4174e-009    1.2952e-009     8.231e-010     
  -0.7            -7.303e-010     7.081e-010      -1.944e-009    
  -0.75           1.3776e-009     -1.6048e-009    -1.3362e-009   
  -0.8            7.851e-010      -2.9284e-009    1.9694e-009    
  -0.85           7.607e-010      -8.6702e-009    1.9657e-009    
  -0.9            -6.71e-010      -3.7146e-008    -1.937e-009    
  -0.95           -1.4086e-009    -1.5573e-007    5.907e-010     
  -1              -1.0136e-009    -5.9825e-007    -1.5476e-009   
  -1.05           1.4042e-009     -2.0519e-006    -2.0355e-009   
  -1.1            8.267e-010      -5.9417e-006    1.9638e-009    
  -1.15           -6.821e-010     -1.3544e-005    -1.9364e-009   
  -1.2            -7.458e-010     -2.5483e-005    -1.9529e-009   
  -1.25           -8.051e-010     -3.9936e-005    -1.9519e-009   
  -1.3            -8.591e-010     -5.4629e-005    -1.9118e-009   
  -1.35           -9.082e-010     -6.8114e-005    -1.8071e-009   
  -1.4            -9.524e-010     -8.004e-005     -1.6707e-009   
  -1.45           1.3723e-009     -9.0469e-005    -2.0762e-009   
  -1.5            8.657e-010      -9.9785e-005    1.9349e-009    
  -1.55           9.108e-010      -0.000107893    1.8412e-009    
  -1.6            1.0274e-009     -0.00011486     2.1018e-009    
  -1.65           1.4347e-009     -0.00012142     -3.582e-010    
  -1.7            9.215e-010      -0.00012725     1.8296e-009    
  -1.75           9.687e-010      -0.00013265     1.685e-009     
  -1.8            -1.3831e-009    -0.00013758     2.1072e-009    
  -1.85           -8.527e-010     -0.00014208     -1.9177e-009   
  -1.9            -8.983e-010     -0.00014625     -1.828e-009    
  -1.95           -9.485e-010     -0.00015017     -1.698e-009    
  -2              1.3783e-009     -0.00015383     -2.0666e-009   
  -2.05           8.503e-010      -0.00015732     1.9329e-009    
  -2.1            9.044e-010      -0.00016055     1.8565e-009    
  -2.15           9.478e-010      -0.00016357     1.7337e-009    
  -2.2            1.0076e-009     -0.00016644     1.6014e-009    
  -2.25           -1.444e-009     -0.00016916     2.1096e-009    
  -2.3            -9.131e-010     -0.00017163     -1.7904e-009   
  -2.35           -9.634e-010     -0.00017407     -1.6538e-009   
  -2.4            1.4609e-009     -0.00017637     -2.0813e-009   
  -2.45           9.047e-010      -0.00017867     1.851e-009     
  -2.5            9.53e-010       -0.00018077     1.7311e-009    
  -2.55           1.0089e-009     -0.00018281     1.5952e-009    
  -2.6            -1.4501e-009    -0.00018475     2.113e-009     
  -2.65           -9.168e-010     -0.00018653     -1.7809e-009   
  -2.7            -9.662e-010     -0.00018829     -1.6422e-009   
  -2.75           1.457e-009      -0.00019        -2.0876e-009   
  -2.8            9.06e-010       -0.00019171     1.8503e-009    
  -2.85           9.567e-010      -0.00019332     1.7181e-009    
  -2.9            1.0145e-009     -0.00019484     1.5829e-009    
  -2.95           -1.4419e-009    -0.00019629     2.1123e-009    
  -3              -9.231e-010     -0.00019769     -1.7772e-009   
  -3.05           -9.736e-010     -0.00019903     -1.6215e-009   
  -3.1            1.4405e-009     -0.00020035     -2.0872e-009   
  -3.15           9.145e-010      -0.00020169     1.8469e-009    
  -3.2            9.612e-010      -0.00020294     1.7009e-009    
  -3.25           1.0179e-009     -0.00020413     1.5648e-009    
  -3.3            -1.4287e-009    -0.0002053      2.1037e-009    
  -3.35           -9.284e-010     -0.00020637     -1.7607e-009   
  -3.4            -9.781e-010     -0.00020747     -1.6143e-009   
  -3.45           1.4371e-009     -0.00020853     -2.0923e-009   
  -3.5            9.182e-010      -0.00020957     1.8352e-009    
  -3.55           9.64e-010       -0.00021064     1.6948e-009    
  -3.6            -1.389e-009     -0.00021159     2.1049e-009    
  -3.65           -8.472e-010     -0.00021251     -1.9218e-009   
  -3.7            -8.955e-010     -0.00021344     -1.83e-009     
  -3.75           -9.417e-010     -0.00021433     -1.7069e-009   
  -3.8            1.3847e-009     -0.00021522     -2.0674e-009   
  -3.85           8.497e-010      -0.00021607     1.944e-009     
  -3.9            9.002e-010      -0.00021693     1.8652e-009    
  -3.95           9.469e-010      -0.00021777     1.7413e-009    
  -4              1.0045e-009     -0.00021855     1.6021e-009    
  -4.05           -1.4322e-009    -0.00021935     2.1044e-009    
  -4.1            -9.128e-010     -0.00022003     -1.7978e-009   
  -4.15           -9.622e-010     -0.00022077     -1.6546e-009   
  -4.2            1.3662e-009     -0.00022148     -2.0805e-009   
  -4.25           8.689e-010      -0.00022218     1.9225e-009    
  -4.3            9.182e-010      -0.00022292     1.8273e-009    
  -4.35           9.645e-010      -0.0002236      1.6931e-009    
  -4.4            -1.389e-009     -0.00022423     2.1032e-009    
  -4.45           -8.494e-010     -0.00022488     -1.9247e-009   
  -4.5            -8.964e-010     -0.00022544     -1.8353e-009   
  -4.55           -9.412e-010     -0.00022609     -1.7001e-009   
  -4.6            1.3833e-009     -0.00022672     -2.0673e-009   
  -4.65           8.504e-010      -0.0002273      1.949e-009     
  -4.7            8.994e-010      -0.00022788     1.8688e-009    
  -4.75           9.473e-010      -0.00022848     1.7417e-009    
  -4.8            9.988e-010      -0.00022904     1.5996e-009    
  -4.85           -1.438e-009     -0.00022957     2.1069e-009    
  -4.9            -9.129e-010     -0.00023005     -1.7991e-009   
  -4.95           -9.621e-010     -0.00023057     -1.6556e-009   
  -5              1.3682e-009     -0.00023103     -2.0814e-009   
END_DB

BEGIN_DB
 ICCAP_VAR VS         0              
 ICCAP_VAR VB         0              
 ICCAP_VAR VD         -5             
 ICCAP_VAR SUB        0              

 #VG              IG              ID              IB             
  0               3.139e-010      6.03e-011       -7.983e-010    
  -0.05           -1.4154e-009    1.399e-009      6.083e-010     
  -0.1            -9.426e-010     6.909e-010      -1.7149e-009   
  -0.15           1.4178e-009     -1.3757e-009    -6.793e-010    
  -0.2            1.035e-009      -7.566e-010     1.5511e-009    
  -0.25           -1.3996e-009    1.3094e-009     8.591e-010     
  -0.3            -7.55e-010      8.378e-010      -1.9513e-009   
  -0.35           1.4398e-009     -1.23e-009      -3.439e-010    
  -0.4            -1.4182e-009    1.337e-009      4.962e-010     
  -0.45           1.4035e-009     -1.4012e-009    -5.375e-010    
  -0.5            9.432e-010      -6.671e-010     1.7559e-009    
  -0.55           -1.4289e-009    1.3718e-009     7.073e-010     
  -0.6            -1.0075e-009    7.384e-010      -1.5582e-009   
  -0.65           1.3992e-009     -1.3952e-009    -7.935e-010    
  -0.7            7.533e-010      -1.1176e-009    1.9641e-009    
  -0.75           7.263e-010      -8.953e-010     1.9609e-009    
  -0.8            6.974e-010      -5.0773e-009    1.9568e-009    
  -0.85           -6.508e-010     -2.2817e-008    -1.9387e-009   
  -0.9            -7.182e-010     -9.6524e-008    -1.9489e-009   
  -0.95           -8.506e-010     -3.7932e-007    -1.9227e-009   
  -1              1.4057e-009     -1.3919e-006    -1.0651e-009   
  -1.05           9.826e-010      -4.3615e-006    1.6551e-009    
  -1.1            -1.3718e-009    -1.13911e-005   2.1084e-009    
  -1.15           1.4212e-009     -2.4669e-005    -4e-010        
  -1.2            9.366e-010      -4.601e-005     1.778e-009     
  -1.25           9.901e-010      -7.6487e-005    1.6274e-009    
  -1.3            -1.42e-009      -0.00011552     2.0631e-009    
  -1.35           -8.124e-010     -0.00016317     -1.9499e-009   
  -1.4            -8.649e-010     -0.00021952     -1.8945e-009   
  -1.45           -9.099e-010     -0.00028408     -1.789e-009    
  -1.5            -9.553e-010     -0.000356       -1.655e-009    
  -1.55           1.3704e-009     -0.00043498     -2.0716e-009   
  -1.6            8.672e-010      -0.00052216     1.9362e-009    
  -1.65           9.112e-010      -0.00061452     1.8371e-009    
  -1.7            9.576e-010      -0.00071191     1.7028e-009    
  -1.75           -1.3981e-009    -0.0008145      2.096e-009     
  -1.8            -8.39e-010      -0.00091942     -1.9303e-009   
  -1.85           -8.894e-010     -0.00103228     -1.8423e-009   
  -1.9            1.4187e-009     -0.0011479      -1.4144e-009   
  -1.95           9.35e-010       -0.0012702      1.7765e-009    
  -2              9.872e-010      -0.0013945      1.6236e-009    
  -2.05           -1.4404e-009    -0.0015213      2.1063e-009    
  -2.1            -9.044e-010     -0.0016485      -1.825e-009    
  -2.15           -9.492e-010     -0.0017811      -1.6765e-009   
  -2.2            1.3801e-009     -0.0019166      -2.0685e-009   
  -2.25           8.578e-010      -0.0020577      1.9452e-009    
  -2.3            9.054e-010      -0.0021986      1.8588e-009    
  -2.35           9.477e-010      -0.0023418      1.725e-009     
  -2.4            1.0021e-009     -0.0024867      1.589e-009     
  -2.45           -1.4301e-009    -0.0026329      2.1045e-009    
  -2.5            -9.127e-010     -0.0027781      -1.7893e-009   
  -2.55           -9.611e-010     -0.0029273      -1.6384e-009   
  -2.6            1.3647e-009     -0.0030788      -2.0796e-009   
  -2.65           8.708e-010      -0.0032347      1.9278e-009    
  -2.7            9.153e-010      -0.0033896      1.8227e-009    
  -2.75           9.631e-010      -0.0035452      1.6868e-009    
  -2.8            -1.3898e-009    -0.0037008      2.099e-009     
  -2.85           -8.499e-010     -0.0038542      -1.9312e-009   
  -2.9            -8.918e-010     -0.0040112      -1.8323e-009   
  -2.95           -9.413e-010     -0.0041691      -1.6992e-009   
  -3              1.3914e-009     -0.0043279      -2.0571e-009   
  -3.05           8.488e-010      -0.0044893      1.9579e-009    
  -3.1            8.973e-010      -0.0046502      1.8764e-009    
  -3.15           9.372e-010      -0.0048098      1.7518e-009    
  -3.2            9.912e-010      -0.0049694      1.6107e-009    
  -3.25           -1.4379e-009    -0.0051295      2.1019e-009    
  -3.3            -9.068e-010     -0.0052851      -1.8087e-009   
  -3.35           -9.505e-010     -0.005443       -1.6671e-009   
  -3.4            1.3765e-009     -0.0056016      -2.0727e-009   
  -3.45           8.612e-010      -0.0057621      1.9395e-009    
  -3.5            9.088e-010      -0.0059188      1.844e-009     
  -3.55           9.513e-010      -0.0060731      1.7175e-009    
  -3.6            1.0062e-009     -0.0062238      1.5799e-009    
  -3.65           -1.4302e-009    -0.0063703      2.1034e-009    
  -3.7            -9.13e-010      -0.0065082      -1.7797e-009   
  -3.75           -9.628e-010     -0.0066421      -1.6324e-009   
  -3.8            1.3617e-009     -0.0067725      -2.0793e-009   
  -3.85           8.728e-010      -0.0068962      1.9252e-009    
  -3.9            9.169e-010      -0.0070108      1.8233e-009    
  -3.95           9.629e-010      -0.0071194      1.6867e-009    
  -4              -1.3864e-009    -0.0072196      2.0963e-009    
  -4.05           -8.464e-010     -0.0073114      -1.9227e-009   
  -4.1            -8.944e-010     -0.0074012      -1.8323e-009   
  -4.15           -9.394e-010     -0.0074848      -1.7036e-009   
  -4.2            1.3887e-009     -0.0075643      -2.0555e-009   
  -4.25           8.504e-010      -0.0076404      1.9504e-009    
  -4.3            8.974e-010      -0.007713       1.8715e-009    
  -4.35           9.394e-010      -0.0077803      1.7519e-009    
  -4.4            9.903e-010      -0.0078426      1.6109e-009    
  -4.45           -1.4388e-009    -0.0079023      2.1034e-009    
  -4.5            -9.037e-010     -0.0079581      -1.8105e-009   
  -4.55           -9.506e-010     -0.008009       -1.6687e-009   
  -4.6            1.3762e-009     -0.0080629      -2.0715e-009   
  -4.65           8.61e-010       -0.0081135      1.9383e-009    
  -4.7            9.063e-010      -0.0081652      1.8444e-009    
  -4.75           9.492e-010      -0.0082116      1.7148e-009    
  -4.8            1.005e-009      -0.0082592      1.5816e-009    
  -4.85           -1.4309e-009    -0.0083063      2.0994e-009    
  -4.9            -9.145e-010     -0.0083455      -1.7849e-009   
  -4.95           -9.668e-010     -0.0083875      -1.6352e-009   
  -5              1.3597e-009     -0.0084286      -2.0759e-009   
END_DB

BEGIN_DB
 ICCAP_VAR VS         0              
 ICCAP_VAR VB         2.5            
 ICCAP_VAR VD         -0.1           
 ICCAP_VAR SUB        0              

 #VG              IG              ID              IB             
  0               1.1551e-009     -2.865e-010     4.749e-010     
  -0.05           -1.4152e-009    1.3313e-009     4.922e-010     
  -0.1            1.4029e-009     -1.3987e-009    -5.285e-010    
  -0.15           9.388e-010      -6.602e-010     1.7706e-009    
  -0.2            -1.4313e-009    1.3778e-009     6.924e-010     
  -0.25           -9.971e-010     7.471e-010      -1.5631e-009   
  -0.3            1.4043e-009     -1.3291e-009    -7.769e-010    
  -0.35           7.44e-010       -8.118e-010     1.9663e-009    
  -0.4            -1.4615e-009    1.187e-009      3.574e-010     
  -0.45           1.4126e-009     -1.3017e-009    -4.086e-010    
  -0.5            -1.4151e-009    1.3838e-009     5.57e-010      
  -0.55           -9.119e-010     6.514e-010      -1.7887e-009   
  -0.6            1.4156e-009     -1.3976e-009    -6.227e-010    
  -0.65           9.927e-010      -7.243e-010     1.6195e-009    
  -0.7            -1.4244e-009    1.3309e-009     7.993e-010     
  -0.75           -7.144e-010     8.074e-010      -1.9512e-009   
  -0.8            1.3939e-009     -1.3134e-009    -8.106e-010    
  -0.85           7.682e-010      -8.271e-010     1.9765e-009    
  -0.9            -1.4446e-009    1.2345e-009     4.026e-010     
  -0.95           1.4061e-009     -1.335e-009     -4.403e-010    
  -1              -1.4177e-009    1.3972e-009     5.873e-010     
  -1.05           -9.3e-010       6.754e-010      -1.737e-009    
  -1.1            1.4234e-009     -1.3863e-009    -6.57e-010     
  -1.15           1.0142e-009     -7.565e-010     1.5682e-009    
  -1.2            -1.4173e-009    1.2558e-009     8.326e-010     
  -1.25           -7.407e-010     5.166e-010      -1.9605e-009   
  -1.3            -7.116e-010     -1.9771e-009    -1.9459e-009   
  -1.35           -6.827e-010     -8.4367e-009    -1.9463e-009   
  -1.4            9.707e-010      -4.0597e-008    1.6741e-009    
  -1.45           1.4263e-009     -1.8339e-007    -9.633e-010    
  -1.5            9.221e-010      -7.4334e-007    1.8101e-009    
  -1.55           -1.4254e-009    -2.5018e-006    1.792e-009     
  -1.6            -6.981e-010     -6.8771e-006    -1.9452e-009   
  -1.65           9.039e-010      -1.5292e-005    1.8663e-009    
  -1.7            9.468e-010      -2.736e-005     1.7278e-009    
  -1.75           1.0004e-009     -4.1225e-005    1.5921e-009    
  -1.8            -1.4301e-009    -5.485e-005     2.1038e-009    
  -1.85           -9.104e-010     -6.7145e-005    -1.7929e-009   
  -1.9            -9.578e-010     -7.7863e-005    -1.6427e-009   
  -1.95           1.3694e-009     -8.7263e-005    -2.0782e-009   
  -2              8.694e-010      -9.5586e-005    1.9385e-009    
  -2.05           9.121e-010      -0.000102839    1.8306e-009    
  -2.1            9.592e-010      -0.000109283    1.6992e-009    
  -2.15           7.273e-010      -0.00011489     1.9631e-009    
  -2.2            7.869e-010      -0.00012015     1.9716e-009    
  -2.25           8.433e-010      -0.00012492     1.9539e-009    
  -2.3            8.921e-010      -0.00012934     1.8848e-009    
  -2.35           9.379e-010      -0.0001334      1.7718e-009    
  -2.4            9.826e-010      -0.00013714     1.6333e-009    
  -2.45           -1.4515e-009    -0.00014067     2.1193e-009    
  -2.5            -9.003e-010     -0.00014389     -1.8264e-009   
  -2.55           -9.46e-010      -0.00014694     -1.6833e-009   
  -2.6            1.3789e-009     -0.00014987     -2.0743e-009   
  -2.65           8.5e-010        -0.00015263     1.9313e-009    
  -2.7            8.986e-010      -0.00015525     1.8518e-009    
  -2.75           9.456e-010      -0.0001577      1.7412e-009    
  -2.8            9.971e-010      -0.00016005     1.6132e-009    
  -2.85           -1.4563e-009    -0.00016227     2.1215e-009    
  -2.9            -9.07e-010      -0.00016433     -1.7947e-009   
  -2.95           -9.579e-010     -0.00016631     -1.6641e-009   
  -3              1.3594e-009     -0.00016824     -2.0766e-009   
  -3.05           8.575e-010      -0.00017015     1.9138e-009    
  -3.1            9.059e-010      -0.00017192     1.8316e-009    
  -3.15           9.565e-010      -0.00017363     1.7137e-009    
  -3.2            1.0156e-009     -0.00017528     1.5883e-009    
  -3.25           -1.4534e-009    -0.00017684     2.1092e-009    
  -3.3            -9.174e-010     -0.00017832     -1.7647e-009   
  -3.35           -9.698e-010     -0.00017976     -1.6321e-009   
  -3.4            1.4605e-009     -0.00018115     -2.0855e-009   
  -3.45           9.048e-010      -0.00018254     1.844e-009     
  -3.5            9.512e-010      -0.00018386     1.7248e-009    
  -3.55           1.0089e-009     -0.00018514     1.5924e-009    
  -3.6            -1.4564e-009    -0.00018637     2.1194e-009    
  -3.65           -9.124e-010     -0.00018755     -1.7786e-009   
  -3.7            -9.613e-010     -0.00018867     -1.6385e-009   
  -3.75           1.3538e-009     -0.0001898      -2.0923e-009   
  -3.8            8.712e-010      -0.00019092     1.9126e-009    
  -3.85           9.187e-010      -0.00019198     1.8244e-009    
  -3.9            9.624e-010      -0.00019302     1.6921e-009    
  -3.95           -1.383e-009     -0.00019399     2.1106e-009    
  -4              -8.444e-010     -0.00019492     -1.9139e-009   
  -4.05           -8.944e-010     -0.00019585     -1.8264e-009   
