! VERSION = 6.00
BEGIN_HEADER
 ICCAP_INPUTS
  VG         V  B GROUND SMU4 0.001 LIN        1    0          -1.8       37   -0.05     
  VS         V  E GROUND SMU2 0.1 CON        0
  VB         V  C GROUND SMU3 0.1 LIN        3    0          1.8        3    0.9       
  VD         V  S GROUND SMU1 0.1 LIN        2    -0.1       -1.8       2    -1.7      
 ICCAP_OUTPUTS
  IG         I  B GROUND SMU4 B
  ID         I  S GROUND SMU1 B
  IB         I  C GROUND SMU3 B
END_HEADER

BEGIN_DB
 ICCAP_VAR VS         0              
 ICCAP_VAR VB         0              
 ICCAP_VAR VD         -0.1           

 #VG              IG              ID              IB             
  0               -1.0277e-009    4.465e-010      1.8885e-008    
  -0.05           -1.6504e-009    -1.5603e-009    6.19e-009      
  -0.1            2.2025e-009     -1.5022e-009    -2.0649e-008   
  -0.15           4.371e-010      2.2052e-009     -6.449e-009    
  -0.2            6.222e-010      2.2735e-009     1.0614e-008    
  -0.25           7.929e-010      2.2775e-009     1.0281e-008    
  -0.3            -1.2923e-009    1.3166e-009     9.805e-009     
  -0.35           -2.1687e-009    -1.4751e-009    7.51e-009      
  -0.4            2.268e-009      -2.0211e-009    -1.8779e-008   
  -0.45           1.953e-009      -3.9985e-009    -5.924e-009    
  -0.5            -1.3351e-009    -1.5475e-008    -1.0694e-008   
  -0.55           -1.2744e-009    -4.4519e-008    8.738e-009     
  -0.6            2.2361e-009     -1.2339e-007    -1.8756e-008   
  -0.65           1.1286e-009     -3.3191e-007    9.807e-009     
  -0.7            1.5355e-009     -8.1779e-007    1.1246e-008    
  -0.75           -1.287e-009     -1.7814e-006    -1.0883e-008   
  -0.8            -2.4294e-009    -3.5973e-006    7.689e-009     
  -0.85           -6.908e-010     -6.6161e-006    -1.0654e-008   
  -0.9            1.7179e-009     -1.10026e-005   -1.9564e-008   
  -0.95           -1.2867e-009    -1.6552e-005    -7.476e-009    
  -1              -2.3895e-009    -2.3473e-005    7.84e-009      
  -1.05           1.421e-009      -3.1725e-005    -1.4737e-008   
  -1.1            2.8122e-009     -4.0469e-005    -9.025e-009    
  -1.15           2.0489e-009     -4.9701e-005    1.3055e-008    
  -1.2            9.16e-010       -5.9182e-005    1.0496e-008    
  -1.25           1.2926e-009     -6.8899e-005    1.0012e-008    
  -1.3            1.7222e-009     -7.834e-005     1.265e-008     
  -1.35           6.005e-010      -8.7322e-005    1.0284e-008    
  -1.4            9.848e-010      -9.636e-005     1.0354e-008    
  -1.45           -1.767e-010     -0.000104738    1.1697e-008    
  -1.5            -1.3894e-009    -0.000112762    2.4755e-008    
  -1.55           -1.8886e-009    -0.00012064     -1.2161e-008   
  -1.6            -9.581e-010     -0.00012798     -1.0765e-008   
  -1.65           2.022e-010      -0.00013517     -1.3454e-008   
  -1.7            1.426e-009      -0.00014172     -2.2238e-008   
  -1.75           2.8104e-009     -0.00014802     -9.011e-009    
  -1.8            2.7695e-009     -0.00015391     5.1e-010       
END_DB

BEGIN_DB
 ICCAP_VAR VS         0              
 ICCAP_VAR VB         0              
 ICCAP_VAR VD         -1.8           

 #VG              IG              ID              IB             
  0               1.9034e-009     2.1972e-009     5.9e-010       
  -0.05           7.303e-010      2.3044e-009     1.0164e-008    
  -0.1            8.906e-010      2.3071e-009     9.871e-009     
  -0.15           1.037e-009      2.2568e-009     1.0312e-008    
  -0.2            1.1838e-009     2.1293e-009     1.1708e-008    
  -0.25           -1.911e-010     1.8048e-009     1.0378e-008    
  -0.3            -3e-011         1.6539e-009     9.906e-009     
  -0.35           -1.6286e-009    -3.122e-010     9.822e-009     
  -0.4            -1.4661e-009    -4.4152e-009    6.498e-009     
  -0.45           -1.5177e-009    -1.4729e-008    -1.3861e-008   
  -0.5            -1.339e-009     -4.5302e-008    7.766e-009     
  -0.55           1.9102e-009     -1.3505e-007    -2.6498e-008   
  -0.6            7.882e-010      -3.8044e-007    1.0261e-008    
  -0.65           1.149e-009      -9.9828e-007    9.862e-009     
  -0.7            -2.6918e-009    -2.3114e-006    -2.6058e-008   
  -0.75           2.3579e-009     -5.0442e-006    -2.6547e-008   
  -0.8            1.6422e-009     -9.7972e-006    -5.048e-009    
  -0.85           -2.6086e-009    -1.7411e-005    1.0119e-008    
  -0.9            1.839e-010      -2.9144e-005    -1.2948e-008   
  -0.95           1.398e-009      -4.4971e-005    -2.2562e-008   
  -1              2.8143e-009     -6.543e-005     -8.956e-009    
  -1.05           2.0697e-009     -9.0761e-005    1.2245e-008    
  -1.1            2.18e-009       -0.00012099     1.2794e-008    
  -1.15           1.5098e-009     -0.00015622     -6.473e-009    
  -1.2            2.7647e-009     -0.00019584     -8.95e-009     
  -1.25           1.9572e-009     -0.0002398      1.2599e-008    
  -1.3            8.293e-010      -0.00028676     1.0418e-008    
  -1.35           1.1884e-009     -0.00033874     9.962e-009     
  -1.4            3.7e-011        -0.00039137     1.0347e-008    
  -1.45           4.897e-010      -0.00044826     1.0042e-008    
  -1.5            8.937e-010      -0.00050841     1.0296e-008    
  -1.55           1.2623e-009     -0.00057075     1.0443e-008    
  -1.6            1.178e-010      -0.00063227     1.0167e-008    
  -1.65           5.679e-010      -0.00069762     1.0275e-008    
  -1.7            9.556e-010      -0.00076491     1.0198e-008    
  -1.75           -2.182e-010     -0.00083179     1.2075e-008    
  -1.8            -1.4032e-009    -0.00090013     2.3896e-008    
END_DB

BEGIN_DB
 ICCAP_VAR VS         0              
 ICCAP_VAR VB         0.9            
 ICCAP_VAR VD         -0.1           

 #VG              IG              ID              IB             
  0               -1.3001e-009    -1.2217e-009    1.0404e-008    
  -0.05           1.617e-009      -1.6396e-009    -1.3237e-008   
  -0.1            7.892e-010      2.3068e-009     -9.002e-009    
  -0.15           9.414e-010      2.2966e-009     9.755e-009     
  -0.2            1.0876e-009     2.2338e-009     1.0693e-008    
  -0.25           1.249e-009      2.1081e-009     1.2013e-008    
  -0.3            -1.382e-010     1.9187e-009     1.0007e-008    
  -0.35           2.03e-011       1.9985e-009     9.724e-009     
  -0.4            2.006e-010      2.0911e-009     9.844e-009     
  -0.45           3.882e-010      2.1723e-009     1.0366e-008    
  -0.5            5.753e-010      2.1969e-009     1.0344e-008    
  -0.55           -1.3248e-009    9.551e-010      1.0179e-008    
  -0.6            -2.6867e-009    -2.1742e-009    8.552e-009     
  -0.65           2.4313e-009     -5.4204e-009    -1.8105e-008   
  -0.7            -1.5107e-009    -1.7599e-008    -1.3689e-008   
  -0.75           -1.3311e-009    -5.4709e-008    7.858e-009     
  -0.8            1.2816e-009     -1.6534e-007    -2.0561e-008   
  -0.85           1.7032e-009     -4.6881e-007    1.2746e-008    
  -0.9            -2.4244e-009    -1.1791e-006    -1.8986e-008   
  -0.95           -5.292e-010     -2.6987e-006    -1.0213e-008   
  -1              1.9723e-009     -5.4373e-006    -1.8442e-008   
  -1.05           1.3681e-009     -9.6268e-006    -8.524e-009    
  -1.1            -1.4906e-009    -1.5271e-005    -8.774e-009    
  -1.15           -1.3268e-009    -2.2357e-005    8.139e-009     
  -1.2            -1.2739e-009    -3.0543e-005    8.509e-009     
  -1.25           -2.2351e-009    -3.9494e-005    9.705e-009     
  -1.3            1.608e-010      -4.9202e-005    -1.2808e-008   
  -1.35           1.3759e-009     -5.8663e-005    -2.3006e-008   
  -1.4            2.8123e-009     -6.8053e-005    -9.004e-009    
  -1.45           2.7313e-009     -7.7119e-005    2.73e-010      
  -1.5            1.4134e-009     -8.6124e-005    1.1334e-008    
  -1.55           2.804e-010      -9.42e-005      9.806e-009     
  -1.6            7.24e-010       -0.000102281    1.0327e-008    
  -1.65           1.0853e-009     -0.000109993    9.846e-009     
  -1.7            2.8186e-009     -0.00011713     9.901e-009     
  -1.75           2.7409e-009     -0.00012391     3.33e-010      
  -1.8            1.4034e-009     -0.00013055     1.0276e-008    
END_DB

BEGIN_DB
 ICCAP_VAR VS         0              
 ICCAP_VAR VB         0.9            
 ICCAP_VAR VD         -1.8           

 #VG              IG              ID              IB             
  0               -1.1365e-009    -1.0278e-009    -1.7108e-008   
  -0.05           1.3858e-009     -1.0933e-009    -2.5897e-008   
  -0.1            9.697e-010      2.2895e-009     -9.076e-009    
  -0.15           1.1218e-009     2.2129e-009     1.1094e-008    
  -0.2            1.2909e-009     2.076e-009      1.2254e-008    
  -0.25           -1.4265e-009    1.8148e-009     1.2739e-008    
  -0.3            -1.0056e-009    -2.1781e-009    8.816e-009     
  -0.35           1.5533e-009     -1.6645e-009    -1.264e-008    
  -0.4            8.384e-010      2.2872e-009     -8.839e-009    
  -0.45           -1.2895e-009    1.3908e-009     9.76e-009      
  -0.5            -2.2338e-009    -1.4557e-009    7.978e-009     
  -0.55           2.1791e-009     -2.2777e-009    -1.921e-008    
  -0.6            1.847e-009      -5.7351e-009    -6.753e-009    
  -0.65           -1.5301e-009    -2.3868e-008    -1.4022e-008   
  -0.7            -1.3373e-009    -7.7706e-008    7.63e-009      
  -0.75           4.574e-010      -2.3787e-007    -1.223e-008    
  -0.8            8.722e-010      -6.8712e-007    1.034e-008     
  -0.85           -1.9599e-009    -1.7565e-006    -1.3287e-008   
  -0.9            -2.6207e-009    -4.134e-006     -5.592e-009    
  -0.95           1.723e-010      -8.8101e-006    -1.286e-008    
  -1              1.1873e-009     -1.6553e-005    -2.4972e-008   
  -1.05           4.22e-011       -2.8e-005       1.0278e-008    
  -1.1            4.943e-010      -4.4486e-005    1.0038e-008    
  -1.15           8.981e-010      -6.6327e-005    1.0338e-008    
  -1.2            1.2699e-009     -9.366e-005     1.045e-008     
  -1.25           2.8257e-009     -0.00012487     9.956e-009     
  -1.3            2.6858e-009     -0.00016157     9.3e-011       
  -1.35           1.482e-009      -0.00020358     1.1996e-008    
  -1.4            3.484e-010      -0.00024713     9.847e-009     
  -1.45           7.857e-010      -0.00029612     1.046e-008     
  -1.5            1.1506e-009     -0.00034893     9.839e-009     
  -1.55           1.5e-012        -0.000402       1.0428e-008    
  -1.6            4.398e-010      -0.00045925     9.845e-009     
  -1.65           8.583e-010      -0.00051939     1.0804e-008    
  -1.7            1.2298e-009     -0.00058174     9.817e-009     
  -1.75           8.51e-011       -0.000643       1.0118e-008    
  -1.8            5.387e-010      -0.00070763     1.0146e-008    
END_DB

BEGIN_DB
 ICCAP_VAR VS         0              
 ICCAP_VAR VB         1.8            
 ICCAP_VAR VD         -0.1           

 #VG              IG              ID              IB             
  0               -1.1569e-009    -1.0339e-009    -1.7132e-008   
  -0.05           1.6971e-009     -1.6162e-009    -1.3834e-008   
  -0.1            7.416e-010      2.3058e-009     -9.039e-009    
  -0.15           9.038e-010      2.3057e-009     1.009e-008     
  -0.2            1.0529e-009     2.2557e-009     9.998e-009     
  -0.25           1.2112e-009     2.1376e-009     1.0696e-008    
  -0.3            -1.735e-010     1.9072e-009     1.0126e-008    
  -0.35           -1.5145e-009    9.012e-010      2.5025e-008    
  -0.4            -1.7458e-009    -1.4044e-009    7.602e-009     
  -0.45           -4.277e-010     -2.1554e-009    -1.083e-008    
  -0.5            2.4822e-009     -5.298e-010     -1.7379e-008   
  -0.55           1.1854e-009     2.1568e-009     -3.984e-009    
  -0.6            -1.902e-010     1.8524e-009     1.016e-008     
  -0.65           -1.5388e-009    6.865e-010      2.4659e-008    
  -0.7            -2.5282e-009    -1.9113e-009    7.37e-009      
  -0.75           -4.087e-010     -5.6443e-009    -1.0693e-008   
  -0.8            2.8112e-009     -1.1947e-008    2.6097e-008    
  -0.85           1.2681e-009     -4.2092e-008    9.894e-009     
  -0.9            2.8382e-009     -1.3788e-007    -1.0587e-008   
  -0.95           2.6308e-009     -4.0255e-007    -1.9e-011      
  -1              6.166e-010      -1.05187e-006   1.0308e-008    
  -1.05           -1.9812e-009    -2.4391e-006    -1.3604e-008   
  -1.1            2.4782e-009     -5.0789e-006    -2.7138e-008   
  -1.15           1.7566e-009     -9.1626e-006    -4.057e-009    
  -1.2            -1.2956e-009    -1.4694e-005    -6.815e-009    
  -1.25           -2.437e-009     -2.1722e-005    7.705e-009     
  -1.3            -7.048e-010     -3.0065e-005    -1.0655e-008   
  -1.35           1.7031e-009     -3.9074e-005    -1.951e-008    
  -1.4            1.2667e-009     -4.8342e-005    -9.116e-009    
  -1.45           2.8387e-009     -5.77e-005      -9.247e-009    
  -1.5            2.6006e-009     -6.6735e-005    -3.34e-010     
  -1.55           1.9449e-009     -7.5606e-005    -2.825e-009    
  -1.6            1.3675e-009     -8.4094e-005    -8.647e-009    
  -1.65           2.8221e-009     -9.2149e-005    -9.021e-009    
  -1.7            2.7369e-009     -9.9736e-005    1.99e-010      
  -1.75           1.4117e-009     -0.000107157    1.1507e-008    
  -1.8            1.8336e-009     -0.000113938    1.3089e-008    
END_DB

BEGIN_DB
 ICCAP_VAR VS         0              
 ICCAP_VAR VB         1.8            
 ICCAP_VAR VD         -1.8           

 #VG              IG              ID              IB             
  0               -1.3159e-009    -1.2238e-009    1.0452e-008    
  -0.05           -4.042e-010     -2.15e-009      -1.067e-008    
  -0.1            2.5166e-009     -1.3653e-009    -2.5378e-008   
  -0.15           1.1673e-009     2.1865e-009     -3.611e-009    
  -0.2            -2.142e-010     1.8819e-009     1.0344e-008    
  -0.25           -1.5704e-009    8.643e-010      2.4044e-008    
  -0.3            -1.7108e-009    -1.4659e-009    6.99e-009      
  -0.35           -3.719e-010     -2.1377e-009    -1.0515e-008   
  -0.4            2.5527e-009     -4.775e-010     -1.7014e-008   
  -0.45           1.1323e-009     2.2012e-009     -3.219e-009    
  -0.5            -1.5287e-009    1.7025e-009     1.2432e-008    
  -0.55           -1.7386e-009    -1.5168e-009    7.493e-009     
  -0.6            -4.258e-010     -2.6109e-009    -1.0645e-008   
  -0.65           2.503e-009      -3.5051e-009    -2.5165e-008   
  -0.7            2.2065e-009     -8.1331e-009    -3.676e-009    
  -0.75           -1.2882e-009    -3.1767e-008    -1.0269e-008   
  -0.8            -2.3938e-009    -1.00802e-007   8.088e-009     
  -0.85           9.806e-010      -3.047e-007     -1.7556e-008   
  -0.9            1.3696e-009     -8.5976e-007    1.1232e-008    
  -0.95           -1.462e-009     -2.1174e-006    -1.0533e-008   
  -1              -1.3232e-009    -4.8433e-006    8.337e-009     
  -1.05           -1.2708e-009    -9.9718e-006    8.532e-009     
  -1.1            2.634e-009      -1.8917e-005    -4.796e-009    
  -1.15           1.9863e-009     -3.1871e-005    -2.483e-009    
  -1.2            1.3945e-009     -4.992e-005     -8.197e-009    
  -1.25           2.8109e-009     -7.324e-005     -8.959e-009    
  -1.3            2.0586e-009     -0.000101645    1.2182e-008    
  -1.35           2.2377e-009     -0.00013488     1.0144e-008    
  -1.4            1.1293e-009     -0.00017352     9.982e-009     
  -1.45           1.5431e-009     -0.0002163      1.2474e-008    
  -1.5            1.965e-009      -0.00026192     1.2478e-008    
  -1.55           8.407e-010      -0.00031087     1.0415e-008    
  -1.6            1.2073e-009     -0.00036431     1.0034e-008    
  -1.65           6.55e-011       -0.0004178      1.0267e-008    
  -1.7            5.14e-010       -0.00047548     1.0013e-008    
  -1.75           9.169e-010      -0.00053581     1.0265e-008    
  -1.8            1.2882e-009     -0.00059842     1.063e-008     
END_DB

