! VERSION = 6.00
BEGIN_HEADER
 ICCAP_INPUTS
  VG         V  B GROUND SMU4 0.001 LIN        1    0          -1.8       37   -0.05     
  VS         V  E GROUND SMU2 0.1 CON        0
  VB         V  C GROUND SMU3 0.1 LIN        3    0          1.8        3    0.9       
  VD         V  S GROUND SMU1 0.1 LIN        2    -0.1       -1.8       2    -1.7      
 ICCAP_OUTPUTS
  IG         I  B GROUND SMU4 B
  ID         I  S GROUND SMU1 B
  IB         I  C GROUND SMU3 B
END_HEADER

BEGIN_DB
 ICCAP_VAR VS         0              
 ICCAP_VAR VB         0              
 ICCAP_VAR VD         -0.1           

 #VG              IG              ID              IB             
  0               1.33e-010       3.73e-010       1.0354e-008    
  -0.05           2.5345e-009     -4.656e-010     -1.7704e-008   
  -0.1            1.1858e-009     2.1897e-009     -3.401e-009    
  -0.15           -2.146e-010     1.9348e-009     1.0062e-008    
  -0.2            -3.78e-011      1.9903e-009     9.647e-009     
  -0.25           1.5e-010        1.9819e-009     9.764e-009     
  -0.3            3.579e-010      1.7084e-009     1.0393e-008    
  -0.35           -1.4808e-009    -2.2055e-009    1.0499e-008    
  -0.4            -1.3879e-009    -5.7006e-009    8.097e-009     
  -0.45           2.0718e-009     -1.3296e-008    8.626e-009     
  -0.5            9.214e-010      -3.5008e-008    1.041e-008     
  -0.55           1.3205e-009     -8.0053e-008    1.0353e-008    
  -0.6            2.8472e-009     -1.6001e-007    -1.0771e-008   
  -0.65           2.5409e-009     -2.8691e-007    -2.5e-010      
  -0.7            1.8445e-009     -4.7227e-007    -2.988e-009    
  -0.75           1.3169e-009     -7.2306e-007    -8.943e-009    
  -0.8            2.8631e-009     -1.04233e-006   -9.285e-009    
  -0.85           1.9637e-009     -1.4242e-006    8.481e-009     
  -0.9            8.228e-010      -1.8653e-006    1.0457e-008    
  -0.95           1.2193e-009     -2.3725e-006    9.98e-009      
  -1              5.41e-011       -2.8986e-006    1.0006e-008    
  -1.05           5.256e-010      -3.4744e-006    9.964e-009     
  -1.1            9.507e-010      -4.0754e-006    1.0408e-008    
  -1.15           1.3645e-009     -4.6933e-006    1.0619e-008    
  -1.2            1.8135e-009     -5.3036e-006    1.2432e-008    
  -1.25           6.728e-010      -5.8984e-006    1.0418e-008    
  -1.3            1.0794e-009     -6.5052e-006    1.0241e-008    
  -1.35           1.5111e-009     -7.0969e-006    1.1445e-008    
  -1.4            3.609e-010      -7.6438e-006    9.584e-009     
  -1.45           8.108e-010      -8.1949e-006    1.0417e-008    
  -1.5            1.2079e-009     -8.7268e-006    9.91e-009      
  -1.55           4.4e-011        -9.2148e-006    9.987e-009     
  -1.6            5.148e-010      -9.6979e-006    9.98e-009      
  -1.65           9.441e-010      -1.01578e-005   1.0779e-008    
  -1.7            1.3493e-009     -1.06092e-005   9.842e-009     
  -1.75           1.7986e-009     -1.10255e-005   1.2291e-008    
  -1.8            -2.366e-009     -1.1407e-005    1.0526e-008    
END_DB

BEGIN_DB
 ICCAP_VAR VS         0              
 ICCAP_VAR VB         0              
 ICCAP_VAR VD         -1.8           

 #VG              IG              ID              IB             
  0               5.366e-010      6.648e-010      -1.0615e-008   
  -0.05           2.8539e-009     7.8e-012        -1.1439e-008   
  -0.1            6.855e-010      2.3092e-009     -1e-012        
  -0.15           8.695e-010      2.2473e-009     1.0221e-008    
  -0.2            -1.3004e-009    1.2574e-009     1.0033e-008    
  -0.25           -2.5787e-009    -1.8025e-009    9.184e-009     
  -0.3            -2.4032e-009    -3.7204e-009    5.84e-010      
  -0.35           -4.383e-010     -1.10434e-008   -1.0859e-008   
  -0.4            2.53e-009       -2.4763e-008    9.538e-009     
  -0.45           1.5253e-009     -6.6805e-008    1.1648e-008    
  -0.5            2.8561e-009     -1.5851e-007    -1.0323e-008   
  -0.55           2.721e-009      -3.2622e-007    4.19e-010      
  -0.6            1.4902e-009     -6.0872e-007    1.1373e-008    
  -0.65           3.321e-010      -1.01888e-006   9.653e-009     
  -0.7            -1.3862e-009    -1.6132e-006    -1.0275e-008   
  -0.75           -1.3117e-009    -2.4173e-006    8.921e-009     
  -0.8            -2.4661e-009    -3.4643e-006    7.725e-009     
  -0.85           -6.69e-010      -4.8094e-006    -1.07e-008     
  -0.9            1.6924e-009     -6.4536e-006    -1.9401e-008   
  -0.95           1.2596e-009     -8.3938e-006    -9.065e-009    
  -1              2.8437e-009     -1.06599e-005   -9.668e-009    
  -1.05           -2.6714e-009    -1.3172e-005    1.0423e-008    
  -1.1            1.6991e-009     -1.6105e-005    -1.9896e-008   
  -1.15           1.2613e-009     -1.9266e-005    -8.997e-009    
  -1.2            2.843e-009      -2.2707e-005    -9.758e-009    
  -1.25           2.5434e-009     -2.6338e-005    -1.83e-010     
  -1.3            1.8445e-009     -3.0236e-005    -3.31e-009     
  -1.35           1.3147e-009     -3.4322e-005    -8.93e-009     
  -1.4            2.8574e-009     -3.8578e-005    -9.325e-009    
  -1.45           2.658e-009      -4.2944e-005    -6.5e-011      
  -1.5            6.149e-010      -4.7443e-005    1.0189e-008    
  -1.55           1.0282e-009     -5.2145e-005    1.0256e-008    
  -1.6            1.447e-009      -5.6981e-005    1.0106e-008    
  -1.65           3.001e-010      -6.1659e-005    9.663e-009     
  -1.7            7.591e-010      -6.6637e-005    1.0691e-008    
  -1.75           1.1603e-009     -7.1657e-005    9.979e-009     
  -1.8            1.5973e-009     -7.6817e-005    1.1793e-008    
END_DB

BEGIN_DB
 ICCAP_VAR VS         0              
 ICCAP_VAR VB         0.9            
 ICCAP_VAR VD         -0.1           

 #VG              IG              ID              IB             
  0               1.1348e-009     1.056e-009      8.958e-009     
  -0.05           7.075e-010      2.3401e-009     -1.06e-010     
  -0.1            8.862e-010      2.3334e-009     9.999e-009     
  -0.15           1.0651e-009     2.282e-009      1.029e-008     
  -0.2            1.2422e-009     2.1531e-009     1.1586e-008    
  -0.25           -1.573e-010     1.9726e-009     9.99e-009      
  -0.3            2.91e-011       2.0642e-009     9.645e-009     
  -0.35           2.303e-010      2.1746e-009     9.826e-009     
  -0.4            4.429e-010      2.2346e-009     1.041e-008     
  -0.45           6.39e-010       2.1895e-009     1.0588e-008    
  -0.5            -1.3263e-009    7.67e-010       1.0241e-008    
  -0.55           -1.3024e-009    -2.261e-009     8.03e-009      
  -0.6            -2.6091e-009    -7.9782e-009    8.685e-009     
  -0.65           2.459e-009      -2.4973e-008    1.0484e-008    
  -0.7            1.7139e-009     -6.408e-008     -4.034e-009    
  -0.75           -1.3531e-009    -1.4453e-007    2.0998e-008    
  -0.8            2.117e-009      -2.8116e-007    -1.7962e-008   
  -0.85           1.4265e-009     -4.8492e-007    -7.498e-009    
  -0.9            2.84e-009       -7.7265e-007    -8.894e-009    
  -0.95           2.1073e-009     -1.13673e-006   1.2285e-008    
  -1              5.877e-010      -1.581e-006     4.65e-010      
  -1.05           1.0029e-009     -2.1035e-006    1.0409e-008    
  -1.1            1.4249e-009     -2.6803e-006    1.0072e-008    
  -1.15           2.783e-010      -3.2626e-006    9.737e-009     
  -1.2            7.389e-010      -3.8884e-006    1.0587e-008    
  -1.25           1.1447e-009     -4.5247e-006    9.965e-009     
  -1.3            1.5858e-009     -5.1542e-006    1.1993e-008    
  -1.35           2.032e-009      -5.7592e-006    1.2473e-008    
  -1.4            8.882e-010      -6.3501e-006    1.0241e-008    
  -1.45           1.2897e-009     -6.9357e-006    1.0108e-008    
  -1.5            1.317e-010      -7.4723e-006    9.933e-009     
  -1.55           6.056e-010      -8.0054e-006    1.0352e-008    
  -1.6            1.0222e-009     -8.52e-006      1.0176e-008    
  -1.65           1.4542e-009     -9.0112e-006    1.022e-008     
  -1.7            3.011e-010      -9.4598e-006    9.724e-009     
  -1.75           7.628e-010      -9.9062e-006    1.0664e-008    
  -1.8            1.1643e-009     -1.03226e-005   9.847e-009     
END_DB

BEGIN_DB
 ICCAP_VAR VS         0              
 ICCAP_VAR VB         0.9            
 ICCAP_VAR VD         -1.8           

 #VG              IG              ID              IB             
  0               8.061e-010      8.086e-010      2.512e-008     
  -0.05           9.029e-010      2.3324e-009     -8.803e-009    
  -0.1            1.0729e-009     2.2678e-009     9.798e-009     
  -0.15           1.2576e-009     2.1334e-009     1.031e-008     
  -0.2            -1.439e-010     1.9841e-009     9.921e-009     
  -0.25           -1.4835e-009    9.555e-010      2.5514e-008    
  -0.3            -1.8177e-009    -1.3825e-009    8.223e-009     
  -0.35           -5.296e-010     -2.3409e-009    -1.1207e-008   
  -0.4            -7.486e-010     -2.6679e-009    -1.0993e-008   
  -0.45           1.9868e-009     -3.2369e-009    -1.7556e-008   
  -0.5            1.642e-009      -5.7422e-009    -8.222e-009    
  -0.55           -2.4215e-009    -2.1945e-008    -2.6802e-008   
  -0.6            -7.099e-010     -6.4135e-008    -1.0979e-008   
  -0.65           1.8292e-009     -1.5545e-007    -2.6641e-008   
  -0.7            6.957e-010      -3.3934e-007    1.0519e-008    
  -0.75           1.0987e-009     -6.6627e-007    1.0002e-008    
  -0.8            -1.3738e-009    -1.1582e-006    -1.0322e-008   
  -0.85           -1.3104e-009    -1.8882e-006    9.096e-009     
  -0.9            -2.3991e-009    -2.8891e-006    8.605e-009     
  -0.95           -7.464e-010     -4.2223e-006    -1.1059e-008   
  -1              1.5964e-009     -5.8995e-006    -1.7611e-008   
  -1.05           2.8035e-009     -7.8996e-006    -8.915e-009    
  -1.1            8.95e-010       -1.02311e-005   1.0801e-008    
  -1.15           -2.2576e-009    -1.2885e-005    1.0138e-008    
  -1.2            1.7544e-009     -1.5919e-005    -1.9862e-008   
  -1.25           1.2809e-009     -1.9176e-005    -9.046e-009    
  -1.3            2.8502e-009     -2.2714e-005    -9.503e-009    
  -1.35           2.5696e-009     -2.6427e-005    -2.19e-010     
  -1.4            1.8816e-009     -3.0402e-005    -2.775e-009    
  -1.45           1.3282e-009     -3.4546e-005    -8.794e-009    
  -1.5            2.8545e-009     -3.8842e-005    -9.309e-009    
  -1.55           2.6611e-009     -4.3233e-005    1.23e-010      
  -1.6            5.995e-010      -4.7757e-005    1.0346e-008    
  -1.65           1.0132e-009     -5.2485e-005    1.0369e-008    
  -1.7            1.4378e-009     -5.7317e-005    1.0038e-008    
  -1.75           2.924e-010      -6.1995e-005    9.78e-009      
  -1.8            7.584e-010      -6.6939e-005    1.0437e-008    
END_DB

BEGIN_DB
 ICCAP_VAR VS         0              
 ICCAP_VAR VB         1.8            
 ICCAP_VAR VD         -0.1           

 #VG              IG              ID              IB             
  0               9.631e-010      9.212e-010      1.8109e-008    
  -0.05           1.4633e-009     1.934e-009      -7.321e-009    
  -0.1            5.91e-011       2.0801e-009     9.664e-009     
  -0.15           2.624e-010      2.1977e-009     9.979e-009     
  -0.2            4.689e-010      2.2847e-009     1.037e-008     
  -0.25           6.757e-010      2.3394e-009     1.0683e-008    
  -0.3            8.612e-010      2.3405e-009     1.0167e-008    
  -0.35           1.0387e-009     2.2983e-009     9.798e-009     
  -0.4            1.2209e-009     2.1776e-009     1.0259e-008    
  -0.45           -1.792e-010     1.9546e-009     1.0045e-008    
  -0.5            6.4e-012        2.0117e-009     9.65e-009      
  -0.55           2.056e-010      1.9707e-009     9.754e-009     
  -0.6            -1.4283e-009    1.528e-010      1.03e-008      
  -0.65           -1.3582e-009    -3.852e-009     8.554e-009     
  -0.7            -2.5234e-009    -1.4099e-008    -1.7046e-008   
  -0.75           -5.985e-010     -4.0858e-008    -1.0564e-008   
  -0.8            1.7811e-009     -9.9117e-008    -2.1084e-008   
  -0.85           -1.3325e-009    -2.0635e-007    2.0527e-008    
  -0.9            2.1529e-009     -3.8743e-007    -1.7666e-008   
  -0.95           1.449e-009      -6.4513e-007    -7.061e-009    
  -1              2.8366e-009     -9.9355e-007    -8.76e-009     
  -1.05           1.8239e-009     -1.4287e-006    8.937e-009     
  -1.1            6.956e-010      -1.9316e-006    1.034e-008     
  -1.15           1.1012e-009     -2.5098e-006    1.0024e-008    
  -1.2            1.5391e-009     -3.1234e-006    1.1785e-008    
  -1.25           1.9899e-009     -3.7408e-006    1.2497e-008    
  -1.3            8.507e-010      -4.3668e-006    1.0376e-008    
  -1.35           1.2498e-009     -5.003e-006     9.868e-009     
  -1.4            9.42e-011       -5.5969e-006    9.874e-009     
  -1.45           5.74e-010       -6.1956e-006    1.0196e-008    
  -1.5            9.982e-010      -6.7736e-006    1.0265e-008    
  -1.55           1.4128e-009     -7.3286e-006    1.1021e-008    
  -1.6            2.676e-010      -7.8377e-006    9.708e-009     
  -1.65           7.35e-010       -8.3415e-006    1.0426e-008    
  -1.7            1.1393e-009     -8.826e-006     9.928e-009     
  -1.75           1.5761e-009     -9.2865e-006    1.188e-008     
  -1.8            2.0212e-009     -9.7148e-006    1.2406e-008    
END_DB

BEGIN_DB
 ICCAP_VAR VS         0              
 ICCAP_VAR VB         1.8            
 ICCAP_VAR VD         -1.8           

 #VG              IG              ID              IB             
  0               2.4996e-009     2.3349e-009     -1.7023e-008   
  -0.05           3.746e-010      2.2504e-009     1.0304e-008    
  -0.1            5.77e-010       2.3223e-009     1.0286e-008    
  -0.15           7.759e-010      2.3501e-009     1.0232e-008    
  -0.2            9.498e-010      2.3243e-009     9.889e-009     
  -0.25           1.1236e-009     2.2469e-009     1.0659e-008    
  -0.3            1.3135e-009     2.0761e-009     1.1892e-008    
  -0.35           -1.424e-009     1.8601e-009     1.1804e-008    
  -0.4            -1.8769e-009    -1.3632e-009    8.558e-009     
  -0.45           1.6375e-009     -2.0386e-009    -1.3313e-008   
  -0.5            1.3943e-009     -1.1722e-009    -8.937e-009    
  -0.55           1.2692e-009     -5.9804e-009    -9.034e-009    
  -0.6            -1.3081e-009    -2.2402e-008    -1.0282e-008   
  -0.65           -2.4458e-009    -6.5737e-008    7.813e-009     
  -0.7            2.5482e-009     -1.6737e-007    -1.2233e-008   
  -0.75           1.5499e-009     -3.7432e-007    1.1761e-008    
  -0.8            2.0048e-009     -7.261e-007     1.2363e-008    
  -0.85           -1.5551e-009    -1.2738e-006    -1.0986e-008   
  -0.9            -1.3554e-009    -2.0757e-006    7.322e-009     
  -0.95           -1.2915e-009    -3.1731e-006    8.917e-009     
  -1              -2.2669e-009    -4.6012e-006    9.948e-009     
  -1.05           1.735e-010      -6.4458e-006    -1.2678e-008   
  -1.1            1.3653e-009     -8.5895e-006    -2.3552e-008   
  -1.15           2.8582e-009     -1.10737e-005   -9.222e-009    
  -1.2            -2.5368e-009    -1.3833e-005    9.926e-009     
  -1.25           -1.9736e-009    -1.6922e-005    9.55e-010      
  -1.3            -2.6715e-009    -2.033e-005     -5.571e-009    
  -1.35           1.608e-010      -2.4028e-005    -1.2561e-008   
  -1.4            -2.474e-010     -2.7841e-005    -1.0457e-008   
  -1.45           -7.458e-010     -3.1825e-005    -1.093e-008    
  -1.5            1.5972e-009     -3.6088e-005    -1.7502e-008   
  -1.55           2.8004e-009     -4.043e-005     -8.99e-009     
  -1.6            8.927e-010      -4.4884e-005    1.0614e-008    
  -1.65           1.2866e-009     -4.9542e-005    1.0166e-008    
  -1.7            1.369e-010      -5.41e-005      9.931e-009     
  -1.75           6.042e-010      -5.893e-005     1.0202e-008    
  -1.8            1.0212e-009     -6.3858e-005    1.0225e-008    
END_DB

