! VERSION = 6.00
BEGIN_HEADER
 ICCAP_INPUTS
  VG         V  B GROUND SMU4 0.001 LIN        1    0          -1.8       37   -0.05     
  VS         V  E GROUND SMU2 0.1 CON        0
  VB         V  C GROUND SMU3 0.1 LIN        3    0          1.8        3    0.9       
  VD         V  S GROUND SMU1 0.1 LIN        2    -0.1       -1.8       2    -1.7      
 ICCAP_OUTPUTS
  IG         I  B GROUND SMU4 B
  ID         I  S GROUND SMU1 B
  IB         I  C GROUND SMU3 B
END_HEADER

BEGIN_DB
 ICCAP_VAR VS         0              
 ICCAP_VAR VB         0              
 ICCAP_VAR VD         -0.1           

 #VG              IG              ID              IB             
  0               -1.0947e-009    -9.978e-010     -1.9985e-008   
  -0.05           -1.0142e-009    -2.241e-009     -5.751e-009    
  -0.1            1.5338e-009     -1.7253e-009    -1.2277e-008   
  -0.15           8.604e-010      2.3505e-009     -8.835e-009    
  -0.2            1.0214e-009     2.3084e-009     1.009e-008     
  -0.25           1.1864e-009     2.1946e-009     1.1206e-008    
  -0.3            -1.5251e-009    1.7328e-009     1.2224e-008    
  -0.35           -1.7816e-009    -1.6112e-009    7.687e-009     
  -0.4            -4.403e-010     -2.8522e-009    -1.0834e-008   
  -0.45           2.4743e-009     -3.6484e-009    -2.4902e-008   
  -0.5            2.1659e-009     -7.1164e-009    -3.85e-009     
  -0.55           -2.5756e-009    -2.6651e-008    -2.6975e-008   
  -0.6            -2.0247e-009    -8.3084e-008    9.04e-010      
  -0.65           1.0218e-009     -2.4973e-007    -1.8198e-008   
  -0.7            1.4288e-009     -6.8887e-007    1.1355e-008    
  -0.75           -2.0394e-009    -1.6058e-006    -1.3718e-008   
  -0.8            1.2154e-009     -3.4958e-006    -2.745e-008    
  -0.85           2.8165e-009     -6.6375e-006    -1.1552e-008   
  -0.9            1.385e-009      -1.13928e-005   1.0984e-008    
  -0.95           -2.1404e-009    -1.7534e-005    1.0954e-008    
  -1              1.071e-010      -2.5627e-005    -1.1734e-008   
  -1.05           -3.064e-010     -3.4681e-005    -1.0323e-008   
  -1.1            2.2742e-009     -4.4776e-005    -2.6635e-008   
  -1.15           1.5504e-009     -5.5455e-005    -5.837e-009    
  -1.2            1.2346e-009     -6.6362e-005    -8.953e-009    
  -1.25           2.8568e-009     -7.7309e-005    -1.0409e-008   
  -1.3            1.2798e-009     -8.8068e-005    1.021e-008     
  -1.35           1.035e-010      -9.8008e-005    9.982e-009     
  -1.4            5.651e-010      -0.000107993    9.964e-009     
  -1.45           2.4858e-009     -0.00011745     9.693e-009     
  -1.5            1.4248e-009     -0.00012649     1.1172e-008    
  -1.55           1.8614e-009     -0.00013479     1.2651e-008    
  -1.6            7.121e-010      -0.0001425      1.0586e-008    
  -1.65           1.1052e-009     -0.00015004     1.051e-008     
  -1.7            1.5218e-009     -0.00015712     1.0644e-008    
  -1.75           3.625e-010      -0.00016349     9.668e-009     
  -1.8            7.977e-010      -0.00016974     1.0779e-008    
END_DB

BEGIN_DB
 ICCAP_VAR VS         0              
 ICCAP_VAR VB         0              
 ICCAP_VAR VD         -1.8           

 #VG              IG              ID              IB             
  0               9.533e-010      8.836e-010      2.1037e-008    
  -0.05           5.594e-010      2.3098e-009     -8.148e-009    
  -0.1            7.417e-010      2.3474e-009     1.0288e-008    
  -0.15           9.095e-010      2.3208e-009     1.0189e-008    
  -0.2            -1.2982e-009    1.4788e-009     1.0413e-008    
  -0.25           -2.3538e-009    -1.3865e-009    9.465e-009     
  -0.3            -8.91e-011      -2.974e-009     -1.0184e-008   
  -0.35           -2.938e-010     -5.2105e-009    -1.025e-008    
  -0.4            1.8846e-009     -1.0454e-008    1.0123e-008    
  -0.45           1.3259e-009     -3.2279e-008    -8.932e-009    
  -0.5            2.8792e-009     -1.02697e-007   -9.319e-009    
  -0.55           2.5305e-009     -2.8924e-007    -1.2269e-008   
  -0.6            1.504e-009      -7.866e-007     1.185e-008     
  -0.65           -1.3754e-009    -1.8547e-006    -1.0108e-008   
  -0.7            -1.3075e-009    -4.1179e-006    8.932e-009     
  -0.75           -2.4818e-009    -8.3456e-006    7.936e-009     
  -0.8            2.417e-009      -1.5627e-005    -1.0874e-008   
  -0.85           1.3247e-009     -2.7095e-005    1.0202e-008    
  -0.9            1.409e-010      -4.2481e-005    1.0071e-008    
  -0.95           6.04e-010       -6.3802e-005    1.0436e-008    
  -1              1.0156e-009     -9.0906e-005    1.0873e-008    
  -1.05           2.7938e-009     -0.00012287     1.0825e-008    
  -1.1            8.213e-010      -0.00016061     1.0542e-008    
  -1.15           1.2151e-009     -0.00020402     1.0356e-008    
  -1.2            1.647e-009      -0.0002519      1.2353e-008    
  -1.25           2.0771e-009     -0.00030255     1.2208e-008    
  -1.3            9.113e-010      -0.00035754     1.0546e-008    
  -1.35           1.3113e-009     -0.00041727     1.068e-008     
  -1.4            1.281e-010      -0.00047659     1.0094e-008    
  -1.45           5.936e-010      -0.00054129     1.0228e-008    
  -1.5            1.0036e-009     -0.00060833     1.0743e-008    
  -1.55           1.4118e-009     -0.00067769     1.0403e-008    
  -1.6            1.8392e-009     -0.00074751     1.2456e-008    
  -1.65           6.894e-010      -0.00081726     1.0617e-008    
  -1.7            1.0891e-009     -0.00089092     1.0509e-008    
  -1.75           1.5101e-009     -0.0009659      1.071e-008     
  -1.8            3.406e-010      -0.00103769     9.703e-009     
END_DB

BEGIN_DB
 ICCAP_VAR VS         0              
 ICCAP_VAR VB         0.9            
 ICCAP_VAR VD         -0.1           

 #VG              IG              ID              IB             
  0               1.138e-009      1.0139e-009     7.91e-009      
  -0.05           7.379e-010      2.355e-009      -1.77e-010     
  -0.1            9e-010          2.3426e-009     1.0488e-008    
  -0.15           1.0602e-009     2.2918e-009     9.943e-009     
  -0.2            1.2223e-009     2.1743e-009     1.0375e-008    
  -0.25           -1.962e-010     1.9577e-009     1.0064e-008    
  -0.3            -1.5481e-009    9.005e-010      2.4993e-008    
  -0.35           -1.7564e-009    -1.4678e-009    7.402e-009     
  -0.4            2.0027e-009     -1.6098e-009    -1.7746e-008   
  -0.45           5.655e-010      2.3098e-009     -8.109e-009    
  -0.5            7.46e-010       2.2991e-009     1.0707e-008    
  -0.55           -1.3184e-009    1.1716e-009     1.0352e-008    
  -0.6            -2.6917e-009    -2.0121e-009    7.646e-009     
  -0.65           2.1417e-009     -5.2873e-009    -2.0221e-008   
  -0.7            -2.536e-009     -1.8838e-008    -2.7125e-008   
  -0.75           -1.9748e-009    -6.723e-008     9.43e-010      
  -0.8            1.0323e-009     -2.2786e-007    -1.8709e-008   
  -0.85           -1.574e-010     -6.6837e-007    1.0961e-008    
  -0.9            -2.4513e-009    -1.7194e-006    -1.9475e-008   
  -0.95           1.6796e-009     -3.8654e-006    -1.9158e-008   
  -1              1.2649e-009     -7.4814e-006    -8.99e-009     
  -1.05           -2.2126e-009    -1.2765e-005    1.0687e-008    
  -1.1            1.51e-010       -2.0139e-005    -1.2075e-008   
  -1.15           -2.469e-010     -2.881e-005     -1.0306e-008   
  -1.2            -7.312e-010     -3.8595e-005    -1.0845e-008   
  -1.25           1.6441e-009     -4.9337e-005    -1.8432e-008   
  -1.3            1.2503e-009     -6.024e-005     -8.913e-009    
  -1.35           2.8699e-009     -7.1142e-005    -9.865e-009    
  -1.4            2.567e-009      -8.1594e-005    -2.5e-010      
  -1.45           1.8705e-009     -9.1791e-005    -2.914e-009    
  -1.5            1.3359e-009     -0.000101449    -8.7e-009      
  -1.55           2.8816e-009     -0.000110571    -9.228e-009    
  -1.6            2.7837e-009     -0.00011908     1.0305e-008    
  -1.65           1.4163e-009     -0.00012736     1.0196e-008    
  -1.7            1.8459e-009     -0.00013493     1.2535e-008    
  -1.75           6.946e-010      -0.00014192     1.0427e-008    
  -1.8            1.0856e-009     -0.00014878     1.039e-008     
END_DB

BEGIN_DB
 ICCAP_VAR VS         0              
 ICCAP_VAR VB         0.9            
 ICCAP_VAR VD         -1.8           

 #VG              IG              ID              IB             
  0               6.618e-010      7.351e-010      2.7719e-008    
  -0.05           1.0967e-009     2.274e-009      -9.396e-009    
  -0.1            1.2591e-009     2.134e-009      1.1749e-008    
  -0.15           -1.597e-010     1.9711e-009     9.905e-009     
  -0.2            1.34e-011       2.055e-009      9.55e-009      
  -0.25           -1.4076e-009    1.0565e-009     2.7364e-008    
  -0.3            -1.8753e-009    -1.2997e-009    8.658e-009     
  -0.35           1.6617e-009     -1.7138e-009    -1.3357e-008   
  -0.4            7.73e-010       2.2258e-009     -9.072e-009    
  -0.45           -1.3119e-009    9.031e-010      1.0162e-008    
  -0.5            -1.2956e-009    -2.0815e-009    7.638e-009     
  -0.55           -2.5843e-009    -8.3931e-009    9.942e-009     
  -0.6            -1.2968e-009    -3.3557e-008    -1.035e-008    
  -0.65           2.3907e-009     -1.1613e-007    -1.5452e-008   
  -0.7            1.2673e-009     -3.8216e-007    1.0107e-008    
  -0.75           8.47e-011       -1.06379e-006   9.895e-009     
  -0.8            -2.6859e-009    -2.7044e-006    -2.6564e-008   
  -0.85           -3.3e-010       -6.1707e-006    -1.0247e-008   
  -0.9            1.88e-011       -1.2319e-005    -1.1786e-008   
  -0.95           4.757e-010      -2.2604e-005    9.86e-009      
  -1              9.001e-010      -3.8059e-005    1.0534e-008    
  -1.05           1.2805e-009     -5.9451e-005    1.0416e-008    
  -1.1            1.028e-010      -8.5427e-005    1.0134e-008    
  -1.15           2.3662e-009     -0.00011848     9.891e-009     
  -1.2            1.2411e-009     -0.00015747     1.0362e-008    
  -1.25           6e-011          -0.00019935     1.0236e-008    
  -1.3            5.131e-010      -0.00024765     9.988e-009     
  -1.35           9.28e-010       -0.00030041     1.0631e-008    
  -1.4            1.3209e-009     -0.0003571      1.072e-008     
  -1.45           1.7488e-009     -0.00041618     1.2533e-008    
  -1.5            5.951e-010      -0.00047619     1.016e-008     
  -1.55           9.97e-010       -0.000541       1.0394e-008    
  -1.6            1.3953e-009     -0.00060838     1.1139e-008    
  -1.65           1.8302e-009     -0.00067625     1.2649e-008    
  -1.7            6.736e-010      -0.00074411     1.0352e-008    
  -1.75           1.0645e-009     -0.00081624     1.035e-008     
  -1.8            1.4744e-009     -0.00088968     1.1558e-008    
END_DB

BEGIN_DB
 ICCAP_VAR VS         0              
 ICCAP_VAR VB         1.8            
 ICCAP_VAR VD         -0.1           

 #VG              IG              ID              IB             
  0               -2.131e-010     7.61e-011       1.1533e-008    
  -0.05           1.9782e-009     -8.093e-010     -2.0622e-008   
  -0.1            5.781e-010      2.3238e-009     -8.474e-009    
  -0.15           7.556e-010      2.3564e-009     1.0688e-008    
  -0.2            9.171e-010      2.3423e-009     1.0409e-008    
  -0.25           1.0739e-009     2.2879e-009     1.0418e-008    
  -0.3            1.2353e-009     2.1751e-009     1.1545e-008    
  -0.35           -1.869e-010     1.958e-009      1.0037e-008    
  -0.4            -2.19e-011      2.0392e-009     9.675e-009     
  -0.45           1.507e-010      2.1354e-009     9.565e-009     
  -0.5            3.351e-010      2.2309e-009     1.0037e-008    
  -0.55           5.287e-010      2.283e-009      1.041e-008     
  -0.6            7.025e-010      2.223e-009      1.0367e-008    
  -0.65           -1.3187e-009    7.802e-010      1.0369e-008    
  -0.7            -1.3004e-009    -2.6395e-009    7.845e-009     
  -0.75           -2.7486e-009    -1.2807e-008    -2.056e-008    
  -0.8            -1.66e-011      -4.8234e-008    -1.0888e-008   
  -0.85           -1.351e-009     -1.6197e-007    1.2208e-008    
  -0.9            -1.297e-009     -4.99e-007      8.855e-009     
  -0.95           -2.4431e-009    -1.3411e-006    -1.9968e-008   
  -1              -6.945e-010     -3.1146e-006    -1.0637e-008   
  -1.05           1.6925e-009     -6.3478e-006    -1.9595e-008   
  -1.1            1.2633e-009     -1.13045e-005   -9.124e-009    
  -1.15           -1.4076e-009    -1.7956e-005    -9.425e-009    
  -1.2            -1.3138e-009    -2.6323e-005    8.66e-009      
  -1.25           -2.576e-009     -3.5958e-005    7.75e-009      
  -1.3            -2.0288e-009    -4.6517e-005    7.84e-010      
  -1.35           1.2082e-009     -5.7503e-005    -2.7275e-008   
  -1.4            2.8176e-009     -6.8308e-005    -1.1718e-008   
  -1.45           4.084e-010      -7.8542e-005    9.579e-009     
  -1.5            8.444e-010      -8.8695e-005    1.0516e-008    
  -1.55           1.2284e-009     -9.8318e-005    1.0186e-008    
  -1.6            4.03e-011       -0.000106988    9.977e-009     
  -1.65           2.3182e-009     -0.00011559     9.737e-009     
  -1.7            1.1751e-009     -0.00012362     1.0208e-008    
  -1.75           1.596e-009      -0.00013119     1.2111e-008    
  -1.8            2.0299e-009     -0.0001381      1.2832e-008    
END_DB

BEGIN_DB
 ICCAP_VAR VS         0              
 ICCAP_VAR VB         1.8            
 ICCAP_VAR VD         -1.8           

 #VG              IG              ID              IB             
  0               -1.3263e-009    -1.2637e-009    1.0413e-008    
  -0.05           -3.933e-010     -2.2461e-009    -1.0603e-008   
  -0.1            2.5407e-009     -5.27e-010      -1.7703e-008   
  -0.15           1.1985e-009     2.2022e-009     -3.399e-009    
  -0.2            -2.213e-010     1.9221e-009     1.0073e-008    
  -0.25           -6.35e-011      2.0083e-009     9.767e-009     
  -0.3            1.096e-010      2.0951e-009     9.508e-009     
  -0.35           3e-010          2.1941e-009     9.944e-009     
  -0.4            4.891e-010      2.2349e-009     1.043e-008     
  -0.45           6.738e-010      2.1278e-009     1.0425e-008    
  -0.5            -1.3205e-009    4.561e-010      1.037e-008     
  -0.55           -1.302e-009     -3.7011e-009    8.021e-009     
  -0.6            9.381e-010      -1.2664e-008    6.18e-010      
  -0.65           1.3272e-009     -5.6352e-008    1.0089e-008    
  -0.7            1.2355e-009     -2.0354e-007    -2.0153e-008   
  -0.75           4.68e-011       -6.1717e-007    1.0073e-008    
  -0.8            -1.4091e-009    -1.6813e-006    -1.0129e-008   
  -0.85           -1.3151e-009    -4.0721e-006    8.642e-009     
  -0.9            -2.5847e-009    -8.7549e-006    7.985e-009     
  -0.95           2.7568e-009     -1.7129e-005    -1.0124e-008   
  -1              1.8147e-009     -3.0334e-005    1.2527e-008    
  -1.05           6.607e-010      -4.8376e-005    1.057e-008     
  -1.1            1.0551e-009     -7.3064e-005    1.0733e-008    
  -1.15           1.4624e-009     -0.000103916    1.0638e-008    
  -1.2            2.864e-009      -0.00013909     1.0207e-008    
  -1.25           1.2419e-009     -0.00018113     1.0308e-008    
  -1.3            5.89e-011       -0.00022585     1.0142e-008    
  -1.35           5.154e-010      -0.00027662     9.915e-009     
  -1.4            9.295e-010      -0.00033165     1.0631e-008    
  -1.45           1.319e-009      -0.00039032     1.0716e-008    
  -1.5            1.388e-010      -0.00044894     9.942e-009     
  -1.55           5.911e-010      -0.00051252     1.0242e-008    
  -1.6            1.0003e-009     -0.00057879     9.906e-009     
  -1.65           1.4007e-009     -0.0006473      1.0452e-008    
  -1.7            1.8255e-009     -0.00071623     1.2264e-008    
  -1.75           6.726e-010      -0.00078486     1.056e-008     
  -1.8            1.0681e-009     -0.0008575      1.0543e-008    
END_DB

