! VERSION = 6.00
BEGIN_HEADER
 ICCAP_INPUTS
  VG         V  B GROUND SMU4 0.001 LIN        1    0          -1.8       37   -0.05     
  VS         V  E GROUND SMU2 0.1 CON        0
  VB         V  C GROUND SMU3 0.1 LIN        3    0          1.8        3    0.9       
  VD         V  S GROUND SMU1 0.1 LIN        2    -0.1       -1.8       2    -1.7      
 ICCAP_OUTPUTS
  IG         I  B GROUND SMU4 B
  ID         I  S GROUND SMU1 B
  IB         I  C GROUND SMU3 B
END_HEADER

BEGIN_DB
 ICCAP_VAR VS         0              
 ICCAP_VAR VB         0              
 ICCAP_VAR VD         -0.1           

 #VG              IG              ID              IB             
  0               -9.122e-010     2.701e-010      1.0011e-008    
  -0.05           -1.8332e-009    -1.2948e-009    8.405e-009     
  -0.1            1.7646e-009     -1.6221e-009    -1.4537e-008   
  -0.15           6.917e-010      2.3233e-009     -9.046e-009    
  -0.2            8.522e-010      2.3099e-009     1.0337e-008    
  -0.25           1.0016e-009     2.2375e-009     1.0112e-008    
  -0.3            -1.2825e-009    6.309e-010      1.1223e-008    
  -0.35           -2.4915e-009    -3.5384e-009    1.0643e-008    
  -0.4            1.2518e-009     -1.519e-008     -6.822e-009    
  -0.45           2.845e-009      -2.1707e-008    -9.63e-009     
  -0.5            2.5723e-009     -1.0894e-008    -2.51e-010     
  -0.55           2.5078e-009     -2.6813e-008    9.712e-009     
  -0.6            -2.714e-009     -6.384e-008     2.7028e-008    
  -0.65           -6.56e-011      -2.8597e-007    -1.0727e-008   
  -0.7            -5.282e-010     -3.4248e-007    -1.0055e-008   
  -0.75           1.9454e-009     -8.3461e-007    -2.3447e-008   
  -0.8            1.3639e-009     -7.8555e-007    -8.453e-009    
  -0.85           -1.3172e-009    -1.1028e-006    -1.0584e-008   
  -0.9            -2.6018e-009    -1.5433e-006    8.084e-009     
  -0.95           -2.1373e-009    -1.7942e-006    5.54e-010      
  -1              1.164e-010      -2.4731e-006    -1.1886e-008   
  -1.05           1.3263e-009     -2.9032e-006    -2.4062e-008   
  -1.1            2.8549e-009     -3.3708e-006    -9.089e-009    
  -1.15           2.7113e-009     -3.897e-006     1.67e-010      
  -1.2            1.4556e-009     -4.462e-006     1.1667e-008    
  -1.25           2.95e-010       -4.9879e-006    9.445e-009     
  -1.3            7.349e-010      -5.5561e-006    1.0385e-008    
  -1.35           1.1102e-009     -6.0988e-006    1.0253e-008    
  -1.4            1.511e-009      -6.6272e-006    1.1997e-008    
  -1.45           3.618e-010      -7.1017e-006    9.427e-009     
  -1.5            7.916e-010      -7.6205e-006    1.0376e-008    
  -1.55           1.1629e-009     -8.0874e-006    1.0154e-008    
  -1.6            1.5688e-009     -8.5431e-006    1.2442e-008    
  -1.65           1.98e-009       -8.9818e-006    1.2576e-008    
  -1.7            8.375e-010      -9.3844e-006    1.049e-008     
  -1.75           1.2086e-009     -9.7861e-006    1.0013e-008    
  -1.8            4.03e-011       -1.00937e-005   9.957e-009     
END_DB

BEGIN_DB
 ICCAP_VAR VS         0              
 ICCAP_VAR VB         0              
 ICCAP_VAR VD         -1.8           

 #VG              IG              ID              IB             
  0               -1.1005e-009    -9.928e-010     -2.0533e-008   
  -0.05           -1.0566e-009    -2.1922e-009    -5.292e-009    
  -0.1            1.4854e-009     -2.1842e-009    -1.1854e-008   
  -0.15           1.3174e-009     -1.9471e-009    -8.727e-009    
  -0.2            1.2348e-009     -5.3104e-009    -9.261e-009    
  -0.25           -1.3373e-009    -2.3878e-008    2.5109e-008    
  -0.3            -1.2869e-009    -3.1498e-008    8.77e-009      
  -0.35           -2.4684e-009    -6.246e-009     -2.716e-008    
  -0.4            -1.9498e-009    -1.984e-008     1.0496e-008    
  -0.45           2.4529e-009     -3.7306e-007    -2.7138e-008   
  -0.5            1.7374e-009     -1.3914e-007    -4.071e-009    
  -0.55           1.2885e-009     -3.9464e-007    -9.067e-009    
  -0.6            4.731e-010      -4.8061e-007    -2.6914e-008   
  -0.65           2.7284e-009     -5.917e-007     -1.0437e-008   
  -0.7            1.7956e-009     -1.2476e-006    1.277e-008     
  -0.75           6.604e-010      -2.1117e-006    1.0209e-008    
  -0.8            1.0379e-009     -2.8617e-006    1.0338e-008    
  -0.85           1.4338e-009     -3.9978e-006    1.1587e-008    
  -0.9            2.806e-010      -6.37e-006      9.504e-009     
  -0.95           7.167e-010      -7.1153e-006    1.0535e-008    
  -1              1.2498e-009     -8.468e-006     4.74e-010      
  -1.05           -2.4123e-009    -1.2965e-005    7.985e-009     
  -1.1            -6.977e-010     -1.4023e-005    -1.0473e-008   
  -1.15           1.6876e-009     -1.8641e-005    -1.9227e-008   
  -1.2            1.2631e-009     -1.9685e-005    -8.896e-009    
  -1.25           2.8531e-009     -2.3465e-005    -9.539e-009    
  -1.3            2.6083e-009     -2.5708e-005    -1.39e-010     
  -1.35           1.9813e-009     -2.9441e-005    -2.581e-009    
  -1.4            1.3873e-009     -3.3514e-005    -8.011e-009    
  -1.45           2.8407e-009     -3.7733e-005    -8.763e-009    
  -1.5            2.0735e-009     -4.1333e-005    1.2846e-008    
  -1.55           9.226e-010      -4.5572e-005    1.0729e-008    
  -1.6            1.3035e-009     -4.9934e-005    1.012e-008     
  -1.65           1.395e-010      -5.4944e-005    9.799e-009     
  -1.7            5.818e-010      -5.901e-005     1.0039e-008    
  -1.75           9.733e-010      -6.3399e-005    1.034e-008     
  -1.8            1.3612e-009     -6.8103e-005    1.1084e-008    
END_DB

BEGIN_DB
 ICCAP_VAR VS         0              
 ICCAP_VAR VB         0.9            
 ICCAP_VAR VD         -0.1           

 #VG              IG              ID              IB             
  0               1.1377e-009     1.0301e-009     8.03e-009      
  -0.05           6.456e-010      2.3193e-009     -4.4e-011      
  -0.1            8.135e-010      2.3356e-009     1.0297e-008    
  -0.15           9.693e-010      2.3092e-009     1.0153e-008    
  -0.2            1.1185e-009     2.2181e-009     1.1164e-008    
  -0.25           -1.5676e-009    1.3472e-009     1.2006e-008    
  -0.3            -1.4306e-009    -1.9204e-009    6.872e-009     
  -0.35           -1.3672e-009    -5.4646e-009    8.38e-009      
  -0.4            1.2735e-009     -2.4908e-008    -1.2368e-008   
  -0.45           2.8507e-009     -2.0197e-008    -9.645e-009    
  -0.5            2.6003e-009     3.5e-010        -2.71e-010     
  -0.55           -2.5726e-009    -7.4906e-008    5.673e-009     
  -0.6            2.3961e-009     -2.8309e-007    7.37e-010      
  -0.65           1.6776e-009     -5.984e-008     -4.315e-009    
  -0.7            1.2678e-009     -2.219e-007     -9.094e-009    
  -0.75           2.8553e-009     -5.5499e-007    -9.612e-009    
  -0.8            2.6094e-009     -2.2792e-007    -2.06e-010     
  -0.85           -1.15e-011      -6.0993e-007    2.3461e-008    
  -0.9            -2.6126e-009    -5.816e-007     1.0331e-008    
  -0.95           -2.1618e-009    -8.911e-007     6e-010         
  -1              1.278e-010      -2.0069e-006    -1.2059e-008   
  -1.05           -2.654e-010     -2.0918e-006    -1.0273e-008   
  -1.1            -7.415e-010     -2.3302e-006    -1.0598e-008   
  -1.15           1.6301e-009     -3.0519e-006    -1.8291e-008   
  -1.2            1.2487e-009     -3.2607e-006    -8.986e-009    
  -1.25           2.8432e-009     -3.8071e-006    -9.876e-009    
  -1.3            2.5546e-009     -4.354e-006     -2.42e-010     
  -1.35           1.8961e-009     -4.8948e-006    -2.936e-009    
  -1.4            1.3514e-009     -5.398e-006     -8.678e-009    
  -1.45           2.8532e-009     -5.8656e-006    -9.247e-009    
  -1.5            2.7226e-009     -6.5242e-006    3.32e-010      
  -1.55           1.4317e-009     -6.9801e-006    1.0578e-008    
  -1.6            2.846e-010      -7.3671e-006    9.591e-009     
  -1.65           7.238e-010      -7.9123e-006    1.0523e-008    
  -1.7            1.1e-009        -8.3581e-006    1.0392e-008    
  -1.75           1.5032e-009     -8.7841e-006    1.0847e-008    
  -1.8            3.649e-010      -9.1242e-006    9.559e-009     
END_DB

BEGIN_DB
 ICCAP_VAR VS         0              
 ICCAP_VAR VB         0.9            
 ICCAP_VAR VD         -1.8           

 #VG              IG              ID              IB             
  0               1.17e-009       1.0942e-009     -1.0918e-008   
  -0.05           5.936e-010      2.3108e-009     1.0696e-008    
  -0.1            7.678e-010      2.328e-009      1.0562e-008    
  -0.15           9.269e-010      2.2931e-009     1.0237e-008    
  -0.2            -1.2863e-009    -6.52e-011      1.0103e-008    
  -0.25           -2.5492e-009    -7.0286e-009    9.387e-009     
  -0.3            1.6101e-009     -2.6367e-008    1.181e-008     
  -0.35           1.2405e-009     -7.114e-009     -8.978e-009    
  -0.4            -2.4016e-009    -1.1198e-007    1.0104e-008    
  -0.45           1.3705e-009     -1.08674e-007   -1.0689e-008   
  -0.5            9.862e-010      -7.55e-008      -9.095e-009    
  -0.55           -1.8462e-009    -4.391e-008     1.1131e-008    
  -0.6            -1.2149e-009    -6.743e-007     8.484e-009     
  -0.65           -1.5095e-009    -1.479e-006     2.1143e-008    
  -0.7            -1.3343e-009    -8.63e-007      7.404e-009     
  -0.75           -1.2858e-009    -2.0021e-006    8.633e-009     
  -0.8            -2.2703e-009    -3.5195e-006    9.767e-009     
  -0.85           1.757e-010      -4.9193e-006    -1.2648e-008   
  -0.9            1.3815e-009     -6.0505e-006    -2.288e-008    
  -0.95           2.8548e-009     -5.3464e-006    -8.867e-009    
  -1              2.1052e-009     -5.1454e-006    1.3013e-008    
  -1.05           2.7218e-009     -6.6612e-006    -1.0036e-008   
  -1.1            2.3102e-009     -9.0971e-006    1.0226e-008    
  -1.15           -2.3516e-009    -1.097e-005     9.815e-009     
  -1.2            -4.008e-010     -1.5473e-005    -1.0036e-008   
  -1.25           2.1224e-009     -2.0181e-005    -2.5307e-008   
  -1.3            1.4497e-009     -2.0035e-005    -6.994e-009    
  -1.35           2.8273e-009     -2.4042e-005    -8.831e-009    
  -1.4            2.0217e-009     -2.6632e-005    1.2958e-008    
  -1.45           8.808e-010      -3.0426e-005    1.0813e-008    
  -1.5            1.2627e-009     -3.4299e-005    1.003e-008     
  -1.55           1.065e-010      -3.9549e-005    9.835e-009     
  -1.6            5.54e-010       -4.2693e-005    9.849e-009     
  -1.65           9.576e-010      -4.656e-005     1.0378e-008    
  -1.7            1.3452e-009     -5.097e-005     1.0989e-008    
  -1.75           1.7697e-009     -5.5454e-005    1.2739e-008    
  -1.8            6.382e-010      -6.0059e-005    1.0223e-008    
END_DB

BEGIN_DB
 ICCAP_VAR VS         0              
 ICCAP_VAR VB         1.8            
 ICCAP_VAR VD         -0.1           

 #VG              IG              ID              IB             
  0               -1.0103e-009    -9.146e-010     -1.1039e-008   
  -0.05           -1.7236e-009    -1.47e-009      6.79e-009      
  -0.1            -3.593e-010     -2.1738e-009    -1.0337e-008   
  -0.15           1.2123e-009     -1.3555e-009    -2.5782e-008   
  -0.2            2.8549e-009     -3.1e-012       -1.0823e-008   
  -0.25           6.363e-010      2.3213e-009     8.1e-011       
  -0.3            8.043e-010      2.3224e-009     1.0337e-008    
  -0.35           -1.2975e-009    4.45e-010       1.0176e-008    
  -0.4            -1.2832e-009    -4.4716e-009    7.76e-009      
  -0.45           2.4177e-009     -1.6484e-008    -2.435e-008    
  -0.5            1.6877e-009     3.41e-010       -4.467e-009    
  -0.55           1.2647e-009     -1.1312e-008    -9.177e-009    
  -0.6            1.931e-010      -1.6485e-007    5.998e-009     
  -0.65           2.854e-009      -1.14311e-007   9.786e-009     
  -0.7            -1.3532e-009    -3.8941e-007    -4.6e-011      
  -0.75           -1.2925e-009    -3.5578e-007    8.736e-009     
  -0.8            -2.387e-009     -7.0483e-007    8.258e-009     
  -0.85           -7.298e-010     -3.7689e-007    -1.049e-008    
  -0.9            -2.5054e-009    -8.2099e-007    -9.493e-009    
  -0.95           -2.6631e-009    -5.383e-007     1.211e-009     
  -1              1.6793e-009     -1.6512e-006    -1.9899e-008   
  -1.05           1.2555e-009     -1.4524e-006    -9.053e-009    
  -1.1            2.8442e-009     -2.0434e-006    -9.705e-009    
  -1.15           2.5824e-009     -2.1123e-006    -1.75e-010     
  -1.2            1.9024e-009     -2.6405e-006    -2.881e-009    
  -1.25           1.343e-009      -3.2099e-006    -8.518e-009    
  -1.3            2.8536e-009     -3.7507e-006    -9.084e-009    
  -1.35           2.1278e-009     -4.3262e-006    1.2076e-008    
  -1.4            9.853e-010      -4.8451e-006    1.0373e-008    
  -1.45           1.3837e-009     -5.394e-006     1.1338e-008    
  -1.5            1.8117e-009     -5.9487e-006    1.2931e-008    
  -1.55           6.846e-010      -6.4342e-006    1.0221e-008    
  -1.6            1.0734e-009     -6.9297e-006    1.0262e-008    
  -1.65           1.4831e-009     -7.4095e-006    1.188e-008     
  -1.7            3.369e-010      -7.7902e-006    9.533e-009     
  -1.75           7.785e-010      -8.2899e-006    1.03e-008      
  -1.8            1.1594e-009     -8.7007e-006    1.022e-008     
END_DB

BEGIN_DB
 ICCAP_VAR VS         0              
 ICCAP_VAR VB         1.8            
 ICCAP_VAR VD         -1.8           

 #VG              IG              ID              IB             
  0               1.091e-009      1.0079e-009     7.66e-009      
  -0.05           1.1729e-009     2.1911e-009     1.1468e-008    
  -0.1            -2.203e-010     1.9e-009        1.0147e-008    
  -0.15           -1.5652e-009    6.551e-010      2.4349e-008    
  -0.2            -2.5543e-009    -1.1802e-009    6.847e-009     
  -0.25           -3.74e-010      -2.2651e-009    -1.0344e-008   
  -0.3            1.2112e-009     -8.6688e-009    -2.5613e-008   
  -0.35           -2.0617e-009    -3.0854e-008    2.6404e-008    
  -0.4            1.9217e-009     -7.548e-008     -1.0938e-008   
  -0.45           -2.5037e-009    -1.988e-009     -2.6882e-008   
  -0.5            -1.3493e-009    -3.0762e-007    -2.07e-010     
  -0.55           -1.2906e-009    -2.8414e-007    8.657e-009     
  -0.6            -2.348e-009     -7.4116e-007    8.597e-009     
  -0.65           -2.717e-009     -1.12224e-006   -1.3482e-008   
  -0.7            -2.447e-010     -2.8838e-007    -2.6905e-008   
  -0.75           2.4242e-009     -3.638e-007     -1.8729e-008   
  -0.8            -1.8296e-009    -8.656e-007     1.1022e-008    
  -0.85           1.4108e-009     -4.3566e-006    -1.4307e-008   
  -0.9            2.8446e-009     -3.3939e-006    -8.806e-009    
  -0.95           2.0763e-009     -3.0653e-006    1.2035e-008    
  -1              9.377e-010      -4.7296e-006    1.0395e-008    
  -1.05           1.3269e-009     -6.3489e-006    1.0905e-008    
  -1.1            1.2375e-009     -7.842e-006     -3.677e-009    
  -1.15           2.8388e-009     -1.235e-005     -9.984e-009    
  -1.2            1.2364e-009     -1.2725e-005    1.0022e-008    
  -1.25           8.26e-011       -1.7666e-005    9.905e-009     
  -1.3            5.332e-010      -1.8862e-005    9.739e-009     
  -1.35           9.443e-010      -2.1502e-005    1.0445e-008    
  -1.4            1.3366e-009     -2.4958e-005    1.1051e-008    
  -1.45           1.7673e-009     -2.8538e-005    1.2914e-008    
  -1.5            6.332e-010      -3.249e-005     1.0122e-008    
  -1.55           1.0349e-009     -3.6101e-005    1.0283e-008    
  -1.6            1.4398e-009     -4.0209e-005    1.1638e-008    
  -1.65           2.896e-010      -4.5046e-005    9.546e-009     
  -1.7            7.365e-010      -4.8747e-005    1.0314e-008    
  -1.75           1.1196e-009     -5.3039e-005    1.0218e-008    
  -1.8            1.5367e-009     -5.7562e-005    1.224e-008     
END_DB

