! VERSION = 6.00
BEGIN_HEADER
 ICCAP_INPUTS
  VG         V  B GROUND SMU4 0.001 LIN        1    0          -1.8       37   -0.05     
  VS         V  E GROUND SMU2 0.1 CON        0
  VB         V  C GROUND SMU3 0.1 LIN        3    0          1.8        3    0.9       
  VD         V  S GROUND SMU1 0.1 LIN        2    -0.1       -1.8       2    -1.7      
 ICCAP_OUTPUTS
  IG         I  B GROUND SMU4 B
  ID         I  S GROUND SMU1 B
  IB         I  C GROUND SMU3 B
END_HEADER

BEGIN_DB
 ICCAP_VAR VS         0              
 ICCAP_VAR VB         0              
 ICCAP_VAR VD         -0.1           

 #VG              IG              ID              IB             
  0               -9.811e-010     -9.013e-010     -2.3901e-008   
  -0.05           -1.7173e-009    -1.5181e-009    6.688e-009     
  -0.1            2.126e-009      -1.7331e-009    -1.9399e-008   
  -0.15           1.7976e-009     3.057e-010      -7.408e-009    
  -0.2            1.5331e-009     -5.384e-010     -8.99e-009     
  -0.25           1.3589e-009     -3.0129e-009    -8.843e-009    
  -0.3            -1.4023e-009    -2.4762e-008    8.559e-009     
  -0.35           -1.3065e-009    -4.608e-009     8.579e-009     
  -0.4            2.4633e-009     -8.9428e-008    -2.57e-008     
  -0.45           -9.718e-010     -1.6623e-007    1.1374e-008    
  -0.5            4.12e-010       -2.361e-007     -1.6955e-008   
  -0.55           -2.4568e-009    -1.237e-009     1.3005e-008    
  -0.6            -4.813e-010     -5.6229e-007    -1.4476e-008   
  -0.65           1.9799e-009     -5.7846e-007    -1.8273e-008   
  -0.7            1.3794e-009     -7.578e-008     -8.353e-009    
  -0.75           -1.9224e-009    -2.072e-008     1.0054e-008    
  -0.8            -2.6849e-009    -1.67e-008      -1.9199e-008   
  -0.85           -2.3091e-009    -4.976e-008     1.7616e-008    
  -0.9            -2.6903e-009    -1.14156e-006   -1.6629e-008   
  -0.95           -1.5326e-009    -9.885e-007     -1.9272e-008   
  -1              -1.4441e-009    -1.13715e-006   -1.8762e-008   
  -1.05           2.8234e-009     -4.863e-007     -1.8117e-008   
  -1.1            -1.5579e-009    -3.1593e-006    2.011e-008     
  -1.15           -1.3495e-009    -2.0558e-006    7.324e-009     
  -1.2            -1.2849e-009    -3.1404e-006    8.737e-009     
  -1.25           -2.3635e-009    -4.2499e-006    9.119e-009     
  -1.3            2.343e-010      -5.2762e-006    -1.3294e-008   
  -1.35           1.4237e-009     -5.5329e-006    -2.2287e-008   
  -1.4            2.8236e-009     -4.9108e-006    -8.807e-009    
  -1.45           2.0295e-009     -4.9118e-006    1.2927e-008    
  -1.5            9.227e-010      -6.005e-006     1.057e-008     
  -1.55           1.2947e-009     -6.6143e-006    9.93e-009      
  -1.6            1.7075e-009     -7.0786e-006    1.2639e-008    
  -1.65           6.089e-010      -8.1466e-006    1.036e-008     
  -1.7            9.937e-010      -8.3921e-006    1.0114e-008    
  -1.75           -1.653e-010     -1.04943e-005   1.1518e-008    
  -1.8            2.396e-010      -1.04806e-005   9.832e-009     
END_DB

BEGIN_DB
 ICCAP_VAR VS         0              
 ICCAP_VAR VB         0              
 ICCAP_VAR VD         -1.8           

 #VG              IG              ID              IB             
  0               7.301e-010      -2.418e-010     -2.1109e-008   
  -0.05           1.0419e-009     2.3033e-009     -9.178e-009    
  -0.1            1.195e-009      2.1805e-009     1.1619e-008    
  -0.15           -1.684e-010     1.9002e-009     1.0324e-008    
  -0.2            -6.3e-012       1.9756e-009     9.86e-009      
  -0.25           1.605e-010      2.0749e-009     9.909e-009     
  -0.3            3.503e-010      2.1447e-009     1.0395e-008    
  -0.35           1.9969e-009     -1.2214e-008    -8.76e-009     
  -0.4            1.4057e-009     9.82e-010       -8.265e-009    
  -0.45           1.2149e-009     -5.8e-009       -8.714e-009    
  -0.5            -2.163e-009     -1.36e-009      1.1061e-008    
  -0.55           8.42e-010       -2.254e-007     -2.6507e-008   
  -0.6            -2.2146e-009    -1.2e-009       9.772e-009     
  -0.65           1.5372e-009     -5.4786e-007    -2.1076e-008   
  -0.7            1.2416e-009     -1.2144e-007    -8.605e-009    
  -0.75           2.5701e-009     -1.0526e-006    1.0194e-008    
  -0.8            1.7715e-009     -2.37e-008      -3.21e-009     
  -0.85           -2.7036e-009    -4.8e-009       1.0359e-008    
  -0.9            2.7518e-009     -1.26e-008      -1.0459e-008   
  -0.95           -1.3939e-009    -6.126e-007     1.0354e-008    
  -1              2.2894e-009     -4.8227e-006    -2.607e-008    
  -1.05           1.5968e-009     -6.095e-007     -5.593e-009    
  -1.1            1.2608e-009     -2.2808e-006    -8.7e-009      
  -1.15           2.8478e-009     -6.0035e-006    -1.0019e-008   
  -1.2            6.571e-010      -1.0268e-005    -2.3875e-008   
  -1.25           1.8829e-009     -3.3374e-006    -1.5851e-008   
  -1.3            2.3769e-009     -2.4701e-006    -1.0727e-008   
  -1.35           -1.6333e-009    -5.218e-006     1.2421e-008    
  -1.4            -1.3695e-009    -9.664e-006     6.356e-009     
  -1.45           -1.2899e-009    -1.5928e-005    8.975e-009     
  -1.5            -2.4394e-009    -2.3862e-005    8.032e-009     
  -1.55           -7.355e-010     -1.8056e-005    -1.0772e-008   
  -1.6            1.6905e-009     -3.2639e-005    -1.8803e-008   
  -1.65           1.285e-009      -2.4066e-005    -8.758e-009    
  -1.7            2.8486e-009     -3.4336e-005    -9.555e-009    
  -1.75           2.5845e-009     -2.1332e-005    -4.27e-010     
  -1.8            1.9355e-009     -2.6775e-005    -2.983e-009    
END_DB

BEGIN_DB
 ICCAP_VAR VS         0              
 ICCAP_VAR VB         0.9            
 ICCAP_VAR VD         -0.1           

 #VG              IG              ID              IB             
  0               -1.2516e-009    -1.1087e-009    -1.1734e-008   
  -0.05           6.64e-011       -1.9218e-009    -1.0481e-008   
  -0.1            -9.9e-011       -2.0531e-009    -1.0248e-008   
  -0.15           -3.116e-010     -2.1552e-009    -1.0569e-008   
  -0.2            -5.297e-010     -2.215e-009     -1.0855e-008   
  -0.25           2.3938e-009     -6.231e-010     -1.8468e-008   
  -0.3            1.2539e-009     2.1464e-009     -4.908e-009    
  -0.35           1.4277e-009     1.9273e-009     1.2545e-008    
  -0.4            5.04e-011       2.0437e-009     9.759e-009     
  -0.45           2.362e-010      2.1479e-009     1.0102e-008    
  -0.5            4.245e-010      2.2305e-009     1.0473e-008    
  -0.55           6.14e-010       2.2632e-009     1.0337e-008    
  -0.6            -1.3267e-009    -6.3492e-009    1.0144e-008    
  -0.65           2.2766e-009     -1.8104e-008    -1.5776e-008   
  -0.7            1.5649e-009     1.126e-009      -5.876e-009    
  -0.75           2.1213e-009     -8.6354e-008    9.729e-009     
  -0.8            7.894e-010      -1.6032e-007    8.298e-009     
  -0.85           2.8477e-009     -3.25e-007      9.83e-009      
  -0.9            -2.1518e-009    -3.9499e-007    1.127e-008     
  -0.95           1.2376e-009     -5.489e-007     -2.6747e-008   
  -1              2.8244e-009     -5.0999e-007    -1.0637e-008   
  -1.05           -2.7345e-009    -1.758e-009     1.0428e-008    
  -1.1            -4.624e-010     -7e-010         -1.7981e-008   
  -1.15           2.6572e-009     -2.4e-009       -1.5112e-008   
  -1.2            -1.607e-009     -2.22e-008      1.2375e-008    
  -1.25           1.236e-009      -1.6623e-006    -2.6957e-008   
  -1.3            2.8211e-009     -1.5317e-006    -1.0853e-008   
  -1.35           -2.1395e-009    -2.081e-007     1.05e-008      
  -1.4            2.0407e-009     -2.5743e-006    -1.7979e-008   
  -1.45           1.4125e-009     -1.2341e-006    -7.715e-009    
  -1.5            1.2168e-009     -2.3186e-006    -8.566e-009    
  -1.55           2.7875e-009     -3.4908e-006    -1.2019e-008   
  -1.6            1.3727e-009     -2.3388e-006    1.1001e-008    
  -1.65           2.476e-010      -4.1005e-006    9.806e-009     
  -1.7            6.913e-010      -3.6717e-006    1.0672e-008    
  -1.75           1.0625e-009     -4.0212e-006    1.0117e-008    
  -1.8            1.4592e-009     -4.5957e-006    1.0447e-008    
END_DB

BEGIN_DB
 ICCAP_VAR VS         0              
 ICCAP_VAR VB         0.9            
 ICCAP_VAR VD         -1.8           

 #VG              IG              ID              IB             
  0               1.042e-010      -5.825e-010     -1.9883e-008   
  -0.05           2.4965e-009     -5.321e-010     -1.7956e-008   
  -0.1            1.176e-009      2.2049e-009     -3.87e-009     
  -0.15           -1.843e-010     1.9305e-009     1.0208e-008    
  -0.2            -1.95e-011      2.0094e-009     9.824e-009     
  -0.25           1.519e-010      2.1089e-009     9.985e-009     
  -0.3            3.421e-010      2.2083e-009     1.0467e-008    
  -0.35           5.338e-010      2.2945e-009     1.0414e-008    
  -0.4            7.149e-010      2.3437e-009     1.0303e-008    
  -0.45           8.763e-010      2.3475e-009     9.891e-009     
  -0.5            1.023e-009      2.3031e-009     9.747e-009     
  -0.55           1.183e-009      2.188e-009      1.0315e-008    
  -0.6            -1.729e-010     1.8971e-009     1.0181e-008    
  -0.65           -1.553e-009     -1.607e-010     2.4787e-008    
  -0.7            -1.4209e-009    -2.0076e-009    7.617e-009     
  -0.75           -1.3573e-009    -4.8228e-009    8.694e-009     
  -0.8            1.2635e-009     -3.7456e-008    -2.3589e-008   
  -0.85           2.8449e-009     -1.8265e-008    -9.851e-009    
  -0.9            1.2319e-009     -5.27e-009      9.822e-009     
  -0.95           -1.3548e-009    -3.26e-009      9.857e-009     
  -1              7.553e-010      -3.2221e-007    -2.6922e-008   
  -1.05           -1.925e-009     -1.14e-009      1.0029e-008    
  -1.1            1.3381e-009     -7.988e-007     -2.4556e-008   
  -1.15           -8.776e-010     -1.28e-009      -9.117e-009    
  -1.2            1.2364e-009     -1.6338e-006    -2.6933e-008   
  -1.25           2.8226e-009     -1.3393e-006    -1.0915e-008   
  -1.3            -1.1986e-009    -2.207e-007     9.827e-009     
  -1.35           1.2401e-009     -3.6785e-006    -2.6688e-008   
  -1.4            2.8309e-009     -3.0777e-006    -1.0498e-008   
  -1.45           -1.8171e-009    -4.934e-007     1.0223e-008    
  -1.5            1.0719e-009     -1.0154e-006    -1.0872e-008   
  -1.55           -1.9151e-009    -9.368e-007     1.1753e-008    
  -1.6            1.563e-009      -1.7446e-006    7.404e-009     
  -1.65           1.622e-009      -1.459e-006     -2.735e-009    
  -1.7            1.2598e-009     -6.607e-006     -8.707e-009    
  -1.75           2.8478e-009     -1.2918e-005    -9.886e-009    
  -1.8            -2.7271e-009    -4.3616e-006    9.771e-009     
END_DB

BEGIN_DB
 ICCAP_VAR VS         0              
 ICCAP_VAR VB         1.8            
 ICCAP_VAR VD         -0.1           

 #VG              IG              ID              IB             
  0               -8.247e-010     -8.266e-010     -2.5402e-008   
  -0.05           -1.1051e-009    -2.1803e-009    8.77e-009      
  -0.1            1.4533e-009     -1.7261e-009    -1.1593e-008   
  -0.15           9.205e-010      2.3452e-009     -8.758e-009    
  -0.2            1.0772e-009     2.2807e-009     9.88e-009      
  -0.25           1.2379e-009     2.1566e-009     1.0679e-008    
  -0.3            -1.242e-010     1.9563e-009     9.959e-009     
  -0.35           -1.5011e-009    9.359e-010      2.5506e-008    
  -0.4            -1.8123e-009    -1.3802e-009    8.077e-009     
  -0.45           1.883e-009      -1.6059e-009    -1.5827e-008   
  -0.5            1.5607e-009     1.7787e-009     -8.911e-009    
  -0.55           -4.87e-011      1.9872e-009     1.2233e-008    
  -0.6            1.217e-010      2.0869e-009     9.765e-009     
  -0.65           3.181e-010      2.1953e-009     1.0365e-008    
  -0.7            5.102e-010      2.2808e-009     1.0473e-008    
  -0.75           6.951e-010      2.3385e-009     1.0294e-008    
  -0.8            8.621e-010      2.3416e-009     9.809e-009     
  -0.85           1.0177e-009     2.2815e-009     1.0077e-008    
  -0.9            -1.6942e-009    -1.4157e-009    1.1335e-008    
  -0.95           2.4963e-009     -1.6382e-008    6.148e-009     
  -1              1.7615e-009     1.257e-009      -4.084e-009    
  -1.05           1.2938e-009     1.8e-011        -8.938e-009    
  -1.1            -2.5161e-009    -1.1998e-007    9.69e-009      
  -1.15           3.423e-010      -2.9089e-007    -1.0818e-008   
  -1.2            1.3079e-009     -3.828e-007     1.2387e-008    
  -1.25           2.8513e-009     -2.1988e-007    -9.432e-009    
  -1.3            2.6524e-009     1.02e-009       -2.39e-010     
  -1.35           2.0025e-009     -9.55e-009      -2.544e-009    
  -1.4            2.7941e-009     -3.053e-007     1.0468e-008    
  -1.45           2.7998e-009     -1.14684e-006   1.2922e-008    
  -1.5            1.442e-009      -1.5614e-006    1.2304e-008    
  -1.55           1.2205e-009     -8.752e-007     -8.808e-009    
  -1.6            2.7926e-009     -1.8966e-006    -1.1901e-008   
  -1.65           -2.196e-009     -3.351e-007     1.0983e-008    
  -1.7            1.8961e-009     -2.8703e-006    -1.8643e-008   
  -1.75           1.3375e-009     -1.7041e-006    -8.802e-009    
  -1.8            2.8448e-009     -2.8493e-006    -9.287e-009    
END_DB

BEGIN_DB
 ICCAP_VAR VS         0              
 ICCAP_VAR VB         1.8            
 ICCAP_VAR VD         -1.8           

 #VG              IG              ID              IB             
  0               -1.3525e-009    -1.3801e-009    -8.888e-009    
  -0.05           -2.097e-010     -2.106e-009     -1.0159e-008   
  -0.1            -4.299e-010     -2.1877e-009    -1.0735e-008   
  -0.15           2.5101e-009     -5.352e-010     -1.7642e-008   
  -0.2            1.1878e-009     2.2103e-009     -4.061e-009    
  -0.25           -1.646e-010     1.9297e-009     1.0054e-008    
  -0.3            -1e-013         2.0171e-009     9.569e-009     
  -0.35           1.778e-010      2.1223e-009     9.768e-009     
  -0.4            3.73e-010       2.2249e-009     1.0353e-008    
  -0.45           5.718e-010      2.3095e-009     1.0517e-008    
  -0.5            7.512e-010      2.3484e-009     1.0202e-008    
  -0.55           9.078e-010      2.3454e-009     9.797e-009     
  -0.6            1.0679e-009     2.2896e-009     1.0571e-008    
  -0.65           1.2297e-009     2.1635e-009     1.1817e-008    
  -0.7            -1.292e-010     1.9502e-009     9.918e-009     
  -0.75           -1.5116e-009    8.532e-010      2.5283e-008    
  -0.8            -1.815e-009     -1.4095e-009    8.102e-009     
  -0.85           -5.019e-010     -2.2415e-009    -1.1001e-008   
  -0.9            -7.186e-010     -2.4028e-009    -1.1072e-008   
  -0.95           2.6548e-009     -3.085e-008     1.0432e-008    
  -1              1.9913e-009     1.286e-009      -2.606e-009    
  -1.05           8.551e-010      -1.5478e-007    6.692e-009     
  -1.1            -2.2301e-009    -1.18e-009      9.845e-009     
  -1.15           1.5089e-009     -5.0033e-007    -2.0995e-008   
  -1.2            1.2277e-009     -6.658e-008     -8.712e-009    
  -1.25           2.8261e-009     -4.9239e-007    -1.1018e-008   
  -1.3            1.3517e-009     -2.69e-008      9.639e-009     
  -1.35           2.8448e-009     -3.589e-007     -9.248e-009    
  -1.4            -2.5047e-009    -3.48e-009      1.76e-010      
  -1.45           1.279e-009      -1.07e-007      -2.636e-009    
  -1.5            -1.9833e-009    -4.26e-008      1.2491e-008    
  -1.55           1.3531e-009     -5.4939e-006    -2.3727e-008   
  -1.6            2.8493e-009     -3.1756e-006    -9.181e-009    
  -1.65           2.7141e-009     -3.413e-007     1.24e-010      
  -1.7            -1.9192e-009    -1.3731e-006    1.171e-008     
  -1.75           -2.4079e-009    -2.5581e-006    -2.6726e-008   
  -1.8            1.5443e-009     -3.853e-006     -1.0265e-008   
END_DB

