! VERSION = 6.00
BEGIN_HEADER
 ICCAP_INPUTS
  VG         V  B GROUND SMU4 0.001 LIN        2    0          -1.8       6    -0.36     
  VS         V  E GROUND SMU3 0.1 CON        0
  VD         V  S GROUND SMU2 0.1 LIN        1    0          -1.8       37   -0.05     
  VB         V  C GROUND SMU1 0.1 LIN        3    0          0.9        2    0.9       
 ICCAP_OUTPUTS
  ID         I  S GROUND SMU2 B
  IB         I  C GROUND SMU1 B
  IG         I  B GROUND SMU4 B
END_HEADER

BEGIN_DB
 ICCAP_VAR VG         0              
 ICCAP_VAR VS         0              
 ICCAP_VAR VB         0              

 #VD              ID              IB              IG             
  0               -1.3772e-009    -1.7349e-008    1.067e-010     
  -0.05           2.718e-010      8.617e-009      -2.5397e-009   
  -0.1            -1.834e-010     -1.2085e-008    2.7116e-009    
  -0.15           3.0956e-009     1.1509e-008     -1.5573e-009   
  -0.2            -2.8345e-009    -1.6325e-008    1.9841e-009    
  -0.25           1.1894e-009     1.6199e-008     -1.9265e-009   
  -0.3            -1.2408e-009    -1.7366e-008    2.1802e-009    
  -0.35           1.0341e-009     1.5209e-008     -2.0878e-009   
  -0.4            -1.0726e-009    -1.7452e-008    2.3512e-009    
  -0.45           8.789e-010      1.3516e-008     -2.2396e-009   
  -0.5            -8.93e-010      -1.7149e-008    2.4892e-009    
  -0.55           3.6502e-009     8.05e-009       -1.345e-010    
  -0.6            2.89e-011       8.387e-009      -2.5859e-009   
  -0.65           -2.9317e-009    -1.4004e-008    1.8195e-009    
  -0.7            2.6917e-009     1.9124e-008     -1.9718e-009   
  -0.75           -1.2109e-009    -1.7467e-008    2.237e-009     
  -0.8            9.842e-010      1.4763e-008     -2.1282e-009   
  -0.85           -1.0421e-009    -1.744e-008     2.3901e-009    
  -0.9            8.099e-010      1.309e-008      -2.2666e-009   
  -0.95           -8.582e-010     -1.6855e-008    2.5162e-009    
  -1              3.5956e-009     7.891e-009      -1.537e-010    
  -1.05           -3.43e-011      8.384e-009      -2.5957e-009   
  -1.1            -2.925e-009     -1.4845e-008    1.8755e-009    
  -1.15           2.3224e-009     1.0517e-008     1.7315e-009    
  -1.2            2.401e-010      8.677e-009      -2.5391e-009   
  -1.25           -2.515e-010     -1.2219e-008    2.7147e-009    
  -1.3            5.24e-011       8.443e-009      -2.5742e-009   
  -1.35           -3.0114e-009    -1.3061e-008    1.7389e-009    
  -1.4            2.7043e-009     1.7763e-008     -1.9075e-009   
  -1.45           -1.3205e-009    -1.7477e-008    2.1692e-009    
  -1.5            9.728e-010      1.5371e-008     -2.073e-009    
  -1.55           -1.1713e-009    -1.7611e-008    2.3395e-009    
  -1.6            7.988e-010      1.3698e-008     -2.2276e-009   
  -1.65           -1.0076e-009    -1.7072e-008    2.481e-009     
  -1.7            3.5621e-009     8.059e-009      -1.192e-010    
  -1.75           -7.62e-011      8.271e-009      -2.5865e-009   
  -1.8            -3.0711e-009    -1.3818e-008    1.7947e-009    
END_DB

BEGIN_DB
 ICCAP_VAR VG         -0.36          
 ICCAP_VAR VS         0              
 ICCAP_VAR VB         0              

 #VD              ID              IB              IG             
  0               6.598e-010      -7.695e-009     -7.735e-010    
  -0.05           -1.0547e-008    -7.973e-009     4.339e-010     
  -0.1            -9.405e-009     -1.3695e-008    2.572e-009     
  -0.15           -1.1209e-008    -7.464e-009     2.7369e-009    
  -0.2            -1.5099e-008    -1.6977e-008    1.5549e-009    
  -0.25           -1.8955e-008    -1.5658e-008    2.711e-009     
  -0.3            -1.7546e-008    -7.957e-009     2.6984e-009    
  -0.35           -2.1712e-008    -1.7151e-008    2.0821e-009    
  -0.4            -2.3959e-008    -1.1593e-008    2.6326e-009    
  -0.45           -2.5595e-008    -7.241e-009     2.7384e-009    
  -0.5            -3.0375e-008    -1.7212e-008    1.7173e-009    
  -0.55           -3.5542e-008    -1.8e-008       1.6571e-009    
  -0.6            -3.8844e-008    -1.7269e-008    1.6229e-009    
  -0.65           -4.2374e-008    -1.6607e-008    1.5751e-009    
  -0.7            -4.6642e-008    -1.5756e-008    2.715e-009     
  -0.75           -4.6625e-008    -7.982e-009     2.6937e-009    
  -0.8            -5.2546e-008    -1.7129e-008    2.1041e-009    
  -0.85           -5.5864e-008    -1.1443e-008    2.6375e-009    
  -0.9            -6.0717e-008    -7.296e-009     2.7375e-009    
  -0.95           -6.7951e-008    -1.7238e-008    1.7279e-009    
  -1              -7.4278e-008    -1.8218e-008    1.6781e-009    
  -1.05           -7.9376e-008    -1.7474e-008    1.6324e-009    
  -1.1            -8.5167e-008    -1.6805e-008    1.585e-009     
  -1.15           -9.1263e-008    -1.6077e-008    1.5435e-009    
  -1.2            -9.7403e-008    -1.5421e-008    2.7135e-009    
  -1.25           -1.03367e-007   -7.504e-009     -1.9292e-009   
  -1.3            -1.1005e-007    -1.1537e-008    -2.4396e-009   
  -1.35           -1.1835e-007    -1.581e-008     2.7138e-009    
  -1.4            -1.2385e-007    -8.271e-009     2.7297e-009    
  -1.45           -1.3017e-007    -7.361e-009     2.7379e-009    
  -1.5            -1.3821e-007    -7.292e-009     2.7384e-009    
  -1.55           -1.4632e-007    -7.743e-009     2.7213e-009    
  -1.6            -1.5514e-007    -7.926e-009     2.6845e-009    
  -1.65           -1.6746e-007    -1.7359e-008    1.4634e-009    
  -1.7            -1.7679e-007    -1.7064e-008    1.6132e-009    
  -1.75           -1.8677e-007    -1.7421e-008    1.7849e-009    
  -1.8            -1.9705e-007    -1.7329e-008    1.9716e-009    
END_DB

BEGIN_DB
 ICCAP_VAR VG         -0.72          
 ICCAP_VAR VS         0              
 ICCAP_VAR VB         0              

 #VD              ID              IB              IG             
  0               6.245e-009      -1.4766e-008    2.5712e-009    
  -0.05           -1.3346e-006    -1.6667e-008    -2.1439e-009   
  -0.1            -2.1625e-006    8.79e-009       -2.4694e-009   
  -0.15           -2.7147e-006    7.34e-009       -2.5563e-009   
  -0.2            -3.1199e-006    6.646e-009      -2.6057e-009   
  -0.25           -3.4568e-006    5.438e-009      -2.6167e-009   
  -0.3            -3.7481e-006    1.5881e-008     -1.5418e-009   
  -0.35           -4.0166e-006    1.3473e-008     -1.8865e-009   
  -0.4            -4.2676e-006    1.59e-008       -1.4756e-009   
  -0.45           -4.5156e-006    1.3998e-008     -1.8089e-009   
  -0.5            -4.7502e-006    1.45e-008       -1.4265e-009   
  -0.55           -4.9873e-006    1.4546e-008     -1.7384e-009   
  -0.6            -5.2139e-006    1.309e-008      -1.3794e-009   
  -0.65           -5.4428e-006    1.51e-008       -1.6649e-009   
  -0.7            -5.6663e-006    1.2459e-008     -2.0176e-009   
  -0.75           -5.8838e-006    1.8658e-008     -1.5811e-009   
  -0.8            -6.1114e-006    1.2996e-008     -1.9421e-009   
  -0.85           -6.329e-006     1.699e-008      -1.5242e-009   
  -0.9            -6.5558e-006    1.3723e-008     -1.8659e-009   
  -0.95           -6.7742e-006    1.5538e-008     -1.4592e-009   
  -1              -6.9997e-006    1.4209e-008     -1.7873e-009   
  -1.05           -7.222e-006     1.4158e-008     -1.4078e-009   
  -1.1            -7.4651e-006    1.4724e-008     -1.7126e-009   
  -1.15           -7.667e-006     1.2822e-008     -1.3648e-009   
  -1.2            -7.89e-006      1.5246e-008     -1.6352e-009   
  -1.25           -8.1292e-006    1.2485e-008     -1.9909e-009   
  -1.3            -8.3516e-006    1.8177e-008     -1.5722e-009   
  -1.35           -8.5772e-006    1.3275e-008     -1.9131e-009   
  -1.4            -8.802e-006     1.658e-008      -1.5059e-009   
  -1.45           -9.0442e-006    1.3794e-008     -1.8453e-009   
  -1.5            -9.2795e-006    1.5138e-008     -1.4479e-009   
  -1.55           -9.5261e-006    1.4328e-008     -1.7644e-009   
  -1.6            -9.7513e-006    1.3811e-008     -1.396e-009    
  -1.65           -9.9978e-006    1.4926e-008     -1.6937e-009   
  -1.7            -1.0246e-005    1.254e-008      -1.3527e-009   
  -1.75           -1.04855e-005   1.5348e-008     -1.6172e-009   
  -1.8            -1.07357e-005   1.2682e-008     -1.9774e-009   
END_DB

BEGIN_DB
 ICCAP_VAR VG         -1.08          
 ICCAP_VAR VS         0              
 ICCAP_VAR VB         0              

 #VD              ID              IB              IG             
  0               1.1193e-008     -1.2746e-008    3.507e-010     
  -0.05           -7.9682e-006    1.5519e-008     2.537e-009     
  -0.1            -1.4743e-005    8.572e-009      -8.83e-011     
  -0.15           -2.0403e-005    -1.6881e-008    2.2497e-009    
  -0.2            -2.5076e-005    -1.7214e-008    2.0013e-009    
  -0.25           -2.8901e-005    -1.6804e-008    1.7188e-009    
  -0.3            -3.208e-005     -1.6461e-008    1.4648e-009    
  -0.35           -3.4728e-005    -1.774e-008     2.7047e-009    
  -0.4            -3.7002e-005    -1.1457e-008    2.655e-009     
  -0.45           -3.8899e-005    -2.0292e-008    1.7864e-009    
  -0.5            -4.0636e-005    -1.641e-008     1.5225e-009    
  -0.55           -4.2198e-005    -1.7346e-008    2.7135e-009    
  -0.6            -4.3668e-005    -1.0863e-008    2.671e-009     
  -0.65           -4.5031e-005    -1.4187e-008    2.5884e-009    
  -0.7            -4.6203e-005    -1.6899e-008    1.5918e-009    
  -0.75           -4.7422e-005    -1.6997e-008    2.7174e-009    
  -0.8            -4.8616e-005    -1.0088e-008    2.6876e-009    
  -0.85           -4.969e-005     -1.316e-008     2.6152e-009    
  -0.9            -5.0748e-005    -1.8104e-008    1.6547e-009    
  -0.95           -5.1807e-005    -1.6622e-008    1.42e-009      
  -1              -5.2847e-005    -1.8205e-008    2.6985e-009    
  -1.05           -5.3876e-005    -1.2493e-008    2.6358e-009    
  -1.1            -5.4764e-005    -1.932e-008     1.7201e-009    
  -1.15           -5.5779e-005    -1.6421e-008    1.4694e-009    
  -1.2            -5.6741e-005    -1.7687e-008    2.7058e-009    
  -1.25           -5.769e-005     -1.1561e-008    2.659e-009     
  -1.3            -5.8625e-005    -1.4947e-008    2.5557e-009    
  -1.35           -5.9486e-005    -1.5854e-008    2.7143e-009    
  -1.4            -6.0459e-005    -1.0371e-008    2.68e-009      
  -1.45           -6.1365e-005    -1.3581e-008    2.6031e-009    
  -1.5            -6.2198e-005    -1.763e-008     1.6339e-009    
  -1.55           -6.312e-005     -1.6765e-008    2.7176e-009    
  -1.6            -6.4025e-005    -9.697e-009     2.6931e-009    
  -1.65           -6.489e-005     -1.2709e-008    2.6294e-009    
  -1.7            -6.5693e-005    -1.8856e-008    1.6902e-009    
  -1.75           -6.6617e-005    -1.6445e-008    1.4522e-009    
  -1.8            -6.7489e-005    -1.7835e-008    2.7054e-009    
END_DB

BEGIN_DB
 ICCAP_VAR VG         -1.44          
 ICCAP_VAR VS         0              
 ICCAP_VAR VB         0              

 #VD              ID              IB              IG             
  0               1.5536e-008     -1.7223e-008    -1.0547e-009   
  -0.05           -1.5533e-005    7.992e-009      1.92e-011      
  -0.1            -3.0025e-005    -1.6204e-008    2.4178e-009    
  -0.15           -4.3386e-005    -1.3085e-008    2.6794e-009    
  -0.2            -5.5661e-005    -1.2893e-008    2.6089e-009    
  -0.25           -6.6715e-005    -1.8669e-008    1.6951e-009    
  -0.3            -7.6756e-005    -1.7083e-008    1.4501e-009    
  -0.35           -8.5724e-005    -1.8056e-008    2.6906e-009    
  -0.4            -9.3696e-005    -1.191e-008     2.6347e-009    
  -0.45           -0.000100739    -1.5094e-008    2.5267e-009    
  -0.5            -0.000106913    -1.5601e-008    2.7092e-009    
  -0.55           -0.000112488    -1.0475e-008    2.6638e-009    
  -0.6            -0.00011716     -1.7371e-008    -5.659e-010    
  -0.65           -0.00012172     -1.7548e-008    1.9232e-009    
  -0.7            -0.00012562     -1.7344e-008    2.1093e-009    
  -0.75           -0.00012914     -1.4119e-008    2.6915e-009    
  -0.8            -0.00013241     -8.552e-009     2.7136e-009    
  -0.85           -0.00013537     -7.64e-009      2.73e-009      
  -0.9            -0.00013812     -7.14e-009      2.7299e-009    
  -0.95           -0.00014069     -7.46e-009      2.7255e-009    
  -1              -0.00014315     -7.939e-009     2.7001e-009    
  -1.05           -0.00014544     -1.7173e-008    1.4285e-009    
  -1.1            -0.00014757     -1.6895e-008    1.5836e-009    
  -1.15           -0.00014975     -1.7358e-008    1.7731e-009    
  -1.2            -0.00015173     -1.7412e-008    1.9681e-009    
  -1.25           -0.00015376     -1.2107e-008    2.6619e-009    
  -1.3            -0.00015575     -9.112e-009     2.6966e-009    
  -1.35           -0.0001575      -8.212e-009     2.7199e-009    
  -1.4            -0.00015936     -7.458e-009     2.7298e-009    
  -1.45           -0.00016106     -7.214e-009     2.7327e-009    
  -1.5            -0.0001628      -7.53e-009      2.7193e-009    
  -1.55           -0.0001645      -7.917e-009     2.6945e-009    
  -1.6            -0.00016623     -1.714e-008     1.4519e-009    
  -1.65           -0.00016782     -1.6877e-008    1.6166e-009    
  -1.7            -0.00016951     -1.7435e-008    1.818e-009     
  -1.75           -0.00017104     -1.7489e-008    2.0072e-009    
  -1.8            -0.00017267     -1.2552e-008    2.6705e-009    
END_DB

BEGIN_DB
 ICCAP_VAR VG         -1.8           
 ICCAP_VAR VS         0              
 ICCAP_VAR VB         0              

 #VD              ID              IB              IG             
  0               2.2716e-008     1.0479e-008     1.0279e-009    
  -0.05           -2.1183e-005    1.5571e-008     -8.105e-010    
  -0.1            -4.152e-005     -1.2574e-008    2.6673e-009    
  -0.15           -6.1123e-005    -1.369e-008     2.5858e-009    
  -0.2            -7.9729e-005    -1.765e-008     1.6286e-009    
  -0.25           -9.7406e-005    -1.7139e-008    1.4047e-009    
  -0.3            -0.00011403     -1.8416e-008    -2.4425e-009   
  -0.35           -0.00012968     1.4779e-008     -1.418e-009    
  -0.4            -0.00014442     1.6323e-008     -1.5393e-009   
  -0.45           -0.00015812     1.526e-008      -1.6916e-009   
  -0.5            -0.00017074     1.4034e-008     -1.8532e-009   
  -0.55           -0.00018248     1.2456e-008     -2.013e-009    
  -0.6            -0.0001932      1.5146e-008     -1.4461e-009   
  -0.65           -0.00020305     1.6045e-008     -1.5672e-009   
  -0.7            -0.00021205     1.51e-008       -1.7314e-009   
  -0.75           -0.00022021     1.3593e-008     -1.8971e-009   
  -0.8            -0.0002277      1.2921e-008     -1.3628e-009   
  -0.85           -0.00023453     1.6817e-008     -1.472e-009    
  -0.9            -0.00024074     1.584e-008      -1.6104e-009   
  -0.95           -0.00024649     1.4743e-008     -1.7713e-009   
  -1              -0.00025176     1.335e-008      -1.9322e-009   
  -1.05           -0.00025658     1.368e-008      -1.3872e-009   
  -1.1            -0.00026113     1.651e-008      -1.5015e-009   
  -1.15           -0.0002653      1.5641e-008     -1.6463e-009   
  -1.2            -0.00026919     1.4379e-008     -1.8084e-009   
  -1.25           -0.00027282     1.2927e-008     -1.9684e-009   
  -1.3            -0.00027628     1.4224e-008     -1.4143e-009   
  -1.35           -0.00027956     1.6235e-008     -1.5343e-009   
  -1.4            -0.00028272     1.5298e-008     -1.6812e-009   
  -1.45           -0.00028569     1.4176e-008     -1.8403e-009   
  -1.5            -0.00028859     1.2147e-008     -1.3398e-009   
  -1.55           -0.00029132     1.7041e-008     -1.4409e-009   
  -1.6            -0.00029404     1.6093e-008     -1.5716e-009   
  -1.65           -0.00029686     1.5105e-008     -1.7259e-009   
  -1.7            -0.00029943     1.3736e-008     -1.8874e-009   
  -1.75           -0.00030186     1.2706e-008     -1.3627e-009   
  -1.8            -0.00030425     1.6852e-008     -1.4691e-009   
END_DB

BEGIN_DB
 ICCAP_VAR VG         0              
 ICCAP_VAR VS         0              
 ICCAP_VAR VB         0.9            

 #VD              ID              IB              IG             
  0               3.5705e-009     1.8866e-008     2.5486e-009    
  -0.05           -2.744e-010     -1.3501e-008    2.7022e-009    
  -0.1            3.1605e-009     1.0687e-008     -1.5063e-009   
  -0.15           -2.8694e-009    -1.5516e-008    1.9468e-009    
  -0.2            1.2171e-009     1.6486e-008     -1.9001e-009   
  -0.25           -1.2377e-009    -1.7341e-008    2.1853e-009    
  -0.3            1.0253e-009     1.4918e-008     -2.1056e-009   
  -0.35           -1.0207e-009    -1.7422e-008    2.3865e-009    
  -0.4            8.174e-010      1.2794e-008     -2.2788e-009   
  -0.45           -7.92e-010      -1.6652e-008    2.5382e-009    
  -0.5            3.5669e-009     7.813e-009      -2.4123e-009   
  -0.55           -5.42e-010      -1.5839e-008    2.6396e-009    
  -0.6            3.3773e-009     7.917e-009      -1.3581e-009   
  -0.65           -2.994e-010     -1.3706e-008    2.6941e-009    
  -0.7            3.1763e-009     1.0375e-008     -1.496e-009    
  -0.75           -2.879e-009     -1.5203e-008    1.9169e-009    
  -0.8            1.2314e-009     1.6621e-008     -1.8802e-009   
  -0.85           -1.2564e-009    -1.7309e-008    2.1702e-009    
  -0.9            1.0369e-009     1.515e-008      -2.0967e-009   
  -0.95           -1.0353e-009    -1.7376e-008    2.3774e-009    
  -1              8.38e-010       1.3009e-008     -2.2717e-009   
  -1.05           -8.045e-010     -1.6661e-008    2.5309e-009    
  -1.1            3.5761e-009     7.896e-009      -2.4002e-009   
  -1.15           -5.664e-010     -1.5936e-008    2.6356e-009    
  -1.2            3.388e-009      7.972e-009      -1.3478e-009   
  -1.25           -3.116e-010     -1.4108e-008    2.6943e-009    
  -1.3            3.1898e-009     1.0159e-008     -1.4852e-009   
  -1.35           -2.8885e-009    -1.4998e-008    1.8996e-009    
  -1.4            2.6205e-009     2.0701e-008     -2.0466e-009   
  -1.45           -1.0796e-009    -1.7435e-008    2.3331e-009    
  -1.5            8.797e-010      1.3534e-008     -2.2303e-009   
  -1.55           -8.597e-010     -1.6731e-008    2.5058e-009    
  -1.6            3.61e-009       8.019e-009      -1.648e-010    
  -1.65           -2.39e-011      8.314e-009      -2.5989e-009   
  -1.7            -2.8759e-009    -1.5516e-008    1.925e-009     
  -1.75           1.2237e-009     1.6577e-008     -1.888e-009    
  -1.8            -1.252e-009     -1.7269e-008    2.175e-009     
END_DB

BEGIN_DB
 ICCAP_VAR VG         -0.36          
 ICCAP_VAR VS         0              
 ICCAP_VAR VB         0.9            

 #VD              ID              IB              IG             
  0               -9.16e-010      -1.6566e-008    3.717e-010     
  -0.05           1.0964e-009     1.5856e-008     -1.9192e-009   
  -0.1            -2.6599e-009    -2.2909e-008    2.3955e-009    
  -0.15           6.688e-010      1.2324e-008     -2.2943e-009   
  -0.2            -9.534e-010     -1.6441e-008    2.5613e-009    
  -0.25           3.4356e-009     7.768e-009      1.2798e-009    
  -0.3            -6.694e-010     6.722e-009      -2.6167e-009   
  -0.35           -1.2855e-009    -1.6803e-008    2.402e-009     
  -0.4            4.822e-010      1.2419e-008     -2.2974e-009   
  -0.45           -1.1418e-009    -1.6483e-008    2.5612e-009    
  -0.5            3.2066e-009     8.562e-009      1.2756e-009    
  -0.55           -2.1839e-009    6.693e-009      -2.6132e-009   
