! VERSION = 6.00
BEGIN_HEADER
 ICCAP_INPUTS
  VG         V  B GROUND SMU4 0.001 LIN        2    0          -1.8       6    -0.36     
  VS         V  E GROUND SMU2 0.1 CON        0
  VD         V  S GROUND SMU1 0.1 LIN        1    0          -1.8       37   -0.05     
  VB         V  C GROUND SMU3 0.1 LIN        3    0          0.9        2    0.9       
 ICCAP_OUTPUTS
  ID         I  S GROUND SMU1 B
  IB         I  C GROUND SMU3 B
  IG         I  B GROUND SMU4 B
END_HEADER

BEGIN_DB
 ICCAP_VAR VG         0              
 ICCAP_VAR VS         0              
 ICCAP_VAR VB         0              

 #VD              ID              IB              IG             
  0               -1.9673e-009    -2.408e-009     -1.8125e-009   
  -0.05           -1.0727e-009    -2.6213e-008    1.3998e-009    
  -0.1            2.3028e-009     -8.97e-009      9.415e-010     
  -0.15           2.2416e-009     1.0784e-008     1.0849e-009    
  -0.2            2.1157e-009     1.1945e-008     1.2354e-009    
  -0.25           1.9176e-009     1.0253e-008     -1.732e-010    
  -0.3            8.921e-010      2.5158e-008     -1.5322e-009   
  -0.35           -1.4266e-009    7.074e-009      -1.7272e-009   
  -0.4            -1.5343e-009    -1.8285e-008    2.0496e-009    
  -0.45           2.2445e-009     -7.511e-009     5.145e-010     
  -0.5            2.3023e-009     1.0167e-008     6.747e-010     
  -0.55           2.3121e-009     9.947e-009      8.289e-010     
  -0.6            2.2958e-009     9.826e-009      9.736e-010     
  -0.65           2.22e-009       1.1067e-008     1.1135e-009    
  -0.7            2.093e-009      1.2032e-008     1.265e-009     
  -0.75           1.9316e-009     1.0184e-008     -1.453e-010    
  -0.8            2.0022e-009     9.898e-009      1.17e-011      
  -0.85           2.0911e-009     9.834e-009      1.765e-010     
  -0.9            2.1776e-009     1.0367e-008     3.482e-010     
  -0.95           2.252e-009      1.02e-008       5.198e-010     
  -1              2.301e-009      1.023e-008      6.833e-010     
  -1.05           2.3126e-009     1.0036e-008     8.35e-010      
  -1.1            2.2959e-009     9.842e-009      9.787e-010     
  -1.15           2.2209e-009     1.1049e-008     1.1173e-009    
  -1.2            2.0961e-009     1.2118e-008     1.2696e-009    
  -1.25           1.9357e-009     1.0127e-008     -1.384e-010    
  -1.3            2.0051e-009     9.852e-009      1.65e-011      
  -1.35           2.0943e-009     9.871e-009      1.822e-010     
  -1.4            2.1826e-009     1.0336e-008     3.539e-010     
  -1.45           2.2563e-009     1.0274e-008     5.262e-010     
  -1.5            2.3055e-009     1.0167e-008     6.821e-010     
  -1.55           2.312e-009      9.977e-009      8.357e-010     
  -1.6            2.2921e-009     9.89e-009       9.821e-010     
  -1.65           2.2158e-009     1.1098e-008     1.1217e-009    
  -1.7            2.0918e-009     1.0927e-008     1.277e-009     
  -1.75           1.9375e-009     1.0115e-008     -1.326e-010    
  -1.8            2.0085e-009     9.82e-009       2.64e-011      
END_DB

BEGIN_DB
 ICCAP_VAR VG         -0.36          
 ICCAP_VAR VS         0              
 ICCAP_VAR VB         0              

 #VD              ID              IB              IG             
  0               3.123e-010      9.876e-009      9.4e-011       
  -0.05           -4.848e-010     -1.7428e-008    2.5451e-009    
  -0.1            2.2075e-009     -3.338e-009     1.1525e-009    
  -0.15           2.0559e-009     1.2483e-008     1.3098e-009    
  -0.2            1.8235e-009     1.2796e-008     -1.4236e-009   
  -0.25           -2.1776e-009    8.596e-009      -1.0007e-009   
  -0.3            -1.648e-009     -1.2968e-008    1.5802e-009    
  -0.35           2.3109e-009     -8.991e-009     8.011e-010     
  -0.4            2.2986e-009     9.772e-009      9.514e-010     
  -0.45           2.2398e-009     1.0823e-008     1.0908e-009    
  -0.5            2.1217e-009     1.1968e-008     1.2428e-009    
  -0.55           1.9223e-009     1.0206e-008     -1.628e-010    
  -0.6            1.9947e-009     9.817e-009      3e-013         
  -0.65           1.0175e-009     2.7156e-008     -1.4171e-009   
  -0.7            -2.1723e-009    8.554e-009      -1.0086e-009   
  -0.75           -1.6542e-009    -1.2661e-008    1.5625e-009    
  -0.8            2.3069e-009     -8.863e-009     8.176e-010     
  -0.85           2.297e-009      9.767e-009      9.588e-010     
  -0.9            2.2357e-009     1.0997e-008     1.1032e-009    
  -0.95           2.1082e-009     1.2021e-008     1.2591e-009    
  -1              1.9307e-009     1.015e-008      -1.481e-010    
  -1.05           2.002e-009      9.772e-009      1.78e-011      
  -1.1            2.092e-009      9.887e-009      1.766e-010     
  -1.15           2.1794e-009     1.0409e-008     3.55e-010      
  -1.2            2.2572e-009     1.0255e-008     5.263e-010     
  -1.25           2.2993e-009     1.0192e-008     6.935e-010     
  -1.3            2.3117e-009     1.0087e-008     8.459e-010     
  -1.35           2.2869e-009     9.771e-009      9.932e-010     
  -1.4            2.2099e-009     1.0317e-008     1.1344e-009    
  -1.45           2.0677e-009     1.1084e-008     1.2966e-009    
  -1.5            1.945e-009      1.0109e-008     -1.088e-010    
  -1.55           2.0195e-009     9.784e-009      5.02e-011      
  -1.6            2.1183e-009     9.953e-009      2.174e-010     
  -1.65           2.1976e-009     1.0403e-008     3.956e-010     
  -1.7            2.2674e-009     1.0251e-008     5.631e-010     
  -1.75           2.3001e-009     1.0208e-008     7.293e-010     
  -1.8            2.3085e-009     9.964e-009      8.791e-010     
END_DB

BEGIN_DB
 ICCAP_VAR VG         -0.72          
 ICCAP_VAR VS         0              
 ICCAP_VAR VB         0              

 #VD              ID              IB              IG             
  0               6.281e-010      2.6652e-008     8.123e-010     
  -0.05           -1.1085e-008    2.0519e-008     -2.5424e-009   
  -0.1            -9.669e-009     9.827e-009      1.1602e-009    
  -0.15           -1.3697e-008    -2.3729e-008    1.3515e-009    
  -0.2            -1.4759e-008    -1.7661e-008    1.5931e-009    
  -0.25           -1.3736e-008    -1.9479e-008    1.7442e-009    
  -0.3            -1.3754e-008    -1.8694e-008    1.9155e-009    
  -0.35           -1.4564e-008    -2.6934e-008    2.3098e-009    
  -0.4            -1.4836e-008    -1.1296e-008    1.81e-011      
  -0.45           -1.4252e-008    9.016e-009      -1.2847e-009   
  -0.5            -1.0551e-008    9.829e-009      1.182e-009     
  -0.55           -1.4142e-008    -2.4105e-008    1.3293e-009    
  -0.6            -1.5781e-008    -1.0819e-008    -7.213e-010    
  -0.65           -1.3816e-008    1.3396e-008     -1.9639e-009   
  -0.7            -1.223e-008     1.0254e-008     3.14e-011      
  -0.75           -1.3103e-008    -1.0993e-008    2.8126e-009    
  -0.8            -1.5185e-008    -1.8531e-008    1.6489e-009    
  -0.85           -1.4055e-008    -1.9181e-008    1.8067e-009    
  -0.9            -1.5514e-008    -1.0415e-008    -2.851e-010    
  -0.95           -1.4303e-008    7.733e-009      -2.4861e-009   
  -1              -1.0736e-008    9.927e-009      1.2206e-009    
  -1.05           -1.4399e-008    -2.4809e-008    1.3018e-009    
  -1.1            -1.6068e-008    -1.0724e-008    -7.665e-010    
  -1.15           -1.3961e-008    1.4557e-008     -1.8966e-009   
  -1.2            -1.239e-008     1.0127e-008     7.86e-011      
  -1.25           -1.3335e-008    -1.1758e-008    2.7956e-009    
  -1.3            -1.5329e-008    -1.7383e-008    1.5707e-009    
  -1.35           -1.5857e-008    -1.0287e-008    -4.505e-010    
  -1.4            -1.4392e-008    9.457e-009      -2.3181e-009   
  -1.45           -1.0799e-008    1.1178e-008     1.3711e-009    
  -1.5            -1.4741e-008    -2.6508e-008    1.234e-009     
  -1.55           -1.5414e-008    -1.3434e-008    2.106e-010     
  -1.6            -1.4851e-008    8.647e-009      -1.3133e-009   
  -1.65           -1.1397e-008    1.0543e-008     9.68e-010      
  -1.7            -1.4525e-008    -2.0085e-008    1.5814e-009    
  -1.75           -1.5538e-008    -2.3489e-008    1.943e-009     
  -1.8            -1.5215e-008    -2.6905e-008    2.3245e-009    
END_DB

BEGIN_DB
 ICCAP_VAR VG         -1.08          
 ICCAP_VAR VS         0              
 ICCAP_VAR VB         0              

 #VD              ID              IB              IG             
  0               -7.0202e-010    -5.533e-009     -5.327e-010    
  -0.05           -5.732e-007     -2.5243e-008    1.2991e-009    
  -0.1            -9.953e-007     -2.5832e-008    2.2055e-009    
  -0.15           -1.2838e-006    1.3046e-008     1.4865e-009    
  -0.2            -1.4705e-006    -1.5147e-008    1.4652e-009    
  -0.25           -1.5846e-006    -1.4832e-008    1.4389e-009    
  -0.3            -1.652e-006     -1.4403e-008    1.4211e-009    
  -0.35           -1.6924e-006    -1.4081e-008    1.3986e-009    
  -0.4            -1.72e-006      -1.3643e-008    2.351e-010     
  -0.45           -1.7186e-006    8.977e-009      -1.2881e-009   
  -0.5            -1.7524e-006    1.0245e-008     1.4073e-009    
  -0.55           -1.7618e-006    -1.1552e-008    2.7956e-009    
  -0.6            -1.7725e-006    -1.2883e-008    1.789e-010     
  -0.65           -1.7608e-006    8.787e-009      -1.282e-009    
  -0.7            -1.7884e-006    1.0556e-008     1.474e-009     
  -0.75           -1.7936e-006    -1.2641e-008    2.7547e-009    
  -0.8            -1.8007e-006    -1.2189e-008    1.278e-010     
  -0.85           -1.7853e-006    8.363e-009      -2.6178e-009   
  -0.9            -1.8106e-006    9.933e-009      1.2899e-009    
  -0.95           -1.8134e-006    -2.7083e-008    2.4117e-009    
  -1              -1.8192e-006    -2.7108e-008    2.3836e-009    
  -1.05           -1.8236e-006    -2.6942e-008    2.3458e-009    
  -1.1            -1.8269e-006    -2.6633e-008    2.31e-009      
  -1.15           -1.832e-006     -1.7725e-008    2.0649e-009    
  -1.2            -1.8369e-006    -1.9397e-008    1.812e-009     
  -1.25           -1.839e-006     -2.0838e-008    1.781e-009     
  -1.3            -1.8435e-006    -2.0239e-008    1.754e-009     
  -1.35           -1.8473e-006    -1.9571e-008    1.7222e-009    
  -1.4            -1.8514e-006    -1.8997e-008    1.6842e-009    
  -1.45           -1.8553e-006    -1.8368e-008    1.6525e-009    
  -1.5            -1.8516e-006    -1.0765e-008    -6.789e-010    
  -1.55           -1.845e-006     1.7924e-008     -1.6679e-009   
  -1.6            -1.8602e-006    1.235e-008      2.0655e-009    
  -1.65           -1.8717e-006    -1.2614e-008    1.692e-010     
  -1.7            -1.8529e-006    8.795e-009      -1.2797e-009   
  -1.75           -1.8792e-006    1.1879e-008     1.4892e-009    
  -1.8            -1.8806e-006    -1.2739e-008    2.7397e-009    
END_DB

BEGIN_DB
 ICCAP_VAR VG         -1.44          
 ICCAP_VAR VS         0              
 ICCAP_VAR VB         0              

 #VD              ID              IB              IG             
  0               -4.3731e-010    7.152e-009      1.646e-010     
  -0.05           -1.6137e-006    -2.7106e-008    -2.7067e-009   
  -0.1            -3.0512e-006    1.0279e-008     1.0154e-009    
  -0.15           -4.3226e-006    -2.5546e-008    1.2975e-009    
  -0.2            -5.4102e-006    -1.0725e-008    -9.962e-010    
  -0.25           -6.3317e-006    2.503e-008      -1.4013e-009   
  -0.3            -7.1172e-006    1.0711e-008     8.572e-010     
  -0.35           -7.7553e-006    -2.2737e-008    1.4279e-009    
  -0.4            -8.2517e-006    -1.4228e-008    1.4063e-009    
  -0.45           -8.6358e-006    -1.3892e-008    1.3854e-009    
  -0.5            -8.9247e-006    -1.3454e-008    2.199e-010     
  -0.55           -9.1014e-006    8.978e-009      -1.2865e-009   
  -0.6            -9.3218e-006    1.032e-008      1.4228e-009    
  -0.65           -9.4259e-006    -2.5567e-008    2.1871e-009    
  -0.7            -9.529e-006     -1.8563e-008    1.9336e-009    
  -0.75           -9.6033e-006    -2.2409e-008    1.8956e-009    
  -0.8            -9.6724e-006    -2.1852e-008    1.8455e-009    
  -0.85           -9.7318e-006    -2.1138e-008    1.8093e-009    
  -0.9            -9.7736e-006    -1.0507e-008    -5.576e-010    
  -0.95           -9.7919e-006    1.5672e-008     -1.8091e-009   
  -1              -9.875e-006     1.2904e-008     1.9635e-009    
  -1.05           -9.9181e-006    -1.3973e-008    1.4049e-009    
  -1.1            -9.9556e-006    -1.3756e-008    2.357e-010     
  -1.15           -9.9409e-006    9.084e-009      -1.2908e-009   
  -1.2            -1.0035e-005    1.0269e-008     1.4058e-009    
  -1.25           -1.00439e-005   -2.5832e-008    2.2103e-009    
  -1.3            -1.00771e-005   -1.8469e-008    1.9608e-009    
  -1.35           -1.00982e-005   -2.2872e-008    1.9182e-009    
  -1.4            -1.01262e-005   -2.2242e-008    1.8792e-009    
  -1.45           -1.01517e-005   -2.1809e-008    1.8405e-009    
  -1.5            -1.01782e-005   -2.1138e-008    1.8029e-009    
  -1.55           -1.02039e-005   -2.0662e-008    1.7697e-009    
  -1.6            -1.02278e-005   -1.9917e-008    1.7347e-009    
  -1.65           -1.02516e-005   -1.9261e-008    1.6971e-009    
  -1.7            -1.02615e-005   -1.064e-008     -6.311e-010    
  -1.75           -1.02555e-005   1.7183e-008     -1.7103e-009   
  -1.8            -1.03155e-005   1.2973e-008     2.0336e-009    
END_DB

BEGIN_DB
 ICCAP_VAR VG         -1.8           
 ICCAP_VAR VS         0              
 ICCAP_VAR VB         0              

 #VD              ID              IB              IG             
  0               -3.855e-010     -2.2823e-008    2.4241e-009    
  -0.05           -2.5432e-006    -2.6311e-008    -2.6437e-009   
  -0.1            -4.935e-006     9.964e-009      1.228e-009     
  -0.15           -7.1805e-006    -2.7464e-008    2.5062e-009    
  -0.2            -9.2721e-006    -2.7482e-008    2.4663e-009    
  -0.25           -1.12145e-005   -1.0818e-008    -1.231e-010    
  -0.3            -1.2989e-005    7.988e-009      -6.69e-011     
  -0.35           -1.4577e-005    1.4002e-008     -1.92e-009     
  -0.4            -1.6055e-005    1.0585e-008     7.148e-010     
  -0.45           -1.7377e-005    -2.544e-008     1.2741e-009    
  -0.5            -1.8518e-005    -2.4096e-008    1.9877e-009    
  -0.55           -1.9531e-005    -1.4557e-008    1.4098e-009    
  -0.6            -2.0384e-005    -2.7068e-008    2.3304e-009    
  -0.65           -2.1098e-005    -1.0624e-008    -6.439e-010    
  -0.7            -2.1673e-005    2.467e-008      -1.4044e-009   
  -0.75           -2.2237e-005    9.876e-009      1.1716e-009    
  -0.8            -2.2651e-005    -1.3732e-008    2.7069e-009    
  -0.85           -2.2972e-005    -1.0469e-008    -3.001e-010    
  -0.9            -2.3204e-005    1.8629e-008     -1.6329e-009   
  -0.95           -2.3473e-005    1.0322e-008     9.088e-010     
  -1              -2.3688e-005    -2.749e-008     2.4909e-009    
  -1.05           -2.3833e-005    -1.0303e-008    -5.197e-010    
  -1.1            -2.3936e-005    2.2466e-008     -1.4593e-009   
  -1.15           -2.4125e-005    1.0028e-008     1.0809e-009    
  -1.2            -2.4249e-005    -1.2081e-008    2.783e-009     
  -1.25           -2.4338e-005    -2.7154e-008    2.3449e-009    
  -1.3            -2.4412e-005    -1.0593e-008    -6.241e-010    
  -1.35           -2.4456e-005    2.4378e-008     -1.4067e-009   
  -1.4            -2.4615e-005    9.89e-009       1.1681e-009    
  -1.45           -2.4695e-005    -1.3547e-008    2.717e-009     
  -1.5            -2.4754e-005    -1.8246e-008    1.9723e-009    
  -1.55           -2.4833e-005    -1.4224e-008    1.4057e-009    
  -1.6            -2.489e-005     -1.7321e-008    2.103e-009     
  -1.65           -2.4923e-005    -1.0917e-008    -7.81e-010     
  -1.7            -2.4948e-005    2.6394e-008     -1.3601e-009   
  -1.75           -2.5101e-005    1.0087e-008     1.3039e-009    
  -1.8            -2.5126e-005    -2.0512e-008    1.7639e-009    
END_DB

BEGIN_DB
 ICCAP_VAR VG         0              
 ICCAP_VAR VS         0              
 ICCAP_VAR VB         0.9            

 #VD              ID              IB              IG             
  0               -1.3841e-009    9.982e-009      -1.368e-009    
  -0.05           -2.0206e-009    -1.0281e-008    -1.179e-010    
  -0.1            -2.115e-009     -1.0558e-008    -3.143e-010    
  -0.15           -2.1691e-009    -1.0708e-008    -5.008e-010    
  -0.2            -1.4157e-009    -2.4264e-008    2.4178e-009    
  -0.25           2.1405e-009     -4.559e-009     1.2341e-009    
  -0.3            1.9197e-009     1.0184e-008     -1.655e-010    
  -0.35           1.994e-009      9.806e-009      -1.11e-011     
  -0.4            2.0846e-009     9.682e-009      1.622e-010     
  -0.45           2.1791e-009     1.0338e-008     3.395e-010     
  -0.5            2.2548e-009     1.0281e-008     5.223e-010     
  -0.55           2.3063e-009     1.0351e-008     6.936e-010     
  -0.6            2.3122e-009     1.0062e-008     8.461e-010     
  -0.65           2.2927e-009     1.0049e-008     9.923e-010     
  -0.7            1.7782e-009     1.1484e-008     -1.479e-009    
  -0.75           -1.3647e-009    8.048e-009      -1.7815e-009   
  -0.8            -2.1658e-009    -1.0721e-008    -4.687e-010    
  -0.85           -1.4001e-009    -2.4891e-008    2.464e-009     
  -0.9            2.166e-009      -4.026e-009     1.2134e-009    
  -0.95           1.9095e-009     1.0096e-008     -1.884e-010    
  -1              1.9838e-009     9.793e-009      -3.21e-011     
  -1.05           2.0744e-009     9.647e-009      1.37e-010      
  -1.1            2.1745e-009     1.0233e-008     3.173e-010     
  -1.15           2.2493e-009     1.0357e-008     4.962e-010     
  -1.2            2.3042e-009     1.0265e-008     6.673e-010     
  -1.25           2.3161e-009     1.0132e-008     8.273e-010     
  -1.3            2.2987e-009     9.915e-009      9.711e-010     
  -1.35           2.2213e-009     1.0954e-008     1.1206e-009    
  -1.4            2.0937e-009     1.2184e-008     1.2775e-009    
  -1.45           1.9429e-009     9.938e-009      -1.229e-010    
  -1.5            2.0191e-009     9.68e-009       3.98e-011      
  -1.55           2.1166e-009     9.912e-009      2.118e-010     
  -1.6            2.2029e-009     1.044e-008      3.948e-010     
  -1.65           2.2761e-009     1.0258e-008     5.718e-010     
  -1.7            2.3143e-009     1.0288e-008     7.306e-010     
  -1.75           2.3121e-009     9.923e-009      8.851e-010     
  -1.8            2.2757e-009     1.0204e-008     1.0321e-009    
END_DB

BEGIN_DB
 ICCAP_VAR VG         -0.36          
 ICCAP_VAR VS         0              
 ICCAP_VAR VB         0.9            

 #VD              ID              IB              IG             
  0               8.149e-010      2.7021e-008     7.912e-010     
  -0.05           2.3184e-009     -8.772e-009     8.798e-010     
  -0.1            2.2754e-009     1.0332e-008     1.027e-009     
  -0.15           2.1742e-009     1.1656e-008     1.1778e-009    
  -0.2            2.0205e-009     1.2453e-008     1.3327e-009    
  -0.25           1.8441e-009     1.2777e-008     -1.4095e-009   
  -0.3            -2.1708e-009    8.574e-009      -1.028e-009    
  -0.35           -1.6646e-009    -1.252e-008     1.5355e-009    
  -0.4            2.3151e-009     -8.989e-009     8.417e-010     
  -0.45           2.2899e-009     9.945e-009      9.888e-010     
  -0.5            2.2054e-009     1.1257e-008     1.1351e-009    
  -0.55           2.0707e-009     1.2319e-008     1.2912e-009    
