! VERSION = 6.00
BEGIN_HEADER
 ICCAP_INPUTS
  VG         V  B GROUND SMU4 0.001 LIN        1    0          -1.8       37   -0.05     
  VS         V  E GROUND SMU2 0.1 CON        0
  VB         V  C GROUND SMU3 0.1 LIN        3    0          1.8        3    0.9       
  VD         V  S GROUND SMU1 0.1 LIN        2    -0.1       -1.8       2    -1.7      
 ICCAP_OUTPUTS
  IG         I  B GROUND SMU4 B
  ID         I  S GROUND SMU1 B
  IB         I  C GROUND SMU3 B
END_HEADER

BEGIN_DB
 ICCAP_VAR VS         0              
 ICCAP_VAR VB         0              
 ICCAP_VAR VD         -0.1           

 #VG              IG              ID              IB             
  0               1.0021e-009     9.264e-010      1.8159e-008    
  -0.05           1.2453e-009     2.1295e-009     -4.644e-009    
  -0.1            -1.605e-010     1.8907e-009     1.0163e-008    
  -0.15           -1e-011         1.8825e-009     9.773e-009     
  -0.2            1.465e-010      1.6977e-009     9.658e-009     
  -0.25           -1.4919e-009    -3.755e-010     1.0238e-008    
  -0.3            -1.397e-009     -4.7621e-009    8.177e-009     
  -0.35           -1.5586e-009    -1.586e-008     -1.3989e-008   
  -0.4            -1.3498e-009    -4.7445e-008    7.199e-009     
  -0.45           3.656e-010      -1.3588e-007    -1.1114e-008   
  -0.5            7.741e-010      -3.6904e-007    1.0545e-008    
  -0.55           1.1225e-009     -9.0143e-007    9.766e-009     
  -0.6            -2.464e-009     -1.913e-006     -2.1345e-008   
  -0.65           -1.9215e-009    -3.7172e-006    1.354e-009     
  -0.7            -2.4e-012       -6.7166e-006    -1.1153e-008   
  -0.75           1.2623e-009     -1.09729e-005   -2.5407e-008   
  -0.8            -1.4085e-009    -1.6561e-005    -9.402e-009    
  -0.85           -1.3098e-009    -2.3714e-005    8.707e-009     
  -0.9            -2.5751e-009    -3.2252e-005    7.852e-009     
  -0.95           -2.0936e-009    -4.2037e-005    4.25e-010      
  -1              1.2244e-009     -5.2837e-005    -2.6528e-008   
  -1.05           2.828e-009      -6.4101e-005    -1.0441e-008   
  -1.1            1.2437e-009     -7.575e-005     1.0199e-008    
  -1.15           7.77e-011       -8.709e-005     1.0077e-008    
  -1.2            5.028e-010      -9.8873e-005    9.942e-009     
  -1.25           8.952e-010      -0.000110529    1.0252e-008    
  -1.3            2.4756e-009     -0.00012175     9.787e-009     
  -1.35           1.4488e-009     -0.00013284     1.0536e-008    
  -1.4            2.947e-010      -0.00014286     9.702e-009     
  -1.45           7.151e-010      -0.00015285     1.0515e-008    
  -1.5            1.0701e-009     -0.00016241     1.0055e-008    
  -1.55           1.4668e-009     -0.00017147     1.0654e-008    
  -1.6            3.142e-010      -0.00017968     9.703e-009     
  -1.65           7.342e-010      -0.00018779     1.0297e-008    
  -1.7            1.0814e-009     -0.00019554     9.935e-009     
  -1.75           1.4783e-009     -0.0002029      1.2014e-008    
  -1.8            3.258e-010      -0.00020953     9.724e-009     
END_DB

BEGIN_DB
 ICCAP_VAR VS         0              
 ICCAP_VAR VB         0              
 ICCAP_VAR VD         -1.8           

 #VG              IG              ID              IB             
  0               -9.544e-010     -9.239e-010     -2.5669e-008   
  -0.05           -1.7726e-009    -1.5446e-009    7.9e-009       
  -0.1            -4.334e-010     -2.6592e-009    -1.0696e-008   
  -0.15           1.2077e-009     -3.0724e-009    -2.5312e-008   
  -0.2            2.8485e-009     -5.721e-009     -1.1148e-008   
  -0.25           -2.5331e-009    -1.9147e-008    -2.694e-008    
  -0.3            -2.0236e-009    -5.7396e-008    6.38e-010      
  -0.35           1.6705e-009     -1.6827e-007    -2.6221e-008   
  -0.4            2.0655e-009     -4.5419e-007    1.2525e-008    
  -0.45           2.275e-009      -1.124e-006     1.346e-008     
  -0.5            1.5984e-009     -2.5216e-006    -5.488e-009    
  -0.55           1.2476e-009     -5.164e-006     -9.152e-009    
  -0.6            2.8482e-009     -9.7581e-006    -9.819e-009    
  -0.65           -2.4215e-009    -1.6823e-005    9.795e-009     
  -0.7            -4.817e-010     -2.7679e-005    -1.0118e-008   
  -0.75           2.0713e-009     -4.2994e-005    -1.8145e-008   
  -0.8            1.4311e-009     -6.3155e-005    -7.438e-009    
  -0.85           2.8165e-009     -8.9102e-005    -8.758e-009    
  -0.9            2.008e-009      -0.0001206      1.2592e-008    
  -0.95           1.418e-009      -0.00015825     -7.71e-009     
  -1              2.8201e-009     -0.00020159     -8.851e-009    
  -1.05           2.0255e-009     -0.00025051     1.2715e-008    
  -1.1            8.623e-010      -0.00030394     1.0517e-008    
  -1.15           1.2226e-009     -0.00036351     1.0238e-008    
  -1.2            5.28e-011       -0.00042445     1.0256e-008    
  -1.25           4.895e-010      -0.00049141     1.0141e-008    
  -1.3            8.765e-010      -0.00056241     1.047e-008     
  -1.35           1.2371e-009     -0.00063681     1.0216e-008    
  -1.4            6.73e-011       -0.00071054     1.0194e-008    
  -1.45           5.063e-010      -0.00078899     1.007e-008     
  -1.5            8.85e-010       -0.00086992     1.0729e-008    
  -1.55           1.2485e-009     -0.0009531      9.972e-009     
  -1.6            8.3e-011        -0.00103399     1.0061e-008    
  -1.65           5.153e-010      -0.00111882     1.0046e-008    
  -1.7            -8.799e-010     -0.0012044      1.0262e-008    
  -1.75           1.4624e-009     -0.0012924      -1.5296e-008   
  -1.8            2.8065e-009     -0.0013796      -8.952e-009    
END_DB

BEGIN_DB
 ICCAP_VAR VS         0              
 ICCAP_VAR VB         0.9            
 ICCAP_VAR VD         -0.1           

 #VG              IG              ID              IB             
  0               -1.2215e-009    -1.0581e-009    1.2289e-008    
  -0.05           -1.8562e-009    -1.2682e-009    4.84e-010      
  -0.1            1.7084e-009     -1.626e-009     -1.4013e-008   
  -0.15           7.187e-010      2.3196e-009     -9.165e-009    
  -0.2            8.655e-010      2.3245e-009     9.936e-009     
  -0.25           9.98e-010       2.2917e-009     1.0007e-008    
  -0.3            1.1369e-009     2.1954e-009     1.1456e-008    
  -0.35           -1.5536e-009    1.6517e-009     1.2378e-008    
  -0.4            -2.53e-009      -1.3548e-009    7.053e-009     
  -0.45           -3.537e-010     -3.3599e-009    -1.05e-008     
  -0.5            1.2338e-009     -6.4455e-009    -2.6142e-008   
  -0.55           -1.5678e-009    -2.0512e-008    -1.4212e-008   
  -0.6            -1.3574e-009    -7.0166e-008    6.706e-009     
  -0.65           1.6567e-009     -2.2747e-007    -2.6486e-008   
  -0.7            2.0603e-009     -6.3848e-007    1.3086e-008    
  -0.75           -2.4873e-009    -1.5691e-006    -1.9684e-008   
  -0.8            -5.778e-010     -3.412e-006     -1.0483e-008   
  -0.85           -9.624e-010     -6.4979e-006    -1.0691e-008   
  -0.9            2.117e-010      -1.13674e-005   -1.3542e-008   
  -0.95           7.854e-010      -1.7774e-005    -1.9256e-008   
  -1              1.1382e-009     -2.6089e-005    9.712e-009     
  -1.05           1.5374e-009     -3.5797e-005    1.2519e-008    
  -1.1            1.9471e-009     -4.6364e-005    1.2626e-008    
  -1.15           7.917e-010      -5.7672e-005    1.0137e-008    
  -1.2            1.1524e-009     -6.9678e-005    9.742e-009     
  -1.25           1.5507e-009     -8.1652e-005    1.2607e-008    
  -1.3            1.9624e-009     -9.3249e-005    1.306e-008     
  -1.35           8.068e-010      -0.000104655    1.0506e-008    
  -1.4            2.668e-009      -0.00011577     1.0472e-008    
  -1.45           1.7294e-009     -0.00012655     1.246e-008     
  -1.5            5.799e-010      -0.00013634     1.0237e-008    
  -1.55           9.589e-010      -0.00014603     1.0082e-008    
  -1.6            1.3294e-009     -0.0001553      1.0964e-008    
  -1.65           1.7419e-009     -0.0001639      1.2948e-008    
  -1.7            5.933e-010      -0.00017181     1.0249e-008    
  -1.75           9.659e-010      -0.00017962     1.0134e-008    
  -1.8            1.3446e-009     -0.00018704     1.1188e-008    
END_DB

BEGIN_DB
 ICCAP_VAR VS         0              
 ICCAP_VAR VB         0.9            
 ICCAP_VAR VD         -1.8           

 #VG              IG              ID              IB             
  0               5.996e-010      6.88e-010       -1.0846e-008   
  -0.05           1.1407e-009     2.2088e-009     -9.963e-009    
  -0.1            1.2895e-009     2.0641e-009     1.1142e-008    
  -0.15           -1.186e-010     1.9373e-009     1.0294e-008    
  -0.2            3.72e-011       1.9831e-009     9.869e-009     
  -0.25           1.904e-010      1.96e-009       9.892e-009     
  -0.3            3.58e-010       1.6043e-009     1.037e-008     
  -0.35           -2.574e-009     -2.0888e-009    1.0119e-008    
  -0.4            -2.4142e-009    -9.9552e-009    6.22e-010      
  -0.45           -1.2894e-009    -3.5381e-008    -1.0376e-008   
  -0.5            5.303e-010      -1.2046e-007    -1.3473e-008   
  -0.55           9.074e-010      -3.8783e-007    1.0154e-008    
  -0.6            1.2707e-009     -1.09772e-006   1.0004e-008    
  -0.65           -2.3324e-009    -2.6446e-006    -1.8628e-008   
  -0.7            1.8478e-009     -5.8563e-006    -2.1447e-008   
  -0.75           -2.7149e-009    -1.1408e-005    1.0521e-008    
  -0.8            2.2791e-009     -2.0697e-005    -2.5931e-008   
  -0.85           1.5981e-009     -3.4397e-005    -5.477e-009    
  -0.9            1.2599e-009     -5.3629e-005    -8.799e-009    
  -0.95           2.8464e-009     -7.9047e-005    -9.897e-009    
  -1              2.5922e-009     -0.000110219    -2.5e-011      
  -1.05           2.754e-009      -0.00014792     1.1931e-008    
  -1.1            1.3763e-009     -0.00019292     1.0452e-008    
  -1.15           2.194e-010      -0.00024074     1.0264e-008    
  -1.2            6.428e-010      -0.00029602     1.0564e-008    
  -1.25           1.0035e-009     -0.0003564      1.0315e-008    
  -1.3            1.3868e-009     -0.00042118     1.0507e-008    
  -1.35           2.282e-010      -0.00048619     1.02e-008      
  -1.4            6.474e-010      -0.00055755     1.0493e-008    
  -1.45           1.0089e-009     -0.0006321      1.0243e-008    
  -1.5            1.393e-009      -0.00070907     1.0503e-008    
  -1.55           2.383e-010      -0.00078445     1.0141e-008    
  -1.6            6.605e-010      -0.00086491     1.0359e-008    
  -1.65           1.0199e-009     -0.00094754     1.0217e-008    
  -1.7            1.4071e-009     -0.00103171     1.0592e-008    
  -1.75           2.493e-010      -0.00111276     1.0015e-008    
  -1.8            -1.6539e-009    -0.0011962      1.0244e-008    
END_DB

BEGIN_DB
 ICCAP_VAR VS         0              
 ICCAP_VAR VB         1.8            
 ICCAP_VAR VD         -0.1           

 #VG              IG              ID              IB             
  0               7.558e-010      7.677e-010      -1.1544e-008   
  -0.05           9.489e-010      2.3108e-009     -8.905e-009    
  -0.1            1.0781e-009     2.2483e-009     1.0837e-008    
  -0.15           1.2258e-009     2.1273e-009     1.1995e-008    
  -0.2            -1.744e-010     1.9199e-009     1.0379e-008    
  -0.25           -1.92e-011      1.9877e-009     1.0018e-008    
  -0.3            1.346e-010      2.0692e-009     9.76e-009      
  -0.35           2.992e-010      2.1519e-009     1.0171e-008    
  -0.4            4.71e-010       2.2153e-009     1.0114e-008    
  -0.45           6.267e-010      2.2029e-009     1.0016e-008    
  -0.5            -1.3311e-009    8.54e-010       1.0235e-008    
  -0.55           -2.7054e-009    -2.8849e-009    8.568e-009     
  -0.6            2.4207e-009     -9.147e-009     -1.8055e-008   
  -0.65           -1.5595e-009    -3.4314e-008    -1.4121e-008   
  -0.7            5.889e-010      -1.195e-007     -1.4649e-008   
  -0.75           9.562e-010      -3.8961e-007    1.0331e-008    
  -0.8            1.3362e-009     -1.08393e-006   1.0114e-008    
  -0.85           -2.3567e-009    -2.5034e-006    -1.8446e-008   
  -0.9            1.4265e-009     -5.2301e-006    -1.4641e-008   
  -0.95           2.8173e-009     -9.4935e-006    -8.918e-009    
  -1              -2.6978e-009    -1.5436e-005    1.042e-008     
  -1.05           2.4968e-009     -2.3398e-005    -2.6952e-008   
  -1.1            1.8273e-009     -3.2762e-005    -3.45e-009     
  -1.15           1.335e-009      -4.3362e-005    -8.917e-009    
  -1.2            2.84e-009       -5.4747e-005    -9.378e-009    
  -1.25           2.73e-009       -6.6407e-005    2.94e-010      
  -1.3            1.4228e-009     -7.8559e-005    1.1553e-008    
  -1.35           2.609e-010      -8.9866e-005    9.978e-009     
  -1.4            6.818e-010      -0.000101371    1.0233e-008    
  -1.45           1.0427e-009     -0.000112485    9.859e-009     
  -1.5            2.594e-009      -0.00012283     1.0269e-008    
  -1.55           5.757e-010      -0.00013268     1.0235e-008    
  -1.6            9.473e-010      -0.0001422      1.0286e-008    
  -1.65           1.3211e-009     -0.00015125     1.0043e-008    
  -1.7            1.7389e-009     -0.00015971     1.268e-008     
  -1.75           5.845e-010      -0.00016746     1.0229e-008    
  -1.8            9.555e-010      -0.00017511     1.012e-008     
END_DB

BEGIN_DB
 ICCAP_VAR VS         0              
 ICCAP_VAR VB         1.8            
 ICCAP_VAR VD         -1.8           

 #VG              IG              ID              IB             
  0               9.132e-010      8.571e-010      2.4103e-008    
  -0.05           6.119e-010      2.2948e-009     -8.672e-009    
  -0.1            7.653e-010      2.3238e-009     1.0122e-008    
  -0.15           8.984e-010      2.3092e-009     9.769e-009     
  -0.2            1.0316e-009     2.2579e-009     1.0296e-008    
  -0.25           1.1716e-009     2.1279e-009     1.1615e-008    
  -0.3            -2.268e-010     1.742e-009      1.0437e-008    
  -0.35           -1.6094e-009    1.822e-010      2.4182e-008    
  -0.4            -1.4663e-009    -3.2087e-009    6.575e-009     
  -0.45           -2.7103e-009    -1.2682e-008    -2.0796e-008   
  -0.5            2.4203e-009     -4.6243e-008    -2.6806e-008   
  -0.55           -6.472e-010     -1.6049e-007    7.813e-009     
  -0.6            1.8113e-009     -5.1215e-007    -2.0968e-008   
  -0.65           6.931e-010      -1.3917e-006    9.95e-010      
  -0.7            1.0445e-009     -3.4323e-006    1.0001e-008    
  -0.75           1.4374e-009     -7.4634e-006    1.1725e-008    
  -0.8            -2.7053e-009    -1.4106e-005    1.0287e-008    
  -0.85           2.2135e-009     -2.5106e-005    -2.5458e-008   
  -0.9            1.5488e-009     -4.1012e-005    -5.806e-009    
  -0.95           1.2485e-009     -6.2821e-005    -8.905e-009    
  -1              2.8367e-009     -9.1066e-005    -9.937e-009    
  -1.05           2.6828e-009     -0.00012503     1.0411e-008    
  -1.1            1.7594e-009     -0.00016676     1.2884e-008    
  -1.15           6.061e-010      -0.0002123      1.0538e-008    
  -1.2            9.703e-010      -0.00026533     1.0308e-008    
  -1.25           1.3472e-009     -0.00032353     1.1257e-008    
  -1.3            1.7622e-009     -0.00038531     1.2817e-008    
  -1.35           6.101e-010      -0.00044923     1.0541e-008    
  -1.4            9.753e-010      -0.00051928     1.0516e-008    
  -1.45           1.3539e-009     -0.00059248     1.0213e-008    
  -1.5            1.7731e-009     -0.00066718     1.2751e-008    
  -1.55           6.204e-010      -0.00074215     1.0594e-008    
  -1.6            9.836e-010      -0.00082204     1.0404e-008    
  -1.65           1.3619e-009     -0.00090385     1.1169e-008    
  -1.7            1.7811e-009     -0.00098577     1.2802e-008    
  -1.75           6.284e-010      -0.00106686     1.0451e-008    
  -1.8            -2.0928e-009    -0.00115        -1e-012        
END_DB

