! VERSION = 6.00
BEGIN_HEADER
 ICCAP_INPUTS
  VG         V  B GROUND SMU4 0.001 LIN        1    0          -1.8       37   -0.05     
  VS         V  E GROUND SMU2 0.1 CON        0
  VB         V  C GROUND SMU3 0.1 LIN        3    0          1.8        3    0.9       
  VD         V  S GROUND SMU1 0.1 LIN        2    -0.1       -1.8       2    -1.7      
 ICCAP_OUTPUTS
  IG         I  B GROUND SMU4 B
  ID         I  S GROUND SMU1 B
  IB         I  C GROUND SMU3 B
END_HEADER

BEGIN_DB
 ICCAP_VAR VS         0              
 ICCAP_VAR VB         0              
 ICCAP_VAR VD         -0.1           

 #VG              IG              ID              IB             
  0               -1.1084e-009    -9.541e-010     -2.0597e-008   
  -0.05           -1.0442e-009    -2.1767e-009    -5.466e-009    
  -0.1            1.5118e-009     -1.6779e-009    -1.2075e-008   
  -0.15           8.551e-010      2.3327e-009     -8.778e-009    
  -0.2            1.003e-009      2.3012e-009     1.0099e-008    
  -0.25           -1.476e-009     1.793e-009      1.128e-008     
  -0.3            -1.7869e-009    -1.3634e-009    7.989e-009     
  -0.35           -4.692e-010     -2.1908e-009    -1.069e-008    
  -0.4            2.4659e-009     -5.529e-010     -1.8179e-008   
  -0.45           2.559e-010      2.1205e-009     -4.06e-009     
  -0.5            4.344e-010      2.0964e-009     1.0354e-008    
  -0.55           -1.3524e-009    5.643e-010      1.0329e-008    
  -0.6            -1.3213e-009    -2.417e-009     8.699e-009     
  -0.65           -1.2994e-009    -7.9073e-009    8.36e-009      
  -0.7            2.8402e-009     -2.3046e-008    9.699e-009     
  -0.75           2.0681e-009     -5.748e-008     1.2289e-008    
  -0.8            2.3925e-009     -1.2649e-007    8.52e-010      
  -0.85           1.6633e-009     -2.2662e-007    -4.712e-009    
  -0.9            1.2637e-009     -3.6907e-007    -9.139e-009    
  -0.95           2.8562e-009     -5.4956e-007    -9.482e-009    
  -1              2.6256e-009     -7.5742e-007    -1.81e-010     
  -1.05           6.237e-010      -9.9346e-007    1.0322e-008    
  -1.1            -1.5352e-009    -1.2533e-006    -1.0788e-008   
  -1.15           -1.3445e-009    -1.5276e-006    7.159e-009     
  -1.2            -1.2885e-009    -1.8154e-006    8.726e-009     
  -1.25           -2.3739e-009    -2.1103e-006    8.714e-009     
  -1.3            -7.483e-010     -2.4177e-006    -1.0696e-008   
  -1.35           1.6323e-009     -2.7214e-006    -1.8401e-008   
  -1.4            1.252e-009      -3.0172e-006    -8.987e-009    
  -1.45           2.8563e-009     -3.3133e-006    -9.657e-009    
  -1.5            2.5922e-009     -3.5994e-006    -3.17e-010     
  -1.55           1.9477e-009     -3.8826e-006    -2.652e-009    
  -1.6            1.3748e-009     -4.1592e-006    -8.237e-009    
  -1.65           2.8477e-009     -4.4294e-006    -8.786e-009    
  -1.7            2.7794e-009     -4.6872e-006    4.31e-010      
  -1.75           1.3853e-009     -4.9456e-006    1.0347e-008    
  -1.8            1.8018e-009     -5.1879e-006    1.297e-008     
END_DB

BEGIN_DB
 ICCAP_VAR VS         0              
 ICCAP_VAR VB         0              
 ICCAP_VAR VD         -1.8           

 #VG              IG              ID              IB             
  0               -1.1075e-009    -1.0059e-009    -1.9185e-008   
  -0.05           1.3089e-009     -1.1736e-009    -2.7235e-008   
  -0.1            1.0611e-009     2.2742e-009     -9.442e-009    
  -0.15           1.2131e-009     2.1573e-009     1.1753e-008    
  -0.2            -1.91e-010      1.9243e-009     1.0235e-008    
  -0.25           -3.68e-011      2.0044e-009     9.826e-009     
  -0.3            1.323e-010      2.0905e-009     9.633e-009     
  -0.35           3.028e-010      2.1846e-009     1.0078e-008    
  -0.4            4.881e-010      2.2588e-009     1.0223e-008    
  -0.45           6.645e-010      2.2848e-009     1.073e-008     
  -0.5            8.215e-010      2.1639e-009     1.0335e-008    
  -0.55           -1.3001e-009    7.81e-010       9.752e-009     
  -0.6            -1.2804e-009    -2.4798e-009    7.894e-009     
  -0.65           -2.5256e-009    -8.9571e-009    1e-008         
  -0.7            1.2662e-009     -2.7618e-008    1.0312e-008    
  -0.75           2.8552e-009     -7.4595e-008    -9.499e-009    
  -0.8            2.1225e-009     -1.6821e-007    -4.728e-009    
  -0.85           1.4703e-009     -3.2692e-007    -6.874e-009    
  -0.9            2.8218e-009     -5.7693e-007    -8.794e-009    
  -0.95           1.9984e-009     -9.2837e-007    1.2904e-008    
  -1              -2.09e-009      -1.3934e-006    -1.4549e-008   
  -1.05           2.5878e-009     -2.0068e-006    -2.671e-008    
  -1.1            1.9237e-009     -2.7372e-006    -2.727e-009    
  -1.15           1.3654e-009     -3.6173e-006    -8.331e-009    
  -1.2            2.8516e-009     -4.6436e-006    -8.942e-009    
  -1.25           2.1068e-009     -5.8031e-006    1.2194e-008    
  -1.3            9.455e-010      -7.1149e-006    1.0284e-008    
  -1.35           1.3246e-009     -8.5866e-006    1.0733e-008    
  -1.4            1.7445e-009     -1.01761e-005   1.2694e-008    
  -1.45           5.49e-011       -1.1871e-005    8.865e-009     
  -1.5            1.2897e-009     -1.3706e-005    -2.5321e-008   
  -1.55           2.8614e-009     -1.5653e-005    -9.552e-009    
  -1.6            2.6402e-009     -1.7701e-005    -2.22e-010     
  -1.65           6.03e-010       -1.9849e-005    1.0235e-008    
  -1.7            9.935e-010      -2.2148e-005    1.0427e-008    
  -1.75           1.3809e-009     -2.4536e-005    1.0271e-008    
  -1.8            1.7972e-009     -2.6967e-005    1.2779e-008    
END_DB

BEGIN_DB
 ICCAP_VAR VS         0              
 ICCAP_VAR VB         0.9            
 ICCAP_VAR VD         -0.1           

 #VG              IG              ID              IB             
  0               -3e-013         3.181e-010      1.0113e-008    
  -0.05           2.3575e-009     -6.156e-010     -1.9311e-008   
  -0.1            1.2805e-009     2.0986e-009     -4.987e-009    
  -0.15           -1.191e-010     1.9548e-009     9.915e-009     
  -0.2            -1.499e-009     9.384e-010      2.5299e-008    
  -0.25           -1.7809e-009    -1.3829e-009    7.884e-009     
  -0.3            -4.612e-010     -2.1867e-009    -1.0711e-008   
  -0.35           2.4472e-009     -5.428e-010     -1.8256e-008   
  -0.4            1.2091e-009     2.1587e-009     -3.91e-009     
  -0.45           -1.834e-010     1.9223e-009     1.0295e-008    
  -0.5            -2.63e-011      1.9999e-009     9.604e-009     
  -0.55           1.401e-010      2.093e-009      9.529e-009     
  -0.6            3.247e-010      2.1906e-009     1.0043e-008    
  -0.65           5.01e-010       2.2659e-009     1.0283e-008    
  -0.7            6.832e-010      2.2799e-009     1.0435e-008    
  -0.75           -1.3111e-009    1.1138e-009     1.0103e-008    
  -0.8            -2.684e-009     -2.0401e-009    7.81e-009      
  -0.85           2.2745e-009     -5.7383e-009    -1.9523e-008   
  -0.9            -1.4646e-009    -1.9774e-008    -1.2645e-008   
  -0.95           -1.3238e-009    -5.7133e-008    8.291e-009     
  -1              1.469e-009      -1.3315e-007    -2.39e-008     
  -1.05           3.271e-010      -2.5812e-007    9.441e-009     
  -1.1            7.607e-010      -4.3538e-007    1.0623e-008    
  -1.15           1.1277e-009     -6.5491e-007    9.916e-009     
  -1.2            1.5361e-009     -9.059e-007     1.2285e-008    
  -1.25           -1.3334e-009    -1.1733e-006    -1.0363e-008   
  -1.3            -1.2776e-009    -1.4615e-006    8.729e-009     
  -1.35           -2.2636e-009    -1.7579e-006    9.492e-009     
  -1.4            1.854e-010      -2.0691e-006    -1.3248e-008   
  -1.45           -1.821e-010     -2.3664e-006    -1.0495e-008   
  -1.5            2.4514e-009     -2.6609e-006    -2.6793e-008   
  -1.55           1.759e-009      -2.9494e-006    -4.085e-009    
  -1.6            1.2922e-009     -3.2358e-006    -9.116e-009    
  -1.65           2.8559e-009     -3.5128e-006    -9.566e-009    
  -1.7            2.6545e-009     -3.7778e-006    -1e-011        
  -1.75           5.863e-010      -4.0391e-006    9.987e-009     
  -1.8            9.776e-010      -4.2983e-006    1.0329e-008    
END_DB

BEGIN_DB
 ICCAP_VAR VS         0              
 ICCAP_VAR VB         0.9            
 ICCAP_VAR VD         -1.8           

 #VG              IG              ID              IB             
  0               -1.1976e-009    -1.0558e-009    1.2012e-008    
  -0.05           -3.509e-010     -2.1535e-009    -1.0401e-008   
  -0.1            2.577e-009      -4.466e-010     -1.6929e-008   
  -0.15           1.1304e-009     2.2286e-009     -2.906e-009    
  -0.2            1.2886e-009     2.0877e-009     1.2145e-008    
  -0.25           -1.168e-010     1.9618e-009     9.996e-009     
  -0.3            4.49e-011       2.0376e-009     9.613e-009     
  -0.35           2.289e-010      2.144e-009      9.769e-009     
  -0.4            4.115e-010      2.2284e-009     1.031e-008     
  -0.45           5.878e-010      2.3018e-009     1.0267e-008    
  -0.5            7.592e-010      2.3334e-009     1.0273e-008    
  -0.55           9.142e-010      2.325e-009      9.912e-009     
  -0.6            1.0604e-009     2.2689e-009     1.0428e-008    
  -0.65           1.2173e-009     2.1425e-009     1.1819e-008    
  -0.7            -1.825e-010     1.8757e-009     1.0186e-008    
  -0.75           -2.44e-011      1.7496e-009     9.81e-009      
  -0.8            -1.6286e-009    -4.028e-010     9.574e-009     
  -0.85           -1.4669e-009    -6.0582e-009    6.289e-009     
  -0.9            2.7036e-009     -2.218e-008     1.023e-008     
  -0.95           1.4858e-009     -6.9126e-008    1.0789e-008    
  -1              1.1453e-009     -1.7807e-007    -1.9461e-008   
  -1.05           1.5522e-009     -3.7756e-007    1.2284e-008    
  -1.1            1.9745e-009     -6.8523e-007    1.2558e-008    
  -1.15           8.294e-010      -1.12486e-006   1.0248e-008    
  -1.2            -1.3375e-009    -1.6951e-006    -1.0307e-008   
  -1.25           -1.282e-009     -2.4239e-006    8.623e-009     
  -1.3            -2.3099e-009    -3.3089e-006    9.444e-009     
  -1.35           2.02e-010       -4.3823e-006    -1.3411e-008   
  -1.4            1.4172e-009     -5.5756e-006    -2.2684e-008   
  -1.45           2.8424e-009     -6.9002e-006    -8.888e-009    
  -1.5            2.0586e-009     -8.3715e-006    1.2322e-008    
  -1.55           9.139e-010      -9.9694e-006    1.0388e-008    
  -1.6            1.4123e-009     -1.1715e-005    8.489e-009     
  -1.65           2.8452e-009     -1.3561e-005    -9.027e-009    
  -1.7            2.7859e-009     -1.5505e-005    5.98e-010      
  -1.75           1.3724e-009     -1.7597e-005    1.1012e-008    
  -1.8            1.7941e-009     -1.9753e-005    1.2861e-008    
END_DB

BEGIN_DB
 ICCAP_VAR VS         0              
 ICCAP_VAR VB         1.8            
 ICCAP_VAR VD         -0.1           

 #VG              IG              ID              IB             
  0               8.213e-010      8.284e-010      -1.2907e-008   
  -0.05           8.47e-010       2.3385e-009     -8.902e-009    
  -0.1            9.988e-010      2.3085e-009     9.826e-009     
  -0.15           -1.4838e-009    1.7981e-009     1.1369e-008    
  -0.2            -1.7923e-009    -1.3666e-009    7.965e-009     
  -0.25           -4.772e-010     -2.1945e-009    -1.0894e-008   
  -0.3            2.4575e-009     -5.547e-010     -1.8197e-008   
  -0.35           1.2238e-009     2.1709e-009     -4.286e-009    
  -0.4            -1.748e-010     1.9318e-009     9.974e-009     
  -0.45           -1.73e-011      2.0143e-009     9.534e-009     
  -0.5            1.469e-010      2.1063e-009     9.526e-009     
  -0.55           3.321e-010      2.2047e-009     1.0242e-008    
  -0.6            5.156e-010      2.2849e-009     1.0388e-008    
  -0.65           6.895e-010      2.3332e-009     1.0505e-008    
  -0.7            8.517e-010      2.3346e-009     1.0203e-008    
  -0.75           9.976e-010      2.3075e-009     9.79e-009      
  -0.8            -1.4814e-009    1.784e-009      1.1314e-008    
  -0.85           -1.7938e-009    -1.4153e-009    8.092e-009     
  -0.9            -4.754e-010     -2.4519e-009    -1.0909e-008   
  -0.95           2.4605e-009     -1.9786e-009    -1.8372e-008   
  -1              2.1559e-009     -5.9503e-009    -4.259e-009    
  -1.05           -2.5679e-009    -2.5453e-008    -2.6814e-008   
  -1.1            -2.0559e-009    -7.181e-008     6.49e-010      
  -1.15           1.0726e-009     -1.6205e-007    -1.9079e-008   
  -1.2            1.4696e-009     -3.1178e-007    1.1866e-008    
  -1.25           3.182e-010      -5.0724e-007    9.578e-009     
  -1.3            7.517e-010      -7.4963e-007    1.0713e-008    
  -1.35           1.1234e-009     -1.02089e-006   1.0174e-008    
  -1.4            -1.3163e-009    -1.3007e-006    -1.0796e-008   
  -1.45           -1.2705e-009    -1.5935e-006    8.142e-009     
  -1.5            -2.206e-009     -1.8897e-006    1.0679e-008    
  -1.55           1.361e-010      -2.1952e-006    -1.2126e-008   
  -1.6            -2.52e-010      -2.4823e-006    -1.0258e-008   
  -1.65           -7.333e-010     -2.7648e-006    -1.0775e-008   
  -1.7            1.6584e-009     -3.0452e-006    -1.8964e-008   
  -1.75           1.2521e-009     -3.3139e-006    -9.087e-009    
  -1.8            2.8663e-009     -3.5789e-006    -9.801e-009    
END_DB

BEGIN_DB
 ICCAP_VAR VS         0              
 ICCAP_VAR VB         1.8            
 ICCAP_VAR VD         -1.8           

 #VG              IG              ID              IB             
  0               -4.476e-010     -2.162e-010     -2.1603e-008   
  -0.05           1.6615e-009     -9.197e-010     -2.3589e-008   
  -0.1            7.627e-010      2.335e-009      -9.093e-009    
  -0.15           9.153e-010      2.3307e-009     1.0066e-008    
  -0.2            1.0615e-009     2.2823e-009     9.933e-009     
  -0.25           1.2202e-009     2.1682e-009     1.0617e-008    
  -0.3            -1.92e-010      1.9298e-009     1.0149e-008    
  -0.35           -3.26e-011      2.0079e-009     9.83e-009      
  -0.4            1.388e-010      2.0987e-009     9.672e-009     
  -0.45           3.219e-010      2.1956e-009     1.0253e-008    
  -0.5            5.002e-010      2.274e-009      1.0403e-008    
  -0.55           6.753e-010      2.3246e-009     1.0326e-008    
  -0.6            8.367e-010      2.3356e-009     1.0145e-008    
  -0.65           9.844e-010      2.3152e-009     9.897e-009     
  -0.7            1.134e-009      2.2345e-009     1.1102e-008    
  -0.75           1.294e-009      2.0867e-009     1.107e-008     
  -0.8            -1.159e-010     1.9593e-009     1.0013e-008    
  -0.85           -1.4803e-009    8.954e-010      2.5984e-008    
  -0.9            -2.6145e-009    -1.3476e-009    7.988e-009     
  -0.95           1.7041e-009     -3.2007e-009    -1.3994e-008   
  -1              1.455e-009      -7.2333e-009    -9.21e-009     
  -1.05           -2.507e-009     -3.0353e-008    -2.7424e-008   
  -1.1            -1.9464e-009    -9.0463e-008    1.25e-009      
  -1.15           6.782e-010      -2.182e-007     -1.5834e-008   
  -1.2            1.0595e-009     -4.5483e-007    1.0251e-008    
  -1.25           1.4568e-009     -8.2134e-007    1.0457e-008    
  -1.3            -2.311e-009     -1.3145e-006    -1.8133e-008   
  -1.35           1.6811e-009     -1.9858e-006    -1.9688e-008   
  -1.4            1.2642e-009     -2.8033e-006    -9.095e-009    
  -1.45           2.8615e-009     -3.7818e-006    -9.542e-009    
  -1.5            2.63e-009       -4.8972e-006    -1.57e-010     
  -1.55           1.9839e-009     -6.1767e-006    -2.521e-009    
  -1.6            1.387e-009      -7.5926e-006    -8.111e-009    
  -1.65           2.8479e-009     -9.1463e-006    -8.841e-009    
  -1.7            2.0689e-009     -1.08148e-005   1.2296e-008    
  -1.75           -9.187e-010     -1.2571e-005    1.957e-008     
  -1.8            1.3997e-009     -1.451e-005     -1.4204e-008   
END_DB

