! VERSION = 6.00
BEGIN_HEADER
 ICCAP_INPUTS
  VG         V  B GROUND SMU4 0.001 LIN        1    0          -1.8       37   -0.05     
  VS         V  E GROUND SMU3 0.1 CON        0
  VB         V  C GROUND SMU1 0.1 LIN        3    0          1.8        3    0.9       
  VD         V  S GROUND SMU2 0.1 LIN        2    -0.1       -1.8       2    -1.7      
 ICCAP_OUTPUTS
  IG         I  B GROUND SMU4 B
  ID         I  S GROUND SMU2 B
  IB         I  C GROUND SMU1 B
END_HEADER

BEGIN_DB
 ICCAP_VAR VS         0              
 ICCAP_VAR VB         0              
 ICCAP_VAR VD         -0.1           

 #VG              IG              ID              IB             
  0               -1.2712e-009    -2.588e-010     -1.0692e-008   
  -0.05           2.7209e-009     -1.059e-010     -1.1174e-008   
  -0.1            -1.6302e-009    2.9651e-009     1.2622e-008    
  -0.15           2.1009e-009     -2.8495e-009    -1.7975e-008   
  -0.2            -2.025e-009     8.153e-010      1.5191e-008    
  -0.25           2.3079e-009     -1.9956e-009    -1.7075e-008   
  -0.3            -1.815e-009     -3.9864e-009    1.6332e-008    
  -0.35           -2.4276e-009    -1.0546e-008    -3.11e-009     
  -0.4            -1.8791e-009    -2.4082e-008    1.336e-008     
  -0.45           2.7146e-009     -6.4898e-008    -1.504e-008    
  -0.5            -1.0239e-009    -1.4913e-007    1.3307e-008    
  -0.55           2.719e-009      -3.1437e-007    -8.171e-009    
  -0.6            -9.7e-011       -6.0468e-007    7.749e-009     
  -0.65           -2.2677e-009    -1.08918e-006   9.632e-009     
  -0.7            2.725e-009      -1.824e-006     9.287e-009     
  -0.75           -1.2885e-009    -2.7783e-006    1.0428e-008    
  -0.8            2.1584e-009     -4.0604e-006    -1.6721e-008   
  -0.85           -1.5128e-009    -5.5195e-006    1.7075e-008    
  -0.9            2.5036e-009     -7.3186e-006    -1.5617e-008   
  -0.95           -1.6882e-009    -9.1779e-006    1.4768e-008    
  -1              2.6175e-009     -1.12983e-005   -1.3169e-008   
  -1.05           9.87e-011       -1.3385e-005    -1.1013e-008   
  -1.1            -2.0005e-009    -1.5587e-005    1.2327e-008    
  -1.15           1.6088e-009     -1.7855e-005    -1.762e-008    
  -1.2            8.375e-010      -2.006e-005     8.89e-009      
  -1.25           -2.6036e-009    -2.2218e-005    6.618e-009     
  -1.3            2.6328e-009     -2.4433e-005    -1.2522e-008   
  -1.35           -1.9306e-009    -2.6446e-005    1.2828e-008    
  -1.4            2.7178e-009     -2.8483e-005    -1.5965e-008   
  -1.45           -5.43e-011      -3.0358e-005    7.591e-009     
  -1.5            -2.2163e-009    -3.2212e-005    1.019e-008     
  -1.55           1.6589e-009     -3.4011e-005    -1.6557e-008   
  -1.6            8.18e-010       -3.5647e-005    9.221e-009     
  -1.65           -2.6055e-009    -3.7223e-005    6.686e-009     
  -1.7            2.6472e-009     -3.8797e-005    -1.1788e-008   
  -1.75           -1.97e-009      -4.021e-005     1.2395e-008    
  -1.8            1.5731e-009     -4.1589e-005    -1.6734e-008   
END_DB

BEGIN_DB
 ICCAP_VAR VS         0              
 ICCAP_VAR VB         0              
 ICCAP_VAR VD         -1.8           

 #VG              IG              ID              IB             
  0               -2.421e-010     9.347e-010      1.3363e-008    
  -0.05           1.8941e-009     -3.2929e-009    -1.4747e-008   
  -0.1            -1.8437e-009    -2.66e-011      1.6236e-008    
  -0.15           2.113e-009      -4.9933e-009    -1.6548e-008   
  -0.2            -2.199e-009     -1.1187e-008    8.799e-009     
  -0.25           1.8608e-009     -3.0519e-008    -2.1571e-008   
  -0.3            7.272e-010      -6.7708e-008    9.178e-009     
  -0.35           6.371e-010      -1.6236e-007    -1.4378e-008   
  -0.4            -2.6154e-009    -3.5509e-007    5.63e-009      
  -0.45           2.7171e-009     -7.2075e-007    -1.5108e-008   
  -0.5            -2.5811e-009    -1.3312e-006    -1.7003e-008   
  -0.55           1.8295e-009     -2.3663e-006    -2.1138e-008   
  -0.6            7.41e-010       -3.9049e-006    9.178e-009     
  -0.65           -2.6124e-009    -6.1353e-006    6.408e-009     
  -0.7            2.6832e-009     -9.3335e-006    -1.2442e-008   
  -0.75           8.048e-010      -1.3342e-005    -1.6516e-008   
  -0.8            -2.6087e-009    -1.8368e-005    6.667e-009     
  -0.85           2.6544e-009     -2.4775e-005    -1.1963e-008   
  -0.9            -1.9522e-009    -3.1849e-005    1.245e-008     
  -0.95           2.7228e-009     -4.0488e-005    -1.6323e-008   
  -1              -6.31e-011      -4.9793e-005    7.708e-009     
  -1.05           -2.222e-009     -6.0333e-005    1.0207e-008    
  -1.1            1.8835e-009     -7.2174e-005    -2.1861e-008   
  -1.15           7.138e-010      -8.4586e-005    9.351e-009     
  -1.2            -2.6136e-009    -9.7814e-005    6.314e-009     
  -1.25           2.6939e-009     -0.000112433    -1.2917e-008   
  -1.3            3.017e-010      -0.00012706     1.2186e-008    
  -1.35           -1.6641e-009    -0.00014265     1.5112e-008    
  -1.4            2.6007e-009     -0.00015934     -1.3553e-008   
  -1.45           -1.836e-009     -0.00017572     1.3562e-008    
  -1.5            2.7101e-009     -0.00019337     -1.4356e-008   
  -1.55           1.4974e-009     -0.00021145     8.54e-009      
  -1.6            -1.4041e-009    -0.0002288      1.3949e-008    
  -1.65           2.3829e-009     -0.00024787     -1.6321e-008   
  -1.7            -1.5313e-009    -0.00026604     1.5883e-008    
  -1.75           2.5138e-009     -0.00028558     -1.5464e-008   
  -1.8            -1.6874e-009    -0.0003043      1.4732e-008    
END_DB

BEGIN_DB
 ICCAP_VAR VS         0              
 ICCAP_VAR VB         0.9            
 ICCAP_VAR VD         -0.1           

 #VG              IG              ID              IB             
  0               2.591e-010      -1.1162e-009    8.781e-009     
  -0.05           -1.8451e-009    2.7896e-009     1.6401e-008    
  -0.1            2.3062e-009     -2.6276e-009    -2.1854e-008   
  -0.15           -2.1952e-009    9.366e-010      1.3932e-008    
  -0.2            2.4535e-009     -9.511e-010     -1.7029e-008   
  -0.25           -2.3176e-009    7.812e-010      1.2221e-008    
  -0.3            2.561e-009      -8.036e-010     -1.6711e-008   
  -0.35           1.2962e-009     3.5129e-009     7.921e-009     
  -0.4            -2.6169e-009    -7.341e-010     6.671e-009     
  -0.45           2.3327e-009     -2.439e-009     -1.7047e-008   
  -0.5            -2.2128e-009    -4.1016e-009    1.3712e-008    
  -0.55           2.3363e-009     -1.5409e-008    8.765e-009     
  -0.6            -2.3546e-009    -5.3304e-008    9.188e-009     
  -0.65           2.0927e-009     -1.4311e-007    -2.1224e-008   
  -0.7            -1.2912e-009    -3.4593e-007    1.9187e-008    
  -0.75           2.1521e-009     -7.4856e-007    -1.6837e-008   
  -0.8            -2.4152e-009    -1.3864e-006    -2.0335e-008   
  -0.85           2.0183e-009     -2.3587e-006    -1.7078e-008   
  -0.9            6.573e-010      -3.6135e-006    9.554e-009     
  -0.95           -2.6153e-009    -5.183e-006     5.841e-009     
  -1              2.7062e-009     -7.0629e-006    -1.4614e-008   
  -1.05           1.4963e-009     -9.1363e-006    7.708e-009     
  -1.1            -1.3993e-009    -1.12245e-005   1.3854e-008    
  -1.15           -1.3329e-009    -1.348e-005     -7.187e-009    
  -1.2            2.2564e-009     -1.5848e-005    -1.6679e-008   
  -1.25           -1.5749e-009    -1.8067e-005    1.8847e-008    
  -1.3            2.552e-009      -2.0391e-005    -1.4894e-008   
  -1.35           -1.7374e-009    -2.2519e-005    1.434e-008     
  -1.4            2.6291e-009     -2.4686e-005    -1.267e-008    
  -1.45           -1.904e-009     -2.6657e-005    1.3069e-008    
  -1.5            2.7125e-009     -2.8628e-005    -1.5326e-008   
  -1.55           1.4637e-009     -3.051e-005     8.233e-009     
  -1.6            -1.4292e-009    -3.2189e-005    1.4712e-008    
  -1.65           2.4216e-009     -3.3941e-005    -1.6252e-008   
  -1.7            -1.5647e-009    -3.549e-005     1.5649e-008    
  -1.75           2.5348e-009     -3.7059e-005    -1.5159e-008   
  -1.8            -1.7146e-009    -3.8467e-005    1.4663e-008    
END_DB

BEGIN_DB
 ICCAP_VAR VS         0              
 ICCAP_VAR VB         0.9            
 ICCAP_VAR VD         -1.8           

 #VG              IG              ID              IB             
  0               -6.695e-010     2.957e-010      -7.004e-009    
  -0.05           2.581e-009      -7.53e-010      -1.652e-008    
  -0.1            1.281e-009      3.6208e-009     8.641e-009     
  -0.15           -2.6142e-009    -4.666e-010     6.668e-009     
  -0.2            2.3444e-009     -1.3204e-009    -1.6743e-008   
  -0.25           -2.2241e-009    -2.5e-012       1.3338e-008    
  -0.3            2.4735e-009     -3.982e-009     -1.6734e-008   
  -0.35           -1.2415e-009    -1.2523e-008    -1.6615e-008   
  -0.4            1.8572e-009     -3.3036e-008    -1.6882e-008   
  -0.45           7.301e-010      -8.9532e-008    9.222e-009     
  -0.5            5.514e-010      -2.3566e-007    -1.2239e-008   
  -0.55           -2.6011e-009    -5.4758e-007    4.764e-009     
  -0.6            -2.2606e-009    -1.1575e-006    -1.6317e-008   
  -0.65           2.4954e-009     -2.2502e-006    -1.5387e-008   
  -0.7            -1.6608e-009    -3.9262e-006    1.48e-008      
  -0.75           2.5911e-009     -6.5666e-006    -1.3498e-008   
  -0.8            -1.812e-009     -1.00168e-005   1.3408e-008    
  -0.85           -1.8827e-009    -1.4664e-005    -5.759e-009    
  -0.9            2.7246e-009     -2.0653e-005    -1.496e-008    
  -0.95           1.4678e-009     -2.7841e-005    8.46e-009      
  -1              -2.1255e-009    -3.5728e-005    1.0417e-008    
  -1.05           1.5469e-009     -4.5413e-005    -1.6653e-008   
  -1.1            8.822e-010      -5.5882e-005    8.608e-009     
  -1.15           -2.6038e-009    -6.7229e-005    6.877e-009     
  -1.2            2.5752e-009     -8.0205e-005    -1.3882e-008   
  -1.25           -1.7814e-009    -9.3261e-005    1.3784e-008    
  -1.3            2.6475e-009     -0.000108014    -1.1848e-008   
  -1.35           6.439e-010      -0.00012273     1.6657e-008    
  -1.4            -2.6157e-009    -0.00013825     5.845e-009     
  -1.45           2.7201e-009     -0.00015496     -1.4702e-008   
  -1.5            1.4811e-009     -0.00017212     8.427e-009     
  -1.55           -1.4117e-009    -0.00018874     1.416e-008     
  -1.6            2.3717e-009     -0.00020703     -1.6051e-008   
  -1.65           -1.5225e-009    -0.00022464     1.5882e-008    
  -1.7            2.5003e-009     -0.0002437      -1.5305e-008   
  -1.75           -1.6614e-009    -0.00026197     1.4711e-008    
  -1.8            2.596e-009      -0.00028157     -1.3634e-008   
END_DB

BEGIN_DB
 ICCAP_VAR VS         0              
 ICCAP_VAR VB         1.8            
 ICCAP_VAR VD         -0.1           

 #VG              IG              ID              IB             
  0               3.77e-011       -1.4693e-009    -1.7017e-008   
  -0.05           5.15e-010       4.2032e-009     9.351e-009     
  -0.1            2.7115e-009     -1.388e-010     -1.157e-008    
  -0.15           -1.5828e-009    3.0571e-009     1.16e-008      
  -0.2            1.9974e-009     -2.8209e-009    -1.6549e-008   
  -0.25           -1.9223e-009    1.1899e-009     1.608e-008     
  -0.3            2.17e-009       -1.2511e-009    -1.7152e-008   
  -0.35           -2.0695e-009    1.0468e-009     1.5195e-008    
  -0.4            2.3249e-009     -1.1809e-009    -1.7344e-008   
  -0.45           -2.196e-009     6.213e-010      1.3866e-008    
  -0.5            2.4478e-009     -2.1983e-009    -1.7077e-008   
  -0.55           -2.3117e-009    -4.097e-009     1.2538e-008    
  -0.6            1.8155e-009     -1.36e-008      6.265e-009     
  -0.65           -1.5435e-009    -5.5974e-008    1.577e-008     
  -0.7            7.114e-010      -1.5764e-007    -1.5463e-008   
  -0.75           -2.6186e-009    -3.9378e-007    6.325e-009     
  -0.8            2.6962e-009     -8.5049e-007    -1.2953e-008   
  -0.85           -1.9106e-009    -1.5685e-006    -1.1529e-008   
  -0.9            1.4151e-009     -2.6457e-006    -1.705e-008    
  -0.95           9.671e-010      -4.0299e-006    8.207e-009     
  -1              -2.5777e-009    -5.6908e-006    7.47e-009      
  -1.05           2.4625e-009     -7.695e-006     -1.5449e-008   
  -1.1            -1.6292e-009    -9.7648e-006    1.524e-008     
  -1.15           7.946e-010      -1.2027e-005    -1.6736e-008   
  -1.2            -2.6197e-009    -1.4287e-005    6.78e-009      
  -1.25           2.6408e-009     -1.6668e-005    -1.1746e-008   
  -1.3            -1.9211e-009    -1.8885e-005    1.2084e-008    
  -1.35           2.73e-009       -2.1155e-005    -1.6005e-008   
  -1.4            -4.18e-011      -2.3254e-005    7.868e-009     
  -1.45           -2.1672e-009    -2.5333e-005    1.009e-008     
  -1.5            1.5978e-009     -2.7355e-005    -1.6633e-008   
  -1.55           8.586e-010      -2.9222e-005    8.917e-009     
  -1.6            -2.6028e-009    -3.0983e-005    6.668e-009     
  -1.65           2.6057e-009     -3.2744e-005    -1.3296e-008   
  -1.7            -1.8254e-009    -3.4329e-005    1.3373e-008    
  -1.75           2.7178e-009     -3.5889e-005    -1.4221e-008   
  -1.8            1.4976e-009     -3.7398e-005    8.565e-009     
END_DB

BEGIN_DB
 ICCAP_VAR VS         0              
 ICCAP_VAR VB         1.8            
 ICCAP_VAR VD         -1.8           

 #VG              IG              ID              IB             
  0               -4.636e-010     6.549e-010      8.889e-009     
  -0.05           2.1203e-009     -1.2559e-009    -1.7184e-008   
  -0.1            -2.0166e-009    1.0496e-009     1.5058e-008    
  -0.15           2.2643e-009     -1.132e-009     -1.6871e-008   
  -0.2            -2.1476e-009    8.251e-010      1.3592e-008    
  -0.25           2.3968e-009     -1.302e-009     -1.6361e-008   
  -0.3            -8.21e-011      2.3735e-009     8.695e-009     
  -0.35           -2.582e-009     -4.5903e-009    8.567e-009     
  -0.4            -2.3865e-009    -1.742e-008     -2.2877e-008   
  -0.45           2.178e-009      -5.1177e-008    -2.3012e-008   
  -0.5            -1.0292e-009    -1.4102e-007    1.2948e-008    
  -0.55           2.7303e-009     -3.4847e-007    -8.912e-009    
  -0.6            -5.92e-011      -7.692e-007     7.851e-009     
  -0.65           -1.3592e-009    -1.5681e-006    -7.579e-009    
  -0.7            2.5198e-009     -2.9964e-006    -1.482e-008    
  -0.75           -1.7121e-009    -5.0867e-006    1.4382e-008    
  -0.8            2.6187e-009     -8.2721e-006    -1.288e-008    
  -0.85           7.11e-010       -1.2386e-005    -1.6539e-008   
  -0.9            -2.6168e-009    -1.7637e-005    6.365e-009     
  -0.95           2.6901e-009     -2.4368e-005    -1.2768e-008   
  -1              8.33e-011       -3.1983e-005    8.212e-009     
  -1.05           -1.9906e-009    -4.0882e-005    1.2004e-008    
  -1.1            1.5842e-009     -5.1248e-005    -1.6901e-008   
  -1.15           8.569e-010      -6.2371e-005    8.696e-009     
  -1.2            -2.5958e-009    -7.431e-005     6.697e-009     
  -1.25           2.5985e-009     -8.7906e-005    -1.3282e-008   
  -1.3            -1.823e-009     -0.000101461    1.3321e-008    
  -1.35           -3.468e-010     -0.00011639     -1.6398e-008   
  -1.4            1.7386e-009     -0.00013201     -1.655e-008    
  -1.45           7.786e-010      -0.00014791     8.939e-009     
  -1.5            -2.6119e-009    -0.00016428     6.716e-009     
  -1.55           2.6554e-009     -0.0001818      -1.1526e-008   
  -1.6            -1.9574e-009    -0.00019879     1.2182e-008    
  -1.65           1.545e-009      -0.00021715     -1.6189e-008   
  -1.7            8.783e-010      -0.00023538     8.549e-009     
  -1.75           -2.5962e-009    -0.00025367     6.765e-009     
  -1.8            2.5809e-009     -0.0002731      -1.381e-008    
END_DB

