! VERSION = 6.00
BEGIN_HEADER
 ICCAP_INPUTS
  VG         V  B GROUND SMU4 0.001 LIN        1    0          -1.8       37   -0.05     
  VS         V  E GROUND SMU2 0.1 CON        0
  VB         V  C GROUND SMU3 0.1 LIN        3    0          1.8        3    0.9       
  VD         V  S GROUND SMU1 0.1 LIN        2    -0.1       -1.8       2    -1.7      
 ICCAP_OUTPUTS
  IG         I  B GROUND SMU4 B
  ID         I  S GROUND SMU1 B
  IB         I  C GROUND SMU3 B
END_HEADER

BEGIN_DB
 ICCAP_VAR VS         0              
 ICCAP_VAR VB         0              
 ICCAP_VAR VD         -0.1           

 #VG              IG              ID              IB             
  0               -1.2e-012       2.487e-010      1.2977e-008    
  -0.05           2.3413e-009     -6.15e-010      -1.863e-008    
  -0.1            1.2785e-009     2.092e-009      -4.967e-009    
  -0.15           -1.175e-010     1.9439e-009     1.0118e-008    
  -0.2            6.4e-011        2.0251e-009     9.791e-009     
  -0.25           2.411e-010      2.1274e-009     1.0035e-008    
  -0.3            4.247e-010      2.2142e-009     1.055e-008     
  -0.35           6.042e-010      2.286e-009      1.0576e-008    
  -0.4            7.72e-010       2.3125e-009     1.0349e-008    
  -0.45           9.225e-010      2.2996e-009     9.915e-009     
  -0.5            1.0763e-009     2.2134e-009     1.0063e-008    
  -0.55           -1.597e-009     1.5381e-009     1.0685e-008    
  -0.6            -2.5039e-009    -1.638e-009     6.582e-009     
  -0.65           -3.348e-010     -4.36e-009      -1.054e-008    
  -0.7            -5.308e-010     -1.00366e-008   -1.0717e-008   
  -0.75           2.8257e-009     -2.3242e-008    2.5944e-008    
  -0.8            1.2478e-009     -6.1222e-008    1.0046e-008    
  -0.85           2.8424e-009     -1.3613e-007    -1.0482e-008   
  -0.9            2.6865e-009     -2.5372e-007    7.5e-011       
  -0.95           1.4947e-009     -4.165e-007     1.0907e-008    
  -1              3.663e-010      -6.1043e-007    9.805e-009     
  -1.05           7.856e-010      -8.4087e-007    1.0639e-008    
  -1.1            1.1539e-009     -1.09679e-006   9.846e-009     
  -1.15           -1.3305e-009    -1.3622e-006    -1.059e-008    
  -1.2            -1.2804e-009    -1.6442e-006    8.789e-009     
  -1.25           -2.2709e-009    -1.9339e-006    9.759e-009     
  -1.3            1.763e-010      -2.2394e-006    -1.2941e-008   
  -1.35           1.385e-009      -2.5316e-006    -2.2971e-008   
  -1.4            2.8348e-009     -2.8231e-006    -9.18e-009     
  -1.45           2.0857e-009     -3.109e-006     1.2397e-008    
  -1.5            9.377e-010      -3.3904e-006    1.0496e-008    
  -1.55           1.327e-009      -3.6688e-006    1.0084e-008    
  -1.6            1.756e-009      -3.9377e-006    1.2699e-008    
  -1.65           6.226e-010      -4.193e-006     1.0474e-008    
  -1.7            1.0025e-009     -4.4496e-006    1.0265e-008    
  -1.75           1.4014e-009     -4.6974e-006    1.0348e-008    
  -1.8            2.646e-010      -4.9309e-006    9.778e-009     
END_DB

BEGIN_DB
 ICCAP_VAR VS         0              
 ICCAP_VAR VB         0              
 ICCAP_VAR VD         -1.8           

 #VG              IG              ID              IB             
  0               -8.086e-010     -7.866e-010     -2.7295e-008   
  -0.05           -1.1338e-009    -2.1188e-009    8.795e-009     
  -0.1            1.3948e-009     -1.7305e-009    -1.1323e-008   
  -0.15           9.549e-010      2.3041e-009     -9.206e-009    
  -0.2            1.1033e-009     2.2343e-009     1.0163e-008    
  -0.25           1.2591e-009     2.1106e-009     1.1057e-008    
  -0.3            -1.361e-010     1.9342e-009     9.915e-009     
  -0.35           -1.5002e-009    9.232e-010      2.5342e-008    
  -0.4            -1.7723e-009    -1.3866e-009    7.838e-009     
  -0.45           1.9541e-009     -1.5762e-009    -1.72e-008     
  -0.5            5.924e-010      2.246e-009      -8.76e-009     
  -0.55           7.593e-010      2.1553e-009     1.0531e-008    
  -0.6            -1.2983e-009    7.566e-010      9.919e-009     
  -0.65           -1.2801e-009    -2.3884e-009    7.604e-009     
  -0.7            -2.5774e-009    -8.5516e-009    9.168e-009     
  -0.75           1.6891e-009     -2.8325e-008    1.1694e-008    
  -0.8            1.2595e-009     -7.3919e-008    -9.391e-009    
  -0.85           -1.1355e-009    -1.7097e-007    1.7032e-008    
  -0.9            4.51e-011       -3.4596e-007    -1.1378e-008   
  -0.95           1.272e-009      -6.1444e-007    -2.4928e-008   
  -1              2.8449e-009     -9.9685e-007    -9.591e-009    
  -1.05           1.3287e-009     -1.5092e-006    6.63e-009      
  -1.1            1.7523e-009     -2.1566e-006    1.2874e-008    
  -1.15           6.237e-010      -2.9239e-006    1.032e-008     
  -1.2            1.0031e-009     -3.8655e-006    1.0471e-008    
  -1.25           1.3962e-009     -4.9584e-006    1.0379e-008    
  -1.3            2.48e-010       -6.1383e-006    9.695e-009     
  -1.35           6.836e-010      -7.5086e-006    1.0499e-008    
  -1.4            1.0568e-009     -9.0264e-006    1.0265e-008    
  -1.45           1.4619e-009     -1.06791e-005   1.0634e-008    
  -1.5            -2.886e-010     -1.2398e-005    8.322e-009     
  -1.55           -7.612e-010     -1.4244e-005    -1.0823e-008   
  -1.6            1.6193e-009     -1.6249e-005    -1.8377e-008   
  -1.65           2.7563e-009     -1.8328e-005    -9.238e-009    
  -1.7            8.263e-010      -2.0485e-005    1.0694e-008    
  -1.75           1.1928e-009     -2.2793e-005    9.798e-009     
  -1.8            3.92e-011       -2.5075e-005    1.0157e-008    
END_DB

BEGIN_DB
 ICCAP_VAR VS         0              
 ICCAP_VAR VB         0.9            
 ICCAP_VAR VD         -0.1           

 #VG              IG              ID              IB             
  0               -1.2323e-009    -1.062e-009     -1.5229e-008   
  -0.05           -8.91e-011      -1.9995e-009    -1.0284e-008   
  -0.1            -2.758e-010     -2.1029e-009    -1.0429e-008   
  -0.15           -4.705e-010     -2.1615e-009    -1.0663e-008   
  -0.2            2.4479e-009     -1.3946e-009    -2.4337e-008   
  -0.25           1.2063e-009     2.1507e-009     -3.978e-009    
  -0.3            -1.835e-010     1.9146e-009     1.0311e-008    
  -0.35           -2.61e-011      1.9853e-009     9.918e-009     
  -0.4            -1.4327e-009    1.0024e-009     2.6829e-008    
  -0.45           -1.0029e-009    -2.1723e-009    8.52e-009      
  -0.5            1.5708e-009     -1.6545e-009    -1.2905e-008   
  -0.55           8.177e-010      2.3103e-009     -9.044e-009    
  -0.6            9.67e-010       2.2929e-009     9.854e-009     
  -0.65           1.1132e-009     2.2129e-009     1.1038e-008    
  -0.7            1.272e-009      2.0642e-009     1.2177e-008    
  -0.75           -1.4425e-009    1.7601e-009     1.2696e-008    
  -0.8            -1.822e-009     -1.5604e-009    8.497e-009     
  -0.85           -5.537e-010     -3.4155e-009    -1.0528e-008   
  -0.9            2.3263e-009     -6.2925e-009    -1.878e-008    
  -0.95           -2.6116e-009    -2.1629e-008    -2.5518e-008   
  -1              -2.1794e-009    -6.3484e-008    5.25e-010      
  -1.05           9.68e-010       -1.5072e-007    -1.7902e-008   
  -1.1            1.3533e-009     -2.9873e-007    1.1127e-008    
  -1.15           1.7771e-009     -4.967e-007     1.2913e-008    
  -1.2            6.502e-010      -7.3251e-007    1.0332e-008    
  -1.25           1.0222e-009     -1.00158e-006   1.0029e-008    
  -1.3            -1.3408e-009    -1.2802e-006    -1.0475e-008   
  -1.35           -1.2797e-009    -1.5734e-006    8.901e-009     
  -1.4            -2.3203e-009    -1.8677e-006    9.03e-009      
  -1.45           2.158e-010      -2.1735e-006    -1.3705e-008   
  -1.5            -1.51e-010      -2.463e-006     -1.0787e-008   
  -1.55           -6.224e-010     -2.7461e-006    -1.0591e-008   
  -1.6            1.8218e-009     -3.0262e-006    -2.1484e-008   
  -1.65           1.3142e-009     -3.2954e-006    -9.11e-009     
  -1.7            2.841e-009      -3.5595e-006    -9.474e-009    
  -1.75           2.6839e-009     -3.8127e-006    1.16e-010      
  -1.8            1.479e-009      -4.0642e-006    1.198e-008     
END_DB

BEGIN_DB
 ICCAP_VAR VS         0              
 ICCAP_VAR VB         0.9            
 ICCAP_VAR VD         -1.8           

 #VG              IG              ID              IB             
  0               3.863e-010      5.338e-010      1.9704e-008    
  -0.05           2.8273e-009     -1.317e-010     -1.444e-008    
  -0.1            1.0356e-009     2.2712e-009     1.0382e-008    
  -0.15           1.1963e-009     2.1658e-009     1.1792e-008    
  -0.2            -1.972e-010     1.9067e-009     1.0258e-008    
  -0.25           -1.5621e-009    8.761e-010      2.4457e-008    
  -0.3            -1.725e-009     -1.4527e-009    7.006e-009     
  -0.35           -3.738e-010     -2.1381e-009    -1.0715e-008   
  -0.4            2.5683e-009     -4.674e-010     -1.7079e-008   
  -0.45           1.1281e-009     2.2244e-009     -3.171e-009    
  -0.5            1.2906e-009     2.075e-009      1.2412e-008    
  -0.55           -1.4276e-009    1.8188e-009     1.296e-008     
  -0.6            -9.983e-010     -2.1799e-009    8.355e-009     
  -0.65           1.5673e-009     -1.6547e-009    -1.2908e-008   
  -0.7            8.139e-010      2.303e-009      -8.949e-009    
  -0.75           9.636e-010      2.2376e-009     9.839e-009     
  -0.8            -1.2751e-009    1.2833e-009     1.1139e-008    
  -0.85           -2.5214e-009    -2.26e-009      9.946e-009     
  -0.9            -2.3393e-009    -6.9141e-009    8.15e-010      
  -0.95           1.2401e-009     -2.2881e-008    1.0068e-008    
  -1              2.8357e-009     -7.4245e-008    -1.0083e-008   
  -1.05           1.039e-010      -1.9202e-007    7.234e-009     
  -1.1            -3.051e-010     -4.0256e-007    -1.0435e-008   
  -1.15           -7.704e-010     -7.3361e-007    -1.067e-008    
  -1.2            -1.3141e-009    -1.2008e-006    -1.0753e-008   
  -1.25           -2.6007e-009    -1.8197e-006    8.119e-009     
  -1.3            -2.1174e-009    -2.6022e-006    5.3e-010       
  -1.35           1.223e-009      -3.5584e-006    -2.6801e-008   
  -1.4            2.8267e-009     -4.6521e-006    -1.0531e-008   
  -1.45           1.2669e-009     -5.8925e-006    9.908e-009     
  -1.5            1.122e-010      -7.227e-006     1.0065e-008    
  -1.55           5.53e-010       -8.7433e-006    1.0184e-008    
  -1.6            9.424e-010      -1.04022e-005   1.0492e-008    
  -1.65           2.55e-011       -1.2177e-005    8.533e-009     
  -1.7            -4.16e-010      -1.4032e-005    -1.0107e-008   
  -1.75           2.1383e-009     -1.6014e-005    -2.5793e-008   
  -1.8            1.4637e-009     -1.8088e-005    -7.179e-009    
END_DB

BEGIN_DB
 ICCAP_VAR VS         0              
 ICCAP_VAR VB         1.8            
 ICCAP_VAR VD         -0.1           

 #VG              IG              ID              IB             
  0               -2.3539e-009    -2.1819e-009    1.592e-008     
  -0.05           -3.378e-010     -2.1344e-009    -1.0481e-008   
  -0.1            1.2174e-009     -1.3194e-009    -2.6474e-008   
  -0.15           1.2247e-009     2.1486e-009     -1.064e-008    
  -0.2            -1.653e-010     1.9167e-009     1.0065e-008    
  -0.25           -7.7e-012       1.9935e-009     9.632e-009     
  -0.3            1.616e-010      2.0939e-009     9.617e-009     
  -0.35           3.435e-010      2.1841e-009     1.027e-008     
  -0.4            5.229e-010      2.265e-009      1.0295e-008    
  -0.45           6.948e-010      2.3056e-009     1.0345e-008    
  -0.5            8.492e-010      2.3127e-009     1.0061e-008    
  -0.55           9.923e-010      2.2862e-009     1.0054e-008    
  -0.6            1.1457e-009     2.1996e-009     1.1501e-008    
  -0.65           1.3052e-009     2.0628e-009     1.2451e-008    
  -0.7            -1.4202e-009    1.8271e-009     1.271e-008     
  -0.75           -1.0076e-009    -2.172e-009     8.563e-009     
  -0.8            1.5523e-009     -1.6575e-009    -1.2754e-008   
  -0.85           8.238e-010      2.3069e-009     -9.035e-009    
  -0.9            9.734e-010      2.2454e-009     9.817e-009     
  -0.95           -1.5015e-009    1.4971e-009     1.1825e-008    
  -1              -2.578e-009     -2.4075e-009    7.805e-009     
  -1.05           -4.425e-010     -8.5699e-009    -1.0652e-008   
  -1.1            2.8393e-009     -2.4425e-008    2.4597e-008    
  -1.15           2.6081e-009     -7.7779e-008    -5.7e-011      
  -1.2            -7.975e-010     -1.8825e-007    9.424e-009     
  -1.25           1.5621e-009     -3.6108e-007    -1.7382e-008   
  -1.3            2.7752e-009     -5.8168e-007    -9.051e-009    
  -1.35           8.568e-010      -8.3923e-007    1.0713e-008    
  -1.4            1.2277e-009     -1.12446e-006   9.921e-009     
  -1.45           -1.316e-009     -1.4098e-006    -1.0704e-008   
  -1.5            -1.2732e-009    -1.7034e-006    8.34e-009      
  -1.55           -2.2073e-009    -1.9935e-006    1.0312e-008    
  -1.6            1.385e-010      -2.292e-006     -1.2278e-008   
  -1.65           1.3451e-009     -2.5695e-006    -2.3337e-008   
  -1.7            2.8418e-009     -2.8406e-006    -9.36e-009     
  -1.75           2.7362e-009     -3.1006e-006    2.89e-010      
  -1.8            1.4305e-009     -3.3617e-006    1.1673e-008    
END_DB

BEGIN_DB
 ICCAP_VAR VS         0              
 ICCAP_VAR VB         1.8            
 ICCAP_VAR VD         -1.8           

 #VG              IG              ID              IB             
  0               2.3367e-009     2.2686e-009     -1.3012e-008   
  -0.05           4.645e-010      2.2358e-009     1.0534e-008    
  -0.1            6.345e-010      2.2925e-009     1.0557e-008    
  -0.15           7.939e-010      2.3142e-009     1.0427e-008    
  -0.2            9.412e-010      2.3033e-009     9.819e-009     
  -0.25           1.0785e-009     2.2431e-009     1.0181e-008    
  -0.3            1.2394e-009     2.1305e-009     1.0894e-008    
  -0.35           -1.621e-010     1.9215e-009     1.0045e-008    
  -0.4            -1.5275e-009    9.044e-010      2.504e-008     
  -0.45           -1.7464e-009    -1.4246e-009    7.327e-009     
  -0.5            -3.98e-010      -2.1429e-009    -1.0766e-008   
  -0.55           2.556e-009      -4.761e-010     -1.7366e-008   
  -0.6            1.142e-009      2.2146e-009     -3.25e-009     
  -0.65           1.2954e-009     2.0747e-009     1.1342e-008    
  -0.7            -1.4227e-009    1.8161e-009     1.2715e-008    
  -0.75           -9.931e-010     -2.1785e-009    8.477e-009     
  -0.8            1.5825e-009     -1.648e-009     -1.3066e-008   
  -0.85           7.977e-010      2.3045e-009     -9.071e-009    
  -0.9            -1.2652e-009    1.5688e-009     1.5108e-008    
  -0.95           -2.4186e-009    -1.3693e-009    1.0642e-008    
  -1              -1.75e-010      -3.6587e-009    -1.0132e-008   
  -1.05           -3.975e-010     -9.6037e-009    -1.0669e-008   
  -1.1            2.7327e-009     -2.8943e-008    1.6366e-008    
  -1.15           7.826e-010      -9.3473e-008    1.03e-008      
  -1.2            2.8445e-009     -2.3948e-007    -1.0695e-008   
  -1.25           2.6305e-009     -4.9853e-007    -3.8e-011      
  -1.3            1.9973e-009     -8.9717e-007    -2.368e-009    
  -1.35           2.0149e-009     -1.4465e-006    7.909e-009     
  -1.4            8.718e-010      -2.1492e-006    1.058e-008     
  -1.45           1.2401e-009     -3.032e-006     9.854e-009     
  -1.5            8.12e-011       -4.0267e-006    1.0045e-008    
  -1.55           5.183e-010      -5.2029e-006    9.974e-009     
  -1.6            9.125e-010      -6.5358e-006    1.0492e-008    
  -1.65           1.2807e-009     -8.0179e-006    1.0055e-008    
  -1.7            1.328e-010      -9.5489e-006    9.997e-009     
  -1.75           5.656e-010      -1.12624e-005   1.0132e-008    
  -1.8            -1.2784e-009    -1.3048e-005    2.6436e-008    
END_DB

