! VERSION = 6.00
BEGIN_HEADER
 ICCAP_INPUTS
  VG         V  B GROUND SMU4 0.001 LIN        1    0          -1.8       37   -0.05     
  VS         V  E GROUND SMU2 0.1 CON        0
  VB         V  C GROUND SMU3 0.1 LIN        3    0          1.8        3    0.9       
  VD         V  S GROUND SMU1 0.1 LIN        2    -0.1       -1.8       2    -1.7      
 ICCAP_OUTPUTS
  IG         I  B GROUND SMU4 B
  ID         I  S GROUND SMU1 B
  IB         I  C GROUND SMU3 B
END_HEADER

BEGIN_DB
 ICCAP_VAR VS         0              
 ICCAP_VAR VB         0              
 ICCAP_VAR VD         -0.1           

 #VG              IG              ID              IB             
  0               -7.855e-010     1.695e-010      1.0439e-008    
  -0.05           -1.1641e-009    -2.0825e-009    8.809e-009     
  -0.1            1.3498e-009     -1.1095e-009    -2.65e-008     
  -0.15           1.0006e-009     2.2744e-009     -9.215e-009    
  -0.2            1.1522e-009     2.1791e-009     1.1401e-008    
  -0.25           -2.141e-010     1.8712e-009     1.0199e-008    
  -0.3            -4.81e-011      1.9494e-009     9.654e-009     
  -0.35           1.255e-010      2.0145e-009     9.688e-009     
  -0.4            3.244e-010      1.9961e-009     1.0335e-008    
  -0.45           -1.3705e-009    3.947e-010      1.0502e-008    
  -0.5            -1.3222e-009    -2.7192e-009    8.689e-009     
  -0.55           -1.2962e-009    -9.077e-009     8.594e-009     
  -0.6            2.8194e-009     -2.5445e-008    2.4835e-008    
  -0.65           2.5281e-009     -8.2671e-008    -2.56e-010     
  -0.7            -7.651e-010     -2.4105e-007    8.468e-009     
  -0.75           1.5855e-009     -6.7067e-007    -1.7927e-008   
  -0.8            -1.5017e-009    -1.4872e-006    -5.759e-009    
  -0.85           -1.3204e-009    -2.9451e-006    7.823e-009     
  -0.9            -1.2731e-009    -5.5668e-006    8.594e-009     
  -0.95           -2.2398e-009    -9.4959e-006    9.752e-009     
  -1              2.7059e-009     -1.4771e-005    -1.0568e-008   
  -1.05           7.852e-010      -2.1406e-005    1.0788e-008    
  -1.1            1.1529e-009     -2.925e-005     9.779e-009     
  -1.15           7.4e-012        -3.7501e-005    1.0159e-008    
  -1.2            4.646e-010      -4.6583e-005    9.859e-009     
  -1.25           8.758e-010      -5.5943e-005    1.0427e-008    
  -1.3            1.2566e-009     -6.539e-005     1.025e-008     
  -1.35           1.163e-010      -7.4159e-005    9.821e-009     
  -1.4            5.776e-010      -8.3201e-005    1.034e-008     
  -1.45           9.732e-010      -9.1901e-005    1.028e-008     
  -1.5            -1.849e-010     -9.9854e-005    1.1547e-008    
  -1.55           -1.3772e-009    -0.000107561    2.4478e-008    
  -1.6            -1.2756e-009    -0.00011509     7.942e-009     
  -1.65           -2.2756e-009    -0.00012211     9.325e-009     
  -1.7            1.796e-010      -0.00012911     -1.2849e-008   
  -1.75           1.3784e-009     -0.0001354      -2.2702e-008   
  -1.8            2.8124e-009     -0.00014147     -9.011e-009    
END_DB

BEGIN_DB
 ICCAP_VAR VS         0              
 ICCAP_VAR VB         0              
 ICCAP_VAR VD         -1.8           

 #VG              IG              ID              IB             
  0               -1.092e-009     -9.663e-010     -1.8048e-008   
  -0.05           -7.633e-010     -2.2052e-009    -1.0873e-008   
  -0.1            1.9899e-009     -1.545e-009     -1.7634e-008   
  -0.15           5.675e-010      2.2551e-009     -8.289e-009    
  -0.2            7.505e-010      2.2985e-009     1.0333e-008    
  -0.25           9.088e-010      2.2892e-009     9.842e-009     
  -0.3            -1.5362e-009    1.669e-009      1.2761e-008    
  -0.35           -1.7328e-009    -1.5783e-009    7.312e-009     
  -0.4            1.9906e-009     -2.2688e-009    -1.7547e-008   
  -0.45           1.6838e-009     -2.1565e-009    -8.182e-009    
  -0.5            1.4457e-009     -9.3093e-009    -9.331e-009    
  -0.55           -1.7445e-009    -2.9574e-008    -1.7913e-008   
  -0.6            -2.6684e-009    -8.9466e-008    -4.098e-009    
  -0.65           -1.7542e-009    -2.606e-007     1.0455e-008    
  -0.7            -2.6642e-009    -6.9197e-007    -4.933e-009    
  -0.75           -1.0173e-009    -1.7298e-006    -4.72e-009     
  -0.8            1.445e-010      -4.1039e-006    -1.2426e-008   
  -0.85           1.3464e-009     -8.1151e-006    -2.3866e-008   
  -0.9            1.438e-009      -1.4465e-005    -2.7212e-008   
  -0.95           3.172e-010      -2.4236e-005    9.901e-009     
  -1              7.551e-010      -3.8046e-005    1.079e-008     
  -1.05           1.1294e-009     -5.6788e-005    1.0059e-008    
  -1.1            1.5449e-009     -8.0254e-005    1.1417e-008    
  -1.15           1.9676e-009     -0.000107804    1.3051e-008    
  -1.2            2.1749e-009     -0.00014006     1.0493e-008    
  -1.25           1.0528e-009     -0.00017752     1.0345e-008    
  -1.3            1.4614e-009     -0.0002191      1.095e-008     
  -1.35           3.372e-010      -0.00026258     9.876e-009     
  -1.4            7.748e-010      -0.00031118     1.08e-008      
  -1.45           1.15e-009       -0.00036297     9.887e-009     
  -1.5            2e-012          -0.00041595     1.0398e-008    
  -1.55           4.542e-010      -0.00047257     9.957e-009     
  -1.6            8.704e-010      -0.00053143     1.0591e-008    
  -1.65           1.2458e-009     -0.00059291     9.868e-009     
  -1.7            1.103e-010      -0.00065355     1.0164e-008    
  -1.75           5.662e-010      -0.00071741     1.0329e-008    
  -1.8            9.59e-010       -0.00078284     1.046e-008     
END_DB

BEGIN_DB
 ICCAP_VAR VS         0              
 ICCAP_VAR VB         0.9            
 ICCAP_VAR VD         -0.1           

 #VG              IG              ID              IB             
  0               -1.1216e-009    -1.001e-009     -1.7702e-008   
  -0.05           1.509e-009      -1.6586e-009    -1.2201e-008   
  -0.1            8.711e-010      2.3031e-009     -8.883e-009    
  -0.15           1.0208e-009     2.2686e-009     1.0174e-008    
  -0.2            1.1824e-009     2.1638e-009     1.1648e-008    
  -0.25           -1.928e-010     1.8914e-009     1.0111e-008    
  -0.3            -2.51e-011      1.9714e-009     9.804e-009     
  -0.35           1.655e-010      2.0691e-009     9.855e-009     
  -0.4            3.575e-010      2.1692e-009     1.0473e-008    
  -0.45           5.561e-010      2.249e-009      1.0476e-008    
  -0.5            7.392e-010      2.2898e-009     1.0232e-008    
  -0.55           9.008e-010      2.278e-009      9.95e-009      
  -0.6            -1.2808e-009    1.4107e-009     9.889e-009     
  -0.65           -2.3151e-009    -1.5072e-009    9.22e-009      
  -0.7            2.2128e-009     -3.7354e-009    -2.0991e-008   
  -0.75           1.8766e-009     -8.7992e-009    -6.581e-009    
  -0.8            -1.4338e-009    -3.3315e-008    -1.2287e-008   
  -0.85           -1.4824e-009    -1.2344e-007    -7.402e-009    
  -0.9            -1.3217e-009    -3.4008e-007    8.02e-009      
  -0.95           -1.273e-009     -9.266e-007     8.477e-009     
  -1              -2.3937e-009    -2.0758e-006    -1.9966e-008   
  -1.05           -7.307e-010     -4.3805e-006    -1.0916e-008   
  -1.1            1.641e-009      -8.1847e-006    -1.8675e-008   
  -1.15           -1.5588e-009    -1.3161e-005    -8.881e-009    
  -1.2            -1.3365e-009    -1.9613e-005    7.328e-009     
  -1.25           -1.281e-009     -2.7294e-005    8.897e-009     
  -1.3            -2.3255e-009    -3.5791e-005    8.873e-009     
  -1.35           2.036e-010      -4.5058e-005    -1.3311e-008   
  -1.4            1.4048e-009     -5.4146e-005    -2.2348e-008   
  -1.45           2.8105e-009     -6.3239e-005    -9.238e-009    
  -1.5            2.7564e-009     -7.2044e-005    3.8e-010       
  -1.55           1.3997e-009     -8.0651e-005    1.1434e-008    
  -1.6            2.786e-010      -8.8422e-005    9.769e-009     
  -1.65           7.218e-010      -9.6208e-005    1.051e-008     
  -1.7            1.095e-009      -0.00010362     1.0038e-008    
  -1.75           1.513e-009      -0.000110595    1.109e-008     
  -1.8            2.7228e-009     -0.00011699     1.2085e-008    
END_DB

BEGIN_DB
 ICCAP_VAR VS         0              
 ICCAP_VAR VB         0.9            
 ICCAP_VAR VD         -1.8           

 #VG              IG              ID              IB             
  0               -1.3843e-009    -1.4667e-009    -7.393e-009    
  -0.05           2.3035e-009     -1.4511e-009    -2.257e-008    
  -0.1            1.3025e-009     2.0587e-009     -5.563e-009    
  -0.15           -1.4046e-009    1.8238e-009     1.2873e-008    
  -0.2            -1.0414e-009    -2.1589e-009    8.527e-009     
  -0.25           1.4861e-009     -1.6713e-009    -1.2036e-008   
  -0.3            8.847e-010      2.3084e-009     -8.847e-009    
  -0.35           1.0377e-009     2.2636e-009     1.0321e-008    
  -0.4            1.1984e-009     2.1477e-009     1.1745e-008    
  -0.45           -1.781e-010     1.8938e-009     1.0136e-008    
  -0.5            -8.2e-012       1.9564e-009     9.893e-009     
  -0.55           1.784e-010      1.9631e-009     9.922e-009     
  -0.6            3.693e-010      1.6501e-009     1.0483e-008    
  -0.65           -2.5389e-009    -2.4379e-009    1.0374e-008    
  -0.7            -2.1537e-009    -1.0604e-008    -1.2879e-008   
  -0.75           -2.203e-010     -4.3252e-008    -1.0469e-008   
  -0.8            -2.6747e-009    -1.311e-007     9.867e-009     
  -0.85           2.4901e-009     -4.8162e-007    -2.7549e-008   
  -0.9            -1.3082e-009    -1.2253e-006    -1.0746e-008   
  -0.95           -2.5673e-009    -3.092e-006     7.995e-009     
  -1              -2.029e-009     -6.5076e-006    8.14e-010      
  -1.05           2.7773e-009     -1.2853e-005    -1.0726e-008   
  -1.1            1.9605e-009     -2.2966e-005    1.2596e-008    
  -1.15           8.459e-010      -3.7162e-005    1.0454e-008    
  -1.2            1.2136e-009     -5.6586e-005    1.0139e-008    
  -1.25           7.62e-011       -8.012e-005     1.0153e-008    
  -1.3            5.447e-010      -0.000108836    1.0244e-008    
  -1.35           8.846e-010      -0.00014256     2.5061e-008    
  -1.4            1.2606e-009     -0.00018112     1.0052e-008    
  -1.45           1.6875e-009     -0.00022317     1.244e-008     
  -1.5            5.887e-010      -0.00026683     1.0399e-008    
  -1.55           9.808e-010      -0.0003158      1.0492e-008    
  -1.6            1.3682e-009     -0.00036804     1.141e-008     
  -1.65           1.8042e-009     -0.00042164     1.3074e-008    
  -1.7            6.956e-010      -0.00047663     1.0503e-008    
  -1.75           1.0698e-009     -0.00053533     9.938e-009     
  -1.8            1.481e-009      -0.0005963      1.216e-008     
END_DB

BEGIN_DB
 ICCAP_VAR VS         0              
 ICCAP_VAR VB         1.8            
 ICCAP_VAR VD         -0.1           

 #VG              IG              ID              IB             
  0               1.6939e-009     -1.286e-010     -2.2829e-008   
  -0.05           8.523e-010      2.3087e-009     1.0087e-008    
  -0.1            1.0067e-009     2.2774e-009     1.0089e-008    
  -0.15           1.1646e-009     2.1796e-009     1.1567e-008    
  -0.2            -2.097e-010     1.8821e-009     1.0183e-008    
  -0.25           -1.5529e-009    8.684e-010      2.4306e-008    
  -0.3            -1.725e-009     -1.4344e-009    7.116e-009     
  -0.35           -3.912e-010     -2.1399e-009    -1.0702e-008   
  -0.4            2.5168e-009     -1.3533e-009    -2.5631e-008   
  -0.45           1.1649e-009     2.1904e-009     -3.575e-009    
  -0.5            -2.089e-010     1.8827e-009     1.0147e-008    
  -0.55           -3.92e-011      1.9647e-009     9.826e-009     
  -0.6            1.42e-010       2.0593e-009     9.77e-009      
  -0.65           3.307e-010      2.1536e-009     1.0336e-008    
  -0.7            5.353e-010      2.2059e-009     1.0749e-008    
  -0.75           7.151e-010      2.0844e-009     1.0524e-008    
  -0.8            -1.3027e-009    1.697e-010      1.0115e-008    
  -0.85           -1.284e-009     -5.4631e-009    7.633e-009     
  -0.9            -1.314e-009     -2.2512e-008    -1.0394e-008   
  -0.95           -2.6111e-009    -8.4585e-008    8.299e-009     
  -1              3.759e-010      -2.5255e-007    -1.0957e-008   
  -1.05           8.111e-010      -7.1451e-007    1.0376e-008    
  -1.1            -2.2452e-009    -1.7284e-006    -1.7361e-008   
  -1.15           1.715e-009      -3.9464e-006    -1.9276e-008   
  -1.2            1.265e-009      -7.2179e-006    -9.251e-009    
  -1.25           -1.5388e-009    -1.1941e-005    1.2955e-008    
  -1.3            -1.3358e-009    -1.828e-005     7.305e-009     
  -1.35           -1.2815e-009    -2.5774e-005    8.763e-009     
  -1.4            -2.325e-009     -3.4079e-005    8.782e-009     
  -1.45           2.012e-010      -4.3135e-005    -1.3331e-008   
  -1.5            1.4046e-009     -5.2003e-005    -2.2269e-008   
  -1.55           2.8162e-009     -6.0824e-005    -9.014e-009    
  -1.6            2.7659e-009     -6.9317e-005    4.51e-010      
  -1.65           1.3862e-009     -7.7635e-005    1.1087e-008    
  -1.7            2.55e-010       -8.5086e-005    9.725e-009     
  -1.75           7.086e-010      -9.2579e-005    1.0479e-008    
  -1.8            1.0807e-009     -9.9662e-005    1.0106e-008    
END_DB

BEGIN_DB
 ICCAP_VAR VS         0              
 ICCAP_VAR VB         1.8            
 ICCAP_VAR VD         -1.8           

 #VG              IG              ID              IB             
  0               -1.2915e-009    -1.1715e-009    1.0588e-008    
  -0.05           -6.818e-010     -2.2071e-009    -1.1132e-008   
  -0.1            2.1336e-009     -1.501e-009     -1.9666e-008   
  -0.15           4.799e-010      2.2229e-009     -7.002e-009    
  -0.2            6.737e-010      2.2902e-009     1.0846e-008    
  -0.25           8.37e-010       2.2981e-009     1.0098e-008    
  -0.3            9.914e-010      2.2754e-009     1.001e-008     
  -0.35           -1.4554e-009    1.7767e-009     1.1314e-008    
  -0.4            -1.7848e-009    -1.3269e-009    8.236e-009     
  -0.45           -5.348e-010     -2.1763e-009    -1.0832e-008   
  -0.5            2.3458e-009     -6.149e-010     -1.8409e-008   
  -0.55           1.2749e-009     2.0795e-009     -5.152e-009    
  -0.6            -1.4183e-009    1.7929e-009     1.2683e-008    
  -0.65           -1.817e-009     -1.3451e-009    8.696e-009     
  -0.7            1.7035e-009     -1.9991e-009    -1.4123e-008   
  -0.75           1.45e-009       -1.6325e-009    -9.013e-009    
  -0.8            1.3005e-009     -9.01e-009      -8.807e-009    
  -0.85           -2.6307e-009    -3.3441e-008    -1.8468e-008   
  -0.9            -1.4314e-009    -1.4534e-007    -8.287e-009    
  -0.95           -1.3128e-009    -4.2992e-007    8.494e-009     
  -1              2.4266e-009     -1.3368e-006    1.1128e-008    
  -1.05           1.694e-009      -3.1063e-006    -4.388e-009    
  -1.1            1.2674e-009     -6.9826e-006    -8.902e-009    
  -1.15           1.7961e-009     -1.367e-005     -2.181e-008    
  -1.2            6.809e-010      -2.3921e-005    1.0822e-008    
  -1.25           1.0584e-009     -3.8958e-005    1.0332e-008    
  -1.3            1.4706e-009     -5.9027e-005    1.0819e-008    
  -1.35           3.402e-010      -8.3055e-005    9.862e-009     
  -1.4            7.826e-010      -0.000112607    1.0958e-008    
  -1.45           2.4919e-009     -0.00014653     1.0203e-008    
  -1.5            1.5054e-009     -0.000186       1.095e-008     
  -1.55           1.9322e-009     -0.00022721     1.2988e-008    
  -1.6            8.117e-010      -0.00027218     1.0887e-008    
  -1.65           1.1846e-009     -0.00032136     9.835e-009     
  -1.7            3.95e-011       -0.00037134     1.011e-008     
  -1.75           4.903e-010      -0.00042488     1.0091e-008    
  -1.8            9.012e-010      -0.00048095     1.0729e-008    
END_DB

