! VERSION = 6.00
BEGIN_HEADER
 ICCAP_INPUTS
  VG         V  B GROUND SMU4 0.001 LIN        1    0          -1.8       37   -0.05     
  VS         V  E GROUND SMU2 0.1 CON        0
  VB         V  C GROUND SMU3 0.1 LIN        3    0          1.8        3    0.9       
  VD         V  S GROUND SMU1 0.1 LIN        2    -0.1       -1.8       2    -1.7      
 ICCAP_OUTPUTS
  IG         I  B GROUND SMU4 B
  ID         I  S GROUND SMU1 B
  IB         I  C GROUND SMU3 B
END_HEADER

BEGIN_DB
 ICCAP_VAR VS         0              
 ICCAP_VAR VB         0              
 ICCAP_VAR VD         -0.1           

 #VG              IG              ID              IB             
  0               2.5065e-009     2.3292e-009     -1.5086e-008   
  -0.05           3.529e-010      2.2028e-009     1.0133e-008    
  -0.1            5.356e-010      2.2863e-009     1.0723e-008    
  -0.15           7.078e-010      2.3326e-009     1.0626e-008    
  -0.2            8.696e-010      2.3237e-009     1.0465e-008    
  -0.25           -1.2784e-009    1.4429e-009     1.0482e-008    
  -0.3            -2.2807e-009    -1.3034e-009    8.263e-009     
  -0.35           -9.66e-011      -2.7325e-009    -1.0077e-008   
  -0.4            -2.912e-010     -4.4693e-009    -1.0053e-008   
  -0.45           -4.808e-010     -9.4651e-009    -1.0445e-008   
  -0.5            2.8699e-009     -2.0548e-008    2.5733e-008    
  -0.55           2.5683e-009     -5.9605e-008    -3.66e-010     
  -0.6            -8.504e-010     -1.6235e-007    9.699e-009     
  -0.65           1.4833e-009     -4.1949e-007    -1.5463e-008   
  -0.7            2.825e-009      -9.9324e-007    -8.867e-009    
  -0.75           1.4552e-009     -2.2e-006       8.04e-009      
  -0.8            3.241e-010      -4.3168e-006    9.661e-009     
  -0.85           7.488e-010      -7.9259e-006    1.0344e-008    
  -0.9            -2.6966e-009    -1.3156e-005    1.0329e-008    
  -0.95           -3.629e-010     -2.0218e-005    -1.0076e-008   
  -1              -8.066e-010     -2.8603e-005    -1.0578e-008   
  -1.05           1.5463e-009     -3.8471e-005    -1.688e-008    
  -1.1            1.2228e-009     -4.9038e-005    -9.059e-009    
  -1.15           2.8502e-009     -6.0155e-005    -1.0442e-008   
  -1.2            1.253e-009      -7.1539e-005    1.0142e-008    
  -1.25           1.216e-010      -8.2406e-005    9.863e-009     
  -1.3            5.567e-010      -9.3593e-005    9.764e-009     
  -1.35           9.482e-010      -0.000104498    1.059e-008     
  -1.4            -6.268e-010     -0.00011474     1.1251e-008    
  -1.45           1.8148e-009     -0.00012462     -1.947e-008    
  -1.5            1.3004e-009     -0.00013398     -9.192e-009    
  -1.55           2.8805e-009     -0.00014285     -9.441e-009    
  -1.6            2.6902e-009     -0.00015114     1.07e-010      
  -1.65           1.5055e-009     -0.00015927     1.2561e-008    
  -1.7            3.757e-010      -0.00016648     9.558e-009     
  -1.75           7.915e-010      -0.00017365     1.0395e-008    
  -1.8            1.1668e-009     -0.00018047     1.0193e-008    
END_DB

BEGIN_DB
 ICCAP_VAR VS         0              
 ICCAP_VAR VB         0              
 ICCAP_VAR VD         -1.8           

 #VG              IG              ID              IB             
  0               -1.1071e-009    -9.783e-010     -2.0625e-008   
  -0.05           -1.0162e-009    -2.2103e-009    -5.229e-009    
  -0.1            1.5368e-009     -1.6833e-009    -1.2283e-008   
  -0.15           8.354e-010      2.2934e-009     -9.006e-009    
  -0.2            -1.2815e-009    1.306e-009      1.0133e-008    
  -0.25           -2.2531e-009    -1.6787e-009    7.856e-009     
  -0.3            2.1543e-009     -2.8066e-009    -2.0297e-008   
  -0.35           1.8216e-009     -6.1746e-009    -7.158e-009    
  -0.4            -2.3564e-009    -2.1241e-008    -1.0702e-008   
  -0.45           2.152e-010      -6.5147e-008    -1.3531e-008   
  -0.5            1.186e-009      -1.7609e-007    -2.0383e-008   
  -0.55           5.37e-011       -4.5524e-007    1.0042e-008    
  -0.6            -1.4702e-009    -1.1154e-006    -5.231e-009    
  -0.65           -1.3111e-009    -2.514e-006     8.282e-009     
  -0.7            -1.2702e-009    -5.2829e-006    8.64e-009      
  -0.75           -2.2298e-009    -1.02716e-005   9.786e-009     
  -0.8            2.4934e-009     -1.8542e-005    -1.013e-008    
  -0.85           1.4703e-009     -3.1433e-005    1.2564e-008    
  -0.9            3.389e-010      -4.8302e-005    9.725e-009     
  -0.95           7.619e-010      -7.1669e-005    1.0525e-008    
  -1              1.138e-009      -0.000101213    1.055e-008     
  -1.05           2.7284e-009     -0.00013555     1.0953e-008    
  -1.1            1.8013e-009     -0.00017718     1.3692e-008    
  -1.15           6.672e-010      -0.00022204     1.0637e-008    
  -1.2            1.0499e-009     -0.00027384     1.0752e-008    
  -1.25           1.4591e-009     -0.00033005     1.1352e-008    
  -1.3            3.319e-010      -0.00038723     9.686e-009     
  -1.35           7.504e-010      -0.00045081     1.0501e-008    
  -1.4            1.1267e-009     -0.00051796     1.0492e-008    
  -1.45           1.5539e-009     -0.00058741     1.3091e-008    
  -1.5            1.9831e-009     -0.00065769     1.3208e-008    
  -1.55           8.36e-010       -0.00073        1.048e-008     
  -1.6            1.2139e-009     -0.00080619     1.0483e-008    
  -1.65           8.05e-011       -0.00087999     1.0115e-008    
  -1.7            5.168e-010      -0.00095819     9.75e-009      
  -1.75           9.192e-010      -0.0010383      1.0673e-008    
  -1.8            1.2976e-009     -0.00111962     1.0336e-008    
END_DB

BEGIN_DB
 ICCAP_VAR VS         0              
 ICCAP_VAR VB         0.9            
 ICCAP_VAR VD         -0.1           

 #VG              IG              ID              IB             
  0               -1.279e-009     -1.1235e-009    -9.491e-009    
  -0.05           -7.276e-010     -2.2546e-009    -1.0892e-008   
  -0.1            2.0639e-009     -1.5499e-009    -1.8829e-008   
  -0.15           5.242e-010      2.2809e-009     -7.756e-009    
  -0.2            6.973e-010      2.3383e-009     1.0361e-008    
  -0.25           8.616e-010      2.3425e-009     1.0389e-008    
  -0.3            1.016e-009      2.2945e-009     1.0491e-008    
  -0.35           1.173e-009      2.1826e-009     1.2094e-008    
  -0.4            -1.992e-010     1.8942e-009     1.0182e-008    
  -0.45           -2.65e-011      1.9306e-009     9.657e-009     
  -0.5            1.432e-010      1.8245e-009     9.611e-009     
  -0.55           -1.4572e-009    -7.6e-011       9.94e-009      
  -0.6            -1.3649e-009    -4.1134e-009    8.399e-009     
  -0.65           -2.1044e-009    -1.4555e-008    -1.1637e-008   
  -0.7            -1.554e-010     -4.5946e-008    -1.0538e-008   
  -0.75           -2.628e-009     -1.3138e-007    1.0068e-008    
  -0.8            2.105e-010      -3.7403e-007    -1.3499e-008   
  -0.85           1.4225e-009     -9.5631e-007    -2.2568e-008   
  -0.9            2.7852e-009     -2.1916e-006    2.512e-008     
  -0.95           8.196e-010      -4.6074e-006    1.0365e-008    
  -1              1.1955e-009     -8.7097e-006    1.0296e-008    
  -1.05           -2.1952e-009    -1.4448e-005    1.2775e-008    
  -1.1            1.243e-010      -2.2404e-005    -1.2081e-008   
  -1.15           1.3377e-009     -3.1674e-005    -2.4631e-008   
  -1.2            2.8776e-009     -4.2053e-005    -9.291e-009    
  -1.25           2.7248e-009     -5.2976e-005    3.02e-010      
  -1.3            1.4681e-009     -6.453e-005     1.2363e-008    
  -1.35           3.365e-010      -7.5338e-005    9.624e-009     
  -1.4            7.586e-010      -8.6445e-005    1.0345e-008    
  -1.45           1.1359e-009     -9.7184e-005    1.0325e-008    
  -1.5            1.5498e-009     -0.000107322    1.2912e-008    
  -1.55           2.731e-009      -0.00011663     1.2735e-008    
  -1.6            1.4604e-009     -0.00012595     1.2391e-008    
  -1.65           3.312e-010      -0.00013418     9.541e-009     
  -1.7            7.538e-010      -0.00014236     1.0375e-008    
  -1.75           1.1304e-009     -0.00015014     1.0306e-008    
  -1.8            1.5438e-009     -0.00015743     1.296e-008     
END_DB

BEGIN_DB
 ICCAP_VAR VS         0              
 ICCAP_VAR VB         0.9            
 ICCAP_VAR VD         -1.8           

 #VG              IG              ID              IB             
  0               1.1256e-009     1.0073e-009     7.528e-009     
  -0.05           1.0101e-009     2.3011e-009     1.0431e-008    
  -0.1            1.1654e-009     2.1955e-009     1.2063e-008    
  -0.15           1.3378e-009     2.0253e-009     1.3155e-008    
  -0.2            -1.3906e-009    1.8523e-009     1.3363e-008    
  -0.25           -1.8573e-009    -1.2547e-009    8.728e-009     
  -0.3            1.6603e-009     -1.6544e-009    -1.3619e-008   
  -0.35           7.539e-010      2.2697e-009     -9.309e-009    
  -0.4            -1.2937e-009    1.1033e-009     1.0356e-008    
  -0.45           -2.6883e-009    -2.1233e-009    7.612e-009     
  -0.5            2.1143e-009     -5.5109e-009    -2.0202e-008   
  -0.55           -2.6318e-009    -1.8106e-008    -2.6663e-008   
  -0.6            -2.1437e-009    -5.9151e-008    6.03e-010      
  -0.65           2.8033e-009     -1.8418e-007    -1.0183e-008   
  -0.7            8.637e-010      -5.3372e-007    1.0367e-008    
  -0.75           -2.7451e-009    -1.3921e-006    -2.7291e-008   
  -0.8            2.2859e-009     -3.3803e-006    -2.6719e-008   
  -0.85           1.5693e-009     -7.2624e-006    -5.816e-009    
  -0.9            -2.7453e-009    -1.4114e-005    1.0514e-008    
  -0.95           2.1127e-009     -2.5566e-005    -1.7789e-008   
  -1              1.4407e-009     -4.2067e-005    -7.225e-009    
  -1.05           1.2058e-009     -6.471e-005     -8.816e-009    
  -1.1            2.8312e-009     -9.3671e-005    -1.1158e-008   
  -1.15           2.7995e-009     -0.00012812     1.0591e-008    
  -1.2            8.516e-010      -0.00016906     1.0589e-008    
  -1.25           1.2272e-009     -0.00021615     1.0566e-008    
  -1.3            9.02e-011       -0.00026578     1.0235e-008    
  -1.35           5.243e-010      -0.00032156     1.003e-008     
  -1.4            9.214e-010      -0.00038172     1.0817e-008    
  -1.45           1.2959e-009     -0.00044575     1.0385e-008    
  -1.5            1.7297e-009     -0.00051153     1.3309e-008    
  -1.55           5.975e-010      -0.00057778     1.0153e-008    
  -1.6            9.824e-010      -0.00064931     1.0603e-008    
  -1.65           1.3801e-009     -0.00072304     1.1802e-008    
  -1.7            1.8085e-009     -0.00079715     1.3487e-008    
  -1.75           6.715e-010      -0.00087112     1.0353e-008    
  -1.8            1.046e-009      -0.00094917     1.0362e-008    
END_DB

BEGIN_DB
 ICCAP_VAR VS         0              
 ICCAP_VAR VB         1.8            
 ICCAP_VAR VD         -0.1           

 #VG              IG              ID              IB             
  0               -2.4044e-009    -2.2326e-009    6.57e-010      
  -0.05           2.1506e-009     -1.5303e-009    -2.0115e-008   
  -0.1            4.69e-010       2.2546e-009     -7.073e-009    
  -0.15           6.435e-010      2.3237e-009     1.0772e-008    
  -0.2            8.06e-010       2.3447e-009     1.0542e-008    
  -0.25           9.583e-010      2.3228e-009     1.0214e-008    
  -0.3            1.1102e-009     2.2449e-009     1.1562e-008    
  -0.35           1.2714e-009     2.1029e-009     1.2736e-008    
  -0.4            -1.4226e-009    1.8169e-009     1.3369e-008    
  -0.45           -1.8295e-009    -1.3057e-009    8.686e-009     
  -0.5            1.7773e-009     -1.6394e-009    -1.4806e-008   
  -0.55           6.831e-010      2.2166e-009     -9.273e-009    
  -0.6            -1.299e-009     8.448e-010      1.0338e-008    
  -0.65           -1.2798e-009    -2.0665e-009    7.904e-009     
  -0.7            -1.269e-009     -7.8579e-009    8.086e-009     
  -0.75           2.5715e-009     -2.8777e-008    1.0708e-008    
  -0.8            1.8717e-009     -9.0736e-008    -3.068e-009    
  -0.85           -1.105e-009     -2.6211e-007    1.577e-008     
  -0.9            6.31e-011       -7.1921e-007    -1.1473e-008   
  -0.95           1.7793e-009     -1.7157e-006    1.3363e-008    
  -1              1.287e-009      -3.7132e-006    -9.351e-009    
  -1.05           2.8777e-009     -7.2258e-006    -9.59e-009     
  -1.1            -2.5301e-009    -1.2442e-005    1.047e-008     
  -1.15           -1.9638e-009    -1.9597e-005    9.09e-010      
  -1.2            -2.6552e-009    -2.8517e-005    -5.411e-009    
  -1.25           1.699e-010      -3.8801e-005    -1.2851e-008   
  -1.3            1.3883e-009     -4.9598e-005    -2.3697e-008   
  -1.35           2.8617e-009     -6.073e-005     -9.069e-009    
  -1.4            2.7763e-009     -7.1743e-005    6.17e-010      
  -1.45           1.3962e-009     -8.284e-005     1.177e-008     
  -1.5            2.61e-010       -9.2889e-005    9.687e-009     
  -1.55           6.835e-010      -0.000102953    1.0264e-008    
  -1.6            1.0614e-009     -0.000112528    1.033e-008     
  -1.65           2.6591e-009     -0.00012139     1.0265e-008    
  -1.7            6.387e-010      -0.00012974     1.0137e-008    
  -1.75           1.0192e-009     -0.00013781     1.0329e-008    
  -1.8            1.4176e-009     -0.00014543     1.0875e-008    
END_DB

BEGIN_DB
 ICCAP_VAR VS         0              
 ICCAP_VAR VB         1.8            
 ICCAP_VAR VD         -1.8           

 #VG              IG              ID              IB             
  0               -8.21e-011      -3.916e-010     -1.1299e-008   
  -0.05           -2.244e-009     4.936e-010      1.4763e-008    
  -0.1            1.5396e-009     -1.6737e-009    -1.2328e-008   
  -0.15           8.262e-010      2.3332e-009     -8.998e-009    
  -0.2            9.792e-010      2.3005e-009     1.007e-008     
  -0.25           1.1373e-009     2.2122e-009     1.0545e-008    
  -0.3            -1.5301e-009    1.7189e-009     1.1775e-008    
  -0.35           -1.7457e-009    -1.4676e-009    7.647e-009     
  -0.4            -4.194e-010     -2.2943e-009    -1.0453e-008   
  -0.45           2.5464e-009     -9.819e-010     -1.7903e-008   
  -0.5            2.2782e-009     -1.2285e-009    -3.421e-009    
  -0.55           1.9757e-009     -6.9882e-009    -5.881e-009    
  -0.6            -2.5864e-009    -2.8049e-008    -1.08e-008     
  -0.65           -2.0572e-009    -9.4928e-008    6.7e-010       
  -0.7            1.1851e-009     -2.9987e-007    4.55e-010      
  -0.75           2.7669e-009     -8.4795e-007    -1.2522e-008   
  -0.8            1.881e-009      -2.1337e-006    8.726e-009     
  -0.85           7.313e-010      -4.8361e-006    1.0425e-008    
  -0.9            1.1075e-009     -1.01505e-005   1.0297e-008    
  -0.95           -2.6318e-009    -1.8914e-005    9.804e-009     
  -1              2.121e-010      -3.2984e-005    -1.337e-008    
  -1.05           1.4262e-009     -5.2615e-005    -2.2308e-008   
  -1.1            2.845e-009      -7.8437e-005    -8.764e-009    
  -1.15           2.0498e-009     -0.000110504    1.3636e-008    
  -1.2            2.4523e-009     -0.00014854     1.3378e-008    
  -1.25           1.7473e-009     -0.00019265     -3.888e-009    
  -1.3            1.2853e-009     -0.00024189     -9.054e-009    
  -1.35           2.8725e-009     -0.00029569     -9.325e-009    
  -1.4            2.6702e-009     -0.00035297     2.39e-010      
  -1.45           5.913e-010      -0.0004137      1.02e-008      
  -1.5            9.771e-010      -0.00047897     1.0649e-008    
  -1.55           1.3721e-009     -0.00054711     1.0768e-008    
  -1.6            1.8055e-009     -0.00061653     1.3497e-008    
  -1.65           6.641e-010      -0.00068638     1.0407e-008    
  -1.7            1.041e-009      -0.00076107     1.0604e-008    
  -1.75           1.4418e-009     -0.00083694     1.1049e-008    
  -1.8            3.063e-010      -0.00091049     9.595e-009     
END_DB

