! VERSION = 6.00
BEGIN_HEADER
 ICCAP_INPUTS
  VG         V  B GROUND SMU4 0.001 LIN        2    0          -1.8       6    -0.36     
  VS         V  E GROUND SMU2 0.1 CON        0
  VD         V  S GROUND SMU1 0.1 LIN        1    0          -1.8       37   -0.05     
  VB         V  C GROUND SMU3 0.1 LIN        3    0          0.9        2    0.9       
 ICCAP_OUTPUTS
  ID         I  S GROUND SMU1 B
  IB         I  C GROUND SMU3 B
  IG         I  B GROUND SMU4 B
END_HEADER

BEGIN_DB
 ICCAP_VAR VG         0              
 ICCAP_VAR VS         0              
 ICCAP_VAR VB         0              

 #VD              ID              IB              IG             
  0               -1.292e-009     1.0405e-008     -1.3188e-009   
  -0.05           -1.6864e-009    -1.3362e-008    1.6478e-009    
  -0.1            2.3426e-009     -8.951e-009     7.958e-010     
  -0.15           2.3203e-009     9.973e-009      9.682e-010     
  -0.2            2.2431e-009     1.0917e-008     1.1334e-009    
  -0.25           2.0874e-009     1.2038e-008     1.3108e-009    
  -0.3            1.8668e-009     1.2471e-008     -1.4231e-009   
  -0.35           -1.3023e-009    8.481e-009      -1.8683e-009   
  -0.4            -1.6805e-009    -1.356e-008     1.662e-009     
  -0.45           2.3396e-009     -9.095e-009     7.869e-010     
  -0.5            2.322e-009      1.0049e-008     9.569e-010     
  -0.55           2.2508e-009     1.0917e-008     1.1198e-009    
  -0.6            2.1026e-009     1.1965e-008     1.2993e-009    
  -0.65           1.9979e-009     9.997e-009      -1.045e-010    
  -0.7            2.0861e-009     9.686e-009      8.11e-011      
  -0.75           2.1986e-009     1.0035e-008     2.815e-010     
  -0.8            2.2789e-009     1.0278e-008     4.916e-010     
  -0.85           2.3364e-009     1.0161e-008     6.835e-010     
  -0.9            2.3392e-009     1.0181e-008     8.652e-010     
  -0.95           2.3018e-009     1.0057e-008     1.0295e-009    
  -1              2.1922e-009     1.1488e-008     1.1997e-009    
  -1.05           1.9494e-009     1.0259e-008     -2.045e-010    
  -1.1            9.04e-010       2.4847e-008     -1.5435e-009   
  -1.15           -1.4507e-009    7.542e-009      -1.772e-009    
  -1.2            -2.2305e-009    -1.0735e-008    -4.303e-010    
  -1.25           -1.4381e-009    -2.4643e-008    2.4666e-009    
  -1.3            2.1615e-009     -4.148e-009     1.2513e-009    
  -1.35           1.9722e-009     1.0138e-008     -1.564e-010    
  -1.4            2.058e-009      9.823e-009      1.93e-011      
  -1.45           2.1649e-009     9.785e-009      2.238e-010     
  -1.5            2.2585e-009     1.0388e-008     4.212e-010     
  -1.55           2.3252e-009     1.025e-008      6.236e-010     
  -1.6            2.3425e-009     1.0275e-008     8.093e-010     
  -1.65           2.3177e-009     1.0003e-008     9.793e-010     
  -1.7            2.2347e-009     1.107e-008      1.1501e-009    
  -1.75           2.0694e-009     1.2171e-008     1.3319e-009    
  -1.8            1.8766e-009     1.246e-008      -1.4213e-009   
END_DB

BEGIN_DB
 ICCAP_VAR VG         -0.36          
 ICCAP_VAR VS         0              
 ICCAP_VAR VB         0              

 #VD              ID              IB              IG             
  0               1.2783e-009     -1.0539e-008    1.2273e-009    
  -0.05           2.0474e-009     9.939e-009      3.139e-010     
  -0.1            2.0683e-009     1.0308e-008     5.151e-010     
  -0.15           2.0811e-009     1.0272e-008     7.068e-010     
  -0.2            1.0815e-009     1.014e-008      -1.3185e-009   
  -0.25           -1.4911e-009    7.93e-009       -2.1612e-009   
  -0.3            -2.3236e-009    -1.0668e-008    6.75e-011      
  -0.35           -2.506e-009     -1.0288e-008    -1.015e-010    
  -0.4            -2.6612e-009    -1.0322e-008    -3.056e-010    
  -0.45           -2.766e-009     -1.062e-008     -5.162e-010    
  -0.5            -2.0757e-009    -2.2938e-008    2.3563e-009    
  -0.55           1.5883e-009     -4.994e-009     3.504e-010     
  -0.6            4.188e-010      1.0652e-008     -1.3848e-009   
  -0.65           -1.796e-009     8.846e-009      -2.7213e-009   
  -0.7            -2.6332e-009    -1.1295e-008    2.362e-010     
  -0.75           -1.822e-009     -2.1915e-008    1.7647e-009    
  -0.8            -5.643e-010     -9.091e-009     1.4884e-009    
  -0.85           -7.752e-010     -8.829e-009     1.3259e-009    
  -0.9            -9.859e-010     -9.448e-009     1.2399e-009    
  -0.95           -1.2137e-009    -1.0729e-008    2.8713e-009    
  -1              -4.696e-010     3.32e-010       2.8619e-009    
  -1.05           -2.1971e-009    1.0118e-008     -2.1315e-009   
  -1.1            -2.7231e-009    -2.6848e-008    1.3495e-009    
  -1.15           -1.4818e-009    -9.336e-009     1.2465e-009    
  -1.2            -1.7479e-009    -1.0409e-008    2.8681e-009    
  -1.25           -1.0337e-009    3.74e-010       2.8646e-009    
  -1.3            -1.2274e-009    -2.91e-010      2.7966e-009    
  -1.35           4.09e-011       1.0245e-008     1.1549e-009    
  -1.4            -2.835e-010     1.1011e-008     1.3358e-009    
  -1.45           -6.697e-010     1.2281e-008     1.522e-009     
  -1.5            -2.7303e-009    9.676e-009      -1.3199e-009   
  -1.55           -2.7593e-009    7.993e-009      -1.2953e-009   
  -1.6            -2.8096e-009    9.094e-009      -2.6046e-009   
  -1.65           -4.042e-009     8.24e-010       -2.4173e-009   
  -1.7            -5.6048e-009    -1.0609e-008    -4.394e-010    
  -1.75           -5.1391e-009    -2.4287e-008    2.4515e-009    
  -1.8            -3.3216e-009    -4.088e-009     2.1284e-009    
END_DB

BEGIN_DB
 ICCAP_VAR VG         -0.72          
 ICCAP_VAR VS         0              
 ICCAP_VAR VB         0              

 #VD              ID              IB              IG             
  0               5.506e-010      1.1353e-008     -2.209e-010    
  -0.05           -7.0709e-007    8.623e-009      1.737e-010     
  -0.1            -9.6437e-007    7.972e-009      -2.5896e-009   
  -0.15           -1.1355e-006    8.633e-009      2.2191e-009    
  -0.2            -1.2909e-006    -1.1344e-008    4.49e-011      
  -0.25           -1.3688e-006    7.888e-009      -2.5628e-009   
  -0.3            -1.4961e-006    1.129e-008      -1.689e-010    
  -0.35           -1.6452e-006    -1.1892e-008    2.8085e-009    
  -0.4            -1.7611e-006    -1.2694e-008    1.8e-010       
  -0.45           -1.8201e-006    8.791e-009      -1.2879e-009   
  -0.5            -1.9945e-006    1.0686e-008     1.5109e-009    
  -0.55           -2.1081e-006    -1.3141e-008    2.7492e-009    
  -0.6            -2.2287e-006    -1.1747e-008    1.037e-010     
  -0.65           -2.2729e-006    8.191e-009      -2.6115e-009   
  -0.7            -2.4619e-006    1.018e-008      1.3581e-009    
  -0.75           -2.5719e-006    -2.6693e-008    2.3376e-009    
  -0.8            -2.6835e-006    -1.0496e-008    -2.093e-010    
  -0.85           -2.7576e-006    1.058e-008      -2.2425e-009   
  -0.9            -2.8828e-006    1.0137e-008     9.79e-011      
  -0.95           -3.0855e-006    -1.571e-008     2.5524e-009    
  -1              -3.2086e-006    -2.7141e-008    1.2149e-009    
  -1.05           -3.3358e-006    -1.0916e-008    -7.79e-011     
  -1.1            -3.3868e-006    8.563e-009      -2.4156e-009   
  -1.15           -3.6298e-006    1.2069e-008     1.5729e-009    
  -1.2            -3.7582e-006    -1.4008e-008    2.6967e-009    
  -1.25           -3.8992e-006    -1.1342e-008    5.23e-011      
  -1.3            -3.9354e-006    7.83e-009       -2.5697e-009   
  -1.35           -4.113e-006     1.1324e-008     -1.726e-010    
  -1.4            -4.338e-006     -1.172e-008     2.8114e-009    
  -1.45           -4.4994e-006    -1.281e-008     1.845e-010     
  -1.5            -4.53e-006      8.773e-009      -1.2868e-009   
  -1.55           -4.8332e-006    1.1809e-008     1.5104e-009    
  -1.6            -4.9723e-006    -1.3011e-008    2.7528e-009    
  -1.65           -5.1401e-006    -1.171e-008     1.107e-010     
  -1.7            -5.1701e-006    8.25e-009       -2.6193e-009   
  -1.75           -5.4889e-006    1.0852e-008     1.35e-009      
  -1.8            -5.6376e-006    -2.6742e-008    2.335e-009     
END_DB

BEGIN_DB
 ICCAP_VAR VG         -1.08          
 ICCAP_VAR VS         0              
 ICCAP_VAR VB         0              

 #VD              ID              IB              IG             
  0               -3.2342e-008    1.1574e-008     -9.986e-010    
  -0.05           -2.3255e-005    -5.209e-009     2.7428e-009    
  -0.1            -4.0608e-005    -1.8273e-008    2.0015e-009    
  -0.15           -5.3377e-005    -1.423e-008     1.4119e-009    
  -0.2            -6.2588e-005    -2.668e-008     2.3176e-009    
  -0.25           -6.9505e-005    -1.8428e-008    1.6416e-009    
  -0.3            -7.4368e-005    -1.0824e-008    -1.0208e-009   
  -0.35           -7.8558e-005    2.7397e-008     -1.3201e-009   
  -0.4            -8.332e-005     1.1124e-008     1.6117e-009    
  -0.45           -8.6289e-005    -1.371e-008     1.3905e-009    
  -0.5            -8.922e-005     -1.7833e-008    2.0594e-009    
  -0.55           -9.1501e-005    -1.0634e-008    -8.071e-010    
  -0.6            -9.3815e-005    2.6868e-008     -1.3597e-009   
  -0.65           -9.748e-005     1.0877e-008     1.3637e-009    
  -0.7            -9.9474e-005    -1.9073e-008    1.6979e-009    
  -0.75           -0.000101925    -2.6631e-008    1.2378e-009    
  -0.8            -0.000103891    -1.0191e-008    -3.86e-010     
  -0.85           -0.000105539    2.1217e-008     -1.5412e-009   
  -0.9            -0.00010846     1.032e-008      1.013e-009     
  -0.95           -0.000110658    -2.6698e-008    2.3262e-009    
  -1              -0.000112405    -1.0364e-008    -6.323e-010    
  -1.05           -0.00011451     -1.6954e-008    -8.786e-010    
  -1.1            -0.00011682     -8.325e-009     1.3631e-009    
  -1.15           -0.00011898     -2.6925e-008    1.2299e-009    
  -1.2            -0.00012101     -1.0766e-008    -1.386e-010    
  -1.25           -0.00012199     1.1721e-008     -2.1608e-009   
  -1.3            -0.00012411     9.721e-009      2.941e-010     
  -1.35           -0.00012696     -1.7987e-008    2.0737e-009    
  -1.4            -0.00012865     -1.0116e-008    -5.242e-010    
  -1.45           -0.00012995     1.8645e-008     -1.6753e-009   
  -1.5            -0.0001323      1.0241e-008     6.549e-010     
  -1.55           -0.00013494     -2.0966e-008    1.5306e-009    
  -1.6            -0.00013696     -1.3458e-008    2.339e-010     
  -1.65           -0.00013775     8.374e-009      -2.6377e-009   
  -1.7            -0.00014136     1.0595e-008     1.4474e-009    
  -1.75           -0.00014304     -1.3696e-008    2.707e-009     
  -1.8            -0.00014478     -2.6978e-008    2.5323e-009    
END_DB

BEGIN_DB
 ICCAP_VAR VG         -1.44          
 ICCAP_VAR VS         0              
 ICCAP_VAR VB         0              

 #VD              ID              IB              IG             
  0               -6.3993e-008    -2.7222e-008    -9.323e-010    
  -0.05           -6.0534e-005    6.066e-009      1.807e-009     
  -0.1            -0.00011492     -1.2706e-008    -1.3339e-009   
  -0.15           -0.00016409     9.966e-009      1.2579e-009    
  -0.2            -0.00020687     -2.6567e-008    2.2983e-009    
  -0.25           -0.00024385     -1.0171e-008    -3.826e-010    
  -0.3            -0.00027492     1.5702e-008     -1.8385e-009   
  -0.35           -0.00030242     1.2773e-008     2.1023e-009    
  -0.4            -0.00032515     -1.1336e-008    5.82e-011      
  -0.45           -0.00034261     7.988e-009      -2.4585e-009   
  -0.5            -0.00035872     1.0054e-008     6.14e-011      
  -0.55           -0.00037367     -1.6734e-008    2.443e-009     
  -0.6            -0.00038529     -1.8279e-008    1.9754e-009    
  -0.65           -0.00039555     -1.9685e-008    1.7117e-009    
  -0.7            -0.00040419     -1.0873e-008    -7.62e-010     
  -0.75           -0.00041201     2.2389e-008     -1.4798e-009   
  -0.8            -0.00042067     1.0702e-008     8.598e-010     
  -0.85           -0.00042853     -2.4301e-008    1.3311e-009    
  -0.9            -0.00043529     -1.1327e-008    6.13e-011      
  -0.95           -0.00043982     8.06e-009       -2.4619e-009   
  -1              -0.00044636     1.0108e-008     5.52e-011      
  -1.05           -0.00045379     -1.6666e-008    2.4476e-009    
  -1.1            -0.00045879     -1.0348e-008    -2.668e-010    
  -1.15           -0.00046284     1.3734e-008     -1.9875e-009   
  -1.2            -0.00047005     1.2696e-008     2.0069e-009    
  -1.25           -0.00047538     -1.1988e-008    1.373e-010     
  -1.3            -0.00047835     7.761e-009      -2.5533e-009   
  -1.35           -0.00048605     1.0971e-008     1.5615e-009    
  -1.4            -0.00049023     -1.557e-008     2.5784e-009    
  -1.45           -0.00049465     -2.6978e-008    2.3614e-009    
  -1.5            -0.00049944     -1.8937e-008    1.8817e-009    
  -1.55           -0.00050406     -1.8352e-008    1.6253e-009    
  -1.6            -0.00050868     -1.4683e-008    1.4403e-009    
  -1.65           -0.00051367     -1.2418e-008    1.659e-010     
  -1.7            -0.00051576     7.967e-009      -2.5828e-009   
  -1.75           -0.00052312     1.0817e-008     1.528e-009     
  -1.8            -0.00052682     -1.4913e-008    2.6138e-009    
END_DB

BEGIN_DB
 ICCAP_VAR VG         -1.8           
 ICCAP_VAR VS         0              
 ICCAP_VAR VB         0              

 #VD              ID              IB              IG             
  0               -7.5778e-008    -2.6323e-008    -9.884e-010    
  -0.05           -8.6554e-005    -4.902e-009     2.7262e-009    
  -0.1            -0.0001688      -2.6242e-008    -1.0994e-009   
  -0.15           -0.00024671     2.7594e-008     -1.3395e-009   
  -0.2            -0.0003205      1.0125e-008     1.21e-009      
  -0.25           -0.00038917     -2.699e-008     2.3806e-009    
  -0.3            -0.00045264     -1.0088e-008    -3.231e-010    
  -0.35           -0.00051047     1.4701e-008     -1.9321e-009   
  -0.4            -0.00056457     1.2166e-008     2.0494e-009    
  -0.45           -0.00061291     -1.1582e-008    9.93e-011      
  -0.5            -0.00065477     7.711e-009      -2.514e-009    
  -0.55           -0.00069495     1.2326e-008     1.6091e-009    
  -0.6            -0.00072853     -1.6115e-008    2.5216e-009    
  -0.65           -0.00075826     -1.0309e-008    -2.142e-010    
  -0.7            -0.00078334     1.2932e-008     -2.0724e-009   
  -0.75           -0.00080739     9.574e-009      3.634e-010     
  -0.8            -0.00082907     -1.8615e-008    1.9618e-009    
  -0.85           -0.00084668     -1.0226e-008    -5.982e-010    
  -0.9            -0.0008624      1.9804e-008     -1.6026e-009   
  -0.95           -0.00087845     1.0567e-008     7.245e-010     
  -1              -0.00089287     -2.149e-008     1.4542e-009    
  -1.05           -0.0009053      -1.2695e-008    1.786e-010     
  -1.1            -0.00091489     7.938e-009      -2.5911e-009   
  -1.15           -0.00092896     1.0768e-008     1.5139e-009    
  -1.2            -0.00093836     -1.5027e-008    2.6385e-009    
  -1.25           -0.00094762     -2.7189e-008    2.4384e-009    
  -1.3            -0.00095691     -1.8522e-008    1.9662e-009    
  -1.35           -0.00096537     -1.9554e-008    1.7072e-009    
  -1.4            -0.000973       -1.079e-008     -7.707e-010    
  -1.45           -0.00098045     2.2503e-008     -1.4726e-009   
  -1.5            -0.00098957     1.0765e-008     8.742e-010     
  -1.55           -0.00099807     -2.428e-008     1.3233e-009    
  -1.6            -0.00100541     -1.1277e-008    5.36e-011      
  -1.65           -0.00101039     8.169e-009      -2.4494e-009   
  -1.7            -0.00101831     1.0101e-008     7.1e-011       
  -1.75           -0.00102717     -1.6675e-008    2.434e-009     
  -1.8            -0.00103365     -1.8435e-008    1.9686e-009    
END_DB

BEGIN_DB
 ICCAP_VAR VG         0              
 ICCAP_VAR VS         0              
 ICCAP_VAR VB         0.9            

 #VD              ID              IB              IG             
  0               -6.113e-010     9.45e-009       8.71e-011      
  -0.05           -5.402e-010     -1.8157e-008    2.4971e-009    
  -0.1            2.179e-009      -3.783e-009     1.2315e-009    
  -0.15           1.9603e-009     1.0045e-008     -1.773e-010    
  -0.2            2.0507e-009     9.504e-009      5.4e-012       
  -0.25           2.1622e-009     9.624e-009      1.92e-010      
  -0.3            2.2602e-009     1.0303e-008     3.922e-010     
  -0.35           2.332e-009      1.0721e-008     5.92e-010      
  -0.4            2.3549e-009     1.0633e-008     7.808e-010     
  -0.45           2.3289e-009     1.0243e-008     9.529e-010     
  -0.5            2.2594e-009     1.0171e-008     1.1181e-009    
  -0.55           2.1135e-009     1.0842e-008     1.292e-009     
  -0.6            1.9912e-009     9.878e-009      -1.15e-010     
  -0.65           2.0854e-009     9.466e-009      6.76e-011      
  -0.7            2.1968e-009     9.73e-009       2.653e-010     
  -0.75           2.285e-009      1.0316e-008     4.589e-010     
  -0.8            2.3464e-009     1.0445e-008     6.533e-010     
  -0.85           2.3518e-009     1.04e-008       8.398e-010     
  -0.9            2.3117e-009     1.0119e-008     1.0077e-009    
  -0.95           2.2183e-009     1.137e-008      1.1748e-009    
  -1              2.0501e-009     1.2308e-008     1.3511e-009    
  -1.05           1.8913e-009     1.252e-008      -1.4056e-009   
  -1.1            -1.2818e-009    8.546e-009      -1.8876e-009   
  -1.15           -1.6966e-009    -1.3146e-008    1.6121e-009    
  -1.2            2.3503e-009     -9.091e-009     8.151e-010     
  -1.25           2.3226e-009     1.0054e-008     9.825e-010     
  -1.3            1.8091e-009     1.1614e-008     -1.4963e-009   
  -1.35           -1.3983e-009    7.953e-009      -1.8111e-009   
  -1.4            -2.2496e-009    -1.0718e-008    -4.964e-010    
  -1.45           -1.478e-009     -2.36e-008      2.3876e-009    
  -1.5            2.1172e-009     -4.693e-009     1.3006e-009    
  -1.55           1.9935e-009     9.951e-009      -1.134e-010    
  -1.6            2.0866e-009     9.661e-009      7.13e-011      
  -1.65           2.1999e-009     9.775e-009      2.678e-010     
  -1.7            2.2866e-009     1.0305e-008     4.714e-010     
  -1.75           2.34e-009       1.0388e-008     6.661e-010     
  -1.8            2.349e-009      1.0249e-008     8.492e-010     
END_DB

BEGIN_DB
 ICCAP_VAR VG         -0.36          
 ICCAP_VAR VS         0              
 ICCAP_VAR VB         0.9            

 #VD              ID              IB              IG             
  0               -1.0267e-009    -1.9231e-008    -1.1323e-009   
  -0.05           -1.2029e-009    -2.6903e-008    1.3139e-009    
  -0.1            2.2651e-009     -9.641e-009     1.0921e-009    
  -0.15           2.1245e-009     1.1768e-008     1.256e-009     
  -0.2            1.9697e-009     1.0123e-008     -1.495e-010    
  -0.25           2.0559e-009     9.651e-009      3.76e-011      
  -0.3            2.1684e-009     9.66e-009       2.268e-010     
  -0.35           2.2608e-009     1.0273e-008     4.255e-010     
  -0.4            2.3287e-009     1.0333e-008     6.211e-010     
  -0.45           2.346e-009      1.0297e-008     8.08e-010      
  -0.5            2.3101e-009     1.0125e-008     9.723e-010     
  -0.55           2.2288e-009     1.0941e-008     1.1358e-009    
