! VERSION = 6.00
BEGIN_HEADER
 ICCAP_INPUTS
  VG         V  B GROUND SMU4 0.001 LIN        2    0          -1.8       6    -0.36     
  VS         V  E GROUND SMU2 0.1 CON        0
  VD         V  S GROUND SMU1 0.1 LIN        1    0          -1.8       37   -0.05     
  VB         V  C GROUND SMU3 0.1 LIN        3    0          0.9        2    0.9       
 ICCAP_OUTPUTS
  ID         I  S GROUND SMU1 B
  IB         I  C GROUND SMU3 B
  IG         I  B GROUND SMU4 B
END_HEADER

BEGIN_DB
 ICCAP_VAR VG         0              
 ICCAP_VAR VS         0              
 ICCAP_VAR VB         0              

 #VD              ID              IB              IG             
  0               -1.3259e-009    1.0465e-008     -1.3497e-009   
  -0.05           -1.563e-009     -1.8441e-008    2.0857e-009    
  -0.1            2.2695e-009     -7.54e-009      5.193e-010     
  -0.15           2.3269e-009     1.0548e-008     6.924e-010     
  -0.2            2.3392e-009     9.957e-009      8.483e-010     
  -0.25           2.3178e-009     9.873e-009      9.924e-010     
  -0.3            1.785e-009      1.1737e-008     -1.4953e-009   
  -0.35           -1.4039e-009    7.74e-009       -1.7774e-009   
  -0.4            -2.1999e-009    -1.0688e-008    -4.618e-010    
  -0.45           -5.561e-010     -1.7493e-008    2.4799e-009    
  -0.5            2.1936e-009     -4.096e-009     1.1998e-009    
  -0.55           1.918e-009      1.0224e-008     -1.956e-010    
  -0.6            8.845e-010      2.4433e-008     -1.5706e-009   
  -0.65           -1.4884e-009    7.061e-009      -1.7265e-009   
  -0.7            -1.5653e-009    -1.8767e-008    2.092e-009     
  -0.75           2.2638e-009     -7.566e-009     5.152e-010     
  -0.8            2.3251e-009     1.0525e-008     6.874e-010     
  -0.85           2.3419e-009     9.956e-009      8.456e-010     
  -0.9            2.3177e-009     9.916e-009      9.867e-010     
  -0.95           1.7831e-009     1.1754e-008     -1.5008e-009   
  -1              -1.4084e-009    7.81e-009       -1.7778e-009   
  -1.05           -2.1978e-009    -1.0671e-008    -4.608e-010    
  -1.1            -5.577e-010     -1.7366e-008    2.4842e-009    
  -1.15           2.1944e-009     -3.916e-009     1.1925e-009    
  -1.2            1.9132e-009     1.0242e-008     -2.028e-010    
  -1.25           8.796e-010      2.4412e-008     -1.5681e-009   
  -1.3            -1.4933e-009    6.998e-009      -1.7181e-009   
  -1.35           -1.5614e-009    -1.8896e-008    2.0991e-009    
  -1.4            2.263e-009      -7.45e-009      5.087e-010     
  -1.45           2.3242e-009     1.0546e-008     6.767e-010     
  -1.5            2.3445e-009     1.0166e-008     8.38e-010      
  -1.55           2.3189e-009     9.742e-009      9.814e-010     
  -1.6            1.7764e-009     1.1888e-008     -1.5072e-009   
  -1.65           -1.4245e-009    7.548e-009      -1.7676e-009   
  -1.7            -2.1941e-009    -1.0858e-008    -4.449e-010    
  -1.75           -5.375e-010     -1.7444e-008    2.5187e-009    
  -1.8            2.2106e-009     -3.62e-009      1.1835e-009    
END_DB

BEGIN_DB
 ICCAP_VAR VG         -0.36          
 ICCAP_VAR VS         0              
 ICCAP_VAR VB         0              

 #VD              ID              IB              IG             
  0               -1.2964e-009    1.0534e-008     -1.3472e-009   
  -0.05           -2.219e-009     -1.0413e-008    -2.673e-010    
  -0.1            -1.3963e-009    -2.6613e-008    1.2583e-009    
  -0.15           -2.72e-011      -1.0044e-008    2.8376e-009    
  -0.2            1.8695e-009     1.2778e-008     -1.25e-011     
  -0.25           1.9544e-009     9.833e-009      1.547e-010     
  -0.3            2.0343e-009     1.0417e-008     3.332e-010     
  -0.35           2.0967e-009     1.0666e-008     5.191e-010     
  -0.4            2.139e-009      1.0524e-008     6.888e-010     
  -0.45           1.1245e-009     9.931e-009      -1.3231e-009   
  -0.5            -1.3758e-009    8.044e-009      -2.0758e-009   
  -0.55           -2.0826e-009    -1.0856e-008    1.41e-010      
  -0.6            -1.215e-009     -2.3612e-008    1.6481e-009    
  -0.65           1.6241e-009     -8.988e-009     -2.253e-010    
  -0.7            5.712e-010      2.3965e-008     -1.6036e-009   
  -0.75           -1.3937e-009    6.489e-009      -2.5067e-009   
  -0.8            -2.4823e-009    -1.0478e-008    -3.149e-010    
  -0.85           -1.6817e-009    -2.6277e-008    2.6396e-009    
  -0.9            1.6899e-009     -2.562e-009     1.036e-010     
  -0.95           1.7692e-009     1.0208e-008     2.859e-010     
  -1              1.8302e-009     1.0589e-008     4.649e-010     
  -1.05           7.232e-010      1.0656e-008     -1.3608e-009   
  -1.1            -1.4829e-009    8.7e-009        -2.707e-009    
  -1.15           -1.7555e-009    -2.7058e-008    1.2903e-009    
  -1.2            -4.067e-010     -9.701e-009     2.8109e-009    
  -1.25           1.4067e-009     1.2837e-008     -7.86e-011     
  -1.3            3.74e-010       2.6233e-008     -1.4681e-009   
  -1.35           -1.6914e-009    8.13e-009       -2.6129e-009   
  -1.4            -2.3309e-009    -1.3662e-008    1.6831e-009    
  -1.45           -3.303e-010     -9.009e-009     1.4506e-009    
  -1.5            -4.79e-010      -8.841e-009     1.3171e-009    
  -1.55           -6.34e-010      -9.42e-009      2.7845e-009    
  -1.6            3.248e-010      1.062e-008      -1.3614e-009   
  -1.65           -1.8928e-009    8.689e-009      -2.7067e-009   
  -1.7            -2.7298e-009    -1.1136e-008    2.03e-010      
  -1.75           -1.9121e-009    -2.2034e-008    1.7715e-009    
  -1.8            -6.516e-010     -8.97e-009      1.5225e-009    
END_DB

BEGIN_DB
 ICCAP_VAR VG         -0.72          
 ICCAP_VAR VS         0              
 ICCAP_VAR VB         0              

 #VD              ID              IB              IG             
  0               -6.9132e-010    -1.2042e-008    4.52e-010      
  -0.05           -4.2209e-007    -1.9881e-008    1.2216e-009    
  -0.1            -5.8809e-007    -2.6557e-008    2.3603e-009    
  -0.15           -6.8044e-007    -1.8672e-008    1.8939e-009    
  -0.2            -7.3702e-007    -1.0664e-008    -6.639e-010    
  -0.25           -7.9789e-007    1.9707e-008     -1.5764e-009   
  -0.3            -8.6285e-007    1.07e-008       7.489e-010     
  -0.35           -9.4736e-007    -2.1974e-008    1.461e-009     
  -0.4            -1.01147e-006   -1.2729e-008    1.69e-010      
  -0.45           -1.04146e-006   7.724e-009      -2.5802e-009   
  -0.5            -1.13376e-006   1.0824e-008     1.4879e-009    
  -0.55           -1.1977e-006    1.0538e-008     2.8516e-009    
  -0.6            -1.2644e-006    -1.4457e-008    1.4356e-009    
  -0.65           -1.3276e-006    -1.406e-008     1.41e-009      
  -0.7            -1.3933e-006    -1.3891e-008    2.273e-010     
  -0.75           -1.4155e-006    8.777e-009      -1.2908e-009   
  -0.8            -1.5247e-006    1.0374e-008     1.4038e-009    
  -0.85           -1.5944e-006    -1.1575e-008    2.8135e-009    
  -0.9            -1.6645e-006    -1.3024e-008    1.854e-010     
  -0.95           -1.6815e-006    8.613e-009      -1.2854e-009   
  -1              -1.8053e-006    1.066e-008      1.4644e-009    
  -1.05           -1.8777e-006    -1.238e-008     2.7789e-009    
  -1.1            -1.9519e-006    -1.2267e-008    1.35e-010      
  -1.15           -1.9641e-006    8.327e-009      -2.6323e-009   
  -1.2            -2.0946e-006    1.0468e-008     1.2829e-009    
  -1.25           -2.1702e-006    -2.6855e-008    2.4478e-009    
  -1.3            -2.246e-006     -1.0637e-008    -1.446e-010    
  -1.35           -2.2737e-006    8.663e-009      -2.3546e-009   
  -1.4            -2.3622e-006    1.037e-008      1.33e-011      
  -1.45           -2.5053e-006    -1.4622e-008    2.6765e-009    
  -1.5            -2.5852e-006    -2.6087e-008    1.2491e-009    
  -1.55           -2.6711e-006    -2.7027e-008    2.4785e-009    
  -1.6            -2.7569e-006    -2.7062e-008    2.4479e-009    
  -1.65           -2.8452e-006    -2.6949e-008    2.4123e-009    
  -1.7            -2.932e-006     -1.0585e-008    -1.589e-010    
  -1.75           -2.9624e-006    9.013e-009      -2.3261e-009   
  -1.8            -3.0672e-006    1.0247e-008     3.67e-011      
END_DB

BEGIN_DB
 ICCAP_VAR VG         -1.08          
 ICCAP_VAR VS         0              
 ICCAP_VAR VB         0              

 #VD              ID              IB              IG             
  0               -1.6451e-008    1.0501e-008     1.0987e-009    
  -0.05           -1.9929e-005    1.02e-010       -1.675e-009    
  -0.1            -3.4639e-005    1.051e-008      8.846e-010     
  -0.15           -4.5129e-005    -2.6926e-008    2.538e-009     
  -0.2            -5.2465e-005    -2.2401e-008    1.9114e-009    
  -0.25           -5.7998e-005    -1.3727e-008    2.277e-010     
  -0.3            -6.1455e-005    8.112e-009      -2.4003e-009   
  -0.35           -6.5447e-005    1.2946e-008     1.9169e-009    
  -0.4            -6.8242e-005    -2.0048e-008    1.6257e-009    
  -0.45           -7.0809e-005    -1.1683e-008    7.25e-011      
  -0.5            -7.2263e-005    1.0528e-008     -2.1584e-009   
  -0.55           -7.4582e-005    1.013e-008      5.605e-010     
  -0.6            -7.7094e-005    -2.3287e-008    1.4045e-009    
  -0.65           -7.8869e-005    -2.6019e-008    2.2843e-009    
  -0.7            -8.0742e-005    -1.8116e-008    1.6316e-009    
  -0.75           -8.2562e-005    -2.67e-008      1.2309e-009    
  -0.8            -8.4062e-005    -1.0104e-008    -4.578e-010    
  -0.85           -8.5237e-005    2.124e-008      -1.5198e-009   
  -0.9            -8.7553e-005    1.0023e-008     1.0209e-009    
  -0.95           -8.9381e-005    -1.1027e-008    2.8188e-009    
  -1              -9.0838e-005    -2.6871e-008    2.4546e-009    
  -1.05           -9.2172e-005    -1.0271e-008    -5.587e-010    
  -1.1            -9.3241e-005    2.289e-008      -1.4577e-009   
  -1.15           -9.5624e-005    9.826e-009      1.0978e-009    
  -1.2            -9.7292e-005    -1.2233e-008    2.7734e-009    
  -1.25           -9.8594e-005    -1.0593e-008    -2.085e-010    
  -1.3            -9.9403e-005    1.6726e-008     -1.7406e-009   
  -1.35           -0.000101375    1.0182e-008     8.376e-010     
  -1.4            -0.000103249    -2.6639e-008    1.2389e-009    
  -1.45           -0.0001045      -1.0173e-008    -4.266e-010    
  -1.5            -0.000105401    2.0718e-008     -1.5362e-009   
  -1.55           -0.000107609    1.0148e-008     1.0003e-009    
  -1.6            -0.000109149    -2.6175e-008    2.343e-009     
  -1.65           -0.000110313    -1.057e-008     -6.493e-010    
  -1.7            -0.000111271    2.4289e-008     -1.4205e-009   
  -1.75           -0.000113825    9.867e-009      1.1668e-009    
  -1.8            -0.00011431     -1.3072e-008    -1.5216e-009   
END_DB

BEGIN_DB
 ICCAP_VAR VG         -1.44          
 ICCAP_VAR VS         0              
 ICCAP_VAR VB         0              

 #VD              ID              IB              IG             
  0               -2.6413e-008    1.5318e-008     1.0501e-009    
  -0.05           -5.5706e-005    1.0209e-008     -2.5054e-009   
  -0.1            -0.000105729    9.762e-009      2.462e-010     
  -0.15           -0.00015042     -1.7498e-008    -3.615e-010    
  -0.2            -0.00018895     1.4075e-008     -1.9058e-009   
  -0.25           -0.00022291     1.225e-008      2.0232e-009    
  -0.3            -0.0002512      -1.9125e-008    1.8121e-009    
  -0.35           -0.0002745      -1.0746e-008    -7.213e-010    
  -0.4            -0.00029378     2.0815e-008     -1.527e-009    
  -0.45           -0.00031063     1.0357e-008     7.95e-010      
  -0.5            -0.00032488     -2.2963e-008    1.4008e-009    
  -0.55           -0.0003367      -2.6352e-008    1.2436e-009    
  -0.6            -0.00034658     -1.7906e-008    2.0414e-009    
  -0.65           -0.000355       -1.0329e-008    -5.688e-010    
  -0.7            -0.00036202     1.788e-008      -1.6575e-009   
  -0.75           -0.00036951     1.0416e-008     6.672e-010     
  -0.8            -0.00037667     -2.0806e-008    1.5455e-009    
  -0.85           -0.00038276     -1.3716e-008    2.304e-010     
  -0.9            -0.00038681     8.27e-009       -2.6357e-009   
  -0.95           -0.00039448     1.1536e-008     1.4116e-009    
  -1              -0.00039917     -1.3516e-008    2.7223e-009    
  -1.05           -0.0004037      -2.6896e-008    2.5731e-009    
  -1.1            -0.00040837     -1.0542e-008    -1.697e-010    
  -1.15           -0.00041129     1.0915e-008     -2.1408e-009   
  -1.2            -0.00041597     9.762e-009      3.041e-010     
  -1.25           -0.00042167     -1.7942e-008    2.0788e-009    
  -1.3            -0.00042534     -1.0316e-008    -5.403e-010    
  -1.35           -0.00042837     1.7447e-008     -1.685e-009    
  -1.4            -0.00043305     1.0371e-008     6.447e-010     
  -1.45           -0.00043801     -2.0547e-008    1.5674e-009    
  -1.5            -0.00044205     -1.4018e-008    1.4041e-009    
  -1.55           -0.00044591     -2.6365e-008    1.2448e-009    
  -1.6            -0.00044953     -1.0693e-008    -1.034e-010    
  -1.65           -0.00045147     9.934e-009      -2.2274e-009   
  -1.7            -0.00045548     9.862e-009      2.371e-010     
  -1.75           -0.00046077     -1.7001e-008    2.1935e-009    
  -1.8            -0.00046386     -1.0058e-008    -4.59e-010     
END_DB

BEGIN_DB
 ICCAP_VAR VG         -1.8           
 ICCAP_VAR VS         0              
 ICCAP_VAR VB         0              

 #VD              ID              IB              IG             
  0               -3.3707e-008    8.627e-009      1.206e-009     
  -0.05           -8.1044e-005    1.16e-008       -2.3104e-009   
  -0.1            -0.00015815     1.2747e-008     2.4479e-009    
  -0.15           -0.0002311      -1.8102e-008    2.0262e-009    
  -0.2            -0.00029966     -2.0553e-008    1.7709e-009    
  -0.25           -0.00036352     -1.0838e-008    -7.449e-010    
  -0.3            -0.00042234     2.1274e-008     -1.5057e-009   
  -0.35           -0.00047692     1.0825e-008     8.226e-010     
  -0.4            -0.00052671     -2.3488e-008    1.3752e-009    
  -0.45           -0.00057045     -1.0669e-008    -1.0146e-009   
  -0.5            -0.00060988     2.6464e-008     -1.3615e-009   
  -0.55           -0.00064616     1.0113e-008     1.0941e-009    
  -0.6            -0.0006771      -2.721e-008     2.5607e-009    
  -0.65           -0.0007044      -1.7415e-008    2.1358e-009    
  -0.7            -0.00072797     -1.0196e-008    -5.029e-010    
  -0.75           -0.00074813     1.6779e-008     -1.7252e-009   
  -0.8            -0.00076709     1.0308e-008     6.111e-010     
  -0.85           -0.00078442     -2.0231e-008    1.6177e-009    
  -0.9            -0.00079913     -1.455e-008     1.4321e-009    
  -0.95           -0.00081226     -2.5982e-008    1.2556e-009    
  -1              -0.00082408     -2.6678e-008    2.3352e-009    
  -1.05           -0.00083521     -1.8791e-008    1.8652e-009    
  -1.1            -0.00084475     -1.0636e-008    -6.899e-010    
  -1.15           -0.0008531      2.0136e-008     -1.5516e-009   
  -1.2            -0.0008629      1.0411e-008     7.695e-010     
  -1.25           -0.00087239     -2.2542e-008    1.4256e-009    
  -1.3            -0.00088003     -2.5986e-008    1.2503e-009    
  -1.35           -0.00088782     -1.7554e-008    2.1014e-009    
  -1.4            -0.00089442     -1.0243e-008    -5.258e-010    
  -1.45           -0.00090034     1.7395e-008     -1.696e-009    
  -1.5            -0.00090782     1.0363e-008     6.417e-010     
  -1.55           -0.00091594     -2.0249e-008    1.5779e-009    
  -1.6            -0.0009223      -1.4132e-008    1.4108e-009    
  -1.65           -0.00092859     -2.6179e-008    1.2467e-009    
  -1.7            -0.00093471     -1.7584e-008    2.0739e-009    
  -1.75           -0.00093995     -1.0222e-008    -5.429e-010    
  -1.8            -0.00094465     1.7428e-008     -1.681e-009    
END_DB

BEGIN_DB
 ICCAP_VAR VG         0              
 ICCAP_VAR VS         0              
 ICCAP_VAR VB         0.9            

 #VD              ID              IB              IG             
  0               8.51e-011       1.1644e-008     -2.032e-010    
  -0.05           -7.894e-010     -2.0137e-008    2.0347e-009    
  -0.1            2.2816e-009     -7.995e-009     5.475e-010     
  -0.15           2.3348e-009     1.0215e-008     7.127e-010     
  -0.2            2.3408e-009     1.0046e-008     8.752e-010     
  -0.25           2.3095e-009     1.0111e-008     1.017e-009     
  -0.3            1.8034e-009     1.1378e-008     -1.4703e-009   
  -0.35           -1.3717e-009    8.065e-009      -1.7928e-009   
  -0.4            -2.2153e-009    -1.0744e-008    -4.979e-010    
  -0.45           -5.928e-010     -1.8046e-008    2.4473e-009    
  -0.5            2.1719e-009     -4.573e-009     1.2316e-009    
  -0.55           1.9297e-009     1.0023e-008     -1.745e-010    
  -0.6            9.018e-010      2.4858e-008     -1.5395e-009   
  -0.65           -1.4518e-009    7.252e-009      -1.7393e-009   
  -0.7            -2.1882e-009    -1.068e-008     -4.034e-010    
  -0.75           -5e-010         -1.7172e-008    2.5561e-009    
  -0.8            2.2368e-009     -3.31e-009      1.1532e-009    
  -0.85           2.0788e-009     1.1384e-008     1.314e-009     
  -0.9            1.8402e-009     1.2838e-008     -1.4258e-009   
  -0.95           -1.3128e-009    8.467e-009      -1.8332e-009   
  -1              -1.6306e-009    -1.4356e-008    1.7525e-009    
  -1.05           2.3321e-009     -9.009e-009     7.096e-010     
  -1.1            2.3417e-009     9.998e-009      8.722e-010     
  -1.15           2.3142e-009     1.0044e-008     1.0121e-009    
  -1.2            1.8002e-009     1.1402e-008     -1.4774e-009   
  -1.25           -1.382e-009     8.109e-009      -1.7903e-009   
  -1.3            -2.2135e-009    -1.0695e-008    -4.983e-010    
  -1.35           -5.848e-010     -1.8017e-008    2.454e-009     
  -1.4            2.1758e-009     -4.427e-009     1.2287e-009    
  -1.45           1.9294e-009     1.003e-008      -1.764e-010    
  -1.5            2.0062e-009     9.753e-009      -1.91e-011     
  -1.55           2.1002e-009     9.737e-009      1.516e-010     
  -1.6            2.1975e-009     1.0281e-008     3.325e-010     
  -1.65           2.2769e-009     1.0403e-008     5.194e-010     
  -1.7            2.3304e-009     1.0285e-008     6.941e-010     
  -1.75           2.3409e-009     1.0017e-008     8.512e-010     
  -1.8            2.3146e-009     9.976e-009      9.901e-010     
END_DB

BEGIN_DB
 ICCAP_VAR VG         -0.36          
 ICCAP_VAR VS         0              
 ICCAP_VAR VB         0.9            

 #VD              ID              IB              IG             
  0               -1.0523e-009    -1.9961e-008    -1.1806e-009   
  -0.05           -1.6373e-009    -1.4164e-008    1.7289e-009    
  -0.1            2.338e-009      -9.089e-009     7.304e-010     
  -0.15           2.3411e-009     1.021e-008      8.837e-010     
  -0.2            2.3035e-009     9.994e-009      1.0258e-009    
  -0.25           2.2105e-009     1.0424e-008     1.1704e-009    
  -0.3            1.8976e-009     1.0184e-008     -2.26e-010     
  -0.35           8.648e-010      2.3784e-008     -1.5963e-009   
  -0.4            -1.5261e-009    6.756e-009      -1.7066e-009   
  -0.45           -2.1654e-009    -1.0383e-008    -3.313e-010    
  -0.5            -4.493e-010     -1.677e-008     2.6252e-009    
  -0.55           2.2678e-009     -2.931e-009     1.1024e-009    
