! VERSION = 6.00
BEGIN_HEADER
 ICCAP_INPUTS
  VG         V  B GROUND SMU4 0.001 LIN        2    0          -1.8       6    -0.36     
  VS         V  E GROUND SMU2 0.1 CON        0
  VD         V  S GROUND SMU1 0.1 LIN        1    0          -1.8       37   -0.05     
  VB         V  C GROUND SMU3 0.1 LIN        3    0          0.9        2    0.9       
 ICCAP_OUTPUTS
  ID         I  S GROUND SMU1 B
  IB         I  C GROUND SMU3 B
  IG         I  B GROUND SMU4 B
END_HEADER

BEGIN_DB
 ICCAP_VAR VG         0              
 ICCAP_VAR VS         0              
 ICCAP_VAR VB         0              

 #VD              ID              IB              IG             
  0               1.0014e-009     7.963e-009      1.1265e-009    
  -0.05           2.3022e-009     1.0177e-008     9.947e-010     
  -0.1            2.2135e-009     1.0184e-008     1.1447e-009    
  -0.15           2.0861e-009     1.0885e-008     1.2972e-009    
  -0.2            1.9785e-009     9.75e-009       -1.223e-010    
  -0.25           2.062e-009      9.469e-009      4.4e-011       
  -0.3            2.163e-009      9.546e-009      2.073e-010     
  -0.35           2.248e-009      1.0332e-008     3.82e-010      
  -0.4            2.3113e-009     1.0896e-008     5.599e-010     
  -0.45           2.3417e-009     1.083e-008      7.221e-010     
  -0.5            2.3336e-009     1.0509e-008     8.788e-010     
  -0.55           2.2885e-009     1.0022e-008     1.0245e-009    
  -0.6            2.2004e-009     1.029e-008      1.1675e-009    
  -0.65           2.0505e-009     1.1113e-008     1.3356e-009    
  -0.7            1.864e-009      1.2353e-008     -1.4127e-009   
  -0.75           -1.3026e-009    8.732e-009      -1.8505e-009   
  -0.8            -1.6453e-009    -1.4432e-008    1.7552e-009    
  -0.85           2.3419e-009     -9.252e-009     6.927e-010     
  -0.9            2.3402e-009     1.0537e-008     8.437e-010     
  -0.95           2.3027e-009     1.0061e-008     9.946e-010     
  -1              2.2244e-009     1.0176e-008     1.1445e-009    
  -1.05           2.0867e-009     1.1021e-008     1.3002e-009    
  -1.1            1.98e-009       9.795e-009      -1.216e-010    
  -1.15           2.06e-009       9.476e-009      3.83e-011      
  -1.2            2.1572e-009     9.622e-009      2.031e-010     
  -1.25           2.2486e-009     1.0379e-008     3.818e-010     
  -1.3            2.3098e-009     1.087e-008      5.501e-010     
  -1.35           2.3457e-009     1.0738e-008     7.185e-010     
  -1.4            2.336e-009      1.0556e-008     8.726e-010     
  -1.45           2.2924e-009     1.0052e-008     1.0199e-009    
  -1.5            2.2011e-009     1.0373e-008     1.1638e-009    
  -1.55           2.0579e-009     1.1008e-008     1.3252e-009    
  -1.6            1.9892e-009     9.719e-009      -9.6e-011      
  -1.65           9.584e-010      2.6153e-008     -1.4665e-009   
  -1.7            -1.3792e-009    8.234e-009      -1.8015e-009   
  -1.75           -2.2334e-009    -1.0846e-008    -4.69e-010     
  -1.8            -5.497e-010     -1.8649e-008    2.4562e-009    
END_DB

BEGIN_DB
 ICCAP_VAR VG         -0.36          
 ICCAP_VAR VS         0              
 ICCAP_VAR VB         0              

 #VD              ID              IB              IG             
  0               3.23e-010       1.0598e-008     1.181e-010     
  -0.05           -5.793e-010     -1.777e-008     2.5797e-009    
  -0.1            1.9858e-009     -2.826e-009     1.561e-010     
  -0.15           2.0739e-009     1.0029e-008     3.285e-010     
  -0.2            2.1245e-009     1.0761e-008     5.052e-010     
  -0.25           2.1435e-009     1.1014e-008     6.73e-010      
  -0.3            1.1205e-009     1.0729e-008     -1.3135e-009   
  -0.35           -1.3871e-009    8.051e-009      -2.0853e-009   
  -0.4            -7.932e-010     -1.8244e-008    2.5206e-009    
  -0.45           1.8506e-009     -3.408e-009     2.07e-010      
  -0.5            1.9204e-009     1.0288e-008     3.804e-010     
  -0.55           1.9508e-009     1.0899e-008     5.529e-010     
  -0.6            8.526e-010      1.0772e-008     -1.3293e-009   
  -0.65           -1.5965e-009    8.722e-009      -2.0005e-009   
  -0.7            -2.2481e-009    -1.1005e-008    1.3751e-009    
  -0.75           -2.637e-010     -9.284e-009     1.2579e-009    
  -0.8            -4.212e-010     -9.454e-009     2.8476e-009    
  -0.85           6.306e-010      1.0948e-008     -1.3328e-009   
  -0.9            -1.6459e-009    8.8e-009        -2.7455e-009   
  -0.95           -1.9819e-009    -2.6947e-008    1.2411e-009    
  -1              -6.484e-010     -9.769e-009     2.8678e-009    
  -1.05           1.229e-009      1.2986e-008     -2.64e-011     
  -1.1            1.2783e-009     9.459e-009      1.425e-010     
  -1.15           4.62e-011       9.882e-009      -1.4768e-009   
  -1.2            -2.0206e-009    8.11e-009       -2.6342e-009   
  -1.25           -2.6849e-009    -1.411e-008     1.7143e-009    
  -1.3            -6.779e-010     -9.272e-009     1.4648e-009    
  -1.35           -8.597e-010     -9.004e-009     1.3159e-009    
  -1.4            -1.0559e-009    -9.403e-009     1.2344e-009    
  -1.45           -1.2549e-009    -9.817e-009     2.8698e-009    
  -1.5            -2.2214e-009    1.3021e-008     -2.3574e-009   
  -1.55           -3.1589e-009    -1.3979e-008    1.6972e-009    
  -1.6            -1.1829e-009    -9.271e-009     1.4599e-009    
  -1.65           -1.3961e-009    -8.98e-009      1.3111e-009    
  -1.7            -1.6278e-009    -9.243e-009     1.2321e-009    
  -1.75           -1.8553e-009    -9.897e-009     2.87e-009      
  -1.8            -6.234e-010     1.2855e-008     1.8398e-009    
END_DB

BEGIN_DB
 ICCAP_VAR VG         -0.72          
 ICCAP_VAR VS         0              
 ICCAP_VAR VB         0              

 #VD              ID              IB              IG             
  0               2.1324e-010     -1.2585e-008    1.857e-009     
  -0.05           -5.9016e-007    1.0742e-008     -2.6353e-009   
  -0.1            -8.3563e-007    1.1287e-008     1.4277e-009    
  -0.15           -9.6966e-007    -1.3439e-008    2.7125e-009    
  -0.2            -1.07256e-006   -2.7092e-008    1.2103e-009    
  -0.25           -1.1501e-006    -1.9223e-008    2.2485e-009    
  -0.3            -1.2537e-006    -1.0184e-008    -2.574e-010    
  -0.35           -1.3181e-006    1.0778e-008     -2.2145e-009   
  -0.4            -1.4096e-006    9.709e-009      1.094e-010     
  -0.45           -1.5461e-006    -1.5826e-008    2.5538e-009    
  -0.5            -1.6365e-006    -2.7186e-008    1.2039e-009    
  -0.55           -1.7289e-006    -2.6743e-008    2.3183e-009    
  -0.6            -1.8211e-006    -1.0232e-008    -2.252e-010    
  -0.65           -1.876e-006     1.0359e-008     -2.2527e-009   
  -0.7            -1.9763e-006    9.811e-009      8.52e-011      
  -0.75           -2.131e-006     -1.5447e-008    2.5837e-009    
  -0.8            -2.2304e-006    -1.0736e-008    -3.24e-011     
  -0.85           -2.27e-006      7.721e-009      -2.4863e-009   
  -0.9            -2.4443e-006    1.1729e-008     1.4914e-009    
  -0.95           -2.5479e-006    -1.2418e-008    2.7648e-009    
  -1              -2.7912e-006    -1.185e-008     1.309e-010     
  -1.05           -2.6867e-006    8.42e-009       -1.2831e-009   
  -1.1            -2.8855e-006    1.1943e-008     1.5469e-009    
  -1.15           -3.0156e-006    -1.3283e-008    2.7169e-009    
  -1.2            -3.1151e-006    -1.136e-008     8.09e-011      
  -1.25           -3.1414e-006    8.062e-009      -2.6018e-009   
  -1.3            -3.3515e-006    1.0911e-008     1.3565e-009    
  -1.35           -3.4643e-006    -2.6694e-008    2.3342e-009    
  -1.4            -3.585e-006     -1.0288e-008    -2.082e-010    
  -1.45           -3.6348e-006    1.0081e-008     -2.2722e-009   
  -1.5            -3.777e-006     9.911e-009      7.07e-011      
  -1.55           -3.9993e-006    -1.5326e-008    2.6015e-009    
  -1.6            -4.1348e-006    -1.0784e-008    -1.75e-011     
  -1.65           -4.1692e-006    7.794e-009      -2.5057e-009   
  -1.7            -4.4326e-006    1.1689e-008     1.4755e-009    
  -1.75           -4.5683e-006    -1.194e-008     2.7703e-009    
  -1.8            -4.725e-006     -1.1962e-008    1.467e-010     
END_DB

BEGIN_DB
 ICCAP_VAR VG         -1.08          
 ICCAP_VAR VS         0              
 ICCAP_VAR VB         0              

 #VD              ID              IB              IG             
  0               -3.1865e-008    7.443e-009      1.2893e-009    
  -0.05           -2.3355e-005    1.0391e-008     -2.6154e-009   
  -0.1            -4.0677e-005    9.723e-009      1.069e-010     
  -0.15           -5.3698e-005    -1.9372e-008    1.9638e-009    
  -0.2            -6.3024e-005    -1.4096e-008    1.3963e-009    
  -0.25           -6.9923e-005    -1.0608e-008    -6.71e-011     
  -0.3            -7.4556e-005    1.4943e-008     -1.9225e-009   
  -0.35           -7.9213e-005    1.031e-008      7.138e-010     
  -0.4            -8.3268e-005    -2.5613e-008    1.261e-009     
  -0.45           -8.6473e-005    -2.0018e-008    1.79e-009      
  -0.5            -8.9519e-005    -1.2649e-008    1.726e-010     
  -0.55           -9.1281e-005    9.121e-009      -2.3392e-009   
  -0.6            -9.4716e-005    1.2645e-008     2.0042e-009    
  -0.65           -9.7238e-005    -1.0545e-008    -6.88e-011     
  -0.7            -9.8692e-005    1.4807e-008     -1.913e-009    
  -0.75           -0.000101437    1.0403e-008     7.111e-010     
  -0.8            -0.000104154    -2.5571e-008    1.263e-009     
  -0.85           -0.000106154    -1.0094e-008    -2.649e-010    
  -0.9            -0.000107548    1.8905e-008     -1.6649e-009   
  -0.95           -0.000110273    1.0615e-008     8.836e-010     
  -1              -0.000112633    -2.7167e-008    1.2017e-009    
  -1.05           -0.000114355    -9.985e-009     -1.4e-010      
  -1.1            -0.00011584     1.3707e-008     -1.4261e-009   
  -1.15           -0.00011838     1.1033e-008     9.016e-010     
  -1.2            -0.00012073     -2.5035e-008    1.2855e-009    
  -1.25           -0.0001228      -1.0931e-008    2.45e-011      
  -1.3            -0.00012361     8.137e-009      -2.4156e-009   
  -1.35           -0.00012569     9.741e-009      8.53e-011      
  -1.4            -0.0001288      -1.6864e-008    2.4223e-009    
  -1.45           -0.00013063     -1.8986e-008    1.9729e-009    
  -1.5            -0.0001324      -2.0003e-008    1.7231e-009    
  -1.55           -0.00013461     -1.6285e-008    1.5139e-009    
  -1.6            -0.00013659     -1.3405e-008    2.275e-010     
  -1.65           -0.0001373      8.306e-009      -1.2813e-009   
  -1.7            -0.00013976     1.0006e-008     5.997e-010     
  -1.75           -0.0001424      -2.1028e-008    1.5907e-009    
  -1.8            -0.00014359     -1.0451e-008    -8.221e-010    
END_DB

BEGIN_DB
 ICCAP_VAR VG         -1.44          
 ICCAP_VAR VS         0              
 ICCAP_VAR VB         0              

 #VD              ID              IB              IG             
  0               -5.7233e-008    7.33e-010       2.4659e-009    
  -0.05           -6.3178e-005    9.461e-009      -2.572e-009    
  -0.1            -0.00012028     9.59e-009       2.3482e-009    
  -0.15           -0.00017125     -1.0163e-008    -2.539e-010    
  -0.2            -0.00021537     1.3147e-008     -2.0316e-009   
  -0.25           -0.00025414     9.427e-009      3.707e-010     
  -0.3            -0.00028776     -1.9262e-008    1.9451e-009    
  -0.35           -0.00031535     -1.0157e-008    -5.966e-010    
  -0.4            -0.00033806     1.9882e-008     -1.6007e-009   
  -0.45           -0.00035834     1.0312e-008     7.067e-010     
  -0.5            -0.00037583     -2.1767e-008    1.4682e-009    
  -0.55           -0.00039005     -1.2977e-008    1.985e-010     
  -0.6            -0.00040089     8.003e-009      -2.6128e-009   
  -0.65           -0.00041427     1.1642e-008     1.4675e-009    
  -0.7            -0.00042351     -1.4242e-008    2.6743e-009    
  -0.75           -0.00043219     -2.7274e-008    1.2013e-009    
  -0.8            -0.00044013     -1.0271e-008    -2.161e-010    
  -0.85           -0.00044604     1.2615e-008     -2.0776e-009   
  -0.9            -0.00045366     9.428e-009      3.445e-010     
  -0.95           -0.00046158     -1.8913e-008    2.0045e-009    
  -1              -0.00046732     -1.0027e-008    -5.655e-010    
  -1.05           -0.00047244     1.9235e-008     -1.6407e-009   
  -1.1            -0.00047918     1.0204e-008     6.724e-010     
  -1.15           -0.00048589     -2.154e-008     1.5036e-009    
  -1.2            -0.00049174     -1.3323e-008    2.205e-010     
  -1.25           -0.00049503     8.362e-009      -1.2798e-009   
  -1.3            -0.00050133     9.94e-009       6.151e-010     
  -1.35           -0.00050762     -2.1024e-008    1.5831e-009    
  -1.4            -0.00051153     -1.0738e-008    -8.297e-010    
  -1.45           -0.00051581     2.3827e-008     -1.4237e-009   
  -1.5            -0.00052208     1.0614e-008     9.117e-010     
  -1.55           -0.00052775     -2.5169e-008    1.2822e-009    
  -1.6            -0.00053256     -2.7292e-008    2.4579e-009    
  -1.65           -0.00053709     -1.0149e-008    -2.557e-010    
  -1.7            -0.00053987     1.3291e-008     -2.0249e-009   
  -1.75           -0.00054523     9.482e-009      3.789e-010     
  -1.8            -0.0005512      -1.9007e-008    1.9394e-009    
END_DB

BEGIN_DB
 ICCAP_VAR VG         -1.8           
 ICCAP_VAR VS         0              
 ICCAP_VAR VB         0              

 #VD              ID              IB              IG             
  0               -6.898e-008     -1.0272e-008    -5.253e-010    
  -0.05           -9.2469e-005    -2.1106e-008    9.135e-010     
  -0.1            -0.00018033     -2.3651e-008    -9.055e-010    
  -0.15           -0.00026334     2.5211e-008     -1.387e-009    
  -0.2            -0.00034178     1.0478e-008     9.841e-010     
  -0.25           -0.00041492     -2.6008e-008    1.2431e-009    
  -0.3            -0.00048228     -2.6826e-008    2.3303e-009    
  -0.35           -0.0005443      -1.9247e-008    1.8733e-009    
  -0.4            -0.00060039     -1.0302e-008    -6.447e-010    
  -0.45           -0.00065068     2.075e-008      -1.562e-009    
  -0.5            -0.00069681     1.0367e-008     7.424e-010     
  -0.55           -0.00073788     -2.2223e-008    1.4292e-009    
  -0.6            -0.00077405     -1.2399e-008    1.658e-010     
  -0.65           -0.00080414     7.81e-009       -2.5867e-009   
  -0.7            -0.00083467     1.1812e-008     1.5052e-009    
  -0.75           -0.00085912     -1.4729e-008    2.6449e-009    
  -0.8            -0.00088083     -2.717e-008     2.4539e-009    
  -0.85           -0.00090059     -1.0257e-008    -2.588e-010    
  -0.9            -0.00091658     1.3198e-008     -2.0268e-009   
  -0.95           -0.00093321     9.574e-009      3.853e-010     
  -1              -0.00094926     -1.9187e-008    1.94e-009      
  -1.05           -0.00096243     -1.9629e-008    1.7002e-009    
  -1.1            -0.00097411     -1.0817e-008    -7.661e-010    
  -1.15           -0.00098466     2.2663e-008     -1.4726e-009   
  -1.2            -0.00099706     1.0894e-008     8.452e-010     
  -1.25           -0.00100819     -2.4255e-008    1.3336e-009    
  -1.3            -0.00101619     -1.0852e-008    -1.0304e-009   
  -1.35           -0.00102525     2.6908e-008     -1.3466e-009   
  -1.4            -0.00103686     1.0448e-008     1.122e-009     
  -1.45           -0.00104569     -2.7231e-008    2.506e-009     
  -1.5            -0.00105406     -1.8263e-008    2.0824e-009    
  -1.55           -0.00106196     -2.18e-008      1.8245e-009    
  -1.6            -0.00107037     -1.7885e-008    1.599e-009     
  -1.65           -0.00107863     -1.4618e-008    1.4201e-009    
  -1.7            -0.00108648     -1.2355e-008    1.618e-010     
  -1.75           -0.00109136     7.971e-009      -2.5837e-009   
  -1.8            -0.00110248     1.1954e-008     1.5085e-009    
END_DB

BEGIN_DB
 ICCAP_VAR VG         0              
 ICCAP_VAR VS         0              
 ICCAP_VAR VB         0.9            

 #VD              ID              IB              IG             
  0               1.391e-010      -1.3412e-008    -7.713e-010    
  -0.05           -2.1411e-009    8.944e-009      -1.1631e-009   
  -0.1            -1.7828e-009    -1.1092e-008    1.3717e-009    
  -0.15           2.3215e-009     -9.352e-009     9.687e-010     
  -0.2            2.2427e-009     1.1002e-008     1.1219e-009    
  -0.25           2.1118e-009     1.192e-008      1.274e-009     
  -0.3            1.9701e-009     9.89e-009       -1.429e-010    
  -0.35           2.047e-009      9.65e-009       2.25e-011      
  -0.4            2.146e-009      9.587e-009      1.811e-010     
  -0.45           2.2377e-009     1.0116e-008     3.625e-010     
  -0.5            2.3065e-009     1.0729e-008     5.297e-010     
  -0.55           2.3442e-009     1.0655e-008     7.002e-010     
  -0.6            2.3443e-009     1.0522e-008     8.602e-010     
  -0.65           2.3047e-009     1.0201e-008     1.0119e-009    
  -0.7            2.2149e-009     1.1286e-008     1.1554e-009    
  -0.75           2.0698e-009     1.2291e-008     1.3164e-009    
  -0.8            1.9827e-009     9.794e-009      -1.058e-010    
  -0.85           2.0651e-009     9.593e-009      5.4e-011       
  -0.9            2.1712e-009     9.603e-009      2.299e-010     
  -0.95           2.2585e-009     1.0214e-008     4.004e-010     
  -1              2.3186e-009     1.0436e-008     5.802e-010     
  -1.05           2.3459e-009     1.0434e-008     7.39e-010      
  -1.1            2.334e-009      1.0391e-008     8.903e-010     
  -1.15           2.2876e-009     1.0417e-008     1.0431e-009    
  -1.2            2.1856e-009     1.0477e-008     1.1937e-009    
  -1.25           2.0237e-009     1.1416e-008     1.3553e-009    
  -1.3            1.8776e-009     1.2564e-008     -1.4052e-009   
  -1.35           -1.2886e-009    8.692e-009      -1.8618e-009   
  -1.4            -1.6544e-009    -1.4015e-008    1.7102e-009    
  -1.45           2.3468e-009     -9.35e-009      7.179e-010     
  -1.5            2.3407e-009     1.0381e-008     8.756e-010     
  -1.55           2.2976e-009     1.0365e-008     1.0237e-009    
  -1.6            2.2012e-009     1.1456e-008     1.1706e-009    
  -1.65           2.0585e-009     1.2264e-008     1.329e-009     
  -1.7            1.8625e-009     1.267e-008      -1.4173e-009   
  -1.75           -1.3043e-009    8.489e-009      -1.8544e-009   
  -1.8            -1.6475e-009    -1.4498e-008    1.7409e-009    
END_DB

BEGIN_DB
 ICCAP_VAR VG         -0.36          
 ICCAP_VAR VS         0              
 ICCAP_VAR VB         0.9            

 #VD              ID              IB              IG             
  0               1.7541e-009     -1.0068e-008    1.4824e-009    
  -0.05           2.3113e-009     1.0128e-008     9.722e-010     
  -0.1            2.2364e-009     1.0127e-008     1.1215e-009    
  -0.15           2.1059e-009     1.0874e-008     1.2778e-009    
  -0.2            1.9712e-009     9.818e-009      -1.368e-010    
  -0.25           2.0526e-009     9.455e-009      2.54e-011      
  -0.3            2.1518e-009     9.597e-009      1.922e-010     
  -0.35           2.2403e-009     1.0086e-008     3.685e-010     
  -0.4            2.3087e-009     1.0494e-008     5.402e-010     
  -0.45           2.3435e-009     1.0579e-008     7.138e-010     
  -0.5            2.3352e-009     1.0334e-008     8.673e-010     
  -0.55           2.2952e-009     1.0274e-008     1.0145e-009    
