! VERSION = 6.00
BEGIN_HEADER
 ICCAP_INPUTS
  VG         V  B GROUND SMU4 0.001 LIN        2    0          -1.8       6    -0.36     
  VS         V  E GROUND SMU2 0.1 CON        0
  VD         V  S GROUND SMU1 0.1 LIN        1    0          -1.8       37   -0.05     
  VB         V  C GROUND SMU3 0.1 LIN        3    0          0.9        2    0.9       
 ICCAP_OUTPUTS
  ID         I  S GROUND SMU1 B
  IB         I  C GROUND SMU3 B
  IG         I  B GROUND SMU4 B
END_HEADER

BEGIN_DB
 ICCAP_VAR VG         0              
 ICCAP_VAR VS         0              
 ICCAP_VAR VB         0              

 #VD              ID              IB              IG             
  0               1.2438e-009     -1.0651e-008    1.2073e-009    
  -0.05           2.1861e-009     1.0287e-008     3.537e-010     
  -0.1            2.2737e-009     1.0232e-008     5.506e-010     
  -0.15           2.3207e-009     9.895e-009      7.29e-010      
  -0.2            2.3218e-009     9.776e-009      8.96e-010      
  -0.25           2.2668e-009     1.0367e-008     1.0542e-009    
  -0.3            2.1514e-009     1.1737e-008     1.2133e-009    
  -0.35           1.7829e-009     1.2625e-008     -1.4618e-009   
  -0.4            -1.3498e-009    8.297e-009      -1.7912e-009   
  -0.45           -2.2048e-009    -1.0702e-008    -5.331e-010    
  -0.5            -6.313e-010     -1.8471e-008    2.3524e-009    
  -0.55           2.0913e-009     -5.364e-009     1.2652e-009    
  -0.6            1.8247e-009     1.1706e-008     -1.4134e-009   
  -0.65           -1.2902e-009    8.071e-009      -1.811e-009    
  -0.7            -1.618e-009     -1.3838e-008    1.6826e-009    
  -0.75           2.3213e-009     -9.007e-009     7.613e-010     
  -0.8            2.3124e-009     9.883e-009      9.282e-010     
  -0.85           2.2489e-009     1.0871e-008     1.0715e-009    
  -0.9            2.1275e-009     1.228e-008      1.2474e-009    
  -0.95           1.9298e-009     9.845e-009      -1.35e-010     
  -1              2.0182e-009     9.66e-009       4.37e-011      
  -1.05           2.1287e-009     9.924e-009      2.355e-010     
  -1.1            2.2255e-009     1.0258e-008     4.349e-010     
  -1.15           2.2961e-009     1.0249e-008     6.275e-010     
  -1.2            2.3253e-009     1.011e-008      7.99e-010      
  -1.25           2.303e-009      9.819e-009      9.66e-010      
  -1.3            2.2231e-009     1.098e-008      1.1173e-009    
  -1.35           2.0795e-009     1.2252e-008     1.2899e-009    
  -1.4            1.8217e-009     1.2726e-008     -1.4136e-009   
  -1.45           -1.2938e-009    8.522e-009      -1.8293e-009   
  -1.5            -1.6294e-009    -1.4007e-008    1.6905e-009    
  -1.55           2.3183e-009     -9.003e-009     7.729e-010     
  -1.6            2.3149e-009     9.851e-009      9.249e-010     
  -1.65           2.2534e-009     1.0762e-008     1.0817e-009    
  -1.7            2.1245e-009     1.2072e-008     1.2418e-009    
  -1.75           1.918e-009      9.842e-009      -1.338e-010    
  -1.8            2.0121e-009     9.599e-009      4.32e-011      
END_DB

BEGIN_DB
 ICCAP_VAR VG         -0.36          
 ICCAP_VAR VS         0              
 ICCAP_VAR VB         0              

 #VD              ID              IB              IG             
  0               -1.1515e-009    -8.775e-009     -1.2905e-009   
  -0.05           -4.6173e-009    -2.6405e-008    1.3638e-009    
  -0.1            -4.2143e-009    -9.156e-009     1.2486e-009    
  -0.15           -4.8101e-009    -9.846e-009     2.8255e-009    
  -0.2            -3.7579e-009    1.2627e-008     1.824e-009     
  -0.25           -3.2848e-009    1.0577e-008     4.658e-010     
  -0.3            -3.6292e-009    1.0666e-008     6.512e-010     
  -0.35           -4.0082e-009    1.0252e-008     8.225e-010     
  -0.4            -4.418e-009     9.831e-009      9.79e-010      
  -0.45           -5.2043e-009    1.1558e-008     -1.4755e-009   
  -0.5            -7.6244e-009    8.126e-009      -1.3777e-009   
  -0.55           -8.0031e-009    8.656e-009      -1.3326e-009   
  -0.6            -8.274e-009     8.633e-009      -1.3025e-009   
  -0.65           -8.562e-009     7.647e-009      -1.2813e-009   
  -0.7            -8.7859e-009    8.199e-009      -2.5929e-009   
  -0.75           -1.1734e-008    -9.155e-009     -1.7277e-009   
  -0.8            -1.0994e-008    7.745e-009      -2.2457e-009   
  -0.85           -1.1198e-008    1.1756e-008     -1.3939e-009   
  -0.9            -1.11e-008      1.0303e-008     -2.1803e-009   
  -0.95           -1.1665e-008    1.093e-008      -2.3034e-009   
  -1              -8.311e-009     1.0345e-008     1.3454e-009    
  -1.05           -1.2778e-008    -2.6382e-008    2.6204e-009    
  -1.1            -1.389e-008     -1.3189e-008    1.906e-010     
  -1.15           -1.3806e-008    8.557e-009      -1.3056e-009   
  -1.2            -1.0729e-008    1.042e-008      9.894e-010     
  -1.25           -1.4526e-008    -2.0874e-008    1.5408e-009    
  -1.3            -1.6074e-008    -2.1895e-008    1.867e-009     
  -1.35           -1.5452e-008    -1.7812e-008    2.0258e-009    
  -1.4            -1.6714e-008    -2.6606e-008    2.389e-009     
  -1.45           -1.761e-008     -1.1416e-008    5.54e-011      
  -1.5            -1.7396e-008    8.805e-009      -1.2856e-009   
  -1.55           -1.4399e-008    9.819e-009      1.1397e-009    
  -1.6            -1.865e-008     -2.3677e-008    1.3565e-009    
  -1.65           -2.0551e-008    -1.0563e-008    -7.06e-010     
  -1.7            -1.9277e-008    1.2497e-008     -1.9835e-009   
  -1.75           -1.8313e-008    1.0191e-008     2.5e-011       
  -1.8            -2.0034e-008    -1.106e-008     2.8115e-009    
END_DB

BEGIN_DB
 ICCAP_VAR VG         -0.72          
 ICCAP_VAR VS         0              
 ICCAP_VAR VB         0              

 #VD              ID              IB              IG             
  0               -2.5781e-010    1.1169e-008     -4.967e-010    
  -0.05           -2.8116e-006    1.0304e-008     2.8431e-009    
  -0.1            -4.2252e-006    -1.8475e-008    1.6464e-009    
  -0.15           -4.9396e-006    -1.0525e-008    -7.053e-010    
  -0.2            -5.3869e-006    1.819e-008      -1.6564e-009   
  -0.25           -5.7552e-006    9.956e-009      5.422e-010     
  -0.3            -6.1598e-006    -1.8865e-008    1.9005e-009    
  -0.35           -6.3855e-006    -1.0086e-008    -5.146e-010    
  -0.4            -6.5752e-006    1.455e-008      -1.8552e-009   
  -0.45           -6.9221e-006    1.3004e-008     1.9209e-009    
  -0.5            -7.1856e-006    -1.4558e-008    1.4343e-009    
  -0.55           -7.4138e-006    -1.4242e-008    1.4119e-009    
  -0.6            -7.6365e-006    -1.3871e-008    2.182e-010     
  -0.65           -7.696e-006     8.746e-009      -1.2816e-009   
  -0.7            -7.9247e-006    9.692e-009      3.626e-010     
  -0.75           -8.2708e-006    -1.6917e-008    2.187e-009     
  -0.8            -8.485e-006     -1.8599e-008    1.9368e-009    
  -0.85           -8.6656e-006    -2.2173e-008    1.8895e-009    
  -0.9            -8.8738e-006    -2.1416e-008    1.8395e-009    
  -0.95           -9.0833e-006    -2.0664e-008    1.7944e-009    
  -1              -9.2906e-006    -2.0013e-008    1.7476e-009    
  -1.05           -9.4962e-006    -1.917e-008     1.704e-009     
  -1.1            -9.6185e-006    -1.0423e-008    -6.669e-010    
  -1.15           -9.7816e-006    1.721e-008      -1.7008e-009   
  -1.2            -1.00739e-005   1.2075e-008     2.0419e-009    
  -1.25           -1.03665e-005   -1.2806e-008    1.705e-010     
  -1.3            -1.03252e-005   8.555e-009      -1.2806e-009   
  -1.35           -1.07899e-005   1.1988e-008     1.4811e-009    
  -1.4            -1.09688e-005   -1.2751e-008    2.7341e-009    
  -1.45           -1.11749e-005   -2.4962e-008    1.2853e-009    
  -1.5            -1.119e-005     1.0159e-008     -2.6732e-009   
  -1.55           -1.1607e-005    1.21e-008       1.501e-009     
  -1.6            -1.1769e-005    -1.5444e-008    1.4858e-009    
  -1.65           -1.2011e-005    -1.1178e-008    -8.7e-012      
  -1.7            -1.1994e-005    1.2826e-008     -1.9869e-009   
  -1.75           -1.2238e-005    1.0331e-008     6.785e-010     
  -1.8            -1.261e-005     -2.4727e-008    1.3077e-009    
END_DB

BEGIN_DB
 ICCAP_VAR VG         -1.08          
 ICCAP_VAR VS         0              
 ICCAP_VAR VB         0              

 #VD              ID              IB              IG             
  0               -2.8269e-008    1.2768e-008     -3.821e-010    
  -0.05           -3.0681e-005    -1.9131e-008    8.16e-010      
  -0.1            -5.5367e-005    -2.6144e-008    2.628e-009     
  -0.15           -7.4674e-005    -1.9155e-008    1.8164e-009    
  -0.2            -8.957e-005     -1.266e-008     1.716e-010     
  -0.25           -0.000100154    8.847e-009      -2.322e-009    
  -0.3            -0.000109503    1.2839e-008     1.9789e-009    
  -0.35           -0.00011632     -1.3262e-008    8.3e-011       
  -0.4            -0.00012085     7.593e-009      -2.4755e-009   
  -0.45           -0.00012551     1.007e-008      2.57e-011      
  -0.5            -0.00013031     -1.6016e-008    2.5058e-009    
  -0.55           -0.0001335      -1.7957e-008    2.0684e-009    
  -0.6            -0.00013653     -2.1122e-008    1.8076e-009    
  -0.65           -0.00013894     -1.081e-008     -7.257e-010    
  -0.7            -0.00014113     2.0865e-008     -1.5095e-009   
  -0.75           -0.00014407     1.0435e-008     8.116e-010     
  -0.8            -0.00014679     -2.3134e-008    1.3745e-009    
  -0.85           -0.00014904     -2.6392e-008    1.2268e-009    
  -0.9            -0.00015114     -1.0469e-008    -1.476e-010    
  -0.95           -0.00015214     1.0464e-008     -2.1655e-009   
  -1              -0.00015436     9.684e-009      2.958e-010     
  -1.05           -0.00015717     -1.7856e-008    2.115e-009     
  -1.1            -0.00015879     -1.0245e-008    -5.307e-010    
  -1.15           -0.00016008     1.7275e-008     -1.6876e-009   
  -1.2            -0.00016223     1.0353e-008     6.43e-010      
  -1.25           -0.00016478     -2.0236e-008    1.5693e-009    
  -1.3            -0.00016649     -1.401e-008     1.3915e-009    
  -1.35           -0.00016832     -2.6313e-008    1.2384e-009    
  -1.4            -0.00016995     -1.8024e-008    2.0304e-009    
  -1.45           -0.0001712      -1.0429e-008    -5.822e-010    
  -1.5            -0.0001722      1.8122e-008     -1.642e-009    
  -1.55           -0.00017433     1.0395e-008     6.83e-010      
  -1.6            -0.00017673     -2.0954e-008    1.5109e-009    
  -1.65           -0.00017835     -2.4801e-008    1.2781e-009    
  -1.7            -0.00017988     -2.6887e-008    2.4138e-009    
  -1.75           -0.00018147     -1.8348e-008    1.954e-009     
  -1.8            -0.00018298     -1.9158e-008    1.6982e-009    
END_DB

BEGIN_DB
 ICCAP_VAR VG         -1.44          
 ICCAP_VAR VS         0              
 ICCAP_VAR VB         0              

 #VD              ID              IB              IG             
  0               -3.4202e-008    -1.95e-010      -2.5332e-009   
  -0.05           -6.6852e-005    -2.6906e-008    1.4867e-009    
  -0.1            -0.00012767     -1.7725e-008    -1.7003e-009   
  -0.15           -0.00018305     1.6588e-008     -1.5175e-009   
  -0.2            -0.00023266     1.0797e-008     8e-010         
  -0.25           -0.00027661     -2.3078e-008    1.3864e-009    
  -0.3            -0.00031412     -1.0688e-008    -1.0069e-009   
  -0.35           -0.00034636     2.6208e-008     -1.3585e-009   
  -0.4            -0.0003753      1.007e-008      1.0855e-009    
  -0.45           -0.0003988      -2.6978e-008    2.5445e-009    
  -0.5            -0.00041866     -1.7498e-008    2.1241e-009    
  -0.55           -0.00043503     -1.0222e-008    -5.244e-010    
  -0.6            -0.00044841     1.6986e-008     -1.7019e-009   
  -0.65           -0.00046119     1.0437e-008     6.366e-010     
  -0.7            -0.00047281     -2.0311e-008    1.5772e-009    
  -0.75           -0.00048238     -1.4078e-008    1.405e-009     
  -0.8            -0.00048952     -1.0807e-008    -9.853e-010    
  -0.85           -0.00049661     2.5998e-008     -1.3656e-009   
  -0.9            -0.0005052      1.0154e-008     1.0669e-009    
  -0.95           -0.00051175     -2.6807e-008    2.5683e-009    
  -1              -0.00051749     -2.6667e-008    2.3602e-009    
  -1.05           -0.00052316     -1.8863e-008    1.8909e-009    
  -1.1            -0.00052832     -1.8385e-008    1.6451e-009    
  -1.15           -0.00053366     -1.4981e-008    1.451e-009     
  -1.2            -0.00053872     -1.2672e-008    1.652e-010     
  -1.25           -0.00054129     7.629e-009      -2.5577e-009   
  -1.3            -0.00054866     1.0866e-008     1.4939e-009    
  -1.35           -0.00055172     -2.1656e-008    1.8526e-009    
  -1.4            -0.00055558     -1.0689e-008    -6.959e-010    
  -1.45           -0.0005589      2.0297e-008     -1.5435e-009   
  -1.5            -0.00056366     1.0714e-008     7.798e-010     
  -1.55           -0.00056855     -2.2737e-008    1.4089e-009    
  -1.6            -0.00057105     -1.0759e-008    -9.821e-010    
  -1.65           -0.0005741      2.5886e-008     -1.3661e-009   
  -1.7            -0.00057988     1.0199e-008     1.0673e-009    
  -1.75           -0.00058377     -2.6723e-008    2.5733e-009    
  -1.8            -0.00058709     -1.7241e-008    2.1601e-009    
END_DB

BEGIN_DB
 ICCAP_VAR VG         -1.8           
 ICCAP_VAR VS         0              
 ICCAP_VAR VB         0              

 #VD              ID              IB              IG             
  0               -3.5094e-008    6.714e-009      1.3034e-009    
  -0.05           -9.3349e-005    9.737e-009      -2.5695e-009   
  -0.1            -0.00018248     1.0124e-008     2.7994e-009    
  -0.15           -0.00026736     -1.171e-008     8.87e-011      
  -0.2            -0.00034678     7.582e-009      -2.4891e-009   
  -0.25           -0.0004219      1.0291e-008     1.28e-011      
  -0.3            -0.0004922      -1.6094e-008    2.5161e-009    
  -0.35           -0.00055652     -1.033e-008     -2.224e-010    
  -0.4            -0.00061487     1.1792e-008     -2.061e-009    
  -0.45           -0.00066971     1.2744e-008     1.9215e-009    
  -0.5            -0.00071816     -1.2717e-008    1.82e-010      
  -0.55           -0.00076016     7.851e-009      -2.5818e-009   
  -0.6            -0.00080081     1.1958e-008     1.4782e-009    
  -0.65           -0.00083452     -1.4873e-008    2.6469e-009    
  -0.7            -0.0008645      -2.7074e-008    2.4607e-009    
  -0.75           -0.00089108     -1.8239e-008    2.0086e-009    
  -0.8            -0.00091403     -1.0444e-008    -5.914e-010    
  -0.85           -0.00093335     1.8377e-008     -1.6351e-009   
  -0.9            -0.00095237     1.0413e-008     6.93e-010      
  -0.95           -0.00096967     -2.1162e-008    1.5063e-009    
  -1              -0.00098413     -2.5017e-008    1.2797e-009    
  -1.05           -0.00099698     -2.6897e-008    2.3954e-009    
  -1.1            -0.00100884     -1.8473e-008    1.9412e-009    
  -1.15           -0.0010198      -1.8981e-008    1.683e-009     
  -1.2            -0.00103009     -1.5586e-008    1.4826e-009    
  -1.25           -0.00103957     -1.2968e-008    1.865e-010     
  -1.3            -0.00104591     7.912e-009      -2.5872e-009   
  -1.35           -0.00105735     1.073e-008      1.4611e-009    
  -1.4            -0.00106442     -1.4481e-008    2.6583e-009    
  -1.45           -0.00107159     -2.7023e-008    2.4815e-009    
  -1.5            -0.00107868     -1.8024e-008    2.0341e-009    
  -1.55           -0.00108533     -2.0601e-008    1.7801e-009    
  -1.6            -0.00109136     -1.0761e-008    -7.441e-010    
  -1.65           -0.00109676     2.1135e-008     -1.5e-009      
  -1.7            -0.00110414     1.0761e-008     8.245e-010     
  -1.75           -0.00111145     -2.347e-008     1.3667e-009    
  -1.8            -0.00111742     -1.1669e-008    9.33e-011      
END_DB

BEGIN_DB
 ICCAP_VAR VG         0              
 ICCAP_VAR VS         0              
 ICCAP_VAR VB         0.9            

 #VD              ID              IB              IG             
  0               4.662e-010      1.0626e-008     2.801e-010     
  -0.05           -2.834e-010     -1.6101e-008    2.7603e-009    
  -0.1            2.1933e-009     1.0378e-008     1.178e-009     
  -0.15           1.9031e-009     1.019e-008      -2.063e-010    
  -0.2            8.772e-010      2.3982e-008     -1.5711e-009   
  -0.25           -1.4814e-009    7.171e-009      -1.7213e-009   
  -0.3            -2.1661e-009    -1.0635e-008    -3.79e-010     
  -0.35           -1.3594e-009    -2.5742e-008    2.5719e-009    
  -0.4            2.2288e-009     -3.303e-009     1.1432e-009    
  -0.45           1.8849e-009     1.0367e-008     -2.397e-010    
  -0.5            8.491e-010      2.3544e-008     -1.6121e-009   
  -0.55           -1.5212e-009    6.485e-009      -1.6929e-009   
  -0.6            -1.54e-009      -1.9551e-008    2.1348e-009    
  -0.65           2.2517e-009     -7.176e-009     4.973e-010     
  -0.7            2.3156e-009     1.0684e-008     6.728e-010     
  -0.75           2.3306e-009     9.911e-009      8.368e-010     
  -0.8            2.3043e-009     9.895e-009      9.873e-010     
  -0.85           1.7843e-009     1.1488e-008     -1.4863e-009   
  -0.9            -1.3813e-009    7.955e-009      -1.778e-009    
  -0.95           -2.1983e-009    -1.0711e-008    -4.992e-010    
  -1              -5.905e-010     -1.8109e-008    2.4324e-009    
  -1.05           2.152e-009      -4.403e-009     1.236e-009     
  -1.1            1.9318e-009     9.997e-009      -1.558e-010    
  -1.15           9.18e-010       2.4943e-008     -1.5151e-009   
  -1.2            -1.4204e-009    7.634e-009      -1.7576e-009   
  -1.25           -2.1874e-009    -1.0759e-008    -4.459e-010    
  -1.3            -5.439e-010     -1.7722e-008    2.4893e-009    
  -1.35           2.1854e-009     -3.88e-009      1.2007e-009    
  -1.4            1.9172e-009     1.0094e-008     -1.905e-010    
  -1.45           1.994e-009      9.748e-009      -2.73e-011     
  -1.5            2.0936e-009     9.809e-009      1.484e-010     
  -1.55           2.1882e-009     1.0323e-008     3.371e-010     
  -1.6            2.2702e-009     1.0413e-008     5.315e-010     
  -1.65           2.3178e-009     1.0253e-008     7.048e-010     
  -1.7            2.3281e-009     9.91e-009       8.63e-010      
  -1.75           2.297e-009      1.0065e-008     1.0171e-009    
  -1.8            2.2019e-009     1.1479e-008     1.171e-009     
END_DB

BEGIN_DB
 ICCAP_VAR VG         -0.36          
 ICCAP_VAR VS         0              
 ICCAP_VAR VB         0.9            

 #VD              ID              IB              IG             
  0               -2.2336e-009    2.8e-010        -2.4937e-009   
  -0.05           -1.4825e-009    -2.2566e-008    2.3322e-009    
  -0.1            2.0896e-009     -5.37e-009      1.3026e-009    
  -0.15           1.8263e-009     1.2863e-008     -1.4274e-009   
  -0.2            -1.3109e-009    8.55e-009       -1.8308e-009   
  -0.25           -1.6349e-009    -1.4372e-008    1.74e-009      
  -0.3            2.3098e-009     -9.04e-009      7.242e-010     
  -0.35           2.3177e-009     9.851e-009      8.791e-010     
  -0.4            2.2803e-009     1.0192e-008     1.0274e-009    
  -0.45           2.187e-009      1.1584e-008     1.1746e-009    
  -0.5            1.8869e-009     1.0232e-008     -2.133e-010    
  -0.55           8.577e-010      2.3947e-008     -1.5768e-009   
