! VERSION = 6.00
BEGIN_HEADER
 ICCAP_INPUTS
  VG         V  B GROUND SMU4 0.001 LIN        1    0          -1.8       37   -0.05     
  VS         V  E GROUND SMU2 0.1 CON        0
  VB         V  C GROUND SMU3 0.1 LIN        3    0          1.8        3    0.9       
  VD         V  S GROUND SMU1 0.1 LIN        2    -0.1       -1.8       2    -1.7      
 ICCAP_OUTPUTS
  IG         I  B GROUND SMU4 B
  ID         I  S GROUND SMU1 B
  IB         I  C GROUND SMU3 B
END_HEADER

BEGIN_DB
 ICCAP_VAR VS         0              
 ICCAP_VAR VB         0              
 ICCAP_VAR VD         -0.1           

 #VG              IG              ID              IB             
  0               -2.414e-010     -3.516e-010     -1.2225e-008   
  -0.05           1.96e-009       -2.0519e-009    -2.0701e-008   
  -0.1            1.647e-009      -8.38e-010      -8.379e-009    
  -0.15           1.4335e-009     -3.3543e-009    -8.997e-009    
  -0.2            -1.4344e-009    -2.7473e-008    9.011e-009     
  -0.25           -1.3175e-009    -4.353e-009     8.444e-009     
  -0.3            2.0358e-009     -7.8468e-008    -2.7304e-008   
  -0.35           8.387e-010      -1.3314e-007    7.458e-009     
  -0.4            -6.287e-010     -2.6237e-007    1.0038e-008    
  -0.45           7.208e-010      -3.2075e-007    -1.079e-008    
  -0.5            -5.576e-010     -5.3398e-007    1.1686e-008    
  -0.55           6.702e-010      -6.3029e-007    -1.0575e-008   
  -0.6            1.8598e-009     -7.9627e-007    1.2008e-008    
  -0.65           -2.4358e-009    -5.85e-009      1.0356e-008    
  -0.7            -2.7223e-009    -9.054e-009     -1.6425e-008   
  -0.75           2.6905e-009     -1.2181e-006    9.969e-009     
  -0.8            -2.7391e-009    -4.61e-008      1.0217e-008    
  -0.85           2.7406e-009     -1.047e-007     -1.0496e-008   
  -0.9            -1.7727e-009    -6.852e-007     1.0409e-008    
  -0.95           -6.849e-010     -1.3262e-006    -1.0698e-008   
  -1              1.7161e-009     -3.0071e-006    -1.9947e-008   
  -1.05           1.2826e-009     -1.782e-006     -9.028e-009    
  -1.1            2.8739e-009     -2.9484e-006    -9.66e-009     
  -1.15           2.6352e-009     -1.4339e-006    -2.01e-010     
  -1.2            1.9857e-009     -2.1163e-006    -2.468e-009    
  -1.25           1.3907e-009     -3.3375e-006    -8.172e-009    
  -1.3            1.2134e-009     -4.6253e-006    -9.129e-009    
  -1.35           2.7909e-009     -5.7675e-006    -1.2054e-008   
  -1.4            1.383e-009      -4.9106e-006    1.1207e-008    
  -1.45           1.8064e-009     -5.2292e-006    1.2959e-008    
  -1.5            6.787e-010      -6.2336e-006    1.0385e-008    
  -1.55           1.0632e-009     -6.547e-006     1.0233e-008    
  -1.6            1.4616e-009     -7.0922e-006    1.1901e-008    
  -1.65           3.334e-010      -8.4555e-006    9.666e-009     
  -1.7            7.567e-010      -8.2086e-006    1.037e-008     
  -1.75           1.1277e-009     -8.5882e-006    1.0032e-008    
  -1.8            1.536e-009      -9.0116e-006    1.1156e-008    
END_DB

BEGIN_DB
 ICCAP_VAR VS         0              
 ICCAP_VAR VB         0              
 ICCAP_VAR VD         -1.8           

 #VG              IG              ID              IB             
  0               -5.28e-011      -3.2986e-009    8.117e-009     
  -0.05           2.2552e-009     1.185e-009      1.5962e-008    
  -0.1            -1.454e-009     -3.2598e-008    2.3788e-008    
  -0.15           -1.3152e-009    -3.829e-009     8.506e-009     
  -0.2            -1.4756e-009    -1.553e-009     -1.277e-008    
  -0.25           -5.514e-010     -2.697e-007     -4.693e-009    
  -0.3            6.582e-010      -3.7844e-007    -1.0528e-008   
  -0.35           -1.789e-009     -1.29e-009      1.2112e-008    
  -0.4            -2.2515e-009    -1.84e-009      1.646e-008     
  -0.45           -9.451e-010     -1.66e-009      -1.0957e-008   
  -0.5            2.4469e-009     -2.0481e-006    -2.7403e-008   
  -0.55           1.7267e-009     -3.03e-008      -4.071e-009    
  -0.6            1.2872e-009     -3.333e-007     -9.198e-009    
  -0.65           2.8747e-009     -1.5269e-006    -9.791e-009    
  -0.7            2.648e-009      -8.01e-008      -1.03e-010     
  -0.75           2.0067e-009     -3.046e-007     -2.254e-009    
  -0.8            1.4081e-009     -1.2542e-006    -7.928e-009    
  -0.85           -1.4436e-009    -1.5286e-006    -9.009e-009    
  -0.9            -1.2666e-009    -4.484e-006     8.291e-009     
  -0.95           -2.0538e-009    -1.2878e-005    1.295e-008     
  -1              2.616e-009      -2.9428e-006    -1.0937e-008   
  -1.05           -1.6441e-009    -1.7671e-005    -8.7e-011      
  -1.1            -1.3675e-009    -9.51e-006      6.607e-009     
  -1.15           -1.2939e-009    -1.5742e-005    8.845e-009     
  -1.2            -2.4523e-009    -2.3575e-005    8.254e-009     
  -1.25           -7.239e-010     -2.2194e-005    -1.0668e-008   
  -1.3            1.6631e-009     -3.4595e-005    -1.8851e-008   
  -1.35           1.2609e-009     -2.3214e-005    -9.193e-009    
  -1.4            2.8679e-009     -3.2105e-005    -9.805e-009    
  -1.45           2.5884e-009     -2.2698e-005    -3.41e-010     
  -1.5            1.9234e-009     -2.7328e-005    -2.736e-009    
  -1.55           1.3599e-009     -3.7134e-005    -8.604e-009    
  -1.6            1.1953e-009     -4.6637e-005    -9.295e-009    
  -1.65           2.7688e-009     -5.7657e-005    -1.2795e-008   
  -1.7            1.433e-009      -5.616e-005     1.0521e-008    
  -1.75           3.036e-010      -7.072e-005     9.721e-009     
  -1.8            7.331e-010      -6.6771e-005    1.0597e-008    
END_DB

BEGIN_DB
 ICCAP_VAR VS         0              
 ICCAP_VAR VB         0.9            
 ICCAP_VAR VD         -0.1           

 #VG              IG              ID              IB             
  0               -8.521e-010     2.545e-010      9.966e-009     
  -0.05           -1.8714e-009    -1.2816e-009    8.718e-009     
  -0.1            1.6804e-009     -1.7307e-009    -1.4093e-008   
  -0.15           7.593e-010      2.3467e-009     -9.311e-009    
  -0.2            9.231e-010      2.3188e-009     1.012e-008     
  -0.25           -1.3017e-009    -6.137e-009     1.0593e-008    
  -0.3            1.5894e-009     -5.617e-009     -1.9242e-008   
  -0.35           1.2347e-009     8.08e-010       -8.918e-009    
  -0.4            1.5006e-009     -4.0445e-008    1.1342e-008    
  -0.45           2.8142e-009     1.158e-009      2.7143e-008    
  -0.5            2.1834e-009     -2.4691e-007    -1.4008e-008   
  -0.55           1.4911e-009     -1.43e-009      -6.451e-009    
  -0.6            2.8119e-009     -5.286e-008     -8.911e-009    
  -0.65           2.831e-009      -7.6e-010       1.3037e-008    
  -0.7            2.5782e-009     -3.947e-009     2.5393e-008    
  -0.75           -1.1989e-009    -2.43e-008      1.2678e-008    
  -0.8            2.852e-009      -8.09e-008      -1.0126e-008   
  -0.85           -2.7369e-009    -1.664e-007     9.981e-009     
  -0.9            2.1614e-009     -1.6589e-006    -2.5725e-008   
  -0.95           1.4755e-009     -4.852e-007     -6.869e-009    
  -1              2.8276e-009     -1.1e-006       -9.035e-009    
  -1.05           2.0093e-009     -1.7619e-006    1.3086e-008    
  -1.1            8.701e-010      -2.3155e-006    1.0771e-008    
  -1.15           1.2453e-009     -2.9313e-006    9.924e-009     
  -1.2            8.4e-011        -4.4705e-006    1.0158e-008    
  -1.25           5.251e-010      -4.3899e-006    9.918e-009     
  -1.3            9.359e-010      -4.5084e-006    1.0762e-008    
  -1.35           1.3195e-009     -5.2035e-006    1.0621e-008    
  -1.4            1.65e-010       -6.5245e-006    9.979e-009     
  -1.45           6.026e-010      -6.4818e-006    1.0161e-008    
  -1.5            1.0038e-009     -6.7234e-006    1.0384e-008    
  -1.55           1.3937e-009     -7.3674e-006    1.1319e-008    
  -1.6            1.8117e-009     -7.7996e-006    1.2996e-008    
  -1.65           6.785e-010      -8.3518e-006    1.0306e-008    
  -1.7            1.0672e-009     -8.6625e-006    1.0419e-008    
  -1.75           1.468e-009      -9.1988e-006    1.0669e-008    
  -1.8            3.095e-010      -9.9402e-006    9.613e-009     
END_DB

BEGIN_DB
 ICCAP_VAR VS         0              
 ICCAP_VAR VB         0.9            
 ICCAP_VAR VD         -1.8           

 #VG              IG              ID              IB             
  0               1.1747e-009     1.1108e-009     -1.0995e-008   
  -0.05           5.606e-010      2.3091e-009     1.0692e-008    
  -0.1            7.364e-010      2.3417e-009     1.0674e-008    
  -0.15           9.007e-010      2.2983e-009     1.0311e-008    
  -0.2            -1.305e-009     -9.5473e-009    1.001e-008     
  -0.25           1.7976e-009     -1.5906e-008    -2.7161e-008   
  -0.3            2.3933e-009     -3.9803e-008    1.0448e-008    
  -0.35           6.51e-010       -1.1043e-007    8.834e-009     
  -0.4            1.609e-010      -2.691e-007     1.2304e-008    
  -0.45           -1.9064e-009    -1.36e-009      1.0157e-008    
  -0.5            -2.082e-009     -2.71e-009      1.0145e-008    
  -0.55           2.8738e-009     -9.34e-008      -1.7787e-008   
  -0.6            -1.3163e-009    -5.42e-008      1.1489e-008    
  -0.65           2.7163e-009     -7.31e-008      -1.4548e-008   
  -0.7            -2.1245e-009    -1.393e-007     1.3059e-008    
  -0.75           1.4277e-009     -3.2421e-006    -2.237e-008    
  -0.8            1.2001e-009     -1.4588e-006    -8.817e-009    
  -0.85           2.8227e-009     -3.9973e-006    -1.1687e-008   
  -0.9            1.3696e-009     -3.5254e-006    1.1118e-008    
  -0.95           2.7149e-009     -3.3264e-006    -1.0173e-008   
  -1              9.37e-010       -9.558e-006     -1.7485e-008   
  -1.05           2.4399e-009     -1.1807e-005    -2.7485e-008   
  -1.1            1.7072e-009     -5.887e-006     -4.377e-009    
  -1.15           1.2688e-009     -9.384e-006     -9.246e-009    
  -1.2            2.8797e-009     -1.3751e-005    -9.661e-009    
  -1.25           2.6593e-009     -1.3266e-005    -1.23e-010     
  -1.3            2.0091e-009     -1.4865e-005    -2.327e-009    
  -1.35           1.3904e-009     -1.8613e-005    -8.048e-009    
  -1.4            2.8624e-009     -2.4376e-005    -9.02e-009     
  -1.45           2.0851e-009     -3.186e-005     1.2374e-008    
  -1.5            9.399e-010      -3.5547e-005    1.043e-008     
  -1.55           1.3246e-009     -4.0999e-005    1.0614e-008    
  -1.6            1.614e-010      -5.3511e-005    9.918e-009     
  -1.65           6.011e-010      -5.2038e-005    1.011e-008     
  -1.7            1.0107e-009     -5.2847e-005    1.0342e-008    
  -1.75           1.3937e-009     -5.8772e-005    1.1408e-008    
  -1.8            1.8151e-009     -6.2884e-005    1.3148e-008    
END_DB

BEGIN_DB
 ICCAP_VAR VS         0              
 ICCAP_VAR VB         1.8            
 ICCAP_VAR VD         -0.1           

 #VG              IG              ID              IB             
  0               1.362e-010      4.129e-010      1.0303e-008    
  -0.05           2.5771e-009     -4.698e-010     -1.7603e-008   
  -0.1            1.1727e-009     2.2491e-009     -3.362e-009    
  -0.15           1.3334e-009     2.0855e-009     1.1456e-008    
  -0.2            -1.436e-009     1.5309e-009     1.2732e-008    
  -0.25           -1.8609e-009    -1.3339e-009    8.394e-009     
  -0.3            1.6917e-009     -4.7282e-009    -1.4088e-008   
  -0.35           -1.3446e-009    -1.2514e-008    2.5363e-008    
  -0.4            -1.2953e-009    -5.602e-009     8.546e-009     
  -0.45           1.8833e-009     -4.3375e-008    -1.7302e-008   
  -0.5            5.185e-010      -1.1332e-007    2.137e-008     
  -0.55           2.8399e-009     -9.1479e-008    1.288e-008     
  -0.6            -2.3211e-009    -2.0925e-007    1.0691e-008    
  -0.65           -2.5979e-009    -1.1461e-007    -1.287e-008    
  -0.7            1.2352e-009     -6.0273e-007    7.82e-010      
  -0.75           1.2729e-009     -1.0934e-007    -9.962e-009    
  -0.8            2.241e-010      -1.11124e-006   8.575e-009     
  -0.85           2.5751e-009     -4.79e-008      -3.108e-009    
  -0.9            -2.5264e-009    -2.0711e-007    -2.983e-009    
  -0.95           -2.013e-009     -8.7372e-007    -2.749e-008    
  -1              9.998e-010      -1.7419e-006    -2.7696e-008   
  -1.05           7.933e-010      -1.4509e-006    1.0838e-008    
  -1.1            1.1719e-009     -1.8354e-006    1.017e-008     
  -1.15           1.5854e-009     -2.4198e-006    1.2612e-008    
  -1.2            2.0029e-009     -2.7428e-006    1.2777e-008    
  -1.25           8.715e-010      -3.3267e-006    1.0481e-008    
  -1.3            1.2495e-009     -3.998e-006     1.0227e-008    
  -1.35           9.25e-011       -5.4082e-006    9.915e-009     
  -1.4            5.362e-010      -5.4185e-006    9.741e-009     
  -1.45           9.455e-010      -5.5915e-006    1.0412e-008    
  -1.5            1.3261e-009     -6.2656e-006    1.0779e-008    
  -1.55           1.7459e-009     -6.8154e-006    1.2947e-008    
  -1.6            6.16e-010       -7.3986e-006    1.0125e-008    
  -1.65           1.0169e-009     -7.6475e-006    1.0448e-008    
  -1.7            -1.495e-010     -8.6853e-006    1.1321e-008    
  -1.75           -1.4035e-009    -8.3425e-006    2.5264e-008    
  -1.8            -1.3166e-009    -8.2592e-006    8.587e-009     
END_DB

BEGIN_DB
 ICCAP_VAR VS         0              
 ICCAP_VAR VB         1.8            
 ICCAP_VAR VD         -1.8           

 #VG              IG              ID              IB             
  0               -1.3547e-009    -1.2988e-009    -9.254e-009    
  -0.05           -2.596e-010     -2.1497e-009    -1.0061e-008   
  -0.1            -4.554e-010     -2.2223e-009    -1.0679e-008   
  -0.15           1.1931e-009     -2.7987e-009    -2.4766e-008   
  -0.2            2.8798e-009     -2.4417e-009    -1.2266e-008   
  -0.25           -1.6236e-009    -8.288e-009     8.487e-009     
  -0.3            1.2569e-009     -4.8548e-008    -1.6619e-008   
  -0.35           7.305e-010      -7.708e-008     1.4825e-008    
  -0.4            -4.986e-010     -2.474e-007     1.1374e-008    
  -0.45           5.923e-010      -3.4409e-007    -1.0282e-008   
  -0.5            -1.5649e-009    -3.01e-009      1.0208e-008    
  -0.55           -1.1802e-009    -1.36e-009      -1.6703e-008   
  -0.6            1.7756e-009     -1.0463e-006    -1.9523e-008   
  -0.65           1.285e-009      -9.58e-008      -9.119e-009    
  -0.7            2.8802e-009     -5.61e-007      -9.566e-009    
  -0.75           1.8172e-009     -5.4929e-007    -2.6e-011      
  -0.8            -2.3066e-009    -3.374e-007     -1.0331e-008   
  -0.85           1.6975e-009     -4.7031e-006    -1.9892e-008   
  -0.9            1.2602e-009     -1.4639e-006    -9.271e-009    
  -0.95           -2.325e-010     -9.6689e-006    7.781e-009     
  -1              2.7725e-009     -2.7879e-006    -1.0442e-008   
  -1.05           -2.748e-009     -6.2409e-006    -1.139e-008    
  -1.1            2.7529e-009     -1.0982e-005    -1.3329e-008   
  -1.15           -2.158e-009     -5.8899e-006    1.2033e-008    
  -1.2            1.3083e-009     -8.438e-006     -8.918e-009    
  -1.25           2.8813e-009     -1.3975e-005    -9.372e-009    
  -1.3            2.7305e-009     -1.2129e-005    2.11e-010      
  -1.35           1.4993e-009     -2.3134e-005    1.0856e-008    
  -1.4            3.565e-010      -3.1847e-005    9.569e-009     
  -1.45           7.919e-010      -2.981e-005     1.0759e-008    
  -1.5            1.178e-009      -3.3488e-005    1.0223e-008    
  -1.55           1.5873e-009     -3.8631e-005    1.1501e-008    
  -1.6            2.0074e-009     -4.0908e-005    1.3266e-008    
  -1.65           8.718e-010      -4.5581e-005    1.0825e-008    
  -1.7            1.2547e-009     -5.0744e-005    9.989e-009     
  -1.75           1.007e-010      -6.525e-005     1.0056e-008    
  -1.8            5.406e-010      -6.2455e-005    9.817e-009     
END_DB

