! VERSION = 6.00
BEGIN_HEADER
 ICCAP_INPUTS
  VG         V  B GROUND SMU4 0.001 LIN        1    0          -1.8       37   -0.05     
  VS         V  E GROUND SMU2 0.1 CON        0
  VB         V  C GROUND SMU3 0.1 LIN        3    0          1.8        3    0.9       
  VD         V  S GROUND SMU1 0.1 LIN        2    -0.1       -1.8       2    -1.7      
 ICCAP_OUTPUTS
  IG         I  B GROUND SMU4 B
  ID         I  S GROUND SMU1 B
  IB         I  C GROUND SMU3 B
END_HEADER

BEGIN_DB
 ICCAP_VAR VS         0              
 ICCAP_VAR VB         0              
 ICCAP_VAR VD         -0.1           

 #VG              IG              ID              IB             
  0               -1.0001e-009    4.179e-010      1.0507e-008    
  -0.05           -1.7423e-009    -1.4714e-009    7.118e-009     
  -0.1            -3.727e-010     -2.2295e-009    -1.0636e-008   
  -0.15           1.2273e-009     -1.405e-009     -2.5101e-008   
  -0.2            2.8831e-009     -1.094e-010     -1.1302e-008   
  -0.25           -1.4512e-009    1.4244e-009     3.7e-011       
  -0.3            -2.6884e-009    -2.4673e-009    8.439e-009     
  -0.35           1.5847e-009     -6.1731e-009    -1.284e-008    
  -0.4            -1.9029e-009    -1.3909e-008    -2.0564e-008   
  -0.45           -2.7017e-009    -3.3833e-008    -5.47e-009     
  -0.5            1.541e-010      -7.7486e-008    -1.2394e-008   
  -0.55           -1.4248e-009    -1.5275e-007    1.2273e-008    
  -0.6            -1.3298e-009    -2.8031e-007    8.584e-009     
  -0.65           -2.5726e-009    -4.7153e-007    7.903e-009     
  -0.7            -2.0132e-009    -7.3467e-007    7.89e-010      
  -0.75           -9.61e-010      -1.07053e-006   -1.0861e-008   
  -0.8            2.4954e-009     -1.4857e-006    9.956e-009     
  -0.85           1.7891e-009     -1.9487e-006    -3.438e-009    
  -0.9            1.3181e-009     -2.4669e-006    -8.953e-009    
  -0.95           2.8854e-009     -3.0183e-006    -9.393e-009    
  -1              2.6749e-009     -3.5788e-006    1.03e-010      
  -1.05           1.5274e-009     -4.1938e-006    1.0426e-008    
  -1.1            3.65e-010       -4.7687e-006    9.809e-009     
  -1.15           8.115e-010      -5.3809e-006    1.0256e-008    
  -1.2            1.1931e-009     -5.9964e-006    9.921e-009     
  -1.25           1.6158e-009     -6.596e-006     1.199e-008     
  -1.3            2.0554e-009     -7.1735e-006    1.213e-008     
  -1.35           8.858e-010      -7.7361e-006    1.0324e-008    
  -1.4            1.2753e-009     -8.2931e-006    1.0143e-008    
  -1.45           8.38e-011       -8.8062e-006    1.0153e-008    
  -1.5            5.41e-010       -9.3152e-006    9.923e-009     
  -1.55           9.639e-010      -9.8062e-006    1.0656e-008    
  -1.6            1.3568e-009     -1.02766e-005   9.992e-009     
  -1.65           1.78e-009       -1.07207e-005   1.2004e-008    
  -1.7            6.305e-010      -1.11358e-005   1.0192e-008    
  -1.75           -2.7304e-009    -1.1537e-005    1.0694e-008    
  -1.8            1.9155e-009     -1.1922e-005    -1.8938e-008   
END_DB

BEGIN_DB
 ICCAP_VAR VS         0              
 ICCAP_VAR VB         0              
 ICCAP_VAR VD         -1.8           

 #VG              IG              ID              IB             
  0               3.369e-010      5.07e-010       1.7506e-008    
  -0.05           2.7889e-009     -2.495e-010     -1.5799e-008   
  -0.1            -1.2902e-009    1.5308e-009     1.0108e-008    
  -0.15           -2.4459e-009    -1.4282e-009    1.1077e-008    
  -0.2            2.0996e-009     -2.5979e-009    -1.8983e-008   
  -0.25           1.7794e-009     -2.6423e-009    -7.071e-009    
  -0.3            -2.5698e-009    -1.0547e-008    7.846e-009     
  -0.35           -2.0484e-009    -2.7708e-008    8.1e-010       
  -0.4            -9.413e-010     -7.2265e-008    -1.101e-008    
  -0.45           1.9104e-009     -1.653e-007     -2.6537e-008   
  -0.5            7.543e-010      -3.5032e-007    1.028e-008     
  -0.55           1.1393e-009     -6.7497e-007    1.0018e-008    
  -0.6            -1.3875e-009    -1.1598e-006    -1.0278e-008   
  -0.65           -1.3136e-009    -1.868e-006     8.87e-009      
  -0.7            -2.4665e-009    -2.8223e-006    7.979e-009     
  -0.75           -6.565e-010     -4.0702e-006    -1.0478e-008   
  -0.8            1.75e-009       -5.6019e-006    -1.9962e-008   
  -0.85           1.2987e-009     -7.4207e-006    -8.972e-009    
  -0.9            2.8712e-009     -9.5408e-006    -9.799e-009    
  -0.95           -2.6705e-009    -1.1911e-005    1.041e-008     
  -1              -3.261e-010     -1.4639e-005    -1.0426e-008   
  -1.05           2.2136e-009     -1.7617e-005    -2.5466e-008   
  -1.1            1.5351e-009     -2.084e-005     -5.827e-009    
  -1.15           1.2426e-009     -2.4311e-005    -8.851e-009    
  -1.2            2.8361e-009     -2.7929e-005    -1.0528e-008   
  -1.25           1.2901e-009     -3.1806e-005    1.0093e-008    
  -1.3            1.03e-010       -3.5723e-005    1.0126e-008    
  -1.35           5.59e-010       -3.9946e-005    1.0013e-008    
  -1.4            9.723e-010      -4.4343e-005    1.026e-008     
  -1.45           1.3685e-009     -4.8884e-005    1.0034e-008    
  -1.5            1.8006e-009     -5.3453e-005    1.2089e-008    
  -1.55           6.487e-010      -5.802e-005     1.0352e-008    
  -1.6            1.0504e-009     -6.2858e-005    1.0465e-008    
  -1.65           1.4557e-009     -6.7768e-005    1.0202e-008    
  -1.7            2.845e-010      -7.2515e-005    9.82e-009      
  -1.75           7.309e-010      -7.7546e-005    1.0256e-008    
  -1.8            1.1206e-009     -8.2643e-005    1.0054e-008    
END_DB

BEGIN_DB
 ICCAP_VAR VS         0              
 ICCAP_VAR VB         0.9            
 ICCAP_VAR VD         -0.1           

 #VG              IG              ID              IB             
  0               -1.1224e-009    -9.95e-010      -2.0089e-008   
  -0.05           -9.884e-010     -2.2243e-009    -5.65e-009     
  -0.1            1.5833e-009     -1.6979e-009    -1.2779e-008   
  -0.15           8.32e-010       2.3593e-009     -8.688e-009    
  -0.2            9.888e-010      2.3206e-009     9.914e-009     
  -0.25           1.15e-009       2.231e-009      1.0975e-008    
  -0.3            1.3216e-009     2.0665e-009     1.1819e-008    
  -0.35           -1.061e-010     1.9795e-009     1.0106e-008    
  -0.4            7.02e-011       1.9533e-009     9.713e-009     
  -0.45           2.553e-010      1.6258e-009     9.956e-009     
  -0.5            -1.288e-009     -2.0432e-009    1.0359e-008    
  -0.55           -2.4883e-009    -7.3769e-009    1.1261e-008    
  -0.6            2.48e-009       -2.5094e-008    1.1978e-008    
  -0.65           1.7758e-009     -6.4284e-008    -3.599e-009    
  -0.7            -1.279e-009     -1.5055e-007    2.0282e-008    
  -0.75           2.4507e-009     -3.0163e-007    -2.6947e-008   
  -0.8            1.7465e-009     -5.2582e-007    -3.844e-009    
  -0.85           1.3039e-009     -8.4116e-007    -8.948e-009    
  -0.9            2.7611e-009     -1.2377e-006    2.3874e-008    
  -0.95           1.8502e-009     -1.7184e-006    1.2309e-008    
  -1              6.987e-010      -2.2383e-006    1.0489e-008    
  -1.05           1.0945e-009     -2.8084e-006    1.0069e-008    
  -1.1            1.5042e-009     -3.4212e-006    1.1549e-008    
  -1.15           3.394e-010      -4.0155e-006    9.839e-009     
  -1.2            7.896e-010      -4.6445e-006    1.0248e-008    
  -1.25           1.1764e-009     -5.2717e-006    9.975e-009     
  -1.3            1.599e-009      -5.8885e-006    1.1986e-008    
  -1.35           2.0387e-009     -6.4772e-006    1.2201e-008    
  -1.4            8.765e-010      -7.0582e-006    1.021e-008     
  -1.45           1.2629e-009     -7.6163e-006    1.0073e-008    
  -1.5            7.62e-011       -8.1323e-006    1.0285e-008    
  -1.55           5.394e-010      -8.6379e-006    9.998e-009     
  -1.6            9.604e-010      -9.1399e-006    1.0173e-008    
  -1.65           1.3506e-009     -9.6127e-006    1.0666e-008    
  -1.7            1.7861e-009     -1.00552e-005   1.216e-008     
  -1.75           6.381e-010      -1.0464e-005    1.0225e-008    
  -1.8            1.0373e-009     -1.08823e-005   1.015e-008     
END_DB

BEGIN_DB
 ICCAP_VAR VS         0              
 ICCAP_VAR VB         0.9            
 ICCAP_VAR VD         -1.8           

 #VG              IG              ID              IB             
  0               1.1854e-009     1.1272e-009     8.606e-009     
  -0.05           5.634e-010      2.3251e-009     1.0265e-008    
  -0.1            7.492e-010      2.3565e-009     1.0306e-008    
  -0.15           9.145e-010      2.3412e-009     1.0037e-008    
  -0.2            1.0758e-009     2.2735e-009     9.902e-009     
  -0.25           -1.6307e-009    1.6572e-009     1.0452e-008    
  -0.3            -2.5375e-009    -1.2812e-009    6.233e-009     
  -0.35           1.9222e-009     -2.3377e-009    -1.6412e-008   
  -0.4            1.618e-009      -2.1256e-009    -8.506e-009    
  -0.45           1.4123e-009     -8.7678e-009    -8.951e-009    
  -0.5            -1.3783e-009    -2.9584e-008    -1.1189e-008   
  -0.55           -1.3069e-009    -8.3571e-008    8.833e-009     
  -0.6            1.6441e-009     -2.1319e-007    -2.5707e-008   
  -0.65           2.0838e-009     -4.678e-007     1.2051e-008    
  -0.7            9.207e-010      -9.0805e-007    1.0324e-008    
  -0.75           -1.8929e-009    -1.5652e-006    -1.2814e-008   
  -0.8            -2.6961e-009    -2.5076e-006    -5.581e-009    
  -0.85           1.402e-010      -3.7795e-006    -1.2309e-008   
  -0.9            1.3519e-009     -5.3504e-006    -2.4291e-008   
  -0.95           2.8749e-009     -7.2463e-006    -9.408e-009    
  -1              2.6959e-009     -9.4513e-006    1.53e-010      
  -1.05           -2.7203e-009    -1.1908e-005    1.0572e-008    
  -1.1            1.8942e-009     -1.4764e-005    -1.9317e-008   
  -1.15           1.3497e-009     -1.7857e-005    -8.719e-009    
  -1.2            2.8744e-009     -2.1207e-005    -9.34e-009     
  -1.25           2.7092e-009     -2.4743e-005    2.82e-010      
  -1.3            1.4989e-009     -2.8604e-005    1.0405e-008    
  -1.35           3.353e-010      -3.2419e-005    9.68e-009      
  -1.4            7.872e-010      -3.6578e-005    1.0544e-008    
  -1.45           1.1738e-009     -4.091e-005     1.0078e-008    
  -1.5            1.6001e-009     -4.5337e-005    1.0909e-008    
  -1.55           2.0353e-009     -4.9785e-005    1.26e-008      
  -1.6            8.772e-010      -5.4357e-005    1.0717e-008    
  -1.65           1.2651e-009     -5.9142e-005    1.0107e-008    
  -1.7            8.71e-011       -6.3777e-005    1.026e-008     
  -1.75           5.5e-010        -6.8667e-005    9.972e-009     
  -1.8            9.66e-010       -7.3639e-005    1.0275e-008    
END_DB

BEGIN_DB
 ICCAP_VAR VS         0              
 ICCAP_VAR VB         1.8            
 ICCAP_VAR VD         -0.1           

 #VG              IG              ID              IB             
  0               -1.4462e-009    -1.6069e-009    -5.802e-009    
  -0.05           2.2826e-009     -6.653e-010     -1.938e-008    
  -0.1            1.3628e-009     2.0681e-009     -5.504e-009    
  -0.15           1.544e-009      1.8373e-009     1.2163e-008    
  -0.2            1.048e-010      2.1231e-009     9.701e-009     
  -0.25           2.925e-010      2.2281e-009     1.0098e-008    
  -0.3            4.864e-010      2.306e-009      1.0403e-008    
  -0.35           6.786e-010      2.3512e-009     1.0461e-008    
  -0.4            8.515e-010      2.3391e-009     1.0252e-008    
  -0.45           1.0131e-009     2.2476e-009     1.0002e-008    
  -0.5            -1.292e-009     1.3571e-009     1.0976e-008    
  -0.55           -2.4849e-009    -2.1222e-009    1.1583e-008    
  -0.6            -3.627e-010     -7.0201e-009    -1.0609e-008   
  -0.65           2.8385e-009     -1.5427e-008    2.5643e-008    
  -0.7            1.2835e-009     -4.6154e-008    9.778e-009     
  -0.75           2.5411e-009     -1.1823e-007    -1.2216e-008   
  -0.8            1.4982e-009     -2.5155e-007    1.0373e-008    
  -0.85           3.331e-010      -4.584e-007     9.643e-009     
  -0.9            7.805e-010      -7.6162e-007    1.0758e-008    
  -0.95           -2.7018e-009    -1.1506e-006    -2.7025e-008   
  -1              1.8031e-009     -1.6294e-006    -1.947e-008    
  -1.05           1.3062e-009     -2.1623e-006    -9.05e-009     
  -1.1            2.8714e-009     -2.7375e-006    -9.416e-009    
  -1.15           2.6707e-009     -3.3346e-006    -3.9e-011      
  -1.2            1.5528e-009     -3.9709e-006    1.0594e-008    
  -1.25           1.9856e-009     -4.592e-006     1.2725e-008    
  -1.3            8.313e-010      -5.209e-006     1.0791e-008    
  -1.35           1.2227e-009     -5.8266e-006    9.785e-009     
  -1.4            3.33e-011       -6.4032e-006    1.0098e-008    
  -1.45           4.927e-010      -6.9772e-006    9.858e-009     
  -1.5            9.189e-010      -7.5315e-006    1.043e-008     
  -1.55           1.3147e-009     -8.0627e-006    1.0298e-008    
  -1.6            1.247e-010      -8.5491e-006    9.967e-009     
  -1.65           5.915e-010      -9.0308e-006    1.014e-008     
  -1.7            1.0071e-009     -9.4915e-006    1.0263e-008    
  -1.75           1.4135e-009     -9.9344e-006    1.1034e-008    
  -1.8            1.8503e-009     -1.03493e-005   1.2348e-008    
END_DB

BEGIN_DB
 ICCAP_VAR VS         0              
 ICCAP_VAR VB         1.8            
 ICCAP_VAR VD         -1.8           

 #VG              IG              ID              IB             
  0               -1.3117e-009    -1.18e-009      -9.214e-009    
  -0.05           1.5164e-009     -1.7227e-009    -1.2255e-008   
  -0.1            8.771e-010      2.3548e-009     -8.944e-009    
  -0.15           1.0454e-009     2.3111e-009     9.778e-009     
  -0.2            1.2048e-009     2.1972e-009     1.0233e-008    
  -0.25           -2.195e-010     1.9436e-009     1.0253e-008    
  -0.3            -1.5714e-009    8.377e-010      2.4757e-008    
  -0.35           -2.587e-009     -1.3249e-009    7.084e-009     
  -0.4            -3.826e-010     -3.128e-009     -1.0647e-008   
  -0.45           2.5357e-009     -4.849e-009     -2.5354e-008   
  -0.5            -1.5817e-009    -1.3153e-008    -1.4548e-008   
  -0.55           -1.3658e-009    -3.9149e-008    6.699e-009     
  -0.6            2.6674e-009     -1.0869e-007    -1.1186e-008   
  -0.65           6.098e-010      -2.6778e-007    1.0277e-008    
  -0.7            1.0217e-009     -5.7884e-007    1.0396e-008    
  -0.75           1.4275e-009     -1.09745e-006   1.0193e-008    
  -0.8            -2.553e-009     -1.8378e-006    -1.9918e-008   
  -0.85           -6.114e-010     -2.8929e-006    -1.0538e-008   
  -0.9            1.7912e-009     -4.273e-006     -2.0805e-008   
  -0.95           1.3062e-009     -5.9833e-006    -8.97e-009     
  -1              2.8678e-009     -8.0273e-006    -9.537e-009    
  -1.05           2.6577e-009     -1.03767e-005   0              
  -1.1            -2.708e-009     -1.2952e-005    1.0256e-008    
  -1.15           2.0311e-009     -1.5942e-005    -2.3744e-008   
  -1.2            1.4152e-009     -1.9233e-005    -7.684e-009    
  -1.25           2.8561e-009     -2.2618e-005    -9.094e-009    
  -1.3            2.1159e-009     -2.6266e-005    1.2636e-008    
  -1.35           9.52e-010       -3.0112e-005    1.0306e-008    
  -1.4            1.3451e-009     -3.4209e-005    1.0673e-008    
  -1.45           1.78e-009       -3.8371e-005    1.2274e-008    
  -1.5            6.34e-010       -4.2583e-005    1.0202e-008    
  -1.55           1.0366e-009     -4.7078e-005    1.0189e-008    
  -1.6            1.4418e-009     -5.1689e-005    1.1266e-008    
  -1.65           2.761e-010      -5.6162e-005    9.799e-009     
  -1.7            7.279e-010      -6.0936e-005    1.0277e-008    
  -1.75           1.1234e-009     -6.5819e-005    1.0099e-008    
  -1.8            1.5375e-009     -7.0733e-005    1.1663e-008    
END_DB

