! VERSION = 6.00
BEGIN_HEADER
 ICCAP_INPUTS
  VG         V  B GROUND SMU4 0.001 LIN        2    0          -1.8       6    -0.36     
  VS         V  E GROUND SMU2 0.1 CON        0
  VD         V  S GROUND SMU1 0.1 LIN        1    0          -1.8       37   -0.05     
  VB         V  C GROUND SMU3 0.1 LIN        3    0          0.9        2    0.9       
 ICCAP_OUTPUTS
  ID         I  S GROUND SMU1 B
  IB         I  C GROUND SMU3 B
  IG         I  B GROUND SMU4 B
END_HEADER

BEGIN_DB
 ICCAP_VAR VG         0              
 ICCAP_VAR VS         0              
 ICCAP_VAR VB         0              

 #VD              ID              IB              IG             
  0               -8.75e-010      -2.5923e-008    -9.7e-010      
  -0.05           -1.4172e-009    7.651e-009      -1.794e-009    
  -0.1            -2.2344e-009    -1.071e-008     -4.294e-010    
  -0.15           -1.4091e-009    -2.4862e-008    2.4911e-009    
  -0.2            2.2163e-009     -3.532e-009     1.2107e-009    
  -0.25           2.0442e-009     1.2304e-008     1.3721e-009    
  -0.3            1.8305e-009     1.2354e-008     1.5378e-009    
  -0.35           2.1237e-009     9.683e-009      1.003e-010     
  -0.4            2.2265e-009     9.922e-009      2.832e-010     
  -0.45           2.3018e-009     1.0399e-008     4.615e-010     
  -0.5            2.3536e-009     1.0479e-008     6.42e-010      
  -0.55           2.368e-009      1.0534e-008     8.1e-010       
  -0.6            2.3388e-009     1.0015e-008     9.654e-010     
  -0.65           2.2711e-009     1.0011e-008     1.1134e-009    
  -0.7            2.1428e-009     1.0659e-008     1.2765e-009    
  -0.75           1.9888e-009     1.005e-008      -1.62e-010     
  -0.8            9.333e-010      2.5198e-008     -1.5262e-009   
  -0.85           -1.4398e-009    7.44e-009       -1.777e-009    
  -0.9            -2.2356e-009    -1.0618e-008    -4.091e-010    
  -0.95           -1.4027e-009    -2.5311e-008    1.2174e-009    
  -1              1e-011          -1.1425e-008    2.8778e-009    
  -1.05           2.3499e-009     6.1e-011        6.574e-010     
  -1.1            2.3624e-009     1.0274e-008     8.233e-010     
  -1.15           2.3325e-009     9.981e-009      9.739e-010     
  -1.2            2.2615e-009     1.078e-008      1.1315e-009    
  -1.25           2.1287e-009     1.1887e-008     1.2909e-009    
  -1.3            1.9899e-009     9.95e-009       -1.467e-010    
  -1.35           2.069e-009      9.659e-009      1.64e-011      
  -1.4            2.1737e-009     9.645e-009      1.889e-010     
  -1.45           2.2648e-009     1.0248e-008     3.699e-010     
  -1.5            2.328e-009      1.0816e-008     5.51e-010      
  -1.55           2.3621e-009     1.0798e-008     7.22e-010      
  -1.6            2.3518e-009     1.0465e-008     8.821e-010     
  -1.65           2.3066e-009     9.886e-009      1.0391e-009    
  -1.7            1.8392e-009     1.1146e-008     -1.4748e-009   
  -1.75           -1.3852e-009    8.093e-009      -1.8234e-009   
  -1.8            -2.2623e-009    -1.0912e-008    -4.914e-010    
END_DB

BEGIN_DB
 ICCAP_VAR VG         -0.36          
 ICCAP_VAR VS         0              
 ICCAP_VAR VB         0              

 #VD              ID              IB              IG             
  0               1.931e-010      1.0128e-008     4.17e-011      
  -0.05           -4.741e-009     -1.8454e-008    2.435e-009     
  -0.1            -4.9614e-009    -4.036e-009     2.1408e-009    
  -0.15           -6.0056e-009    -6.616e-009     1.8449e-009    
  -0.2            -6.9459e-009    -8.879e-009     1.5729e-009    
  -0.25           -7.892e-009     -8.899e-009     1.3933e-009    
  -0.3            -8.8248e-009    -9.106e-009     1.2806e-009    
  -0.35           -1.0847e-008    1.2078e-008     -2.2028e-009   
  -0.4            -1.1505e-008    1.0443e-008     -1.3942e-009   
  -0.45           -1.1539e-008    1.0493e-008     -2.1454e-009   
  -0.5            -8.702e-009     1.0682e-008     1.5268e-009    
  -0.55           -1.3505e-008    -2.7304e-008    2.4809e-009    
  -0.6            -1.4655e-008    -1.1792e-008    1.128e-010     
  -0.65           -1.4846e-008    8.75e-009       -1.3118e-009   
  -0.7            -1.1816e-008    1.025e-008      1.1034e-009    
  -0.75           -1.5975e-008    -2.2454e-008    1.4277e-009    
  -0.8            -1.8199e-008    -1.0413e-008    -5.967e-010    
  -0.85           -1.7079e-008    1.213e-008      -2.1297e-009   
  -0.9            -1.4426e-008    1.1923e-008     1.5355e-009    
  -0.95           -1.9152e-008    -2.7295e-008    2.4643e-009    
  -1              -2.034e-008     -1.1762e-008    1.018e-010     
  -1.05           -2.0393e-008    8.727e-009      -1.3094e-009   
  -1.1            -1.7538e-008    1.0186e-008     1.1218e-009    
  -1.15           -2.1703e-008    -2.2702e-008    1.4114e-009    
  -1.2            -2.3947e-008    -1.0346e-008    -6.119e-010    
  -1.25           -2.2832e-008    1.251e-008      -2.1085e-009   
  -1.3            -2.0525e-008    1.1922e-008     1.5546e-009    
  -1.35           -2.5476e-008    -2.7135e-008    2.4372e-009    
  -1.4            -2.6643e-008    -1.166e-008     8.97e-011      
  -1.45           -2.6615e-008    8.945e-009      -1.3089e-009   
  -1.5            -2.4086e-008    1.0183e-008     1.1291e-009    
  -1.55           -2.8517e-008    -2.3141e-008    1.3986e-009    
  -1.6            -3.0796e-008    -1.0475e-008    -6.352e-010    
  -1.65           -2.9804e-008    1.2568e-008     -2.0778e-009   
  -1.7            -2.7956e-008    1.0866e-008     1.5659e-009    
  -1.75           -3.3151e-008    -2.6969e-008    2.4131e-009    
  -1.8            -3.4593e-008    -1.1535e-008    7.32e-011      
END_DB

BEGIN_DB
 ICCAP_VAR VG         -0.72          
 ICCAP_VAR VS         0              
 ICCAP_VAR VB         0              

 #VD              ID              IB              IG             
  0               -6.61e-010      -1.0369e-008    -1.1027e-009   
  -0.05           -5.2711e-007    8.864e-009      -4.41e-011     
  -0.1            -8.5846e-007    1.025e-008      -2.3059e-009   
  -0.15           -1.08832e-006   1.2302e-008     1.7928e-009    
  -0.2            -1.2468e-006    1.0013e-008     2.6774e-009    
  -0.25           -1.3686e-006    -1.1267e-008    3.7e-011       
  -0.3            -1.4485e-006    7.921e-009      -2.5652e-009   
  -0.35           -1.5592e-006    1.0235e-008     1.4292e-009    
  -0.4            -1.6413e-006    -1.1632e-008    2.8115e-009    
  -0.45           -1.721e-006     -1.2809e-008    1.89e-010      
  -0.5            -1.7714e-006    8.761e-009      -1.2946e-009   
  -0.55           -1.8694e-006    1.0502e-008     1.5045e-009    
  -0.6            -1.9343e-006    -1.2555e-008    2.7703e-009    
  -0.65           -2.0036e-006    -1.1994e-008    1.286e-010     
  -0.7            -2.0398e-006    8.361e-009      -1.2904e-009   
  -0.75           -2.1345e-006    1.0873e-008     1.5732e-009    
  -0.8            -2.1932e-006    -1.3715e-008    2.7143e-009    
  -0.85           -2.2553e-006    -1.1471e-008    7.4e-011       
  -0.9            -2.2839e-006    7.997e-009      -2.5939e-009   
  -0.95           -2.3759e-006    1.0084e-008     1.3905e-009    
  -1              -2.4266e-006    -2.6578e-008    2.3102e-009    
  -1.05           -2.486e-006     -1.8226e-008    2.0586e-009    
  -1.1            -2.5435e-006    -1.9609e-008    1.8048e-009    
  -1.15           -2.5978e-006    -2.0591e-008    1.7708e-009    
  -1.2            -2.6542e-006    -2.0015e-008    1.7302e-009    
  -1.25           -2.7116e-006    -1.938e-008     1.6867e-009    
  -1.3            -2.767e-006     -1.8691e-008    1.657e-009     
  -1.35           -2.8229e-006    -1.8006e-008    1.6244e-009    
  -1.4            -2.8627e-006    -1.075e-008     -7.001e-010    
  -1.45           -2.903e-006     1.9127e-008     -1.665e-009    
  -1.5            -2.9781e-006    1.2835e-008     2.1261e-009    
  -1.55           -3.0476e-006    -1.2064e-008    1.483e-010     
  -1.6            -3.0621e-006    8.552e-009      -1.2917e-009   
  -1.65           -3.1622e-006    1.0722e-008     1.5523e-009    
  -1.7            -3.2093e-006    -1.3418e-008    2.7363e-009    
  -1.75           -3.2652e-006    -1.1588e-008    9.44e-011      
  -1.8            -3.2762e-006    8.096e-009      -2.6109e-009   
END_DB

BEGIN_DB
 ICCAP_VAR VG         -1.08          
 ICCAP_VAR VS         0              
 ICCAP_VAR VB         0              

 #VD              ID              IB              IG             
  0               -9.7439e-010    2.3727e-008     -1.1086e-009   
  -0.05           -2.444e-006     -1.9011e-008    -2.3969e-009   
  -0.1            -4.5553e-006    1.0863e-008     1.584e-009     
  -0.15           -6.3115e-006    -1.4051e-008    2.6983e-009    
  -0.2            -7.806e-006     -1.1339e-008    6.26e-011      
  -0.25           -8.9786e-006    7.904e-009      -2.5751e-009   
  -0.3            -1.00386e-005   1.0159e-008     1.4105e-009    
  -0.35           -1.08373e-005   -2.6287e-008    2.2766e-009    
  -0.4            -1.1521e-005    -1.0855e-008    2.8215e-009    
  -0.45           -1.2132e-005    -1.6219e-008    1.5125e-009    
  -0.5            -1.2642e-005    -2.7068e-008    2.4673e-009    
  -0.55           -1.3056e-005    -1.0247e-008    -5.321e-010    
  -0.6            -1.3438e-005    2.3002e-008     -1.4623e-009   
  -0.65           -1.3882e-005    1.0436e-008     1.1188e-009    
  -0.7            -1.4196e-005    -1.2222e-008    2.7769e-009    
  -0.75           -1.4552e-005    -2.6559e-008    2.3153e-009    
  -0.8            -1.4863e-005    -1.8629e-008    1.6512e-009    
  -0.85           -1.5054e-005    -1.0896e-008    -1.0143e-009   
  -0.9            -1.5367e-005    2.7476e-008     -1.3238e-009   
  -0.95           -1.5696e-005    1.0841e-008     1.6073e-009    
  -1              -1.5931e-005    -1.4018e-008    1.4022e-009    
  -1.05           -1.6172e-005    -2.6649e-008    2.3225e-009    
  -1.1            -1.6482e-005    -1.8558e-008    1.6496e-009    
  -1.15           -1.6664e-005    -1.0866e-008    -1.0143e-009   
  -1.2            -1.688e-005     2.7422e-008     -1.3237e-009   
  -1.25           -1.7239e-005    1.0939e-008     1.6071e-009    
  -1.3            -1.7437e-005    -1.4075e-008    1.4087e-009    
  -1.35           -1.7593e-005    -1.08e-008      -5.87e-011     
  -1.4            -1.7786e-005    1.5082e-008     -1.9245e-009   
  -1.45           -1.8004e-005    1.0444e-008     7.304e-010     
  -1.5            -1.8245e-005    -2.526e-008     1.2724e-009    
  -1.55           -1.8502e-005    -1.024e-008     -2.703e-010    
  -1.6            -1.8641e-005    1.9132e-008     -1.6598e-009   
  -1.65           -1.8836e-005    1.0363e-008     9.15e-010      
  -1.7            -1.9138e-005    -2.704e-008     2.5079e-009    
  -1.75           -1.9307e-005    -1.0129e-008    -4.98e-010     
  -1.8            -1.9384e-005    2.2437e-008     -1.4798e-009   
END_DB

BEGIN_DB
 ICCAP_VAR VG         -1.44          
 ICCAP_VAR VS         0              
 ICCAP_VAR VB         0              

 #VD              ID              IB              IG             
  0               -1.2506e-009    1.0393e-008     -5.876e-010    
  -0.05           -4.5214e-006    1.0157e-008     2.5868e-009    
  -0.1            -8.7164e-006    -2.6941e-008    1.2189e-009    
  -0.15           -1.2568e-005    -1.0728e-008    2.4588e-009    
  -0.2            -1.6096e-005    -1.0771e-008    -6.977e-010    
  -0.25           -1.9273e-005    2.5238e-008     -1.3946e-009   
  -0.3            -2.2193e-005    9.992e-009      1.2563e-009    
  -0.35           -2.4746e-005    -1.4658e-008    2.6564e-009    
  -0.4            -2.6987e-005    -1.0135e-008    -3.594e-010    
  -0.45           -2.8929e-005    2.0235e-008     -1.5793e-009   
  -0.5            -3.0733e-005    1.0416e-008     9.793e-010     
  -0.55           -3.2284e-005    -2.6962e-008    2.4004e-009    
  -0.6            -3.3608e-005    -1.0355e-008    -5.852e-010    
  -0.65           -3.4749e-005    2.3752e-008     -1.4316e-009   
  -0.7            -3.5922e-005    1.0095e-008     1.1667e-009    
  -0.75           -3.6881e-005    -1.3307e-008    2.744e-009     
  -0.8            -3.7709e-005    -1.0348e-008    -2.538e-010    
  -0.85           -3.8418e-005    1.8678e-008     -1.6799e-009   
  -0.9            -3.9211e-005    1.0493e-008     9.008e-010     
  -0.95           -3.9918e-005    -2.7091e-008    1.2141e-009    
  -1              -4.0516e-005    -1.0168e-008    -4.87e-010     
  -1.05           -4.1041e-005    2.209e-008      -1.4896e-009   
  -1.1            -4.1716e-005    1.0186e-008     1.0832e-009    
  -1.15           -4.2248e-005    -2.5963e-008    2.2173e-009    
  -1.2            -4.2719e-005    -1.0747e-008    -7.117e-010    
  -1.25           -4.316e-005     2.5412e-008     -1.3885e-009   
  -1.3            -4.3794e-005    1.002e-008      1.2745e-009    
  -1.35           -4.4244e-005    -1.5109e-008    2.6394e-009    
  -1.4            -4.4643e-005    -1.0138e-008    -3.81e-010     
  -1.45           -4.5002e-005    2.077e-008      -1.5632e-009   
  -1.5            -4.5534e-005    1.0369e-008     1.0024e-009    
  -1.55           -4.596e-005     -2.6764e-008    2.3644e-009    
  -1.6            -4.6323e-005    -1.0401e-008    -6.053e-010    
  -1.65           -4.6649e-005    2.4036e-008     -1.4232e-009   
  -1.7            -4.7194e-005    9.993e-009      1.1833e-009    
  -1.75           -4.7579e-005    -1.333e-008     2.7246e-009    
  -1.8            -4.7909e-005    -1.0276e-008    -2.709e-010    
END_DB

BEGIN_DB
 ICCAP_VAR VG         -1.8           
 ICCAP_VAR VS         0              
 ICCAP_VAR VB         0              

 #VD              ID              IB              IG             
  0               -8.466e-009     1.0622e-008     3.71e-011      
  -0.05           -6.0973e-006    -1.7081e-008    -2.1446e-009   
  -0.1            -1.1925e-005    1.4778e-008     -1.9439e-009   
  -0.15           -1.7497e-005    9.874e-009      1.197e-010     
  -0.2            -2.2801e-005    -1.9077e-008    1.9333e-009    
  -0.25           -2.7841e-005    -1.3754e-008    2.404e-010     
  -0.3            -3.2515e-005    8.35e-009       -2.4336e-009   
  -0.35           -3.6932e-005    9.612e-009      3.444e-010     
  -0.4            -4.1082e-005    -2.0308e-008    1.6017e-009    
  -0.45           -4.4874e-005    -2.7025e-008    1.2237e-009    
  -0.5            -4.8338e-005    -1.0199e-008    -4.616e-010    
  -0.55           -5.148e-005     2.192e-008      -1.5014e-009   
  -0.6            -5.4449e-005    1.0197e-008     1.0622e-009    
  -0.65           -5.709e-005     -2.6223e-008    2.2572e-009    
  -0.7            -5.9452e-005    -1.0786e-008    -6.861e-010    
  -0.75           -6.156e-005     2.5385e-008     -1.3958e-009   
  -0.8            -6.3628e-005    9.98e-009       1.2543e-009    
  -0.85           -6.5333e-005    -1.495e-008     2.6533e-009    
  -0.9            -6.6936e-005    -1.0326e-008    -3.655e-010    
  -0.95           -6.8308e-005    2.0241e-008     -1.5726e-009   
  -1              -6.9714e-005    1.0249e-008     9.87e-010      
  -1.05           -7.0938e-005    -2.6974e-008    2.3897e-009    
  -1.1            -7.201e-005     -1.0343e-008    -5.921e-010    
  -1.15           -7.2967e-005    2.3881e-008     -1.4324e-009   
  -1.2            -7.4076e-005    1.0029e-008     1.1762e-009    
  -1.25           -7.4987e-005    -1.3313e-008    2.7396e-009    
  -1.3            -7.5812e-005    -1.845e-008     1.9966e-009    
  -1.35           -7.6629e-005    -1.4276e-008    1.4182e-009    
  -1.4            -7.7386e-005    -2.6645e-008    2.3264e-009    
  -1.45           -7.8077e-005    -1.0579e-008    -6.36e-010     
  -1.5            -7.8699e-005    2.4524e-008     -1.415e-009    
  -1.55           -7.9551e-005    9.936e-009      1.2067e-009    
  -1.6            -8.0202e-005    -1.3929e-008    2.7051e-009    
  -1.65           -8.0817e-005    -1.8754e-008    1.9285e-009    
  -1.7            -8.1451e-005    -1.365e-008     2.405e-010     
  -1.75           -8.1885e-005    8.542e-009      -2.4396e-009   
  -1.8            -8.2522e-005    9.845e-009      3.451e-010     
END_DB

BEGIN_DB
 ICCAP_VAR VG         0              
 ICCAP_VAR VS         0              
 ICCAP_VAR VB         0.9            

 #VD              ID              IB              IG             
  0               -5.531e-010     -1.9133e-008    -4.32e-010     
  -0.05           1.872e-010      9.225e-009      -2.6191e-009   
  -0.1            -1.2612e-009    5.64e-010       -1.8993e-009   
  -0.15           -1.6875e-009    -1.3002e-008    1.6086e-009    
  -0.2            2.3609e-009     -8.953e-009     8.161e-010     
  -0.25           2.33e-009       9.926e-009      9.792e-010     
  -0.3            2.2528e-009     1.0828e-008     1.1423e-009    
  -0.35           2.1028e-009     1.1853e-008     1.3108e-009    
  -0.4            2.0143e-009     9.824e-009      -1.119e-010    
  -0.45           2.0999e-009     9.602e-009      7.08e-011      
  -0.5            2.2121e-009     1.001e-008      2.638e-010     
  -0.55           2.2929e-009     1.0469e-008     4.549e-010     
  -0.6            2.3486e-009     1.0395e-008     6.522e-010     
  -0.65           2.3585e-009     1.0299e-008     8.303e-010     
  -0.7            2.33e-009       9.937e-009      9.939e-010     
  -0.75           2.2469e-009     1.1011e-008     1.1572e-009    
  -0.8            2.087e-009      1.1934e-008     1.3349e-009    
  -0.85           1.8739e-009     1.2219e-008     1.5105e-009    
  -0.9            2.1115e-009     9.691e-009      8.11e-011      
  -0.95           2.2227e-009     1.0066e-008     2.808e-010     
  -1              2.3006e-009     1.0444e-008     4.723e-010     
  -1.05           2.354e-009      1.0482e-008     6.633e-010     
  -1.1            2.3608e-009     1.0493e-008     8.419e-010     
  -1.15           2.3299e-009     9.936e-009      9.998e-010     
  -1.2            2.2361e-009     1.0061e-008     1.1677e-009    
  -1.25           2.0738e-009     1.0927e-008     1.3446e-009    
  -1.3            1.857e-009      1.2166e-008     1.5291e-009    
  -1.35           2.1182e-009     9.705e-009      9.2e-011       
  -1.4            2.2289e-009     1.0137e-008     2.883e-010     
  -1.45           2.31e-009       1.0461e-008     4.835e-010     
  -1.5            2.3591e-009     1.0444e-008     6.758e-010     
  -1.55           2.3579e-009     1.0176e-008     8.537e-010     
  -1.6            2.3239e-009     9.98e-009       1.0121e-009    
  -1.65           2.223e-009      1.1109e-008     1.1802e-009    
  -1.7            1.9445e-009     1.0134e-008     -2.367e-010    
  -1.75           2.0305e-009     9.777e-009      -7.26e-011     
  -1.8            2.1251e-009     9.691e-009      1.146e-010     
END_DB

BEGIN_DB
 ICCAP_VAR VG         -0.36          
 ICCAP_VAR VS         0              
 ICCAP_VAR VB         0.9            

 #VD              ID              IB              IG             
  0               7.745e-010      2.7127e-008     7.505e-010     
  -0.05           2.2921e-009     -9.272e-009     9.98e-010      
  -0.1            2.1838e-009     1.0968e-008     1.1646e-009    
  -0.15           1.7328e-009     1.1925e-008     -1.5416e-009   
  -0.2            -1.5046e-009    7.576e-009      -1.7756e-009   
  -0.25           -2.3102e-009    -1.0816e-008    -4.21e-010     
  -0.3            -1.4985e-009    -2.4946e-008    2.4836e-009    
  -0.35           2.0996e-009     -3.814e-009     2.45e-010      
  -0.4            2.1781e-009     1.0527e-008     4.477e-010     
  -0.45           2.2202e-009     1.047e-008      6.371e-010     
  -0.5            2.2145e-009     1.0477e-008     8.17e-010      
  -0.55           1.3307e-009     9.906e-009      -1.317e-009    
