! VERSION = 6.00
BEGIN_HEADER
 ICCAP_INPUTS
  VG         V  B GROUND SMU4 0.001 LIN        2    0          -1.8       6    -0.36     
  VS         V  E GROUND SMU2 0.1 CON        0
  VD         V  S GROUND SMU1 0.1 LIN        1    0          -1.8       37   -0.05     
  VB         V  C GROUND SMU3 0.1 LIN        3    0          0.9        2    0.9       
 ICCAP_OUTPUTS
  ID         I  S GROUND SMU1 B
  IB         I  C GROUND SMU3 B
  IG         I  B GROUND SMU4 B
END_HEADER

BEGIN_DB
 ICCAP_VAR VG         0              
 ICCAP_VAR VS         0              
 ICCAP_VAR VB         0              

 #VD              ID              IB              IG             
  0               7.834e-010      2.7407e-008     7.838e-010     
  -0.05           2.3365e-009     -8.86e-009      9.369e-010     
  -0.1            2.2772e-009     1.0041e-008     1.0773e-009    
  -0.15           2.1537e-009     1.0684e-008     1.2385e-009    
  -0.2            1.9422e-009     1.0208e-008     -1.486e-010    
  -0.25           2.0232e-009     9.789e-009      1.3e-011       
  -0.3            2.118e-009      9.958e-009      1.81e-010      
  -0.35           2.2156e-009     1.0478e-008     3.572e-010     
  -0.4            2.2889e-009     1.0793e-008     5.493e-010     
  -0.45           2.3346e-009     1.0508e-008     7.204e-010     
  -0.5            2.3395e-009     1.0061e-008     8.738e-010     
  -0.55           2.3056e-009     9.876e-009      1.0149e-009    
  -0.6            2.2082e-009     1.0435e-008     1.1675e-009    
  -0.65           1.9063e-009     1.0407e-008     -2.063e-010    
  -0.7            8.681e-010      2.3749e-008     -1.5904e-009   
  -0.75           -1.4982e-009    6.898e-009      -1.7276e-009   
  -0.8            -2.1605e-009    -1.08e-008      -3.378e-010    
  -0.85           -2.2146e-009    -1.0833e-008    -5.372e-010    
  -0.9            -1.4641e-009    -2.3157e-008    2.3726e-009    
  -0.95           2.1268e-009     -5.033e-009     1.2645e-009    
  -1              1.9503e-009     1.0041e-008     -1.148e-010    
  -1.05           2.0294e-009     9.881e-009      4.42e-011      
  -1.1            2.1261e-009     9.949e-009      2.175e-010     
  -1.15           2.2142e-009     1.0471e-008     3.958e-010     
  -1.2            2.2845e-009     1.0745e-008     5.848e-010     
  -1.25           2.3183e-009     1.038e-008      7.507e-010     
  -1.3            2.3204e-009     9.946e-009      9.007e-010     
  -1.35           2.2701e-009     1.0017e-008     1.0433e-009    
  -1.4            2.1593e-009     1.0528e-008     1.1949e-009    
  -1.45           1.9016e-009     1.0228e-008     -1.753e-010    
  -1.5            1.9763e-009     9.883e-009      -2.01e-011     
  -1.55           2.066e-009      9.911e-009      1.433e-010     
  -1.6            2.1581e-009     1.0354e-008     3.254e-010     
  -1.65           2.2309e-009     1.0454e-008     5.091e-010     
  -1.7            2.2827e-009     1.0265e-008     6.801e-010     
  -1.75           2.2954e-009     9.917e-009      8.468e-010     
  -1.8            2.2622e-009     1.0004e-008     9.874e-010     
END_DB

BEGIN_DB
 ICCAP_VAR VG         -0.36          
 ICCAP_VAR VS         0              
 ICCAP_VAR VB         0              

 #VD              ID              IB              IG             
  0               -1.0928e-009    -1.1742e-008    -1.2555e-009   
  -0.05           -4.1104e-009    -1.8275e-008    2.3742e-009    
  -0.1            -4.1069e-009    -4.677e-009     2.0617e-009    
  -0.15           -5.1667e-009    -7.379e-009     1.779e-009     
  -0.2            -6.2312e-009    -9.049e-009     1.5455e-009    
  -0.25           -7.3987e-009    -8.953e-009     1.3742e-009    
  -0.3            -8.6684e-009    -9.283e-009     1.2758e-009    
  -0.35           -1.0913e-008    2.6387e-008     -1.3798e-009   
  -0.4            -1.1596e-008    1.0379e-008     -2.1007e-009   
  -0.45           -9.674e-009     1.2041e-008     1.5069e-009    
  -0.5            -1.5342e-008    -2.6963e-008    1.2179e-009    
  -0.55           -1.6988e-008    -2.6884e-008    1.2409e-009    
  -0.6            -1.8829e-008    -2.5944e-008    1.2752e-009    
  -0.65           -2.1613e-008    -1.4282e-008    1.4223e-009    
  -0.7            -2.4221e-008    -1.0551e-008    -6.436e-010    
  -0.75           -2.481e-008     1.1965e-008     -2.071e-009    
  -0.8            -2.4404e-008    1.2118e-008     1.5267e-009    
  -0.85           -3.1167e-008    -2.6852e-008    2.4171e-009    
  -0.9            -3.3845e-008    -2.5853e-008    1.2811e-009    
  -0.95           -3.7859e-008    -1.429e-008     1.427e-009     
  -1              -4.125e-008     -1.0695e-008    -6.434e-010    
  -1.05           -4.2699e-008    1.1806e-008     -2.0855e-009   
  -1.1            -4.4037e-008    1.2007e-008     1.5111e-009    
  -1.15           -5.2063e-008    -2.6723e-008    1.2155e-009    
  -1.2            -5.6099e-008    -2.6897e-008    2.5656e-009    
  -1.25           -6.1268e-008    -1.2779e-008    1.773e-010     
  -1.3            -6.3855e-008    8.803e-009      -1.3067e-009   
  -1.35           -6.6564e-008    1.0281e-008     1.018e-009     
  -1.4            -7.5506e-008    -2.1567e-008    1.5146e-009    
  -1.45           -8.1993e-008    -2.0863e-008    1.8249e-009    
  -1.5            -8.6839e-008    -1.8218e-008    1.9987e-009    
  -1.55           -9.343e-008     -2.6479e-008    2.3687e-009    
  -1.6            -1.00382e-007   -1.1621e-008    6.24e-011      
  -1.65           -1.03939e-007   8.954e-009      -1.2869e-009   
  -1.7            -1.1176e-007    2.7577e-008     -1.8269e-009   
  -1.75           -1.1738e-007    1.3651e-008     -1.427e-009    
  -1.8            -1.2497e-007    1.0265e-008     9.228e-010     
END_DB

BEGIN_DB
 ICCAP_VAR VG         -0.72          
 ICCAP_VAR VS         0              
 ICCAP_VAR VB         0              

 #VD              ID              IB              IG             
  0               5.022e-010      1.6641e-008     -2.631e-010    
  -0.05           -2.2432e-006    -2.7308e-008    -2.7043e-009   
  -0.1            -3.4521e-006    9.849e-009      1.0821e-009    
  -0.15           -4.1969e-006    -2.6179e-008    1.2713e-009    
  -0.2            -4.7276e-006    -2.7343e-008    1.2258e-009    
  -0.25           -5.1759e-006    -1.7532e-008    2.0884e-009    
  -0.3            -5.5504e-006    -1.0345e-008    -3.89e-010     
  -0.35           -5.8667e-006    1.2501e-008     -2.0529e-009   
  -0.4            -6.2464e-006    9.874e-009      2.446e-010     
  -0.45           -6.7361e-006    -1.6474e-008    2.398e-009     
  -0.5            -7.0972e-006    -1.7364e-008    2.1462e-009    
  -0.55           -7.4691e-006    -1.8572e-008    1.8964e-009    
  -0.6            -7.7863e-006    -1.0425e-008    -5.141e-010    
  -0.65           -8.0841e-006    1.4782e-008     -1.8773e-009   
  -0.7            -8.5844e-006    1.2458e-008     1.9087e-009    
  -0.75           -8.9967e-006    -1.4564e-008    1.4488e-009    
  -0.8            -9.3843e-006    -1.4291e-008    1.4289e-009    
  -0.85           -9.7814e-006    -1.3977e-008    1.4097e-009    
  -0.9            -1.01925e-005   -1.3634e-008    2.461e-010     
  -0.95           -1.0397e-005    8.961e-009      -1.2844e-009   
  -1              -1.10524e-005   1.1224e-008     1.3951e-009    
  -1.05           -1.1258e-005    -1.1686e-008    -1.5373e-009   
  -1.1            -1.1788e-005    1.0178e-008     9.867e-010     
  -1.15           -1.2316e-005    -1.0401e-008    2.8416e-009    
  -1.2            -1.2727e-005    -1.0927e-008    -5.4e-011      
  -1.25           -1.2986e-005    1.4245e-008     -1.9092e-009   
  -1.3            -1.3507e-005    1.0452e-008     7.244e-010     
  -1.35           -1.414e-005     -2.5424e-008    1.2897e-009    
  -1.4            -1.4612e-005    -1.8995e-008    1.7914e-009    
  -1.45           -1.5114e-005    -2.592e-008     1.2695e-009    
  -1.5            -1.5532e-005    -1.0398e-008    -3.326e-010    
  -1.55           -1.5885e-005    1.8997e-008     -1.6058e-009   
  -1.6            -1.6539e-005    1.0311e-008     9.291e-010     
  -1.65           -1.7162e-005    -2.7124e-008    1.218e-009     
  -1.7            -1.7591e-005    -1.0507e-008    -5.524e-010    
  -1.75           -1.8001e-005    2.2848e-008     -1.4518e-009   
  -1.8            -1.881e-005     1.0075e-008     1.0862e-009    
END_DB

BEGIN_DB
 ICCAP_VAR VG         -1.08          
 ICCAP_VAR VS         0              
 ICCAP_VAR VB         0              

 #VD              ID              IB              IG             
  0               -2.5707e-008    6.048e-009      1.3809e-009    
  -0.05           -3.119e-005     9.921e-009      -2.6575e-009   
  -0.1            -5.5799e-005    1.0197e-008     3.73e-011      
  -0.15           -7.542e-005     -1.7449e-008    2.1107e-009    
  -0.2            -9.0154e-005    -1.0861e-008    -7.939e-010    
  -0.25           -0.000101567    2.6103e-008     -1.3608e-009   
  -0.3            -0.000111955    1.0531e-008     1.2954e-009    
  -0.35           -0.0001195      -1.2169e-008    1.608e-010     
  -0.4            -0.00012495     8.042e-009      -2.5709e-009   
  -0.45           -0.00013214     1.2092e-008     1.5168e-009    
  -0.5            -0.00013658     -2.1109e-008    1.8404e-009    
  -0.55           -0.0001411      -1.0905e-008    -7.009e-010    
  -0.6            -0.00014499     2.035e-008      -1.535e-009    
  -0.65           -0.00014965     1.0364e-008     7.76e-010      
  -0.7            -0.00015412     -2.2718e-008    1.4187e-009    
  -0.75           -0.00015814     -2.626e-008     1.2544e-009    
  -0.8            -0.00016162     -1.7629e-008    2.0682e-009    
  -0.85           -0.00016483     -1.0466e-008    -5.463e-010    
  -0.9            -0.0001677      1.7591e-008     -1.6774e-009   
  -0.95           -0.00017154     1.0488e-008     6.453e-010     
  -1              -0.00017565     -2.0348e-008    1.5644e-009    
  -1.05           -0.00017904     -1.3849e-008    2.622e-010     
  -1.1            -0.00018101     8.603e-009      -2.6415e-009   
  -1.15           -0.00018613     1.1351e-008     1.389e-009     
  -1.2            -0.00018901     -1.3089e-008    2.7384e-009    
  -1.25           -0.00019204     -2.6993e-008    1.2369e-009    
  -1.3            -0.00019532     -1.8227e-008    1.9655e-009    
  -1.35           -0.00019788     -1.0591e-008    -6.147e-010    
  -1.4            -0.00020031     1.8754e-008     -1.6092e-009   
  -1.45           -0.00020403     1.0447e-008     7.033e-010     
  -1.5            -0.0002079      -2.1294e-008    1.4949e-009    
  -1.55           -0.00021111     -1.2978e-008    2.124e-010     
  -1.6            -0.00021267     8.493e-009      -2.6096e-009   
  -1.65           -0.00021799     1.174e-008      1.445e-009     
  -1.7            -0.0002206      -1.4003e-008    2.6894e-009    
  -1.75           -0.00022361     -2.7081e-008    1.2227e-009    
  -1.8            -0.00022674     -1.8318e-008    1.8701e-009    
END_DB

BEGIN_DB
 ICCAP_VAR VG         -1.44          
 ICCAP_VAR VS         0              
 ICCAP_VAR VB         0              

 #VD              ID              IB              IG             
  0               -4.3074e-008    -2.6803e-008    -9.658e-010    
  -0.05           -7.2003e-005    -5.407e-009     2.758e-009     
  -0.1            -0.00013755     -2.6989e-008    -1.1677e-009   
  -0.15           -0.00019694     2.8086e-008     -1.3231e-009   
  -0.2            -0.00025069     9.771e-009      1.2297e-009    
  -0.25           -0.00029746     -2.6448e-008    2.3153e-009    
  -0.3            -0.0003383      -2.428e-008     2.0614e-009    
  -0.35           -0.00037383     -2.0871e-008    1.8066e-009    
  -0.4            -0.00040396     -1.091e-008     -7.283e-010    
  -0.45           -0.00042941     2.077e-008      -1.5157e-009   
  -0.5            -0.00045263     1.0688e-008     7.93e-010      
  -0.55           -0.00047312     -2.2969e-008    1.4029e-009    
  -0.6            -0.00048897     -1.0742e-008    -1.0001e-009   
  -0.65           -0.00050376     2.62e-008       -1.3615e-009   
  -0.7            -0.00051906     9.838e-009      1.0635e-009    
  -0.75           -0.00053138     -2.7069e-008    1.2357e-009    
  -0.8            -0.00054252     -1.0644e-008    -1.699e-010    
  -0.85           -0.00055121     1.1472e-008     -2.1511e-009   
  -0.9            -0.00056145     9.849e-009      3.108e-010     
  -0.95           -0.00057207     -1.771e-008     2.0931e-009    
  -1              -0.00058028     -1.0333e-008    -5.47e-010     
  -1.05           -0.0005877      1.7367e-008     -1.6893e-009   
  -1.1            -0.00059633     1.0471e-008     6.419e-010     
  -1.15           -0.00060513     -2.0465e-008    1.5746e-009    
  -1.2            -0.00061276     -1.4056e-008    1.4134e-009    
  -1.25           -0.00062001     -2.642e-008     1.2538e-009    
  -1.3            -0.00062733     -1.771e-008     2.0581e-009    
  -1.35           -0.00063354     -1.0471e-008    -5.564e-010    
  -1.4            -0.00063919     1.7729e-008     -1.6674e-009   
  -1.45           -0.00064671     1.0501e-008     6.56e-010      
  -1.5            -0.00065462     -2.0701e-008    1.5537e-009    
  -1.55           -0.00066124     -1.3836e-008    2.518e-010     
  -1.6            -0.00066522     8.775e-009      -2.6405e-009   
  -1.65           -0.0006749      1.1389e-008     1.3947e-009    
  -1.7            -0.00068066     -1.3426e-008    2.7331e-009    
  -1.75           -0.00068638     -2.6938e-008    1.2364e-009    
  -1.8            -0.00069255     -1.8141e-008    1.9585e-009    
END_DB

BEGIN_DB
 ICCAP_VAR VG         -1.8           
 ICCAP_VAR VS         0              
 ICCAP_VAR VB         0              

 #VD              ID              IB              IG             
  0               -4.9842e-008    -1.8424e-008    -1.1671e-009   
  -0.05           -0.0001012      4.6e-010        -1.6705e-009   
  -0.1            -0.0001979      1.0467e-008     6.46e-010      
  -0.15           -0.00028991     -2.0637e-008    1.5548e-009    
  -0.2            -0.00037687     -1.3743e-008    2.516e-010     
  -0.25           -0.00045787     8.604e-009      -2.637e-009    
  -0.3            -0.00053392     1.1377e-008     -1.55e-010     
  -0.35           -0.00060474     -1.3549e-008    2.7324e-009    
  -0.4            -0.00066906     -2.6905e-008    1.2312e-009    
  -0.45           -0.00072788     -1.0577e-008    -1.626e-010    
  -0.5            -0.00077998     1.1241e-008     -2.152e-009    
  -0.55           -0.00082816     9.675e-009      2.95e-010      
  -0.6            -0.0008723      -1.7831e-008    2.0848e-009    
  -0.65           -0.00091054     -1.031e-008     -5.36e-010     
  -0.7            -0.00094392     1.7421e-008     -1.6863e-009   
  -0.75           -0.00097541     1.0382e-008     6.307e-010     
  -0.8            -0.00100403     -2.032e-008     1.5708e-009    
  -0.85           -0.00102897     -1.3975e-008    1.4074e-009    
  -0.9            -0.00105178     -2.6255e-008    1.2511e-009    
  -0.95           -0.0010719      -1.7877e-008    2.0681e-009    
  -1              -0.0010901      -1.0331e-008    -5.508e-010    
  -1.05           -0.00110586     1.7714e-008     -1.6717e-009   
  -1.1            -0.00112254     1.044e-008      6.465e-010     
  -1.15           -0.00113885     -2.0545e-008    1.556e-009     
  -1.2            -0.001151       1.0395e-008     1.1581e-009    
  -1.25           -0.0011642      -1.0796e-008    -7.343e-010    
  -1.3            -0.0011756      2.0992e-008     -1.5031e-009   
  -1.35           -0.0011891      1.0405e-008     8.005e-010     
  -1.4            -0.0012017      -2.3237e-008    1.3807e-009    
  -1.45           -0.0012125      -2.6785e-008    1.2395e-009    
  -1.5            -0.0012239      -1.8148e-008    2.0026e-009    
  -1.55           -0.0012333      -1.0432e-008    -5.896e-010    
  -1.6            -0.0012421      1.8273e-008     -1.629e-009    
  -1.65           -0.0012528      1.0611e-008     6.808e-010     
  -1.7            -0.0012638      -2.1015e-008    1.5157e-009    
  -1.75           -0.0012733      -1.3318e-008    2.27e-010      
  -1.8            -0.0012802      8.354e-009      -2.6174e-009   
END_DB

BEGIN_DB
 ICCAP_VAR VG         0              
 ICCAP_VAR VS         0              
 ICCAP_VAR VB         0.9            

 #VD              ID              IB              IG             
  0               -1.2723e-009    1.0449e-008     -1.3304e-009   
  -0.05           -2.131e-009     -1.0456e-008    -2.987e-010    
  -0.1            -2.1903e-009    -1.0988e-008    -4.96e-010     
  -0.15           -5.754e-010     -1.7952e-008    2.4431e-009    
  -0.2            2.1683e-009     -4.104e-009     1.2173e-009    
  -0.25           1.9317e-009     1.0088e-008     -1.587e-010    
  -0.3            2.0118e-009     9.697e-009      -4.2e-012      
  -0.35           2.1021e-009     9.78e-009       1.599e-010     
  -0.4            2.1984e-009     1.0387e-008     3.39e-010      
  -0.45           2.276e-009      1.0452e-008     5.292e-010     
  -0.5            2.3231e-009     1.0317e-008     6.943e-010     
  -0.55           2.3334e-009     9.926e-009      8.532e-010     
  -0.6            2.3078e-009     9.981e-009      9.954e-010     
  -0.65           1.7996e-009     1.1526e-008     -1.4681e-009   
  -0.7            -1.3657e-009    8.367e-009      -1.8152e-009   
  -0.75           -2.1946e-009    -1.0963e-008    -4.979e-010    
  -0.8            -5.793e-010     -1.8162e-008    2.4361e-009    
  -0.85           2.1646e-009     -4.309e-009     1.2238e-009    
  -0.9            1.9365e-009     9.975e-009      -1.55e-010     
  -0.95           2.0155e-009     9.658e-009      7.9e-012       
  -1              2.1114e-009     9.842e-009      1.75e-010      
  -1.05           2.2064e-009     1.0421e-008     3.608e-010     
  -1.1            2.2798e-009     1.0458e-008     5.496e-010     
  -1.15           2.3283e-009     1.0272e-008     7.136e-010     
  -1.2            2.3345e-009     9.897e-009      8.673e-010     
  -1.25           2.2958e-009     1.0091e-008     1.0131e-009    
  -1.3            2.2042e-009     1.1479e-008     1.1604e-009    
  -1.35           1.9051e-009     1.0251e-008     -2.077e-010    
  -1.4            8.651e-010      2.3933e-008     -1.5812e-009   
  -1.45           -1.4845e-009    6.889e-009      -1.7267e-009   
  -1.5            -1.5437e-009    -1.8734e-008    2.1059e-009    
  -1.55           1.9583e-009     -7.42e-009      1.4151e-009    
  -1.6            2.0248e-009     9.811e-009      2.36e-011      
  -1.65           2.1185e-009     9.89e-009       1.944e-010     
  -1.7            2.2117e-009     1.0368e-008     3.765e-010     
  -1.75           2.288e-009      1.0345e-008     5.589e-010     
  -1.8            2.3294e-009     1.0224e-008     7.257e-010     
END_DB

BEGIN_DB
 ICCAP_VAR VG         -0.36          
 ICCAP_VAR VS         0              
 ICCAP_VAR VB         0.9            

 #VD              ID              IB              IG             
  0               9.786e-010      1.263e-008      1.0473e-009    
  -0.05           2.2447e-009     -2.312e-009     1.0715e-009    
  -0.1            1.6432e-009     1.0654e-008     -1.6107e-009   
  -0.15           -1.5799e-009    6.49e-009       -1.706e-009    
  -0.2            -2.2154e-009    -1.0524e-008    -3.126e-010    
  -0.25           -2.2861e-009    -1.0731e-008    -5.139e-010    
  -0.3            -6.94e-010      -1.8199e-008    2.4155e-009    
  -0.35           2.0544e-009     -4.36e-009      2.96e-010      
  -0.4            2.121e-009      1.0373e-008     4.735e-010     
  -0.45           2.1578e-009     1.0326e-008     6.544e-010     
  -0.5            1.1294e-009     1.0041e-008     -1.3153e-009   
  -0.55           -1.3617e-009    8.412e-009      -2.0951e-009   
