! VERSION = 6.00
BEGIN_HEADER
 ICCAP_INPUTS
  VG         V  B GROUND SMU4 0.001 LIN        2    0          -1.8       6    -0.36     
  VS         V  E GROUND SMU2 0.1 CON        0
  VD         V  S GROUND SMU1 0.1 LIN        1    0          -1.8       37   -0.05     
  VB         V  C GROUND SMU3 0.1 LIN        3    0          0.9        2    0.9       
 ICCAP_OUTPUTS
  ID         I  S GROUND SMU1 B
  IB         I  C GROUND SMU3 B
  IG         I  B GROUND SMU4 B
END_HEADER

BEGIN_DB
 ICCAP_VAR VG         0              
 ICCAP_VAR VS         0              
 ICCAP_VAR VB         0              

 #VD              ID              IB              IG             
  0               1.3344e-009     -1.0814e-008    1.2529e-009    
  -0.05           2.1086e-009     1.0451e-008     1.2395e-009    
  -0.1            1.908e-009      9.917e-009      -1.313e-010    
  -0.15           1.9842e-009     9.608e-009      1.43e-011      
  -0.2            1.0135e-009     2.7164e-008     -1.4003e-009   
  -0.25           -2.1683e-009    8.857e-009      -1.019e-009    
  -0.3            -1.6576e-009    -1.2336e-008    1.5455e-009    
  -0.35           2.3051e-009     -8.978e-009     8.219e-010     
  -0.4            2.2843e-009     9.716e-009      9.626e-010     
  -0.45           1.7366e-009     1.2128e-008     -1.5033e-009   
  -0.5            -1.3985e-009    7.683e-009      -1.7641e-009   
  -0.55           -2.1496e-009    -1.0909e-008    -4.22e-010     
  -0.6            -5.133e-010     -1.7204e-008    2.5184e-009    
  -0.65           2.1919e-009     -3.432e-009     1.1518e-009    
  -0.7            1.8553e-009     1.0246e-008     -1.3713e-009   
  -0.75           -2.1461e-009    8.924e-009      -1.0807e-009   
  -0.8            -1.6994e-009    -1.1711e-008    1.4621e-009    
  -0.85           2.3012e-009     -8.937e-009     8.834e-010     
  -0.9            2.2624e-009     9.904e-009      1.0191e-009    
  -0.95           1.765e-009      1.1275e-008     -1.4484e-009   
  -1              -1.3338e-009    8.509e-009      -1.8036e-009   
  -1.05           -2.1747e-009    -1.0778e-008    -5.061e-010    
  -1.1            -6.108e-010     -1.7903e-008    2.415e-009     
  -1.15           2.1363e-009     -4.484e-009     1.2125e-009    
  -1.2            1.8756e-009     1.0023e-008     -1.568e-010    
  -1.25           8.335e-010      2.4624e-008     -1.5371e-009   
  -1.3            -1.4515e-009    7.178e-009      -1.7327e-009   
  -1.35           -2.1459e-009    -1.0794e-008    -3.748e-010    
  -1.4            -5.133e-010     -1.6718e-008    2.5697e-009    
  -1.45           2.2063e-009     -2.946e-009     1.1144e-009    
  -1.5            1.6441e-009     1.0821e-008     -1.5614e-009   
  -1.55           -1.4799e-009    7.134e-009      -1.7178e-009   
  -1.6            -2.1423e-009    -1.0653e-008    -3.456e-010    
  -1.65           -1.3799e-009    -2.5961e-008    1.2295e-009    
  -1.7            -3.05e-011      -9.856e-009     2.8245e-009    
  -1.75           2.2283e-009     3.17e-010       5.728e-010     
  -1.8            2.2682e-009     1.0558e-008     7.362e-010     
END_DB

BEGIN_DB
 ICCAP_VAR VG         -0.36          
 ICCAP_VAR VS         0              
 ICCAP_VAR VB         0              

 #VD              ID              IB              IG             
  0               -1.2968e-009    1.0149e-008     -1.3454e-009   
  -0.05           -6.4409e-009    -2.0493e-008    2.2112e-009    
  -0.1            -5.0414e-009    -6.396e-009     1.9078e-009    
  -0.15           -6.7244e-009    -8.621e-009     1.6394e-009    
  -0.2            -1.1391e-008    1.1631e-008     -1.8998e-009   
  -0.25           -1.2102e-008    9.905e-009      -1.4484e-009   
  -0.3            -1.3696e-008    1.2225e-008     -1.5369e-009   
  -0.35           -1.2706e-008    1.2387e-008     -1.6498e-009   
  -0.4            -1.6447e-008    9.607e-009      -1.3606e-009   
  -0.45           -1.839e-008     1.0567e-008     -1.2824e-009   
  -0.5            -1.9474e-008    1.0337e-008     -1.5795e-009   
  -0.55           -2.1319e-008    9.586e-009      -1.3415e-009   
  -0.6            -2.2577e-008    1.069e-008      -1.2749e-009   
  -0.65           -2.3559e-008    1.0203e-008     -1.5227e-009   
  -0.7            -2.7627e-008    1.2313e-008     -1.7904e-009   
  -0.75           -2.8637e-008    1.2137e-008     -1.281e-009    
  -0.8            -3.1716e-008    1.031e-008      -1.5903e-009   
  -0.85           -1.717e-008     9.639e-009      3.35e-010      
  -0.9            -3.2792e-008    -1.4759e-008    2.6039e-009    
  -0.95           -3.9189e-008    -1.283e-008     2.022e-010     
  -1              -2.778e-008     8.859e-009      -1.2863e-009   
  -1.05           -1.6444e-008    1.0531e-008     9.828e-010     
  -1.1            -4.2919e-008    -2.045e-008     1.5484e-009    
  -1.15           -2.8769e-008    -1.0185e-008    -4.833e-010    
  -1.2            -4.9131e-008    1.0587e-008     -2.2869e-009   
  -1.25           -4.7434e-008    1.1497e-008     -1.513e-010    
  -1.3            -4.2513e-008    -9.164e-009     2.8346e-009    
  -1.35           -5.9526e-008    -1.7962e-008    2.007e-009     
  -1.4            -6.3794e-008    -1.6844e-008    2.1928e-009    
  -1.45           -5.8969e-008    -1.0856e-008    -2.69e-011     
  -1.5            -6.1516e-008    9.224e-009      -2.6385e-009   
  -1.55           -3.7434e-008    1.0327e-008     1.0118e-009    
  -1.6            -8.1839e-008    -2.1101e-008    1.502e-009     
  -1.65           -9.0495e-008    -2.1208e-008    1.8384e-009    
  -1.7            -6.6619e-008    -1.0301e-008    -2.597e-010    
  -1.75           -8.8087e-008    8.483e-009      -2.5039e-009   
  -1.8            -5.304e-008     9.768e-009      1.1838e-009    
END_DB

BEGIN_DB
 ICCAP_VAR VG         -0.72          
 ICCAP_VAR VS         0              
 ICCAP_VAR VB         0              

 #VD              ID              IB              IG             
  0               -1.3746e-008    -1.4954e-008    -4.498e-010    
  -0.05           -8.9765e-007    9.336e-009      -4.845e-010    
  -0.1            -1.3655e-006    -5.248e-009     -1.0313e-009   
  -0.15           -1.9072e-006    2.5124e-008     -1.3658e-009   
  -0.2            -1.8208e-006    1.0393e-008     8.947e-010     
  -0.25           -2.3949e-006    -2.2898e-008    1.3909e-009    
  -0.3            -2.6269e-006    -1.3451e-008    2.362e-010     
  -0.35           -2.4905e-006    9.308e-009      -1.2655e-009   
  -0.4            -2.5706e-006    9.639e-009      3.523e-010     
  -0.45           -2.9754e-006    -1.6785e-008    2.2261e-009    
  -0.5            -3.1495e-006    -1.8197e-008    1.9764e-009    
  -0.55           -2.9709e-006    -1.0149e-008    -4.494e-010    
  -0.6            -3.3563e-006    1.3955e-008     -1.9642e-009   
  -0.65           -3.2273e-006    9.622e-009      2.986e-010     
  -0.7            -3.601e-006     -1.6641e-008    2.2947e-009    
  -0.75           -3.7512e-006    -1.7724e-008    2.053e-009     
  -0.8            -3.8554e-006    -1.8997e-008    1.8002e-009    
  -0.85           -3.6192e-006    -1.0418e-008    -5.633e-010    
  -0.9            -4.0558e-006    1.6004e-008     -1.8154e-009   
  -0.95           -3.6539e-006    1.1807e-008     1.926e-009     
  -1              -4.4733e-006    -1.3702e-008    1.4022e-009    
  -1.05           -4.5998e-006    -1.3524e-008    2.469e-010     
  -1.1            -4.3676e-006    9.279e-009      -1.2661e-009   
  -1.15           -4.3779e-006    9.651e-009      3.394e-010     
  -1.2            -4.8961e-006    -1.6828e-008    2.2428e-009    
  -1.25           -4.7941e-006    -1.0279e-008    -2.768e-010    
  -1.3            -5.0754e-006    1.137e-008      -2.1964e-009   
  -1.35           -5.1076e-006    9.868e-009      1.458e-010     
  -1.4            -5.4935e-006    -1.5692e-008    2.521e-009     
  -1.45           -5.4853e-006    -1.0678e-008    -5.64e-011     
  -1.5            -5.5693e-006    8.917e-009      -2.4289e-009   
  -1.55           -5.2852e-006    1.0723e-008     1.4963e-009    
  -1.6            -5.9223e-006    -1.2517e-008    2.7121e-009    
  -1.65           -6.2182e-006    -1.1629e-008    1.036e-010     
  -1.7            -6.1245e-006    8.796e-009      -2.5896e-009   
  -1.75           -6.4433e-006    1.2282e-008     -2.034e-010    
  -1.8            -6.4973e-006    -9.992e-009     2.8129e-009    
END_DB

BEGIN_DB
 ICCAP_VAR VG         -1.08          
 ICCAP_VAR VS         0              
 ICCAP_VAR VB         0              

 #VD              ID              IB              IG             
  0               -1.6202e-008    -9.052e-009     -1.3022e-009   
  -0.05           -6.6999e-006    -2.0922e-008    -2.4773e-009   
  -0.1            -1.2496e-005    1.0589e-008     -2.2586e-009   
  -0.15           -1.7445e-005    1.1594e-008     1.9906e-009    
  -0.2            -2.1991e-005    -2.145e-008     1.4576e-009    
  -0.25           -2.5509e-005    -2.6751e-008    2.3864e-009    
  -0.3            -2.8126e-005    -1.0608e-008    -5.86e-010     
  -0.35           -3.0743e-005    2.3332e-008     -1.4192e-009   
  -0.4            -3.2161e-005    9.878e-009      1.1163e-009    
  -0.45           -3.4645e-005    -1.2012e-008    2.7391e-009    
  -0.5            -3.6268e-005    -1.7678e-008    2.0478e-009    
  -0.55           -3.6998e-005    -1.0884e-008    -8.063e-010    
  -0.6            -3.8786e-005    2.6431e-008     -1.3373e-009   
  -0.65           -3.9071e-005    1.0646e-008     1.3081e-009    
  -0.7            -4.1292e-005    -1.9245e-008    1.7254e-009    
  -0.75           -4.2265e-005    -2.6082e-008    1.2426e-009    
  -0.8            -4.2697e-005    -1.0198e-008    -3.48e-010     
  -0.85           -4.3938e-005    1.9599e-008     -1.5719e-009   
  -0.9            -4.3698e-005    1.0365e-008     9.442e-010     
  -0.95           -4.601e-005     -2.697e-008     1.1981e-009    
  -1              -4.5982e-005    -1.05e-008      -5.698e-010    
  -1.05           -4.7374e-005    2.3019e-008     -1.4233e-009   
  -1.1            -4.7105e-005    9.918e-009      1.1073e-009    
  -1.15           -4.8991e-005    -1.2e-008       2.7468e-009    
  -1.2            -4.9991e-005    -1.7725e-008    2.0757e-009    
  -1.25           -4.9796e-005    -1.0863e-008    -7.944e-010    
  -1.3            -5.1304e-005    2.6387e-008     -1.3412e-009   
  -1.35           -5.1047e-005    1.0535e-008     1.3005e-009    
  -1.4            -5.3124e-005    -1.9458e-008    1.7459e-009    
  -1.45           -5.3859e-005    -2.6037e-008    1.2472e-009    
  -1.5            -5.3984e-005    -1.0194e-008    -3.356e-010    
  -1.55           -5.4999e-005    1.9226e-008     -1.5907e-009   
  -1.6            -5.4521e-005    1.0374e-008     9.387e-010     
  -1.65           -5.6917e-005    -2.6932e-008    1.1983e-009    
  -1.7            -5.6598e-005    -1.0393e-008    -5.541e-010    
  -1.75           -5.7949e-005    2.2864e-008     -1.4318e-009   
  -1.8            -5.7495e-005    9.939e-009      1.0904e-009    
END_DB

BEGIN_DB
 ICCAP_VAR VG         -1.44          
 ICCAP_VAR VS         0              
 ICCAP_VAR VB         0              

 #VD              ID              IB              IG             
  0               -1.4822e-008    1.9355e-008     1.0258e-009    
  -0.05           -1.2194e-005    1.1423e-008     -2.2952e-009   
  -0.1            -2.3877e-005    1.1709e-008     1.9572e-009    
  -0.15           -3.5137e-005    -2.1137e-008    1.5126e-009    
  -0.2            -4.5836e-005    -1.1319e-008    2.92e-011      
  -0.25           -5.6201e-005    1.2605e-008     -2.0464e-009   
  -0.3            -6.4988e-005    1.0274e-008     6.258e-010     
  -0.35           -7.391e-005     -2.4289e-008    1.3404e-009    
  -0.4            -8.1918e-005    -1.0597e-008    -1.62e-010     
  -0.45           -8.9043e-005    1.6478e-008     -1.7853e-009   
  -0.5            -9.5166e-005    1.0351e-008     8.038e-010     
  -0.55           -0.000101722    -2.6336e-008    1.2442e-009    
  -0.6            -0.000106922    -1.026e-008     -3.743e-010    
  -0.65           -0.000111881    2.0043e-008     -1.5648e-009   
  -0.7            -0.00011509     1.0335e-008     2.6598e-009    
  -0.75           -0.0001204      -2.4267e-008    2.1052e-009    
  -0.8            -0.00012337     -1.0242e-008    -5.025e-010    
  -0.85           -0.00012686     1.735e-008      -1.7213e-009   
  -0.9            -0.0001288      1.022e-008      6.083e-010     
  -0.95           -0.00013294     -2.0477e-008    1.6071e-009    
  -1              -0.00013427     -1.0726e-008    -8.237e-010    
  -1.05           -0.00013723     2.3191e-008     -1.4344e-009   
  -1.1            -0.00013833     1.07e-008       8.943e-010     
  -1.15           -0.00014189     -2.4823e-008    1.3052e-009    
  -1.2            -0.00014411     -2.6634e-008    2.456e-009     
  -1.25           -0.00014597     -1.7856e-008    2.0242e-009    
  -1.3            -0.00014697     -1.0308e-008    -5.533e-010    
  -1.35           -0.00014907     1.8296e-008     -1.6663e-009   
  -1.4            -0.00014982     1.0413e-008     6.6e-010       
  -1.45           -0.00015326     -2.0919e-008    1.5551e-009    
  -1.5            -0.00015487     -1.3863e-008    1.3941e-009    
  -1.55           -0.00015523     -1.0879e-008    -9.82e-010     
  -1.6            -0.00015722     2.5876e-008     -1.3565e-009   
  -1.65           -0.00015781     1.0194e-008     1.0549e-009    
  -1.7            -0.00016125     -2.6501e-008    2.5511e-009    
  -1.75           -0.00016218     -1.0644e-008    -1.513e-010    
  -1.8            -0.00016355     1.1567e-008     -2.1459e-009   
END_DB

BEGIN_DB
 ICCAP_VAR VG         -1.8           
 ICCAP_VAR VS         0              
 ICCAP_VAR VB         0              

 #VD              ID              IB              IG             
  0               -1.6085e-008    9.055e-009      1.136e-009     
  -0.05           -1.5345e-005    1.1686e-008     -1.5956e-009   
  -0.1            -3.0297e-005    1.0237e-008     9.31e-010      
  -0.15           -4.5496e-005    -2.632e-008     1.2035e-009    
  -0.2            -5.9622e-005    -1.0321e-008    -5.482e-010    
  -0.25           -7.4012e-005    2.2867e-008     -1.4483e-009   
  -0.3            -8.7312e-005    9.954e-009      1.0798e-009    
  -0.35           -0.000101091    -1.1618e-008    2.7409e-009    
  -0.4            -0.00011494     -1.7209e-008    -1.283e-009    
  -0.45           -0.00012741     9.732e-009      3.358e-010     
  -0.5            -0.00013952     -1.797e-008     2.0379e-009    
  -0.55           -0.00015171     -1.0286e-008    -5.498e-010    
  -0.6            -0.00016352     1.8449e-008     -1.6724e-009   
  -0.65           -0.00017405     1.0313e-008     6.556e-010     
  -0.7            -0.00018427     -2.1114e-008    1.5567e-009    
  -0.75           -0.0001947      -1.3815e-008    1.4006e-009    
  -0.8            -0.00020183     -2.597e-008     1.2412e-009    
  -0.85           -0.00021061     -1.7906e-008    2.0284e-009    
  -0.9            -0.00021794     -1.0316e-008    -5.577e-010    
  -0.95           -0.00022528     1.8388e-008     -1.6731e-009   
  -1              -0.00023121     1.0353e-008     6.617e-010     
  -1.05           -0.00023789     -2.1044e-008    1.5514e-009    
  -1.1            -0.00024285     -1.3885e-008    1.3978e-009    
  -1.15           -0.00024851     -2.6153e-008    1.2401e-009    
  -1.2            -0.00025285     -1.782e-008     2.0244e-009    
  -1.25           -0.00025751     -1.0332e-008    -5.548e-010    
  -1.3            -0.00026168     1.8208e-008     -1.6634e-009   
  -1.35           -0.00026473     1.0342e-008     6.596e-010     
  -1.4            -0.00026981     -2.0945e-008    1.5477e-009    
  -1.45           -0.00027308     -1.3881e-008    1.3965e-009    
  -1.5            -0.00027612     -2.5881e-008    1.2387e-009    
  -1.55           -0.00027912     -1.792e-008     2.0264e-009    
  -1.6            -0.00028126     -1.0352e-008    -5.589e-010    
  -1.65           -0.00028439     1.8438e-008     -1.6591e-009   
  -1.7            -0.00028613     1.0337e-008     6.598e-010     
  -1.75           -0.00029057     -2.113e-008     1.5495e-009    
  -1.8            -0.00029301     -1.3858e-008    1.3937e-009    
END_DB

BEGIN_DB
 ICCAP_VAR VG         0              
 ICCAP_VAR VS         0              
 ICCAP_VAR VB         0.9            

 #VD              ID              IB              IG             
  0               7.108e-010      9.802e-009      6.422e-010     
  -0.05           2.2202e-009     -9.34e-009      1.1013e-009    
  -0.1            2.0881e-009     1.1881e-008     1.255e-009     
  -0.15           1.9175e-009     1.0038e-008     -1.15e-010     
  -0.2            1.9924e-009     9.808e-009      3.84e-011      
  -0.25           2.0871e-009     9.809e-009      2.035e-010     
  -0.3            2.1797e-009     1.0468e-008     3.802e-010     
  -0.35           2.2536e-009     1.0715e-008     5.565e-010     
  -0.4            2.298e-009      1.0551e-008     7.2e-010       
  -0.45           2.3082e-009     1.0078e-008     8.609e-010     
  -0.5            2.2731e-009     9.81e-009       1.0049e-009    
  -0.55           1.7728e-009     1.142e-008      -1.4554e-009   
  -0.6            -1.3351e-009    8.313e-009      -1.7898e-009   
  -0.65           -2.1606e-009    -1.0775e-008    -4.912e-010    
  -0.7            -5.654e-010     -1.778e-008     2.416e-009     
  -0.75           2.1426e-009     -4.291e-009     1.2066e-009    
  -0.8            1.8951e-009     1.0171e-008     -1.558e-010    
  -0.85           1.9735e-009     9.843e-009      -9e-012        
  -0.9            2.0605e-009     9.735e-009      1.549e-010     
  -0.95           2.1528e-009     1.0258e-008     3.253e-010     
  -1              2.2317e-009     1.0403e-008     5.087e-010     
  -1.05           2.2906e-009     1.0554e-008     6.689e-010     
  -1.1            2.3073e-009     1.026e-008      8.217e-010     
  -1.15           2.2938e-009     9.752e-009      9.64e-010      
  -1.2            1.7452e-009     1.1951e-008     -1.4963e-009   
  -1.25           -1.3801e-009    7.771e-009      -1.7605e-009   
  -1.3            -2.1413e-009    -1.0856e-008    -4.349e-010    
  -1.35           -1.3638e-009    -2.464e-008     1.2126e-009    
  -1.4            1.26e-011       -1.0987e-008    2.8357e-009    
  -1.45           2.2855e-009     -5e-011         6.536e-010     
  -1.5            2.3079e-009     1.0022e-008     8.105e-010     
  -1.55           2.2924e-009     9.788e-009      9.491e-010     
  -1.6            1.7323e-009     1.2168e-008     -1.5081e-009   
  -1.65           -1.3972e-009    7.624e-009      -1.7523e-009   
  -1.7            -2.1377e-009    -1.0768e-008    -4.197e-010    
  -1.75           -4.962e-010     -1.6893e-008    2.5074e-009    
  -1.8            2.1895e-009     -3.474e-009     1.1433e-009    
END_DB

BEGIN_DB
 ICCAP_VAR VG         -0.36          
 ICCAP_VAR VS         0              
 ICCAP_VAR VB         0.9            

 #VD              ID              IB              IG             
  0               7.982e-010      -1.2694e-008    7.869e-010     
  -0.05           2.2823e-009     -8.853e-009     9.364e-010     
  -0.1            2.2242e-009     1.0567e-008     1.0753e-009    
  -0.15           2.1066e-009     1.1625e-008     1.225e-009     
  -0.2            1.8811e-009     9.972e-009      -1.456e-010    
  -0.25           1.9531e-009     9.767e-009      7.3e-012       
  -0.3            2.044e-009      9.728e-009      1.686e-010     
  -0.35           2.1373e-009     1.0419e-008     3.431e-010     
  -0.4            2.2048e-009     1.0423e-008     5.257e-010     
  -0.45           2.2493e-009     1.0298e-008     6.876e-010     
  -0.5            2.2592e-009     1.0169e-008     8.396e-010     
  -0.55           2.2331e-009     9.711e-009      9.853e-010     
