! VERSION = 6.00
BEGIN_HEADER
 ICCAP_INPUTS
  VG         V  B GROUND SMU4 0.001 LIN        2    0          -1.8       6    -0.36     
  VS         V  E GROUND SMU2 0.1 CON        0
  VD         V  S GROUND SMU1 0.1 LIN        1    0          -1.8       37   -0.05     
  VB         V  C GROUND SMU3 0.1 LIN        3    0          0.9        2    0.9       
 ICCAP_OUTPUTS
  ID         I  S GROUND SMU1 B
  IB         I  C GROUND SMU3 B
  IG         I  B GROUND SMU4 B
END_HEADER

BEGIN_DB
 ICCAP_VAR VG         0              
 ICCAP_VAR VS         0              
 ICCAP_VAR VB         0              

 #VD              ID              IB              IG             
  0               -1.1e-009       -1.262e-008     -1.2693e-009   
  -0.05           -5.757e-010     -1.8234e-008    2.4392e-009    
  -0.1            2.1531e-009     -4.073e-009     1.2071e-009    
  -0.15           1.9096e-009     1.0124e-008     -1.962e-010    
  -0.2            1.978e-009      9.868e-009      -5.17e-011     
  -0.25           2.0571e-009     9.774e-009      1.022e-010     
  -0.3            2.1477e-009     1.0261e-008     2.795e-010     
  -0.35           2.2212e-009     1.0484e-008     4.427e-010     
  -0.4            2.2845e-009     1.0356e-008     6.144e-010     
  -0.45           2.3114e-009     1.0403e-008     7.648e-010     
  -0.5            2.305e-009      9.759e-009      9.042e-010     
  -0.55           2.2587e-009     9.821e-009      1.0404e-009    
  -0.6            2.1608e-009     1.0419e-008     1.1838e-009    
  -0.65           1.8953e-009     1.0238e-008     -2.155e-010    
  -0.7            8.456e-010      2.3999e-008     -1.5849e-009   
  -0.75           -1.5078e-009    6.888e-009      -1.6897e-009   
  -0.8            -1.5244e-009    -1.9881e-008    2.1705e-009    
  -0.85           2.2083e-009     -6.593e-009     4.416e-010     
  -0.9            2.2773e-009     1.072e-008      6.097e-010     
  -0.95           2.3025e-009     1.0409e-008     7.657e-010     
  -1              2.2959e-009     9.787e-009      9.049e-010     
  -1.05           2.2534e-009     9.852e-009      1.0393e-009    
  -1.1            2.1536e-009     1.0326e-008     1.1821e-009    
  -1.15           1.8814e-009     1.0239e-008     -2.159e-010    
  -1.2            8.326e-010      2.3716e-008     -1.5912e-009   
  -1.25           -1.5256e-009    6.564e-009      -1.6861e-009   
  -1.3            -1.5339e-009    -2.0137e-008    2.1774e-009    
  -1.35           2.1936e-009     -6.375e-009     4.389e-010     
  -1.4            2.2595e-009     1.0384e-008     6.014e-010     
  -1.45           2.2874e-009     1.0257e-008     7.607e-010     
  -1.5            2.2832e-009     9.823e-009      8.993e-010     
  -1.55           2.2382e-009     1.0257e-008     1.0322e-009    
  -1.6            2.1441e-009     1.1407e-008     1.1714e-009    
  -1.65           1.8593e-009     1.0278e-008     -2.255e-010    
  -1.7            8.088e-010      2.3813e-008     -1.6003e-009   
  -1.75           -1.56e-009      6.662e-009      -1.6827e-009   
  -1.8            -2.1663e-009    -1.0561e-008    -2.937e-010    
END_DB

BEGIN_DB
 ICCAP_VAR VG         -0.36          
 ICCAP_VAR VS         0              
 ICCAP_VAR VB         0              

 #VD              ID              IB              IG             
  0               -9.269e-010     -2.6428e-008    -1.261e-009    
  -0.05           -1.3013e-008    2.379e-008      2.845e-009     
  -0.1            -1.9307e-008    -1.8196e-008    2.029e-009     
  -0.15           -2.324e-008     -1.0657e-008    -1.414e-010    
  -0.2            -2.4633e-008    8.093e-009      -2.5949e-009   
  -0.25           -2.4041e-008    9.856e-009      1.102e-009     
  -0.3            -3.0289e-008    -2.2861e-008    1.406e-009     
  -0.35           -3.4063e-008    -1.0522e-008    -6.213e-010    
  -0.4            -3.5148e-008    1.1354e-008     -2.1127e-009   
  -0.45           -3.5395e-008    1.2022e-008     1.5147e-009    
  -0.5            -4.2797e-008    -2.7317e-008    2.4632e-009    
  -0.55           -4.5933e-008    -2.5371e-008    1.2699e-009    
  -0.6            -5.0288e-008    -1.4906e-008    1.4435e-009    
  -0.65           -5.34e-008      -1.0432e-008    -5.824e-010    
  -0.7            -5.5474e-008    1.0859e-008     -2.1616e-009   
  -0.75           -5.7234e-008    1.1958e-008     1.4779e-009    
  -0.8            -6.5614e-008    -2.7295e-008    2.5134e-009    
  -0.85           -7.0764e-008    -1.2018e-008    1.264e-010     
  -0.9            -7.2492e-008    8.892e-009      -1.2996e-009   
  -0.95           -7.5365e-008    9.966e-009      1.0524e-009    
  -1              -8.4792e-008    -2.156e-008     1.4633e-009    
  -1.05           -8.9701e-008    -1.0413e-008    -5.631e-010    
  -1.1            -9.325e-008     1.0496e-008     -2.1861e-009   
  -1.15           -9.8142e-008    1.1756e-008     1.4633e-009    
  -1.2            -1.08484e-007   -2.7276e-008    1.2109e-009    
  -1.25           -1.1159e-007    -2.6147e-008    -2.2905e-009   
  -1.3            -1.1748e-007    1.2771e-008     1.7685e-009    
  -1.35           -1.2982e-007    -1.5325e-008    1.4789e-009    
  -1.4            -1.3684e-007    -2.5393e-008    1.2706e-009    
  -1.45           -1.4494e-007    -1.103e-008     -9.5e-012      
  -1.5            -1.4839e-007    8.874e-009      -2.355e-009    
  -1.55           -1.5741e-007    1.2434e-008     1.7156e-009    
  -1.6            -1.7184e-007    -1.6561e-008    1.5504e-009    
  -1.65           -1.8153e-007    -1.3832e-008    1.3923e-009    
  -1.7            -1.8562e-007    -1.0729e-008    -9.795e-010    
  -1.75           -1.9484e-007    2.6044e-008     -1.365e-009    
  -1.8            -2.067e-007     1.0169e-008     1.0509e-009    
END_DB

BEGIN_DB
 ICCAP_VAR VG         -0.72          
 ICCAP_VAR VS         0              
 ICCAP_VAR VB         0              

 #VD              ID              IB              IG             
  0               -1.0475e-008    1.0083e-008     3.452e-010     
  -0.05           -5.1456e-006    -1.1284e-008    -1.8442e-009   
  -0.1            -8.146e-006     1.4338e-008     -1.4464e-009   
  -0.15           -1.00393e-005   1.0609e-008     7.706e-010     
  -0.2            -1.1281e-005    -2.0506e-008    4.14e-010      
  -0.25           -1.2459e-005    -2.0663e-008    1.5332e-009    
  -0.3            -1.332e-005     -2.7312e-008    2.4972e-009    
  -0.35           -1.4016e-005    -1.0219e-008    -5.166e-010    
  -0.4            -1.4621e-005    2.2057e-008     -1.4703e-009   
  -0.45           -1.5504e-005    9.903e-009      1.0616e-009    
  -0.5            -1.6246e-005    -1.1588e-008    2.7887e-009    
  -0.55           -1.6862e-005    -1.0621e-008    -1.541e-010    
  -0.6            -1.7292e-005    1.5881e-008     -1.8044e-009   
  -0.65           -1.8034e-005    1.0258e-008     7.877e-010     
  -0.7            -1.8836e-005    -2.6062e-008    1.2447e-009    
  -0.75           -1.9404e-005    -2.249e-008     1.889e-009     
  -0.8            -2.0121e-005    -1.3599e-008    2.171e-010     
  -0.85           -2.0402e-005    8.407e-009      -2.3959e-009   
  -0.9            -2.1352e-005    1.287e-008      1.9273e-009    
  -0.95           -2.2001e-005    -1.9839e-008    1.6078e-009    
  -1              -2.2627e-005    -2.6915e-008    2.5618e-009    
  -1.05           -2.3149e-005    -1.017e-008     -4.65e-010     
  -1.1            -2.3589e-005    2.1004e-008     -1.5098e-009   
  -1.15           -2.4472e-005    1.0112e-008     1.0206e-009    
  -1.2            -2.5149e-005    -2.6486e-008    2.3124e-009    
  -1.25           -2.5654e-005    -1.0703e-008    -6.604e-010    
  -1.3            -2.6123e-005    2.4459e-008     -1.4002e-009   
  -1.35           -2.7165e-005    9.744e-009      1.1738e-009    
  -1.4            -2.7864e-005    -1.3803e-008    2.705e-009     
  -1.45           -2.8475e-005    -1.8579e-008    1.9705e-009    
  -1.5            -2.9171e-005    -1.4407e-008    1.4097e-009    
  -1.55           -2.9843e-005    -1.0847e-008    -6.49e-011     
  -1.6            -3.0133e-005    1.4184e-008     -1.9271e-009   
  -1.65           -3.0966e-005    1.0428e-008     7.075e-010     
  -1.7            -3.1923e-005    -2.4932e-008    1.2784e-009    
  -1.75           -3.2524e-005    -1.0378e-008    -2.57e-010     
  -1.8            -3.2914e-005    1.7867e-008     -1.69e-009     
END_DB

BEGIN_DB
 ICCAP_VAR VG         -1.08          
 ICCAP_VAR VS         0              
 ICCAP_VAR VB         0              

 #VD              ID              IB              IG             
  0               -2.1049e-008    1.5613e-008     1.0538e-009    
  -0.05           -3.8757e-005    1.0124e-008     -2.5283e-009   
  -0.1            -7.0721e-005    9.846e-009      2.077e-010     
  -0.15           -9.7139e-005    -1.9253e-008    1.8109e-009    
  -0.2            -0.00011746     -1.711e-008     -1.7373e-009   
  -0.25           -0.00013444     1.5695e-008     -1.4962e-009   
  -0.3            -0.00014807     1.024e-008      8.119e-010     
  -0.35           -0.00015953     -2.3366e-008    1.3664e-009    
  -0.4            -0.00016867     -2.6709e-008    1.2251e-009    
  -0.45           -0.00017645     -1.8205e-008    2.0083e-009    
  -0.5            -0.00018284     -1.0403e-008    -5.792e-010    
  -0.55           -0.00018829     1.818e-008      -1.649e-009    
  -0.6            -0.00019421     1.0364e-008     6.719e-010     
  -0.65           -0.00019996     -2.0634e-008    1.5242e-009    
  -0.7            -0.00020489     -1.371e-008     2.246e-010     
  -0.75           -0.00020786     8.306e-009      -1.2735e-009   
  -0.8            -0.00021273     1.026e-008      6.047e-010     
  -0.85           -0.00021777     -1.9637e-008    1.6216e-009    
  -0.9            -0.00022083     -1.0546e-008    -8.23e-010     
  -0.95           -0.00022414     2.3088e-008     -1.4416e-009   
  -1              -0.00022866     1.0235e-008     8.865e-010     
  -1.05           -0.00023295     -2.4559e-008    1.3076e-009    
  -1.1            -0.00023655     -2.7311e-008    2.5063e-009    
  -1.15           -0.00023979     -2.6653e-008    2.2972e-009    
  -1.2            -0.00024313     -1.0239e-008    -3.935e-010    
  -1.25           -0.00024557     1.492e-008      -1.8635e-009   
  -1.3            -0.00025015     1.3151e-008     2.0526e-009    
  -1.35           -0.00025348     -1.9242e-008    1.7687e-009    
  -1.4            -0.00025616     -1.0839e-008    -7.366e-010    
  -1.45           -0.00025873     2.0912e-008     -1.5088e-009   
  -1.5            -0.00026262     1.061e-008      8.077e-010     
  -1.55           -0.00026668     -2.3412e-008    1.3791e-009    
  -1.6            -0.00026857     -1.0676e-008    -9.924e-010    
  -1.65           -0.0002715      2.6222e-008     -1.36e-009     
  -1.7            -0.00027606     1.0256e-008     1.0648e-009    
  -1.75           -0.00027914     -2.6828e-008    2.576e-009     
  -1.8            -0.00028214     -2.6787e-008    2.3862e-009    
END_DB

BEGIN_DB
 ICCAP_VAR VG         -1.44          
 ICCAP_VAR VS         0              
 ICCAP_VAR VB         0              

 #VD              ID              IB              IG             
  0               -3.0282e-008    5.814e-009      1.4263e-009    
  -0.05           -7.8442e-005    1.0398e-008     -2.6689e-009   
  -0.1            -0.00015092     9.989e-009      2.8299e-009    
  -0.15           -0.00021749     -1.2574e-008    1.622e-010     
  -0.2            -0.00027679     7.777e-009      -2.5769e-009   
  -0.25           -0.00033162     1.2102e-008     1.4894e-009    
  -0.3            -0.00037886     -1.4929e-008    2.6464e-009    
  -0.35           -0.00042051     -1.0784e-008    -1.008e-010    
  -0.4            -0.00045554     9.922e-009      -2.2437e-009   
  -0.45           -0.00048712     9.776e-009      2.281e-010     
  -0.5            -0.00051518     -1.7111e-008    2.2101e-009    
  -0.55           -0.00053848     -1.0168e-008    -4.471e-010    
  -0.6            -0.00055796     1.6006e-008     -1.7895e-009   
  -0.65           -0.0005763      1.0107e-008     5.584e-010     
  -0.7            -0.00059321     -1.9348e-008    1.6897e-009    
  -0.75           -0.00060656     -1.0643e-008    -7.856e-010    
  -0.8            -0.00061859     2.2177e-008     -1.471e-009    
  -0.85           -0.00063127     1.034e-008      8.512e-010     
  -0.9            -0.00064295     -2.419e-008     1.3332e-009    
  -0.95           -0.000653       -2.7186e-008    1.2158e-009    
  -1              -0.00066223     -1.0521e-008    -1.836e-010    
  -1.05           -0.00066915     1.1048e-008     -2.1335e-009   
  -1.1            -0.00067818     9.694e-009      3.175e-010     
  -1.15           -0.00068779     -1.7897e-008    2.0779e-009    
  -1.2            -0.00069502     -1.03e-008      -5.313e-010    
  -1.25           -0.00070103     1.7523e-008     -1.6935e-009   
  -1.3            -0.00070906     1.0307e-008     6.396e-010     
  -1.35           -0.00071771     -2.0117e-008    1.5753e-009    
  -1.4            -0.00072451     -1.4287e-008    1.4065e-009    
  -1.45           -0.00073102     -2.6185e-008    1.2392e-009    
  -1.5            -0.00073764     -1.0764e-008    -8.81e-011     
  -1.55           -0.00074194     9.826e-009      -2.2516e-009   
  -1.6            -0.00074844     9.824e-009      2.263e-010     
  -1.65           -0.00075637     -1.7028e-008    2.2218e-009    
  -1.7            -0.00076223     -1.0098e-008    -4.336e-010    
  -1.75           -0.00076656     1.5897e-008     -1.799e-009    
  -1.8            -0.00077315     1.0143e-008     5.494e-010     
END_DB

BEGIN_DB
 ICCAP_VAR VG         -1.8           
 ICCAP_VAR VS         0              
 ICCAP_VAR VB         0              

 #VD              ID              IB              IG             
  0               -3.7015e-008    -1.0706e-008    -6.816e-010    
  -0.05           -0.00010701     8.696e-009      -1.2703e-009   
  -0.1            -0.00020953     1.0414e-008     6.634e-010     
  -0.15           -0.00030748     -2.0631e-008    1.5294e-009    
  -0.2            -0.00040041     -1.3784e-008    2.248e-010     
  -0.25           -0.00048744     8.276e-009      -1.2751e-009   
  -0.3            -0.00056954     1.0281e-008     6e-010         
  -0.35           -0.000646       -1.998e-008     1.6153e-009    
  -0.4            -0.00071646     -1.4873e-008    1.4331e-009    
  -0.45           -0.00078088     -2.5783e-008    1.2493e-009    
  -0.5            -0.00083975     -1.0809e-008    -6.13e-011     
  -0.55           -0.00089162     9.463e-009      -2.2927e-009   
  -0.6            -0.0009416      1.2863e-008     1.7631e-009    
  -0.65           -0.00098434     -1.5423e-008    1.4777e-009    
  -0.7            -0.00102289     -2.5316e-008    1.2677e-009    
  -0.75           -0.0010578      -1.1028e-008    -2.42e-011     
  -0.8            -0.00108648     8.897e-009      -2.3409e-009   
  -0.85           -0.00111704     1.2802e-008     1.7209e-009    
  -0.9            -0.0011416      -1.6222e-008    1.4916e-009    
  -0.95           -0.0011635      -1.4945e-008    2.6334e-009    
  -1              -0.0011831      -2.7136e-008    2.4537e-009    
  -1.05           -0.0012019      -1.8142e-008    2.0214e-009    
  -1.1            -0.0012183      -1.0303e-008    -5.657e-010    
  -1.15           -0.0012326      1.8272e-008     -1.645e-009    
  -1.2            -0.0012482      1.056e-008      6.697e-010     
  -1.25           -0.0012633      -2.0612e-008    1.5229e-009    
  -1.3            -0.0012761      -1.3668e-008    2.152e-010     
  -1.35           -0.0012858      8.215e-009      -1.2767e-009   
  -1.4            -0.0012985      1.0321e-008     6.08e-010      
  -1.45           -0.0013113      -1.9824e-008    1.6035e-009    
  -1.5            -0.0013218      -1.4736e-008    1.4293e-009    
  -1.55           -0.0013326      -1.2532e-008    1.616e-010     
  -1.6            -0.0013396      7.771e-009      -2.562e-009    
  -1.65           -0.0013533      1.0955e-008     1.4886e-009    
  -1.7            -0.0013608      -2.2003e-008    1.8761e-009    
  -1.75           -0.0013697      -1.0686e-008    -6.704e-010    
  -1.8            -0.0013775      2.0013e-008     -1.5624e-009   
END_DB

BEGIN_DB
 ICCAP_VAR VG         0              
 ICCAP_VAR VS         0              
 ICCAP_VAR VB         0.9            

 #VD              ID              IB              IG             
  0               -7.701e-010     -2.6742e-008    -7.537e-010    
  -0.05           -2.1017e-009    8.899e-009      -1.1677e-009   
  -0.1            -1.1063e-009    -2.6447e-008    1.3685e-009    
  -0.15           2.3066e-009     -9.104e-009     9.69e-010      
  -0.2            1.7722e-009     1.1778e-008     -1.5001e-009   
  -0.25           -1.4017e-009    7.934e-009      -1.7675e-009   
  -0.3            -2.1636e-009    -1.0679e-008    -4.379e-010    
  -0.35           -5.103e-010     -1.7468e-008    2.5106e-009    
  -0.4            2.2029e-009     -3.442e-009     1.1643e-009    
  -0.45           1.8881e-009     1.0411e-008     -2.325e-010    
  -0.5            8.466e-010      2.3723e-008     -1.6097e-009   
  -0.55           -1.5222e-009    6.659e-009      -1.6885e-009   
  -0.6            -1.5145e-009    -2.0142e-008    2.17e-009      
  -0.65           2.2219e-009     -6.678e-009     4.487e-010     
  -0.7            2.2945e-009     1.0331e-008     6.203e-010     
  -0.75           2.3199e-009     1.0208e-008     7.728e-010     
  -0.8            2.3149e-009     9.833e-009      9.149e-010     
  -0.85           2.2642e-009     1.0619e-008     1.0565e-009    
  -0.9            2.1536e-009     1.1923e-008     1.2059e-009    
  -0.95           1.9101e-009     1.021e-008      -1.891e-010    
  -1              1.9787e-009     9.758e-009      -3.64e-011     
  -1.05           2.068e-009      9.704e-009      1.243e-010     
  -1.1            2.1661e-009     1.0251e-008     3.025e-010     
  -1.15           2.2456e-009     1.0505e-008     4.774e-010     
  -1.2            2.3062e-009     1.0697e-008     6.423e-010     
  -1.25           2.3229e-009     1.0255e-008     8.023e-010     
  -1.3            2.3117e-009     9.749e-009      9.412e-010     
  -1.35           2.2519e-009     1.0101e-008     1.0827e-009    
  -1.4            2.1319e-009     1.0788e-008     1.2331e-009    
  -1.45           1.9247e-009     1.0118e-008     -1.595e-010    
  -1.5            8.985e-010      2.4804e-008     -1.5351e-009   
  -1.55           -1.4361e-009    7.644e-009      -1.7462e-009   
  -1.6            -2.1497e-009    -1.0638e-008    -3.913e-010    
  -1.65           -1.3514e-009    -2.5881e-008    1.2172e-009    
  -1.7            2.95e-011       -1.0826e-008    2.845e-009     
  -1.75           2.2892e-009     3.3e-010        6.131e-010     
  -1.8            2.32e-009       1.0093e-008     7.734e-010     
END_DB

BEGIN_DB
 ICCAP_VAR VG         -0.36          
 ICCAP_VAR VS         0              
 ICCAP_VAR VB         0.9            

 #VD              ID              IB              IG             
  0               1.3845e-009     6.597e-009      1.2742e-009    
  -0.05           1.6028e-009     1.0671e-008     -1.6436e-009   
  -0.1            -1.6494e-009    6.338e-009      -1.6698e-009   
  -0.15           -2.211e-009     -1.0222e-008    -2.716e-010    
  -0.2            -2.2941e-009    -1.0523e-008    -4.516e-010    
  -0.25           -1.5317e-009    -2.4654e-008    2.4788e-009    
  -0.3            1.9522e-009     -3.657e-009     2.227e-010     
  -0.35           2.0251e-009     1.0198e-008     3.957e-010     
  -0.4            2.077e-009      1.0247e-008     5.652e-010     
  -0.45           2.0873e-009     1.0225e-008     7.267e-010     
  -0.5            1.1155e-009     1.0067e-008     -1.3081e-009   
  -0.55           -1.4041e-009    7.716e-009      -2.1002e-009   
