! VERSION = 6.00
BEGIN_HEADER
 ICCAP_INPUTS
  VG         V  B GROUND SMU4 0.001 LIN        1    0          -1.8       37   -0.05     
  VS         V  E GROUND SMU2 0.1 CON        0
  VB         V  C GROUND SMU3 0.1 LIN        3    0          1.8        3    0.9       
  VD         V  S GROUND SMU1 0.1 LIN        2    -0.1       -1.8       2    -1.7      
 ICCAP_OUTPUTS
  IG         I  B GROUND SMU4 B
  ID         I  S GROUND SMU1 B
  IB         I  C GROUND SMU3 B
END_HEADER

BEGIN_DB
 ICCAP_VAR VS         0              
 ICCAP_VAR VB         0              
 ICCAP_VAR VD         -0.1           

 #VG              IG              ID              IB             
  0               -1.4035e-009    -1.479e-009     -8.299e-009    
  -0.05           -7.9e-012       -1.949e-009     -1.0435e-008   
  -0.1            -1.829e-010     -2.0643e-009    -1.0149e-008   
  -0.15           -3.734e-010     -2.1437e-009    -1.0593e-008   
  -0.2            1.2311e-009     -1.4912e-009    -2.5728e-008   
  -0.25           2.8315e-009     -4.401e-010     -1.0658e-008   
  -0.3            5.941e-010      2.2452e-009     2.3e-010       
  -0.35           -1.3214e-009    -4.1728e-009    1.038e-008     
  -0.4            1.0077e-009     -1.2463e-008    8.658e-009     
  -0.45           -1.9634e-009    -2.9915e-008    1.0208e-008    
  -0.5            2.8258e-009     -1.8994e-008    -2.6776e-008   
  -0.55           -1.6637e-009    -8.8524e-008    -4.05e-010     
  -0.6            -8.347e-010     -1.355e-007     -9.091e-009    
  -0.65           2.151e-010      -1.8254e-007    -1.2904e-008   
  -0.7            -4.378e-010     -2.7723e-007    1.0027e-008    
  -0.75           5.773e-010      -3.3219e-007    -1.0315e-008   
  -0.8            1.5071e-009     -6.3698e-008    1.0338e-008    
  -0.85           -1.3702e-009    -1.189e-007     1.2775e-008    
  -0.9            -1.2832e-009    -3.5132e-007    8.73e-009      
  -0.95           -2.4905e-009    -7.0319e-007    7.564e-009     
  -1              -1.9342e-009    -8.064e-008     1.224e-009     
  -1.05           1.7026e-009     -2.3459e-007    -1.1352e-008   
  -1.1            1.2571e-009     -5.2825e-007    2.0315e-008    
  -1.15           -1.2543e-009    -7.592e-007     8.945e-009     
  -1.2            1.7422e-009     -1.5625e-006    -1.9759e-008   
  -1.25           1.2964e-009     -9.907e-007     -9.246e-009    
  -1.3            2.8388e-009     -1.5999e-006    -9.705e-009    
  -1.35           2.6445e-009     -8.447e-007     -1.31e-010     
  -1.4            5.75e-010       -1.6917e-006    1.0161e-008    
  -1.45           9.508e-010      -1.7117e-006    1.0442e-008    
  -1.5            1.3247e-009     -1.9648e-006    1.0233e-008    
  -1.55           1.7283e-009     -2.1356e-006    1.2847e-008    
  -1.6            6.159e-010      -2.7067e-006    1.0354e-008    
  -1.65           9.844e-010      -2.8357e-006    1.0268e-008    
  -1.7            1.3554e-009     -3.1599e-006    1.024e-008     
  -1.75           1.7629e-009     -3.3439e-006    1.2893e-008    
  -1.8            6.5e-010        -3.8403e-006    1.0423e-008    
END_DB

BEGIN_DB
 ICCAP_VAR VS         0              
 ICCAP_VAR VB         0              
 ICCAP_VAR VD         -1.8           

 #VG              IG              ID              IB             
  0               -1.372e-009     -1.4067e-009    9.981e-009     
  -0.05           2.2837e-009     -1.4835e-009    -2.2331e-008   
  -0.1            3.779e-010      2.1991e-009     -5.623e-009    
  -0.15           5.492e-010      2.2811e-009     1.0623e-008    
  -0.2            7.087e-010      2.3116e-009     1.0457e-008    
  -0.25           -1.8547e-009    8.691e-010      1.7385e-008    
  -0.3            -2.5744e-009    -1.4005e-009    -5.989e-009    
  -0.35           -3.372e-010     -2.2838e-009    -1.0815e-008   
  -0.4            2.8333e-009     -7.969e-009     1.0158e-008    
  -0.45           -1.6595e-009    -3.7478e-008    -7.66e-010     
  -0.5            -1.3586e-009    -2.405e-009     6.235e-009     
  -0.55           1.2111e-009     -1.2039e-007    -1.7484e-008   
  -0.6            2.7789e-009     -1.1718e-007    -1.1651e-008   
  -0.65           -2.0262e-009    -1.12e-009      1.1035e-008    
  -0.7            1.3942e-009     -3.8031e-007    -2.3045e-008   
  -0.75           2.8211e-009     -1.4702e-007    -9.046e-009    
  -0.8            2.7461e-009     2.8e-010        1.3146e-008    
  -0.85           1.318e-009      -1.071e-007     9.688e-009     
  -0.9            2.8351e-009     -4.993e-007     -9.23e-009     
  -0.95           -2.4945e-009    -2.532e-008     3.2e-010       
  -1              2.8325e-009     -4.14e-008      -8.551e-009    
  -1.05           -1.5946e-009    -6.356e-007     1.0364e-008    
  -1.1            1.7581e-009     -3.5345e-006    -1.9775e-008   
  -1.15           1.297e-009      -1.311e-006     -9.254e-009    
  -1.2            2.8414e-009     -2.9806e-006    -9.476e-009    
  -1.25           2.669e-009      -7.663e-007     3.17e-010      
  -1.3            1.4681e-009     -2.203e-006     1.21e-008      
  -1.35           3.521e-010      -5.2505e-006    9.674e-009     
  -1.4            7.562e-010      -3.9063e-006    1.041e-008     
  -1.45           1.1017e-009     -8.996e-006     1.99e-010      
  -1.5            1.6668e-009     -1.2224e-005    -1.987e-008    
  -1.55           1.2652e-009     -8.568e-006     -9.139e-009    
  -1.6            2.8345e-009     -1.2636e-005    -9.7e-009      
  -1.65           2.599e-009      -7.203e-006     -1.04e-010     
  -1.7            1.9847e-009     -9.36e-006      -2.531e-009    
  -1.75           1.3952e-009     -1.3547e-005    -7.993e-009    
  -1.8            2.8178e-009     -1.8541e-005    -8.983e-009    
END_DB

BEGIN_DB
 ICCAP_VAR VS         0              
 ICCAP_VAR VB         0.9            
 ICCAP_VAR VD         -0.1           

 #VG              IG              ID              IB             
  0               8.847e-010      8.15e-010       -1.3514e-008   
  -0.05           7.795e-010      2.3171e-009     -9.051e-009    
  -0.1            9.246e-010      2.3094e-009     9.671e-009     
  -0.15           1.061e-009      2.2535e-009     1.0583e-008    
  -0.2            1.2122e-009     2.1417e-009     1.1773e-008    
  -0.25           -1.553e-010     1.9274e-009     1.0023e-008    
  -0.3            -5e-012         1.9984e-009     9.772e-009     
  -0.35           1.573e-010      2.0892e-009     9.785e-009     
  -0.4            3.264e-010      2.1826e-009     1.0421e-008    
  -0.45           4.981e-010      2.2519e-009     1.0444e-008    
  -0.5            6.621e-010      2.286e-009      1.026e-008     
  -0.55           -1.308e-009     -2.7174e-009    1.0087e-008    
  -0.6            -1.2863e-009    -8.0564e-009    8.185e-009     
  -0.65           1.429e-009      -2.3126e-008    -1.9999e-008   
  -0.7            1.2118e-009     -2.555e-009     -8.791e-009    
  -0.75           2.7938e-009     -4.473e-008     -1.1341e-008   
  -0.8            -8.38e-011      -1.319e-007     9.339e-009     
  -0.85           2.675e-010      -1.9488e-007    -1.0786e-008   
  -0.9            -4.775e-010     -3.1237e-007    9.926e-009     
  -0.95           2.0069e-009     -3.3367e-007    -1.8482e-008   
  -1              1.3931e-009     -3.997e-008     -8.201e-009    
  -1.05           1.2087e-009     -2.2112e-007    -8.663e-009    
  -1.1            2.7846e-009     -5.763e-007     -1.1545e-008   
  -1.15           2.1115e-009     -8.2371e-007    1.0848e-008    
  -1.2            1.4549e-009     -2.2603e-007    -7.262e-009    
  -1.25           2.422e-009      -3.6329e-007    2.711e-008     
  -1.3            1.5714e-009     -5.5332e-007    1.4318e-008    
  -1.35           -1.2802e-009    -1.0186e-006    8.976e-009     
  -1.4            -2.4115e-009    -1.5132e-006    8.63e-009      
  -1.45           1.7212e-009     -7.505e-007     -1.0806e-008   
  -1.5            -1.7284e-009    -1.1882e-006    1.0459e-008    
  -1.55           -6.238e-010     -1.626e-006     -1.0596e-008   
  -1.6            1.8256e-009     -2.5043e-006    -2.1946e-008   
  -1.65           1.3205e-009     -1.9521e-006    -8.993e-009    
  -1.7            2.8357e-009     -2.5893e-006    -9.263e-009    
  -1.75           2.7109e-009     -1.9e-006       2.5e-010       
  -1.8            1.4386e-009     -2.6201e-006    1.1666e-008    
END_DB

BEGIN_DB
 ICCAP_VAR VS         0              
 ICCAP_VAR VB         0.9            
 ICCAP_VAR VD         -1.8           

 #VG              IG              ID              IB             
  0               -1.0683e-009    -9.512e-010     -2.0474e-008   
  -0.05           -1.0621e-009    -2.171e-009     -5.423e-009    
  -0.1            1.5053e-009     -1.681e-009     -1.21e-008     
  -0.15           8.495e-010      2.3205e-009     -9.009e-009    
  -0.2            9.982e-010      2.2929e-009     9.991e-009     
  -0.25           1.1406e-009     2.2096e-009     1.1322e-008    
  -0.3            1.3001e-009     2.0667e-009     1.249e-008     
  -0.35           -1.4233e-009    1.827e-009      1.2711e-008    
  -0.4            -1.864e-009     -1.2928e-009    8.387e-009     
  -0.45           -5.896e-010     -2.214e-009     -1.0565e-008   
  -0.5            1.1906e-009     -2.3793e-009    -2.2538e-008   
  -0.55           2.8388e-009     -3.9612e-009    -1.3547e-008   
  -0.6            -1.6847e-009    -1.8658e-008    8.477e-009     
  -0.65           -1.3661e-009    -1.362e-009     6.192e-009     
  -0.7            -1.2868e-009    -1.116e-008     8.816e-009     
  -0.75           -2.878e-010     -1.6497e-007    -2.6023e-008   
  -0.8            2.053e-009      1.18e-009       -1.0347e-008   
  -0.85           -1.3827e-009    -3.6929e-007    2.5211e-008    
  -0.9            -1.292e-009     -1.2332e-007    8.784e-009     
  -0.95           -2.546e-009     -5.1207e-007    7.607e-009     
  -1              1.0339e-009     -8.067e-007     -2.6858e-008   
  -1.05           1.3069e-009     -1.2218e-006    -2.4525e-008   
  -1.1            2.8462e-009     -5.729e-007     -9.525e-009    
  -1.15           2.3108e-009     -2.18e-008      3e-012         
  -1.2            1.6148e-009     -1.949e-007     -5.287e-009    
  -1.25           1.2543e-009     -8.977e-007     -9.165e-009    
  -1.3            2.8406e-009     -2.4128e-006    -9.892e-009    
  -1.35           2.5804e-009     -3.285e-007     -3.26e-010     
  -1.4            1.9337e-009     -7.895e-007     -2.686e-009    
  -1.45           1.3644e-009     -2.1725e-006    -8.506e-009    
  -1.5            2.8265e-009     -4.5757e-006    -9.126e-009    
  -1.55           2.7606e-009     -1.7808e-006    4.8e-010       
  -1.6            -2.6384e-009    -2.6592e-006    9.86e-009      
  -1.65           1.1023e-009     -9.592e-006     -1.0018e-008   
  -1.7            1.6981e-009     -1.3336e-005    -1.973e-008    
  -1.75           1.273e-009      -9.418e-006     -9.189e-009    
  -1.8            2.8458e-009     -1.4011e-005    -9.616e-009    
END_DB

BEGIN_DB
 ICCAP_VAR VS         0              
 ICCAP_VAR VB         1.8            
 ICCAP_VAR VD         -0.1           

 #VG              IG              ID              IB             
  0               -9.545e-010     3.751e-010      1.011e-008     
  -0.05           -1.7649e-009    -1.433e-009     7.566e-009     
  -0.1            2.0225e-009     -1.5488e-009    -1.8013e-008   
  -0.15           5.338e-010      2.2647e-009     -7.837e-009    
  -0.2            6.986e-010      2.3168e-009     1.0486e-008    
  -0.25           8.486e-010      2.3219e-009     9.992e-009     
  -0.3            9.987e-010      2.2947e-009     1.001e-008     
  -0.35           1.1399e-009     2.2039e-009     1.1381e-008    
  -0.4            1.2994e-009     2.0555e-009     1.2356e-008    
  -0.45           -1.4232e-009    1.8379e-009     1.2682e-008    
  -0.5            -1.8622e-009    -1.2863e-009    8.637e-009     
  -0.55           1.7298e-009     -1.6569e-009    -1.4262e-008   
  -0.6            1.4782e-009     1.988e-010      -9.124e-009    
  -0.65           1.3379e-009     -5.797e-010     -8.799e-009    
  -0.7            1.253e-009      -3.308e-009     -9.257e-009    
  -0.75           -1.7794e-009    -2.0383e-008    1.2501e-008    
  -0.8            1.4581e-009     -3.304e-008     -4.716e-009    
  -0.85           2.7971e-009     -3.538e-009     -8.906e-009    
  -0.9            6.783e-010      -1.0456e-007    1.7468e-008    
  -0.95           -4.187e-010     -2.0423e-007    1.0734e-008    
  -1              5.698e-010      -2.3563e-007    -1.0327e-008   
  -1.05           -2.6327e-009    -1.19e-009      1.2017e-008    
  -1.1            -6.572e-010     -4.6182e-007    -1.089e-008    
  -1.15           1.2256e-009     -5.2664e-007    -2.7175e-008   
  -1.2            2.8166e-009     -4.9447e-007    -1.0841e-008   
  -1.25           2.219e-009      -7.6817e-007    1.0407e-008    
  -1.3            1.52e-009       -1.608e-007     -6.367e-009    
  -1.35           2.6772e-009     -9.295e-007     9.802e-009     
  -1.4            1.5339e-009     -1.2081e-006    1.0824e-008    
  -1.45           -1.2754e-009    -9.688e-007     8.899e-009     
  -1.5            -2.381e-009     -1.4471e-006    9.023e-009     
  -1.55           2.497e-010      -1.7237e-006    -1.3672e-008   
  -1.6            1.4525e-009     -1.9193e-006    -2.1481e-008   
  -1.65           1.2171e-009     -1.5654e-006    -8.937e-009    
  -1.7            2.8081e-009     -2.2199e-006    -1.1214e-008   
  -1.75           1.302e-009      -1.7053e-006    1.0003e-008    
  -1.8            1.7109e-009     -1.8895e-006    1.2772e-008    
END_DB

BEGIN_DB
 ICCAP_VAR VS         0              
 ICCAP_VAR VB         1.8            
 ICCAP_VAR VD         -1.8           

 #VG              IG              ID              IB             
  0               1.424e-010      -6e-010         -4.343e-009    
  -0.05           2.5819e-009     -4.543e-010     -1.7246e-008   
  -0.1            1.1178e-009     2.2396e-009     -3.083e-009    
  -0.15           1.2702e-009     2.0985e-009     1.1157e-008    
  -0.2            -1.063e-010     1.9556e-009     1.0004e-008    
  -0.25           5.95e-011       2.0313e-009     9.737e-009     
  -0.3            2.25e-010       2.1267e-009     9.919e-009     
  -0.35           3.974e-010      2.2157e-009     1.0514e-008    
  -0.4            5.735e-010      2.283e-009      1.0265e-008    
  -0.45           7.373e-010      2.3178e-009     1.0187e-008    
  -0.5            8.85e-010       2.3175e-009     9.884e-009     
  -0.55           1.0312e-009     2.2683e-009     1.0294e-008    
  -0.6            -1.6844e-009    1.458e-010      1.1824e-008    
  -0.65           -1.4984e-009    -3.5524e-009    6.153e-009     
  -0.7            1.4999e-009     -1.6741e-008    -1.9256e-008   
  -0.75           1.2256e-009     -2.24e-010      -8.876e-009    
  -0.8            2.8262e-009     -3.1678e-008    -1.0601e-008   
  -0.85           1.208e-009      -1.218e-008     -1.0812e-008   
  -0.9            2.794e-009      -1.3653e-007    -1.1758e-008   
  -0.95           -2.0207e-009    -1.14e-009      1.0925e-008    
  -1              1.3795e-009     -5.5263e-007    -2.3188e-008   
  -1.05           1.2023e-009     -2.0957e-007    -9.148e-009    
  -1.1            1.8248e-009     -1.0039e-006    1.2857e-008    
  -1.15           1.3164e-009     -1.161e-007     -9.099e-009    
  -1.2            2.8386e-009     -6.297e-007     -9.468e-009    
  -1.25           2.3416e-009     -2.2e-008       1.67e-010      
  -1.3            1.6496e-009     -1.966e-007     -4.984e-009    
  -1.35           1.2645e-009     -8.968e-007     -9.076e-009    
  -1.4            2.8418e-009     -2.4702e-006    -9.803e-009    
  -1.45           2.6024e-009     -3.623e-007     -1.24e-010     
  -1.5            1.9553e-009     -8.764e-007     -2.656e-009    
  -1.55           1.3863e-009     -2.3433e-006    -8.197e-009    
  -1.6            1.2046e-009     -4.7166e-006    -9.004e-009    
  -1.65           2.7764e-009     -8.1885e-006    -1.2004e-008   
  -1.7            5.651e-010      -1.0977e-005    -2.5544e-008   
  -1.75           1.992e-009      -5.4875e-006    -1.3607e-008   
  -1.8            1.9554e-009     -6.5163e-006    -1.2551e-008   
END_DB

