! VERSION = 6.00
BEGIN_HEADER
 ICCAP_INPUTS
  VG         V  B GROUND SMU4 0.001 LIN        1    0          -1.8       37   -0.05     
  VS         V  E GROUND SMU2 0.1 CON        0
  VB         V  C GROUND SMU3 0.1 LIN        3    0          1.8        3    0.9       
  VD         V  S GROUND SMU1 0.1 LIN        2    -0.1       -1.8       2    -1.7      
 ICCAP_OUTPUTS
  IG         I  B GROUND SMU4 B
  ID         I  S GROUND SMU1 B
  IB         I  C GROUND SMU3 B
END_HEADER

BEGIN_DB
 ICCAP_VAR VS         0              
 ICCAP_VAR VB         0              
 ICCAP_VAR VD         -0.1           

 #VG              IG              ID              IB             
  0               -7.125e-010     -8.727e-010     1.0049e-008    
  -0.05           -1.8982e-009    -1.2354e-009    8.675e-009     
  -0.1            1.4314e-009     -1.923e-009     -1.1189e-008   
  -0.15           1.2894e-009     -6.08e-010      -9.116e-009    
  -0.2            1.2264e-009     -1.1365e-009    -9.396e-009    
  -0.25           2.8758e-009     -3.0864e-009    -1.1368e-008   
  -0.3            2.8516e-009     -3.067e-009     -1.96e-010     
  -0.35           -2.5199e-009    -6.467e-009     -2.7035e-008   
  -0.4            -6.299e-010     -2.3874e-008    -1.0682e-008   
  -0.45           1.7822e-009     -5.4344e-008    -2.0018e-008   
  -0.5            1.2935e-009     -6.1306e-008    -9.142e-009    
  -0.55           1.92e-010       -1.4016e-007    -9.204e-009    
  -0.6            6.644e-010      -1.7961e-007    1.0369e-008    
  -0.65           1.0485e-009     -3.2332e-007    1.0103e-008    
  -0.7            1.4568e-009     -4.7338e-007    1.1513e-008    
  -0.75           3.243e-010      -7.6266e-007    9.577e-009     
  -0.8            2.8781e-009     -1.14062e-006   6.721e-009     
  -0.85           -4.632e-010     -1.4619e-006    -1.78e-010     
  -0.9            2.0308e-009     -1.8855e-006    -2.3261e-008   
  -0.95           1.3894e-009     -2.3585e-006    -8.247e-009    
  -1              2.8618e-009     -2.922e-006     -8.915e-009    
  -1.05           2.7739e-009     -3.4254e-006    4.44e-010      
  -1.1            1.4409e-009     -4.0342e-006    1.0194e-008    
  -1.15           3.09e-010       -4.6514e-006    9.579e-009     
  -1.2            7.705e-010      -5.226e-006     1.0883e-008    
  -1.25           1.1483e-009     -5.83e-006      9.807e-009     
  -1.3            -8.2e-012       -6.4658e-006    1.0045e-008    
  -1.35           4.529e-010      -6.9851e-006    9.783e-009     
  -1.4            8.861e-010      -7.5189e-006    1.0438e-008    
  -1.45           1.2635e-009     -8.0705e-006    1.0192e-008    
  -1.5            1.241e-010      -8.5883e-006    9.739e-009     
  -1.55           5.983e-010      -9.0282e-006    1.0354e-008    
  -1.6            9.926e-010      -9.485e-006     1.029e-008     
  -1.65           -1.724e-010     -9.9882e-006    1.1289e-008    
  -1.7            2.568e-010      -1.03851e-005   9.628e-009     
  -1.75           7.236e-010      -1.0752e-005    1.0468e-008    
  -1.8            1.099e-009      -1.11372e-005   9.924e-009     
END_DB

BEGIN_DB
 ICCAP_VAR VS         0              
 ICCAP_VAR VB         0              
 ICCAP_VAR VD         -1.8           

 #VG              IG              ID              IB             
  0               1.5974e-009     -1.7377e-009    -1.0886e-008   
  -0.05           2.7159e-009     -2.9916e-009    -1.6619e-008   
  -0.1            2.4723e-009     -1.2313e-009    -2.482e-009    
  -0.15           2.1676e-009     -2.3566e-009    -4.081e-009    
  -0.2            -1.4056e-009    -1.0353e-008    8.534e-009     
  -0.25           -1.3104e-009    -1.278e-008     8.733e-009     
  -0.3            -2.539e-009     -4.0556e-008    7.867e-009     
  -0.35           -6.166e-010     -4.1065e-008    -1.0701e-008   
  -0.4            -2.1931e-009    -6.1642e-008    -9.321e-009    
  -0.45           1.2923e-009     -1.7656e-007    -9.358e-009    
  -0.5            2.8746e-009     -4.0782e-007    -9.595e-009    
  -0.55           2.6317e-009     -4.6668e-007    -2.47e-010     
  -0.6            1.6595e-009     -8.41e-007      1.01e-008      
  -0.65           1.2635e-009     -1.4541e-006    -9.184e-009    
  -0.7            2.8677e-009     -2.4016e-006    -9.913e-009    
  -0.75           2.562e-009      -3.0104e-006    -6.05e-010     
  -0.8            1.8527e-009     -4.3535e-006    -3.345e-009    
  -0.85           1.3284e-009     -6.0839e-006    -8.781e-009    
  -0.9            2.8663e-009     -8.1607e-006    -9.383e-009    
  -0.95           2.7029e-009     -9.964e-006     5.8e-011       
  -1              -2.3318e-009    -1.2397e-005    1.1239e-008    
  -1.05           2.102e-010      -1.6037e-005    -1.2778e-008   
  -1.1            1.4172e-009     -1.8991e-005    -2.2647e-008   
  -1.15           2.8579e-009     -2.2181e-005    -8.847e-009    
  -1.2            2.776e-009      -2.5227e-005    4.24e-010      
  -1.25           1.4336e-009     -2.9269e-005    1.0179e-008    
  -1.3            2.975e-010      -3.3391e-005    9.539e-009     
  -1.35           7.596e-010      -3.7252e-005    1.0562e-008    
  -1.4            1.1232e-009     -4.16e-005      9.686e-009     
  -1.45           -2.83e-011      -4.6492e-005    1.0286e-008    
  -1.5            4.284e-010      -5.0795e-005    9.846e-009     
  -1.55           8.582e-010      -5.5433e-005    1.0439e-008    
  -1.6            1.2436e-009     -6.028e-005     9.983e-009     
  -1.65           8.83e-011       -6.5464e-005    9.937e-009     
  -1.7            5.614e-010      -7.0128e-005    1.0309e-008    
  -1.75           9.656e-010      -7.5141e-005    1.03e-008      
  -1.8            -2.097e-010     -8.0708e-005    1.1864e-008    
END_DB

BEGIN_DB
 ICCAP_VAR VS         0              
 ICCAP_VAR VB         0.9            
 ICCAP_VAR VD         -0.1           

 #VG              IG              ID              IB             
  0               -1.1139e-009    -1.015e-009     -1.8332e-008   
  -0.05           -6.814e-010     -2.2581e-009    -1.1052e-008   
  -0.1            2.1493e-009     -1.5545e-009    -1.8412e-008   
  -0.15           1.4274e-009     1.9873e-009     -7.339e-009    
  -0.2            2.91e-011       2.0487e-009     9.81e-009      
  -0.25           2.217e-010      2.1556e-009     1.0068e-008    
  -0.3            4.186e-010      2.2398e-009     1.0473e-008    
  -0.35           6.211e-010      2.2779e-009     1.0189e-008    
  -0.4            8.003e-010      2.1543e-009     9.99e-009      
  -0.45           -1.3113e-009    3.691e-010      9.817e-009     
  -0.5            -1.2874e-009    -3.7549e-009    8.662e-009     
  -0.55           -2.695e-009     -8.602e-009     -2.4604e-008   
  -0.6            1.9135e-009     -3.1853e-008    -2.133e-008    
  -0.65           1.3572e-009     -5.7956e-008    -9.094e-009    
  -0.7            2.145e-009      -1.315e-007     -5.227e-009    
  -0.75           1.4645e-009     -2.158e-007     -7.362e-009    
  -0.8            1.2267e-009     -3.7645e-007    -8.905e-009    
  -0.85           2.8223e-009     -6.1859e-007    -1.1427e-008   
  -0.9            1.3629e-009     -8.9266e-007    1.0749e-008    
  -0.95           -1.8862e-009    -1.2594e-006    -1.2287e-008   
  -1              -2.6828e-009    -1.7236e-006    -5.534e-009    
  -1.05           -8.966e-010     -2.2829e-006    -1.106e-008    
  -1.1            1.4306e-009     -2.8864e-006    -1.3718e-008   
  -1.15           2.855e-009      -3.462e-006     -8.96e-009     
  -1.2            2.0974e-009     -4.0444e-006    1.2293e-008    
  -1.25           9.499e-010      -4.6646e-006    1.0416e-008    
  -1.3            -2.227e-010     -5.2896e-006    1.2082e-008    
  -1.35           -1.415e-009     -5.8683e-006    2.4481e-008    
  -1.4            -1.3207e-009    -6.4255e-006    9.304e-009     
  -1.45           -2.5402e-009    -6.998e-006     7.915e-009     
  -1.5            -1.961e-009     -7.4896e-006    1.074e-009     
  -1.55           2.4438e-009     -8.0409e-006    -2.6724e-008   
  -1.6            1.7103e-009     -8.4954e-006    -4.431e-009    
  -1.65           1.2879e-009     -8.9776e-006    -9.157e-009    
  -1.7            2.8751e-009     -9.4388e-006    -9.68e-009     
  -1.75           2.6025e-009     -9.803e-006     -4.02e-010     
  -1.8            1.9163e-009     -1.02105e-005   -2.96e-009     
END_DB

BEGIN_DB
 ICCAP_VAR VS         0              
 ICCAP_VAR VB         0.9            
 ICCAP_VAR VD         -1.8           

 #VG              IG              ID              IB             
  0               2.2403e-009     2.3025e-009     -1.2474e-008   
  -0.05           5.628e-010      2.3154e-009     1.0733e-008    
  -0.1            7.488e-010      2.3617e-009     1.0445e-008    
  -0.15           9.131e-010      2.3567e-009     9.673e-009     
  -0.2            1.061e-009      2.2749e-009     1.038e-008     
  -0.25           -1.6482e-009    1.5042e-009     1.1427e-008    
  -0.3            -2.5118e-009    -1.5347e-009    6.726e-009     
  -0.35           -3.187e-010     -3.6803e-009    -1.0732e-008   
  -0.4            -5.214e-010     -6.9049e-009    -1.0888e-008   
  -0.45           2.8764e-009     -1.1691e-008    2.4437e-008    
  -0.5            2.6422e-009     -3.5593e-008    -1.96e-010     
  -0.55           2.5091e-009     -9.0334e-008    1.0309e-008    
  -0.6            -2.6411e-009    -2.0759e-007    9.974e-009     
  -0.65           2.168e-010      -4.9023e-007    -1.2588e-008   
  -0.7            1.418e-009      -8.9937e-007    -2.2673e-008   
  -0.75           -1.2995e-009    -1.4415e-006    -1.0937e-008   
  -0.8            -2.3891e-009    -2.3446e-006    9.675e-009     
  -0.85           2.3e-010        -3.5641e-006    -1.3017e-008   
  -0.9            1.4499e-009     -5.0774e-006    -2.2054e-008   
  -0.95           2.8456e-009     -6.7525e-006    -8.885e-009    
  -1              2.0719e-009     -8.8535e-006    1.2165e-008    
  -1.05           -1.5543e-009    -1.1526e-005    -9.213e-009    
  -1.1            -1.3545e-009    -1.4091e-005    7.656e-009     
  -1.15           -1.2924e-009    -1.7178e-005    8.869e-009     
  -1.2            -2.3174e-009    -2.0534e-005    1.0192e-008    
  -1.25           1.971e-010      -2.4243e-005    -1.2482e-008   
  -1.3            -1.912e-010     -2.7946e-005    -1.0582e-008   
  -1.35           -6.919e-010     -3.1821e-005    -1.084e-008    
  -1.4            1.7197e-009     -3.6142e-005    -1.8405e-008   
  -1.45           1.2848e-009     -4.0393e-005    -9.307e-009    
  -1.5            2.8729e-009     -4.494e-005     -9.701e-009    
  -1.55           2.6165e-009     -4.9275e-005    -2.28e-010     
  -1.6            1.9389e-009     -5.4008e-005    -2.96e-009     
  -1.65           1.3695e-009     -5.8859e-005    -8.84e-009     
  -1.7            2.8601e-009     -6.3802e-005    -9.141e-009    
  -1.75           2.7531e-009     -6.8532e-005    3.3e-011       
  -1.8            1.4594e-009     -7.3753e-005    1.1345e-008    
END_DB

BEGIN_DB
 ICCAP_VAR VS         0              
 ICCAP_VAR VB         1.8            
 ICCAP_VAR VD         -0.1           

 #VG              IG              ID              IB             
  0               8.403e-010      8.264e-010      -1.3239e-008   
  -0.05           8.547e-010      2.3673e-009     -8.703e-009    
  -0.1            1.01e-009       2.3371e-009     9.728e-009     
  -0.15           1.1647e-009     2.2381e-009     1.0092e-008    
  -0.2            -2.242e-010     1.9253e-009     1.0223e-008    
  -0.25           -1.5831e-009    8.828e-010      2.4461e-008    
  -0.3            -1.722e-009     -1.4785e-009    7.327e-009     
  -0.35           -3.835e-010     -2.206e-009     -1.1056e-008   
  -0.4            1.2297e-009     -1.4151e-009    -2.4805e-008   
  -0.45           2.8692e-009     -1.118e-010     -1.1121e-008   
  -0.5            -1.4406e-009    1.3593e-009     2e-011         
  -0.55           -1.3694e-009    -2.244e-009     8.686e-009     
  -0.6            -1.335e-009     -7.0577e-009    8.937e-009     
  -0.65           -3.19e-011      -1.9938e-008    -5.685e-009    
  -0.7            4.17e-010       -5.187e-008     9.878e-009     
  -0.75           4.09e-011       -1.178e-007     8.199e-009     
  -0.8            -4.29e-010      -2.1922e-007    -1.0328e-008   
  -0.85           2.1001e-009     -3.8297e-007    -2.4048e-008   
  -0.9            1.4359e-009     -6.2379e-007    -7.531e-009    
  -0.95           1.2213e-009     -9.6057e-007    -8.697e-009    
  -1              2.7974e-009     -1.3729e-006    2.5555e-008    
  -1.05           1.9707e-009     -1.8689e-006    1.1724e-008    
  -1.1            8.381e-010      -2.4071e-006    1.0435e-008    
  -1.15           1.2226e-009     -3.0069e-006    9.963e-009     
  -1.2            4.98e-011       -3.5996e-006    9.979e-009     
  -1.25           5.28e-010       -4.2142e-006    1.0295e-008    
  -1.3            9.355e-010      -4.8318e-006    1.0613e-008    
  -1.35           1.3248e-009     -5.4424e-006    9.961e-009     
  -1.4            1.774e-009      -6.0189e-006    1.0998e-008    
  -1.45           6.35e-010       -6.5664e-006    1.0722e-008    
  -1.5            1.0243e-009     -7.1084e-006    1.0419e-008    
  -1.55           1.4321e-009     -7.6279e-006    1.0275e-008    
  -1.6            2.892e-010      -8.1011e-006    9.816e-009     
  -1.65           7.444e-010      -8.5718e-006    1.0474e-008    
  -1.7            1.1176e-009     -9.0246e-006    9.826e-009     
  -1.75           1.55e-009       -9.4546e-006    1.1696e-008    
  -1.8            1.9837e-009     -9.8538e-006    1.1421e-008    
END_DB

BEGIN_DB
 ICCAP_VAR VS         0              
 ICCAP_VAR VB         1.8            
 ICCAP_VAR VD         -1.8           

 #VG              IG              ID              IB             
  0               1.9587e-009     2.2879e-009     7.04e-010      
  -0.05           7.216e-010      2.3598e-009     1.0261e-008    
  -0.1            8.884e-010      2.3687e-009     9.834e-009     
  -0.15           1.0392e-009     2.3231e-009     1.0159e-008    
  -0.2            1.2015e-009     2.2036e-009     1.1407e-008    
  -0.25           -1.884e-010     1.9018e-009     1.0006e-008    
  -0.3            -1.83e-011      1.8748e-009     9.785e-009     
  -0.35           1.608e-010      1.5899e-009     9.889e-009     
  -0.4            -1.6747e-009    -2.4057e-009    1.0476e-008    
  -0.45           -1.4972e-009    -6.5351e-009    6.251e-009     
  -0.5            9.762e-010      -1.5799e-008    6.27e-010      
  -0.55           -1.951e-010     -5.0486e-008    1.1556e-008    
  -0.6            1.8156e-009     -1.2844e-007    -2.7101e-008   
  -0.65           6.876e-010      -2.8779e-007    1.0704e-008    
  -0.7            1.0573e-009     -5.8165e-007    1.0113e-008    
  -0.75           1.4803e-009     -1.06321e-006   1.0287e-008    
  -0.8            -1.3794e-009    -1.7475e-006    -1.0409e-008   
  -0.85           -1.3109e-009    -2.7398e-006    9.15e-009      
  -0.9            -2.4736e-009    -4.0619e-006    8.665e-009     
  -0.95           -7.061e-010     -5.7623e-006    -1.0978e-008   
  -1              1.6854e-009     -7.7881e-006    -1.7846e-008   
  -1.05           1.2757e-009     -1.01415e-005   -8.782e-009    
  -1.1            -1.514e-010     -1.279e-005     8.356e-009     
  -1.15           -6.425e-010     -1.5708e-005    -1.1001e-008   
  -1.2            -1.0324e-009    -1.8896e-005    -1.0775e-008   
  -1.25           1.484e-010      -2.2437e-005    -1.1653e-008   
  -1.3            1.3453e-009     -2.6091e-005    -2.424e-008    
  -1.35           2.8657e-009     -3.0017e-005    -8.977e-009    
  -1.4            2.7219e-009     -3.4043e-005    1.08e-010      
  -1.45           5.708e-010      -3.8229e-005    1.0328e-008    
  -1.5            9.668e-010      -4.2674e-005    1.0155e-008    
  -1.55           -2.01e-010      -4.7101e-005    1.1671e-008    
  -1.6            2.199e-010      -5.1686e-005    9.838e-009     
  -1.65           6.78e-010       -5.6478e-005    1.0505e-008    
  -1.7            1.0599e-009     -6.1395e-005    9.871e-009     
  -1.75           1.4772e-009     -6.6344e-005    1.1462e-008    
  -1.8            3.309e-010      -7.1133e-005    9.808e-009     
END_DB

