! VERSION = 6.00
BEGIN_HEADER
 ICCAP_INPUTS
  VG         V  B GROUND SMU4 0.001 LIN        1    0          -1.8       37   -0.05     
  VS         V  E GROUND SMU2 0.1 CON        0
  VB         V  C GROUND SMU3 0.1 LIN        3    0          1.8        3    0.9       
  VD         V  S GROUND SMU1 0.1 LIN        2    -0.1       -1.8       2    -1.7      
 ICCAP_OUTPUTS
  IG         I  B GROUND SMU4 B
  ID         I  S GROUND SMU1 B
  IB         I  C GROUND SMU3 B
END_HEADER

BEGIN_DB
 ICCAP_VAR VS         0              
 ICCAP_VAR VB         0              
 ICCAP_VAR VD         -0.1           

 #VG              IG              ID              IB             
  0               2.3802e-009     2.3101e-009     -1.3916e-008   
  -0.05           4.702e-010      2.257e-009      1.0424e-008    
  -0.1            6.56e-010       2.3171e-009     1.0418e-008    
  -0.15           8.231e-010      2.3364e-009     1.0173e-008    
  -0.2            9.643e-010      2.3179e-009     9.795e-009     
  -0.25           1.1149e-009     2.2332e-009     1.0205e-008    
  -0.3            -2.446e-010     1.8591e-009     1.0267e-008    
  -0.35           -1.6204e-009    7.718e-010      2.326e-008     
  -0.4            -2.5047e-009    -1.3739e-009    6.857e-009     
  -0.45           -3.461e-010     -3.1989e-009    -1.0516e-008   
  -0.5            2.6043e-009     -5.1699e-009    -2.613e-008    
  -0.55           -1.5026e-009    -1.4186e-008    -1.3449e-008   
  -0.6            -1.3332e-009    -4.4527e-008    7.863e-009     
  -0.65           8.815e-010      -1.3595e-007    -1.6846e-008   
  -0.7            1.2581e-009     -3.9645e-007    9.754e-009     
  -0.75           1.6805e-009     -1.01211e-006   1.2303e-008    
  -0.8            -1.2965e-009    -2.2535e-006    -1.1009e-008   
  -0.85           -2.4179e-009    -4.5826e-006    7.998e-009     
  -0.9            -7.369e-010     -8.4198e-006    -1.0817e-008   
  -0.95           1.9529e-009     -1.3928e-005    -1.8054e-008   
  -1              8.241e-010      -2.0813e-005    1.0358e-008    
  -1.05           1.195e-009      -2.9267e-005    9.859e-009     
  -1.1            4.49e-011       -3.8287e-005    1.0159e-008    
  -1.15           5.032e-010      -4.8284e-005    1.0038e-008    
  -1.2            9.102e-010      -5.8704e-005    1.0308e-008    
  -1.25           1.2902e-009     -6.9219e-005    9.927e-009     
  -1.3            1.7182e-009     -7.9417e-005    1.2581e-008    
  -1.35           6.074e-010      -8.9057e-005    1.0408e-008    
  -1.4            9.931e-010      -9.8683e-005    1.032e-008     
  -1.45           -1.799e-010     -0.000107555    1.148e-008     
  -1.5            2.1095e-009     -0.00011622     1.0745e-008    
  -1.55           9.7e-010        -0.00012427     1.0429e-008    
  -1.6            -1.998e-010     -0.00013181     1.1765e-008    
  -1.65           -1.4007e-009    -0.00013885     2.4607e-008    
  -1.7            -1.3101e-009    -0.00014566     8.622e-009     
  -1.75           -2.5242e-009    -0.000152       7.518e-009     
  -1.8            -1.9531e-009    -0.00015811     1.199e-009     
END_DB

BEGIN_DB
 ICCAP_VAR VS         0              
 ICCAP_VAR VB         0              
 ICCAP_VAR VD         -1.8           

 #VG              IG              ID              IB             
  0               9.133e-010      9.012e-010      1.8618e-008    
  -0.05           5.955e-010      2.2916e-009     -8.485e-009    
  -0.1            7.674e-010      2.3329e-009     1.0402e-008    
  -0.15           9.231e-010      2.3231e-009     9.867e-009     
  -0.2            1.0681e-009     2.2491e-009     1.0056e-008    
  -0.25           -1.6252e-009    1.6171e-009     1.0745e-008    
  -0.3            -2.4899e-009    -1.3057e-009    6.672e-009     
  -0.35           -3.341e-010     -2.9559e-009    -1.0492e-008   
  -0.4            1.2379e-009     -4.3206e-009    -2.5789e-008   
  -0.45           -1.517e-009     -1.1361e-008    -1.3741e-008   
  -0.5            -1.3423e-009    -3.5821e-008    7.676e-009     
  -0.55           1.7954e-009     -1.1237e-007    -2.69e-008     
  -0.6            6.851e-010      -3.3472e-007    1.0418e-008    
  -0.65           1.0569e-009     -9.2466e-007    1.0106e-008    
  -0.7            -2.7002e-009    -2.2139e-006    -2.6942e-008   
  -0.75           1.9116e-009     -4.9514e-006    -1.8548e-008   
  -0.8            1.3493e-009     -9.796e-006     -8.715e-009    
  -0.85           -4.256e-010     -1.7789e-005    9.637e-009     
  -0.9            2.1222e-009     -2.9991e-005    -1.7152e-008   
  -0.95           1.4584e-009     -4.6777e-005    -7.205e-009    
  -1              2.8166e-009     -6.8843e-005    -8.606e-009    
  -1.05           2.0302e-009     -9.6118e-005    1.2334e-008    
  -1.1            2.8115e-009     -0.00012835     1.1417e-008    
  -1.15           1.334e-009      -0.00016681     1.0973e-008    
  -1.2            1.76e-009       -0.00020921     1.2829e-008    
  -1.25           6.453e-010      -0.00025436     1.0597e-008    
  -1.3            1.0237e-009     -0.00030568     1.0395e-008    
  -1.35           1.4238e-009     -0.00036056     1.0548e-008    
  -1.4            2.91e-010       -0.00041554     9.964e-009     
  -1.45           7.375e-010      -0.00047569     1.0469e-008    
  -1.5            1.1094e-009     -0.00053876     9.884e-009     
  -1.55           1.5179e-009     -0.00060387     1.2349e-008    
  -1.6            1.9506e-009     -0.00066901     1.2535e-008    
  -1.65           8.239e-010      -0.00073584     1.0359e-008    
  -1.7            1.1916e-009     -0.00080585     9.878e-009     
  -1.75           3.73e-011       -0.00087383     1.0252e-008    
  -1.8            4.987e-010      -0.00094527     1.0002e-008    
END_DB

BEGIN_DB
 ICCAP_VAR VS         0              
 ICCAP_VAR VB         0.9            
 ICCAP_VAR VD         -0.1           

 #VG              IG              ID              IB             
  0               -8.253e-010     -8.42e-010      -2.6966e-008   
  -0.05           -1.0876e-009    -2.1841e-009    8.618e-009     
  -0.1            1.4572e-009     -1.0609e-009    -2.537e-008    
  -0.15           9.207e-010      2.3354e-009     -8.712e-009    
  -0.2            1.0713e-009     2.2758e-009     1.0557e-008    
  -0.25           1.2339e-009     2.1419e-009     1.188e-008     
  -0.3            -1.571e-010     1.9365e-009     1.0095e-008    
  -0.35           1.28e-011       2.0131e-009     9.823e-009     
  -0.4            2.024e-010      2.1201e-009     9.913e-009     
  -0.45           3.98e-010       2.211e-009      1.04e-008      
  -0.5            5.837e-010      2.2804e-009     1.0256e-008    
  -0.55           7.639e-010      2.2684e-009     1.0176e-008    
  -0.6            -1.3071e-009    1.1043e-009     9.772e-009     
  -0.65           -2.6636e-009    -2.2464e-009    7.451e-009     
  -0.7            -6.87e-011      -7.6024e-009    -1.0317e-008   
  -0.75           2.8455e-009     -2.1792e-008    2.1027e-008    
  -0.8            2.0834e-009     -8.2928e-008    1.1995e-008    
  -0.85           2.1203e-009     -2.789e-007     -2.3394e-008   
  -0.9            9.857e-010      -8.192e-007     1.017e-008     
  -0.95           -2.3191e-009    -2.0301e-006    -1.7898e-008   
  -1              -3.955e-010     -4.4491e-006    -1.0247e-008   
  -1.05           2.1699e-009     -8.4798e-006    -1.7107e-008   
  -1.1            -1.3134e-009    -1.4041e-005    -5.343e-009    
  -1.15           -2.5374e-009    -2.1423e-005    7.559e-009     
  -1.2            -1.9775e-009    -3.0219e-005    1.095e-009     
  -1.25           2.4778e-009     -4.0079e-005    -2.7021e-008   
  -1.3            1.7511e-009     -5.022e-005     -4.155e-009    
  -1.35           1.2937e-009     -6.0534e-005    -8.955e-009    
  -1.4            2.8585e-009     -7.069e-005     -9.455e-009    
  -1.45           2.6493e-009     -8.0378e-005    -2.02e-010     
  -1.5            1.9987e-009     -8.9736e-005    -2.502e-009    
  -1.55           1.4041e-009     -9.8573e-005    -7.979e-009    
  -1.6            2.8369e-009     -0.000106943    -8.876e-009    
  -1.65           -1.3011e-009    -0.00011456     1.216e-008     
  -1.7            2.4346e-009     -0.00012222     -2.6976e-008   
  -1.75           1.7135e-009     -0.00012915     -4.366e-009    
  -1.8            1.2807e-009     -0.00013574     -9.062e-009    
END_DB

BEGIN_DB
 ICCAP_VAR VS         0              
 ICCAP_VAR VB         0.9            
 ICCAP_VAR VD         -1.8           

 #VG              IG              ID              IB             
  0               2.5495e-009     2.3427e-009     -1.9198e-008   
  -0.05           3.298e-010      2.1913e-009     1.03e-008      
  -0.1            5.221e-010      2.2741e-009     1.0729e-008    
  -0.15           7.098e-010      2.3337e-009     1.0273e-008    
  -0.2            8.68e-010       2.3392e-009     9.964e-009     
  -0.25           1.0258e-009     2.2997e-009     1.0153e-008    
  -0.3            1.1825e-009     2.1975e-009     1.1501e-008    
  -0.35           -2.094e-010     1.9016e-009     1.0171e-008    
  -0.4            -5.06e-011      1.9733e-009     9.662e-009     
  -0.45           1.267e-010      2.0139e-009     9.661e-009     
  -0.5            3.195e-010      1.8812e-009     1.0237e-008    
  -0.55           -2.6588e-009    -2.2599e-009    1.0443e-008    
  -0.6            2.3027e-009     -7.2543e-009    -2.2244e-008   
  -0.65           -2.6004e-009    -2.3668e-008    -1.0856e-008   
  -0.7            -2.0967e-009    -8.7775e-008    9.14e-010      
  -0.75           2.4973e-009     -2.9757e-007    -1.2206e-008   
  -0.8            1.4868e-009     -9.1649e-007    1.2028e-008    
  -0.85           -2.4742e-009    -2.3481e-006    -1.9309e-008   
  -0.9            -5.74e-010      -5.481e-006     -1.0262e-008   
  -0.95           2.1618e-009     -1.1326e-005    -1.3288e-008   
  -1              1.028e-009      -2.1062e-005    1.0558e-008    
  -1.05           1.4262e-009     -3.5818e-005    1.0659e-008    
  -1.1            2.799e-010      -5.497e-005     9.785e-009     
  -1.15           7.308e-010      -8.062e-005     1.09e-008      
  -1.2            1.1037e-009     -0.000112113    1.0157e-008    
  -1.25           2.7582e-009     -0.0001479      1.0634e-008    
  -1.3            8.223e-010      -0.00018902     1.068e-008     
  -1.35           1.1907e-009     -0.00023533     1.0048e-008    
  -1.4            3.44e-011       -0.00028352     1.0233e-008    
  -1.45           4.928e-010      -0.00033663     9.996e-009     
  -1.5            9.034e-010      -0.00039335     1.0588e-008    
  -1.55           1.2893e-009     -0.00045296     1.0624e-008    
  -1.6            1.7142e-009     -0.00051422     1.2748e-008    
  -1.65           5.98e-010       -0.00057542     1.0322e-008    
  -1.7            9.892e-010      -0.00064124     1.0427e-008    
  -1.75           -1.831e-010     -0.00070684     1.1542e-008    
  -1.8            2.412e-010      -0.00077431     9.764e-009     
END_DB

BEGIN_DB
 ICCAP_VAR VS         0              
 ICCAP_VAR VB         1.8            
 ICCAP_VAR VD         -0.1           

 #VG              IG              ID              IB             
  0               1.1416e-009     1.0321e-009     8.343e-009     
  -0.05           6.519e-010      2.3143e-009     8.5e-011       
  -0.1            8.212e-010      2.3453e-009     1.0041e-008    
  -0.15           9.739e-010      2.3235e-009     9.952e-009     
  -0.2            1.1305e-009     2.2366e-009     1.1165e-008    
  -0.25           1.296e-009      2.0864e-009     1.1188e-008    
  -0.3            -1.4263e-009    1.8372e-009     1.2608e-008    
  -0.35           -1.8367e-009    -1.3042e-009    8.501e-009     
  -0.4            1.7177e-009     -1.6425e-009    -1.4139e-008   
  -0.45           7.497e-010      2.3359e-009     -9.05e-009     
  -0.5            9.055e-010      2.3397e-009     1.0083e-008    
  -0.55           1.0642e-009     2.2777e-009     9.956e-009     
  -0.6            1.2186e-009     2.1454e-009     1.0856e-008    
  -0.65           -1.686e-010     1.8705e-009     1.01e-008      
  -0.7            -1.5232e-009    6.222e-010      2.5171e-008    
  -0.75           -2.5771e-009    -2.4292e-009    7.542e-009     
  -0.8            1.751e-009      -7.8858e-009    -1.4437e-008   
  -0.85           -2.6511e-009    -2.7483e-008    -1.8339e-008   
  -0.9            1.65e-010       -1.06992e-007   -1.259e-008    
  -0.95           -2.5653e-009    -3.487e-007     1.0251e-008    
  -1              1.4497e-009     -1.03814e-006   -1.4954e-008   
  -1.05           2.7649e-009     -2.5179e-006    2.4428e-008    
  -1.1            8.33e-010       -5.3543e-006    1.043e-008     
  -1.15           1.204e-009      -9.9884e-006    1.0013e-008    
  -1.2            -2.3499e-009    -1.6173e-005    1.1484e-008    
  -1.25           2.153e-010      -2.4295e-005    -1.3636e-008   
  -1.3            1.4368e-009     -3.3445e-005    -2.2027e-008   
  -1.35           2.8365e-009     -4.3327e-005    -8.683e-009    
  -1.4            2.0578e-009     -5.3495e-005    1.3007e-008    
  -1.45           9.263e-010      -6.3639e-005    1.0643e-008    
  -1.5            1.3176e-009     -7.3668e-005    1.008e-008     
  -1.55           1.7414e-009     -8.3076e-005    1.2737e-008    
  -1.6            6.293e-010      -9.1835e-005    1.0363e-008    
  -1.65           1.0173e-009     -0.000100445    1.0408e-008    
  -1.7            1.4171e-009     -0.000108514    1.0458e-008    
  -1.75           2.7413e-009     -0.00011587     1.1053e-008    
  -1.8            1.4573e-009     -0.00012317     1.0598e-008    
END_DB

BEGIN_DB
 ICCAP_VAR VS         0              
 ICCAP_VAR VB         1.8            
 ICCAP_VAR VD         -1.8           

 #VG              IG              ID              IB             
  0               -1.2284e-009    -1.0996e-009    -1.3295e-008   
  -0.05           -1.863e-009     -1.2664e-009    7.1e-010       
  -0.1            1.6198e-009     -1.6653e-009    -1.3128e-008   
  -0.15           8.065e-010      2.339e-009      -8.904e-009    
  -0.2            9.654e-010      2.3198e-009     9.873e-009     
  -0.25           1.1221e-009     2.2408e-009     1.0182e-008    
  -0.3            1.2929e-009     2.0963e-009     1.1126e-008    
  -0.35           -1.4224e-009    1.8372e-009     1.2653e-008    
  -0.4            -1.8378e-009    -1.3009e-009    8.522e-009     
  -0.45           1.7006e-009     -1.6497e-009    -1.4019e-008   
  -0.5            7.534e-010      2.2971e-009     -8.965e-009    
  -0.55           -1.3042e-009    1.2148e-009     9.918e-009     
  -0.6            -2.6647e-009    -1.8393e-009    7.458e-009     
  -0.65           -7.74e-011      -6.1767e-009    -1.0093e-008   
  -0.7            2.757e-009      -1.7075e-008    1.6329e-008    
  -0.75           8.219e-010      -7.2384e-008    1.0882e-008    
  -0.8            1.6802e-009     -2.7221e-007    -2.5819e-008   
  -0.85           5.68e-010       -8.4253e-007    1.0088e-008    
  -0.9            -1.3174e-009    -2.2822e-006    -1.0707e-008   
  -0.95           -2.5887e-009    -5.4467e-006    7.96e-009      
  -1              -1.1573e-009    -1.1454e-005    2.452e-008     
  -1.05           1.233e-009      -2.1938e-005    -2.5876e-008   
  -1.1            2.8403e-009     -3.7294e-005    -1.0016e-008   
  -1.15           1.2689e-009     -5.8339e-005    1.002e-008     
  -1.2            1.6993e-009     -8.5269e-005    1.2534e-008    
  -1.25           2.3963e-009     -0.00011708     1.3001e-008    
  -1.3            1.677e-009      -0.00015505     -4.524e-009    
  -1.35           1.2608e-009     -0.00019812     -8.858e-009    
  -1.4            2.8563e-009     -0.00024555     -9.304e-009    
  -1.45           2.5878e-009     -0.00029638     -2.44e-010     
  -1.5            1.9022e-009     -0.00035127     -2.911e-009    
  -1.55           1.3455e-009     -0.00040915     -8.7e-009      
  -1.6            2.8543e-009     -0.00046982     -8.906e-009    
  -1.65           2.7272e-009     -0.00053216     1.92e-010      
  -1.7            1.4723e-009     -0.00059857     1.1923e-008    
  -1.75           3.387e-010      -0.00066285     9.606e-009     
  -1.8            7.825e-010      -0.00073188     1.0525e-008    
END_DB

