! VERSION = 6.00
BEGIN_HEADER
 ICCAP_INPUTS
  VG         V  B GROUND SMU4 0.001 LIN        1    0          -1.8       37   -0.05     
  VS         V  E GROUND SMU2 0.1 CON        0
  VB         V  C GROUND SMU3 0.1 LIN        3    0          1.8        3    0.9       
  VD         V  S GROUND SMU1 0.1 LIN        2    -0.1       -1.8       2    -1.7      
 ICCAP_OUTPUTS
  IG         I  B GROUND SMU4 B
  ID         I  S GROUND SMU1 B
  IB         I  C GROUND SMU3 B
END_HEADER

BEGIN_DB
 ICCAP_VAR VS         0              
 ICCAP_VAR VB         0              
 ICCAP_VAR VD         -0.1           

 #VG              IG              ID              IB             
  0               -1.1909e-009    -1.0381e-009    -1.9341e-008   
  -0.05           -3.842e-010     -2.1536e-009    -1.0652e-008   
  -0.1            2.5977e-009     -4.602e-010     -1.6775e-008   
  -0.15           1.1042e-009     2.2603e-009     -2.887e-009    
  -0.2            1.2534e-009     2.1342e-009     1.2329e-008    
  -0.25           -1.598e-010     1.9331e-009     1.0108e-008    
  -0.3            -1.5457e-009    8.979e-010      2.4842e-008    
  -0.35           -1.7326e-009    -1.4608e-009    7.218e-009     
  -0.4            -3.617e-010     -2.1475e-009    -1.0587e-008   
  -0.45           -5.314e-010     -2.2029e-009    -1.0526e-008   
  -0.5            2.4217e-009     -1.4796e-009    -2.4061e-008   
  -0.55           2.898e-010      1.9993e-009     -4.582e-009    
  -0.6            -1.4134e-009    3.771e-010      1.024e-008     
  -0.65           -1.3559e-009    -2.7719e-009    8.521e-009     
  -0.7            -1.3253e-009    -8.854e-009     8.752e-009     
  -0.75           2.4476e-009     -2.673e-008     1.0049e-008    
  -0.8            1.7394e-009     -6.9468e-008    -4.341e-009    
  -0.85           -1.2478e-009    -1.6067e-007    1.9102e-008    
  -0.9            1.2175e-009     -3.2204e-007    -2.7058e-008   
  -0.95           2.8316e-009     -5.6236e-007    -1.0641e-008   
  -1              1.2748e-009     -8.834e-007     1.0427e-008    
  -1.05           -2.7066e-009    -1.2707e-006    -2.5733e-008   
  -1.1            2.5035e-009     -1.7298e-006    -2.7292e-008   
  -1.15           1.8101e-009     -2.2251e-006    -3.655e-009    
  -1.2            1.3218e-009     -2.7578e-006    -9.206e-009    
  -1.25           2.8493e-009     -3.3103e-006    -9.245e-009    
  -1.3            2.75e-009       -3.8687e-006    4.13e-010      
  -1.35           1.4159e-009     -4.4458e-006    1.1588e-008    
  -1.4            2.512e-010      -4.9871e-006    9.727e-009     
  -1.45           6.684e-010      -5.5434e-006    1.0461e-008    
  -1.5            1.0319e-009     -6.0916e-006    1.0202e-008    
  -1.55           -1.496e-010     -6.6118e-006    1.1155e-008    
  -1.6            -1.3894e-009    -7.1192e-006    2.494e-008     
  -1.65           -1.3049e-009    -7.6192e-006    8.54e-009      
  -1.7            -2.5589e-009    -8.0988e-006    7.713e-009     
  -1.75           -2.0469e-009    -8.5704e-006    5.66e-010      
  -1.8            1.2182e-009     -9.0266e-006    -2.7018e-008   
END_DB

BEGIN_DB
 ICCAP_VAR VS         0              
 ICCAP_VAR VB         0              
 ICCAP_VAR VD         -1.8           

 #VG              IG              ID              IB             
  0               1.3098e-009     1.4611e-009     -1.0486e-008   
  -0.05           6.27e-011       2.0397e-009     9.639e-009     
  -0.1            2.228e-010      2.13e-009       9.905e-009     
  -0.15           3.833e-010      2.2085e-009     1.0347e-008    
  -0.2            5.522e-010      2.2781e-009     1.0199e-008    
  -0.25           7.081e-010      2.3208e-009     1.0479e-008    
  -0.3            8.523e-010      2.331e-009      1.0084e-008    
  -0.35           9.889e-010      2.3091e-009     9.89e-009      
  -0.4            1.1274e-009     2.2335e-009     1.0353e-008    
  -0.45           1.2768e-009     2.1028e-009     1.1126e-008    
  -0.5            -1.357e-010     1.8989e-009     1.0022e-008    
  -0.55           1.72e-011       1.8339e-009     9.691e-009     
  -0.6            1.657e-010      1.3626e-009     9.756e-009     
  -0.65           3.365e-010      -6.561e-010     1.0273e-008    
  -0.7            -1.3672e-009    -1.0849e-008    -1.0969e-008   
  -0.75           -1.2979e-009    -3.1438e-008    8.69e-009      
  -0.8            -2.5072e-009    -8.37e-008      7.654e-009     
  -0.85           2.19e-010       -1.9599e-007    -9.797e-009    
  -0.9            6.383e-010      -4.1392e-007    1.0467e-008    
  -0.95           1.004e-009      -7.8438e-007    1.0345e-008    
  -1              -2.2013e-009    -1.3245e-006    -1.5482e-008   
  -1.05           1.2493e-009     -2.1131e-006    -2.5942e-008   
  -1.1            2.8549e-009     -3.1252e-006    -9.857e-009    
  -1.15           2.6117e-009     -4.3774e-006    -2.45e-010     
  -1.2            1.972e-009      -5.9173e-006    -2.602e-009    
  -1.25           1.4015e-009     -7.7198e-006    -8.243e-009    
  -1.3            2.8257e-009     -9.8069e-006    -9.044e-009    
  -1.35           1.3451e-009     -1.2166e-005    -2.7027e-008   
  -1.4            1.7525e-009     -1.477e-005     1.2845e-008    
  -1.45           5.968e-010      -1.7542e-005    1.033e-008     
  -1.5            9.702e-010      -2.0665e-005    1.0432e-008    
  -1.55           1.3456e-009     -2.4032e-005    1.034e-008     
  -1.6            1.7518e-009     -2.7562e-005    1.2953e-008    
  -1.65           6.009e-010      -3.1182e-005    1.0269e-008    
  -1.7            9.729e-010      -3.5149e-005    1.0186e-008    
  -1.75           1.353e-009      -3.9319e-005    1.1133e-008    
  -1.8            1.7582e-009     -4.3578e-005    1.2902e-008    
END_DB

BEGIN_DB
 ICCAP_VAR VS         0              
 ICCAP_VAR VB         0.9            
 ICCAP_VAR VD         -0.1           

 #VG              IG              ID              IB             
  0               -1.3634e-009    -1.3453e-009    1.0236e-008    
  -0.05           -1.403e-010     -2.0544e-009    -1.0062e-008   
  -0.1            -3.101e-010     -2.1385e-009    -1.0494e-008   
  -0.15           -4.952e-010     -2.1902e-009    -1.0551e-008   
  -0.2            2.4699e-009     -1.4171e-009    -2.4749e-008   
  -0.25           1.2023e-009     2.1876e-009     -4.055e-009    
  -0.3            -1.984e-010     1.9088e-009     1.0203e-008    
  -0.35           -1.5937e-009    8.659e-010      2.3968e-008    
  -0.4            -1.7027e-009    -1.5127e-009    6.782e-009     
  -0.45           2.1935e-009     -1.5239e-009    -2.0303e-008   
  -0.5            1.384e-009      2.0264e-009     -6.854e-009    
  -0.55           -3.34e-011      1.9926e-009     9.74e-009      
  -0.6            1.164e-010      2.0775e-009     9.639e-009     
  -0.65           2.828e-010      2.1647e-009     1.0078e-008    
  -0.7            4.458e-010      2.2289e-009     1.0447e-008    
  -0.75           6.084e-010      2.2422e-009     1.0547e-008    
  -0.8            -1.3288e-009    9.941e-010      1.037e-008     
  -0.85           -2.7103e-009    -2.3401e-009    8.544e-009     
  -0.9            2.4895e-009     -6.6518e-009    -1.7987e-008   
  -0.95           -1.5988e-009    -2.2903e-008    -1.468e-008    
  -1              -1.3587e-009    -6.6401e-008    6.78e-009      
  -1.05           1.7635e-009     -1.645e-007     -2.7286e-008   
  -1.1            6.112e-010      -3.4313e-007    1.0226e-008    
  -1.15           9.818e-010      -6.2299e-007    1.0151e-008    
  -1.2            1.3634e-009     -9.9457e-007    1.1129e-008    
  -1.25           -2.0064e-009    -1.4225e-006    -1.3266e-008   
  -1.3            1.2065e-009     -1.9251e-006    -2.7329e-008   
  -1.35           2.818e-009      -2.4552e-006    -1.0968e-008   
  -1.4            -1.5531e-009    -2.9841e-006    2.0022e-008    
  -1.45           -1.3451e-009    -3.5378e-006    7.336e-009     
  -1.5            -1.2915e-009    -4.0858e-006    8.866e-009     
  -1.55           -2.4094e-009    -4.6225e-006    8.246e-009     
  -1.6            -7.139e-010     -5.162e-006     -1.078e-008    
  -1.65           1.7228e-009     -5.6821e-006    -1.9881e-008   
  -1.7            1.2826e-009     -6.1814e-006    -9.031e-009    
  -1.75           2.8554e-009     -6.6666e-006    -9.533e-009    
  -1.8            2.6867e-009     -7.131e-006     8e-011         
END_DB

BEGIN_DB
 ICCAP_VAR VS         0              
 ICCAP_VAR VB         0.9            
 ICCAP_VAR VD         -1.8           

 #VG              IG              ID              IB             
  0               2.5721e-009     2.3239e-009     -1.4985e-008   
  -0.05           2.871e-010      2.1626e-009     1.0151e-008    
  -0.1            4.595e-010      2.2405e-009     1.0514e-008    
  -0.15           6.193e-010      2.3051e-009     1.0606e-008    
  -0.2            7.661e-010      2.3305e-009     1.0336e-008    
  -0.25           9.083e-010      2.3287e-009     9.893e-009     
  -0.3            1.0452e-009     2.2846e-009     1.0482e-008    
  -0.35           1.1836e-009     2.19e-009       1.1691e-008    
  -0.4            -2.171e-010     1.9023e-009     1.0269e-008    
  -0.45           -1.6127e-009    8.482e-010      2.3882e-008    
  -0.5            -1.6867e-009    -1.5361e-009    6.672e-009     
  -0.55           -2.925e-010     -2.1271e-009    -1.0331e-008   
  -0.6            -4.742e-010     -2.1858e-009    -1.0597e-008   
  -0.65           2.4886e-009     -5.392e-010     -1.7588e-008   
  -0.7            1.1849e-009     2.1872e-009     -3.822e-009    
  -0.75           -2.218e-010     1.8316e-009     1.0265e-008    
  -0.8            -1.6121e-009    5.179e-010      2.3715e-008    
  -0.85           -1.46e-009      -2.0103e-009    6.476e-009     
  -0.9            -1.3857e-009    -7.1741e-009    7.992e-009     
  -0.95           2.4429e-009     -2.5856e-008    1.0063e-008    
  -1              1.7402e-009     -7.8873e-008    -4.132e-009    
  -1.05           -6.876e-010     -2.0732e-007    8.077e-009     
  -1.1            1.7513e-009     -4.6055e-007    -2.028e-008    
  -1.15           1.2959e-009     -8.8438e-007    -9.186e-009    
  -1.2            2.5945e-009     -1.5207e-006    1.9883e-008    
  -1.25           5.609e-010      -2.4056e-006    1.0105e-008    
  -1.3            9.364e-010      -3.5783e-006    1.0207e-008    
  -1.35           1.3072e-009     -5.0391e-006    1.0799e-008    
  -1.4            1.7192e-009     -6.759e-006     1.2984e-008    
  -1.45           5.631e-010      -8.687e-006     1.0174e-008    
  -1.5            9.448e-010      -1.09663e-005   1.02e-008      
  -1.55           -1.9313e-009    -1.3442e-005    1.3832e-008    
  -1.6            1.235e-009      -1.6245e-005    -2.6477e-008   
  -1.65           2.8483e-009     -1.9245e-005    -1.0155e-008   
  -1.7            1.2141e-009     -2.2454e-005    9.953e-009     
  -1.75           4.43e-011       -2.5768e-005    1.0128e-008    
  -1.8            4.742e-010      -2.9384e-005    9.868e-009     
END_DB

BEGIN_DB
 ICCAP_VAR VS         0              
 ICCAP_VAR VB         1.8            
 ICCAP_VAR VD         -0.1           

 #VG              IG              ID              IB             
  0               2.4926e-009     2.3074e-009     -1.4134e-008   
  -0.05           3.454e-010      2.1955e-009     1.0349e-008    
  -0.1            5.214e-010      2.2693e-009     1.0301e-008    
  -0.15           6.849e-010      2.3176e-009     1.0349e-008    
  -0.2            8.267e-010      2.3293e-009     1.001e-008     
  -0.25           9.64e-010       2.3086e-009     9.823e-009     
  -0.3            -1.513e-009     1.769e-009      1.1887e-008    
  -0.35           -1.7534e-009    -1.4209e-009    7.582e-009     
  -0.4            -4.054e-010     -2.1759e-009    -1.0771e-008   
  -0.45           1.217e-009      -1.3655e-009    -2.5492e-008   
  -0.5            2.8489e-009     2.33e-011       -1.0923e-008   
  -0.55           6.144e-010      2.3003e-009     1.7e-010       
  -0.6            7.638e-010      2.3256e-009     1.0511e-008    
  -0.65           9.05e-010       2.3209e-009     9.84e-009      
  -0.7            1.0445e-009     2.2801e-009     9.959e-009     
  -0.75           1.1855e-009     2.1805e-009     1.168e-008     
  -0.8            -2.149e-010     1.911e-009      1.0147e-008    
  -0.85           -6.74e-011      1.9772e-009     9.71e-009      
  -0.9            8.36e-011       2.0125e-009     9.664e-009     
  -0.95           2.547e-010      1.8812e-009     1.0196e-008    
  -1              -2.6829e-009    -2.3246e-009    1.0387e-008    
  -1.05           2.2519e-009     -7.2328e-009    -1.9409e-008   
  -1.1            -2.6165e-009    -2.5368e-008    -2.5794e-008   
  -1.15           -2.1841e-009    -7.5475e-008    3.51e-010      
  -1.2            9.575e-010      -1.8401e-007    -1.8031e-008   
  -1.25           1.3306e-009     -3.8332e-007    1.0981e-008    
  -1.3            1.7466e-009     -6.7838e-007    1.2924e-008    
  -1.35           6.013e-010      -1.05529e-006   1.0421e-008    
  -1.4            -2.7125e-009    -1.5079e-006    -2.5802e-008   
  -1.45           2.4443e-009     -2.0116e-006    -2.7251e-008   
  -1.5            1.7463e-009     -2.5304e-006    -4.382e-009    
  -1.55           1.2913e-009     -3.0621e-006    -9.1e-009      
  -1.6            2.852e-009      -3.5905e-006    -9.32e-009     
  -1.65           2.6959e-009     -4.1088e-006    1.95e-010      
  -1.7            1.4787e-009     -4.6309e-006    1.0704e-008    
  -1.75           3.222e-010      -5.1123e-006    9.753e-009     
  -1.8            7.386e-010      -5.5997e-006    1.0716e-008    
END_DB

BEGIN_DB
 ICCAP_VAR VS         0              
 ICCAP_VAR VB         1.8            
 ICCAP_VAR VD         -1.8           

 #VG              IG              ID              IB             
  0               -1.156e-009     -1.0215e-009    -1.8495e-008   
  -0.05           1.6693e-009     -1.6385e-009    -1.3417e-008   
  -0.1            7.487e-010      2.3228e-009     -9.035e-009    
  -0.15           8.927e-010      2.3242e-009     9.9e-009       
  -0.2            1.0308e-009     2.2901e-009     1.0221e-008    
  -0.25           1.1681e-009     2.2006e-009     1.1696e-008    
  -0.3            -2.302e-010     1.8918e-009     1.0288e-008    
  -0.35           -8.52e-011      1.9701e-009     9.86e-009      
  -0.4            7.13e-011       2.044e-009      9.696e-009     
  -0.45           2.38e-010       2.1327e-009     1.001e-008     
  -0.5            4.091e-010      2.2189e-009     1.0338e-008    
  -0.55           5.799e-010      2.2834e-009     1.0369e-008    
  -0.6            7.309e-010      2.3258e-009     1.019e-008     
  -0.65           8.787e-010      2.326e-009      9.844e-009     
  -0.7            1.0128e-009     2.2967e-009     1.0197e-008    
  -0.75           1.1559e-009     2.2114e-009     1.144e-008     
  -0.8            1.3139e-009     2.0691e-009     1.2536e-008    
  -0.85           -1.4285e-009    1.8235e-009     1.2875e-008    
  -0.9            -1.8298e-009    -1.3701e-009    8.52e-009      
  -0.95           1.8e-009        -1.9375e-009    -1.4923e-008   
  -1              1.5435e-009     -1.2477e-009    -9.301e-009    
  -1.05           1.3674e-009     -7.4714e-009    -8.968e-009    
  -1.1            -2.4327e-009    -3.0257e-008    -2.7235e-008   
  -1.15           -6.808e-010     -9.3969e-008    -1.0731e-008   
  -1.2            -1.3651e-009    -2.3473e-007    1.3062e-008    
  -1.25           -1.2994e-009    -5.1004e-007    8.818e-009     
  -1.3            -2.4821e-009    -9.7278e-007    7.676e-009     
  -1.35           -1.7063e-009    -1.6637e-006    -9.594e-009    
  -1.4            -6.049e-010     -2.6343e-006    -1.049e-008    
  -1.45           1.8813e-009     -3.871e-006     -1.8832e-008   
  -1.5            1.3409e-009     -5.3614e-006    -9.087e-009    
  -1.55           2.8393e-009     -7.13e-006      -9.227e-009    
  -1.6            2.7568e-009     -9.1483e-006    3.55e-010      
  -1.65           -2.3646e-009    -1.1414e-005    1.1476e-008    
  -1.7            1.4054e-009     -1.3996e-005    -1.4198e-008   
  -1.75           2.8244e-009     -1.6756e-005    -8.875e-009    
  -1.8            2.0462e-009     -1.9731e-005    1.3062e-008    
END_DB

