! VERSION = 6.00
BEGIN_HEADER
 ICCAP_INPUTS
  VG         V  B GROUND SMU4 0.001 LIN        1    0          -1.8       37   -0.05     
  VS         V  E GROUND SMU2 0.1 CON        0
  VB         V  C GROUND SMU3 0.1 LIN        3    0          1.8        3    0.9       
  VD         V  S GROUND SMU1 0.1 LIN        2    -0.1       -1.8       2    -1.7      
 ICCAP_OUTPUTS
  IG         I  B GROUND SMU4 B
  ID         I  S GROUND SMU1 B
  IB         I  C GROUND SMU3 B
END_HEADER

BEGIN_DB
 ICCAP_VAR VS         0              
 ICCAP_VAR VB         0              
 ICCAP_VAR VD         -0.1           

 #VG              IG              ID              IB             
  0               1.1202e-009     1.0106e-009     7.775e-009     
  -0.05           9.709e-010      2.3115e-009     9.871e-009     
  -0.1            -1.4995e-009    1.7693e-009     1.1899e-008    
  -0.15           -1.763e-009     -1.4048e-009    7.741e-009     
  -0.2            -4.388e-010     -2.2022e-009    -1.0785e-008   
  -0.25           2.4993e-009     -6.144e-010     -1.7474e-008   
  -0.3            2.237e-010      1.8202e-009     -3.824e-009    
  -0.35           -1.431e-009     -9.24e-011      1.0513e-008    
  -0.4            -1.3656e-009    -4.2147e-009    8.467e-009     
  -0.45           -1.5493e-009    -1.5064e-008    -1.3967e-008   
  -0.5            -1.3492e-009    -4.8225e-008    7.011e-009     
  -0.55           7.768e-010      -1.4838e-007    -1.6116e-008   
  -0.6            1.1316e-009     -4.305e-007     9.912e-009     
  -0.65           1.5428e-009     -1.08188e-006   1.1239e-008    
  -0.7            -2.0419e-009    -2.3352e-006    -1.38e-008     
  -0.75           1.22e-009       -4.6907e-006    -2.7053e-008   
  -0.8            2.8214e-009     -8.294e-006     -1.096e-008    
  -0.85           -1.5093e-009    -1.3129e-005    -2.2e-010      
  -0.9            -1.3384e-009    -1.9517e-005    7.797e-009     
  -0.95           -1.2851e-009    -2.7118e-005    8.707e-009     
  -1              -2.3011e-009    -3.5742e-005    8.914e-009     
  -1.05           2.012e-010      -4.5459e-005    -1.3303e-008   
  -1.1            1.4357e-009     -5.5333e-005    -2.228e-008    
  -1.15           2.8189e-009     -6.5498e-005    -8.873e-009    
  -1.2            2.037e-009      -7.5716e-005    1.2916e-008    
  -1.25           8.91e-010       -8.5834e-005    1.0747e-008    
  -1.3            1.2544e-009     -9.5932e-005    9.935e-009     
  -1.35           9.63e-011       -0.000105224    1.003e-008     
  -1.4            1.4094e-009     -0.00011478     1.011e-008     
  -1.45           2.8295e-009     -0.00012363     -8.979e-009    
  -1.5            2.0589e-009     -0.00013207     1.3015e-008    
  -1.55           9.135e-010      -0.00014005     1.0623e-008    
  -1.6            1.2821e-009     -0.00014787     1.0049e-008    
  -1.65           1.7017e-009     -0.00015514     1.2425e-008    
  -1.7            5.738e-010      -0.00016186     1.0151e-008    
  -1.75           9.568e-010      -0.00016853     1.0485e-008    
  -1.8            1.3257e-009     -0.00017488     1.0214e-008    
END_DB

BEGIN_DB
 ICCAP_VAR VS         0              
 ICCAP_VAR VB         0              
 ICCAP_VAR VD         -1.8           

 #VG              IG              ID              IB             
  0               -9.908e-010     3.722e-010      1.0249e-008    
  -0.05           -1.7314e-009    -1.4584e-009    7.257e-009     
  -0.1            -3.861e-010     -2.1746e-009    -1.0526e-008   
  -0.15           2.5643e-009     -5.372e-010     -1.664e-008    
  -0.2            1.709e-010      1.8933e-009     -3.122e-009    
  -0.25           3.574e-010      1.509e-009      1.0261e-008    
  -0.3            -2.5744e-009    -2.1809e-009    1.027e-008     
  -0.35           -2.4063e-009    -9.1445e-009    6.07e-010      
  -0.4            -1.2851e-009    -2.8989e-008    -1.0406e-008   
  -0.45           -2.3272e-009    -9.0415e-008    8.603e-009     
  -0.5            2.1873e-009     -2.6232e-007    -2.0799e-008   
  -0.55           1.0372e-009     -7.0742e-007    1.0269e-008    
  -0.6            -1.2878e-009    -1.6745e-006    -1.0667e-008   
  -0.65           -2.3582e-009    -3.6801e-006    8.284e-009     
  -0.7            1.4073e-009     -7.5615e-006    -1.4287e-008   
  -0.75           -3.154e-010     -1.3844e-005    8.175e-009     
  -0.8            2.298e-009      -2.3622e-005    -2.6186e-008   
  -0.85           1.6056e-009     -3.7495e-005    -5.444e-009    
  -0.9            2.744e-009      -5.6152e-005    -8.842e-009    
  -0.95           8.289e-010      -7.959e-005     1.0707e-008    
  -1              1.1852e-009     -0.000108904    9.98e-009      
  -1.05           2.714e-009      -0.00014233     1.0801e-008    
  -1.1            1.8067e-009     -0.00018205     1.3128e-008    
  -1.15           6.83e-010       -0.00022479     1.0416e-008    
  -1.2            1.0509e-009     -0.00027371     1.007e-008     
  -1.25           1.4368e-009     -0.00032662     1.2014e-008    
  -1.3            3.01e-010       -0.00038032     9.975e-009     
  -1.35           7.284e-010      -0.00044002     1.0398e-008    
  -1.4            1.0877e-009     -0.00050286     1.0053e-008    
  -1.45           1.4869e-009     -0.00056843     1.2266e-008    
  -1.5            3.542e-010      -0.00063267     9.879e-009     
  -1.55           7.753e-010      -0.00070221     1.0688e-008    
  -1.6            1.1257e-009     -0.00077374     9.989e-009     
  -1.65           1.5311e-009     -0.00084671     1.126e-008     
  -1.7            1.9508e-009     -0.00091928     1.2901e-008    
  -1.75           8.161e-010      -0.00099279     1.0316e-008    
  -1.8            1.1738e-009     -0.00106945     9.82e-009      
END_DB

BEGIN_DB
 ICCAP_VAR VS         0              
 ICCAP_VAR VB         0.9            
 ICCAP_VAR VD         -0.1           

 #VG              IG              ID              IB             
  0               -1.237e-009     -1.0771e-009    -1.4907e-008   
  -0.05           -9.53e-011      -2.0221e-009    -1.0257e-008   
  -0.1            -2.87e-010      -2.1209e-009    -1.0337e-008   
  -0.15           -4.745e-010     -2.1871e-009    -1.0648e-008   
  -0.2            2.4616e-009     -5.524e-010     -1.7434e-008   
  -0.25           1.195e-009      2.1749e-009     -3.94e-009     
  -0.3            -1.982e-010     1.9031e-009     1.0352e-008    
  -0.35           -4.45e-011      1.977e-009      9.994e-009     
  -0.4            1.17e-010       2.0523e-009     9.735e-009     
  -0.45           2.967e-010      2.1205e-009     1.0115e-008    
  -0.5            4.824e-010      2.0761e-009     1.0291e-008    
  -0.55           -1.3578e-009    4.334e-010      1.0194e-008    
  -0.6            -1.3221e-009    -3.38e-009      8.934e-009     
  -0.65           -2.5288e-009    -1.5002e-008    -2.7057e-008   
  -0.7            -2.0008e-009    -5.6197e-008    9.02e-010      
  -0.75           9.617e-010      -1.9863e-007    -1.7417e-008   
  -0.8            1.339e-009      -6.2036e-007    1.1118e-008    
  -0.85           -1.3294e-009    -1.5643e-006    -1.0552e-008   
  -0.9            -1.2776e-009    -3.5027e-006    8.567e-009     
  -0.95           -2.234e-009     -6.8454e-006    9.763e-009     
  -1              1.5038e-009     -1.2058e-005    -2.6701e-008   
  -1.05           3.7e-010        -1.8498e-005    9.777e-009     
  -1.1            7.864e-010      -2.6674e-005    1.03e-008      
  -1.15           1.1425e-009     -3.6034e-005    9.885e-009     
  -1.2            1.5537e-009     -4.6047e-005    1.252e-008     
  -1.25           1.9661e-009     -5.6165e-005    1.2372e-008    
  -1.3            8.26e-010       -6.6443e-005    1.0312e-008    
  -1.35           1.1834e-009     -7.682e-005     9.923e-009     
  -1.4            1.96e-011       -8.6447e-005    1.0275e-008    
  -1.45           4.575e-010      -9.6056e-005    9.857e-009     
  -1.5            8.609e-010      -0.000105318    1.0654e-008    
  -1.55           1.2224e-009     -0.000114147    9.877e-009     
  -1.6            2.6632e-009     -0.00012232     1.0653e-008    
  -1.65           1.725e-009      -0.00013031     1.2974e-008    
  -1.7            5.863e-010      -0.00013754     1.0242e-008    
  -1.75           9.674e-010      -0.00014474     1.0249e-008    
  -1.8            1.346e-009      -0.00015156     1.118e-008     
END_DB

BEGIN_DB
 ICCAP_VAR VS         0              
 ICCAP_VAR VB         0.9            
 ICCAP_VAR VD         -1.8           

 #VG              IG              ID              IB             
  0               4.195e-010      5.51e-010       -1.0033e-008   
  -0.05           2.8454e-009     -8.43e-011      -1.336e-008    
  -0.1            7.793e-010      2.3274e-009     -3.3e-010      
  -0.15           9.173e-010      2.3233e-009     9.987e-009     
  -0.2            1.0602e-009     2.2667e-009     1.0608e-008    
  -0.25           1.2107e-009     2.1608e-009     1.1889e-008    
  -0.3            -1.868e-010     1.9073e-009     1.0038e-008    
  -0.35           -1.5614e-009    8.642e-010      2.4357e-008    
  -0.4            -1.7267e-009    -1.5478e-009    7.137e-009     
  -0.45           -3.681e-010     -2.4986e-009    -1.0561e-008   
  -0.5            2.5861e-009     -2.0259e-009    -1.7065e-008   
  -0.55           2.3383e-009     -6.0074e-009    -3.001e-009    
  -0.6            -1.2803e-009    -2.7734e-008    -1.0731e-008   
  -0.65           -2.2466e-009    -1.03916e-007   9.703e-009     
  -0.7            2.2353e-009     -3.5232e-007    -1.9116e-008   
  -0.75           1.0983e-009     -1.06139e-006   1.015e-008     
  -0.8            -1.9764e-009    -2.6668e-006    -1.3099e-008   
  -0.85           2.5053e-009     -6.1884e-006    -2.7328e-008   
  -0.9            -2.6477e-009    -1.2297e-005    1.0027e-008    
  -0.95           -3.738e-010     -2.2516e-005    -1.015e-008    
  -1              2.2159e-009     -3.7462e-005    -1.685e-008    
  -1.05           1.5246e-009     -5.7557e-005    -6.311e-009    
  -1.1            1.2315e-009     -8.3341e-005    -8.805e-009    
  -1.15           -1.8591e-009    -0.0001139      -1.2377e-008   
  -1.2            2.198e-010      -0.00015145     -1.3373e-008   
  -1.25           1.4513e-009     -0.00019315     -2.1714e-008   
  -1.3            2.8139e-009     -0.00023942     -8.646e-009    
  -1.35           2.0132e-009     -0.00028983     1.3101e-008    
  -1.4            8.612e-010      -0.00034357     1.0458e-008    
  -1.45           1.2246e-009     -0.00040205     1.0184e-008    
  -1.5            6.2e-011        -0.00046065     1.0151e-008    
  -1.55           5.036e-010      -0.00052349     9.981e-009     
  -1.6            8.99e-010       -0.00058955     1.0414e-008    
  -1.65           1.2649e-009     -0.00065793     1.038e-008     
  -1.7            1.01e-010       -0.00072452     1.0054e-008    
  -1.75           5.424e-010      -0.00079527     1.0117e-008    
  -1.8            9.278e-010      -0.00086784     1.0357e-008    
END_DB

BEGIN_DB
 ICCAP_VAR VS         0              
 ICCAP_VAR VB         1.8            
 ICCAP_VAR VD         -0.1           

 #VG              IG              ID              IB             
  0               -8.011e-010     -7.849e-010     -2.6778e-008   
  -0.05           -1.1411e-009    -2.1337e-009    8.829e-009     
  -0.1            1.4046e-009     -1.0909e-009    -2.6024e-008   
  -0.15           9.468e-010      2.3185e-009     -9.056e-009    
  -0.2            1.0885e-009     2.2426e-009     1.0974e-008    
  -0.25           1.2369e-009     2.1202e-009     1.2044e-008    
  -0.3            -1.559e-010     1.9249e-009     1.0202e-008    
  -0.35           1.3e-012        2.001e-009      9.768e-009     
  -0.4            1.707e-010      2.0881e-009     9.784e-009     
  -0.45           3.487e-010      2.1855e-009     1.0281e-008    
  -0.5            5.308e-010      2.265e-009      1.0704e-008    
  -0.55           6.988e-010      2.3011e-009     1.0544e-008    
  -0.6            8.51e-010       2.2328e-009     1.0159e-008    
  -0.65           -1.2936e-009    1.0053e-009     9.849e-009     
  -0.7            -1.2751e-009    -2.0793e-009    7.876e-009     
  -0.75           -1.8882e-009    -1.1545e-008    -1.9888e-008   
  -0.8            -2.6484e-009    -4.5276e-008    -5.352e-009    
  -0.85           -1.464e-010     -1.6775e-007    -9.023e-009    
  -0.9            2.702e-010      -5.4514e-007    9.779e-009     
  -0.95           -1.3304e-009    -1.4775e-006    -1.0589e-008   
  -1              -1.2781e-009    -3.4002e-006    8.55e-009      
  -1.05           -2.2203e-009    -6.7865e-006    9.626e-009     
  -1.1            7.103e-010      -1.1967e-005    -1.8425e-008   
  -1.15           1.0659e-009     -1.8942e-005    1.0143e-008    
  -1.2            1.4649e-009     -2.7398e-005    1.0771e-008    
  -1.25           3.181e-010      -3.6427e-005    9.812e-009     
  -1.3            7.484e-010      -4.6565e-005    1.0642e-008    
  -1.35           1.1019e-009     -5.7002e-005    1.0045e-008    
  -1.4            1.5051e-009     -6.7318e-005    1.1116e-008    
  -1.45           1.9253e-009     -7.7178e-005    1.2989e-008    
  -1.5            7.912e-010      -8.6703e-005    1.0657e-008    
  -1.55           1.1448e-009     -9.603e-005     9.884e-009     
  -1.6            1.5535e-009     -0.000104825    1.1481e-008    
  -1.65           1.9684e-009     -0.000113001    1.2976e-008    
  -1.7            2.6891e-009     -0.00012085     1.1273e-008    
  -1.75           1.4706e-009     -0.00012849     1.0802e-008    
  -1.8            3.361e-010      -0.00013534     9.718e-009     
END_DB

BEGIN_DB
 ICCAP_VAR VS         0              
 ICCAP_VAR VB         1.8            
 ICCAP_VAR VD         -1.8           

 #VG              IG              ID              IB             
  0               -1.0165e-009    -8.974e-010     -2.3798e-008   
  -0.05           -1.6932e-009    -1.54e-009      6.703e-009     
  -0.1            -2.953e-010     -2.1323e-009    -1.0383e-008   
  -0.15           -4.874e-010     -2.1946e-009    -1.0687e-008   
  -0.2            2.4566e-009     -1.4338e-009    -2.4551e-008   
  -0.25           1.2132e-009     2.173e-009      -4.263e-009    
  -0.3            -1.875e-010     1.9103e-009     1.0034e-008    
  -0.35           -1.5591e-009    8.834e-010      2.4503e-008    
  -0.4            -1.7339e-009    -1.4819e-009    7.238e-009     
  -0.45           -3.693e-010     -2.1699e-009    -1.0592e-008   
  -0.5            2.5911e-009     -1.4108e-009    -2.6077e-008   
  -0.55           1.512e-010      1.7733e-009     -3.019e-009    
  -0.6            -1.7122e-009    -2.0913e-009    1.0378e-008    
  -0.65           -2.5923e-009    -7.9536e-009    -4.999e-009    
  -0.7            -1.634e-009     -3.1925e-008    -1.5479e-008   
  -0.75           2.7705e-009     -1.2502e-007    -1.0947e-008   
  -0.8            1.3913e-009     -4.5204e-007    1.0316e-008    
  -0.85           -2.4254e-009    -1.3291e-006    -2.0037e-008   
  -0.9            -6.909e-010     -3.4775e-006    -1.0729e-008   
  -0.95           1.7386e-009     -7.9221e-006    -2.0049e-008   
  -1              -2.6575e-009    -1.5551e-005    1.0272e-008    
  -1.05           1.917e-009      -2.7949e-005    -2.2785e-008   
  -1.1            1.3538e-009     -4.55e-005      -8.828e-009    
  -1.15           2.8411e-009     -6.8727e-005    -9.264e-009    
  -1.2            2.7615e-009     -9.7422e-005    4.41e-010      
  -1.25           2.7831e-009     -0.00013179     1.1788e-008    
  -1.3            1.3681e-009     -0.00017245     1.1209e-008    
  -1.35           1.7815e-009     -0.00021696     1.31e-008      
  -1.4            6.491e-010      -0.00026472     1.0513e-008    
  -1.45           1.0179e-009     -0.00031817     1.024e-008     
  -1.5            1.4126e-009     -0.00037527     1.0538e-008    
  -1.55           2.526e-010      -0.00043207     9.828e-009     
  -1.6            6.926e-010      -0.00049432     1.0653e-008    
  -1.65           1.0534e-009     -0.00055938     1.0266e-008    
  -1.7            1.4486e-009     -0.00062665     1.069e-008     
  -1.75           2.954e-010      -0.00069204     9.674e-009     
  -1.8            7.339e-010      -0.00076223     1.0498e-008    
END_DB

