! VERSION = 6.00
BEGIN_HEADER
 ICCAP_INPUTS
  VG         V  B GROUND SMU4 0.001 LIN        1    0          -1.8       37   -0.05     
  VS         V  E GROUND SMU2 0.1 CON        0
  VB         V  C GROUND SMU3 0.1 LIN        3    0          1.8        3    0.9       
  VD         V  S GROUND SMU1 0.1 LIN        2    -0.1       -1.8       2    -1.7      
 ICCAP_OUTPUTS
  IG         I  B GROUND SMU4 B
  ID         I  S GROUND SMU1 B
  IB         I  C GROUND SMU3 B
END_HEADER

BEGIN_DB
 ICCAP_VAR VS         0              
 ICCAP_VAR VB         0              
 ICCAP_VAR VD         -0.1           

 #VG              IG              ID              IB             
  0               -1.3656e-009    -1.4137e-009    9.919e-009     
  -0.05           2.1975e-009     -1.5488e-009    -2.0526e-008   
  -0.1            1.3783e-009     2.0145e-009     -6.822e-009    
  -0.15           7.2e-012        2.0298e-009     9.714e-009     
  -0.2            -1.4333e-009    1.0234e-009     2.6212e-008    
  -0.25           -1.8779e-009    -1.3112e-009    8.568e-009     
  -0.3            1.719e-009      -1.6562e-009    -1.4501e-008   
  -0.35           7.518e-010      2.3581e-009     -9.159e-009    
  -0.4            9.024e-010      2.3485e-009     9.818e-009     
  -0.45           1.0458e-009     2.2913e-009     1.046e-008     
  -0.5            1.1992e-009     2.1771e-009     1.1646e-008    
  -0.55           -1.574e-010     1.9361e-009     1.0217e-008    
  -0.6            -4.9e-012       2.0155e-009     9.697e-009     
  -0.65           1.679e-010      2.1202e-009     9.688e-009     
  -0.7            3.573e-010      2.217e-009      1.029e-008     
  -0.75           5.385e-010      2.2622e-009     1.0324e-008    
  -0.8            -1.3411e-009    -7.5801e-009    1.0261e-008    
  -0.85           2.4041e-009     -3.6068e-008    -1.4471e-008   
  -0.9            1.7015e-009     1.168e-009      -4.743e-009    
  -0.95           -2.5484e-009    -1.0028e-007    9.917e-009     
  -1              -2.3264e-009    -1.7967e-007    1.226e-009     
  -1.05           2.338e-010      -2.8527e-007    -1.3402e-008   
  -1.1            2.8125e-009     -4.4451e-007    9.964e-009     
  -1.15           -1.9761e-009    -5.4816e-007    1.386e-008     
  -1.2            -1.4544e-009    -5.07e-008      -5.613e-009    
  -1.25           -1.3197e-009    -2.6226e-007    8.393e-009     
  -1.3            -8.653e-010     -6.55e-009      7.995e-009     
  -1.35           1.2433e-009     -1.2749e-006    -2.6628e-008   
  -1.4            2.8469e-009     -1.1177e-006    -1.056e-008    
  -1.45           -2.7288e-009    -8.03e-008      1.0356e-008    
  -1.5            1.9008e-009     -2.1894e-006    -1.8856e-008   
  -1.55           1.3452e-009     -9.579e-007     -9.001e-009    
  -1.6            2.863e-009      -1.8957e-006    -9.344e-009    
  -1.65           2.7244e-009     -5.989e-007     -2.1e-011      
  -1.7            -2.292e-009     -9.383e-007     1.0562e-008    
  -1.75           1.772e-009      -4.1847e-006    -1.9285e-008   
  -1.8            1.3067e-009     -3.1909e-006    -9.161e-009    
END_DB

BEGIN_DB
 ICCAP_VAR VS         0              
 ICCAP_VAR VB         0              
 ICCAP_VAR VD         -1.8           

 #VG              IG              ID              IB             
  0               -1.1322e-009    -1.038e-009     -1.8235e-008   
  -0.05           1.6148e-009     -1.687e-009     -1.3003e-008   
  -0.1            8.152e-010      2.3652e-009     -8.904e-009    
  -0.15           9.648e-010      2.3464e-009     9.873e-009     
  -0.2            -1.5244e-009    1.7883e-009     1.1866e-008    
  -0.25           -1.7983e-009    -1.4229e-009    7.792e-009     
  -0.3            -4.637e-010     -2.2154e-009    -1.0768e-008   
  -0.35           2.4978e-009     -5.751e-010     -1.7782e-008   
  -0.4            1.1986e-009     2.2171e-009     -4.031e-009    
  -0.45           -1.724e-010     1.9364e-009     1.0044e-008    
  -0.5            -1.5726e-009    8.167e-010      2.4469e-008    
  -0.55           -1.7704e-009    -1.4817e-009    7.486e-009     
  -0.6            2.0507e-009     -1.7312e-009    -1.8138e-008   
  -0.65           1.7371e-009     1.653e-010      -8.027e-009    
  -0.7            1.4957e-009     -8.65e-010      -9.024e-009    
  -0.75           1.3374e-009     -4.4348e-009    -8.753e-009    
  -0.8            2.5771e-009     1.31e-009       1.7257e-008    
  -0.85           1.3012e-009     -6.6654e-008    1.9263e-008    
  -0.9            2.2737e-009     -9.7329e-008    9.883e-009     
  -0.95           1.228e-009      -1.956e-008     -1.0641e-008   
  -1              2.8261e-009     -2.0167e-007    -1.0999e-008   
  -1.05           -2.0588e-009    -1.17e-009      9.64e-009      
  -1.1            1.4171e-009     -7.2555e-007    -2.2699e-008   
  -1.15           2.537e-009      -1.0704e-006    1.0588e-008    
  -1.2            1.8267e-009     -1.19e-008      -3.706e-009    
  -1.25           -2.6961e-009    -3.2e-009       1.0582e-008    
  -1.3            1.7326e-009     -2.6846e-006    -1.9423e-008   
  -1.35           1.2905e-009     -5.348e-007     -8.987e-009    
  -1.4            2.8617e-009     -2.0402e-006    -9.549e-009    
  -1.45           2.6463e-009     -9.69e-008      -3.09e-010     
  -1.5            2.0101e-009     -3.587e-007     -2.566e-009    
  -1.55           1.4147e-009     -1.7232e-006    -7.986e-009    
  -1.6            2.8416e-009     -4.7145e-006    -8.74e-009     
  -1.65           -6.775e-010     -1.2007e-005    2.477e-008     
  -1.7            -1.8319e-009    -5.226e-006     1.4611e-008    
  -1.75           2.0735e-009     -3.549e-006     -2.328e-009    
  -1.8            1.44e-009       -7.445e-006     -7.609e-009    
END_DB

BEGIN_DB
 ICCAP_VAR VS         0              
 ICCAP_VAR VB         0.9            
 ICCAP_VAR VD         -0.1           

 #VG              IG              ID              IB             
  0               1.1774e-009     1.0802e-009     8.818e-009     
  -0.05           -6.1e-011       1.9909e-009     1.245e-008     
  -0.1            9.47e-011       2.0837e-009     9.599e-009     
  -0.15           2.82e-010       2.1953e-009     1.0162e-008    
  -0.2            4.685e-010      2.2824e-009     1.0426e-008    
  -0.25           6.409e-010      2.3441e-009     1.0299e-008    
  -0.3            8.085e-010      2.356e-009      1.0048e-008    
  -0.35           9.447e-010      2.3317e-009     9.773e-009     
  -0.4            -1.5522e-009    1.7748e-009     1.2444e-008    
  -0.45           -1.7914e-009    -1.4489e-009    7.632e-009     
  -0.5            -4.457e-010     -2.2064e-009    -1.0739e-008   
  -0.55           1.2253e-009     -1.4138e-009    -2.4652e-008   
  -0.6            2.8502e-009     2.4e-012        -1.1273e-008   
  -0.65           1.7016e-009     1.6012e-009     -8.9e-011      
  -0.7            3.24e-010       2.2156e-009     1.0269e-008    
  -0.75           5.074e-010      2.2985e-009     1.0443e-008    
  -0.8            6.792e-010      2.3503e-009     1.0324e-008    
  -0.85           8.377e-010      2.3498e-009     9.987e-009     
  -0.9            9.8e-010        2.3006e-009     9.79e-009      
  -0.95           -1.2698e-009    -4.132e-010     1.1012e-008    
  -1              -2.5155e-009    -1.11265e-008   1.0184e-008    
  -1.05           1.3618e-009     -5.5642e-008    1.2681e-008    
  -1.1            1.7835e-009     -5.8255e-008    1.1217e-008    
  -1.15           2.3755e-009     -9.8487e-008    9.94e-009      
  -1.2            2.1545e-009     -1.7341e-007    -5.116e-009    
  -1.25           1.4915e-009     -1.38e-009      -7.045e-009    
  -1.3            1.2385e-009     -4.079e-008     -8.69e-009     
  -1.35           2.8346e-009     -2.8529e-007    -1.0954e-008   
  -1.4            -6.544e-010     -8.1035e-007    1.0422e-008    
  -1.45           1.2424e-009     -9.4518e-007    -2.6723e-008   
  -1.5            -9.717e-010     -1.1499e-006    -1.0909e-008   
  -1.55           1.7168e-009     -5.3e-009       -9.716e-009    
  -1.6            -1.3383e-009    -1.6617e-006    2.7332e-008    
  -1.65           -2.6852e-009    -1.2697e-006    8.782e-009     
  -1.7            -2.2933e-009    -1.155e-007     6.45e-010      
  -1.75           2.4082e-009     -2.188e-007     -1.3011e-008   
  -1.8            -1.3904e-009    -1.4565e-006    9.788e-009     
END_DB

BEGIN_DB
 ICCAP_VAR VS         0              
 ICCAP_VAR VB         0.9            
 ICCAP_VAR VD         -1.8           

 #VG              IG              ID              IB             
  0               -7.76e-010      -8.152e-010     -2.6784e-008   
  -0.05           -1.1282e-009    -2.1793e-009    8.714e-009     
  -0.1            1.4644e-009     -1.0815e-009    -2.5182e-008   
  -0.15           9.109e-010      2.3522e-009     -8.799e-009    
  -0.2            1.0506e-009     2.3016e-009     1.047e-008     
  -0.25           1.1973e-009     2.1943e-009     1.1705e-008    
  -0.3            -1.735e-010     1.9409e-009     1.0183e-008    
  -0.35           -2.38e-011      2.0191e-009     9.899e-009     
  -0.4            1.395e-010      2.1094e-009     9.746e-009     
  -0.45           3.072e-010      2.2055e-009     1.0285e-008    
  -0.5            4.926e-010      2.2907e-009     1.0339e-008    
  -0.55           6.672e-010      2.3484e-009     1.0226e-008    
  -0.6            8.199e-010      2.3627e-009     9.975e-009     
  -0.65           9.604e-010      2.3487e-009     9.712e-009     
  -0.7            1.1015e-009     2.2766e-009     1.0939e-008    
  -0.75           1.2532e-009     2.1475e-009     1.2035e-008    
  -0.8            -1.257e-010     1.9669e-009     1.0027e-008    
  -0.85           3.08e-011       2.0422e-009     9.846e-009     
  -0.9            1.958e-010      2.1356e-009     9.831e-009     
  -0.95           3.717e-010      2.1986e-009     1.0351e-008    
  -1              -1.9834e-009    2.1332e-009     1.0262e-008    
  -1.05           1.3119e-009     7.74e-010       1.0429e-008    
  -1.1            2.8627e-009     -1.4576e-008    -9.427e-009    
  -1.15           -2.6404e-009    -1.15e-009      1.0552e-008    
  -1.2            -1.0914e-009    -2.93e-009      6.56e-010      
  -1.25           1.3018e-009     -4.716e-007     -2.5153e-008   
  -1.3            2.863e-009      -2.854e-007     -9.601e-009    
  -1.35           1.6045e-009     -5.5e-009       1.0141e-008    
  -1.4            1.2674e-009     -1.371e-007     -8.916e-009    
  -1.45           2.857e-009      -9.975e-007     -9.795e-009    
  -1.5            1.347e-009      -9.86e-008      -3.32e-010     
  -1.55           -1.9666e-009    -2.08e-008      1.2823e-008    
  -1.6            1.3683e-009     -4.7676e-006    -2.3873e-008   
  -1.65           2.8527e-009     -2.374e-006     -9.093e-009    
  -1.7            2.7506e-009     -1.429e-007     1.51e-010      
  -1.75           -1.892e-009     -8.478e-007     1.1482e-008    
  -1.8            -1.264e-009     -4.71e-006      7.917e-009     
END_DB

BEGIN_DB
 ICCAP_VAR VS         0              
 ICCAP_VAR VB         1.8            
 ICCAP_VAR VD         -0.1           

 #VG              IG              ID              IB             
  0               2.4122e-009     2.3308e-009     -1.3545e-008   
  -0.05           4.319e-010      2.2777e-009     1.054e-008     
  -0.1            6.183e-010      2.341e-009      1.0725e-008    
  -0.15           7.764e-010      2.3691e-009     1.037e-008     
  -0.2            9.236e-010      2.3623e-009     9.842e-009     
  -0.25           1.0625e-009     2.3052e-009     9.854e-009     
  -0.3            1.2095e-009     2.197e-009      1.059e-008     
  -0.35           -1.639e-010     1.9463e-009     1.0028e-008    
  -0.4            -1.5764e-009    8.904e-010      2.4509e-008    
  -0.45           -1.7689e-009    -1.4801e-009    7.237e-009     
  -0.5            -3.855e-010     -2.1944e-009    -1.0668e-008   
  -0.55           2.5883e-009     -4.921e-010     -1.7184e-008   
  -0.6            1.1282e-009     2.2706e-009     -3.185e-009    
  -0.65           1.285e-009      2.1312e-009     1.2223e-008    
  -0.7            -1.021e-010     1.9819e-009     9.841e-009     
  -0.75           -1.5063e-009    9.414e-010      2.5487e-008    
  -0.8            -1.8132e-009    -1.402e-009     7.896e-009     
  -0.85           -4.781e-010     -2.2141e-009    -1.0866e-008   
  -0.9            2.4907e-009     -6.093e-010     -1.8023e-008   
  -0.95           1.1944e-009     2.2148e-009     -4.117e-009    
  -1              -1.803e-010     1.7259e-009     1.0106e-008    
  -1.05           -2.67e-011      1.7272e-009     9.706e-009     
  -1.1            -1.3208e-009    1.78e-009       9.577e-009     
  -1.15           2.465e-009      -3.5068e-008    -1.8243e-008   
  -1.2            1.7485e-009     1.227e-009      -4.255e-009    
  -1.25           6.004e-010      -1.3453e-007    1.9668e-008    
  -1.3            -8.182e-010     -2.7939e-007    1.0099e-008    
  -1.35           1.879e-010      -3.918e-007     -1.2103e-008   
  -1.4            2.7812e-009     -6.4215e-007    1.0372e-008    
  -1.45           -1.9161e-009    -7.492e-007     1.4535e-008    
  -1.5            -1.4369e-009    -7.695e-008     -5.509e-009    
  -1.55           -2.7056e-009    -2.045e-009     -1.9073e-008   
  -1.6            -2.7107e-009    -5.898e-009     -1.6468e-008   
  -1.65           2.6384e-009     -1.5489e-006    9.826e-009     
  -1.7            1.9944e-009     -1.152e-007     -2.555e-009    
  -1.75           1.4164e-009     -5.389e-007     -8.178e-009    
  -1.8            1.2183e-009     -1.4195e-006    -8.886e-009    
END_DB

BEGIN_DB
 ICCAP_VAR VS         0              
 ICCAP_VAR VB         1.8            
 ICCAP_VAR VD         -1.8           

 #VG              IG              ID              IB             
  0               6.489e-010      7.69e-010       9.738e-009     
  -0.05           1.1268e-009     2.2526e-009     -9.794e-009    
  -0.1            -1.4048e-009    1.8996e-009     1.0483e-008    
  -0.15           -1.898e-009     -1.2701e-009    8.662e-009     
  -0.2            1.6563e-009     -1.6682e-009    -1.3342e-008   
  -0.25           7.759e-010      2.3669e-009     -8.772e-009    
  -0.3            9.233e-010      2.3581e-009     9.782e-009     
  -0.35           1.0658e-009     2.2953e-009     9.854e-009     
  -0.4            1.2138e-009     2.1815e-009     1.0558e-008    
  -0.45           -1.608e-010     1.9457e-009     1.0144e-008    
  -0.5            -1.5589e-009    8.961e-010      2.4909e-008    
  -0.55           -1.7681e-009    -1.4633e-009    7.388e-009     
  -0.6            -4.075e-010     -2.1988e-009    -1.0824e-008   
  -0.65           2.5567e-009     -5.091e-010     -1.7328e-008   
  -0.7            1.1393e-009     2.256e-009      -3.423e-009    
  -0.75           -1.4016e-009    1.9086e-009     1.0352e-008    
  -0.8            -1.9018e-009    -1.264e-009     8.679e-009     
  -0.85           1.6426e-009     -1.6759e-009    -1.3221e-008   
  -0.9            7.786e-010      2.3671e-009     -8.831e-009    
  -0.95           9.259e-010      2.3569e-009     9.411e-009     
  -1              -1.2769e-009    -3.547e-010     9.715e-009     
  -1.05           2.7211e-009     1.278e-009      9.216e-009     
  -1.1            -1.7944e-009    -4.5639e-008    1.6388e-008    
  -1.15           1.4868e-009     -7.6625e-008    -3.28e-009     
  -1.2            -1.2814e-009    -6.676e-008     1.0322e-008    
  -1.25           -2.3475e-009    -2.6486e-007    9.353e-009     
  -1.3            1.881e-009      1.28e-009       -1.3149e-008   
  -1.35           -1.356e-009     -9.1827e-007    2.6397e-008    
  -1.4            2.3581e-009     9.2e-010        -1.5811e-008   
  -1.45           -1.3233e-009    -1.49e-007      -1.0824e-008   
  -1.5            -2.6635e-009    -9.229e-007     8.316e-009     
  -1.55           -1.5571e-009    -1.372e-007     6.28e-010      
  -1.6            2.8109e-009     -3.2e-009       -1.0075e-008   
  -1.65           -1.8372e-009    -2.83e-008      1.2485e-008    
  -1.7            1.3058e-009     -5.5104e-006    -2.4952e-008   
  -1.75           2.8709e-009     -3.3651e-006    -9.145e-009    
  -1.8            2.6707e-009     -2.157e-007     -2.87e-010     
END_DB

