! VERSION = 6.00
BEGIN_HEADER
 ICCAP_INPUTS
  VG         V  B GROUND SMU4 0.001 LIN        2    0          -1.8       6    -0.36     
  VS         V  E GROUND SMU2 0.1 CON        0
  VD         V  S GROUND SMU1 0.1 LIN        1    0          -1.8       37   -0.05     
  VB         V  C GROUND SMU3 0.1 LIN        3    0          0.9        2    0.9       
 ICCAP_OUTPUTS
  ID         I  S GROUND SMU1 B
  IB         I  C GROUND SMU3 B
  IG         I  B GROUND SMU4 B
END_HEADER

BEGIN_DB
 ICCAP_VAR VG         0              
 ICCAP_VAR VS         0              
 ICCAP_VAR VB         0              

 #VD              ID              IB              IG             
  0               2.1158e-009     -4.947e-009     2.8215e-009    
  -0.05           2.1582e-009     1.1828e-008     1.21e-009      
  -0.1            1.916e-009      1.019e-008      -1.703e-010    
  -0.15           1.9966e-009     9.796e-009      -7.5e-012      
  -0.2            2.0924e-009     9.744e-009      1.765e-010     
  -0.25           2.187e-009      1.0321e-008     3.699e-010     
  -0.3            2.2681e-009     1.061e-008      5.655e-010     
  -0.35           2.3112e-009     1.0452e-008     7.317e-010     
  -0.4            2.3123e-009     9.984e-009      8.939e-010     
  -0.45           2.2664e-009     9.987e-009      1.0493e-009    
  -0.5            2.1592e-009     1.1805e-008     1.2147e-009    
  -0.55           1.9121e-009     1.0163e-008     -1.734e-010    
  -0.6            1.9927e-009     9.656e-009      -2.9e-012      
  -0.65           2.092e-009      9.636e-009      1.751e-010     
  -0.7            2.186e-009      1.0217e-008     3.714e-010     
  -0.75           2.2682e-009     1.0251e-008     5.56e-010      
  -0.8            2.3063e-009     1.0131e-008     7.344e-010     
  -0.85           2.3075e-009     9.81e-009       8.964e-010     
  -0.9            2.2648e-009     1.0391e-008     1.0461e-009    
  -0.95           2.1539e-009     1.1794e-008     1.2095e-009    
  -1              1.9091e-009     1.0171e-008     -1.742e-010    
  -1.05           8.918e-010      2.4676e-008     -1.54e-009     
  -1.1            -1.43e-009      7.841e-009      -1.7573e-009   
  -1.15           -2.1787e-009    -1.0725e-008    -4.388e-010    
  -1.2            -1.3955e-009    -2.5184e-008    2.4955e-009    
  -1.25           2.1636e-009     -3.872e-009     1.2043e-009    
  -1.3            1.8955e-009     1.0194e-008     -1.878e-010    
  -1.35           1.9772e-009     9.641e-009      -1.85e-011     
  -1.4            2.0703e-009     9.717e-009      1.646e-010     
  -1.45           2.1691e-009     1.0264e-008     3.606e-010     
  -1.5            2.2475e-009     1.0233e-008     5.464e-010     
  -1.55           2.2905e-009     1.0227e-008     7.235e-010     
  -1.6            2.2896e-009     9.903e-009      8.842e-010     
  -1.65           2.2482e-009     1.0314e-008     1.0364e-009    
  -1.7            2.1409e-009     1.0537e-008     1.2042e-009    
  -1.75           1.8891e-009     1.0289e-008     -1.808e-010    
  -1.8            8.679e-010      2.4591e-008     -1.5439e-009   
END_DB

BEGIN_DB
 ICCAP_VAR VG         -0.36          
 ICCAP_VAR VS         0              
 ICCAP_VAR VB         0              

 #VD              ID              IB              IG             
  0               -9.173e-010     -1.9203e-008    -1.0943e-009   
  -0.05           -5.9595e-009    -5.662e-009     -2.5016e-009   
  -0.1            -8.5785e-009    -1.0544e-008    -3.25e-010     
  -0.15           -9.5943e-009    -1.0611e-008    -5.286e-010    
  -0.2            -9.2734e-009    -1.8808e-008    2.3832e-009    
  -0.25           -1.0576e-008    1.6977e-008     -1.7706e-009   
  -0.3            -1.1281e-008    1.2826e-008     -1.3178e-009   
  -0.35           -1.1618e-008    1.0257e-008     -1.7134e-009   
  -0.4            -1.2564e-008    9.749e-009      -1.393e-009    
  -0.45           -1.1687e-008    1.0343e-008     6.551e-010     
  -0.5            -1.5631e-008    -1.7751e-008    2.1598e-009    
  -0.55           -1.7721e-008    -2.7088e-008    2.5039e-009    
  -0.6            -1.8998e-008    -2.5125e-008    1.2825e-009    
  -0.65           -2.2042e-008    -1.064e-008     -8.109e-010    
  -0.7            -2.1457e-008    1.5665e-008     -1.8346e-009   
  -0.75           -2.0452e-008    1.2664e-008     1.7219e-009    
  -0.8            -2.4718e-008    -1.2356e-008    2.7632e-009    
  -0.85           -2.8589e-008    -1.6138e-008    1.5106e-009    
  -0.9            -3.0493e-008    -2.1969e-008    1.8418e-009    
  -0.95           -3.1396e-008    -1.8553e-008    2.0212e-009    
  -1              -3.4181e-008    -2.6945e-008    2.3772e-009    
  -1.05           -3.6802e-008    -1.1431e-008    4.25e-011      
  -1.1            -3.7524e-008    9.088e-009      -1.2904e-009   
  -1.15           -3.6902e-008    9.803e-009      1.1506e-009    
  -1.2            -4.3012e-008    -2.3773e-008    1.3595e-009    
  -1.25           -4.6117e-008    -1.0864e-008    -7.046e-010    
  -1.3            -4.668e-008     1.3093e-008     -1.9942e-009   
  -1.35           -4.7621e-008    1.0326e-008     2.67e-011      
  -1.4            -5.2332e-008    -1.088e-008     2.8136e-009    
  -1.45           -5.7234e-008    -1.8948e-008    1.6659e-009    
  -1.5            -5.9259e-008    -1.935e-008     1.8213e-009    
  -1.55           -6.214e-008     -1.8661e-008    1.99e-009      
  -1.6            -6.6044e-008    -1.0571e-008    -1.753e-010    
  -1.65           -6.7163e-008    7.836e-009      -2.559e-009    
  -1.7            -6.8603e-008    9.783e-009      1.1345e-009    
  -1.75           -7.6225e-008    -2.3619e-008    1.3664e-009    
  -1.8            -7.9573e-008    -1.0798e-008    -6.94e-010     
END_DB

BEGIN_DB
 ICCAP_VAR VG         -0.72          
 ICCAP_VAR VS         0              
 ICCAP_VAR VB         0              

 #VD              ID              IB              IG             
  0               -1.08149e-009   1.1542e-008     -3.161e-010    
  -0.05           -3.6774e-006    -2.6842e-008    -2.7027e-009   
  -0.1            -5.6935e-006    1.0078e-008     1.0216e-009    
  -0.15           -6.9233e-006    -2.5092e-008    1.2859e-009    
  -0.2            -7.7746e-006    -2.6671e-008    1.2241e-009    
  -0.25           -8.4845e-006    -1.1032e-008    -2.13e-011     
  -0.3            -8.9214e-006    7.732e-009      -2.4696e-009   
  -0.35           -9.7146e-006    1.0707e-008     1.4774e-009    
  -0.4            -1.02436e-005   -1.2619e-008    2.7498e-009    
  -0.45           -1.07729e-005   -1.1997e-008    1.192e-010     
  -0.5            -1.10535e-005   8.428e-009      -2.6108e-009   
  -0.55           -1.1614e-005    9.686e-009      -2.5485e-009   
  -0.6            -1.2311e-005    1.2586e-008     1.7636e-009    
  -0.65           -1.2794e-005    -1.1792e-008    1.131e-010     
  -0.7            -1.304e-005     1.0095e-008     -2.232e-009    
  -0.75           -1.3697e-005    1.3113e-008     2.0551e-009    
  -0.8            -1.4257e-005    -2.2061e-008    1.4351e-009    
  -0.85           -1.4747e-005    -1.0954e-008    -4.65e-011     
  -0.9            -1.499e-005     1.378e-008      -1.9434e-009   
  -0.95           -1.5561e-005    1.0534e-008     6.997e-010     
  -1              -1.6229e-005    -2.4921e-008    1.2824e-009    
  -1.05           -1.6716e-005    -1.9449e-008    1.8093e-009    
  -1.1            -1.7218e-005    -2.5506e-008    1.2607e-009    
  -1.15           -1.7631e-005    -1.0362e-008    -3.239e-010    
  -1.2            -1.7944e-005    1.8798e-008     -1.6149e-009   
  -1.25           -1.8597e-005    1.0349e-008     9.235e-010     
  -1.3            -1.9213e-005    -2.7154e-008    2.4589e-009    
  -1.35           -1.9603e-005    -1.0532e-008    -5.509e-010    
  -1.4            -1.9944e-005    2.2779e-008     -1.4461e-009   
  -1.45           -2.0737e-005    9.858e-009      1.0927e-009    
  -1.5            -2.1333e-005    -1.233e-008     2.7591e-009    
  -1.55           -2.1767e-005    -1.0504e-008    -2.143e-010    
  -1.6            -2.204e-005     1.7008e-008     -1.7301e-009   
  -1.65           -2.2719e-005    1.0304e-008     8.396e-010     
  -1.7            -2.3434e-005    -2.6651e-008    1.2239e-009    
  -1.75           -2.3857e-005    -1.0218e-008    -4.364e-010    
  -1.8            -2.4192e-005    2.086e-008      -1.5196e-009   
END_DB

BEGIN_DB
 ICCAP_VAR VG         -1.08          
 ICCAP_VAR VS         0              
 ICCAP_VAR VB         0              

 #VD              ID              IB              IG             
  0               -2.6923e-008    9.924e-009      1.473e-010     
  -0.05           -3.4939e-005    -1.5658e-008    2.448e-010     
  -0.1            -6.364e-005     -1.9697e-008    1.7518e-009    
  -0.15           -8.6515e-005    -2.5679e-008    2.6492e-009    
  -0.2            -0.000104552    -1.9159e-008    1.8844e-009    
  -0.25           -0.00011827     -1.2962e-008    -1.8528e-009   
  -0.3            -0.00012948     1.1951e-008     -2.295e-010    
  -0.35           -0.00013939     -1.2244e-008    2.7601e-009    
  -0.4            -0.00014703     -2.5926e-008    2.6403e-009    
  -0.45           -0.00015344     -2.7172e-008    2.4637e-009    
  -0.5            -0.00015914     -2.6263e-008    2.24e-009      
  -0.55           -0.00016436     -1.945e-008     1.7828e-009    
  -0.6            -0.00016855     -1.1036e-008    -7.26e-010     
  -0.65           -0.00017238     2.1092e-008     -1.5082e-009   
  -0.7            -0.00017704     1.0759e-008     7.97e-010      
  -0.75           -0.00018151     -2.3381e-008    1.3771e-009    
  -0.8            -0.00018513     -2.6432e-008    1.2318e-009    
  -0.85           -0.00018884     -1.071e-008     -1.297e-010    
  -0.9            -0.00019108     1.0412e-008     -2.186e-009    
  -0.95           -0.00019462     9.787e-009      2.589e-010     
  -1              -0.00019895     -1.7738e-008    2.1486e-009    
  -1.05           -0.00020189     -1.0418e-008    -4.929e-010    
  -1.1            -0.00020427     1.7053e-008     -1.7389e-009   
  -1.15           -0.00020769     1.0467e-008     5.989e-010     
  -1.2            -0.00021168     -2.0138e-008    1.62e-009      
  -1.25           -0.00021383     -1.0643e-008    -8.191e-010    
  -1.3            -0.00021639     2.3078e-008     -1.4386e-009   
  -1.35           -0.00022007     1.0379e-008     8.919e-010     
  -1.4            -0.00022356     -2.476e-008     1.3033e-009    
  -1.45           -0.00022633     -2.7044e-008    2.4729e-009    
  -1.5            -0.00022904     -1.0464e-008    -2.438e-010    
  -1.55           -0.00023083     1.2305e-008     -2.0385e-009   
  -1.6            -0.00023507     1.2789e-008     1.9477e-009    
  -1.65           -0.00023783     -1.2433e-008    1.714e-010     
  -1.7            -0.00023913     8.101e-009      -2.5706e-009   
  -1.75           -0.00024393     1.1858e-008     1.4756e-009    
  -1.8            -0.00024638     -1.4778e-008    2.6339e-009    
END_DB

BEGIN_DB
 ICCAP_VAR VG         -1.44          
 ICCAP_VAR VS         0              
 ICCAP_VAR VB         0              

 #VD              ID              IB              IG             
  0               -4.1904e-008    1.8642e-008     1.0196e-009    
  -0.05           -7.2071e-005    1.0369e-008     -2.3288e-009   
  -0.1            -0.00013849     1.2505e-008     2.4708e-009    
  -0.15           -0.00019916     -1.7737e-008    2.0735e-009    
  -0.2            -0.00025371     -1.0227e-008    -5.367e-010    
  -0.25           -0.00030198     1.7826e-008     -1.6908e-009   
  -0.3            -0.00034495     1.0398e-008     6.357e-010     
  -0.35           -0.00038274     -2.0712e-008    1.5721e-009    
  -0.4            -0.00041513     -1.4385e-008    1.4096e-009    
  -0.45           -0.00044184     -1.0684e-008    -9.73e-010     
  -0.5            -0.00046527     2.5791e-008     -1.3726e-009   
  -0.55           -0.00048717     1.0208e-008     1.047e-009     
  -0.6            -0.00050511     -2.6531e-008    2.5716e-009    
  -0.65           -0.00052067     -2.66e-008      2.3804e-009    
  -0.7            -0.00053446     -1.8715e-008    1.9466e-009    
  -0.75           -0.00054662     -1.9358e-008    1.7061e-009    
  -0.8            -0.00055705     -1.0727e-008    -7.816e-010    
  -0.85           -0.00056662     2.2393e-008     -1.4788e-009   
  -0.9            -0.0005769      1.0614e-008     8.47e-010      
  -0.95           -0.00058628     -2.4101e-008    1.3481e-009    
  -1              -0.00059295     -1.0554e-008    -1.0393e-009   
  -1.05           -0.00060029     2.6731e-008     -1.3516e-009   
  -1.1            -0.00060988     9.9e-009        1.1135e-009    
  -1.15           -0.00061694     -2.687e-008     2.4748e-009    
  -1.2            -0.00062359     -1.0571e-008    -2.372e-010    
  -1.25           -0.00062837     1.1906e-008     -2.0465e-009   
  -1.3            -0.0006371      1.3059e-008     1.9276e-009    
  -1.35           -0.00064343     -1.2963e-008    1.793e-010     
  -1.4            -0.00064708     7.994e-009      -2.5719e-009   
  -1.45           -0.00065604     1.0723e-008     1.4659e-009    
  -1.5            -0.00066146     -1.4577e-008    2.6404e-009    
  -1.55           -0.00066679     -2.6758e-008    2.4636e-009    
  -1.6            -0.00067235     -1.7971e-008    2.0463e-009    
  -1.65           -0.0006776      -2.1078e-008    1.8054e-009    
  -1.7            -0.00068254     -1.0694e-008    -7.245e-010    
  -1.75           -0.00068715     2.1378e-008     -1.5259e-009   
  -1.8            -0.00069348     1.0568e-008     7.927e-010     
END_DB

BEGIN_DB
 ICCAP_VAR VG         -1.8           
 ICCAP_VAR VS         0              
 ICCAP_VAR VB         0              

 #VD              ID              IB              IG             
  0               -4.8805e-008    -2.1031e-008    -6.627e-010    
  -0.05           -9.8215e-005    8.749e-009      2.099e-010     
  -0.1            -0.0001921      8.868e-009      -1.4493e-009   
  -0.15           -0.00028175     1.0544e-008     8.938e-010     
  -0.2            -0.00036674     -2.4435e-008    1.3123e-009    
  -0.25           -0.00044683     -2.6631e-008    2.4706e-009    
  -0.3            -0.00052176     -1.8084e-008    2.054e-009     
  -0.35           -0.00059125     -2.1098e-008    1.8054e-009    
  -0.4            -0.00065538     -1.0712e-008    -7.233e-010    
  -0.45           -0.00071364     2.1265e-008     -1.5323e-009   
  -0.5            -0.00076767     1.0405e-008     7.978e-010     
  -0.55           -0.00081645     -2.3308e-008    1.4009e-009    
  -0.6            -0.00085993     -2.6021e-008    1.2348e-009    
  -0.65           -0.00089879     -1.8161e-008    2.0333e-009    
  -0.7            -0.00093316     -1.0246e-008    -5.647e-010    
  -0.75           -0.00096327     1.8656e-008     -1.664e-009    
  -0.8            -0.00099139     1.0285e-008     6.66e-010      
  -0.85           -0.00101694     -2.0969e-008    1.5422e-009    
  -0.9            -0.00103922     -1.4175e-008    2.23e-010      
  -0.95           -0.00105696     8.458e-009      -1.2664e-009   
  -1              -0.00107582     1.0196e-008     6.151e-010     
  -1.05           -0.00109363     -2.0208e-008    1.6185e-009    
  -1.1            -0.0011084      -1.5173e-008    1.4409e-009    
  -1.15           -0.00112263     -2.5484e-008    1.2531e-009    
  -1.2            -0.00113534     -1.7636e-008    2.1158e-009    
  -1.25           -0.001146       9.646e-009      -4.339e-010    
  -1.3            -0.0011587      -9.971e-009     2.8332e-009    
  -1.35           -0.0011694      -1.4139e-008    2.249e-010     
  -1.4            -0.001177       8.388e-009      -1.2668e-009   
  -1.45           -0.0011882      1.0275e-008     6.142e-010     
  -1.5            -0.0011994      -2.0233e-008    1.6196e-009    
  -1.55           -0.0012083      -1.5181e-008    1.4425e-009    
  -1.6            -0.0012174      -1.2993e-008    1.537e-010     
  -1.65           -0.0012234      7.879e-009      -2.5458e-009   
  -1.7            -0.0012351      1.0858e-008     1.4972e-009    
  -1.75           -0.0012431      -1.5155e-008    2.6036e-009    
  -1.8            -0.0012502      -2.6577e-008    2.4262e-009    
END_DB

BEGIN_DB
 ICCAP_VAR VG         0              
 ICCAP_VAR VS         0              
 ICCAP_VAR VB         0.9            

 #VD              ID              IB              IG             
  0               -8.588e-010     1.2304e-008     -9.575e-010    
  -0.05           -1.3707e-009    8.01e-009       -1.7936e-009   
  -0.1            -2.1655e-009    -1.0599e-008    -4.864e-010    
  -0.15           -5.604e-010     -1.7866e-008    2.4318e-009    
  -0.2            2.1494e-009     -4.317e-009     1.2133e-009    
  -0.25           1.918e-009      1.0339e-008     -1.694e-010    
  -0.3            8.968e-010      2.4874e-008     -1.5495e-009   
  -0.35           -1.441e-009     7.363e-009      -1.7496e-009   
  -0.4            -1.5553e-009    -1.8173e-008    2.0296e-009    
  -0.45           2.2634e-009     -8.125e-009     5.455e-010     
  -0.5            2.3112e-009     1.0409e-008     7.098e-010     
  -0.55           2.3192e-009     1.0081e-008     8.686e-010     
  -0.6            2.2811e-009     9.865e-009      1.0078e-009    
  -0.65           2.1863e-009     1.0409e-008     1.1554e-009    
  -0.7            1.8894e-009     1.0575e-008     -2.261e-010    
  -0.75           8.536e-010      2.3965e-008     -1.6065e-009   
  -0.8            -1.5052e-009    6.528e-009      -1.701e-009    
  -0.85           -2.1205e-009    -1.0416e-008    -3.276e-010    
  -0.9            -2.1798e-009    -1.0422e-008    -5.189e-010    
  -0.95           -5.932e-010     -1.8332e-008    2.3869e-009    
  -1              2.1173e-009     -4.762e-009     1.2458e-009    
  -1.05           1.9328e-009     1.0253e-008     -1.393e-010    
  -1.1            2.0073e-009     9.753e-009      2.6e-011       
  -1.15           2.104e-009      9.677e-009      1.946e-010     
  -1.2            2.1926e-009     1.0333e-008     3.754e-010     
  -1.25           2.2714e-009     1.0513e-008     5.519e-010     
  -1.3            2.3113e-009     1.0436e-008     7.215e-010     
  -1.35           2.3099e-009     1.0085e-008     8.785e-010     
  -1.4            2.2733e-009     9.917e-009      1.0223e-009    
  -1.45           2.173e-009      1.1589e-008     1.1673e-009    
  -1.5            1.8927e-009     1.05e-008       -2.129e-010    
  -1.55           8.57e-010       2.4006e-008     -1.601e-009    
  -1.6            -1.4954e-009    6.842e-009      -1.7164e-009   
  -1.65           -2.1235e-009    -1.0307e-008    -3.389e-010    
  -1.7            -1.3159e-009    -2.5858e-008    1.2278e-009    
  -1.75           2.1371e-009     -1.0654e-008    1.2127e-009    
  -1.8            1.9141e-009     1.0363e-008     -1.694e-010    
END_DB

BEGIN_DB
 ICCAP_VAR VG         -0.36          
 ICCAP_VAR VS         0              
 ICCAP_VAR VB         0.9            

 #VD              ID              IB              IG             
  0               9.944e-010      8.393e-009      1.1021e-009    
  -0.05           2.2429e-009     1.0471e-008     1.0572e-009    
  -0.1            1.6306e-009     1.1989e-008     -1.6528e-009   
  -0.15           -1.5908e-009    6.341e-009      -1.6774e-009   
  -0.2            -2.148e-009     -1.0187e-008    -2.805e-010    
  -0.25           -2.2164e-009    -1.058e-008     -4.782e-010    
  -0.3            -6.103e-010     -1.8054e-008    2.4599e-009    
  -0.35           2.0775e-009     -4.138e-009     2.728e-010     
  -0.4            2.1568e-009     1.0229e-008     4.56e-010      
  -0.45           2.2124e-009     1.0201e-008     6.306e-010     
  -0.5            2.2197e-009     1.0134e-008     7.944e-010     
  -0.55           1.3325e-009     9.818e-009      -1.2948e-009   
