! VERSION = 6.00
BEGIN_HEADER
 ICCAP_INPUTS
  VG         V  B GROUND SMU4 0.001 LIN        1    0          -1.8       37   -0.05     
  VS         V  E GROUND SMU3 0.1 CON        0
  VB         V  C GROUND SMU1 0.1 LIN        3    0          1.8        3    0.9       
  VD         V  S GROUND SMU2 0.1 LIN        2    -0.1       -1.8       2    -1.7      
 ICCAP_OUTPUTS
  IG         I  B GROUND SMU4 B
  ID         I  S GROUND SMU2 B
  IB         I  C GROUND SMU1 B
END_HEADER

BEGIN_DB
 ICCAP_VAR VS         0              
 ICCAP_VAR VB         0              
 ICCAP_VAR VD         -0.1           

 #VG              IG              ID              IB             
  0               6.409e-010      2.53e-011       7.524e-009     
  -0.05           7.378e-010      4.2244e-009     7.938e-009     
  -0.1            2.6612e-009     -5.939e-010     -1.6369e-008   
  -0.15           -1.3066e-009    3.4007e-009     7.608e-009     
  -0.2            2.7068e-009     -4.546e-010     -1.5236e-008   
  -0.25           -1.387e-009     3.1155e-009     8.498e-009     
  -0.3            2.7226e-009     -7.213e-010     -1.2817e-008   
  -0.35           -1.8896e-009    1.0304e-009     1.6675e-008    
  -0.4            2.3554e-009     -8.2946e-009    -2.2419e-008   
  -0.45           1.6898e-009     -1.4061e-008    4.835e-009     
  -0.5            -1.7829e-009    -6.1039e-008    1.3817e-008    
  -0.55           8.728e-010      -1.8332e-007    -1.7121e-008   
  -0.6            -2.5838e-009    -5.0657e-007    6.8e-009       
  -0.65           2.4666e-009     -1.2712e-006    1.4446e-008    
  -0.7            6.469e-010      -2.8339e-006    9.703e-009     
  -0.75           -2.6168e-009    -5.6868e-006    5.83e-009      
  -0.8            2.7016e-009     -1.05785e-005   -1.5273e-008   
  -0.85           7.266e-010      -1.7601e-005    -1.7229e-008   
  -0.9            -2.6122e-009    -2.7008e-005    6.354e-009     
  -0.95           2.679e-009      -3.921e-005     -1.3005e-008   
  -1              7.63e-011       -5.2735e-005    7.923e-009     
  -1.05           -2.0172e-009    -6.7876e-005    1.2233e-008    
  -1.1            1.6143e-009     -8.4376e-005    -1.7968e-008   
  -1.15           8.486e-010      -0.000100908    8.853e-009     
  -1.2            5.646e-010      -0.00011719     1.558e-008     
  -1.25           -2.6108e-009    -0.00013345     5.125e-009     
  -1.3            1.6395e-009     -0.00014979     -1.6619e-008   
  -1.35           8.36e-010       -0.00016483     8.981e-009     
  -1.4            -2.5955e-009    -0.00017919     6.75e-009      
  -1.45           2.617e-009      -0.00019346     -1.2362e-008   
  -1.5            -1.9161e-009    -0.0002061      1.3118e-008    
  -1.55           2.7025e-009     -0.00021847     -1.604e-008    
  -1.6            -3.17e-011      -0.00022967     7.451e-009     
  -1.65           -2.1698e-009    -0.00024065     1.0636e-008    
  -1.7            1.6149e-009     -0.00025107     -1.7037e-008   
  -1.75           8.588e-010      -0.00026043     9.246e-009     
  -1.8            -2.6016e-009    -0.00026928     6.98e-009      
END_DB

BEGIN_DB
 ICCAP_VAR VS         0              
 ICCAP_VAR VB         0              
 ICCAP_VAR VD         -1.8           

 #VG              IG              ID              IB             
  0               -9.78e-011      1.1217e-009     1.4344e-008    
  -0.05           2.6909e-009     -3.786e-010     -1.3998e-008   
  -0.1            -1.4531e-009    3.0658e-009     9.39e-009      
  -0.15           1.8296e-009     -3.3702e-009    -1.4017e-008   
  -0.2            -1.9797e-009    1.1758e-009     1.9351e-008    
  -0.25           2.2572e-009     -5.9138e-009    -1.7371e-008   
  -0.3            -1.8984e-009    -1.7919e-008    -7.194e-009    
  -0.35           1.4529e-009     -4.8386e-008    -1.6812e-008   
  -0.4            -2.3894e-009    -1.4079e-007    8.336e-009     
  -0.45           2.0035e-009     -3.9348e-007    -1.7139e-008   
  -0.5            -1.417e-009     -9.9097e-007    1.4685e-008    
  -0.55           1.4801e-009     -2.4081e-006    8.126e-009     
  -0.6            8.981e-010      -5.2563e-006    9e-009         
  -0.65           -2.5813e-009    -1.04805e-005   7.157e-009     
  -0.7            -2.5628e-009    -1.9629e-005    8.257e-009     
  -0.75           2.5107e-009     -3.4276e-005    -1.4985e-008   
  -0.8            -1.7151e-009    -5.4424e-005    1.516e-008     
  -0.85           2.6086e-009     -8.3687e-005    -1.2072e-008   
  -0.9            2.5818e-009     -0.00011967     8.074e-009     
  -0.95           -1.8603e-009    -0.00016414     1.4055e-008    
  -1              2.7021e-009     -0.00021893     -1.4551e-008   
  -1.05           1.4823e-009     -0.00028185     7.99e-009      
  -1.1            -1.4246e-009    -0.0003485      1.5201e-008    
  -1.15           2.4151e-009     -0.00042737     -1.5795e-008   
  -1.2            -1.5744e-009    -0.00050844     1.6229e-008    
  -1.25           2.5375e-009     -0.00060059     -1.4331e-008   
  -1.3            -1.7664e-009    -0.00069264     1.482e-008     
  -1.35           2.6322e-009     -0.00079514     -1.1591e-008   
  -1.4            -1.9589e-009    -0.0008957      1.2722e-008    
  -1.45           1.5546e-009     -0.00100602     -1.664e-008    
  -1.5            8.664e-010      -0.00111602     9.315e-009     
  -1.55           2.1431e-009     -0.0012312      9.442e-009     
  -1.6            5.88e-010       -0.0013456      9.896e-009     
  -1.65           -2.6176e-009    -0.001463       5.362e-009     
  -1.7            1.587e-009      -0.0015863      -1.7373e-008   
  -1.75           8.491e-010      -0.0017075      9.259e-009     
  -1.8            -2.5994e-009    -0.0018289      6.956e-009     
END_DB

BEGIN_DB
 ICCAP_VAR VS         0              
 ICCAP_VAR VB         0.9            
 ICCAP_VAR VD         -0.1           

 #VG              IG              ID              IB             
  0               -8.764e-010     -3.883e-010     6.827e-009     
  -0.05           2.006e-009      -2.8258e-009    -1.6595e-008   
  -0.1            -1.9467e-009    1.1635e-009     1.6107e-008    
  -0.15           2.2289e-009     -1.2033e-009    -1.7498e-008   
  -0.2            -2.1305e-009    9.864e-010      1.4686e-008    
  -0.25           2.4025e-009     -1.0002e-009    -1.7112e-008   
  -0.3            -2.2857e-009    8.076e-010      1.2585e-008    
  -0.35           2.5375e-009     -8.065e-010     -1.672e-008    
  -0.4            -2.4043e-009    3.5311e-009     7.646e-009     
  -0.45           2.6322e-009     -7.952e-010     -1.6221e-008   
  -0.5            -1.3255e-009    2.5493e-009     7.586e-009     
  -0.55           2.6896e-009     -3.8295e-009    -1.4374e-008   
  -0.6            -2.2819e-009    -1.5787e-008    -1.3128e-008   
  -0.65           2.4863e-009     -5.2427e-008    -1.5572e-008   
  -0.7            -2.5944e-009    -1.8193e-007    7.982e-009     
  -0.75           1.8619e-009     -5.6423e-007    -1.7447e-008   
  -0.8            -2.4085e-009    -1.4892e-006    -2.0279e-008   
  -0.85           2.0622e-009     -3.5446e-006    -1.7191e-008   
  -0.9            6.274e-010      -7.2346e-006    9.621e-009     
  -0.95           6.66e-010       -1.3336e-005    -1.7357e-008   
  -1              -2.6289e-009    -2.2045e-005    6.258e-009     
  -1.05           2.7017e-009     -3.3852e-005    -1.5271e-008   
  -1.1            1.4761e-009     -4.7921e-005    8.185e-009     
  -1.15           -1.4504e-009    -6.2687e-005    1.5207e-008    
  -1.2            2.4308e-009     -7.9656e-005    -1.5969e-008   
  -1.25           -1.6258e-009    -9.607e-005     1.5825e-008    
  -1.3            2.5571e-009     -0.000113481    -1.384e-008    
  -1.35           4.758e-010      -0.00012945     1.5066e-008    
  -1.4            -1.4493e-009    -0.00014515     1.7232e-008    
  -1.45           2.4288e-009     -0.00016073     -1.5914e-008   
  -1.5            -1.6157e-009    -0.00017455     1.5782e-008    
  -1.55           2.5556e-009     -0.00018843     -1.4019e-008   
  -1.6            -1.8156e-009    -0.00020063     1.4125e-008    
  -1.65           2.6924e-009     -0.00021264     -1.459e-008    
  -1.7            6e-012          -0.00022351     7.539e-009     
  -1.75           -2.1202e-009    -0.00023407     1.1074e-008    
  -1.8            1.7793e-009     -0.00024394     -2.0367e-008   
END_DB

BEGIN_DB
 ICCAP_VAR VS         0              
 ICCAP_VAR VB         0.9            
 ICCAP_VAR VD         -1.8           

 #VG              IG              ID              IB             
  0               3.308e-010      -9.921e-010     -1.6638e-008   
  -0.05           -2.0108e-009    2.66e-009       1.9932e-008    
  -0.1            2.2895e-009     -1.1246e-009    -1.7321e-008   
  -0.15           -2.1914e-009    9.041e-010      1.3794e-008    
  -0.2            2.4686e-009     -9.267e-010     -1.6904e-008   
  -0.25           -1.236e-010     3.5695e-009     8.115e-009     
  -0.3            -2.5863e-009    -3.234e-010     8.411e-009     
  -0.35           1.8426e-009     -4.2848e-009    -1.4284e-008   
  -0.4            1.7355e-009     -2.8661e-009    1.0175e-008    
  -0.45           2.5168e-009     -1.8671e-008    8.841e-009     
  -0.5            -1.7584e-009    -6.7503e-008    1.4615e-008    
  -0.55           2.3144e-009     -2.2479e-007    -1.4046e-008   
  -0.6            -2.3737e-009    -6.7554e-007    8.636e-009     
  -0.65           2.3106e-009     -1.8555e-006    1.1709e-008    
  -0.7            -2.3771e-009    -4.4715e-006    8.636e-009     
  -0.75           1.9964e-009     -9.9637e-006    -1.7105e-008   
  -0.8            6.529e-010      -1.9407e-005    -1.7216e-008   
  -0.85           -2.6246e-009    -3.4571e-005    6.152e-009     
  -0.9            2.7056e-009     -5.7875e-005    -1.5679e-008   
  -0.95           -4.6e-011       -8.8448e-005    7.828e-009     
  -1              4.58e-010       -0.00012876     1.5154e-008    
  -1.05           -1.4694e-009    -0.00017764     1.7188e-008    
  -1.1            2.4657e-009     -0.00023757     -1.5441e-008   
  -1.15           -1.6495e-009    -0.00030199     1.5727e-008    
  -1.2            2.5961e-009     -0.00037868     -1.3213e-008   
  -1.25           -1.859e-009     -0.00045759     1.382e-008     
  -1.3            2.7085e-009     -0.00054781     -1.473e-008    
  -1.35           1.4653e-009     -0.00064285     8.434e-009     
  -1.4            -1.4542e-009    -0.00073709     1.5548e-008    
  -1.45           2.4589e-009     -0.00084321     -1.5821e-008   
  -1.5            -1.6369e-009    -0.00094675     1.5398e-008    
  -1.55           2.5918e-009     -0.00106008     -1.3614e-008   
  -1.6            2.6696e-009     -0.0011727      1.9027e-008    
  -1.65           1.049e-010      -0.0012858      8.162e-009     
  -1.7            -1.9972e-009    -0.0014033      1.2234e-008    
  -1.75           1.6133e-009     -0.001526       -1.7755e-008   
  -1.8            8.275e-010      -0.001646       8.955e-009     
END_DB

BEGIN_DB
 ICCAP_VAR VS         0              
 ICCAP_VAR VB         1.8            
 ICCAP_VAR VD         -0.1           

 #VG              IG              ID              IB             
  0               1.864e-010      -1.284e-009     -1.7187e-008   
  -0.05           1.3221e-009     3.5458e-009     8.724e-009     
  -0.1            -2.6166e-009    -3.56e-010      6.831e-009     
  -0.15           2.341e-009      -1.0929e-009    -1.7146e-008   
  -0.2            -2.2399e-009    8.856e-010      1.3266e-008    
  -0.25           2.5082e-009     -8.674e-010     -1.6805e-008   
  -0.3            -1.517e-010     3.6265e-009     7.949e-009     
  -0.35           -2.5803e-009    -3.9e-012       8.368e-009     
  -0.4            1.9006e-009     -2.8855e-009    -1.5e-008      
  -0.45           -2.0642e-009    2.5731e-009     2.0768e-008    
  -0.5            2.3508e-009     -1.2343e-009    -1.707e-008    
  -0.55           -2.2523e-009    1.869e-010      1.3119e-008    
  -0.6            2.5181e-009     -3.7849e-009    -1.6757e-008   
  -0.65           -2.6026e-009    -1.461e-008     -1.7072e-008   
  -0.7            1.6715e-009     -5.2063e-008    -1.8853e-008   
  -0.75           -2.5805e-009    -1.8001e-007    9.805e-009     
  -0.8            2.5957e-009     -5.7859e-007    -1.3703e-008   
  -0.85           -2.0641e-009    -1.5643e-006    -1.6252e-008   
  -0.9            2.6808e-009     -3.7492e-006    -1.9322e-008   
  -0.95           1.004e-010      -7.6366e-006    8.048e-009     
  -1              3.756e-010      -1.4087e-005    -1.6301e-008   
  -1.05           -1.5889e-009    -2.3233e-005    1.5479e-008    
  -1.1            2.5658e-009     -3.5502e-005    -1.4565e-008   
  -1.15           -1.8041e-009    -4.9223e-005    1.3902e-008    
  -1.2            2.7047e-009     -6.5347e-005    -1.4137e-008   
  -1.25           1.4913e-009     -8.2253e-005    8.402e-009     
  -1.3            -1.4203e-009    -9.8438e-005    1.4442e-008    
  -1.35           6.538e-010      -0.00011535     1.6687e-008    
  -1.4            -2.6119e-009    -0.00013144     5.87e-009      
  -1.45           2.7118e-009     -0.00014734     -1.61e-008     
  -1.5            1.4365e-009     -0.00016235     7.249e-009     
  -1.55           -1.4926e-009    -0.00017563     1.6392e-008    
  -1.6            2.4969e-009     -0.00018921     -1.5708e-008   
  -1.65           -1.7002e-009    -0.00020111     1.4898e-008    
  -1.7            2.6184e-009     -0.00021298     -1.2736e-008   
  -1.75           -1.9214e-009    -0.00022347     1.2934e-008    
  -1.8            1.5403e-009     -0.00023368     -1.6533e-008   
END_DB

BEGIN_DB
 ICCAP_VAR VS         0              
 ICCAP_VAR VB         1.8            
 ICCAP_VAR VD         -1.8           

 #VG              IG              ID              IB             
  0               3.493e-010      -9.58e-010      -5.576e-009    
  -0.05           -1.8808e-009    1.23e-009       1.6599e-008    
  -0.1            2.1626e-009     -1.2609e-009    -1.7299e-008   
  -0.15           -2.0815e-009    1.037e-009      1.5052e-008    
  -0.2            2.3624e-009     -1.0579e-009    -1.729e-008    
  -0.25           -2.2513e-009    8.099e-010      1.2926e-008    
  -0.3            2.5182e-009     -9.876e-010     -1.653e-008    
  -0.35           -1.703e-010     2.9376e-009     7.953e-009     
  -0.4            -2.5948e-009    -4.1246e-009    8.243e-009     
  -0.45           -1.8841e-009    -1.1682e-008    6.603e-009     
  -0.5            2.7075e-009     -3.8915e-008    -1.5953e-008   
  -0.55           -2.0558e-009    -1.2949e-007    1.794e-008     
  -0.6            2.6645e-009     -4.1908e-007    -1.9465e-008   
  -0.65           -2.0506e-009    -1.1996e-006    -1.5526e-008   
  -0.7            2.665e-009      -3.1628e-006    -1.9251e-008   
  -0.75           9.1e-011        -7.1542e-006    8.083e-009     
  -0.8            3.594e-010      -1.4848e-005    -1.5594e-008   
  -0.85           -1.6129e-009    -2.7705e-005    1.6224e-008    
  -0.9            2.5525e-009     -4.8252e-005    -1.3702e-008   
  -0.95           -1.8174e-009    -7.5561e-005    1.4445e-008    
  -1              7.493e-010      -0.00011301     -1.6514e-008   
  -1.05           2.6397e-009     -0.00015986     -6.885e-009    
  -1.1            9.231e-010      -0.00021492     9.195e-009     
  -1.15           -2.582e-009     -0.00027749     7.565e-009     
  -1.2            2.5472e-009     -0.00035177     -1.3586e-008   
  -1.25           -1.8125e-009    -0.00042865     1.4607e-008    
  -1.3            2.6962e-009     -0.00051682     -1.4054e-008   
  -1.35           1.4942e-009     -0.00060999     7.715e-009     
  -1.4            -1.4303e-009    -0.00070288     1.5062e-008    
  -1.45           2.399e-009      -0.00080725     -1.5738e-008   
  -1.5            -1.5985e-009    -0.00090972     1.6151e-008    
  -1.55           2.5446e-009     -0.00102188     -1.3952e-008   
  -1.6            -1.8047e-009    -0.00113057     1.4384e-008    
  -1.65           -1.8205e-009    -0.0012451      -1.5938e-008   
  -1.7            2.6979e-009     -0.0013649      -1.4751e-008   
  -1.75           1.4892e-009     -0.0014862      8.258e-009     
  -1.8            -1.4362e-009    -0.0016019      1.499e-008     
END_DB

