! VERSION = 6.00
BEGIN_HEADER
 ICCAP_INPUTS
  VG         V  B GROUND SMU4 0.001 LIN        2    0          -1.8       6    -0.36     
  VS         V  E GROUND SMU2 0.1 CON        0
  VD         V  S GROUND SMU1 0.1 LIN        1    0          -1.8       37   -0.05     
  VB         V  C GROUND SMU3 0.1 LIN        3    0          0.9        2    0.9       
 ICCAP_OUTPUTS
  ID         I  S GROUND SMU1 B
  IB         I  C GROUND SMU3 B
  IG         I  B GROUND SMU4 B
END_HEADER

BEGIN_DB
 ICCAP_VAR VG         0              
 ICCAP_VAR VS         0              
 ICCAP_VAR VB         0              

 #VD              ID              IB              IG             
  0               -1.1068e-009    -1.2142e-008    -1.2706e-009   
  -0.05           -1.9354e-009    -1.0421e-008    5.39e-011      
  -0.1            -1.0332e-009    -2.5089e-008    1.4727e-009    
  -0.15           2.3338e-009     -8.767e-009     9.09e-010      
  -0.2            2.279e-009      9.918e-009      1.062e-009     
  -0.25           2.1631e-009     1.0377e-008     1.2299e-009    
  -0.3            1.9573e-009     9.972e-009      -1.883e-010    
  -0.35           9.155e-010      2.4613e-008     -1.5395e-009   
  -0.4            -1.4417e-009    7.531e-009      -1.7608e-009   
  -0.45           -1.5855e-009    -1.7591e-008    1.9873e-009    
  -0.5            1.8601e-009     -8.292e-009     1.521e-009     
  -0.55           2.1037e-009     9.545e-009      9.83e-011      
  -0.6            2.2159e-009     9.933e-009      2.912e-010     
  -0.65           2.297e-009      1.0614e-008     4.761e-010     
  -0.7            2.3473e-009     1.0794e-008     6.651e-010     
  -0.75           2.3442e-009     1.0431e-008     8.401e-010     
  -0.8            2.3092e-009     9.862e-009      9.98e-010      
  -0.85           2.2189e-009     1.0161e-008     1.1568e-009    
  -0.9            2.0708e-009     1.0789e-008     1.3275e-009    
  -0.95           1.8568e-009     1.1769e-008     1.5034e-009    
  -1              2.0949e-009     9.607e-009      7.86e-011      
  -1.05           2.2072e-009     9.871e-009      2.741e-010     
  -1.1            2.2895e-009     1.0597e-008     4.667e-010     
  -1.15           2.3403e-009     1.0868e-008     6.514e-010     
  -1.2            2.3453e-009     1.0303e-008     8.277e-010     
  -1.25           2.3113e-009     9.938e-009      9.876e-010     
  -1.3            2.2267e-009     1.0881e-008     1.1462e-009    
  -1.35           2.0832e-009     1.1814e-008     1.316e-009     
  -1.4            1.9978e-009     9.733e-009      -1.066e-010    
  -1.45           2.092e-009      9.531e-009      7.23e-011      
  -1.5            2.2013e-009     9.863e-009      2.569e-010     
  -1.55           2.2804e-009     1.0343e-008     4.483e-010     
  -1.6            2.3355e-009     1.0456e-008     6.392e-010     
  -1.65           2.3421e-009     1.0459e-008     8.16e-010      
  -1.7            2.313e-009      9.882e-009      9.822e-010     
  -1.75           2.2332e-009     1.0015e-008     1.137e-009     
  -1.8            2.0872e-009     1.0607e-008     1.307e-009     
END_DB

BEGIN_DB
 ICCAP_VAR VG         -0.36          
 ICCAP_VAR VS         0              
 ICCAP_VAR VB         0              

 #VD              ID              IB              IG             
  0               2.816e-010      1.0051e-008     9.4e-011       
  -0.05           -2.2651e-009    -1.8181e-008    2.4929e-009    
  -0.1            -1.5698e-009    -3.754e-009     2.2084e-009    
  -0.15           -1.9398e-009    -6.112e-009     1.9002e-009    
  -0.2            -2.2841e-009    -8.601e-009     1.6137e-009    
  -0.25           -2.609e-009     -8.773e-009     1.4051e-009    
  -0.3            -2.9501e-009    -8.807e-009     1.2808e-009    
  -0.35           -3.2983e-009    -9.444e-009     2.8279e-009    
  -0.4            -2.1071e-009    1.2347e-008     1.7828e-009    
  -0.45           -1.5865e-009    1.0179e-008     3.636e-010     
  -0.5            -1.7638e-009    1.0374e-008     5.585e-010     
  -0.55           -1.9451e-009    1.0264e-008     7.32e-010      
  -0.6            -2.1849e-009    1.0031e-008     9e-010         
  -0.65           -2.4598e-009    1.0214e-008     1.058e-009     
  -0.7            -2.7909e-009    1.1346e-008     1.221e-009     
  -0.75           -3.1763e-009    1.0181e-008     -1.955e-010    
  -0.8            -3.325e-009     9.688e-009      -2.63e-011     
  -0.85           -3.4755e-009    9.599e-009      1.504e-010     
  -0.9            -3.6128e-009    1.0172e-008     3.353e-010     
  -0.95           -3.8245e-009    1.024e-008      5.297e-010     
  -1              -4.0396e-009    1.0292e-008     7.159e-010     
  -1.05           -4.2727e-009    1.0134e-008     8.787e-010     
  -1.1            -4.5908e-009    1.0051e-008     1.0394e-009    
  -1.15           -4.9434e-009    1.114e-008      1.1995e-009    
  -1.2            -5.3987e-009    1.0096e-008     -2.169e-010    
  -1.25           -6.6853e-009    2.4232e-008     -1.5671e-009   
  -1.3            -8.2366e-009    7.143e-009      -1.433e-009    
  -1.35           -8.3891e-009    8.344e-009      -1.3671e-009   
  -1.4            -8.6094e-009    8.867e-009      -1.3347e-009   
  -1.45           -8.7945e-009    8.523e-009      -1.3123e-009   
  -1.5            -8.9251e-009    7.835e-009      -1.2935e-009   
  -1.55           -1.0516e-008    -2.497e-008     -2.6461e-009   
  -1.6            -1.0899e-008    1.02e-008       -1.7482e-009   
  -1.65           -1.093e-008     1.2377e-008     -1.3232e-009   
  -1.7            -1.1234e-008    1.0407e-008     -1.3053e-009   
  -1.75           -1.1509e-008    1.0204e-008     -1.2915e-009   
  -1.8            -1.187e-008     9.939e-009      -2.5794e-009   
END_DB

BEGIN_DB
 ICCAP_VAR VG         -0.72          
 ICCAP_VAR VS         0              
 ICCAP_VAR VB         0              

 #VD              ID              IB              IG             
  0               -9.443e-010     5.414e-009      -1.194e-010    
  -0.05           -3.49e-007      -1.3084e-008    2.4858e-009    
  -0.1            -5.6499e-007    -1.0162e-008    -4.74e-010     
  -0.15           -6.9118e-007    1.7598e-008     -1.725e-009    
  -0.2            -7.8011e-007    1.0216e-008     6.092e-010     
  -0.25           -8.5591e-007    -2.0231e-008    1.6005e-009    
  -0.3            -9.0255e-007    -1.0747e-008    -8.309e-010    
  -0.35           -9.4549e-007    2.3417e-008     -1.4329e-009   
  -0.4            -9.9633e-007    1.046e-008      9.257e-010     
  -0.45           -1.04418e-006   -2.4929e-008    1.2881e-009    
  -0.5            -1.08222e-006   -2.7049e-008    2.4414e-009    
  -0.55           -1.11592e-006   -1.0323e-008    -2.598e-010    
  -0.6            -1.1468e-006    -9.58e-010      -1.8641e-009   
  -0.65           -1.1756e-006    9.682e-009      3.585e-010     
  -0.7            -1.224e-006     -1.7639e-008    2.1851e-009    
  -0.75           -1.2553e-006    -1.0295e-008    -3.016e-010    
  -0.8            -1.2749e-006    1.2018e-008     -2.1352e-009   
  -0.85           -1.3249e-006    1.2321e-008     1.7788e-009    
  -0.9            -1.3572e-006    -1.8179e-008    1.6377e-009    
  -0.95           -1.3814e-006    -1.0629e-008    -6.729e-010    
  -1              -1.4046e-006    1.8514e-008     -1.6672e-009   
  -1.05           -1.4469e-006    1.2159e-008     2.1063e-009    
  -1.1            -1.4893e-006    -1.2084e-008    1.591e-010     
  -1.15           -1.4976e-006    8.521e-009      -1.2877e-009   
  -1.2            -1.5531e-006    1.1664e-008     1.5369e-009    
  -1.25           -1.5825e-006    -1.3194e-008    2.7257e-009    
  -1.3            -1.6133e-006    -2.5463e-008    1.2627e-009    
  -1.35           -1.6443e-006    -2.6927e-008    2.5421e-009    
  -1.4            -1.6764e-006    -1.0807e-008    -4.53e-011     
  -1.45           -1.6845e-006    8.191e-009      -2.4366e-009   
  -1.5            -1.7429e-006    1.1782e-008     1.54e-009      
  -1.55           -1.7729e-006    -1.3474e-008    2.7164e-009    
  -1.6            -1.8033e-006    -2.5478e-008    1.26e-009      
  -1.65           -1.8337e-006    -2.6926e-008    1.2151e-009    
  -1.7            -1.8644e-006    -2.6736e-008    2.3129e-009    
  -1.75           -1.8965e-006    -1.8162e-008    2.0576e-009    
  -1.8            -1.9292e-006    -1.9477e-008    1.7983e-009    
END_DB

BEGIN_DB
 ICCAP_VAR VG         -1.08          
 ICCAP_VAR VS         0              
 ICCAP_VAR VB         0              

 #VD              ID              IB              IG             
  0               -7.7163e-010    -1.9858e-008    3.36e-010      
  -0.05           -2.0879e-006    -1.8514e-008    -2.7045e-009   
  -0.1            -3.8357e-006    1.0672e-008     8.73e-010      
  -0.15           -5.2885e-006    -2.2112e-008    1.4274e-009    
  -0.2            -6.4638e-006    -1.4175e-008    1.4006e-009    
  -0.25           -7.4075e-006    -1.3711e-008    2.407e-010     
  -0.3            -8.1162e-006    8.802e-009      -1.2948e-009   
  -0.35           -8.7905e-006    1.1067e-008     1.4295e-009    
  -0.4            -9.2845e-006    -1.1601e-008    2.7896e-009    
  -0.45           -9.7122e-006    -1.2532e-008    1.766e-010     
  -0.5            -1.00108e-005   8.695e-009      -1.2877e-009   
  -0.55           -1.04193e-005   1.1591e-008     1.5128e-009    
  -0.6            -1.06954e-005   -1.2934e-008    2.7358e-009    
  -0.65           -1.09618e-005   -1.1736e-008    1.113e-010     
  -0.7            -1.1121e-005    -2.97e-010      -1.5088e-009   
  -0.75           -1.1408e-005    1.0185e-008     1.0457e-009    
  -0.8            -1.1642e-005    -1.1195e-008    2.7992e-009    
  -0.85           -1.1839e-005    -1.0642e-008    -1.073e-010    
  -0.9            -1.1967e-005    1.5918e-008     -1.8369e-009   
  -0.95           -1.2191e-005    1.0322e-008     7.799e-010     
  -1              -1.2415e-005    -2.6029e-008    1.2492e-009    
  -1.05           -1.2571e-005    -1.0391e-008    -3.414e-010    
  -1.1            -1.2691e-005    1.9777e-008     -1.5891e-009   
  -1.15           -1.2912e-005    1.023e-008      9.67e-010      
  -1.2            -1.3094e-005    -2.6856e-008    2.4168e-009    
  -1.25           -1.3231e-005    -1.0359e-008    -5.709e-010    
  -1.3            -1.3343e-005    2.3293e-008     -1.4327e-009   
  -1.35           -1.358e-005     9.985e-009      1.1465e-009    
  -1.4            -1.3747e-005    -1.3233e-008    2.7457e-009    
  -1.45           -1.3885e-005    -1.8053e-008    2.0433e-009    
  -1.5            -1.4043e-005    -1.4818e-008    1.446e-009     
  -1.55           -1.4186e-005    -2.6711e-008    2.3711e-009    
  -1.6            -1.433e-005     -1.9495e-008    1.7031e-009    
  -1.65           -1.4423e-005    -1.0826e-008    -9.881e-010    
  -1.7            -1.4544e-005    2.7561e-008     -1.3282e-009   
  -1.75           -1.4813e-005    1.0702e-008     1.5724e-009    
  -1.8            -1.4924e-005    -1.4523e-008    1.4356e-009    
END_DB

BEGIN_DB
 ICCAP_VAR VG         -1.44          
 ICCAP_VAR VS         0              
 ICCAP_VAR VB         0              

 #VD              ID              IB              IG             
  0               -1.1413e-009    1.0341e-008     8.837e-010     
  -0.05           -4.2061e-006    -1.0756e-008    -1.3373e-009   
  -0.1            -8.0952e-006    1.0206e-008     1.132e-009     
  -0.15           -1.1644e-005    -2.1179e-008    9.855e-010     
  -0.2            -1.4881e-005    -2.6669e-008    2.3717e-009    
  -0.25           -1.7786e-005    -1.9596e-008    1.7039e-009    
  -0.3            -2.0386e-005    -1.1956e-008    1.376e-010     
  -0.35           -2.26e-005      1.0684e-008     -2.2474e-009   
  -0.4            -2.4657e-005    1.2778e-008     2.0662e-009    
  -0.45           -2.6414e-005    -2.1733e-008    1.4333e-009    
  -0.5            -2.7925e-005    -1.7413e-008    2.1393e-009    
  -0.55           -2.9251e-005    -1.6041e-008    1.5069e-009    
  -0.6            -3.0386e-005    -2.6946e-008    2.4452e-009    
  -0.65           -3.1401e-005    -2.0826e-008    1.7813e-009    
  -0.7            -3.2319e-005    -1.2586e-008    1.765e-010     
  -0.75           -3.2997e-005    9.758e-009      -2.3104e-009   
  -0.8            -3.3814e-005    1.2644e-008     2.0166e-009    
  -0.85           -3.4477e-005    -2.0989e-008    1.4937e-009    
  -0.9            -3.5073e-005    -1.1078e-008    8.8e-012       
  -0.95           -3.5507e-005    1.3263e-008     -2.0176e-009   
  -1              -3.6073e-005    1.042e-008      6.559e-010     
  -1.05           -3.6624e-005    -2.4548e-008    1.3104e-009    
  -1.1            -3.7075e-005    -1.9069e-008    1.8695e-009    
  -1.15           -3.7524e-005    -1.313e-008     2.161e-010     
  -1.2            -3.7805e-005    8.734e-009      -2.3766e-009   
  -1.25           -3.8246e-005    9.76e-009       3.8e-010       
  -1.3            -3.8724e-005    -2.0399e-008    1.552e-009     
  -1.35           -3.9112e-005    -1.135e-008     5.17e-011      
  -1.4            -3.9335e-005    1.2203e-008     -2.0927e-009   
  -1.45           -3.9741e-005    1.0177e-008     5.979e-010     
  -1.5            -4.0169e-005    -2.3942e-008    1.3435e-009    
  -1.55           -4.0497e-005    -1.8464e-008    1.9599e-009    
  -1.6            -4.0837e-005    -1.4033e-008    1.398e-009     
  -1.65           -4.1158e-005    -1.0904e-008    -6.85e-011     
  -1.7            -4.1344e-005    1.4896e-008     -1.889e-009    
  -1.75           -4.1727e-005    1.0308e-008     7.374e-010     
  -1.8            -4.2099e-005    -2.5603e-008    1.2685e-009    
END_DB

BEGIN_DB
 ICCAP_VAR VG         -1.8           
 ICCAP_VAR VS         0              
 ICCAP_VAR VB         0              

 #VD              ID              IB              IG             
  0               -1.2455e-009    1.0386e-008     -1.0271e-009   
  -0.05           -5.8413e-006    1.0258e-008     2.8582e-009    
  -0.1            -1.142e-005     -1.7891e-008    1.4496e-009    
  -0.15           -1.6741e-005    -1.6843e-008    1.5647e-009    
  -0.2            -2.177e-005     -2.6949e-008    2.5062e-009    
  -0.25           -2.6553e-005    -2.2037e-008    1.8655e-009    
  -0.3            -3.103e-005     -1.3239e-008    2.132e-010     
  -0.35           -3.5121e-005    8.929e-009      -2.3682e-009   
  -0.4            -3.9011e-005    9.8e-009        3.821e-010     
  -0.45           -4.2603e-005    -2.0427e-008    1.5453e-009    
  -0.5            -4.586e-005     -2.6873e-008    2.485e-009     
  -0.55           -4.8824e-005    -2.1412e-008    1.8142e-009    
  -0.6            -5.152e-005     -1.2916e-008    1.974e-010     
  -0.65           -5.3835e-005    9.41e-009       -2.3345e-009   
  -0.7            -5.618e-005     1.2725e-008     1.9978e-009    
  -0.75           -5.8164e-005    -2.0565e-008    1.5104e-009    
  -0.8            -5.9945e-005    -1.1218e-008    2.04e-011      
  -0.85           -6.1432e-005    1.2786e-008     -2.0481e-009   
  -0.9            -6.2929e-005    1.0358e-008     6.399e-010     
  -0.95           -6.4304e-005    -2.4353e-008    1.3188e-009    
  -1              -6.5467e-005    -1.0609e-008    -1.785e-010    
  -1.05           -6.6439e-005    1.7352e-008     -1.7443e-009   
  -1.1            -6.7491e-005    1.0326e-008     8.462e-010     
  -1.15           -6.8377e-005    -2.6693e-008    1.2279e-009    
  -1.2            -6.9267e-005    -1.026e-008     -4.19e-010     
  -1.25           -6.9916e-005    2.1274e-008     -1.5212e-009   
  -1.3            -7.0831e-005    1.0039e-008     1.0354e-009    
  -1.35           -7.1491e-005    -2.6266e-008    2.2796e-009    
  -1.4            -7.215e-005     -1.0669e-008    -6.614e-010    
  -1.45           -7.2698e-005    2.486e-008      -1.4019e-009   
  -1.5            -7.3484e-005    9.833e-009      1.2246e-009    
  -1.55           -7.4055e-005    -1.4426e-008    2.6577e-009    
  -1.6            -7.4624e-005    -1.8858e-008    1.877e-009     
  -1.65           -7.5171e-005    -1.3286e-008    2.183e-010     
  -1.7            -7.5528e-005    8.888e-009      -2.3809e-009   
  -1.75           -7.6044e-005    9.744e-009      3.732e-010     
  -1.8            -7.6733e-005    -2.0409e-008    1.5575e-009    
END_DB

BEGIN_DB
 ICCAP_VAR VG         0              
 ICCAP_VAR VS         0              
 ICCAP_VAR VB         0.9            

 #VD              ID              IB              IG             
  0               1.0477e-009     8.639e-009      1.1437e-009    
  -0.05           2.3265e-009     2.32e-010       6.226e-010     
  -0.1            2.3444e-009     1.012e-008      8.022e-010     
  -0.15           2.3237e-009     9.841e-009      9.734e-010     
  -0.2            2.2357e-009     1.0005e-008     1.1394e-009    
  -0.25           2.0878e-009     1.0749e-008     1.3186e-009    
  -0.3            2.0067e-009     9.921e-009      -9.7e-011      
  -0.35           9.936e-010      2.6177e-008     -1.4618e-009   
  -0.4            -1.3322e-009    8.326e-009      -1.8365e-009   
  -0.45           -1.633e-009     -1.468e-008     1.7642e-009    
  -0.5            2.3408e-009     -9.027e-009     7.124e-010     
  -0.55           2.3397e-009     1.0134e-008     8.868e-010     
  -0.6            2.2932e-009     9.803e-009      1.0529e-009    
  -0.65           2.1737e-009     1.0322e-008     1.2245e-009    
  -0.7            1.9656e-009     1.0097e-008     -1.807e-010    
  -0.75           2.0533e-009     9.673e-009      -6e-013        
  -0.8            1.0633e-009     2.7136e-008     -1.4133e-009   
  -0.85           -1.2672e-009    8.491e-009      -1.88e-009     
  -0.9            -1.6709e-009    -1.3414e-008    1.6327e-009    
  -0.95           2.3473e-009     -9.037e-009     7.976e-010     
  -1              2.3247e-009     9.828e-009      9.674e-010     
  -1.05           2.2467e-009     1.0008e-008     1.1397e-009    
  -1.1            2.0929e-009     1.0607e-008     1.3106e-009    
  -1.15           2.0029e-009     9.908e-009      -1.041e-010    
  -1.2            2.0946e-009     9.639e-009      8.12e-011      
  -1.25           2.2086e-009     1.0019e-008     2.801e-010     
  -1.3            2.2893e-009     1.0362e-008     4.736e-010     
  -1.35           2.3383e-009     1.0352e-008     6.695e-010     
  -1.4            2.3439e-009     1.0115e-008     8.502e-010     
  -1.45           2.3051e-009     9.952e-009      1.0181e-009    
  -1.5            2.1995e-009     1.115e-008      1.1856e-009    
  -1.55           1.944e-009      1.0202e-008     -2.212e-010    
  -1.6            8.977e-010      2.4445e-008     -1.5673e-009   
  -1.65           -1.4604e-009    7.252e-009      -1.753e-009    
  -1.7            -1.5835e-009    -1.7832e-008    2.0036e-009    
  -1.75           2.3149e-009     -8.255e-009     5.648e-010     
  -1.8            2.3452e-009     1.0493e-008     7.573e-010     
END_DB

BEGIN_DB
 ICCAP_VAR VG         -0.36          
 ICCAP_VAR VS         0              
 ICCAP_VAR VB         0.9            

 #VD              ID              IB              IG             
  0               -1.3214e-009    9.967e-009      -1.3504e-009   
  -0.05           -1.5973e-009    -1.6987e-008    1.957e-009     
  -0.1            2.308e-009      -8.434e-009     5.932e-010     
  -0.15           2.3371e-009     1.0436e-008     7.874e-010     
  -0.2            2.3123e-009     9.946e-009      9.601e-010     
  -0.25           2.2288e-009     1.0045e-008     1.1258e-009    
  -0.3            2.0791e-009     1.0607e-008     1.3062e-009    
  -0.35           1.9819e-009     9.988e-009      -1.046e-010    
  -0.4            2.0731e-009     9.703e-009      8.24e-011      
  -0.45           2.1775e-009     9.92e-009       2.736e-010     
  -0.5            2.2591e-009     1.0573e-008     4.838e-010     
  -0.55           2.3153e-009     1.0646e-008     6.791e-010     
