! VERSION = 6.00
BEGIN_HEADER
 ICCAP_INPUTS
  VG         V  B GROUND SMU4 0.001 LIN        1    0          -1.8       37   -0.05     
  VS         V  E GROUND SMU2 0.1 CON        0
  VB         V  C GROUND SMU3 0.1 LIN        3    0          1.8        3    0.9       
  VD         V  S GROUND SMU1 0.1 LIN        2    -0.1       -1.8       2    -1.7      
 ICCAP_OUTPUTS
  IG         I  B GROUND SMU4 B
  ID         I  S GROUND SMU1 B
  IB         I  C GROUND SMU3 B
END_HEADER

BEGIN_DB
 ICCAP_VAR VS         0              
 ICCAP_VAR VB         0              
 ICCAP_VAR VD         -0.1           

 #VG              IG              ID              IB             
  0               1.614e-010      -6.008e-010     -1.9818e-008   
  -0.05           2.6302e-009     -4.354e-010     -1.6762e-008   
  -0.1            1.0962e-009     2.2766e-009     -2.71e-009     
  -0.15           1.2448e-009     2.1507e-009     1.0636e-008    
  -0.2            -1.664e-010     1.9018e-009     1.0232e-008    
  -0.25           -1.41e-011      1.9343e-009     9.905e-009     
  -0.3            1.548e-010      1.9652e-009     9.911e-009     
  -0.35           3.37e-010       1.9129e-009     1.0426e-008    
  -0.4            -1.2932e-009    -9.42e-009      -1.0646e-008   
  -0.45           -2.3648e-009    -4.0069e-008    8.674e-009     
  -0.5            2.3331e-009     -9.2033e-008    -1.0808e-008   
  -0.55           2.3444e-009     -1.4269e-007    -5.455e-009    
  -0.6            1.63e-009       -2.017e-008     -5.209e-009    
  -0.65           2.7377e-009     -1.0432e-007    -9.058e-009    
  -0.7            -1.5783e-009    -3.1623e-008    1.0679e-008    
  -0.75           1.0076e-009     -1.6638e-007    9.621e-009     
  -0.8            1.3926e-009     -2.7645e-007    1.1175e-008    
  -0.85           2.255e-010      -6.6675e-007    9.966e-009     
  -0.9            -3.1e-010       -1.2708e-006    6.122e-009     
  -0.95           -1.9756e-009    -7.238e-007     9.973e-009     
  -1              2.5584e-009     -1.7726e-006    -2.7145e-008   
  -1.05           1.865e-009      -1.4073e-006    -3.24e-009     
  -1.1            1.3471e-009     -1.9375e-006    -9.035e-009    
  -1.15           2.8464e-009     -2.5257e-006    -9.327e-009    
  -1.2            2.7561e-009     -2.8726e-006    2.28e-010      
  -1.25           1.4283e-009     -3.4565e-006    1.0315e-008    
  -1.3            2.614e-010      -4.1472e-006    9.891e-009     
  -1.35           7.044e-010      -4.6432e-006    1.0656e-008    
  -1.4            1.0696e-009     -5.1657e-006    9.983e-009     
  -1.45           1.4647e-009     -5.7725e-006    1.0475e-008    
  -1.5            3.022e-010      -6.3516e-006    9.761e-009     
  -1.55           7.403e-010      -6.9219e-006    1.0671e-008    
  -1.6            1.1018e-009     -7.4302e-006    9.881e-009     
  -1.65           1.4993e-009     -7.9838e-006    1.0704e-008    
  -1.7            3.367e-010      -8.509e-006     9.76e-009      
  -1.75           7.761e-010      -9.0089e-006    1.0631e-008    
  -1.8            1.1326e-009     -9.4659e-006    9.721e-009     
END_DB

BEGIN_DB
 ICCAP_VAR VS         0              
 ICCAP_VAR VB         0              
 ICCAP_VAR VD         -1.8           

 #VG              IG              ID              IB             
  0               -1.4467e-009    -1.5703e-009    -7.199e-009    
  -0.05           2.3399e-009     -6.645e-010     -1.8721e-008   
  -0.1            1.3021e-009     2.1143e-009     -5.271e-009    
  -0.15           -1.4426e-009    1.8151e-009     1.2324e-008    
  -0.2            -1.8254e-009    -1.3313e-009    8.499e-009     
  -0.25           -5.502e-010     -2.2295e-009    -1.0718e-008   
  -0.3            2.3705e-009     -3.7639e-009    -1.8428e-008   
  -0.35           2.0791e-009     -3.3721e-009    -5.005e-009    
  -0.4            -1.4807e-009    -1.711e-009     -1.2531e-008   
  -0.45           -1.3371e-009    -9.968e-009     7.949e-009     
  -0.5            2.2057e-009     1.9e-010        -1.3892e-008   
  -0.55           1.5423e-009     -1.299e-008     -6.389e-009    
  -0.6            2.7723e-009     -9.047e-008     -8.989e-009    
  -0.65           -2.6051e-009    -1.5334e-008    1.0669e-008    
  -0.7            -2.4283e-009    -4.0466e-008    -1.3096e-008   
  -0.75           1.565e-010      -2.5246e-007    1.4572e-008    
  -0.8            -2.6979e-009    -2.01e-007      1.0376e-008    
  -0.85           1.9484e-009     -2.2062e-006    -1.843e-008    
  -0.9            1.3751e-009     -1.1207e-006    -8.543e-009    
  -0.95           2.8361e-009     -2.2814e-006    -9.084e-009    
  -1              2.7719e-009     -1.7571e-006    3.7e-010       
  -1.05           1.3969e-009     -3.1526e-006    1.0266e-008    
  -1.1            2.294e-010      -5.8834e-006    9.928e-009     
  -1.15           6.739e-010      -5.8871e-006    1.056e-008     
  -1.2            8.41e-010       -1.0373e-005    -1.897e-008    
  -1.25           2.7761e-009     -1.1529e-005    -1.2504e-008   
  -1.3            1.4042e-009     -1.118e-005     1.1263e-008    
  -1.35           2.349e-010      -1.5412e-005    9.862e-009     
  -1.4            6.803e-010      -1.6545e-005    1.0459e-008    
  -1.45           1.0474e-009     -1.9061e-005    9.832e-009     
  -1.5            1.4374e-009     -2.2328e-005    1.1513e-008    
  -1.55           2.701e-010      -2.7448e-005    9.827e-009     
  -1.6            7.15e-010       -2.97e-005      1.0598e-008    
  -1.65           1.0791e-009     -3.3137e-005    9.938e-009     
  -1.7            1.4698e-009     -3.7312e-005    1.0567e-008    
  -1.75           3.1e-010        -4.2976e-005    9.811e-009     
  -1.8            7.448e-010      -4.6209e-005    1.0325e-008    
END_DB

BEGIN_DB
 ICCAP_VAR VS         0              
 ICCAP_VAR VB         0.9            
 ICCAP_VAR VD         -0.1           

 #VG              IG              ID              IB             
  0               -9.249e-010     -8.684e-010     -2.6414e-008   
  -0.05           -1.8078e-009    -1.3512e-009    8.386e-009     
  -0.1            -5.129e-010     -2.1923e-009    -1.0728e-008   
  -0.15           2.4367e-009     -1.4442e-009    -2.3907e-008   
  -0.2            1.2367e-009     2.1667e-009     -4.374e-009    
  -0.25           -1.784e-010     1.9348e-009     1.0215e-008    
  -0.3            -1.76e-011      2.0073e-009     9.888e-009     
  -0.35           1.43e-010       2.0925e-009     9.863e-009     
  -0.4            3.268e-010      2.1827e-009     1.0359e-008    
  -0.45           5.057e-010      2.2511e-009     1.0276e-008    
  -0.5            6.734e-010      2.2698e-009     1.0215e-008    
  -0.55           -1.3267e-009    -2.8821e-009    9.923e-009     
  -0.6            2.0813e-009     -1.9378e-008    -2.7336e-008   
  -0.65           1.4407e-009     -2.56e-010      -7.75e-009     
  -0.7            2.8116e-009     -1.6545e-008    -8.837e-009    
  -0.75           1.65e-011       -1.6392e-007    8.485e-009     
  -0.8            2.8244e-009     -9.6803e-008    1.0248e-008    
  -0.85           -1.3802e-009    -8.808e-008     9.801e-009     
  -0.9            -1.305e-009     -2.931e-007     8.704e-009     
  -0.95           -2.5083e-009    -6.3078e-007    7.589e-009     
  -1              -6.303e-010     -3.4619e-007    -1.0715e-008   
  -1.05           4.752e-010      -1.0574e-006    -9.146e-009    
  -1.1            -1.2742e-009    -7.828e-007     1.2699e-008    
  -1.15           1.7288e-009     -1.5527e-006    -1.921e-008    
  -1.2            1.2893e-009     -1.3142e-006    -9.269e-009    
  -1.25           2.8568e-009     -1.8767e-006    -9.75e-009     
  -1.3            2.6786e-009     -2.008e-006     -1.65e-010     
  -1.35           5.9e-010        -2.6491e-006    1.0336e-008    
  -1.4            9.737e-010      -3.0852e-006    1.0126e-008    
  -1.45           1.351e-009      -3.649e-006     1.1049e-008    
  -1.5            1.7659e-009     -4.2503e-006    1.2839e-008    
  -1.55           6.268e-010      -4.8202e-006    1.0431e-008    
  -1.6            1.0054e-009     -5.3243e-006    9.976e-009     
  -1.65           1.3873e-009     -5.8783e-006    1.1134e-008    
  -1.7            1.8009e-009     -6.4427e-006    1.2861e-008    
  -1.75           6.626e-010      -6.9554e-006    1.0445e-008    
  -1.8            1.0341e-009     -7.4138e-006    9.964e-009     
END_DB

BEGIN_DB
 ICCAP_VAR VS         0              
 ICCAP_VAR VB         0.9            
 ICCAP_VAR VD         -1.8           

 #VG              IG              ID              IB             
  0               8.111e-010      8.199e-010      -1.284e-008    
  -0.05           8.497e-010      2.3427e-009     -8.766e-009    
  -0.1            9.911e-010      2.324e-009      9.798e-009     
  -0.15           1.1332e-009     2.252e-009      1.098e-008     
  -0.2            1.2856e-009     2.1223e-009     1.212e-008     
  -0.25           -1.339e-010     1.954e-009      9.958e-009     
  -0.3            2.27e-011       2.0319e-009     9.674e-009     
  -0.35           1.912e-010      2.1312e-009     9.92e-009      
  -0.4            3.72e-010       2.2111e-009     1.0479e-008    
  -0.45           5.421e-010      2.2737e-009     1.0351e-008    
  -0.5            7.129e-010      2.2773e-009     1.0322e-008    
  -0.55           -1.3168e-009    -3.6289e-009    1.0127e-008    
  -0.6            1.3456e-009     -2.56e-008      -1.0949e-008   
  -0.65           2.856e-009      -1.2637e-008    -9.373e-009    
  -0.7            7.839e-010      -1.251e-007     5.7e-010       
  -0.75           -2.2472e-009    -1.9e-009       9.909e-009     
  -0.8            1.5691e-009     -3.8713e-007    -2.0215e-008   
  -0.85           1.2365e-009     -1.7478e-007    -9.074e-009    
  -0.9            2.854e-009      -6.3628e-007    -1.0292e-008   
  -0.95           -4.574e-010     -2.1099e-007    -1.9115e-008   
  -1              -2.7119e-009    -2e-007         9.703e-009     
  -1.05           2.6194e-009     -4.083e-007     -1.0986e-008   
  -1.1            6.01e-010       -1.4373e-006    1.0465e-008    
  -1.15           9.865e-010      -1.7108e-006    1.0245e-008    
  -1.2            1.36e-009       -2.5461e-006    1.0914e-008    
  -1.25           1.7737e-009     -3.4476e-006    1.2927e-008    
  -1.3            6.379e-010      -5.1455e-006    1.0455e-008    
  -1.35           1.0122e-009     -6.1461e-006    1.0233e-008    
  -1.4            -1.2968e-009    -7.3415e-006    9.931e-009     
  -1.45           2.078e-010      -1.3547e-005    -1.3214e-008   
  -1.5            -1.386e-010     -1.4712e-005    -1.0436e-008   
  -1.55           -6.242e-010     -1.575e-005     -1.0775e-008   
  -1.6            1.859e-009      -2.0713e-005    -1.8803e-008   
  -1.65           1.3248e-009     -2.0787e-005    -9.168e-009    
  -1.7            2.8495e-009     -2.4972e-005    -9.369e-009    
  -1.75           2.7476e-009     -2.7099e-005    2e-010         
  -1.8            1.4465e-009     -3.1344e-005    1.1549e-008    
END_DB

BEGIN_DB
 ICCAP_VAR VS         0              
 ICCAP_VAR VB         1.8            
 ICCAP_VAR VD         -0.1           

 #VG              IG              ID              IB             
  0               -1.1238e-009    -9.978e-010     -1.8897e-008   
  -0.05           1.5209e-009     -1.695e-009     -1.2264e-008   
  -0.1            8.581e-010      2.3394e-009     -8.919e-009    
  -0.15           9.972e-010      2.3192e-009     9.7e-009       
  -0.2            1.1364e-009     2.2448e-009     1.1052e-008    
  -0.25           1.2899e-009     2.123e-009      1.2159e-008    
  -0.3            -1.321e-010     1.9539e-009     9.971e-009     
  -0.35           2.3e-011        2.029e-009      9.734e-009     
  -0.4            1.958e-010      2.1246e-009     9.969e-009     
  -0.45           3.678e-010      2.2098e-009     1.0461e-008    
  -0.5            5.439e-010      2.282e-009      1.0371e-008    
  -0.55           7.141e-010      2.325e-009      1.0235e-008    
  -0.6            8.614e-010      2.3229e-009     9.908e-009     
  -0.65           -1.3003e-009    4.158e-010      9.679e-009     
  -0.7            -1.2834e-009    -5.248e-009     8.021e-009     
  -0.75           2.6696e-009     -2.3356e-008    -2.4021e-008   
  -0.8            2.0482e-009     1.085e-009      -2.391e-009    
  -0.85           1.4254e-009     -3.911e-009     -7.925e-009    
  -0.9            3.58e-011       -1.7367e-007    8.364e-009     
  -0.95           2.8376e-009     -1.02758e-007   1.0611e-008    
  -1              -2.0253e-009    -1.762e-008     9.833e-009     
  -1.05           1.6252e-009     -2.9462e-008    -1.0723e-008   
  -1.1            -2.2374e-009    -9.029e-008     6.26e-010      
  -1.15           1.709e-010      -8.8088e-007    -1.2681e-008   
  -1.2            2.8071e-009     -3.025e-007     -3.528e-009    
  -1.25           -1.4473e-009    -5.364e-007     1.2655e-008    
  -1.3            2.824e-009      -1.3928e-006    -1.1041e-008   
  -1.35           1.2957e-009     -1.2692e-006    1.0303e-008    
  -1.4            1.7072e-009     -1.6762e-006    1.2589e-008    
  -1.45           5.681e-010      -2.2241e-006    1.0312e-008    
  -1.5            9.55e-010       -2.6179e-006    1.0453e-008    
  -1.55           1.3269e-009     -3.145e-006     9.965e-009     
  -1.6            1.7382e-009     -3.7159e-006    1.2508e-008    
  -1.65           5.956e-010      -4.2564e-006    1.0369e-008    
  -1.7            9.776e-010      -4.7515e-006    1.0392e-008    
  -1.75           -2.182e-010     -5.1332e-006    1.2007e-008    
  -1.8            -1.4189e-009    -5.6049e-006    2.3681e-008    
END_DB

BEGIN_DB
 ICCAP_VAR VS         0              
 ICCAP_VAR VB         1.8            
 ICCAP_VAR VD         -1.8           

 #VG              IG              ID              IB             
  0               -1.1539e-009    -1.0125e-009    -1.8726e-008   
  -0.05           1.5984e-009     -1.6749e-009    -1.2984e-008   
  -0.1            8.096e-010      2.3351e-009     -9.075e-009    
  -0.15           9.494e-010      2.3308e-009     9.683e-009     
  -0.2            1.0866e-009     2.2789e-009     1.0638e-008    
  -0.25           1.2317e-009     2.1762e-009     1.0572e-008    
  -0.3            -1.85e-010      1.9304e-009     1.0144e-008    
  -0.35           -3.7e-011       2.0015e-009     9.683e-009     
  -0.4            -1.4521e-009    9.981e-010      2.6741e-008    
  -0.45           -1.8245e-009    -1.3334e-009    8.378e-009     
  -0.5            1.845e-009      -1.626e-009     -1.5622e-008   
  -0.55           6.565e-010      2.3171e-009     -8.985e-009    
  -0.6            8.139e-010      2.3286e-009     1.0045e-008    
  -0.65           -1.3038e-009    8.6e-012        9.678e-009     
  -0.7            -1.2873e-009    -6.9499e-009    7.67e-009      
  -0.75           1.2698e-009     -2.9926e-008    -2.3056e-008   
  -0.8            2.8585e-009     -2.3138e-008    -9.774e-009    
  -0.85           7.226e-010      -1.3706e-007    7.24e-010      
  -0.9            -1.7456e-009    -2.12e-009      1.2349e-008    
  -0.95           1.2687e-009     -4.4796e-007    -2.5644e-008   
  -1              2.8579e-009     -3.7723e-007    -9.867e-009    
  -1.05           2.6519e-009     -4.804e-008     -1.51e-010     
  -1.1            2.3933e-009     -1.0152e-007    -1.2921e-008   
  -1.15           -1.889e-010     -5.2021e-007    2.6439e-008    
  -1.2            -1.4944e-009    -8.974e-007     1.0275e-008    
  -1.25           -3.058e-010     -2.24e-006      -1.0239e-008   
  -1.3            -7.843e-010     -2.1569e-006    -1.0835e-008   
  -1.35           1.6422e-009     -5.6798e-006    -1.8325e-008   
  -1.4            1.255e-009      -4.2932e-006    -9.002e-009    
  -1.45           2.8579e-009     -6.6623e-006    -9.796e-009    
  -1.5            2.6335e-009     -6.0057e-006    -3.69e-010     
  -1.55           -9.645e-010     -1.166e-005     1.7872e-008    
  -1.6            -2.5606e-009    -1.2767e-005    7.722e-009     
  -1.65           -2.0321e-009    -1.2248e-005    1.019e-009     
  -1.7            2.5595e-009     -1.8651e-005    -2.7164e-008   
  -1.75           1.8764e-009     -1.7834e-005    -3.422e-009    
  -1.8            1.346e-009      -2.1371e-005    -8.992e-009    
END_DB

