! VERSION = 6.00
BEGIN_HEADER
 ICCAP_INPUTS
  VG         V  B GROUND SMU4 0.001 LIN        1    0          -1.8       37   -0.05     
  VS         V  E GROUND SMU2 0.1 CON        0
  VB         V  C GROUND SMU3 0.1 LIN        3    0          1.8        3    0.9       
  VD         V  S GROUND SMU1 0.1 LIN        2    -0.1       -1.8       2    -1.7      
 ICCAP_OUTPUTS
  IG         I  B GROUND SMU4 B
  ID         I  S GROUND SMU1 B
  IB         I  C GROUND SMU3 B
END_HEADER

BEGIN_DB
 ICCAP_VAR VS         0              
 ICCAP_VAR VB         0              
 ICCAP_VAR VD         -0.1           

 #VG              IG              ID              IB             
  0               1.1874e-009     1.0858e-009     9.321e-009     
  -0.05           5.586e-010      2.2489e-009     1.0745e-008    
  -0.1            7.208e-010      2.2819e-009     1.0485e-008    
  -0.15           8.692e-010      2.2632e-009     1.003e-008     
  -0.2            -1.2736e-009    1.1091e-009     9.781e-009     
  -0.25           -2.6006e-009    -1.391e-009     9.111e-009     
  -0.3            -2.4622e-009    -2.4701e-009    6.38e-010      
  -0.35           -2.2596e-009    -5.4811e-009    1.346e-009     
  -0.4            2.4564e-009     -2.0989e-008    1.0353e-008    
  -0.45           1.7569e-009     -2.0031e-008    -3.86e-009     
  -0.5            2.7105e-009     -4.4121e-008    1.7067e-008    
  -0.55           2.065e-010      -2.3452e-007    6.372e-009     
  -0.6            1.3917e-009     -4.4196e-007    -2.3013e-008   
  -0.65           2.807e-009      -6.9401e-007    -8.688e-009    
  -0.7            1.7367e-009     -1.0659e-006    9.305e-009     
  -0.75           6.238e-010      -1.8525e-006    1.0529e-008    
  -0.8            9.907e-010      -2.8636e-006    1.0349e-008    
  -0.85           -1.561e-010     -4.4307e-006    1.1466e-008    
  -0.9            -1.3747e-009    -6.0118e-006    2.4899e-008    
  -0.95           -1.2911e-009    -7.6606e-006    8.999e-009     
  -1              -2.5232e-009    -9.567e-006     8.582e-009     
  -1.05           -1.1871e-009    -1.1422e-005    2.5576e-008    
  -1.1            1.78e-011       -1.335e-005     -1.1068e-008   
  -1.15           1.2573e-009     -1.5223e-005    -2.607e-008    
  -1.2            2.8339e-009     -1.6851e-005    -9.352e-009    
  -1.25           2.5561e-009     -1.8375e-005    -4.26e-010     
  -1.3            1.8977e-009     -1.9991e-005    -2.965e-009    
  -1.35           1.3614e-009     -2.1292e-005    -8.441e-009    
  -1.4            2.8115e-009     -2.2594e-005    -8.775e-009    
  -1.45           2.0546e-009     -2.3881e-005    1.2035e-008    
  -1.5            9.274e-010      -2.5032e-005    1.0598e-008    
  -1.55           1.292e-009      -2.6126e-005    9.898e-009     
  -1.6            1.7068e-009     -2.6937e-005    1.1172e-008    
  -1.65           5.964e-010      -2.7775e-005    1.0414e-008    
  -1.7            9.64e-010       -2.8651e-005    1.0562e-008    
  -1.75           -1.865e-010     -2.9476e-005    1.1831e-008    
  -1.8            2.083e-010      -3.0155e-005    9.919e-009     
END_DB

BEGIN_DB
 ICCAP_VAR VS         0              
 ICCAP_VAR VB         0              
 ICCAP_VAR VD         -1.8           

 #VG              IG              ID              IB             
  0               8.381e-010      7.232e-010      2.6759e-008    
  -0.05           1.3449e-009     5.8e-012        -8.808e-009    
  -0.1            1.2579e-009     -7.578e-010     -9.099e-009    
  -0.15           1.2134e-009     -2.5178e-009    -9.402e-009    
  -0.2            2.8389e-009     -7.1558e-009    -1.0883e-008   
  -0.25           -1.2919e-009    -1.3278e-008    -1.0368e-008   
  -0.3            -2.5731e-009    -3.7867e-008    8.866e-009     
  -0.35           -2.0642e-009    -4.2876e-008    6.78e-010      
  -0.4            -2.6151e-009    -9.311e-008     1.0379e-008    
  -0.45           -2.1845e-009    -2.1608e-007    6.31e-010      
  -0.5            1.65e-010       -6.7551e-007    -1.2085e-008   
  -0.55           2.7396e-009     -8.607e-007     -3.811e-009    
  -0.6            1.3809e-009     -1.7394e-006    1.1182e-008    
  -0.65           2.641e-010      -3.2648e-006    9.843e-009     
  -0.7            6.88e-010       -5.046e-006     1.0443e-008    
  -0.75           1.0405e-009     -7.8986e-006    9.881e-009     
  -0.8            -2.6642e-009    -1.1679e-005    1.0154e-008    
  -0.85           1.7786e-009     -1.816e-005     -1.9059e-008   
  -0.9            1.3014e-009     -2.3866e-005    -9.011e-009    
  -0.95           2.8356e-009     -3.2077e-005    -9.072e-009    
  -1              2.6818e-009     -4.0229e-005    1.26e-010      
  -1.05           5.526e-010      -5.0927e-005    1.0202e-008    
  -1.1            9.351e-010      -6.2063e-005    1.0285e-008    
  -1.15           -1.3724e-009    -7.5785e-005    1.2351e-008    
  -1.2            -1.2861e-009    -8.8646e-005    8.976e-009     
  -1.25           -2.5229e-009    -0.000103005    8.645e-009     
  -1.3            -2.3376e-009    -0.00011676     -1.0309e-008   
  -1.35           -3.947e-010     -0.00013352     -1.0335e-008   
  -1.4            2.1479e-009     -0.00015069     -2.5167e-008   
  -1.45           1.4815e-009     -0.00016598     -6.606e-009    
  -1.5            1.2239e-009     -0.00018392     -8.897e-009    
  -1.55           2.819e-009      -0.00020181     -1.0155e-008   
  -1.6            1.2449e-009     -0.00021851     1.0197e-008    
  -1.65           1.161e-010      -0.00023716     1.0001e-008    
  -1.7            5.506e-010      -0.00025444     1.0163e-008    
  -1.75           9.288e-010      -0.00027328     1.0183e-008    
  -1.8            1.2845e-009     -0.00029196     1.0493e-008    
END_DB

BEGIN_DB
 ICCAP_VAR VS         0              
 ICCAP_VAR VB         0.9            
 ICCAP_VAR VD         -0.1           

 #VG              IG              ID              IB             
  0               -7.938e-010     -8.049e-010     -2.7092e-008   
  -0.05           -1.0578e-009    -2.148e-009     8.953e-009     
  -0.1            1.4755e-009     -1.6762e-009    -1.181e-008    
  -0.15           8.707e-010      2.3095e-009     -8.924e-009    
  -0.2            1.0074e-009     2.273e-009      1.0127e-008    
  -0.25           -1.4513e-009    1.7768e-009     1.1257e-008    
  -0.3            -1.7939e-009    -1.328e-009     8.148e-009     
  -0.35           -4.969e-010     -2.1687e-009    -1.0848e-008   
  -0.4            2.4016e-009     -1.4605e-009    -2.3379e-008   
  -0.45           2.883e-010      1.9576e-009     -4.21e-009     
  -0.5            -1.3908e-009    1.351e-010      1.0674e-008    
  -0.55           -1.3361e-009    -3.6635e-009    8.876e-009     
  -0.6            -2.5171e-009    -1.0511e-008    -1.654e-008    
  -0.65           -6.272e-010     -3.818e-008     -1.0742e-008   
  -0.7            4.96e-011       -1.1344e-007    -9.15e-009     
  -0.75           4.773e-010      -2.6906e-007    9.901e-009     
  -0.8            8.72e-010       -5.9867e-007    1.0388e-008    
  -0.85           -1.3734e-009    -1.2047e-006    -1.0344e-008   
  -0.9            -1.2893e-009    -2.154e-006     8.851e-009     
  -0.95           -2.5331e-009    -3.4625e-006    8.661e-009     
  -1              -1.9884e-009    -4.9622e-006    8.75e-010      
  -1.05           1.2115e-009     -6.9542e-006    -2.7188e-008   
  -1.1            2.793e-009      -8.9196e-006    -1.0871e-008   
  -1.15           4.023e-010      -1.08056e-005   9.8e-009       
  -1.2            -2.6988e-009    -1.2785e-005    1.0402e-008    
  -1.25           -3.84e-011      -1.476e-005     -1.0892e-008   
  -1.3            -5.096e-010     -1.6531e-005    -1.0362e-008   
  -1.35           1.9631e-009     -1.8252e-005    -1.792e-008    
  -1.4            1.3816e-009     -1.9816e-005    -8.164e-009    
  -1.45           2.8089e-009     -2.1245e-005    -8.927e-009    
  -1.5            2.0261e-009     -2.2566e-005    1.1359e-008    
  -1.55           9.088e-010      -2.3769e-005    1.0333e-008    
  -1.6            1.2676e-009     -2.4866e-005    1.0395e-008    
  -1.65           1.377e-010      -2.6033e-005    9.964e-009     
  -1.7            5.724e-010      -2.68e-005      1.0265e-008    
  -1.75           9.485e-010      -2.7795e-005    1.0497e-008    
  -1.8            1.3114e-009     -2.8549e-005    1.0005e-008    
END_DB

BEGIN_DB
 ICCAP_VAR VS         0              
 ICCAP_VAR VB         0.9            
 ICCAP_VAR VD         -1.8           

 #VG              IG              ID              IB             
  0               -9.522e-010     3.826e-010      1.215e-008     
  -0.05           -1.7178e-009    -1.4519e-009    7.078e-009     
  -0.1            -3.5e-010       -2.1225e-009    -1.0713e-008   
  -0.15           -5.398e-010     -2.1795e-009    -1.0854e-008   
  -0.2            2.3576e-009     -6.328e-010     -1.8296e-008   
  -0.25           3.244e-010      2.0896e-009     -4.801e-009    
  -0.3            4.98e-010       1.9964e-009     1.0538e-008    
  -0.35           -1.328e-009     8.95e-011       1.0384e-008    
  -0.4            -1.2978e-009    -4.2119e-009    9.149e-009     
  -0.45           -2.3539e-009    -1.2654e-008    -1.5146e-008   
  -0.5            -4.071e-010     -4.3669e-008    -1.0262e-008   
  -0.55           -1.331e-010     -1.2103e-007    -9.005e-009    
  -0.6            2.704e-010      -2.9074e-007    9.741e-009     
  -0.65           6.958e-010      -6.4757e-007    1.0508e-008    
  -0.7            -1.2889e-009    -1.3793e-006    -1.0863e-008   
  -0.75           -2.5365e-009    -2.7089e-006    8.617e-009     
  -0.8            -1.999e-009     -4.592e-006     9.52e-010      
  -0.85           -9.545e-010     -7.7497e-006    -1.0919e-008   
  -0.9            7.635e-010      -1.208e-005     -1.8795e-008   
  -0.95           1.1085e-009     -1.7844e-005    1.0001e-008    
  -1              1.5032e-009     -2.4967e-005    1.0769e-008    
  -1.05           1.9058e-009     -3.324e-005     1.2293e-008    
  -1.1            7.976e-010      -4.292e-005     1.0382e-008    
  -1.15           1.1451e-009     -5.3948e-005    9.852e-009     
  -1.2            1.5332e-009     -6.5987e-005    1.196e-008     
  -1.25           1.9363e-009     -7.8685e-005    1.166e-008     
  -1.3            8.227e-010      -9.2461e-005    1.0329e-008    
  -1.35           1.1754e-009     -0.00010727     9.839e-009     
  -1.4            2.8072e-009     -0.00012194     1.0071e-008    
  -1.45           2.0106e-009     -0.00013818     1.1406e-008    
  -1.5            8.884e-010      -0.00015431     1.0724e-008    
  -1.55           1.2449e-009     -0.00017129     9.853e-009     
  -1.6            1.053e-010      -0.00018855     1.0119e-008    
  -1.65           5.404e-010      -0.0002057      1.0161e-008    
  -1.7            9.183e-010      -0.00022341     1.0537e-008    
  -1.75           1.2784e-009     -0.00024162     9.876e-009     
  -1.8            1.456e-010      -0.00026006     9.931e-009     
END_DB

BEGIN_DB
 ICCAP_VAR VS         0              
 ICCAP_VAR VB         1.8            
 ICCAP_VAR VD         -0.1           

 #VG              IG              ID              IB             
  0               -9.037e-010     -8.556e-010     -2.6023e-008   
  -0.05           -1.7788e-009    -1.3544e-009    7.908e-009     
  -0.1            -4.584e-010     -2.1531e-009    -1.0831e-008   
  -0.15           2.4733e-009     -5.286e-010     -1.7705e-008   
  -0.2            1.1781e-009     2.1738e-009     -3.775e-009    
  -0.25           -1.909e-010     1.8769e-009     1.0152e-008    
  -0.3            -1.5738e-009    8.574e-010      2.4044e-008    
  -0.35           -1.7037e-009    -1.4752e-009    6.735e-009     
  -0.4            -3.267e-010     -2.117e-009     -1.062e-008    
  -0.45           1.2338e-009     -1.3181e-009    -2.6127e-008   
  -0.5            2.8215e-009     -3.04e-011      -9.754e-009    
  -0.55           4.84e-011       1.5696e-009     1.2195e-008    
  -0.6            -1.3865e-009    -2.1952e-009    2.7527e-008    
  -0.65           -1.3344e-009    -7.6919e-009    8.907e-009     
  -0.7            1.3183e-009     -2.7042e-008    1.0412e-008    
  -0.75           2.8304e-009     -9.088e-008     -9.093e-009    
  -0.8            -4.14e-011      -2.5147e-007    8.825e-009     
  -0.85           1.2338e-009     -5.8904e-007    -2.6543e-008   
  -0.9            1.9565e-009     -1.1803e-006    8.825e-009     
  -0.95           8.413e-010      -2.1253e-006    1.0375e-008    
  -1              1.191e-009      -3.4645e-006    9.845e-009     
  -1.05           5.39e-011       -5.0593e-006    1.0184e-008    
  -1.1            4.821e-010      -6.9209e-006    9.962e-009     
  -1.15           8.704e-010      -8.9185e-006    1.0299e-008    
  -1.2            1.2263e-009     -1.09633e-005   1.0073e-008    
  -1.25           -2.2947e-009    -1.2844e-005    1.0092e-008    
  -1.3            -3.393e-010     -1.4729e-005    -1.0436e-008   
  -1.35           2.2458e-009     -1.6475e-005    -2.5876e-008   
  -1.4            1.5501e-009     -1.8056e-005    -5.694e-009    
  -1.45           1.2387e-009     -1.965e-005     -8.849e-009    
  -1.5            2.8335e-009     -2.1026e-005    -9.529e-009    
  -1.55           2.5427e-009     -2.2129e-005    -3.45e-010     
  -1.6            1.8778e-009     -2.3321e-005    -3.12e-009     
  -1.65           1.3552e-009     -2.4295e-005    -8.678e-009    
  -1.7            2.8144e-009     -2.5495e-005    -8.942e-009    
  -1.75           2.0494e-009     -2.623e-005     1.2013e-008    
  -1.8            9.285e-010      -2.7219e-005    1.0512e-008    
END_DB

BEGIN_DB
 ICCAP_VAR VS         0              
 ICCAP_VAR VB         1.8            
 ICCAP_VAR VD         -1.8           

 #VG              IG              ID              IB             
  0               -1.2939e-009    -1.2154e-009    -8.861e-009    
  -0.05           1.6589e-009     -1.6145e-009    -1.332e-008    
  -0.1            7.456e-010      2.2981e-009     -9.104e-009    
  -0.15           8.868e-010      2.307e-009      9.961e-009     
  -0.2            1.0271e-009     2.2628e-009     9.837e-009     
  -0.25           1.1656e-009     2.1503e-009     1.0142e-008    
  -0.3            -1.966e-010     1.7963e-009     1.0336e-008    
  -0.35           -1.5763e-009    5.289e-010      2.41e-008      
  -0.4            -2.4969e-009    -2.3344e-009    6.802e-009     
  -0.45           -3.2e-010       -7.1581e-009    -1.0634e-008   
  -0.5            2.4776e-009     -1.7136e-008    1.1058e-008    
  -0.55           1.4946e-009     -5.7558e-008    1.1771e-008    
  -0.6            2.8326e-009     -1.6729e-007    -1.0605e-008   
  -0.65           2.6831e-009     -4.2088e-007    -1.01e-010     
  -0.7            5.526e-010      -9.3978e-007    1.0199e-008    
  -0.75           -1.3117e-009    -1.9146e-006    -1.0896e-008   
  -0.8            -2.6301e-009    -3.5808e-006    9.327e-009     
  -0.85           -2.2182e-009    -6.2198e-006    4.98e-010      
  -0.9            1.823e-010      -1.01649e-005   -1.2281e-008   
  -0.95           1.2834e-009     -1.5343e-005    -2.6646e-008   
  -1              1.495e-010      -2.1662e-005    1.0019e-008    
  -1.05           5.817e-010      -2.9596e-005    1.041e-008     
  -1.1            9.548e-010      -3.893e-005     1.0268e-008    
  -1.15           -2.014e-010     -4.9266e-005    1.2184e-008    
  -1.2            1.863e-010      -6.0808e-005    9.93e-009      
  -1.25           6.164e-010      -7.342e-005     1.0512e-008    
  -1.3            9.841e-010      -8.7041e-005    1.038e-008     
  -1.35           -1.669e-010     -0.000101085    1.1602e-008    
  -1.4            6.554e-010      -0.00011602     2.0025e-008    
  -1.45           1.0161e-009     -0.00013178     1.0215e-008    
  -1.5            -1.362e-010     -0.00014775     1.1297e-008    
  -1.55           2.67e-010       -0.00016431     9.847e-009     
  -1.6            6.913e-010      -0.00018144     1.0494e-008    
  -1.65           1.043e-009      -0.00019895     9.951e-009     
  -1.7            1.4277e-009     -0.00021683     1.1536e-008    
  -1.75           3.087e-010      -0.00023417     9.811e-009     
  -1.8            7.27e-010       -0.00025235     1.0402e-008    
END_DB

