! VERSION = 6.00
BEGIN_HEADER
 ICCAP_INPUTS
  VG         V  B GROUND SMU4 0.001 LIN        2    0          -1.8       6    -0.36     
  VS         V  E GROUND SMU2 0.1 CON        0
  VD         V  S GROUND SMU1 0.1 LIN        1    0          -1.8       37   -0.05     
  VB         V  C GROUND SMU3 0.1 LIN        3    0          0.9        2    0.9       
 ICCAP_OUTPUTS
  ID         I  S GROUND SMU1 B
  IB         I  C GROUND SMU3 B
  IG         I  B GROUND SMU4 B
END_HEADER

BEGIN_DB
 ICCAP_VAR VG         0              
 ICCAP_VAR VS         0              
 ICCAP_VAR VB         0              

 #VD              ID              IB              IG             
  0               1.623e-010      1.1043e-008     -7.79e-010     
  -0.05           -2.1173e-009    8.73e-009       -1.1477e-009   
  -0.1            -1.0924e-009    -2.6259e-008    1.386e-009     
  -0.15           2.3151e-009     -8.998e-009     9.675e-010     
  -0.2            2.2357e-009     1.1105e-008     1.1134e-009    
  -0.25           2.1043e-009     1.2212e-008     1.2741e-009    
  -0.3            1.9555e-009     1.0032e-008     -1.286e-010    
  -0.35           2.032e-009      9.63e-009       3.41e-011      
  -0.4            2.1326e-009     9.649e-009      2.049e-010     
  -0.45           2.228e-009      1.0315e-008     3.872e-010     
  -0.5            2.2955e-009     1.0318e-008     5.681e-010     
  -0.55           2.3338e-009     1.0249e-008     7.393e-010     
  -0.6            2.3326e-009     1.0177e-008     8.908e-010     
  -0.65           2.286e-009      1.0256e-008     1.0394e-009    
  -0.7            2.1826e-009     1.1727e-008     1.1891e-009    
  -0.75           1.9125e-009     1.0315e-008     -2.108e-010    
  -0.8            8.763e-010      2.4455e-008     -1.5719e-009   
  -0.85           -1.4776e-009    6.901e-009      -1.7108e-009   
  -0.9            -2.1534e-009    -1.045e-008     -3.42e-010     
  -0.95           -2.2054e-009    -1.0605e-008    -5.34e-010     
  -1              -6.08e-010      -1.8674e-008    2.3663e-009    
  -1.05           2.1167e-009     -4.97e-009      1.2737e-009    
  -1.1            1.9545e-009     1.0039e-008     -1.288e-010    
  -1.15           2.0353e-009     9.704e-009      3.22e-011      
  -1.2            2.1345e-009     9.672e-009      2.05e-010      
  -1.25           2.2228e-009     1.0312e-008     3.899e-010     
  -1.3            2.298e-009      1.03e-008       5.62e-010      
  -1.35           2.335e-009      1.0338e-008     7.4e-010       
  -1.4            2.3299e-009     1.0118e-008     8.901e-010     
  -1.45           2.2855e-009     1.0265e-008     1.0385e-009    
  -1.5            2.1846e-009     1.1581e-008     1.1881e-009    
  -1.55           1.9109e-009     1.0227e-008     -2.103e-010    
  -1.6            1.9898e-009     9.842e-009      -5.44e-011     
  -1.65           2.0797e-009     9.531e-009      1.139e-010     
  -1.7            2.1807e-009     1.0004e-008     2.873e-010     
  -1.75           2.2648e-009     1.0312e-008     4.722e-010     
  -1.8            2.3236e-009     1.0307e-008     6.493e-010     
END_DB

BEGIN_DB
 ICCAP_VAR VG         -0.36          
 ICCAP_VAR VS         0              
 ICCAP_VAR VB         0              

 #VD              ID              IB              IG             
  0               7.626e-010      9.52e-009       6.85e-010      
  -0.05           2.2743e-009     -9.492e-009     1.0445e-009    
  -0.1            2.1586e-009     1.1782e-008     1.1945e-009    
  -0.15           1.9097e-009     1.031e-008      -1.97e-010     
  -0.2            8.832e-010      2.4511e-008     -1.5657e-009   
  -0.25           -1.4646e-009    6.98e-009       -1.7288e-009   
  -0.3            -2.1624e-009    -1.0391e-008    -3.676e-010    
  -0.35           -1.346e-009     -2.5637e-008    1.2163e-009    
  -0.4            2.5e-011        -1.0897e-008    2.8635e-009    
  -0.45           2.3095e-009     1.58e-010       6.225e-010     
  -0.5            2.3352e-009     1.0486e-008     7.905e-010     
  -0.55           2.3159e-009     9.988e-009      9.417e-010     
  -0.6            2.2461e-009     1.0154e-008     1.0904e-009    
  -0.65           2.1195e-009     1.0885e-008     1.2423e-009    
  -0.7            1.9374e-009     1.0043e-008     -1.523e-010    
  -0.75           2.0159e-009     9.68e-009       1.89e-011      
  -0.8            2.1146e-009     9.498e-009      1.836e-010     
  -0.85           2.2121e-009     1.0194e-008     3.684e-010     
  -0.9            2.2903e-009     1.0173e-008     5.521e-010     
  -0.95           2.3315e-009     1.0261e-008     7.273e-010     
  -1              2.3251e-009     1.0119e-008     8.845e-010     
  -1.05           2.2787e-009     1.0334e-008     1.0296e-009    
  -1.1            1.8131e-009     1.1252e-008     -1.454e-009    
  -1.15           -1.3331e-009    8.301e-009      -1.8089e-009   
  -1.2            -1.6002e-009    -1.559e-008     1.8231e-009    
  -1.25           2.3205e-009     -9.069e-009     6.641e-010     
  -1.3            2.3305e-009     1.0138e-008     8.265e-010     
  -1.35           2.2961e-009     1.005e-008      9.795e-010     
  -1.4            2.2186e-009     1.1126e-008     1.1278e-009    
  -1.45           2.0776e-009     1.232e-008      1.2847e-009    
  -1.5            1.9545e-009     9.953e-009      -1.134e-010    
  -1.55           2.0353e-009     9.572e-009      5.09e-011      
  -1.6            2.1413e-009     9.696e-009      2.301e-010     
  -1.65           2.2332e-009     1.0233e-008     4.131e-010     
  -1.7            2.3077e-009     1.0236e-008     5.939e-010     
  -1.75           2.333e-009      1.0308e-008     7.667e-010     
  -1.8            2.3198e-009     1.0055e-008     9.14e-010      
END_DB

BEGIN_DB
 ICCAP_VAR VG         -0.72          
 ICCAP_VAR VS         0              
 ICCAP_VAR VB         0              

 #VD              ID              IB              IG             
  0               -9.384e-010     -2.7534e-008    -1.267e-009    
  -0.05           -2.7735e-008    1.2866e-008     1.2998e-009    
  -0.1            -3.7e-008       -1.0839e-008    -7.702e-010    
  -0.15           -3.6952e-008    1.4653e-008     -1.9077e-009   
  -0.2            -3.6054e-008    9.888e-009      8.26e-011      
  -0.25           -3.8032e-008    -1.1561e-008    2.8042e-009    
  -0.3            -4.032e-008     -1.733e-008     1.5639e-009    
  -0.35           -4.0641e-008    -9.969e-009     -4.555e-010    
  -0.4            -3.9011e-008    9.595e-009      -2.3072e-009   
  -0.45           -3.7635e-008    1.1363e-008     -1.785e-010    
  -0.5            -3.9089e-008    -9.32e-009      2.8697e-009    
  -0.55           -4.0116e-008    -1.8726e-008    2.0136e-009    
  -0.6            -4.1411e-008    -1.0389e-008    -1.445e-010    
  -0.65           -4.0128e-008    7.617e-009      -2.5914e-009   
  -0.7            -3.7353e-008    1.0005e-008     1.1301e-009    
  -0.75           -4.1234e-008    -2.3205e-008    1.3704e-009    
  -0.8            -4.2248e-008    -1.0482e-008    -6.558e-010    
  -0.85           -4.0351e-008    1.242e-008      -2.0622e-009   
  -0.9            -3.8009e-008    1.2532e-008     1.5596e-009    
  -0.95           -4.2032e-008    -2.7233e-008    2.3937e-009    
  -1              -4.1907e-008    -2.6175e-008    1.2424e-009    
  -1.05           -4.2837e-008    -1.3789e-008    2.281e-010     
  -1.1            -4.1489e-008    8.506e-009      -1.3122e-009   
  -1.15           -3.8703e-008    1.0348e-008     9.507e-010     
  -1.2            -4.2146e-008    -2.0381e-008    1.6065e-009    
  -1.25           -4.3388e-008    -9.934e-009     -4.26e-010     
  -1.3            -4.1725e-008    9.154e-009      -2.3405e-009   
  -1.35           -3.9063e-008    1.0366e-008     1.3617e-009    
  -1.4            -4.2912e-008    -2.6518e-008    1.2337e-009    
  -1.45           -4.3822e-008    -1.3522e-008    2.1e-010       
  -1.5            -4.2387e-008    8.573e-009      -1.31e-009     
  -1.55           -3.9563e-008    1.0613e-008     9.745e-010     
  -1.6            -4.3101e-008    -2.0498e-008    1.5716e-009    
  -1.65           -4.3162e-008    -1.9889e-008    1.7225e-009    
  -1.7            -4.3067e-008    -1.9236e-008    1.8995e-009    
  -1.75           -4.3125e-008    -1.8081e-008    2.0633e-009    
  -1.8            -4.3151e-008    -1.7376e-008    2.247e-009     
END_DB

BEGIN_DB
 ICCAP_VAR VG         -1.08          
 ICCAP_VAR VS         0              
 ICCAP_VAR VB         0              

 #VD              ID              IB              IG             
  0               -8.9739e-010    1.38e-010       -4.381e-010    
  -0.05           -6.5272e-007    -2.4298e-008    1.1456e-009    
  -0.1            -1.1478e-006    -2.7548e-008    -1.9022e-009   
  -0.15           -1.5022e-006    1.2136e-008     -1.3869e-009   
  -0.2            -1.7503e-006    1.0454e-008     8.828e-010     
  -0.25           -1.918e-006     -2.2637e-008    1.4021e-009    
  -0.3            -2.0193e-006    -1.3905e-008    2.323e-010     
  -0.35           -2.0632e-006    8.688e-009      -1.2904e-009   
  -0.4            -2.1265e-006    1.1377e-008     1.4084e-009    
  -0.45           -2.154e-006     -1.1417e-008    2.8069e-009    
  -0.5            -2.1794e-006    -1.2799e-008    1.729e-010     
  -0.55           -2.1764e-006    8.585e-009      -1.2853e-009   
  -0.6            -2.2179e-006    1.0904e-008     1.4876e-009    
  -0.65           -2.2298e-006    -1.2675e-008    2.7618e-009    
  -0.7            -2.2449e-006    -1.1796e-008    1.1e-010       
  -0.75           -2.2334e-006    8.267e-009      -2.6228e-009   
  -0.8            -2.2689e-006    1.0151e-008     1.3126e-009    
  -0.85           -2.2755e-006    -2.7253e-008    2.3918e-009    
  -0.9            -2.2867e-006    -1.7696e-008    2.1387e-009    
  -0.95           -2.2964e-006    -1.9258e-008    1.8768e-009    
  -1              -2.3041e-006    -2.1896e-008    1.8235e-009    
  -1.05           -2.3136e-006    -2.1185e-008    1.7858e-009    
  -1.1            -2.3234e-006    -2.0505e-008    1.7376e-009    
  -1.15           -2.3329e-006    -1.9742e-008    1.6995e-009    
  -1.2            -2.3412e-006    -1.9044e-008    1.6569e-009    
  -1.25           -2.3408e-006    -1.0662e-008    -6.663e-010    
  -1.3            -2.3387e-006    1.7959e-008     -1.6874e-009   
  -1.35           -2.3589e-006    1.2976e-008     2.0703e-009    
  -1.4            -2.3767e-006    -1.2361e-008    1.621e-010     
  -1.45           -2.3588e-006    8.478e-009      -1.2826e-009   
  -1.5            -2.3934e-006    1.0769e-008     1.5045e-009    
  -1.55           -2.3968e-006    -1.3066e-008    2.7512e-009    
  -1.6            -2.4061e-006    -1.1759e-008    9.67e-011      
  -1.65           -2.3854e-006    7.93e-009       -2.6141e-009   
  -1.7            -2.419e-006     1.0207e-008     1.3334e-009    
  -1.75           -2.4202e-006    -2.7271e-008    2.3673e-009    
  -1.8            -2.4269e-006    -1.7777e-008    2.1125e-009    
END_DB

BEGIN_DB
 ICCAP_VAR VG         -1.44          
 ICCAP_VAR VS         0              
 ICCAP_VAR VB         0              

 #VD              ID              IB              IG             
  0               -4.3432e-010    1.0437e-008     -2.941e-010    
  -0.05           -1.7161e-006    2.491e-008      2.7924e-009    
  -0.1            -3.2546e-006    -1.833e-008     2.1006e-009    
  -0.15           -4.6158e-006    -1.9675e-008    1.8441e-009    
  -0.2            -5.8018e-006    -2.1203e-008    1.8006e-009    
  -0.25           -6.8186e-006    -2.0474e-008    1.7493e-009    
  -0.3            -7.672e-006     -1.982e-008     1.7149e-009    
  -0.35           -8.362e-006     -1.057e-008     -6.303e-010    
  -0.4            -8.9056e-006    1.7487e-008     -1.7314e-009   
  -0.45           -9.3737e-006    1.3238e-008     2.0424e-009    
  -0.5            -9.7249e-006    -1.2828e-008    1.898e-010     
  -0.55           -9.9429e-006    8.668e-009      -1.2875e-009   
  -0.6            -1.02029e-005   1.0631e-008     1.4668e-009    
  -0.65           -1.03471e-005   -1.2306e-008    2.7726e-009    
  -0.7            -1.04722e-005   -1.206e-008     1.317e-010     
  -0.75           -1.05217e-005   8.26e-009       -1.2813e-009   
  -0.8            -1.06743e-005   1.097e-008      1.5384e-009    
  -0.85           -1.07384e-005   -1.3553e-008    2.7083e-009    
  -0.9            -1.08094e-005   -1.1423e-008    6.91e-011      
  -0.95           -1.08107e-005   7.785e-009      -2.5784e-009   
  -1              -1.0932e-005    1.0216e-008     1.3668e-009    
  -1.05           -1.09647e-005   -2.666e-008     2.3113e-009    
  -1.1            -1.10128e-005   -1.0336e-008    -2.314e-010    
  -1.15           -1.103e-005     1.037e-008      -2.6939e-009   
  -1.2            -1.1101e-005    9.998e-009      1.1252e-009    
  -1.25           -1.1147e-005    -1.2713e-008    2.7527e-009    
  -1.3            -1.1176e-005    -1.036e-008     -2.298e-010    
  -1.35           -1.1171e-005    1.7958e-008     -1.7013e-009   
  -1.4            -1.1237e-005    1.0544e-008     8.649e-010     
  -1.45           -1.129e-005     -2.6996e-008    1.2156e-009    
  -1.5            -1.1309e-005    -1.0166e-008    -4.571e-010    
  -1.55           -1.1309e-005    2.1771e-008     -1.4947e-009   
  -1.6            -1.1383e-005    1.0308e-008     1.0379e-009    
  -1.65           -1.1414e-005    -2.6361e-008    2.2708e-009    
  -1.7            -1.1425e-005    -1.0739e-008    -6.829e-010    
  -1.75           -1.1428e-005    2.5222e-008     -1.3878e-009   
  -1.8            -1.1517e-005    9.913e-009      1.2102e-009    
END_DB

BEGIN_DB
 ICCAP_VAR VG         -1.8           
 ICCAP_VAR VS         0              
 ICCAP_VAR VB         0              

 #VD              ID              IB              IG             
  0               -8.7429e-010    -4.824e-009     2.4096e-009    
  -0.05           -2.6706e-006    1.0635e-008     2.8383e-009    
  -0.1            -5.1894e-006    -1.4208e-008    1.4046e-009    
  -0.15           -7.5522e-006    -1.3788e-008    2.36e-010      
  -0.2            -9.7375e-006    8.846e-009      -1.2939e-009   
  -0.25           -1.1782e-005    1.0687e-008     -2.7146e-009   
  -0.3            -1.3671e-005    1.0041e-008     1.2298e-009    
  -0.35           -1.5383e-005    -1.4891e-008    2.6594e-009    
  -0.4            -1.693e-005     -1.9255e-008    1.8604e-009    
  -0.45           -1.8321e-005    -1.3287e-008    2.048e-010     
  -0.5            -1.95e-005      8.596e-009      -2.3838e-009   
  -0.55           -2.0614e-005    1.2797e-008     1.9505e-009    
  -0.6            -2.1544e-005    -2.0458e-008    1.5548e-009    
  -0.65           -2.233e-005     -2.73e-008      2.5306e-009    
  -0.7            -2.2978e-005    -1.0126e-008    -4.991e-010    
  -0.75           -2.3492e-005    2.1986e-008     -1.4797e-009   
  -0.8            -2.3994e-005    1.0145e-008     1.0623e-009    
  -0.85           -2.4369e-005    -2.6293e-008    2.2243e-009    
  -0.9            -2.466e-005     -1.0856e-008    -7.177e-010    
  -0.95           -2.4887e-005    2.5378e-008     -1.3812e-009   
  -1              -2.5192e-005    1.0019e-008     1.2379e-009    
  -1.05           -2.5379e-005    -1.489e-008     2.6533e-009    
  -1.1            -2.5528e-005    -1.0209e-008    -3.713e-010    
  -1.15           -2.5628e-005    1.9878e-008     -1.5686e-009   
  -1.2            -2.5813e-005    1.0325e-008     9.631e-010     
  -1.25           -2.5949e-005    -2.7247e-008    2.4096e-009    
  -1.3            -2.6042e-005    -1.049e-008     -5.864e-010    
  -1.35           -2.6103e-005    2.3637e-008     -1.4266e-009   
  -1.4            -2.6278e-005    9.924e-009      1.1376e-009    
  -1.45           -2.6378e-005    -1.2849e-008    2.7501e-009    
  -1.5            -2.6446e-005    -1.0378e-008    -2.49e-010     
  -1.55           -2.6474e-005    1.7924e-008     -1.6916e-009   
  -1.6            -2.6597e-005    1.0793e-008     8.684e-010     
  -1.65           -2.67e-005      -2.7166e-008    2.5585e-009    
  -1.7            -2.6759e-005    -2.3127e-008    1.9274e-009    
  -1.75           -2.6851e-005    -1.3577e-008    2.277e-010     
  -1.8            -2.6839e-005    8.258e-009      -2.4225e-009   
END_DB

BEGIN_DB
 ICCAP_VAR VG         0              
 ICCAP_VAR VS         0              
 ICCAP_VAR VB         0.9            

 #VD              ID              IB              IG             
  0               -1.1056e-009    -1.0887e-008    -1.2793e-009   
  -0.05           -1.2824e-009    -2.7036e-008    1.2393e-009    
  -0.1            2.2071e-009     -9.914e-009     1.181e-009     
  -0.15           1.9071e-009     1.0165e-008     -2.268e-010    
  -0.2            8.616e-010      2.3984e-008     -1.6051e-009   
  -0.25           -1.5136e-009    6.896e-009      -1.7023e-009   
  -0.3            -2.1524e-009    -1.0546e-008    -3.127e-010    
  -0.35           -2.2084e-009    -1.0748e-008    -5.136e-010    
  -0.4            -5.802e-010     -1.8608e-008    2.4163e-009    
  -0.45           2.1487e-009     -4.577e-009     1.2529e-009    
  -0.5            1.9455e-009     9.915e-009      -1.603e-010    
  -0.55           9.154e-010      2.5172e-008     -1.523e-009    
  -0.6            -1.4267e-009    7.541e-009      -1.7532e-009   
  -0.65           -2.1793e-009    -1.0781e-008    -4.094e-010    
  -0.7            -4.895e-010     -1.7826e-008    2.5464e-009    
  -0.75           2.2194e-009     -3.351e-009     1.1648e-009    
  -0.8            2.0711e-009     1.2463e-008     1.3191e-009    
  -0.85           1.8633e-009     1.2794e-008     1.495e-009     
  -0.9            2.0609e-009     9.633e-009      6.94e-011      
  -0.95           2.1628e-009     9.912e-009      2.488e-010     
  -1              2.2485e-009     1.0395e-008     4.262e-010     
  -1.05           2.3128e-009     1.0348e-008     6.096e-010     
  -1.1            2.3347e-009     1.0298e-008     7.689e-010     
  -1.15           2.325e-009      9.968e-009      9.225e-010     
  -1.2            2.2759e-009     1.0562e-008     1.0678e-009    
  -1.25           2.1652e-009     1.1666e-008     1.2207e-009    
  -1.3            1.9298e-009     1.0068e-008     -1.866e-010    
  -1.35           2.0045e-009     9.664e-009      -3.15e-011     
  -1.4            2.098e-009      9.553e-009      1.359e-010     
  -1.45           2.1924e-009     1.0126e-008     3.128e-010     
  -1.5            2.2749e-009     1.0363e-008     4.975e-010     
  -1.55           2.3265e-009     1.0366e-008     6.664e-010     
  -1.6            2.3346e-009     1.0192e-008     8.257e-010     
  -1.65           2.3134e-009     9.9e-009        9.754e-010     
  -1.7            2.2433e-009     1.1033e-008     1.1218e-009    
  -1.75           2.1106e-009     1.2119e-008     1.28e-009      
  -1.8            1.9563e-009     9.926e-009      -1.326e-010    
END_DB

BEGIN_DB
 ICCAP_VAR VG         -0.36          
 ICCAP_VAR VS         0              
 ICCAP_VAR VB         0.9            

 #VD              ID              IB              IG             
  0               -1.1473e-009    -9.493e-009     -1.2908e-009   
  -0.05           -1.0976e-009    -2.612e-008     1.3834e-009    
  -0.1            2.3018e-009     -9.106e-009     9.711e-010     
  -0.15           2.2204e-009     1.1044e-008     1.1147e-009    
  -0.2            2.0842e-009     1.2134e-008     1.2692e-009    
  -0.25           1.9533e-009     1.0076e-008     -1.325e-010    
  -0.3            2.0313e-009     9.668e-009      2.93e-011      
  -0.35           2.1295e-009     9.613e-009      2.014e-010     
  -0.4            2.2204e-009     1.0267e-008     3.733e-010     
  -0.45           2.2887e-009     1.0292e-008     5.528e-010     
  -0.5            2.328e-009      1.0292e-008     7.186e-010     
  -0.55           2.325e-009      1.0013e-008     8.727e-010     
