! VERSION = 6.00
BEGIN_HEADER
 ICCAP_INPUTS
  VG         V  B GROUND SMU4 0.001 LIN        2    0          -1.8       6    -0.36     
  VS         V  E GROUND SMU2 0.1 CON        0
  VD         V  S GROUND SMU1 0.1 LIN        1    0          -1.8       37   -0.05     
  VB         V  C GROUND SMU3 0.1 LIN        3    0          0.9        2    0.9       
 ICCAP_OUTPUTS
  ID         I  S GROUND SMU1 B
  IB         I  C GROUND SMU3 B
  IG         I  B GROUND SMU4 B
END_HEADER

BEGIN_DB
 ICCAP_VAR VG         0              
 ICCAP_VAR VS         0              
 ICCAP_VAR VB         0              

 #VD              ID              IB              IG             
  0               -1.2036e-009    1.03e-008       -1.2844e-009   
  -0.05           -1.1597e-009    -2.649e-008     1.3795e-009    
  -0.1            2.3396e-009     -9.191e-009     1.0032e-009    
  -0.15           1.8164e-009     1.1394e-008     -1.4879e-009   
  -0.2            -1.3798e-009    8.118e-009      -1.8261e-009   
  -0.25           -1.6222e-009    -1.5985e-008    1.8911e-009    
  -0.3            1.7951e-009     -8.945e-009     1.5559e-009    
  -0.35           1.9941e-009     1.2774e-008     -6.78e-011     
  -0.4            9.702e-010      2.603e-008      -1.4732e-009   
  -0.45           -1.3615e-009    8.269e-009      -1.839e-009    
  -0.5            -2.2303e-009    -1.0775e-008    -5.365e-010    
  -0.55           -6.365e-010     -1.8308e-008    2.3919e-009    
  -0.6            2.1552e-009     -4.706e-009     1.2581e-009    
  -0.65           1.9735e-009     1.0077e-008     -1.168e-010    
  -0.7            2.0579e-009     9.843e-009      4.55e-011      
  -0.75           2.157e-009      9.984e-009      2.188e-010     
  -0.8            2.2526e-009     1.0383e-008     3.934e-010     
  -0.85           2.33e-009       1.0323e-008     5.793e-010     
  -0.9            2.3666e-009     1.0325e-008     7.507e-010     
  -0.95           2.3664e-009     9.812e-009      9.046e-010     
  -1              2.3166e-009     9.847e-009      1.0467e-009    
  -1.05           2.2007e-009     1.0446e-008     1.1969e-009    
  -1.1            1.9469e-009     1.0265e-008     -1.67e-010     
  -1.15           8.863e-010      2.4607e-008     -1.5743e-009   
  -1.2            -1.4734e-009    7.035e-009      -1.7614e-009   
  -1.25           -2.1884e-009    -1.0717e-008    -3.773e-010    
  -1.3            -5.011e-010     -1.7304e-008    2.5695e-009    
  -1.35           2.2628e-009     -3.088e-009     1.142e-009     
  -1.4            1.9119e-009     1.0434e-008     -2.208e-010    
  -1.45           8.462e-010      2.3492e-008     -1.6347e-009   
  -1.5            -1.5435e-009    6.599e-009      -1.7181e-009   
  -1.55           -1.5589e-009    -1.9901e-008    2.1653e-009    
  -1.6            2.014e-009      -6.957e-009     1.3933e-009    
  -1.65           2.0411e-009     9.845e-009      1.31e-011      
  -1.7            2.14e-009       9.914e-009      1.802e-010     
  -1.75           2.2396e-009     1.0459e-008     3.649e-010     
  -1.8            2.3179e-009     1.0751e-008     5.485e-010     
END_DB

BEGIN_DB
 ICCAP_VAR VG         -0.36          
 ICCAP_VAR VS         0              
 ICCAP_VAR VB         0              

 #VD              ID              IB              IG             
  0               1.05e-010       1.0177e-008     -1.742e-010    
  -0.05           -7.969e-010     -1.9808e-008    2.0829e-009    
  -0.1            1.9645e-009     -7.661e-009     1.4352e-009    
  -0.15           2.0614e-009     9.738e-009      4.61e-011      
  -0.2            2.1651e-009     9.948e-009      2.206e-010     
  -0.25           2.2587e-009     1.0445e-008     4.005e-010     
  -0.3            2.3303e-009     1.0435e-008     5.825e-010     
  -0.35           2.3627e-009     1.0273e-008     7.517e-010     
  -0.4            2.36e-009       9.834e-009      8.999e-010     
  -0.45           2.3108e-009     9.77e-009       1.0394e-009    
  -0.5            2.2112e-009     1.0366e-008     1.1854e-009    
  -0.55           1.932e-009      1.0119e-008     -1.82e-010     
  -0.6            8.37e-010       2.4275e-008     -1.5883e-009   
  -0.65           -1.4956e-009    7.003e-009      -1.7507e-009   
  -0.7            -1.5928e-009    -1.8702e-008    2.0909e-009    
  -0.75           1.9628e-009     -7.531e-009     1.434e-009     
  -0.8            2.0599e-009     9.745e-009      4.13e-011      
  -0.85           2.1642e-009     9.97e-009       2.195e-010     
  -0.9            2.2554e-009     1.0603e-008     3.97e-010      
  -0.95           2.3288e-009     1.0829e-008     5.753e-010     
  -1              2.368e-009      1.0432e-008     7.439e-010     
  -1.05           2.362e-009      9.937e-009      8.961e-010     
  -1.1            2.3142e-009     9.817e-009      1.0391e-009    
  -1.15           2.2061e-009     1.0548e-008     1.1868e-009    
  -1.2            1.9334e-009     1.0267e-008     -1.843e-010    
  -1.25           8.363e-010      2.4388e-008     -1.5854e-009   
  -1.3            -1.4917e-009    6.968e-009      -1.748e-009    
  -1.35           -1.5855e-009    -1.8654e-008    2.1044e-009    
  -1.4            1.9642e-009     -7.351e-009     1.4236e-009    
  -1.45           2.0545e-009     9.822e-009      4.2e-011       
  -1.5            2.1583e-009     9.972e-009      2.071e-010     
  -1.55           2.249e-009      1.0464e-008     3.888e-010     
  -1.6            2.3236e-009     1.0416e-008     5.686e-010     
  -1.65           2.3672e-009     1.0158e-008     7.406e-010     
  -1.7            2.365e-009      9.904e-009      8.886e-010     
  -1.75           2.3192e-009     1.0189e-008     1.0303e-009    
  -1.8            2.2182e-009     1.1564e-008     1.177e-009     
END_DB

BEGIN_DB
 ICCAP_VAR VG         -0.72          
 ICCAP_VAR VS         0              
 ICCAP_VAR VB         0              

 #VD              ID              IB              IG             
  0               -3.1987e-009    1.2485e-008     -7.436e-010    
  -0.05           -2.5862e-008    1.7384e-008     -1.5237e-009   
  -0.1            -3.5742e-008    1.2885e-008     -1.6215e-009   
  -0.15           -4.1199e-008    9.709e-009      -1.3707e-009   
  -0.2            -3.8258e-008    1.0763e-008     -2.0649e-009   
  -0.25           -4.0703e-008    1.021e-008      -1.5557e-009   
  -0.3            -3.6448e-008    1.2895e-008     -1.664e-009    
  -0.35           -4.1157e-008    9.732e-009      -1.3806e-009   
  -0.4            -3.7118e-008    1.0692e-008     -2.1291e-009   
  -0.45           -3.3903e-008    1.2035e-008     -2.2733e-009   
  -0.5            -4.4134e-008    1.1423e-008     -1.3608e-009   
  -0.55           -4.2731e-008    1.054e-008      -2.018e-009    
  -0.6            -4.4864e-008    1.0137e-008     -1.5308e-009   
  -0.65           -4.287e-008     1.2322e-008     -1.6305e-009   
  -0.7            -5.0417e-008    9.756e-009      -1.3708e-009   
  -0.75           -4.4876e-008    1.0489e-008     -2.0787e-009   
  -0.8            -4.7228e-008    1.0228e-008     -1.5633e-009   
  -0.85           -4.0278e-008    1.2467e-008     -1.6719e-009   
  -0.9            -4.4468e-008    9.769e-009      -1.3821e-009   
  -0.95           -4.0247e-008    1.0511e-008     -2.1294e-009   
  -1              -4.3631e-008    1.2067e-008     -2.2782e-009   
  -1.05           -5.0399e-008    1.1304e-008     -1.3603e-009   
  -1.1            -3.5091e-008    1.0495e-008     -2.0263e-009   
  -1.15           -3.0803e-008    1.0141e-008     -1.5326e-009   
  -1.2            -2.8736e-008    1.2289e-008     -1.6318e-009   
  -1.25           -2.8539e-008    9.704e-009      -1.371e-009    
  -1.3            -2.6305e-008    1.0488e-008     -2.0827e-009   
  -1.35           -3.4314e-008    1.0297e-008     -1.5682e-009   
  -1.4            -4.0318e-008    1.2496e-008     -1.6789e-009   
  -1.45           -4.7245e-008    9.752e-009      -1.3827e-009   
  -1.5            -3.9058e-008    1.0531e-008     -2.1444e-009   
  -1.55           -3.7979e-008    1.1888e-008     -2.2871e-009   
  -1.6            -5.2288e-008    1.1367e-008     -1.3615e-009   
  -1.65           -4.5233e-008    1.0545e-008     -2.0426e-009   
  -1.7            -4.5879e-008    1.014e-008      -1.5377e-009   
  -1.75           -4.4407e-008    1.228e-008      -1.6408e-009   
  -1.8            -4.9112e-008    9.733e-009      -1.3731e-009   
END_DB

BEGIN_DB
 ICCAP_VAR VG         -1.08          
 ICCAP_VAR VS         0              
 ICCAP_VAR VB         0              

 #VD              ID              IB              IG             
  0               -5.0148e-008    -1.0775e-008    -4.92e-010     
  -0.05           -4.3176e-007    7.957e-009      2.222e-010     
  -0.1            -7.9233e-007    -1.7087e-008    4.336e-010     
  -0.15           -9.1801e-007    -1.348e-008     2.7135e-009    
  -0.2            -1.14983e-007   -1.5692e-008    9.757e-010     
  -0.25           -1.0203e-006    -2.5443e-008    -2.2746e-009   
  -0.3            -8e-010         1.0134e-008     -2.7347e-009   
  -0.35           -1e-009         1.0281e-008     -2.6653e-009   
  -0.4            -1e-009         1.0313e-008     -2.6989e-009   
  -0.45           -1.47e-008      9.855e-009      -1.3448e-009   
  -0.5            -1.5e-009       -5.733e-009     -2.7437e-009   
  -0.55           -1e-009         1.0047e-008     -2.7143e-009   
  -0.6            -1.2e-009       1.026e-008      -2.6371e-009   
  -0.65           -2.2e-008       1.0613e-008     -1.3177e-009   
  -0.7            -6.57e-008      5.446e-009      -1.4125e-009   
  -0.75           -1.2e-009       1.0241e-008     -2.6025e-009   
  -0.8            -3.24e-008      1.0081e-008     -1.3128e-009   
  -0.85           -8.01e-008      5.95e-009       -1.3943e-009   
  -0.9            -1.2e-009       1.0517e-008     -2.5601e-009   
  -0.95           -4.82e-008      1.0188e-008     -1.3026e-009   
  -1              -9.71e-008      6.335e-009      -1.3766e-009   
  -1.05           -1e-009         1.0215e-008     -2.6898e-009   
  -1.1            -6e-010         1.0258e-008     -2.669e-009    
  -1.15           -1.1e-008       1.0061e-008     -1.3298e-009   
  -1.2            1.07e-009       -5.171e-009     2.7821e-009    
  -1.25           -2.5e-009       -7.456e-009     1.2918e-009    
  -1.3            -1.27e-008      -5.815e-009     1.5917e-009    
  -1.35           1.6e-009        -1.0668e-008    2.8592e-009    
  -1.4            1.9e-009        -1.5925e-008    2.6347e-009    
  -1.45           1.6e-009        -1.0681e-008    2.8436e-009    
  -1.5            1.7e-009        -1.4395e-008    2.6958e-009    
  -1.55           1.7e-009        -1.0667e-008    2.8521e-009    
  -1.6            1.7e-009        -1.5222e-008    2.6707e-009    
  -1.65           -7e-008         -1.0692e-008    1.1838e-009    
  -1.7            -1.626e-007     -8.716e-009     1.2358e-009    
  -1.75           1.6e-009        -1.1002e-008    2.7721e-009    
  -1.8            -1.494e-006     -1.7637e-008    2.1059e-009    
END_DB

BEGIN_DB
 ICCAP_VAR VG         -1.44          
 ICCAP_VAR VS         0              
 ICCAP_VAR VB         0              

 #VD              ID              IB              IG             
  0               -1.4231e-007    1.001e-008      -6.265e-010    
  -0.05           -4.6987e-007    1.0525e-008     1.422e-010     
  -0.1            -2.7121e-006    1.6358e-008     -1.7956e-009   
  -0.15           -3.284e-007     1.3028e-008     -2.6225e-009   
  -0.2            -1.4787e-006    1.0531e-008     -1.5374e-009   
  -0.25           -3.9956e-006    7.934e-009      -2.6022e-009   
  -0.3            -3.365e-007     1.0005e-008     -2.0773e-009   
  -0.35           -6.0616e-006    1.9603e-008     -1.5914e-009   
  -0.4            -1.6888e-006    1.0462e-008     -1.542e-009    
  -0.45           -5.0241e-006    7.706e-009      -2.6079e-009   
  -0.5            -2.788e-007     1.1739e-008     -2.4158e-009   
  -0.55           -3.1016e-006    9.678e-009      3.421e-010     
  -0.6            -6.9075e-006    -1.7089e-008    2.257e-009     
  -0.65           -6.9888e-006    -1.8588e-008    2.0028e-009    
  -0.7            -2.7167e-006    -1.0253e-008    -4.623e-010    
  -0.75           -7.5002e-006    1.3667e-008     -1.9981e-009   
  -0.8            -3.5671e-006    9.709e-009      2.966e-010     
  -0.85           -7.0842e-006    -1.6915e-008    2.3229e-009    
  -0.9            -4.0633e-006    -1.0298e-008    -2.385e-010    
  -0.95           -7.0784e-006    1.01e-008       -2.2708e-009   
  -1              -1.6968e-006    9.935e-009      -9.662e-010    
  -1.05           -8.276e-006     2.3421e-008     -1.4398e-009   
  -1.1            -1.7976e-006    1.0528e-008     -1.247e-009    
  -1.15           -8.2541e-006    2.7294e-008     -1.3358e-009   
  -1.2            -1.448e-006     9.92e-009       -1.6554e-009   
  -1.25           -6.7531e-006    7.582e-009      -2.4925e-009   
  -1.3            -5.551e-007     1.1786e-008     -1.9256e-009   
  -1.35           -8.3552e-006    1.2655e-008     -1.4088e-009   
  -1.4            -1.7531e-006    1.0793e-008     -1.4306e-009   
  -1.45           -5.1247e-006    8.475e-009      -2.6696e-009   
  -1.5            -9.846e-007     9.777e-009      -1.7938e-009   
  -1.55           -8.5935e-006    1.7802e-008     -1.5802e-009   
  -1.6            -1.6959e-006    1.0486e-008     -1.0798e-009   
  -1.65           -7.9379e-006    2.5196e-008     -1.3827e-009   
  -1.7            -1.5532e-006    1.0319e-008     -1.4889e-009   
  -1.75           -5.5541e-006    8.233e-009      -2.6365e-009   
  -1.8            -8.551e-007     1.0536e-008     -1.8322e-009   
END_DB

BEGIN_DB
 ICCAP_VAR VG         -1.8           
 ICCAP_VAR VS         0              
 ICCAP_VAR VB         0              

 #VD              ID              IB              IG             
  0               -6.492e-008     1.0264e-008     -4.094e-010    
  -0.05           -1.856e-006     9.627e-009      2.2133e-009    
  -0.1            -6.1935e-006    -2.0366e-008    1.6068e-009    
  -0.15           -6.718e-006     -1.097e-008     -7.49e-010     
  -0.2            -5.3515e-006    1.847e-008      2.6911e-009    
  -0.25           -1.0801e-005    8.859e-009      -1.2306e-009   
  -0.3            -6.291e-006     -1.81e-010      2.678e-009     
  -0.35           -1.6238e-005    -1.8999e-008    1.9351e-009    
  -0.4            -1.757e-005     -1.3609e-008    2.536e-010     
  -0.45           -1.8086e-005    8.167e-009      -2.444e-009    
  -0.5            -7.0056e-006    9.753e-009      2.0016e-009    
  -0.55           -6.658e-006     -1.9972e-008    2.8542e-009    
  -0.6            -1.8711e-005    -1.104e-008     3.13e-011      
  -0.65           -2.132e-005     1.2086e-008     -2.083e-009    
  -0.7            -6.0491e-006    1.0629e-008     -2.2378e-009   
  -0.75           -6.3154e-006    -1.0906e-008    1.6278e-009    
  -0.8            -6.092e-006     1.1771e-008     2.846e-009     
  -0.85           -2.1949e-005    -1.2686e-008    2.053e-010     
  -0.9            -2.1823e-005    8.988e-009      -2.3703e-009   
  -0.95           -6.1e-006       1.238e-008      2.8274e-009    
  -1              -2.2376e-005    -2.7113e-008    1.2261e-009    
  -1.05           -1.3455e-005    -1.0442e-008    -5.386e-010    
  -1.1            -2.3507e-005    2.2355e-008     -1.476e-009    
  -1.15           -5.9979e-006    1.0018e-008     -2.2429e-009   
  -1.2            -2.3498e-005    -2.5965e-008    1.2607e-009    
  -1.25           -1.576e-005     -1.0316e-008    -3.69e-010     
  -1.3            -2.4287e-005    1.988e-008      -1.6043e-009   
  -1.35           -6.2818e-006    1.0335e-008     -2.0237e-009   
  -1.4            -1.344e-005     -1.0945e-008    -7.634e-010    
  -1.45           -2.5038e-005    2.53e-008       -1.3807e-009   
  -1.5            -6.194e-006     1.0019e-008     2.6323e-009    
  -1.55           -2.3501e-005    -2.1608e-008    1.8466e-009    
  -1.6            -2.2954e-005    -1.2869e-008    2.142e-010     
  -1.65           -2.258e-005     8.786e-009      -2.3919e-009   
  -1.7            -6.049e-006     1.2938e-008     2.8337e-009    
  -1.75           -2.32e-005      -2.6868e-008    1.228e-009     
  -1.8            -2.3208e-005    -1.8683e-008    1.6633e-009    
END_DB

BEGIN_DB
 ICCAP_VAR VG         0              
 ICCAP_VAR VS         0              
 ICCAP_VAR VB         0.9            

 #VD              ID              IB              IG             
  0               7.946e-010      -1.2168e-008    8.401e-010     
  -0.05           2.3596e-009     -8.483e-009     8.847e-010     
  -0.1            2.3186e-009     9.747e-009      1.0251e-009    
  -0.15           2.2215e-009     1.1375e-008     1.1723e-009    
  -0.2            1.9292e-009     1.0198e-008     -2.013e-010    
  -0.25           2.0065e-009     9.81e-009       -5.71e-011     
  -0.3            2.096e-009      9.742e-009      9.7e-011       
  -0.35           2.198e-009      1.03e-008       2.709e-010     
  -0.4            2.2769e-009     1.0565e-008     4.491e-010     
  -0.45           2.3467e-009     1.0495e-008     6.254e-010     
  -0.5            2.3645e-009     1.0153e-008     7.839e-010     
  -0.55           2.3538e-009     9.713e-009      9.309e-010     
  -0.6            2.2945e-009     9.833e-009      1.0664e-009    
  -0.65           2.18e-009       1.042e-008      1.2139e-009    
  -0.7            1.9566e-009     1.0016e-008     -1.598e-010    
  -0.75           8.967e-010      2.4516e-008     -1.5612e-009   
  -0.8            -1.4656e-009    7.419e-009      -1.7668e-009   
  -0.85           -2.1988e-009    -1.0926e-008    -4.01e-010     
  -0.9            -4.971e-010     -1.7479e-008    2.569e-009     
  -0.95           2.2604e-009     -3.195e-009     1.1249e-009    
  -1              2.1197e-009     1.0798e-008     1.2776e-009    
  -1.05           1.9244e-009     1.1789e-008     1.4452e-009    
  -1.1            2.0612e-009     9.792e-009      5.17e-011      
  -1.15           2.1654e-009     1.0054e-008     2.221e-010     
  -1.2            2.2548e-009     1.0666e-008     4.01e-010      
  -1.25           2.3258e-009     1.0863e-008     5.781e-010     
  -1.3            2.3627e-009     1.0493e-008     7.336e-010     
  -1.35           2.3609e-009     1.0002e-008     8.847e-010     
  -1.4            2.3178e-009     9.734e-009      1.023e-009     
  -1.45           2.2219e-009     1.0205e-008     1.1656e-009    
  -1.5            1.9249e-009     1.0189e-008     -2.104e-010    
  -1.55           8.584e-010      2.3623e-008     -1.6197e-009   
  -1.6            -1.5316e-009    6.779e-009      -1.7267e-009   
  -1.65           -2.1831e-009    -1.076e-008     -3.341e-010    
  -1.7            -2.2374e-009    -1.0915e-008    -5.313e-010    
  -1.75           -1.4583e-009    -2.3787e-008    1.2182e-009    
  -1.8            -4.11e-011      -1.2394e-008    2.8609e-009    
END_DB

BEGIN_DB
 ICCAP_VAR VG         -0.36          
 ICCAP_VAR VS         0              
 ICCAP_VAR VB         0.9            

 #VD              ID              IB              IG             
  0               -1.1231e-009    -1.1312e-008    -1.2676e-009   
  -0.05           -1.3368e-009    -2.6335e-008    1.2531e-009    
  -0.1            6.48e-011       -1.0074e-008    2.8489e-009    
  -0.15           2.0522e-009     1.3074e-008     3.27e-011      
  -0.2            2.1546e-009     9.984e-009      1.958e-010     
  -0.25           2.2425e-009     1.0573e-008     3.778e-010     
  -0.3            2.3189e-009     1.0786e-008     5.532e-010     
  -0.35           2.3607e-009     1.0484e-008     7.171e-010     
  -0.4            2.3636e-009     9.988e-009      8.635e-010     
  -0.45           2.335e-009      9.71e-009       1.0086e-009    
  -0.5            2.2496e-009     1.0255e-008     1.1477e-009    
  -0.55           2.1038e-009     1.1096e-008     1.2989e-009    
