! VERSION = 6.00
BEGIN_HEADER
 ICCAP_INPUTS
  VG         V  B GROUND SMU4 0.001 LIN        1    0          -1.8       37   -0.05     
  VS         V  E GROUND SMU2 0.1 CON        0
  VB         V  C GROUND SMU3 0.1 LIN        3    0          1.8        3    0.9       
  VD         V  S GROUND SMU1 0.1 LIN        2    -0.1       -1.8       2    -1.7      
 ICCAP_OUTPUTS
  IG         I  B GROUND SMU4 B
  ID         I  S GROUND SMU1 B
  IB         I  C GROUND SMU3 B
END_HEADER

BEGIN_DB
 ICCAP_VAR VS         0              
 ICCAP_VAR VB         0              
 ICCAP_VAR VD         -0.1           

 #VG              IG              ID              IB             
  0               -5.206e-010     -6.354e-010     9.74e-009      
  -0.05           -1.2851e-009    5.7e-011        7.987e-009     
  -0.1            -2.599e-009     2.022e-010      9.122e-009     
  -0.15           -1.9003e-009    -1.2699e-009    6.69e-010      
  -0.2            1.6135e-009     -1.7558e-009    -1.3083e-008   
  -0.25           1.4048e-009     4.7e-011        -8.981e-009    
  -0.3            1.2894e-009     -8.738e-010     -8.988e-009    
  -0.35           2.8149e-009     -3.6304e-009    -9.444e-009    
  -0.4            -1.3212e-009    -1.2534e-008    -1.0459e-008   
  -0.45           -2.6201e-009    -3.5763e-008    8.509e-009     
  -0.5            -2.143e-009     -9.7643e-008    6.73e-010      
  -0.55           7.994e-010      -2.4713e-007    -1.6218e-008   
  -0.6            1.1579e-009     -5.9647e-007    9.719e-009     
  -0.65           -1.3334e-009    -1.2837e-006    -1.0691e-008   
  -0.7            -2.6619e-009    -2.6154e-006    8.717e-009     
  -0.75           -2.2537e-009    -4.9302e-006    4.12e-010      
  -0.8            1.924e-010      -8.6407e-006    -1.2789e-008   
  -0.85           9.595e-010      -1.3755e-005    -2.1201e-008   
  -0.9            -1.986e-010     -2.0448e-005    1.1901e-008    
  -0.95           -1.4003e-009    -2.8715e-005    2.4381e-008    
  -1              -1.3082e-009    -3.8366e-005    8.628e-009     
  -1.05           -2.5484e-009    -4.8992e-005    8.054e-009     
  -1.1            -1.9971e-009    -6.0466e-005    9.03e-010      
  -1.15           -9.759e-010     -7.2218e-005    -1.0832e-008   
  -1.2            2.177e-010      -8.4417e-005    -1.3116e-008   
  -1.25           1.4303e-009     -9.6179e-005    -2.2523e-008   
  -1.3            2.8398e-009     -0.000107747    -8.938e-009    
  -1.35           2.8637e-009     -0.00011887     9.731e-009     
  -1.4            2.588e-009      -0.00012966     -1.38e-010     
  -1.45           1.919e-009      -0.00013996     -2.661e-009    
  -1.5            1.3756e-009     -0.0001497      -8.538e-009    
  -1.55           2.8485e-009     -0.000159       -9.182e-009    
  -1.6            2.7589e-009     -0.00016762     3.41e-010      
  -1.65           1.398e-009      -0.00017616     1.135e-008     
  -1.7            2.701e-010      -0.00018365     9.918e-009     
  -1.75           7.095e-010      -0.00019115     1.0408e-008    
  -1.8            1.0725e-009     -0.00019826     9.841e-009     
END_DB

BEGIN_DB
 ICCAP_VAR VS         0              
 ICCAP_VAR VB         0              
 ICCAP_VAR VD         -1.8           

 #VG              IG              ID              IB             
  0               7.421e-010      7.219e-010      9.958e-009     
  -0.05           1.2621e-009     4.39e-011       -9.185e-009    
  -0.1            2.8334e-009     -4.595e-010     -9.933e-009    
  -0.15           -2.312e-009     -2.5029e-009    1.2619e-008    
  -0.2            1.6464e-009     -6.9392e-009    -1.335e-008    
  -0.25           -2.6141e-009    -1.648e-008     -1.758e-008    
  -0.3            2.446e-010      -4.4134e-008    -1.3593e-008   
  -0.35           1.4656e-009     -1.08163e-007   -2.2057e-008   
  -0.4            2.4144e-009     -2.4528e-007    -1.3346e-008   
  -0.45           1.3794e-009     -5.496e-007     1.1198e-008    
  -0.5            -2.7071e-009    -1.1434e-006    -2.7117e-008   
  -0.55           -1.64e-010      -2.3658e-006    -1.0695e-008   
  -0.6            -6.57e-010      -4.5943e-006    -1.0749e-008   
  -0.65           1.7875e-009     -8.6382e-006    -2.0279e-008   
  -0.7            -2.5939e-009    -1.5067e-005    9.818e-009     
  -0.75           -2.111e-009     -2.5062e-005    6.38e-010      
  -0.8            1.2444e-009     -3.9995e-005    -2.6572e-008   
  -0.85           2.8358e-009     -5.9918e-005    -1.0151e-008   
  -0.9            1.2651e-009     -8.5655e-005    1.0527e-008    
  -0.95           2.818e-009      -0.00011656     1.1263e-008    
  -1              1.2929e-009     -0.00015489     1.0798e-008    
  -1.05           1.7169e-009     -0.00019856     1.2671e-008    
  -1.1            5.982e-010      -0.00024618     1.0649e-008    
  -1.15           9.833e-010      -0.0003011      1.0357e-008    
  -1.2            1.3718e-009     -0.00036089     1.1529e-008    
  -1.25           2.364e-010      -0.00042157     1.0222e-008    
  -1.3            6.824e-010      -0.00048912     1.0649e-008    
  -1.35           1.0501e-009     -0.00056024     1.0046e-008    
  -1.4            1.4534e-009     -0.00063454     1.1892e-008    
  -1.45           3.17e-010       -0.00070733     1.0006e-008    
  -1.5            7.523e-010      -0.0007857      1.0451e-008    
  -1.55           1.1202e-009     -0.00086676     9.825e-009     
  -1.6            1.5278e-009     -0.00094895     1.225e-008     
  -1.65           1.9551e-009     -0.00103067     1.2166e-008    
  -1.7            8.273e-010      -0.00111364     1.036e-008     
  -1.75           -2.0345e-009    -0.0011976      1.2152e-008    
  -1.8            1.49e-011       -0.0012851      -1.1198e-008   
END_DB

BEGIN_DB
 ICCAP_VAR VS         0              
 ICCAP_VAR VB         0.9            
 ICCAP_VAR VD         -0.1           

 #VG              IG              ID              IB             
  0               2.2398e-009     2.2668e-009     4.71e-010      
  -0.05           5.369e-010      2.2781e-009     1.0379e-008    
  -0.1            7.114e-010      2.325e-009      1.0171e-008    
  -0.15           8.665e-010      2.3322e-009     9.781e-009     
  -0.2            1.015e-009      2.2949e-009     1.001e-008     
  -0.25           1.1634e-009     2.1969e-009     1.1328e-008    
  -0.3            -2.119e-010     1.8988e-009     1.029e-008     
  -0.35           -1.5741e-009    8.36e-010       2.4007e-008    
  -0.4            -1.7345e-009    -1.6202e-009    6.975e-009     
  -0.45           -3.621e-010     -2.7458e-009    -1.0795e-008   
  -0.5            2.5774e-009     -2.83e-009      -1.716e-008    
  -0.55           2.3153e-009     -8.0475e-009    -2.932e-009    
  -0.6            -2.6164e-009    -3.051e-008     -2.5792e-008   
  -0.65           -2.1653e-009    -9.283e-008     5.57e-010      
  -0.7            8.908e-010      -2.5831e-007    -1.7145e-008   
  -0.75           1.2628e-009     -6.6632e-007    1.0233e-008    
  -0.8            -1.333e-009     -1.4835e-006    -1.0724e-008   
  -0.85           -1.2759e-009    -3.1007e-006    8.786e-009     
  -0.9            -2.2845e-009    -5.9223e-006    9.877e-009     
  -0.95           2.052e-010      -1.04919e-005   -1.2928e-008   
  -1              8.476e-010      -1.6625e-005    -1.966e-008    
  -1.05           1.2185e-009     -2.48e-005      9.712e-009     
  -1.1            6.72e-011       -3.4061e-005    1.0143e-008    
  -1.15           5.173e-010      -4.4845e-005    1.0184e-008    
  -1.2            9.169e-010      -5.6499e-005    1.0558e-008    
  -1.25           1.2903e-009     -6.8569e-005    1.0425e-008    
  -1.3            1.7147e-009     -8.049e-005     1.2417e-008    
  -1.35           5.968e-010      -9.1971e-005    1.0363e-008    
  -1.4            9.747e-010      -0.000103546    1.0173e-008    
  -1.45           -6.538e-010     -0.00011445     1.1064e-008    
  -1.5            1.7857e-009     -0.00012498     -2.0575e-008   
  -1.55           1.3078e-009     -0.00013491     -9.023e-009    
  -1.6            2.8508e-009     -0.00014429     -9.309e-009    
  -1.65           2.67e-009       -0.00015308     5e-012         
  -1.7            5.895e-010      -0.00016136     1.0489e-008    
  -1.75           9.734e-010      -0.00016944     1.037e-008     
  -1.8            1.3616e-009     -0.00017703     1.0098e-008    
END_DB

BEGIN_DB
 ICCAP_VAR VS         0              
 ICCAP_VAR VB         0.9            
 ICCAP_VAR VD         -1.8           

 #VG              IG              ID              IB             
  0               -7.672e-010     1.919e-010      1.2636e-008    
  -0.05           -1.1369e-009    -2.1442e-009    8.9e-009       
  -0.1            1.4139e-009     -1.0859e-009    -2.5979e-008   
  -0.15           9.444e-010      2.2839e-009     -8.916e-009    
  -0.2            -1.2784e-009    1.4376e-009     1.0808e-008    
  -0.25           -2.3962e-009    -1.6307e-009    1.0013e-008    
  -0.3            -1.49e-010      -4.0145e-009    -1.0338e-008   
  -0.35           -3.645e-010     -8.8608e-009    -1.0813e-008   
  -0.4            2.5535e-009     -2.0653e-008    1.1276e-008    
  -0.45           5.336e-010      -6.1368e-008    1.0252e-008    
  -0.5            2.852e-009      -1.6544e-007    -1.0923e-008   
  -0.55           2.5966e-009     -4.004e-007     -2.09e-010     
  -0.6            1.9315e-009     -9.1271e-007    -2.865e-009    
  -0.65           2.4208e-009     -1.9673e-006    1.511e-008     
  -0.7            -1.7023e-009    -4.0483e-006    2.203e-008     
  -0.75           -2.7035e-009    -7.9676e-006    -4.994e-009    
  -0.8            1.4396e-009     -1.492e-005     -2.6981e-008   
  -0.85           3.089e-010      -2.5213e-005    9.979e-009     
  -0.9            7.437e-010      -4.0928e-005    1.0928e-008    
  -0.95           1.1089e-009     -6.2706e-005    1.0061e-008    
  -1              1.5118e-009     -9.0749e-005    1.093e-008     
  -1.05           2.815e-009      -0.00012403     1.043e-008     
  -1.1            1.2902e-009     -0.0001653      1.072e-008     
  -1.15           1.7201e-009     -0.00021192     1.2834e-008    
  -1.2            6.044e-010      -0.00026243     1.0767e-008    
  -1.25           9.855e-010      -0.00031995     1.0376e-008    
  -1.3            -1.715e-010     -0.00038025     1.1844e-008    
  -1.35           2.341e-010      -0.00044544     1.0103e-008    
  -1.4            6.766e-010      -0.00051467     1.0719e-008    
  -1.45           1.0462e-009     -0.00058767     1.0073e-008    
  -1.5            1.445e-009      -0.00066306     1.0566e-008    
  -1.55           3.162e-010      -0.00073692     1.0005e-008    
  -1.6            7.505e-010      -0.00081622     1.0885e-008    
  -1.65           1.1122e-009     -0.00089773     9.944e-009     
  -1.7            1.526e-009      -0.00098034     1.0963e-008    
  -1.75           1.9422e-009     -0.00106243     1.2637e-008    
  -1.8            4.752e-010      -0.0011446      -2.6457e-008   
END_DB

BEGIN_DB
 ICCAP_VAR VS         0              
 ICCAP_VAR VB         1.8            
 ICCAP_VAR VD         -0.1           

 #VG              IG              ID              IB             
  0               -1.1121e-009    -1.0097e-009    -1.866e-008    
  -0.05           1.5481e-009     -1.6828e-009    -1.229e-008    
  -0.1            8.403e-010      2.3354e-009     -8.816e-009    
  -0.15           9.864e-010      2.3048e-009     9.702e-009     
  -0.2            -1.4788e-009    1.7962e-009     1.1633e-008    
  -0.25           -1.8097e-009    -1.3658e-009    8.219e-009     
  -0.3            -4.841e-010     -2.1978e-009    -1.107e-008    
  -0.35           2.4502e-009     -5.791e-010     -1.8279e-008   
  -0.4            1.2108e-009     2.1401e-009     -4.212e-009    
  -0.45           -1.686e-010     1.8126e-009     1.0088e-008    
  -0.5            -8.3e-012       1.4945e-009     9.806e-009     
  -0.55           -1.3016e-009    -2.1444e-009    9.824e-009     
  -0.6            -1.2825e-009    -8.0204e-009    7.875e-009     
  -0.65           2.808e-009      -2.8115e-008    1.8884e-008    
  -0.7            1.9895e-009     -9.2651e-008    1.2587e-008    
  -0.75           1.0372e-009     -2.6847e-007    -1.851e-008    
  -0.8            1.4314e-009     -6.8806e-007    1.0375e-008    
  -0.85           -1.9896e-009    -1.5413e-006    -1.3282e-008   
  -0.9            -9.817e-010     -3.2218e-006    -1.0981e-008   
  -0.95           2.116e-010      -6.2411e-006    -1.307e-008    
  -1              1.4203e-009     -1.08105e-005   -2.2467e-008   
  -1.05           -1.5265e-009    -1.7038e-005    -8.848e-009    
  -1.1            -1.3388e-009    -2.5187e-005    7.64e-009      
  -1.15           -1.2832e-009    -3.4872e-005    8.945e-009     
  -1.2            -2.3255e-009    -4.5698e-005    9.438e-009     
  -1.25           2.23e-010       -5.7609e-005    -1.3303e-008   
  -1.3            1.4337e-009     -6.9402e-005    -2.2092e-008   
  -1.35           2.8244e-009     -8.1194e-005    -8.865e-009    
  -1.4            2.0376e-009     -9.2697e-005    1.2617e-008    
  -1.45           8.973e-010      -0.000103842    1.0347e-008    
  -1.5            -5.518e-010     -0.00011446     1.0326e-008    
  -1.55           1.9446e-009     -0.00012462     -1.838e-008    
  -1.6            1.3713e-009     -0.00013417     -8.632e-009    
  -1.65           2.8401e-009     -0.00014326     -9.091e-009    
  -1.7            2.7511e-009     -0.00015175     2.81e-010      
  -1.75           1.4005e-009     -0.00015999     1.1303e-008    
  -1.8            2.653e-010      -0.00016734     9.817e-009     
END_DB

BEGIN_DB
 ICCAP_VAR VS         0              
 ICCAP_VAR VB         1.8            
 ICCAP_VAR VD         -1.8           

 #VG              IG              ID              IB             
  0               -1.2548e-009    -1.0948e-009    -1.2546e-008   
  -0.05           2.3176e-009     -6.498e-010     -1.8804e-008   
  -0.1            1.2927e-009     2.0961e-009     -5.325e-009    
  -0.15           -1.424e-009     1.8194e-009     1.2475e-008    
  -0.2            -1.8569e-009    -1.3654e-009    8.496e-009     
  -0.25           1.7605e-009     -1.8754e-009    -1.4442e-008   
  -0.3            1.5043e-009     -5.263e-010     -9.294e-009    
  -0.35           1.3475e-009     -3.1423e-009    -8.903e-009    
  -0.4            -1.2904e-009    -1.2423e-008    -1.0263e-008   
  -0.45           -2.4595e-009    -3.6956e-008    8.134e-009     
  -0.5            -6.896e-010     -1.05469e-007   -1.0736e-008   
  -0.55           -2.7044e-009    -2.6401e-007    1.026e-008     
  -0.6            -1.798e-010     -6.3181e-007    -1.0515e-008   
  -0.65           2.8568e-009     -1.4215e-006    1.0485e-008    
  -0.7            2.6216e-009     -3.0127e-006    -2.81e-010     
  -0.75           1.9806e-009     -6.1298e-006    -2.451e-009    
  -0.8            -2.7024e-009    -1.1559e-005    1.0573e-008    
  -0.85           1.2258e-009     -2.0783e-005    -2.7091e-008   
  -0.9            2.8201e-009     -3.4584e-005    -1.0801e-008   
  -0.95           3.831e-010      -5.3299e-005    9.924e-009     
  -1              7.986e-010      -7.8864e-005    1.0707e-008    
  -1.05           1.1582e-009     -0.000111232    1.007e-008     
  -1.1            2.8343e-009     -0.0001488      1.0506e-008    
  -1.15           2.0275e-009     -0.00019342     1.2069e-008    
  -1.2            8.962e-010      -0.0002431      1.0699e-008    
  -1.25           1.2599e-009     -0.00029895     1.0559e-008    
  -1.3            1.106e-010      -0.00035656     1.0236e-008    
  -1.35           5.577e-010      -0.00042061     1.0461e-008    
  -1.4            9.463e-010      -0.00048864     1.0542e-008    
  -1.45           1.3177e-009     -0.00056021     1.1032e-008    
  -1.5            1.736e-009      -0.00063317     1.2666e-008    
  -1.55           6.16e-010       -0.00070615     1.0557e-008    
  -1.6            9.885e-010      -0.00078454     1.0325e-008    
  -1.65           -1.7e-010       -0.00086216     1.1579e-008    
  -1.7            -1.3913e-009    -0.00094222     2.4892e-008    
  -1.75           -1.3049e-009    -0.00102393     8.946e-009     
  -1.8            -2.5441e-009    -0.00110682     8.116e-009     
END_DB

