! VERSION = 6.00
BEGIN_HEADER
 ICCAP_INPUTS
  VG         V  B GROUND SMU4 0.001 LIN        1    0          -1.8       37   -0.05     
  VS         V  E GROUND SMU2 0.1 CON        0
  VB         V  C GROUND SMU3 0.1 LIN        3    0          1.8        3    0.9       
  VD         V  S GROUND SMU1 0.1 LIN        2    -0.1       -1.8       2    -1.7      
 ICCAP_OUTPUTS
  IG         I  B GROUND SMU4 B
  ID         I  S GROUND SMU1 B
  IB         I  C GROUND SMU3 B
END_HEADER

BEGIN_DB
 ICCAP_VAR VS         0              
 ICCAP_VAR VB         0              
 ICCAP_VAR VD         -0.1           

 #VG              IG              ID              IB             
  0               6.542e-010      7.333e-010      -1.0958e-008   
  -0.05           1.1405e-009     2.2581e-009     -9.586e-009    
  -0.1            1.3194e-009     2.0983e-009     1.2079e-008    
  -0.15           -1.045e-010     2.0076e-009     9.748e-009     
  -0.2            8.33e-011       2.0999e-009     9.479e-009     
  -0.25           2.745e-010      2.2091e-009     9.776e-009     
  -0.3            4.704e-010      2.2726e-009     1.0589e-008    
  -0.35           6.681e-010      2.244e-009      1.0771e-008    
  -0.4            -1.3273e-009    9.549e-010      1.0529e-008    
  -0.45           -2.7249e-009    -2.4555e-009    7.996e-009     
  -0.5            2.2408e-009     -6.1248e-009    -1.957e-008    
  -0.55           -2.3042e-009    -1.8684e-008    -1.0775e-008   
  -0.6            1.869e-010      -6.2301e-008    -1.2669e-008   
  -0.65           -2.6858e-009    -1.7822e-007    9.939e-009     
  -0.7            1.972e-010      -5.0166e-007    -1.2833e-008   
  -0.75           1.3088e-009     -1.2245e-006    9.5e-009       
  -0.8            2.8931e-009     -2.7418e-006    -9.565e-009    
  -0.85           2.6857e-009     -5.4369e-006    1.25e-010      
  -0.9            1.5638e-009     -9.8377e-006    1.0849e-008    
  -0.95           -1.8781e-009    -1.5599e-005    1.2408e-008    
  -1              -2.7273e-009    -2.3233e-005    -5.246e-009    
  -1.05           1.12e-010       -3.236e-005     -1.1581e-008   
  -1.1            -3.058e-010     -4.2148e-005    -1.0105e-008   
  -1.15           -7.936e-010     -5.2547e-005    -1.0715e-008   
  -1.2            1.536e-009      -6.3561e-005    -1.6636e-008   
  -1.25           1.2282e-009     -7.4375e-005    -8.939e-009    
  -1.3            2.8546e-009     -8.5114e-005    -1.0604e-008   
  -1.35           1.3189e-009     -9.558e-005     9.955e-009     
  -1.4            1.38e-010       -0.000105186    9.709e-009     
  -1.45           -3.948e-010     -0.00011478     9.526e-009     
  -1.5            1.07e-011       -0.00012378     1.0106e-008    
  -1.55           4.673e-010      -0.00013235     9.626e-009     
  -1.6            9.071e-010      -0.00014053     1.0833e-008    
  -1.65           1.3041e-009     -0.00014833     9.944e-009     
  -1.7            1.267e-010      -0.00015531     9.815e-009     
  -1.75           5.899e-010      -0.00016219     9.928e-009     
  -1.8            1.0074e-009     -0.00016878     1.0653e-008    
END_DB

BEGIN_DB
 ICCAP_VAR VS         0              
 ICCAP_VAR VB         0              
 ICCAP_VAR VD         -1.8           

 #VG              IG              ID              IB             
  0               8.368e-010      8.147e-010      2.5261e-008    
  -0.05           8.46e-010       2.365e-009      -9.095e-009    
  -0.1            1.017e-009      2.3185e-009     1.0089e-008    
  -0.15           1.1811e-009     2.2148e-009     1.0291e-008    
  -0.2            -1.5276e-009    1.7651e-009     1.1157e-008    
  -0.25           -1.8004e-009    -1.5395e-009    7.828e-009     
  -0.3            -4.415e-010     -2.5864e-009    -1.0607e-008   
  -0.35           2.4596e-009     -2.6121e-009    -2.4608e-008   
  -0.4            2.1329e-009     -3.3854e-009    -4.07e-009     
  -0.45           -1.4585e-009    -1.4616e-008    -1.2272e-008   
  -0.5            -1.3333e-009    -4.5523e-008    8.289e-009     
  -0.55           1.8241e-009     -1.3951e-007    -2.7138e-008   
  -0.6            6.682e-010      -4.0076e-007    1.0174e-008    
  -0.65           1.0793e-009     -1.08032e-006   1.0322e-008    
  -0.7            -2.0118e-009    -2.5651e-006    -1.3363e-008   
  -0.75           -9.894e-010     -5.6721e-006    -1.0832e-008   
  -0.8            2.5296e-009     -1.1407e-005    -1.0332e-008   
  -0.85           1.4861e-009     -2.1118e-005    1.1729e-008    
  -0.9            3.193e-010      -3.472e-005     9.698e-009     
  -0.95           7.772e-010      -5.4296e-005    1.0562e-008    
  -1              1.1768e-009     -7.9844e-005    1.047e-008     
  -1.05           1.6061e-009     -0.000111221    1.2388e-008    
  -1.1            2.8109e-009     -0.00014689     1.0648e-008    
  -1.15           8.257e-010      -0.00018893     1.0745e-008    
  -1.2            1.2241e-009     -0.00023658     1.041e-008     
  -1.25           4.72e-011       -0.0002864      1.0354e-008    
  -1.3            5.051e-010      -0.00034221     9.843e-009     
  -1.35           9.394e-010      -0.00040188     1.0655e-008    
  -1.4            1.3466e-009     -0.00046523     1.0777e-008    
  -1.45           1.693e-010      -0.00052809     9.797e-009     
  -1.5            6.351e-010      -0.00059617     1.0233e-008    
  -1.55           1.0478e-009     -0.00066649     1.0429e-008    
  -1.6            1.4701e-009     -0.00073927     1.1583e-008    
  -1.65           2.936e-010      -0.00080953     9.606e-009     
  -1.7            7.551e-010      -0.00088486     1.043e-008     
  -1.75           1.1557e-009     -0.00096176     1.0329e-008    
  -1.8            1.5856e-009     -0.00103944     1.2177e-008    
END_DB

BEGIN_DB
 ICCAP_VAR VS         0              
 ICCAP_VAR VB         0.9            
 ICCAP_VAR VD         -0.1           

 #VG              IG              ID              IB             
  0               9.77e-010       9.18e-010       1.9369e-008    
  -0.05           4.738e-010      2.2981e-009     -6.95e-009     
  -0.1            6.684e-010      2.3604e-009     1.0305e-008    
  -0.15           8.498e-010      2.3609e-009     1.0414e-008    
  -0.2            1.0188e-009     2.319e-009      1.0238e-008    
  -0.25           1.1863e-009     2.2128e-009     1.1476e-008    
  -0.3            1.3661e-009     2.037e-009      1.2177e-008    
  -0.35           -1.4174e-009    1.8991e-009     1.2444e-008    
  -0.4            -1.8936e-009    -1.3049e-009    8.784e-009     
  -0.45           1.637e-009      -1.7205e-009    -1.3191e-008   
  -0.5            7.951e-010      2.3417e-009     -9.011e-009    
  -0.55           -1.3139e-009    1.3532e-009     1.0357e-008    
  -0.6            -2.2564e-009    -1.6595e-009    7.918e-009     
  -0.65           4.1e-012        -4.1949e-009    -1.0352e-008   
  -0.7            -1.705e-010     -1.11539e-008   -1.0144e-008   
  -0.75           2.8897e-009     -3.4357e-008    2.1485e-008    
  -0.8            -2.923e-010     -1.2915e-007    8.885e-009     
  -0.85           -7.727e-010     -3.9822e-007    -1.0597e-008   
  -0.9            -1.7979e-009    -1.0922e-006    -9.867e-009    
  -0.95           -7.32e-010      -2.6738e-006    -1.048e-008    
  -1              1.6199e-009     -5.6827e-006    -1.7805e-008   
  -1.05           1.2531e-009     -1.0424e-005    -8.94e-009     
  -1.1            -2.123e-010     -1.6907e-005    -9.767e-009    
  -1.15           2.129e-010      -2.5151e-005    9.837e-009     
  -1.2            6.743e-010      -3.4796e-005    1.0149e-008    
  -1.25           1.0766e-009     -4.5297e-005    1.0377e-008    
  -1.3            1.4983e-009     -5.6157e-005    1.17e-008      
  -1.35           3.357e-010      -6.6533e-005    9.772e-009     
  -1.4            7.906e-010      -7.7209e-005    1.02e-008      
  -1.45           1.1817e-009     -8.7548e-005    1.0299e-008    
  -1.5            1.6144e-009     -9.7304e-005    1.2291e-008    
  -1.55           2.0573e-009     -0.00010637     1.2234e-008    
  -1.6            2.375e-010      -0.00011503     1.0327e-008    
  -1.65           7.013e-010      -0.00012327     1.0135e-008    
  -1.7            1.1056e-009     -0.00013122     1.0326e-008    
  -1.75           1.5317e-009     -0.00013864     1.2006e-008    
  -1.8            3.663e-010      -0.00014539     9.684e-009     
END_DB

BEGIN_DB
 ICCAP_VAR VS         0              
 ICCAP_VAR VB         0.9            
 ICCAP_VAR VD         -1.8           

 #VG              IG              ID              IB             
  0               -1.0363e-009    -9.555e-010     -2.2711e-008   
  -0.05           -1.6985e-009    -1.5798e-009    6.614e-009     
  -0.1            -2.944e-010     -2.2325e-009    -1.0216e-008   
  -0.15           -5.032e-010     -2.2907e-009    -1.0719e-008   
  -0.2            2.3676e-009     -1.5015e-009    -2.3108e-008   
  -0.25           1.3088e-009     2.1127e-009     -4.686e-009    
  -0.3            -1.186e-010     2.003e-009      9.891e-009     
  -0.35           6.91e-011       2.086e-009      9.647e-009     
  -0.4            2.554e-010      2.1797e-009     9.726e-009     
  -0.45           4.481e-010      2.1682e-009     1.0364e-008    
  -0.5            -1.3655e-009    6.601e-010      1.0729e-008    
  -0.55           -1.3351e-009    -2.4363e-009    8.922e-009     
  -0.6            -2.763e-009     -1.084e-008     -2.1322e-008   
  -0.65           2.2965e-009     -3.939e-008     -2.6503e-008   
  -0.7            1.994e-010      -1.41e-007      6.167e-009     
  -0.75           -1.847e-010     -4.4795e-007    -1.044e-008    
  -0.8            2.8346e-009     -1.2999e-006    1.0234e-008    
  -0.85           1.3636e-009     -3.3459e-006    1.0655e-008    
  -0.9            1.8013e-009     -7.59e-006      1.2549e-008    
  -0.95           -2.5592e-009    -1.5038e-005    1.0157e-008    
  -1              -1.9978e-009    -2.7192e-005    1.127e-009     
  -1.05           -9.88e-010      -4.494e-005     -1.0626e-008   
  -1.1            1.864e-010      -6.9427e-005    -1.2353e-008   
  -1.15           1.3795e-009     -9.942e-005     -2.3017e-008   
  -1.2            2.8382e-009     -0.00013475     1.049e-008     
  -1.25           8.795e-010      -0.00017606     1.0578e-008    
  -1.3            1.2798e-009     -0.00022324     1.0445e-008    
  -1.35           9.6e-011        -0.00027239     1.0149e-008    
  -1.4            5.59e-010       -0.00032756     9.956e-009     
  -1.45           9.798e-010      -0.00038663     1.044e-008     
  -1.5            1.3893e-009     -0.00044916     1.1094e-008    
  -1.55           1.8329e-009     -0.0005131      1.2655e-008    
  -1.6            6.73e-010       -0.000578       1.0456e-008    
  -1.65           1.0768e-009     -0.00064741     1.063e-008     
  -1.7            1.5026e-009     -0.00071885     1.0512e-008    
  -1.75           3.302e-010      -0.00078813     9.673e-009     
  -1.8            7.789e-010      -0.00086212     1.0702e-008    
END_DB

BEGIN_DB
 ICCAP_VAR VS         0              
 ICCAP_VAR VB         1.8            
 ICCAP_VAR VD         -0.1           

 #VG              IG              ID              IB             
  0               -1.721e-010     1.087e-010      1.0133e-008    
  -0.05           2.0185e-009     -8.019e-010     -2.0682e-008   
  -0.1            5.542e-010      2.3219e-009     -8.173e-009    
  -0.15           7.417e-010      2.3613e-009     1.0241e-008    
  -0.2            9.093e-010      2.3453e-009     1.0211e-008    
  -0.25           1.074e-009      2.2884e-009     1.0364e-008    
  -0.3            1.2464e-009     2.1617e-009     1.0403e-008    
  -0.35           -1.88e-010      1.9684e-009     1.014e-008     
  -0.4            -1.53e-011      2.0495e-009     9.818e-009     
  -0.45           1.681e-010      2.1541e-009     9.631e-009     
  -0.5            3.621e-010      2.2565e-009     1.024e-008     
  -0.55           5.584e-010      2.3214e-009     1.0653e-008    
  -0.6            7.461e-010      2.3285e-009     1.0513e-008    
  -0.65           -1.3231e-009    1.2632e-009     1.0312e-008    
  -0.7            -2.7023e-009    -1.7107e-009    7.794e-009     
  -0.75           2.1241e-009     -4.2413e-009    -1.992e-008    
  -0.8            -2.3953e-009    -1.5883e-008    -2.6767e-008   
  -0.85           1.4069e-009     -6.218e-008     -1.3978e-008   
  -0.9            -1.584e-009     -2.0805e-007    2.5499e-008    
  -0.95           1.7504e-009     -6.6071e-007    -1.9737e-008   
  -1              2.7581e-009     -1.7124e-006    2.3029e-008    
  -1.05           1.8199e-009     -3.9701e-006    1.2386e-008    
  -1.1            6.592e-010      -7.7439e-006    1.0179e-008    
  -1.15           -2.7289e-009    -1.3453e-005    1.0249e-008    
  -1.2            -2.166e-010     -2.1096e-005    -1.0484e-008   
  -1.25           -7.116e-010     -2.9986e-005    -1.0487e-008   
  -1.3            1.659e-009      -4.011e-005     -1.843e-008    
  -1.35           1.2663e-009     -5.0609e-005    -9.045e-009    
  -1.4            2.8794e-009     -6.1248e-005    -9.99e-009     
  -1.45           2.5606e-009     -7.1547e-005    -2.28e-010     
  -1.5            1.8713e-009     -8.1657e-005    -2.855e-009    
  -1.55           1.3455e-009     -9.1276e-005    -8.869e-009    
  -1.6            2.892e-009      -0.000100421    -9.297e-009    
  -1.65           2.7255e-009     -0.000108958    2.89e-010      
  -1.7            2.272e-009      -0.00011716     4.64e-010      
  -1.75           1.5584e-009     -0.00012486     -5.669e-009    
  -1.8            2.8267e-009     -0.00013216     -9.036e-009    
END_DB

BEGIN_DB
 ICCAP_VAR VS         0              
 ICCAP_VAR VB         1.8            
 ICCAP_VAR VD         -1.8           

 #VG              IG              ID              IB             
  0               1.1642e-009     1.0863e-009     8.76e-009      
  -0.05           -5.38e-011      2.018e-009      1.2493e-008    
  -0.1            1.238e-010      2.1199e-009     9.622e-009     
  -0.15           3.19e-010       2.2279e-009     9.972e-009     
  -0.2            5.117e-010      2.3048e-009     1.0598e-008    
  -0.25           7.003e-010      2.3518e-009     1.0755e-008    
  -0.3            8.778e-010      2.3478e-009     1.0413e-008    
  -0.35           1.0375e-009     2.3001e-009     9.957e-009     
  -0.4            1.2021e-009     2.18e-009       1.1457e-008    
  -0.45           -1.5152e-009    1.7643e-009     1.2199e-008    
  -0.5            -1.8011e-009    -1.568e-009     7.866e-009     
  -0.55           -4.48e-010      -2.8622e-009    -1.0512e-008   
  -0.6            2.4448e-009     -4.1944e-009    -2.379e-008    
  -0.65           -1.5188e-009    -1.2933e-008    -1.3353e-008   
  -0.7            -1.3537e-009    -4.7781e-008    7.838e-009     
  -0.75           1.5903e-009     -1.7691e-007    -2.5213e-008   
  -0.8            2.0258e-009     -5.7508e-007    1.2639e-008    
  -0.85           -1.5944e-009    -1.628e-006     -1.1032e-008   
  -0.9            -1.3707e-009    -4.1295e-006    6.939e-009     
  -0.95           -1.3049e-009    -9.2077e-006    9.08e-009      
  -1              2.66e-009       -1.855e-005     -4.539e-009    
  -1.05           1.9958e-009     -3.2599e-005    -2.087e-009    
  -1.1            1.4013e-009     -5.2668e-005    -7.775e-009    
  -1.15           2.8828e-009     -7.8971e-005    -8.897e-009    
  -1.2            2.1268e-009     -0.000111115    1.204e-008     
  -1.25           2.3124e-009     -0.00014887     1.0295e-008    
  -1.3            1.1733e-009     -0.00019299     1.0305e-008    
  -1.35           1.5955e-009     -0.00024166     1.2278e-008    
  -1.4            2.0316e-009     -0.00029356     1.2392e-008    
  -1.45           8.679e-010      -0.00034939     1.0436e-008    
  -1.5            1.2607e-009     -0.00040996     1.0277e-008    
  -1.55           7.34e-011       -0.00047035     1.0272e-008    
  -1.6            5.328e-010      -0.0005358      9.862e-009     
  -1.65           9.582e-010      -0.00060389     1.0432e-008    
  -1.7            1.3542e-009     -0.00067409     1.0839e-008    
  -1.75           1.693e-010      -0.00074258     9.972e-009     
  -1.8            6.291e-010      -0.00081539     1.0188e-008    
END_DB

