! VERSION = 6.00
BEGIN_HEADER
 ICCAP_INPUTS
  VG         V  B GROUND SMU4 0.001 LIN        1    0          -1.8       37   -0.05     
  VS         V  E GROUND SMU2 0.1 CON        0
  VB         V  C GROUND SMU3 0.1 LIN        3    0          1.8        3    0.9       
  VD         V  S GROUND SMU1 0.1 LIN        2    -0.1       -1.8       2    -1.7      
 ICCAP_OUTPUTS
  IG         I  B GROUND SMU4 B
  ID         I  S GROUND SMU1 B
  IB         I  C GROUND SMU3 B
END_HEADER

BEGIN_DB
 ICCAP_VAR VS         0              
 ICCAP_VAR VB         0              
 ICCAP_VAR VD         -0.1           

 #VG              IG              ID              IB             
  0               1.1549e-009     1.0525e-009     8.831e-009     
  -0.05           -7.23e-011      1.9426e-009     1.2298e-008    
  -0.1            8.92e-011       2.03e-009       9.738e-009     
  -0.15           2.733e-010      2.1313e-009     1.0174e-008    
  -0.2            4.612e-010      2.2156e-009     1.0477e-008    
  -0.25           6.428e-010      2.2771e-009     1.0242e-008    
  -0.3            8.049e-010      2.2879e-009     1.0122e-008    
  -0.35           9.506e-010      2.227e-009      9.964e-009     
  -0.4            -1.2725e-009    1.3182e-009     1.0936e-008    
  -0.45           -2.5095e-009    -1.7526e-009    9.549e-009     
  -0.5            -2.3226e-009    -4.026e-009     1.005e-009     
  -0.55           -1.7962e-009    -1.3356e-008    -9.007e-009    
  -0.6            -7.933e-010     -4.0809e-008    -1.0753e-008   
  -0.65           -1.8293e-009    -1.193e-007     1.1179e-008    
  -0.7            -2.6448e-009    -3.3621e-007    -5.163e-009    
  -0.75           1.2262e-009     -8.6942e-007    -2.6488e-008   
  -0.8            2.2116e-009     -1.9249e-006    9.175e-009     
  -0.85           1.089e-009      -3.921e-006     9.927e-009     
  -0.9            1.4954e-009     -7.1733e-006    1.2192e-008    
  -0.95           -1.9053e-009    -1.1601e-005    1.2787e-008    
  -1              -2.6266e-009    -1.7654e-005    -5.665e-009    
  -1.05           1.2428e-009     -2.51e-005      -2.5999e-008   
  -1.1            2.8309e-009     -3.3461e-005    -1.0036e-008   
  -1.15           2.5274e-009     -4.2427e-005    -2.1e-010      
  -1.2            1.848e-009      -5.1952e-005    -3.336e-009    
  -1.25           1.3254e-009     -6.1664e-005    -9.059e-009    
  -1.3            2.8253e-009     -7.1354e-005    -9.346e-009    
  -1.35           2.7132e-009     -8.0785e-005    2.26e-010      
  -1.4            1.4463e-009     -9.0232e-005    1.18e-008      
  -1.45           3.109e-010      -9.878e-005     9.737e-009     
  -1.5            7.459e-010      -0.000107362    1.0765e-008    
  -1.55           -4.276e-010     -0.00011547     1.4704e-008    
  -1.6            2.0952e-009     -0.0001232      -1.7476e-008   
  -1.65           1.4367e-009     -0.00013052     -7.604e-009    
  -1.7            2.7935e-009     -0.00013747     -8.944e-009    
  -1.75           2.0027e-009     -0.00014404     1.2241e-008    
  -1.8            8.765e-010      -0.00015024     1.0387e-008    
END_DB

BEGIN_DB
 ICCAP_VAR VS         0              
 ICCAP_VAR VB         0              
 ICCAP_VAR VD         -1.8           

 #VG              IG              ID              IB             
  0               -1.3293e-009    -1.2687e-009    1.0509e-008    
  -0.05           -2.887e-010     -2.1078e-009    -1.0547e-008   
  -0.1            -4.926e-010     -2.1733e-009    -1.0881e-008   
  -0.15           2.4068e-009     -5.854e-010     -1.8198e-008   
  -0.2            1.2282e-009     2.1115e-009     -4.525e-009    
  -0.25           -1.567e-010     1.8908e-009     9.905e-009     
  -0.3            -1.4944e-009    8.196e-010      2.5225e-008    
  -0.35           -2.5639e-009    -1.3592e-009    7.93e-009      
  -0.4            1.7232e-009     -2.7135e-009    -1.4135e-008   
  -0.45           1.462e-009      -3.57e-009      -9.206e-009    
  -0.5            -2.6504e-009    -1.4766e-008    -1.9192e-008   
  -0.55           1.2315e-009     -4.7319e-008    -2.6204e-008   
  -0.6            2.1329e-009     -1.4112e-007    -2.2697e-008   
  -0.65           9.895e-010      -4.1096e-007    1.0337e-008    
  -0.7            1.3825e-009     -1.08425e-006   1.1344e-008    
  -0.75           -2.3694e-009    -2.4974e-006    -1.9076e-008   
  -0.8            1.7107e-009     -5.4097e-006    -1.9631e-008   
  -0.85           1.2703e-009     -1.04812e-005   -9.119e-009    
  -0.9            1.81e-011       -1.8709e-005    8.477e-009     
  -0.95           1.2474e-009     -3.0722e-005    -2.5648e-008   
  -1              2.822e-009      -4.7232e-005    -9.834e-009    
  -1.05           2.5282e-009     -6.8242e-005    -1.6e-010      
  -1.1            1.8565e-009     -9.4613e-005    -2.935e-009    
  -1.15           2.3483e-009     -0.00012553     9.811e-009     
  -1.2            1.2698e-009     -0.00016219     1.045e-008     
  -1.25           1.6966e-009     -0.00020276     1.2359e-008    
  -1.3            5.851e-010      -0.00024585     1.055e-008     
  -1.35           9.62e-010       -0.00029481     1.0711e-008    
  -1.4            -1.992e-010     -0.00034545     1.1623e-008    
  -1.45           -1.3849e-009    -0.00039955     2.4665e-008    
  -1.5            -1.3045e-009    -0.00045671     8.764e-009     
  -1.55           -2.5018e-009    -0.00051623     7.71e-009      
  -1.6            -1.9485e-009    -0.00057816     9.71e-010      
  -1.65           -2.6274e-009    -0.00064218     -5.828e-009    
  -1.7            1.805e-010      -0.00070864     -1.2665e-008   
  -1.75           1.3768e-009     -0.00077535     -2.2945e-008   
  -1.8            2.8206e-009     -0.00084269     -9.098e-009    
END_DB

BEGIN_DB
 ICCAP_VAR VS         0              
 ICCAP_VAR VB         0.9            
 ICCAP_VAR VD         -0.1           

 #VG              IG              ID              IB             
  0               1.2101e-009     1.2446e-009     7.216e-009     
  -0.05           3.127e-010      2.1543e-009     1.0337e-008    
  -0.1            5.051e-010      2.236e-009      1.0546e-008    
  -0.15           6.902e-010      2.2932e-009     1.0675e-008    
  -0.2            8.499e-010      2.3023e-009     1.0221e-008    
  -0.25           9.968e-010      2.2744e-009     9.842e-009     
  -0.3            1.1542e-009     2.1759e-009     1.0167e-008    
  -0.35           -2.225e-010     1.8764e-009     1.0128e-008    
  -0.4            -1.5588e-009    8.577e-010      2.3987e-008    
  -0.45           -1.7089e-009    -1.452e-009     7.039e-009     
  -0.5            2.0535e-009     -1.5433e-009    -1.8515e-008   
  -0.55           5.329e-010      2.2075e-009     -7.726e-009    
  -0.6            7.109e-010      2.1347e-009     1.0626e-008    
  -0.65           -1.3054e-009    6.289e-010      1.0119e-008    
  -0.7            -1.2875e-009    -3.1036e-009    7.674e-009     
  -0.75           -2.6789e-009    -1.431e-008     -1.9478e-008   
  -0.8            2.494e-009      -5.1899e-008    -2.7325e-008   
  -0.85           -8.92e-010      -1.7068e-007    1.0678e-008    
  -0.9            1.4069e-009     -5.2121e-007    -1.4278e-008   
  -0.95           2.7979e-009     -1.3152e-006    2.6421e-008    
  -1              2.0194e-009     -2.9793e-006    1.215e-008     
  -1.05           8.893e-010      -5.8623e-006    1.0397e-008    
  -1.1            1.2612e-009     -1.03807e-005   1.03e-008      
  -1.15           -2.2287e-009    -1.6205e-005    1.1867e-008    
  -1.2            1.682e-010      -2.3816e-005    -1.2466e-008   
  -1.25           -2.228e-010     -3.2241e-005    -1.039e-008    
  -1.3            -7.144e-010     -4.1326e-005    -1.0995e-008   
  -1.35           1.6688e-009     -5.0956e-005    -1.8929e-008   
  -1.4            2.7149e-009     -6.0531e-005    -9.069e-009    
  -1.45           8.044e-010      -6.9871e-005    1.0864e-008    
  -1.5            1.171e-009      -7.9149e-005    9.826e-009     
  -1.55           2.03e-011       -8.7608e-005    1.0071e-008    
  -1.6            4.753e-010      -9.6009e-005    9.941e-009     
  -1.65           8.863e-010      -0.000104063    1.0701e-008    
  -1.7            1.2591e-009     -0.000111723    9.869e-009     
  -1.75           2.8301e-009     -0.00011875     9.961e-009     
  -1.8            2.6811e-009     -0.00012549     -3.5e-011      
END_DB

BEGIN_DB
 ICCAP_VAR VS         0              
 ICCAP_VAR VB         0.9            
 ICCAP_VAR VD         -1.8           

 #VG              IG              ID              IB             
  0               -7.952e-010     -7.839e-010     -2.7335e-008   
  -0.05           -1.1448e-009    -2.1032e-009    8.803e-009     
  -0.1            2.219e-010      -1.7383e-009    -1.1202e-008   
  -0.15           1.7629e-009     -8.654e-010     -2.1717e-008   
  -0.2            7.007e-010      2.293e-009      -9.235e-009    
  -0.25           8.635e-010      2.3055e-009     9.949e-009     
  -0.3            1.0121e-009     2.2677e-009     1.0113e-008    
  -0.35           1.1652e-009     2.1656e-009     1.1582e-008    
  -0.4            -2.061e-010     1.8815e-009     1.0138e-008    
  -0.45           -1.5491e-009    8.579e-010      2.4378e-008    
  -0.5            -1.7252e-009    -1.4916e-009    7.116e-009     
  -0.55           -3.937e-010     -2.3739e-009    -1.0801e-008   
  -0.6            2.5227e-009     -1.5773e-009    -1.7039e-008   
  -0.65           2.2324e-009     -3.9801e-009    -3.437e-009    
  -0.7            -1.7745e-009    -1.9586e-008    -1.8847e-008   
  -0.75           -2.6627e-009    -7.0581e-008    -5.074e-009    
  -0.8            1.6899e-009     -2.3996e-007    -2.6318e-008   
  -0.85           5.799e-010      -7.1564e-007    1.0286e-008    
  -0.9            -1.3491e-009    -1.9036e-006    -1.0216e-008   
  -0.95           -1.2867e-009    -4.4829e-006    8.795e-009     
  -1              -2.3998e-009    -9.3654e-006    8.121e-009     
  -1.05           1.3882e-009     -1.7984e-005    -2.7231e-008   
  -1.1            2.568e-010      -3e-005         9.762e-009     
  -1.15           7.1e-010        -4.7457e-005    1.0821e-008    
  -1.2            1.0768e-009     -7.0259e-005    1.0178e-008    
  -1.25           1.4861e-009     -9.837e-005     1.0932e-008    
  -1.3            2.8306e-009     -0.00013014     9.964e-009     
  -1.35           2.6999e-009     -0.00016745     3.3e-010       
  -1.4            1.4578e-009     -0.00020995     1.2012e-008    
  -1.45           3.409e-010      -0.00025372     9.764e-009     
  -1.5            7.734e-010      -0.00030302     1.0493e-008    
  -1.55           1.1396e-009     -0.00035574     9.874e-009     
  -1.6            -2.1e-012       -0.00040903     1.0264e-008    
  -1.65           4.483e-010      -0.00046621     9.809e-009     
  -1.7            8.62e-010       -0.00052617     1.0515e-008    
  -1.75           1.229e-009      -0.00058842     1.0205e-008    
  -1.8            9.21e-011       -0.00064924     1.0015e-008    
END_DB

BEGIN_DB
 ICCAP_VAR VS         0              
 ICCAP_VAR VB         1.8            
 ICCAP_VAR VD         -0.1           

 #VG              IG              ID              IB             
  0               -1.1155e-009    -1.006e-009     -1.8179e-008   
  -0.05           1.2916e-009     -1.1779e-009    -2.7362e-008   
  -0.1            1.0672e-009     2.2532e-009     -9.53e-009     
  -0.15           1.2251e-009     2.1201e-009     1.1922e-008    
  -0.2            -1.527e-010     1.9146e-009     9.908e-009     
  -0.25           1.25e-011       1.9923e-009     9.646e-009     
  -0.3            1.937e-010      2.0928e-009     9.869e-009     
  -0.35           3.906e-010      2.1875e-009     1.0414e-008    
  -0.4            5.837e-010      2.264e-009      1.0401e-008    
  -0.45           7.553e-010      2.3004e-009     1.0238e-008    
  -0.5            9.142e-010      2.301e-009      1.0003e-008    
  -0.55           1.0644e-009     2.2433e-009     1.0046e-008    
  -0.6            1.2288e-009     2.1224e-009     1.0786e-008    
  -0.65           -1.564e-010     1.8918e-009     9.995e-009     
  -0.7            1.56e-011       1.9057e-009     9.655e-009     
  -0.75           1.946e-010      1.6526e-009     9.932e-009     
  -0.8            -1.6186e-009    -2.5996e-009    1.0461e-008    
  -0.85           -1.4617e-009    -9.632e-009     6.252e-009     
  -0.9            1.978e-009      -3.9258e-008    1.0092e-008    
  -0.95           -1.1769e-009    -1.3754e-007    1.7139e-008    
  -1              2.591e-009      -4.3913e-007    -2.6658e-008   
  -1.05           1.7929e-009     -1.1723e-006    8.751e-009     
  -1.1            6.828e-010      -2.6645e-006    1.0514e-008    
  -1.15           1.0555e-009     -5.4429e-006    9.998e-009     
  -1.2            1.4619e-009     -9.7895e-006    1.1912e-008    
  -1.25           -2.299e-009     -1.5489e-005    9.855e-009     
  -1.3            -3.917e-010     -2.2855e-005    -1.0123e-008   
  -1.35           2.1524e-009     -3.127e-005     -1.7139e-008   
  -1.4            1.4648e-009     -4.0289e-005    -7.156e-009    
  -1.45           2.7849e-009     -4.9638e-005    -8.964e-009    
  -1.5            1.99e-009       -5.8951e-005    1.232e-008     
  -1.55           8.703e-010      -6.8004e-005    1.0398e-008    
  -1.6            1.2422e-009     -7.6952e-005    1.019e-008     
  -1.65           9.93e-011       -8.5089e-005    9.909e-009     
  -1.7            5.571e-010      -9.3163e-005    1.0269e-008    
  -1.75           9.516e-010      -0.000100878    1.0575e-008    
  -1.8            -2.142e-010     -0.000107962    1.192e-008     
END_DB

BEGIN_DB
 ICCAP_VAR VS         0              
 ICCAP_VAR VB         1.8            
 ICCAP_VAR VD         -1.8           

 #VG              IG              ID              IB             
  0               -7.876e-010     1.636e-010      9.915e-009     
  -0.05           -1.152e-009     -2.1029e-009    8.767e-009     
  -0.1            1.3618e-009     -1.0979e-009    -2.6199e-008   
  -0.15           9.814e-010      2.2874e-009     -9.178e-009    
  -0.2            -1.4679e-009    1.7668e-009     1.1486e-008    
  -0.25           -1.7777e-009    -1.3485e-009    8.067e-009     
  -0.3            -4.945e-010     -2.165e-009     -1.0812e-008   
  -0.35           2.4061e-009     -5.836e-010     -1.8027e-008   
  -0.4            1.2357e-009     2.128e-009      -4.749e-009    
  -0.45           -1.467e-010     1.9184e-009     9.939e-009     
  -0.5            -1.4893e-009    9.154e-010      2.5266e-008    
  -0.55           -1.7637e-009    -1.3799e-009    7.892e-009     
  -0.6            -4.574e-010     -2.1993e-009    -1.0897e-008   
  -0.65           2.4526e-009     -7.781e-010     -1.7842e-008   
  -0.7            2.1384e-009     -3.928e-010     -4.132e-009    
  -0.75           1.8247e-009     -4.3022e-009    -6.967e-009    
  -0.8            -2.5723e-009    -2.1228e-008    -2.6125e-008   
  -0.85           -2.0814e-009    -7.9273e-008    5.36e-010      
  -0.9            2.8315e-009     -2.7363e-007    -1.0596e-008   
  -0.95           2.6453e-009     -8.4191e-007    -5.5e-011      
  -1              1.7366e-009     -2.2762e-006    8.79e-009      
  -1.05           6.191e-010      -5.2051e-006    1.0491e-008    
  -1.1            1.0005e-009     -1.08503e-005   1.0483e-008    
  -1.15           -2.4155e-009    -1.9849e-005    9.639e-009     
  -1.2            -5.26e-010      -3.359e-005     -1.0177e-008   
  -1.25           1.9344e-009     -5.2338e-005    -1.8434e-008   
  -1.3            1.3491e-009     -7.6134e-005    -8.58e-009     
  -1.35           2.8234e-009     -0.000105189    -8.987e-009    
  -1.4            1.9707e-009     -0.00013885     1.2427e-008    
  -1.45           1.3758e-009     -0.00017731     -8.294e-009    
  -1.5            2.8159e-009     -0.00021972     -8.993e-009    
  -1.55           2.7526e-009     -0.00026538     4.35e-010      
  -1.6            1.3918e-009     -0.00031595     1.0355e-008    
  -1.65           2.54e-010       -0.00036634     9.651e-009     
  -1.7            7.133e-010      -0.00042163     1.0713e-008    
  -1.75           1.0744e-009     -0.00047957     1.0133e-008    
  -1.8            1.4822e-009     -0.00053973     1.0846e-008    
END_DB

