! VERSION = 6.00
BEGIN_HEADER
 ICCAP_INPUTS
  VG         V  B GROUND SMU4 0.001 LIN        2    0          -1.8       6    -0.36     
  VS         V  E GROUND SMU3 0.1 CON        0
  VD         V  S GROUND SMU2 0.1 LIN        1    0          -1.8       37   -0.05     
  VB         V  C GROUND SMU1 0.1 LIN        3    0          0.9        2    0.9       
 ICCAP_OUTPUTS
  ID         I  S GROUND SMU2 B
  IB         I  C GROUND SMU1 B
  IG         I  B GROUND SMU4 B
END_HEADER

BEGIN_DB
 ICCAP_VAR VG         0              
 ICCAP_VAR VS         0              
 ICCAP_VAR VB         0              

 #VD              ID              IB              IG             
  0               3.019e-010      8.848e-009      1.2456e-009    
  -0.05           1.439e-010      8.782e-009      -2.6186e-009   
  -0.1            -2.9502e-009    -1.3274e-008    1.8008e-009    
  -0.15           2.7271e-009     1.8798e-008     -1.9531e-009   
  -0.2            -1.2556e-009    -1.7243e-008    2.2636e-009    
  -0.25           1.026e-009      1.4025e-008     -2.1515e-009   
  -0.3            -1.0702e-009    -1.6946e-008    2.4425e-009    
  -0.35           8.444e-010      1.1903e-008     -2.3158e-009   
  -0.4            -8.745e-010     -1.6245e-008    2.5816e-009    
  -0.45           3.5687e-009     7.9e-009        -1.538e-010    
  -0.5            -8.4e-012       8.597e-009      -2.6356e-009   
  -0.55           -2.8604e-009    -1.571e-008     1.9944e-009    
  -0.6            1.2238e-009     1.5873e-008     -1.929e-009    
  -0.65           -1.2856e-009    -1.7192e-008    2.2268e-009    
  -0.7            1.0534e-009     1.4345e-008     -2.1225e-009   
  -0.75           -1.1022e-009    -1.7107e-008    2.427e-009     
  -0.8            8.743e-010      1.221e-008      -2.2961e-009   
  -0.85           -8.974e-010     -1.6316e-008    2.5672e-009    
  -0.9            3.5881e-009     7.95e-009       -1.424e-010    
  -0.95           2.09e-011       8.568e-009      -2.6309e-009   
  -1              -2.8793e-009    -1.5398e-008    1.9632e-009    
  -1.05           1.2444e-009     1.6055e-008     -1.8998e-009   
  -1.1            -1.3105e-009    -1.7041e-008    2.2021e-009    
  -1.15           1.0713e-009     1.4509e-008     -2.1064e-009   
  -1.2            -1.1236e-009    -1.7158e-008    2.4045e-009    
  -1.25           8.909e-010      1.2387e-008     -2.2799e-009   
  -1.3            -9.365e-010     -1.6396e-008    2.5559e-009    
  -1.35           7.05e-010       1.058e-008      -2.4155e-009   
  -1.4            -7.186e-010     -1.5942e-008    2.663e-009     
  -1.45           3.4387e-009     7.619e-009      -1.3099e-009   
  -1.5            -5.054e-010     -1.4533e-008    2.7326e-009    
  -1.55           3.2694e-009     9.054e-009      -1.4194e-009   
  -1.6            -2.9448e-009    -1.3543e-008    1.8071e-009    
  -1.65           2.7142e-009     1.908e-008      -1.97e-009     
  -1.7            -1.2526e-009    -1.7232e-008    2.2709e-009    
  -1.75           1.0123e-009     1.3946e-008     -2.1601e-009   
  -1.8            -1.0655e-009    -1.7007e-008    2.4576e-009    
END_DB

BEGIN_DB
 ICCAP_VAR VG         -0.36          
 ICCAP_VAR VS         0              
 ICCAP_VAR VB         0              

 #VD              ID              IB              IG             
  0               -1.5818e-009    -1.7048e-008    -3.19e-011     
  -0.05           4.2386e-009     9.251e-009      5.436e-010     
  -0.1            -2.315e-010     -1.161e-008     2.7676e-009    
  -0.15           3.043e-009      1.2663e-008     -1.6269e-009   
  -0.2            -2.818e-009     -1.7429e-008    2.1113e-009    
  -0.25           1.1425e-009     1.5247e-008     -2.0291e-009   
  -0.3            -1.1974e-009    -1.7026e-008    2.3262e-009    
  -0.35           9.6e-010        1.3239e-008     -2.2126e-009   
  -0.4            -1.01e-009      -1.6631e-008    2.4997e-009    
  -0.45           7.805e-010      1.1216e-008     -2.3667e-009   
  -0.5            -7.969e-010     -1.5993e-008    2.6326e-009    
  -0.55           3.7704e-009     7.639e-009      1.2516e-009    
  -0.6            -3.983e-010     7.099e-009      -2.6213e-009   
  -0.65           -1.0494e-009    -1.6718e-008    2.465e-009     
  -0.7            8.202e-010      1.1774e-008     -2.3345e-009   
  -0.75           -8.523e-010     -1.6155e-008    2.6081e-009    
  -0.8            3.5446e-009     7.868e-009      -1.2641e-009   
  -0.85           -6.257e-010     -1.5587e-008    2.6984e-009    
  -0.9            3.3734e-009     8.045e-009      -1.3476e-009   
  -0.95           -4.076e-010     -1.3632e-008    2.7503e-009    
  -1              3.1883e-009     1.0054e-008     -1.4766e-009   
  -1.05           -2.9048e-009    -1.4787e-008    1.908e-009     
  -1.1            1.2794e-009     1.6419e-008     -1.8525e-009   
  -1.15           -1.3461e-009    -1.6933e-008    2.1561e-009    
  -1.2            1.1057e-009     1.4892e-008     -2.06e-009     
  -1.25           -1.1679e-009    -1.7167e-008    2.3615e-009    
  -1.3            9.359e-010      1.3045e-008     -2.2401e-009   
  -1.35           -9.755e-010     -1.6514e-008    2.5277e-009    
  -1.4            3.6401e-009     8.183e-009      -1.012e-010    
  -1.45           8.4e-011        8.71e-009       -2.6213e-009   
  -1.5            -2.9247e-009    -1.4243e-008    1.8769e-009    
  -1.55           1.3025e-009     1.6806e-008     -1.8291e-009   
  -1.6            -1.3645e-009    -1.7038e-008    2.1241e-009    
  -1.65           1.1342e-009     1.5204e-008     -2.0312e-009   
  -1.7            -1.1924e-009    -1.7147e-008    2.3362e-009    
  -1.75           9.55e-010       1.339e-008      -2.2154e-009   
  -1.8            -1.0051e-009    -1.6559e-008    2.5062e-009    
END_DB

BEGIN_DB
 ICCAP_VAR VG         -0.72          
 ICCAP_VAR VS         0              
 ICCAP_VAR VB         0              

 #VD              ID              IB              IG             
  0               -3.308e-010     -1.3071e-008    5.319e-010     
  -0.05           -2.5015e-008    1.5313e-008     2.717e-009     
  -0.1            -3.2962e-008    -1.6878e-008    2.0151e-009    
  -0.15           -3.5834e-008    -2.2619e-008    1.9817e-009    
  -0.2            -3.3494e-008    -1.3441e-008    2.6487e-009    
  -0.25           -3.3028e-008    -7.324e-009     2.7573e-009    
  -0.3            -3.5115e-008    -1.6549e-008    1.6013e-009    
  -0.35           -3.696e-008     -1.6245e-008    1.5609e-009    
  -0.4            -3.7114e-008    -1.5541e-008    2.7616e-009    
  -0.45           -3.3536e-008    -8.275e-009     2.6851e-009    
  -0.5            -3.537e-008     -1.6718e-008    2.1625e-009    
  -0.55           -3.4428e-008    -1.1532e-008    2.7056e-009    
  -0.6            -3.3988e-008    -7.38e-009      2.742e-009     
  -0.65           -3.6013e-008    -1.6928e-008    1.7862e-009    
  -0.7            -3.7995e-008    -1.8815e-008    1.7411e-009    
  -0.75           -3.81e-008      -1.8224e-008    1.6986e-009    
  -0.8            -3.8249e-008    -1.751e-008     1.6537e-009    
  -0.85           -3.827e-008     -1.6966e-008    1.6051e-009    
  -0.9            -3.8463e-008    -1.6409e-008    1.5725e-009    
  -0.95           -3.8497e-008    -1.5753e-008    2.7573e-009    
  -1              -3.4875e-008    -8.333e-009     2.6817e-009    
  -1.05           -3.6678e-008    -1.675e-008     2.1632e-009    
  -1.1            -3.5689e-008    -1.1472e-008    2.7066e-009    
  -1.15           -3.5272e-008    -7.431e-009     2.7438e-009    
  -1.2            -3.7277e-008    -1.692e-008     1.7891e-009    
  -1.25           -3.9236e-008    -1.9139e-008    1.7539e-009    
  -1.3            -3.9285e-008    -1.8479e-008    1.7011e-009    
  -1.35           -3.9459e-008    -1.7723e-008    1.6695e-009    
  -1.4            -3.9461e-008    -1.7094e-008    1.6168e-009    
  -1.45           -3.9562e-008    -1.6381e-008    1.5875e-009    
  -1.5            -3.9661e-008    -1.5767e-008    2.7625e-009    
  -1.55           -3.6004e-008    -8.215e-009     2.6791e-009    
  -1.6            -3.7803e-008    -1.678e-008     2.1704e-009    
  -1.65           -3.6822e-008    -1.1334e-008    2.712e-009     
  -1.7            -3.6394e-008    -7.584e-009     2.7387e-009    
  -1.75           -3.8313e-008    -1.6813e-008    1.8072e-009    
  -1.8            -4.0235e-008    -1.9312e-008    1.7584e-009    
END_DB

BEGIN_DB
 ICCAP_VAR VG         -1.08          
 ICCAP_VAR VS         0              
 ICCAP_VAR VB         0              

 #VD              ID              IB              IG             
  0               6.768e-009      8.528e-009      2.6331e-009    
  -0.05           -3.2677e-006    -1.6354e-008    -2.2683e-009   
  -0.1            -5.4647e-006    9.343e-009      -2.3919e-009   
  -0.15           -6.8378e-006    9.032e-009      -2.5602e-009   
  -0.2            -7.6208e-006    7.301e-009      -2.6125e-009   
  -0.25           -8.0544e-006    6.451e-009      -2.6187e-009   
  -0.3            -8.2923e-006    4.91e-009       -2.5842e-009   
  -0.35           -8.4257e-006    1.4141e-008     -1.6575e-009   
  -0.4            -8.5179e-006    1.1295e-008     -2.0374e-009   
  -0.45           -8.5715e-006    1.9195e-008     -1.5912e-009   
  -0.5            -8.6327e-006    1.1789e-008     -1.9734e-009   
  -0.55           -8.6677e-006    1.7546e-008     -1.5329e-009   
  -0.6            -8.7167e-006    1.2396e-008     -1.8921e-009   
  -0.65           -8.7449e-006    1.6171e-008     -1.4734e-009   
  -0.7            -8.7812e-006    1.3012e-008     -1.8148e-009   
  -0.75           -8.8055e-006    1.4826e-008     -1.4166e-009   
  -0.8            -8.8407e-006    1.3445e-008     -1.7517e-009   
  -0.85           -8.8617e-006    1.3535e-008     -1.3771e-009   
  -0.9            -8.8922e-006    1.4023e-008     -1.6804e-009   
  -0.95           -8.9203e-006    1.1199e-008     -2.0628e-009   
  -1              -8.937e-006     1.9675e-008     -1.6108e-009   
  -1.05           -8.9705e-006    1.1681e-008     -1.99e-009     
  -1.1            -8.9849e-006    1.8018e-008     -1.545e-009    
  -1.15           -9.0145e-006    1.2295e-008     -1.9144e-009   
  -1.2            -9.0293e-006    1.6652e-008     -1.4853e-009   
  -1.25           -9.0543e-006    1.2814e-008     -1.8433e-009   
  -1.3            -9.0711e-006    1.5112e-008     -1.4386e-009   
  -1.35           -9.0974e-006    1.3383e-008     -1.7679e-009   
  -1.4            -9.113e-006     1.3946e-008     -1.3931e-009   
  -1.45           -9.1368e-006    1.3651e-008     -1.6954e-009   
  -1.5            -9.1572e-006    1.0999e-008     -2.0828e-009   
  -1.55           -9.1653e-006    1.9937e-008     -1.6301e-009   
  -1.6            -9.1947e-006    1.1518e-008     -2.0022e-009   
  -1.65           -9.2042e-006    1.8333e-008     -1.5658e-009   
  -1.7            -9.2306e-006    1.2174e-008     -1.9403e-009   
  -1.75           -9.2373e-006    1.6866e-008     -1.5042e-009   
  -1.8            -9.2613e-006    1.2803e-008     -1.8641e-009   
END_DB

BEGIN_DB
 ICCAP_VAR VG         -1.44          
 ICCAP_VAR VS         0              
 ICCAP_VAR VB         0              

 #VD              ID              IB              IG             
  0               1.2176e-008     -1.6736e-008    -1.201e-010    
  -0.05           -1.0979e-005    -1.3616e-008    2.362e-010     
  -0.1            -2.0637e-005    1.272e-008      -1.8875e-009   
  -0.15           -2.8969e-005    1.4463e-008     -1.6495e-009   
  -0.2            -3.6017e-005    1.6288e-008     -1.443e-009    
  -0.25           -4.1809e-005    1.8506e-008     -1.307e-009    
  -0.3            -4.646e-005     8.96e-009       -2.5331e-009   
  -0.35           -5.0085e-005    9.155e-009      -2.4299e-009   
  -0.4            -5.2803e-005    1.6831e-008     -1.488e-009    
  -0.45           -5.4818e-005    1.7868e-008     -1.3355e-009   
  -0.5            -5.6249e-005    8.748e-009      -2.5512e-009   
  -0.55           -5.7308e-005    9.128e-009      -2.4581e-009   
  -0.6            -5.8074e-005    1.8049e-008     -1.5395e-009   
  -0.65           -5.8684e-005    1.7297e-008     -1.3655e-009   
  -0.7            -5.914e-005     1.9681e-008     -1.2655e-009   
  -0.75           -5.9526e-005    9.105e-009      -2.4903e-009   
  -0.8            -5.9848e-005    1.9333e-008     -1.5965e-009   
  -0.85           -6.0148e-005    1.6679e-008     -1.4045e-009   
  -0.9            -6.0388e-005    1.906e-008      -1.2858e-009   
  -0.95           -6.0608e-005    9.005e-009      -2.5138e-009   
  -1              -6.0826e-005    9.319e-009      -2.3995e-009   
  -1.05           -6.1023e-005    1.5701e-008     -1.445e-009    
  -1.1            -6.122e-005     1.8348e-008     -1.3107e-009   
  -1.15           -6.1385e-005    8.888e-009      -2.5358e-009   
  -1.2            -6.1559e-005    9.248e-009      -2.4358e-009   
  -1.25           -6.1722e-005    1.707e-008      -1.5009e-009   
  -1.3            -6.1888e-005    1.784e-008      -1.3424e-009   
  -1.35           -6.2018e-005    8.754e-009      -2.5544e-009   
  -1.4            -6.2182e-005    9.121e-009      -2.4685e-009   
  -1.45           -6.2327e-005    1.8381e-008     -1.5527e-009   
  -1.5            -6.2473e-005    1.7015e-008     -1.376e-009    
  -1.55           -6.2608e-005    1.9529e-008     -1.2679e-009   
  -1.6            -6.2729e-005    8.991e-009      -2.4913e-009   
  -1.65           -6.2854e-005    9.378e-009      -2.3648e-009   
  -1.7            -6.2982e-005    1.4829e-008     -1.4145e-009   
  -1.75           -6.3101e-005    1.8931e-008     -1.2895e-009   
  -1.8            -6.3222e-005    8.987e-009      -2.5204e-009   
END_DB

BEGIN_DB
 ICCAP_VAR VG         -1.8           
 ICCAP_VAR VS         0              
 ICCAP_VAR VB         0              

 #VD              ID              IB              IG             
  0               2.094e-008      5.22e-009       1.236e-009     
  -0.05           -1.8064e-005    1.3492e-008     -1.9023e-009   
  -0.1            -3.4986e-005    8.937e-009      -2.4786e-009   
  -0.15           -5.0742e-005    1.9188e-008     -1.5864e-009   
  -0.2            -6.5363e-005    1.67e-008       -1.4023e-009   
  -0.25           -7.8749e-005    1.9019e-008     -1.2844e-009   
  -0.3            -9.0952e-005    8.97e-009       -2.5078e-009   
  -0.35           -0.000101965    9.282e-009      -2.3901e-009   
  -0.4            -0.000111765    1.5787e-008     -1.4537e-009   
  -0.45           -0.00012041     1.2824e-008     3.99e-010      
  -0.5            -0.00012796     8.13e-009       9.515e-010     
  -0.55           -0.0001343      9.575e-009      6.571e-010     
  -0.6            -0.00013946     1.5093e-008     -1.5704e-009   
  -0.65           -0.00014388     1.4044e-008     -1.7369e-009   
  -0.7            -0.00014744     1.2789e-008     -1.9131e-009   
  -0.75           -0.00015038     1.2899e-008     -1.3497e-009   
  -0.8            -0.00015267     1.5885e-008     -1.4658e-009   
  -0.85           -0.00015456     1.4862e-008     -1.6106e-009   
  -0.9            -0.00015608     1.372e-008      -1.7725e-009   
  -0.95           -0.00015734     1.2358e-008     -1.9559e-009   
  -1              -0.0001584      1.3529e-008     -1.3687e-009   
  -1.05           -0.00015928     1.5685e-008     -1.4935e-009   
  -1.1            -0.00016009     1.4598e-008     -1.6445e-009   
  -1.15           -0.00016082     1.3498e-008     -1.8167e-009   
  -1.2            -0.00016144     1.1978e-008     -1.9934e-009   
  -1.25           -0.00016191     1.4395e-008     -1.3973e-009   
  -1.3            -0.00016252     1.5522e-008     -1.5227e-009   
  -1.35           -0.00016303     1.4474e-008     -1.6818e-009   
  -1.4            -0.00016348     1.3113e-008     -1.8561e-009   
  -1.45           -0.00016392     1.1826e-008     -2.0292e-009   
  -1.5            -0.00016431     1.5013e-008     -1.4206e-009   
  -1.55           -0.00016475     1.5157e-008     -1.5528e-009   
  -1.6            -0.00016515     1.4058e-008     -1.7149e-009   
  -1.65           -0.00016545     1.2805e-008     -1.9018e-009   
  -1.7            -0.00016584     1.2637e-008     -1.3385e-009   
  -1.75           -0.00016623     1.6222e-008     -1.4435e-009   
  -1.8            -0.00016657     1.4826e-008     -1.5921e-009   
END_DB

BEGIN_DB
 ICCAP_VAR VG         0              
 ICCAP_VAR VS         0              
 ICCAP_VAR VB         0.9            

 #VD              ID              IB              IG             
  0               5.55e-011       8.172e-009      1.4209e-009    
  -0.05           1.4521e-009     1.8095e-008     -1.651e-009    
  -0.1            -2.7829e-009    -1.8588e-008    2.1699e-009    
  -0.15           1.1013e-009     1.4576e-008     -2.094e-009    
  -0.2            -1.1421e-009    -1.7036e-008    2.4112e-009    
  -0.25           9.005e-010      1.2555e-008     -2.3e-009      
  -0.3            -9.009e-010     -1.6818e-008    2.5843e-009    
  -0.35           3.5803e-009     7.856e-009      -1.547e-010    
  -0.4            -1.51e-011      8.596e-009      -2.6172e-009   
  -0.45           -2.8566e-009    -1.6117e-008    2.0176e-009    
  -0.5            1.2096e-009     1.5408e-008     -1.9714e-009   
  -0.55           -1.2509e-009    -1.6868e-008    2.2927e-009    
  -0.6            1.0103e-009     1.3914e-008     -2.1857e-009   
  -0.65           -1.0317e-009    -1.6972e-008    2.4942e-009    
  -0.7            8.068e-010      1.1768e-008     -2.3709e-009   
  -0.75           -7.976e-010     -1.6547e-008    2.638e-009     
  -0.8            3.491e-009      7.534e-009      -1.281e-009    
  -0.85           -5.586e-010     -1.5049e-008    2.7168e-009    
  -0.9            3.2881e-009     8.475e-009      -1.3901e-009   
  -0.95           -2.756e-010     -1.259e-008     2.7526e-009    
  -1              3.081e-009      1.1887e-008     -1.5839e-009   
  -1.05           -2.8258e-009    -1.7141e-008    2.089e-009     
  -1.1            1.1601e-009     1.5085e-008     -2.0221e-009   
  -1.15           -1.2043e-009    -1.7062e-008    2.3408e-009    
  -1.2            9.599e-010      1.3272e-008     -2.2403e-009   
  -1.25           -9.681e-010     -1.7e-008       2.5339e-009    
  -1.3            3.6446e-009     8.065e-009      -1.107e-010    
  -1.35           5.68e-011       8.707e-009      -2.6069e-009   
  -1.4            -2.895e-009     -1.4863e-008    1.9291e-009    
  -1.45           2.6145e-009     2.1429e-008     -2.0827e-009   
  -1.5            -1.1437e-009    -1.6999e-008    2.4088e-009    
  -1.55           9.032e-010      1.2717e-008     -2.2913e-009   
  -1.6            -9.09e-010      -1.6661e-008    2.5765e-009    
  -1.65           3.5862e-009     7.82e-009       -1.497e-010    
  -1.7            2.1e-012        8.552e-009      -2.6158e-009   
  -1.75           -2.8611e-009    -1.5931e-008    2.0059e-009    
  -1.8            1.2236e-009     1.5551e-008     -1.9567e-009   
END_DB

BEGIN_DB
 ICCAP_VAR VG         -0.36          
 ICCAP_VAR VS         0              
 ICCAP_VAR VB         0.9            

 #VD              ID              IB              IG             
  0               -2.724e-010     -1.0827e-008    -1.3006e-009   
  -0.05           -1.7297e-009    -1.8743e-008    1.5854e-009    
  -0.1            2.8725e-009     1.5654e-008     -1.8006e-009   
  -0.15           -2.6906e-009    -2.1295e-008    2.3176e-009    
  -0.2            9.774e-010      1.3546e-008     -2.2203e-009   
  -0.25           -1.0003e-009    -1.6933e-008    2.5214e-009    
  -0.3            3.6537e-009     8.164e-009      -1.001e-010    
  -0.35           7.59e-011       8.762e-009      -2.6111e-009   
  -0.4            -2.9101e-009    -1.4716e-008    1.9127e-009    
  -0.45           1.2846e-009     1.6276e-008     -1.8799e-009   
  -0.5            -1.3245e-009    -1.7e-008       2.1891e-009    
  -0.55           1.08e-009       1.4454e-008     -2.1105e-009   
