! VERSION = 6.00
BEGIN_HEADER
 ICCAP_INPUTS
  VG         V  B GROUND SMU4 0.001 LIN        1    0          -1.8       37   -0.05     
  VS         V  E GROUND SMU3 0.1 CON        0
  VB         V  C GROUND SMU1 0.1 LIN        3    0          1.8        3    0.9       
  VD         V  S GROUND SMU2 0.1 LIN        2    -0.1       -1.8       2    -1.7      
 ICCAP_OUTPUTS
  IG         I  B GROUND SMU4 B
  ID         I  S GROUND SMU2 B
  IB         I  C GROUND SMU1 B
END_HEADER

BEGIN_DB
 ICCAP_VAR VS         0              
 ICCAP_VAR VB         0              
 ICCAP_VAR VD         -0.1           

 #VG              IG              ID              IB             
  0               -7.846e-010     5.234e-010      -8.094e-009    
  -0.05           1.3963e-009     -2.2047e-009    -2.5769e-008   
  -0.1            7.171e-010      4.5473e-009     9.797e-009     
  -0.15           -2.3694e-009    -2.2651e-009    3.799e-009     
  -0.2            1.6487e-009     -1.9855e-009    -2.127e-008    
  -0.25           4.686e-010      3.825e-009      1.1269e-008    
  -0.3            -2.2837e-009    -3.5822e-009    1.4617e-008    
  -0.35           1.3382e-009     -9.0538e-009    -2.5788e-008   
  -0.4            -2.7696e-009    -2.1947e-008    -1.7401e-008   
  -0.45           3.127e-010      -5.6785e-008    -1.2489e-008   
  -0.5            5.16e-010       -1.2769e-007    -1.2691e-008   
  -0.55           -1.5326e-009    -2.8095e-007    1.9325e-008    
  -0.6            1.3367e-009     -5.602e-007     -2.5916e-008   
  -0.65           1.4377e-009     -1.00405e-006   1.029e-008     
  -0.7            -2.7531e-009    -1.6671e-006    -2.5764e-008   
  -0.75           1.3393e-009     -2.623e-006     -2.5406e-008   
  -0.8            1.3801e-009     -3.8413e-006    9.812e-009     
  -0.85           -1.7417e-009    -5.25e-006      2.0087e-008    
  -0.9            -9.129e-010     -6.9637e-006    -1.0723e-008   
  -0.95           1.3498e-009     -8.8561e-006    -2.4683e-008   
  -1              -1.3811e-009    -1.07853e-005   2.44e-008      
  -1.05           2.403e-010      -1.2876e-005    -1.5583e-008   
  -1.1            -1.8515e-009    -1.5001e-005    1.5102e-008    
  -1.15           -8.433e-010     -1.7182e-005    -1.1038e-008   
  -1.2            1.335e-009      -1.9353e-005    -8.047e-009    
  -1.25           1.4884e-009     -2.1481e-005    1.0615e-008    
  -1.3            -1.6169e-009    -2.3442e-005    1.654e-008     
  -1.35           1.3446e-009     -2.5501e-005    -2.5018e-008   
  -1.4            1.3529e-009     -2.7433e-005    9.752e-009     
  -1.45           -1.3488e-009    -2.9188e-005    2.0953e-008    
  -1.5            1.3467e-009     -3.1004e-005    -2.4898e-008   
  -1.55           1.3417e-009     -3.2682e-005    9.613e-009     
  -1.6            -1.3525e-009    -3.4196e-005    2.1253e-008    
  -1.65           1.3469e-009     -3.5784e-005    -2.47e-008     
  -1.7            1.3329e-009     -3.723e-005     9.6e-009       
  -1.75           -1.3547e-009    -3.854e-005     2.1427e-008    
  -1.8            1.3481e-009     -3.9915e-005    -2.4597e-008   
END_DB

BEGIN_DB
 ICCAP_VAR VS         0              
 ICCAP_VAR VB         0              
 ICCAP_VAR VD         -1.8           

 #VG              IG              ID              IB             
  0               3.732e-010      -1.1348e-009    1.0843e-008    
  -0.05           1.2656e-009     3.8675e-009     1.086e-008     
  -0.1            -2.7475e-009    -2.8281e-009    7.509e-009     
  -0.15           1.3295e-009     -5.3289e-009    -2.527e-008    
  -0.2            -2.1733e-009    -1.0029e-008    -2.6544e-008   
  -0.25           1.3796e-009     -2.297e-008     -2.1255e-008   
  -0.3            -1.4053e-009    -5.6081e-008    2.6888e-008    
  -0.35           6.878e-010      -1.3379e-007    -1.6445e-008   
  -0.4            -1.4067e-009    -2.9812e-007    6.756e-009     
  -0.45           1.9611e-009     -6.061e-007     -2.2882e-008   
  -0.5            7.822e-010      -1.11817e-006   1.1259e-008    
  -0.55           -2.3591e-009    -1.9581e-006    -1.7649e-008   
  -0.6            1.329e-009      -3.2971e-006    -2.5179e-008   
  -0.65           -1.3705e-009    -5.1683e-006    2.3073e-008    
  -0.7            2.6935e-009     -7.9924e-006    -1.7121e-008   
  -0.75           1.9656e-009     -1.1654e-005    -1.7737e-008   
  -0.8            -1.645e-009     -1.6244e-005    1.6944e-008    
  -0.85           1.3386e-009     -2.2241e-005    -2.3647e-008   
  -0.9            -1.388e-009     -2.8945e-005    2.5386e-008    
  -0.95           -7.786e-010     -3.709e-005     -1.1793e-008   
  -1              1.3283e-009     -4.6337e-005    -8.223e-009    
  -1.05           1.4115e-009     -5.6645e-005    9.291e-009     
  -1.1            -1.7275e-009    -6.7297e-005    2.0049e-008    
  -1.15           -9.203e-010     -7.951e-005     -1.0997e-008   
  -1.2            1.3245e-009     -9.2681e-005    -7.68e-009     
  -1.25           1.5773e-009     -0.000106593    1.1152e-008    
  -1.3            1.8874e-009     -0.00012085     1.2794e-008    
  -1.35           -1.7835e-009    -0.00013543     1.6315e-008    
  -1.4            -8.925e-010     -0.00015134     -1.1644e-008   
  -1.45           2.8965e-009     -0.0001679      -7.832e-009    
  -1.5            -1.4442e-009    -0.00018417     1.1755e-008    
  -1.55           2.4962e-009     -0.00020174     -2.5755e-008   
  -1.6            2.0788e-009     -0.00021935     1.2072e-008    
  -1.65           -1.557e-009     -0.00023684     1.8877e-008    
  -1.7            1.3171e-009     -0.00025565     -2.4273e-008   
  -1.75           -1.3618e-009    -0.00027358     2.2982e-008    
  -1.8            2.6519e-009     -0.00029292     -1.6813e-008   
END_DB

BEGIN_DB
 ICCAP_VAR VS         0              
 ICCAP_VAR VB         0.9            
 ICCAP_VAR VD         -0.1           

 #VG              IG              ID              IB             
  0               -1.4425e-009    -1.033e-010     -1.0206e-008   
  -0.05           1.6224e-009     -1.8516e-009    -2.0886e-008   
  -0.1            4.961e-010      4.4932e-009     1.1479e-008    
  -0.15           -4.956e-010     -4.3446e-009    -1.1876e-008   
  -0.2            2.559e-009      -1.083e-009     -1.8412e-008   
  -0.25           1.5318e-009     3.4886e-009     1.1815e-008    
  -0.3            -1.3967e-009    -2.592e-010     8.743e-009     
  -0.35           1.3159e-009     -2.788e-009     -2.5437e-008   
  -0.4            -1.3927e-009    2.2086e-009     2.6391e-008    
  -0.45           1.3158e-009     -3.7451e-009    -2.5558e-008   
  -0.5            7.015e-010      1.283e-010      1.0827e-008    
  -0.55           -1.3928e-009    -1.8029e-008    -9.87e-009     
  -0.6            1.5783e-009     -5.3163e-008    -1.5831e-008   
  -0.65           -2.6119e-009    -1.3865e-007    1.0642e-008    
  -0.7            1.3139e-009     -3.2933e-007    -2.5367e-008   
  -0.75           1.6026e-009     -6.8256e-007    1.0976e-008    
  -0.8            -2.5941e-009    -1.2729e-006    -2.2498e-008   
  -0.85           2.4292e-009     -2.192e-006     -2.541e-008    
  -0.9            5.509e-010      -3.3995e-006    1.1664e-008    
  -0.95           -1.5298e-009    -4.9261e-006    1.9685e-008    
  -1              -1.0891e-009    -6.7357e-006    -1.0338e-008   
  -1.05           2.5704e-009     -8.7705e-006    -2.5135e-008   
  -1.1            2.0178e-009     -1.08909e-005   1.2411e-008    
  -1.15           2.9058e-009     -1.3066e-005    -1.0908e-008   
  -1.2            -1.879e-010     -1.5238e-005    9.581e-009     
  -1.25           -2.4755e-009    -1.7445e-005    1.032e-008     
  -1.3            2.1916e-009     -1.9657e-005    -2.5119e-008   
  -1.35           6.794e-010      -2.1732e-005    1.1488e-008    
  -1.4            -1.3923e-009    -2.373e-005     7.129e-009     
  -1.45           2.0354e-009     -2.5706e-005    -2.3548e-008   
  -1.5            7.656e-010      -2.7535e-005    1.1452e-008    
  -1.55           -1.3933e-009    -2.9277e-005    7.61e-009      
  -1.6            1.8554e-009     -3.0976e-005    -2.0852e-008   
  -1.65           8.467e-010      -3.2576e-005    1.0961e-008    
  -1.7            -1.394e-009     -3.4068e-005    7.686e-009     
  -1.75           -5.456e-010     -3.5535e-005    -1.1841e-008   
  -1.8            1.6202e-009     -3.6923e-005    -1.8449e-008   
END_DB

BEGIN_DB
 ICCAP_VAR VS         0              
 ICCAP_VAR VB         0.9            
 ICCAP_VAR VD         -1.8           

 #VG              IG              ID              IB             
  0               -5.369e-010     6.1e-010        -1.2048e-008   
  -0.05           1.316e-009      -2.7347e-009    -2.5433e-008   
  -0.1            -1.3937e-009    2.5175e-009     2.6479e-008    
  -0.15           1.3153e-009     -2.6291e-009    -2.5836e-008   
  -0.2            9.235e-010      4.3664e-009     9.054e-009     
  -0.25           -2.7343e-009    -2.6198e-009    7.009e-009     
  -0.3            -5.135e-010     -6.4581e-009    -1.1723e-008   
  -0.35           -2.7774e-009    -1.0093e-008    7.479e-009     
  -0.4            1.4175e-009     -2.322e-008     -7.74e-009     
  -0.45           1.1154e-009     -6.9749e-008    9.206e-009     
  -0.5            1.903e-010      -1.9902e-007    6.101e-009     
  -0.55           2.6927e-009     -4.6006e-007    -1.6174e-008   
  -0.6            -1.3803e-009    -9.4934e-007    2.5852e-008    
  -0.65           2.8774e-009     -1.8457e-006    2.5995e-008    
  -0.7            1.604e-009      -3.3396e-006    1.1035e-008    
  -0.75           -1.5589e-009    -5.4646e-006    1.5231e-008    
  -0.8            1.3172e-009     -8.7145e-006    -2.4106e-008   
  -0.85           1.4514e-009     -1.3018e-005    -2.4646e-008   
  -0.9            -1.7229e-009    -1.8229e-005    1.9599e-008    
  -0.95           1.3388e-009     -2.5056e-005    -2.2448e-008   
  -1              -1.3802e-009    -3.2589e-005    2.5598e-008    
  -1.05           -7.309e-010     -4.1644e-005    -1.1655e-008   
  -1.1            1.3206e-009     -5.1847e-005    -8.717e-009    
  -1.15           1.3602e-009     -6.3063e-005    9.281e-009     
  -1.2            -1.3542e-009    -7.4639e-005    2.2435e-008    
  -1.25           2.638e-009      -8.7976e-005    -1.6588e-008   
  -1.3            3.667e-010      -0.000101387    1.099e-008     
  -1.35           6.802e-010      -0.00011589     1.871e-008     
  -1.4            -1.3962e-009    -0.00013081     7.186e-009     
  -1.45           2.0427e-009     -0.00014694     -2.3435e-008   
  -1.5            7.603e-010      -0.0001631      1.1187e-008    
  -1.55           -1.3949e-009    -0.00017956     7.762e-009     
  -1.6            1.886e-009      -0.00019716     -2.1233e-008   
  -1.65           8.343e-010      -0.00021464     1.108e-008     
  -1.7            -1.3946e-009    -0.0002323      7.865e-009     
  -1.75           1.7354e-009     -0.00025098     -1.879e-008    
  -1.8            9.095e-010      -0.0002693      1.0677e-008    
END_DB

BEGIN_DB
 ICCAP_VAR VS         0              
 ICCAP_VAR VB         1.8            
 ICCAP_VAR VD         -0.1           

 #VG              IG              ID              IB             
  0               1.169e-010      -1.4938e-009    -1.7934e-008   
  -0.05           1.5574e-009     3.4053e-009     1.2057e-008    
  -0.1            -1.4e-009       -2.037e-010     8.84e-009      
  -0.15           1.3201e-009     -2.7513e-009    -2.5176e-008   
  -0.2            -1.3979e-009    2.5389e-009     2.6331e-008    
  -0.25           1.319e-009      -2.6053e-009    -2.5832e-008   
  -0.3            -1.397e-009     2.3714e-009     2.7025e-008    
  -0.35           1.3284e-009     -2.4642e-009    -2.5858e-008   
  -0.4            8.525e-010      4.4888e-009     9.481e-009     
  -0.45           -2.4882e-009    -2.4149e-009    4.909e-009     
  -0.5            1.5128e-009     -2.9767e-009    -2.2218e-008   
  -0.55           -1.387e-009     -4.0499e-009    1.1772e-008    
  -0.6            1.646e-009      -1.3247e-008    1.2384e-008    
  -0.65           9.351e-010      -4.6605e-008    1.045e-008     
  -0.7            -9.78e-011      -1.4836e-007    7.787e-009     
  -0.75           2.2905e-009     -3.5609e-007    -1.814e-008    
  -0.8            6.238e-010      -7.4652e-007    1.1796e-008    
  -0.85           -1.5282e-009    -1.4009e-006    -8.592e-009    
  -0.9            1.7993e-009     -2.4278e-006    -1.9777e-008   
  -0.95           8.639e-010      -3.7537e-006    1.0835e-008    
  -1              -1.3996e-009    -5.3801e-006    7.744e-009     
  -1.05           1.6644e-009     -7.3298e-006    -1.7201e-008   
  -1.1            9.403e-010      -9.3911e-006    1.0717e-008    
  -1.15           2.0014e-009     -1.1587e-005    -1.7747e-008   
  -1.2            -5.17e-011      -1.3762e-005    9.098e-009     
  -1.25           -2.3158e-009    -1.5991e-005    1.242e-008     
  -1.3            1.9214e-009     -1.8236e-005    -2.2154e-008   
  -1.35           8.092e-010      -2.0349e-005    1.1177e-008    
  -1.4            -1.401e-009     -2.2379e-005    7.687e-009     
  -1.45           1.7611e-009     -2.4399e-005    -1.9398e-008   
  -1.5            8.847e-010      -2.6266e-005    1.0717e-008    
  -1.55           -1.3987e-009    -2.8031e-005    7.678e-009     
  -1.6            1.6291e-009     -2.9771e-005    -1.6873e-008   
  -1.65           9.547e-010      -3.1385e-005    1.0553e-008    
  -1.7            -1.3984e-009    -3.291e-005     2.5921e-008    
  -1.75           1.9169e-009     -3.4392e-005    -2.2308e-008   
  -1.8            8.09e-010       -3.5764e-005    1.1336e-008    
END_DB

BEGIN_DB
 ICCAP_VAR VS         0              
 ICCAP_VAR VB         1.8            
 ICCAP_VAR VD         -1.8           

 #VG              IG              ID              IB             
  0               -7.496e-010     4.124e-010      -7.862e-009    
  -0.05           1.3614e-009     -2.2902e-009    -2.4665e-008   
  -0.1            7.673e-010      4.5418e-009     1.013e-008     
  -0.15           -8.013e-010     -4.3453e-009    -1.0988e-008   
  -0.2            2.4593e-009     2.0159e-009     -5.28e-009     
  -0.25           -1.6564e-009    1.4249e-009     2.1269e-008    
  -0.3            -4.858e-010     -5.1856e-009    -1.1937e-008   
  -0.35           2.5717e-009     -4.2003e-009    -1.8385e-008   
  -0.4            -2.5675e-009    -1.3357e-008    -2.5143e-008   
  -0.45           2.3599e-009     -3.9335e-008    -2.5639e-008   
  -0.5            2.95e-010       -1.12034e-007   -1.2923e-008   
  -0.55           2.2032e-009     -2.7636e-007    -2.0024e-008   
  -0.6            -1.4612e-009    -6.2743e-007    2.0721e-008    
  -0.65           2.2326e-009     -1.3161e-006    1.1079e-008    
  -0.7            6.606e-010      -2.4421e-006    1.159e-008     
  -0.75           -1.3963e-009    -4.2441e-006    6.766e-009     
  -0.8            2.0759e-009     -7.0075e-006    -2.4264e-008   
  -0.85           7.399e-010      -1.07267e-005   1.1409e-008    
  -0.9            1.92e-010       -1.5595e-005    -1.4272e-008   
  -0.95           -1.9679e-009    -2.1668e-005    1.5401e-008    
  -1              -7.951e-010     -2.9052e-005    -1.1856e-008   
  -1.05           1.3214e-009     -3.7686e-005    -8.113e-009    
  -1.1            -1.3655e-009    -4.702e-005     2.292e-008     
  -1.15           2.6655e-009     -5.8052e-005    -1.702e-008    
  -1.2            -1.3843e-009    -6.934e-005     2.5585e-008    
  -1.25           -7.816e-010     -8.2067e-005    -1.1751e-008   
  -1.3            1.3218e-009     -9.572e-005     -8.157e-009    
  -1.35           -1.3676e-009    -0.000109483    2.3326e-008    
  -1.4            -1.3534e-009    -0.00012428     7.536e-009     
  -1.45           1.3239e-009     -0.00014021     -2.3744e-008   
  -1.5            -1.3778e-009    -0.00015577     2.4704e-008    
  -1.55           2.62e-010       -0.00017277     -1.1573e-008   
  -1.6            2.7846e-009     -0.00018984     -1.4905e-008   
  -1.65           1.8248e-009     -0.00020736     1.2221e-008    
  -1.7            -1.9006e-009    -0.00022439     1.5674e-008    
  -1.75           -8.35e-010      -0.00024263     -1.1586e-008   
  -1.8            1.3221e-009     -0.00026123     -7.978e-009    
END_DB

