! VERSION = 6.00
BEGIN_HEADER
 ICCAP_INPUTS
  VG         V  B GROUND SMU4 0.001 LIN        2    0          -1.8       6    -0.36     
  VS         V  E GROUND SMU2 0.1 CON        0
  VD         V  S GROUND SMU1 0.1 LIN        1    0          -1.8       37   -0.05     
  VB         V  C GROUND SMU3 0.1 LIN        3    0          0.9        2    0.9       
 ICCAP_OUTPUTS
  ID         I  S GROUND SMU1 B
  IB         I  C GROUND SMU3 B
  IG         I  B GROUND SMU4 B
END_HEADER

BEGIN_DB
 ICCAP_VAR VG         0              
 ICCAP_VAR VS         0              
 ICCAP_VAR VB         0              

 #VD              ID              IB              IG             
  0               1.0303e-009     8.774e-009      1.1426e-009    
  -0.05           2.3272e-009     3.84e-010       6.11e-010      
  -0.1            2.3495e-009     1.0362e-008     7.967e-010     
  -0.15           2.3199e-009     1.0293e-008     9.609e-010     
  -0.2            2.2336e-009     1.1024e-008     1.1297e-009    
  -0.25           2.0765e-009     1.2069e-008     1.2992e-009    
  -0.3            1.86e-009       1.2437e-008     -1.4196e-009   
  -0.35           -1.2933e-009    8.541e-009      -1.8619e-009   
  -0.4            -1.6671e-009    -1.3715e-008    1.6648e-009    
  -0.45           2.3554e-009     -9.255e-009     7.628e-010     
  -0.5            2.3306e-009     1.0324e-008     9.368e-010     
  -0.55           2.2504e-009     1.0797e-008     1.1023e-009    
  -0.6            2.1016e-009     1.1962e-008     1.2716e-009    
  -0.65           1.9801e-009     9.975e-009      -1.251e-010    
  -0.7            2.0706e-009     9.537e-009      6.26e-011      
  -0.75           2.181e-009      9.59e-009       2.473e-010     
  -0.8            2.2767e-009     1.0224e-008     4.456e-010     
  -0.85           2.3416e-009     1.0762e-008     6.396e-010     
  -0.9            2.3488e-009     1.056e-008      8.258e-010     
  -0.95           2.3126e-009     1.0201e-008     9.911e-010     
  -1              2.2087e-009     1.0293e-008     1.1587e-009    
  -1.05           2.0435e-009     1.1358e-008     1.339e-009     
  -1.1            1.8769e-009     1.2455e-008     -1.4062e-009   
  -1.15           -1.2777e-009    8.552e-009      -1.8765e-009   
  -1.2            -1.6792e-009    -1.332e-008     1.632e-009     
  -1.25           2.3524e-009     -9.012e-009     7.918e-010     
  -1.3            2.3207e-009     1.0295e-008     9.626e-010     
  -1.35           2.2308e-009     1.101e-008      1.1292e-009    
  -1.4            2.071e-009      1.2137e-008     1.3056e-009    
  -1.45           1.9936e-009     9.851e-009      -9.77e-011     
  -1.5            2.0834e-009     9.479e-009      8.81e-011      
  -1.55           2.1988e-009     9.681e-009      2.762e-010     
  -1.6            2.2877e-009     1.0455e-008     4.736e-010     
  -1.65           2.3458e-009     1.0809e-008     6.594e-010     
  -1.7            2.3462e-009     1.0571e-008     8.474e-010     
  -1.75           2.3018e-009     1.0109e-008     1.0101e-009    
  -1.8            2.1954e-009     1.0493e-008     1.1759e-009    
END_DB

BEGIN_DB
 ICCAP_VAR VG         -0.36          
 ICCAP_VAR VS         0              
 ICCAP_VAR VB         0              

 #VD              ID              IB              IG             
  0               -9.011e-010     -2.4235e-008    -9.68e-010     
  -0.05           -1.3222e-009    7.891e-009      -2.6274e-009   
  -0.1            -1.9773e-009    -1.3857e-008    1.6792e-009    
  -0.15           2.2e-011        -9.253e-009     1.4129e-009    
  -0.2            -1.337e-010     -9.129e-009     1.272e-009     
  -0.25           -3.105e-010     -9.548e-009     1.205e-009     
  -0.3            -4.941e-010     -1.0743e-008    2.8803e-009    
  -0.35           1.2946e-009     1.95e-010       -1.4308e-009   
  -0.4            -1.6628e-009    8.539e-009      -2.684e-009    
  -0.45           -2.3692e-009    -1.2256e-008    1.5203e-009    
  -0.5            -4.16e-010      -8.992e-009     1.3251e-009    
  -0.55           -6.153e-010     -9.286e-009     1.2289e-009    
  -0.6            -8.239e-010     -9.944e-009     2.8701e-009    
  -0.65           8.347e-010      5.72e-010       -1.4848e-009   
  -0.7            -2.1054e-009    8.009e-009      -2.635e-009    
  -0.75           -2.8232e-009    -1.3541e-008    1.6456e-009    
  -0.8            -9.001e-010     -9.187e-009     1.4031e-009    
  -0.85           -1.139e-009     -9.058e-009     1.2663e-009    
  -0.9            -1.4007e-009    -9.52e-009      1.2044e-009    
  -0.95           -1.6806e-009    -1.1165e-008    2.8789e-009    
  -1              -9.362e-010     2.79e-010       2.8394e-009    
  -1.05           -2.0642e-009    1.0494e-008     -1.3073e-009   
  -1.1            -2.0913e-009    7.77e-009       -1.2904e-009   
  -1.15           -2.1459e-009    8.468e-009      -2.6249e-009   
  -1.2            -3.3651e-009    6.92e-010       -2.4534e-009   
  -1.25           -4.9469e-009    -1.0396e-008    -3.973e-010    
  -1.3            -3.6068e-009    -1.8079e-008    2.4979e-009    
  -1.35           -2.6681e-009    -3.81e-009      2.1914e-009    
  -1.4            -3.0536e-009    -6.676e-009     1.8631e-009    
  -1.45           -3.4986e-009    -9.148e-009     1.5646e-009    
  -1.5            -3.962e-009     -9.103e-009     1.3596e-009    
  -1.55           -4.4571e-009    -9.031e-009     1.244e-009     
  -1.6            -4.9723e-009    -9.612e-009     2.8656e-009    
  -1.65           -4.5048e-009    8.09e-010       2.8768e-009    
  -1.7            -5.0107e-009    -4.3e-011       2.8207e-009    
  -1.75           -4.0853e-009    1.0756e-008     1.1053e-009    
  -1.8            -4.7292e-009    1.2097e-008     1.2805e-009    
END_DB

BEGIN_DB
 ICCAP_VAR VG         -0.72          
 ICCAP_VAR VS         0              
 ICCAP_VAR VB         0              

 #VD              ID              IB              IG             
  0               -4.1473e-010    1.602e-008      -1.9887e-009   
  -0.05           -7.094e-007     -1.2522e-008    2.2652e-009    
  -0.1            -1.04521e-006   -2.1872e-008    1.4363e-009    
  -0.15           -1.2234e-006    1.0861e-008     2.2095e-009    
  -0.2            -1.3636e-006    -1.9002e-008    1.9425e-009    
  -0.25           -1.4907e-006    -2.01e-008      1.6729e-009    
  -0.3            -1.6081e-006    -1.868e-008     1.6297e-009    
  -0.35           -1.7249e-006    -1.7875e-008    1.583e-009     
  -0.4            -1.8421e-006    -1.7092e-008    1.5456e-009    
  -0.45           -1.9247e-006    -1.0755e-008    -7.519e-010    
  -0.5            -2.0278e-006    2.0318e-008     -1.5845e-009   
  -0.55           -2.1486e-006    9.99e-009       6.119e-010     
  -0.6            -2.3093e-006    -1.9679e-008    1.7833e-009    
  -0.65           -2.4241e-006    -2.0262e-008    1.7291e-009    
  -0.7            -2.5462e-006    -1.9434e-008    1.6765e-009    
  -0.75           -2.6738e-006    -1.8595e-008    1.6298e-009    
  -0.8            -2.798e-006     -1.7742e-008    1.5833e-009    
  -0.85           -2.9266e-006    -1.6941e-008    1.5344e-009    
  -0.9            -3.0577e-006    -1.6232e-008    1.497e-009     
  -0.95           -3.1384e-006    -1.084e-008     -7.792e-010    
  -1              -3.2532e-006    2.1024e-008     -1.5503e-009   
  -1.05           -3.4038e-006    1.0294e-008     6.48e-010      
  -1.1            -3.5986e-006    -1.9952e-008    1.718e-009     
  -1.15           -3.7321e-006    -1.9376e-008    1.6652e-009    
  -1.2            -3.8779e-006    -1.8612e-008    1.6242e-009    
  -1.25           -4.0292e-006    -1.7795e-008    1.5762e-009    
  -1.3            -4.1781e-006    -1.6986e-008    1.5404e-009    
  -1.35           -4.3331e-006    -1.6263e-008    1.4951e-009    
  -1.4            -4.4896e-006    -1.5473e-008    1.4602e-009    
  -1.45           -4.6463e-006    -1.4919e-008    1.4263e-009    
  -1.5            -4.8102e-006    -1.432e-008     1.3938e-009    
  -1.55           -4.9773e-006    -1.3894e-008    1.3652e-009    
  -1.6            -5.1435e-006    -1.3202e-008    2.103e-010     
  -1.65           -5.1914e-006    8.702e-009      -1.2861e-009   
  -1.7            -5.3828e-006    9.459e-009      3.897e-010     
  -1.75           -5.6475e-006    -1.7864e-008    2.1319e-009    
  -1.8            -5.7938e-006    -9.978e-009     -3.463e-010    
END_DB

BEGIN_DB
 ICCAP_VAR VG         -1.08          
 ICCAP_VAR VS         0              
 ICCAP_VAR VB         0              

 #VD              ID              IB              IG             
  0               -2.8413e-008    1.0425e-008     1.838e-010     
  -0.05           -2.1932e-005    -1.4905e-008    2.253e-010     
  -0.1            -3.8464e-005    -1.9959e-008    1.7596e-009    
  -0.15           -5.0482e-005    -1.2241e-008    1.526e-010     
  -0.2            -5.8637e-005    9.9e-009        -2.2977e-009   
  -0.25           -6.5617e-005    1.2286e-008     2.0468e-009    
  -0.3            -7.0719e-005    -2.1783e-008    1.4562e-009    
  -0.35           -7.4827e-005    -1.0806e-008    -2.46e-011     
  -0.4            -7.7573e-005    1.4038e-008     -1.9686e-009   
  -0.45           -8.0951e-005    1.0398e-008     6.88e-010      
  -0.5            -8.4109e-005    -2.5045e-008    1.2818e-009    
  -0.55           -8.6513e-005    -1.0229e-008    -2.455e-010    
  -0.6            -8.8301e-005    1.8828e-008     -1.6779e-009   
  -0.65           -9.1102e-005    1.0639e-008     8.935e-010     
  -0.7            -9.3558e-005    -2.7084e-008    1.2057e-009    
  -0.75           -9.5387e-005    -1.0002e-008    -4.986e-010    
  -0.8            -9.6966e-005    2.255e-008      -1.4711e-009   
  -0.85           -9.9801e-005    1.0685e-008     1.0892e-009    
  -0.9            -0.000101911    -1.1743e-008    2.7872e-009    
  -0.95           -0.000103742    -1.8002e-008    2.1282e-009    
  -1              -0.0001057      -1.5946e-008    1.4855e-009    
  -1.05           -0.000107567    -2.7072e-008    2.4321e-009    
  -1.1            -0.000109372    -2.069e-008     1.7508e-009    
  -1.15           -0.000110645    -1.1108e-008    -9.556e-010    
  -1.2            -0.00011227     2.7745e-008     -1.3228e-009   
  -1.25           -0.00011448     2.0882e-008     6.57e-010      
  -1.3            -0.00011688     -2.1383e-008    1.5232e-009    
  -1.35           -0.0001188      -1.357e-008     2.254e-010     
  -1.4            -0.00011946     8.109e-009      -2.6286e-009   
  -1.45           -0.00012274     1.1474e-008     1.4492e-009    
  -1.5            -0.00012429     -1.3764e-008    2.6913e-009    
  -1.55           -0.00012601     -2.7164e-008    1.2059e-009    
  -1.6            -0.00012763     -1.0211e-008    -2.187e-010    
  -1.65           -0.00012851     1.2706e-008     -2.0699e-009   
  -1.7            -0.00013059     9.582e-009      3.624e-010     
  -1.75           -0.00013313     -1.8897e-008    1.9672e-009    
  -1.8            -0.0001345      -9.98e-009      -5.939e-010    
END_DB

BEGIN_DB
 ICCAP_VAR VG         -1.44          
 ICCAP_VAR VS         0              
 ICCAP_VAR VB         0              

 #VD              ID              IB              IG             
  0               -6.2878e-008    -2.049e-008     -6.077e-010    
  -0.05           -5.7541e-005    8.758e-009      1.269e-010     
  -0.1            -0.000109062    1.0491e-008     -2.2489e-009   
  -0.15           -0.00015548     9.724e-009      2.3256e-009    
  -0.2            -0.0001963      -2.3264e-008    1.3683e-009    
  -0.25           -0.00023086     -1.0879e-008    -1.01e-009     
  -0.3            -0.00026044     2.6517e-008     -1.3575e-009   
  -0.35           -0.00028651     1.0557e-008     1.109e-009     
  -0.4            -0.00030754     -2.7038e-008    2.5331e-009    
  -0.45           -0.00032527     -1.8131e-008    2.095e-009     
  -0.5            -0.00033999     -2.1751e-008    1.8298e-009    
  -0.55           -0.00035291     -1.7756e-008    1.5813e-009    
  -0.6            -0.00036402     -1.4344e-008    1.4037e-009    
  -0.65           -0.00037264     -1.1068e-008    -9.731e-010    
  -0.7            -0.00038084     2.6113e-008     -1.3626e-009   
  -0.75           -0.00038982     1.0653e-008     1.0726e-009    
  -0.8            -0.00039719     -2.6778e-008    2.5747e-009    
  -0.85           -0.00040342     -2.6873e-008    2.3604e-009    
  -0.9            -0.0004098      -1.945e-008     1.8837e-009    
  -0.95           -0.00041538     -1.8544e-008    1.6312e-009    
  -1              -0.00042135     -1.5024e-008    1.4385e-009    
  -1.05           -0.00042687     -1.2541e-008    1.65e-010      
  -1.1            -0.00043001     7.766e-009      -2.5784e-009   
  -1.15           -0.00043742     1.07e-008       1.5265e-009    
  -1.2            -0.00044178     -1.5028e-008    2.6193e-009    
  -1.25           -0.0004462      -2.7095e-008    2.425e-009     
  -1.3            -0.00045073     -1.9216e-008    1.956e-009     
  -1.35           -0.00045512     -1.9555e-008    1.684e-009     
  -1.4            -0.00045964     -1.591e-008     1.4798e-009    
  -1.45           -0.00046408     -1.3066e-008    1.968e-010     
  -1.5            -0.00046658     7.983e-009      -2.6093e-009   
  -1.55           -0.00047331     1.1615e-008     1.4939e-009    
  -1.6            -0.00047696     -1.4369e-008    2.6528e-009    
  -1.65           -0.00048099     -1.0511e-008    -8.8e-011      
  -1.7            -0.00048315     1.0793e-008     -2.2448e-009   
  -1.75           -0.00048955     1.2636e-008     1.8384e-009    
  -1.8            -0.00049294     -1.4233e-008    1.4167e-009    
END_DB

BEGIN_DB
 ICCAP_VAR VG         -1.8           
 ICCAP_VAR VS         0              
 ICCAP_VAR VB         0              

 #VD              ID              IB              IG             
  0               -6.7127e-008    -2.3612e-008    -1.0841e-009   
  -0.05           -8.1716e-005    -1.158e-008     2.3036e-009    
  -0.1            -0.00015939     -1.0284e-008    -2.1647e-009   
  -0.15           -0.00023299     9.466e-009      2.263e-010     
  -0.2            -0.00030253     -1.7811e-008    2.1841e-009    
  -0.25           -0.00036735     -1.0027e-008    -4.6e-010      
  -0.3            -0.0004271      1.7489e-008     -1.7594e-009   
  -0.35           -0.00048251     1.0038e-008     5.848e-010     
  -0.4            -0.00053326     -2.0587e-008    1.6121e-009    
  -0.45           -0.00057831     -1.0815e-008    -8.201e-010    
  -0.5            -0.00061852     2.3344e-008     -1.4343e-009   
  -0.55           -0.00065567     1.0906e-008     9.156e-010     
  -0.6            -0.00068804     -2.5072e-008    1.2831e-009    
  -0.65           -0.0007162      -2.6971e-008    2.4402e-009    
  -0.7            -0.00074085     -1.9034e-008    1.9811e-009    
  -0.75           -0.00076267     -2.0166e-008    1.7427e-009    
  -0.8            -0.00078112     -1.0801e-008    -7.532e-010    
  -0.85           -0.00079776     2.2335e-008     -1.4795e-009   
  -0.9            -0.00081415     1.0854e-008     8.462e-010     
  -0.95           -0.00082854     -2.4186e-008    1.3311e-009    
  -1              -0.00084176     -1.1259e-008    6.64e-011      
  -1.05           -0.00085096     7.742e-009      -2.4645e-009   
  -1.1            -0.00086215     9.925e-009      4.95e-011      
  -1.15           -0.00087375     -1.6702e-008    2.4647e-009    
  -1.2            -0.00088266     -1.0207e-008    -2.624e-010    
  -1.25           -0.00088954     1.3459e-008     -2.012e-009    
  -1.3            -0.00090038     1.2755e-008     1.9996e-009    
  -1.35           -0.00090839     -1.2093e-008    1.442e-010     
  -1.4            -0.00091381     7.748e-009      -2.557e-009    
  -1.45           -0.00092405     1.1956e-008     1.5492e-009    
  -1.5            -0.00093003     -2.1127e-008    1.8022e-009    
  -1.55           -0.00093638     -1.0565e-008    -7.029e-010    
  -1.6            -0.00094249     2.1696e-008     -1.5117e-009   
  -1.65           -0.00095033     1.041e-008      8.036e-010     
  -1.7            -0.00095745     -2.3509e-008    1.3629e-009    
  -1.75           -0.0009637      -2.6616e-008    1.221e-009     
  -1.8            -0.00097024     -1.0428e-008    -1.489e-010    
END_DB

BEGIN_DB
 ICCAP_VAR VG         0              
 ICCAP_VAR VS         0              
 ICCAP_VAR VB         0.9            

 #VD              ID              IB              IG             
  0               2.1214e-009     -5.516e-009     2.878e-009     
  -0.05           2.0999e-009     1.19e-008       1.2881e-009    
  -0.1            1.9834e-009     9.771e-009      -1.201e-010    
  -0.15           2.0763e-009     9.48e-009       5.84e-011      
  -0.2            2.1891e-009     9.715e-009      2.533e-010     
  -0.25           2.275e-009      1.0432e-008     4.518e-010     
  -0.3            2.3389e-009     1.0852e-008     6.389e-010     
  -0.35           2.3511e-009     1.0637e-008     8.15e-010      
  -0.4            2.3144e-009     1.0059e-008     9.882e-010     
  -0.45           2.2201e-009     1.0174e-008     1.1561e-009    
  -0.5            2.0579e-009     1.0971e-008     1.3276e-009    
  -0.55           1.874e-009      1.2437e-008     -1.4095e-009   
  -0.6            -1.2856e-009    8.631e-009      -1.869e-009    
  -0.65           -1.6701e-009    -1.3505e-008    1.6506e-009    
  -0.7            2.3494e-009     -9.145e-009     7.727e-010     
  -0.75           2.3295e-009     1.0187e-008     9.432e-010     
  -0.8            2.2535e-009     1.067e-008      1.1074e-009    
  -0.85           2.1133e-009     1.1826e-008     1.2808e-009    
  -0.9            1.9774e-009     9.826e-009      -1.326e-010    
  -0.95           2.0701e-009     9.596e-009      4.91e-011      
  -1              2.1807e-009     9.649e-009      2.408e-010     
  -1.05           2.2721e-009     1.0467e-008     4.333e-010     
  -1.1            2.3345e-009     1.0506e-008     6.318e-010     
  -1.15           2.3487e-009     1.0359e-008     8.108e-010     
  -1.2            2.3182e-009     1.0151e-008     9.754e-010     
  -1.25           2.2285e-009     1.103e-008      1.1357e-009    
  -1.3            2.0721e-009     1.203e-008      1.3219e-009    
  -1.35           1.9956e-009     9.746e-009      -9.45e-011     
  -1.4            2.0888e-009     9.509e-009      9.04e-011      
  -1.45           2.2049e-009     9.82e-009       2.778e-010     
  -1.5            2.2874e-009     1.0466e-008     4.81e-010      
  -1.55           2.3438e-009     1.0549e-008     6.737e-010     
  -1.6            2.3474e-009     1.0313e-008     8.456e-010     
  -1.65           2.3047e-009     1.017e-008      1.01e-009      
  -1.7            2.2012e-009     1.1272e-008     1.179e-009     
  -1.75           2.0302e-009     1.2111e-008     1.3581e-009    
  -1.8            1.8852e-009     1.2669e-008     -1.4007e-009   
END_DB

BEGIN_DB
 ICCAP_VAR VG         -0.36          
 ICCAP_VAR VS         0              
 ICCAP_VAR VB         0.9            

 #VD              ID              IB              IG             
  0               1.2844e-009     6.703e-009      1.2215e-009    
  -0.05           2.0189e-009     1.2302e-008     1.3689e-009    
  -0.1            1.8952e-009     1.2577e-008     -1.3948e-009   
  -0.15           -1.2661e-009    8.786e-009      -1.8884e-009   
  -0.2            -1.6899e-009    -1.2965e-008    1.6076e-009    
  -0.25           2.3524e-009     -9.091e-009     8.011e-010     
  -0.3            2.3232e-009     1.0169e-008     9.706e-010     
  -0.35           2.2391e-009     1.1034e-008     1.1362e-009    
  -0.4            2.0835e-009     1.1907e-008     1.3052e-009    
  -0.45           1.9903e-009     9.817e-009      -1.046e-010    
  -0.5            2.0813e-009     9.479e-009      7.97e-011      
  -0.55           2.1944e-009     9.771e-009      2.634e-010     
