! VERSION = 6.00
BEGIN_HEADER
 ICCAP_INPUTS
  VG         V  B GROUND SMU4 0.001 LIN        2    0          -1.8       6    -0.36     
  VS         V  E GROUND SMU2 0.1 CON        0
  VD         V  S GROUND SMU1 0.1 LIN        1    0          -1.8       37   -0.05     
  VB         V  C GROUND SMU3 0.1 LIN        3    0          0.9        2    0.9       
 ICCAP_OUTPUTS
  ID         I  S GROUND SMU1 B
  IB         I  C GROUND SMU3 B
  IG         I  B GROUND SMU4 B
END_HEADER

BEGIN_DB
 ICCAP_VAR VG         0              
 ICCAP_VAR VS         0              
 ICCAP_VAR VB         0              

 #VD              ID              IB              IG             
  0               -1.5839e-009    -7.062e-009     -1.4563e-009   
  -0.05           -6.866e-010     -1.8796e-008    2.3098e-009    
  -0.1            2.1009e-009     -5.802e-009     1.3336e-009    
  -0.15           1.872e-009      1.2776e-008     1.5057e-009    
  -0.2            2.0677e-009     9.686e-009      9.87e-011      
  -0.25           2.1749e-009     1.0086e-008     2.776e-010     
  -0.3            2.2615e-009     1.0402e-008     4.698e-010     
  -0.35           2.3247e-009     1.0387e-008     6.507e-010     
  -0.4            2.3503e-009     1.0055e-008     8.121e-010     
  -0.45           2.338e-009      9.789e-009      9.623e-010     
  -0.5            1.7514e-009     1.224e-008      -1.5463e-009   
  -0.55           -1.4419e-009    7.549e-009      -1.7579e-009   
  -0.6            -1.593e-009     -1.7778e-008    2.0082e-009    
  -0.65           1.8925e-009     -8.378e-009     1.5024e-009    
  -0.7            2.0678e-009     9.624e-009      9.75e-011      
  -0.75           2.1716e-009     1.0125e-008     2.782e-010     
  -0.8            2.2593e-009     1.0401e-008     4.662e-010     
  -0.85           2.3258e-009     1.0423e-008     6.467e-010     
  -0.9            2.3503e-009     1.0095e-008     8.131e-010     
  -0.95           2.3406e-009     9.794e-009      9.619e-010     
  -1              2.2771e-009     1.0773e-008     1.1095e-009    
  -1.05           2.1498e-009     1.1993e-008     1.267e-009     
  -1.1            1.9414e-009     1.0005e-008     -1.307e-010    
  -1.15           2.0265e-009     9.585e-009      2.93e-011      
  -1.2            2.1317e-009     9.847e-009      2.068e-010     
  -1.25           2.2264e-009     1.0509e-008     3.935e-010     
  -1.3            2.3038e-009     1.0818e-008     5.709e-010     
  -1.35           2.3446e-009     1.0595e-008     7.46e-010      
  -1.4            2.347e-009      1.0142e-008     9.025e-010     
  -1.45           2.3101e-009     9.919e-009      1.0464e-009    
  -1.5            2.2118e-009     1.1416e-008     1.1946e-009    
  -1.55           1.9045e-009     1.0257e-008     -1.909e-010    
  -1.6            8.686e-010      2.3908e-008     -1.5993e-009   
  -1.65           -1.4972e-009    6.948e-009      -1.7181e-009   
  -1.7            -2.1646e-009    -1.0531e-008    -3.499e-010    
  -1.75           -1.3646e-009    -2.6215e-008    1.2223e-009    
  -1.8            3.42e-011       -1.0609e-008    2.8528e-009    
END_DB

BEGIN_DB
 ICCAP_VAR VG         -0.36          
 ICCAP_VAR VS         0              
 ICCAP_VAR VB         0              

 #VD              ID              IB              IG             
  0               -2.2272e-009    1.0064e-008     -1.648e-010    
  -0.05           1.145e-009      1.2469e-008     1.5119e-009    
  -0.1            -2.2366e-008    -2.236e-008     2.6458e-009    
  -0.15           -2.7288e-008    -1.3395e-008    2.0544e-009    
  -0.2            -3.7827e-008    -2.7038e-008    2.4317e-009    
  -0.25           -2.9855e-008    -1.152e-008     1.7722e-009    
  -0.3            -2.71e-008      -1.8489e-008    1.9415e-009    
  -0.35           -2.76e-008      -1.7564e-008    2.1237e-009    
  -0.4            -3.812e-008     -2.7104e-008    2.4801e-009    
  -0.45           -2.7751e-008    -1.177e-008     1.8224e-009    
  -0.5            -2.9487e-008    -1.8295e-008    1.9958e-009    
  -0.55           -1.454e-008     -2.7003e-008    2.8374e-009    
  -0.6            -2.7896e-008    -1.9361e-008    2.5226e-009    
  -0.65           -3.344e-008     -2.4841e-008    1.2841e-009    
  -0.7            -2.8454e-008    -1.0641e-008    2.2688e-009    
  -0.75           -3.7101e-008    -2.6675e-008    1.217e-009     
  -0.8            -3.3327e-008    -2.5483e-008    1.2527e-009    
  -0.85           -2.8269e-008    -1.4248e-008    2.145e-009     
  -0.9            -3.9622e-008    -2.7139e-008    2.5045e-009    
  -0.95           -3.4548e-008    -2.4835e-008    1.2776e-009    
  -1              -2.9071e-008    -1.0686e-008    2.2423e-009    
  -1.05           -3.7699e-008    -2.6636e-008    1.2143e-009    
  -1.1            -3.5658e-008    -2.5684e-008    1.2479e-009    
  -1.15           -2.7883e-008    -1.4051e-008    2.13e-009      
  -1.2            -3.7748e-008    -2.7177e-008    2.4907e-009    
  -1.25           -2.9862e-008    -1.1799e-008    1.8336e-009    
  -1.3            -3.3529e-008    -1.0169e-008    1.3335e-009    
  -1.35           -4.1574e-008    -1.0669e-008    2.3884e-009    
  -1.4            -3.6243e-008    -2.5845e-008    1.243e-009     
  -1.45           -2.8174e-008    -1.3785e-008    2.1074e-009    
  -1.5            -2.9143e-008    -1.6706e-008    2.2721e-009    
  -1.55           -3.1569e-008    -1.1052e-008    1.6089e-009    
  -1.6            -3.0897e-008    -1.9318e-008    1.7678e-009    
  -1.65           -3.0744e-008    -1.8764e-008    1.928e-009     
  -1.7            -3.365e-008     -1.0397e-008    1.3857e-009    
  -1.75           -3.7873e-008    -1.0586e-008    2.4824e-009    
  -1.8            -3.0985e-008    -1.1813e-008    1.8234e-009    
END_DB

BEGIN_DB
 ICCAP_VAR VG         -0.72          
 ICCAP_VAR VS         0              
 ICCAP_VAR VB         0              

 #VD              ID              IB              IG             
  0               -5.457e-009     -1.5426e-008    -4.715e-010    
  -0.05           -2.7439e-007    8.412e-009      -2.282e-010    
  -0.1            -7.0958e-007    1.2257e-008     -2.0778e-009   
  -0.15           -6.0125e-008    1.5979e-008     2.8523e-009    
  -0.2            -3.4263e-007    2.5321e-008     -2.6995e-009   
  -0.25           -1.0874e-006    -1.8684e-008    1.9429e-009    
  -0.3            -5.47e-008      -1.02e-008      2.8595e-009    
  -0.35           -6.16e-008      -1.8055e-008    2.6682e-009    
  -0.4            -5.06e-008      -1.0713e-008    2.8507e-009    
  -0.45           -6.2e-008       -1.5902e-008    2.6401e-009    
  -0.5            -5.39e-008      -1.0881e-008    2.8536e-009    
  -0.55           -6.5e-008       -1.6809e-008    2.6166e-009    
  -0.6            -5.84e-008      -1.0696e-008    2.8531e-009    
  -0.65           -6.48e-008      -1.7475e-008    2.5956e-009    
  -0.7            -1.3906e-006    -2.705e-008     2.5283e-009    
  -0.75           -1.431e-006     -2.718e-008     2.497e-009     
  -0.8            -1.4683e-006    -2.716e-008     2.4684e-009    
  -0.85           -1.4278e-006    -2.7003e-008    2.4307e-009    
  -0.9            -1.4732e-006    -2.6941e-008    2.401e-009     
  -0.95           -1.335e-006     -1.7339e-008    2.1574e-009    
  -1              -1.324e-006     -1.8788e-008    1.9008e-009    
  -1.05           -7.02e-008      -2.2124e-008    2.5621e-009    
  -1.1            -1.4779e-006    -2.6673e-008    2.5782e-009    
  -1.15           -1.426e-006     -2.6852e-008    2.5505e-009    
  -1.2            -1.511e-006     -2.7076e-008    2.5249e-009    
  -1.25           -1.5517e-006    -2.7084e-008    2.4883e-009    
  -1.3            -1.5386e-006    -2.7092e-008    2.4606e-009    
  -1.35           -1.3777e-006    -1.6986e-008    2.2246e-009    
  -1.4            -1.3433e-006    -1.8393e-008    1.9746e-009    
  -1.45           -1.3389e-006    -1.9268e-008    1.7235e-009    
  -1.5            -6.58e-008      -1.9047e-008    2.6399e-009    
  -1.55           -5.7e-008       -1.078e-008     2.8552e-009    
  -1.6            -6.65e-008      -1.6879e-008    2.6136e-009    
  -1.65           -1.4644e-006    -2.7131e-008    2.4881e-009    
  -1.7            -1.4631e-006    -2.7191e-008    2.459e-009     
  -1.75           -1.4812e-006    -2.7011e-008    2.4237e-009    
  -1.8            -6e-008         -1.0478e-008    2.8215e-009    
END_DB

BEGIN_DB
 ICCAP_VAR VG         -1.08          
 ICCAP_VAR VS         0              
 ICCAP_VAR VB         0              

 #VD              ID              IB              IG             
  0               -2.991e-008     1.8533e-008     -8.419e-010    
  -0.05           -1.2007e-006    8.447e-009      1.9104e-009    
  -0.1            -3.0356e-006    -1.5121e-008    1.4579e-009    
  -0.15           -4.2287e-006    -1.4748e-008    1.437e-009     
  -0.2            -5.3186e-006    -1.4348e-008    1.408e-009     
  -0.25           -6.1983e-006    -1.3998e-008    2.549e-010     
  -0.3            -4.1794e-006    8.681e-009      -1.2957e-009   
  -0.35           -6.1296e-006    9.616e-009      3.436e-010     
  -0.4            -6.8611e-006    -1.6977e-008    2.2601e-009    
  -0.45           -6.5935e-006    -1.0346e-008    -2.741e-010    
  -0.5            -6.9764e-006    1.0739e-008     -2.2084e-009   
  -0.55           -4.645e-006     1.2703e-008     1.7316e-009    
  -0.6            -8.6666e-006    -1.9303e-008    1.7051e-009    
  -0.65           -5.2741e-006    -1.0655e-008    -6.554e-010    
  -0.7            -7.7711e-006    1.7193e-008     -1.7521e-009   
  -0.75           -4.1166e-006    1.2293e-008     2.0392e-009    
  -0.8            -9.6533e-006    -1.2805e-008    2.019e-010     
  -0.85           -5.6141e-006    8.677e-009      -1.2896e-009   
  -0.9            -4.8534e-006    1.1663e-008     1.4807e-009    
  -0.95           -7e-006         -1.2467e-008    2.7758e-009    
  -1              -9.8711e-006    -1.2136e-008    1.454e-010     
  -1.05           -6.0136e-006    8.177e-009      -2.6365e-009   
  -1.1            -4.7242e-006    1.0371e-008     1.3054e-009    
  -1.15           -8.6346e-006    -2.7031e-008    2.4394e-009    
  -1.2            -8.6542e-006    -2.6836e-008    2.4009e-009    
  -1.25           -3.3623e-006    2.3282e-008     2.7157e-009    
  -1.3            -8.8501e-006    -2.6164e-008    2.2436e-009    
  -1.35           -3.7139e-006    9.705e-009      -2.5057e-009   
  -1.4            -6.2236e-006    1.0015e-008     -1.9409e-009   
  -1.45           -3.5689e-006    -1.0736e-008    2.3934e-009    
  -1.5            -8.4702e-006    -2.3683e-008    1.3326e-009    
  -1.55           -3.5074e-006    1.0252e-008     -2.6539e-009   
  -1.6            -4.7729e-006    1.0398e-008     -1.7391e-009   
  -1.65           -4.9808e-006    -1.2958e-008    1.7036e-009    
  -1.7            -9.4544e-006    -1.9814e-008    1.7495e-009    
  -1.75           -3.5275e-006    1.0277e-008     -2.6598e-009   
  -1.8            -4.7628e-006    1.0656e-008     -1.7084e-009   
END_DB

BEGIN_DB
 ICCAP_VAR VG         -1.44          
 ICCAP_VAR VS         0              
 ICCAP_VAR VB         0              

 #VD              ID              IB              IG             
  0               -3.445e-008     -7.697e-009     -1.5197e-009   
  -0.05           -3.0881e-006    -1.0629e-008    -1.2923e-009   
  -0.1            -6.4102e-006    1.0662e-008     1.4917e-009    
  -0.15           -8.6605e-006    -1.288e-008     2.7668e-009    
  -0.2            -1.2512e-005    1.2269e-008     6.303e-010     
  -0.25           -1.1646e-005    8.591e-009      -1.315e-009    
  -0.3            -1.5169e-005    1.0387e-008     5.971e-010     
  -0.35           -1.6641e-005    -2.3624e-008    1.3624e-009    
  -0.4            -1.7929e-005    -1.8001e-008    2.0205e-009    
  -0.45           -2.1012e-005    -1.448e-008     1.4286e-009    
  -0.5            -2.0689e-005    -2.6791e-008    2.3553e-009    
  -0.55           -2.2301e-005    -1.8849e-008    1.6777e-009    
  -0.6            -2.0421e-005    -1.0579e-008    -1.0073e-009   
  -0.65           -2.2714e-005    2.7662e-008     -1.3247e-009   
  -0.7            -2.0793e-005    1.1199e-008     1.58e-009      
  -0.75           -2.6101e-005    -1.4352e-008    1.4193e-009    
  -0.8            -2.3663e-005    -1.739e-008     2.1336e-009    
  -0.85           -2.1314e-005    -1.0909e-008    -7.855e-010    
  -0.9            -2.4761e-005    2.5905e-008     -1.374e-009    
  -0.95           -2.1102e-005    9.834e-009      1.3071e-009    
  -1              -2.5976e-005    -2.0446e-008    1.78e-009      
  -1.05           -2.1921e-005    -1.0799e-008    -9.53e-010     
  -1.1            -2.5537e-005    2.7816e-008     -1.3341e-009   
  -1.15           -2.1935e-005    1.0697e-008     1.509e-009     
  -1.2            -2.8115e-005    -1.5448e-008    1.4879e-009    
  -1.25           -2.6333e-005    -2.7114e-008    2.444e-009     
  -1.3            -2.7559e-005    -2.0531e-008    1.7673e-009    
  -1.35           -2.2329e-005    -1.08e-008      -9.593e-010    
  -1.4            -2.6148e-005    2.7769e-008     -1.3338e-009   
  -1.45           -2.2239e-005    1.077e-008      1.518e-009     
  -1.5            -2.8567e-005    -1.5327e-008    1.4783e-009    
  -1.55           -2.6758e-005    -2.7172e-008    2.442e-009     
  -1.6            -2.7971e-005    -2.0465e-008    1.7625e-009    
  -1.65           -2.9468e-005    -1.2311e-008    1.666e-010     
  -1.7            -2.4784e-005    9.627e-009      -2.3191e-009   
  -1.75           -2.1299e-005    1.2891e-008     2.0047e-009    
  -1.8            -2.6088e-005    -2.1124e-008    1.4717e-009    
END_DB

BEGIN_DB
 ICCAP_VAR VG         -1.8           
 ICCAP_VAR VS         0              
 ICCAP_VAR VB         0              

 #VD              ID              IB              IG             
  0               -6.6242e-008    1.2631e-008     -4.498e-010    
  -0.05           -5.2033e-006    -1.9441e-008    -2.5318e-009   
  -0.1            -1.05495e-005   1.0098e-008     5.493e-010     
  -0.15           -1.5367e-005    -1.6749e-008    5.089e-010     
  -0.2            -1.9017e-005    -2.194e-008     1.44e-009      
  -0.25           -2.2868e-005    -1.7271e-008    2.1685e-009    
  -0.3            -2.6887e-005    -1.0728e-008    -7.732e-010    
  -0.35           -2.9685e-005    2.5667e-008     -1.3824e-009   
  -0.4            -3.34e-005      1.0331e-008     1.2997e-009    
  -0.45           -3.6704e-005    -2.0946e-008    1.8049e-009    
  -0.5            -3.8038e-005    -2.5445e-008    1.2528e-009    
  -0.55           -4.1555e-005    -1.0183e-008    -3.2e-010      
  -0.6            -4.1346e-005    1.9076e-008     -1.6374e-009   
  -0.65           -4.2874e-005    1.0199e-008     9.533e-010     
  -0.7            -4.5534e-005    -2.7247e-008    2.4519e-009    
  -0.75           -4.6565e-005    -1.033e-008     -5.7e-010      
  -0.8            -4.7374e-005    2.294e-008      -1.4581e-009   
  -0.85           -4.7302e-005    9.797e-009      1.1295e-009    
  -0.9            -4.7821e-005    -1.2715e-008    2.7656e-009    
  -0.95           -4.9763e-005    -1.7632e-008    2.0618e-009    
  -1              -4.9946e-005    -1.0597e-008    -8.205e-010    
  -1.05           -5.1929e-005    2.6465e-008     -1.3643e-009   
  -1.1            -5.0507e-005    1.0005e-008     1.3565e-009    
  -1.15           -5.5003e-005    -1.9462e-008    1.71e-009      
  -1.2            -5.2131e-005    -1.0716e-008    -9.934e-010    
  -1.25           -5.4379e-005    2.7675e-008     -1.3266e-009   
  -1.3            -5.2151e-005    1.1015e-008     1.5599e-009    
  -1.35           -5.833e-005     -1.4582e-008    1.4378e-009    
  -1.4            -5.5535e-005    -2.6813e-008    2.3658e-009    
  -1.45           -5.7263e-005    -1.9232e-008    1.6939e-009    
  -1.5            -5.2682e-005    -1.0739e-008    -1.0036e-009   
  -1.55           -5.6162e-005    2.7534e-008     -1.3223e-009   
  -1.6            -5.2989e-005    1.1089e-008     1.5784e-009    
  -1.65           -5.9639e-005    -1.4487e-008    1.4187e-009    
  -1.7            -5.4973e-005    -1.7369e-008    2.1406e-009    
  -1.75           -5.9588e-005    -1.6017e-008    1.4951e-009    
  -1.8            -5.6225e-005    -2.7098e-008    2.4514e-009    
END_DB

BEGIN_DB
 ICCAP_VAR VG         0              
 ICCAP_VAR VS         0              
 ICCAP_VAR VB         0.9            

 #VD              ID              IB              IG             
  0               3.498e-010      1.022e-008      1.52e-010      
  -0.05           -4.717e-010     -1.7063e-008    2.5753e-009    
  -0.1            2.254e-009      -3.444e-009     1.1632e-009    
  -0.15           2.0932e-009     1.1225e-008     1.3321e-009    
  -0.2            1.8755e-009     1.2714e-008     1.5018e-009    
  -0.25           1.9368e-009     1.2995e-008     -1.207e-010    
  -0.3            2.0324e-009     9.644e-009      4.28e-011      
  -0.35           2.1406e-009     9.937e-009      2.328e-010     
  -0.4            2.2395e-009     1.0519e-008     4.303e-010     
  -0.45           2.3134e-009     1.0718e-008     6.176e-010     
  -0.5            2.3506e-009     1.0352e-008     7.94e-010      
  -0.55           2.3417e-009     9.838e-009      9.506e-010     
  -0.6            2.2835e-009     1.0038e-008     1.1046e-009    
  -0.65           2.162e-009      1.077e-008      1.2623e-009    
  -0.7            1.9451e-009     9.92e-009       -1.142e-010    
  -0.75           2.0368e-009     9.555e-009      5.76e-011      
  -0.8            2.1445e-009     9.958e-009      2.341e-010     
  -0.85           2.2396e-009     1.0388e-008     4.273e-010     
  -0.9            2.3149e-009     1.0338e-008     6.199e-010     
  -0.95           2.3469e-009     1.0127e-008     7.959e-010     
  -1              2.3406e-009     9.821e-009      9.569e-010     
  -1.05           2.2788e-009     1.0729e-008     1.1082e-009    
  -1.1            2.1544e-009     1.2048e-008     1.2713e-009    
  -1.15           1.9452e-009     9.93e-009       -1.14e-010     
  -1.2            2.0373e-009     9.642e-009      5.17e-011      
  -1.25           2.1488e-009     9.936e-009      2.453e-010     
  -1.3            2.2444e-009     1.0473e-008     4.314e-010     
  -1.35           2.3183e-009     1.0696e-008     6.236e-010     
  -1.4            2.3493e-009     1.0436e-008     7.996e-010     
  -1.45           2.3416e-009     9.74e-009       9.582e-010     
  -1.5            2.2778e-009     1.0769e-008     1.1111e-009    
  -1.55           2.1478e-009     1.1931e-008     1.2711e-009    
  -1.6            1.948e-009      9.954e-009      -1.106e-010    
  -1.65           2.0368e-009     9.666e-009      5.87e-011      
  -1.7            2.1476e-009     9.975e-009      2.491e-010     
  -1.75           2.2458e-009     1.0348e-008     4.379e-010     
  -1.8            2.3193e-009     1.0321e-008     6.256e-010     
END_DB

BEGIN_DB
 ICCAP_VAR VG         -0.36          
 ICCAP_VAR VS         0              
 ICCAP_VAR VB         0.9            

 #VD              ID              IB              IG             
  0               4.583e-010      -1.0222e-008    3.605e-010     
  -0.05           -5.862e-010     -1.5467e-008    2.8009e-009    
  -0.1            2.2418e-009     1.101e-008      1.1418e-009    
  -0.15           4.885e-010      1.213e-008      -1.5895e-009   
  -0.2            -1.494e-009     7.351e-009      -1.7498e-009   
  -0.25           -2.1905e-009    -1.0672e-008    -3.901e-010    
  -0.3            -9.918e-010     -1.7251e-008    2.5333e-009    
  -0.35           2.2172e-009     -3.672e-009     1.1938e-009    
  -0.4            1.5279e-009     1.0129e-008     -1.983e-010    
  -0.45           1.7283e-009     9.678e-009      -2.97e-011     
  -0.5            2.0209e-009     9.625e-009      1.452e-010     
  -0.55           2.1831e-009     1.0237e-008     3.342e-010     
