! VERSION = 6.00
BEGIN_HEADER
 ICCAP_INPUTS
  VG         V  B GROUND SMU4 0.001 LIN        2    0          -1.8       6    -0.36     
  VS         V  E GROUND SMU2 0.1 CON        0
  VD         V  S GROUND SMU1 0.1 LIN        1    0          -1.8       37   -0.05     
  VB         V  C GROUND SMU3 0.1 LIN        3    0          0.9        2    0.9       
 ICCAP_OUTPUTS
  ID         I  S GROUND SMU1 B
  IB         I  C GROUND SMU3 B
  IG         I  B GROUND SMU4 B
END_HEADER

BEGIN_DB
 ICCAP_VAR VG         0              
 ICCAP_VAR VS         0              
 ICCAP_VAR VB         0              

 #VD              ID              IB              IG             
  0               3.473e-010      1.0455e-008     1.084e-010     
  -0.05           -4.916e-010     -1.7774e-008    2.5284e-009    
  -0.1            2.2235e-009     -3.365e-009     1.2037e-009    
  -0.15           1.9641e-009     1.0051e-008     -2.093e-010    
  -0.2            2.0515e-009     9.508e-009      -3.67e-011     
  -0.25           2.1559e-009     9.505e-009      1.517e-010     
  -0.3            2.2632e-009     1.0113e-008     3.43e-010      
  -0.35           2.3378e-009     1.0385e-008     5.421e-010     
  -0.4            2.3739e-009     1.0423e-008     7.27e-010      
  -0.45           2.3583e-009     1.031e-008      9.105e-010     
  -0.5            2.3077e-009     1.0507e-008     1.0707e-009    
  -0.55           2.1856e-009     1.1614e-008     1.2404e-009    
  -0.6            1.9808e-009     9.893e-009      -1.72e-010     
  -0.65           2.0712e-009     9.533e-009      1.1e-011       
  -0.7            2.1795e-009     9.52e-009       1.944e-010     
  -0.75           2.2785e-009     1.0224e-008     3.945e-010     
  -0.8            2.3475e-009     1.0511e-008     5.881e-010     
  -0.85           2.3684e-009     1.0435e-008     7.687e-010     
  -0.9            2.3507e-009     1.0308e-008     9.445e-010     
  -0.95           2.2815e-009     1.0718e-008     1.1107e-009    
  -1              2.1484e-009     1.179e-008      1.2799e-009    
  -1.05           1.997e-009      9.741e-009      -1.401e-010    
  -1.1            2.0857e-009     9.477e-009      3.86e-011      
  -1.15           2.2034e-009     9.682e-009      2.315e-010     
  -1.2            2.2932e-009     1.0427e-008     4.283e-010     
  -1.25           2.3519e-009     1.0511e-008     6.283e-010     
  -1.3            2.3663e-009     1.0404e-008     8.099e-010     
  -1.35           2.3362e-009     1.02e-008       9.768e-010     
  -1.4            2.2542e-009     1.1121e-008     1.1429e-009    
  -1.45           2.1017e-009     1.1996e-008     1.3167e-009    
  -1.5            2.011e-009      9.689e-009      -1.016e-010    
  -1.55           2.1029e-009     9.453e-009      7.9e-011       
  -1.6            2.216e-009      9.78e-009       2.706e-010     
  -1.65           2.3024e-009     1.0367e-008     4.706e-010     
  -1.7            2.3547e-009     1.0608e-008     6.693e-010     
  -1.75           2.3559e-009     1.031e-008      8.455e-010     
  -1.8            2.3206e-009     1.0175e-008     1.0126e-009    
END_DB

BEGIN_DB
 ICCAP_VAR VG         -0.36          
 ICCAP_VAR VS         0              
 ICCAP_VAR VB         0              

 #VD              ID              IB              IG             
  0               9.683e-010      8.241e-009      1.1134e-009    
  -0.05           -2.0626e-009    9.513e-009      -1.6526e-009   
  -0.1            -4.383e-009     6.29e-009       -1.4775e-009   
  -0.15           -4.9615e-009    8.18e-009       -1.3915e-009   
  -0.2            -5.5169e-009    8.572e-009      -1.3491e-009   
  -0.25           -6.067e-009     8.767e-009      -1.3233e-009   
  -0.3            -6.6462e-009    7.917e-009      -1.3028e-009   
  -0.35           -7.2676e-009    9.076e-009      -2.6231e-009   
  -0.4            -9.0545e-009    6.07e-010       -2.45e-009     
  -0.45           -1.12672e-008   -1.0557e-008    -4.101e-010    
  -0.5            -1.0312e-008    1.1418e-008     1.6996e-009    
  -0.55           -1.2907e-008    -1.0214e-008    -3.578e-010    
  -0.6            -1.2556e-008    8.586e-009      -2.4206e-009   
  -0.65           -9.777e-009     1.0702e-008     1.3353e-009    
  -0.7            -1.4755e-008    -2.5797e-008    1.2614e-009    
  -0.75           -1.6703e-008    -1.4059e-008    1.4008e-009    
  -0.8            -1.8594e-008    -1.0359e-008    -6.257e-010    
  -0.85           -1.7901e-008    1.2756e-008     -2.0908e-009   
  -0.9            -1.5914e-008    1.1993e-008     1.5788e-009    
  -0.95           -2.1379e-008    -2.7206e-008    2.4117e-009    
  -1              -2.2469e-008    -2.5969e-008    1.254e-009     
  -1.05           -2.4724e-008    -1.3679e-008    2.383e-010     
  -1.1            -2.5223e-008    8.285e-009      -1.3288e-009   
  -1.15           -2.3446e-008    1.0382e-008     9.697e-010     
  -1.2            -2.8328e-008    -2.0527e-008    1.604e-009     
  -1.25           -3.1295e-008    -1.0043e-008    -4.348e-010    
  -1.3            -3.1306e-008    9.728e-009      -2.3328e-009   
  -1.35           -2.9906e-008    1.1161e-008     1.4065e-009    
  -1.4            -3.5618e-008    -2.6549e-008    1.2392e-009    
  -1.45           -3.818e-008     -1.303e-008     2.052e-010     
  -1.5            -3.8727e-008    8.537e-009      -1.3236e-009   
  -1.55           -3.7675e-008    1.0335e-008     1.0117e-009    
  -1.6            -4.3199e-008    -2.0754e-008    1.5381e-009    
  -1.65           -4.649e-008     -1.0065e-008    -4.941e-010    
  -1.7            -4.6652e-008    1.0753e-008     -2.2744e-009   
  -1.75           -4.6263e-008    1.1403e-008     1.4498e-009    
  -1.8            -5.2453e-008    -2.698e-008     1.2237e-009    
END_DB

BEGIN_DB
 ICCAP_VAR VG         -0.72          
 ICCAP_VAR VS         0              
 ICCAP_VAR VB         0              

 #VD              ID              IB              IG             
  0               -4.8796e-010    -2.041e-008     -8.69e-010     
  -0.05           -5.0916e-007    -1.21e-008      2.3817e-009    
  -0.1            -8.4663e-007    -1.0164e-008    -2.695e-010    
  -0.15           -1.06452e-006   1.3782e-008     -2.0015e-009   
  -0.2            -1.229e-006     -1.1073e-008    -1.6643e-009   
  -0.25           -1.3676e-006    1.2039e-008     2.12e-009      
  -0.3            -1.4866e-006    -1.2124e-008    1.53e-010      
  -0.35           -1.5585e-006    8.427e-009      -1.296e-009    
  -0.4            -1.6699e-006    1.1977e-008     1.5514e-009    
  -0.45           -1.7474e-006    -1.3298e-008    2.7431e-009    
  -0.5            -1.8226e-006    -2.5653e-008    1.265e-009     
  -0.55           -1.8941e-006    -2.7196e-008    1.2175e-009    
  -0.6            -1.9658e-006    -1.076e-008     -6.45e-011     
  -0.65           -2.0082e-006    8.235e-009      -2.4501e-009   
  -0.7            -2.1079e-006    1.1877e-008     1.5655e-009    
  -0.75           -2.171e-006     -1.3591e-008    2.7272e-009    
  -0.8            -2.238e-006     -1.1457e-008    7.54e-011      
  -0.85           -2.2726e-006    7.918e-009      -2.603e-009    
  -0.9            -2.3703e-006    1.1082e-008     1.4036e-009    
  -0.95           -2.4269e-006    -2.6548e-008    2.3067e-009    
  -1              -2.4931e-006    -1.8346e-008    2.0428e-009    
  -1.05           -2.5581e-006    -1.9697e-008    1.7824e-009    
  -1.1            -2.6193e-006    -2.01e-008      1.7318e-009    
  -1.15           -2.6843e-006    -1.9209e-008    1.6904e-009    
  -1.2            -2.7483e-006    -1.8649e-008    1.6451e-009    
  -1.25           -2.8133e-006    -1.7897e-008    1.6087e-009    
  -1.3            -2.8776e-006    -1.729e-008     1.5711e-009    
  -1.35           -2.9431e-006    -1.658e-008     1.5402e-009    
  -1.4            -3.0104e-006    -1.5881e-008    1.4999e-009    
  -1.45           -3.0714e-006    -1.5208e-008    1.4661e-009    
  -1.5            -3.1138e-006    -1.0753e-008    -8.217e-010    
  -1.55           -3.1657e-006    2.128e-008      -1.5399e-009   
  -1.6            -3.2406e-006    1.0271e-008     6.752e-010     
  -1.65           -3.3272e-006    -2.0167e-008    1.6974e-009    
  -1.7            -3.3741e-006    -1.0289e-008    -6.424e-010    
  -1.75           -3.4207e-006    1.8298e-008     -1.7153e-009   
  -1.8            -3.5103e-006    1.203e-008      2.094e-009     
END_DB

BEGIN_DB
 ICCAP_VAR VG         -1.08          
 ICCAP_VAR VS         0              
 ICCAP_VAR VB         0              

 #VD              ID              IB              IG             
  0               -9.381e-010     1.0858e-008     1.0107e-009    
  -0.05           -2.4169e-006    -7.768e-009     -1.2079e-009   
  -0.1            -4.4877e-006    2.7331e-008     -1.3465e-009   
  -0.15           -6.2666e-006    1.044e-008      1.0855e-009    
  -0.2            -7.7437e-006    -2.5527e-008    1.2661e-009    
  -0.25           -8.9721e-006    -1.1393e-008    7.13e-011      
  -0.3            -9.9259e-006    7.808e-009      -2.5943e-009   
  -0.35           -1.08336e-005   1.1235e-008     1.4058e-009    
  -0.4            -1.1531e-005    -2.6653e-008    1.3612e-009    
  -0.45           -1.2123e-005    -1.5874e-008    2.5454e-009    
  -0.5            -1.2619e-005    -9.981e-009     -4.746e-010    
  -0.55           -1.3034e-005    2.212e-008      -1.4892e-009   
  -0.6            -1.3506e-005    1.0434e-008     1.0786e-009    
  -0.65           -1.3898e-005    -1.149e-008     2.8152e-009    
  -0.7            -1.4229e-005    -2.7053e-008    2.3886e-009    
  -0.75           -1.4525e-005    -1.0182e-008    -5.944e-010    
  -0.8            -1.4784e-005    2.4054e-008     -1.4256e-009   
  -0.85           -1.5155e-005    1.0275e-008     1.1784e-009    
  -0.9            -1.5436e-005    -1.3214e-008    2.7427e-009    
  -0.95           -1.5678e-005    -1.0084e-008    -2.656e-010    
  -1              -1.5868e-005    1.9114e-008     -1.667e-009    
  -1.05           -1.6173e-005    1.0611e-008     9.122e-010     
  -1.1            -1.6441e-005    -2.7179e-008    1.2139e-009    
  -1.15           -1.6649e-005    -1.0022e-008    -5.025e-010    
  -1.2            -1.683e-005     2.2512e-008     -1.4768e-009   
  -1.25           -1.7142e-005    1.0411e-008     1.0992e-009    
  -1.3            -1.7373e-005    -1.1893e-008    2.7995e-009    
  -1.35           -1.7578e-005    -1.042e-008     -1.637e-010    
  -1.4            -1.7714e-005    1.7448e-008     -1.7759e-009   
  -1.45           -1.798e-005     1.0379e-008     8.316e-010     
  -1.5            -1.8227e-005    -2.6688e-008    1.2312e-009    
  -1.55           -1.8407e-005    -1.0055e-008    -3.982e-010    
  -1.6            -1.8551e-005    2.1232e-008     -1.543e-009    
  -1.65           -1.883e-005     1.0502e-008     1.0187e-009    
  -1.7            -1.9038e-005    -2.675e-008     2.3385e-009    
  -1.75           -1.9202e-005    -1.0232e-008    -6.318e-010    
  -1.8            -1.9347e-005    2.4576e-008     -1.4103e-009   
END_DB

BEGIN_DB
 ICCAP_VAR VG         -1.44          
 ICCAP_VAR VS         0              
 ICCAP_VAR VB         0              

 #VD              ID              IB              IG             
  0               -1.2742e-009    1.0513e-008     -1.0166e-009   
  -0.05           -4.3249e-006    1.0369e-008     2.9004e-009    
  -0.1            -8.3645e-006    -2.0041e-008    1.7694e-009    
  -0.15           -1.2115e-005    -1.9195e-008    1.9494e-009    
  -0.2            -1.5584e-005    -1.0884e-008    -6e-012        
  -0.25           -1.8717e-005    1.378e-008      -2.0152e-009   
  -0.3            -2.1601e-005    1.0174e-008     6.636e-010     
  -0.35           -2.4208e-005    -2.485e-008     1.2968e-009    
  -0.4            -2.6501e-005    -1.0248e-008    -2.102e-010    
  -0.45           -2.8477e-005    1.8301e-008     -1.7265e-009   
  -0.5            -3.0314e-005    1.0682e-008     8.676e-010     
  -0.55           -3.1916e-005    -2.7091e-008    1.2222e-009    
  -0.6            -3.3277e-005    -9.892e-009     -4.402e-010    
  -0.65           -3.4438e-005    2.2112e-008     -1.5133e-009   
  -0.7            -3.5604e-005    1.0508e-008     1.054e-009     
  -0.75           -3.6566e-005    -2.6567e-008    2.2761e-009    
  -0.8            -3.7398e-005    -1.0305e-008    -6.756e-010    
  -0.85           -3.8121e-005    2.5164e-008     -1.3955e-009   
  -0.9            -3.897e-005     1.0334e-008     1.2394e-009    
  -0.95           -3.9619e-005    -1.4258e-008    2.6754e-009    
  -1              -4.0195e-005    -9.901e-009     -3.387e-010    
  -1.05           -4.0681e-005    2.0469e-008     -1.5871e-009   
  -1.1            -4.1305e-005    1.0584e-008     9.782e-010     
  -1.15           -4.1826e-005    -2.708e-008     2.4228e-009    
  -1.2            -4.2274e-005    -1.0085e-008    -5.716e-010    
  -1.25           -4.2662e-005    2.3847e-008     -1.4346e-009   
  -1.3            -4.3241e-005    1.0458e-008     1.16e-009      
  -1.35           -4.3674e-005    -1.2807e-008    2.7544e-009    
  -1.4            -4.4059e-005    -1.0094e-008    -2.411e-010    
  -1.45           -4.4362e-005    1.8865e-008     -1.6823e-009   
  -1.5            -4.4836e-005    1.0621e-008     8.972e-010     
  -1.55           -4.5256e-005    -2.7201e-008    1.2156e-009    
  -1.6            -4.562e-005     -1.909e-008     1.6768e-009    
  -1.65           -4.5898e-005    -1.1188e-008    -9.993e-010    
  -1.7            -4.6233e-005    8.822e-009      -1.3014e-009   
  -1.75           -4.6736e-005    1.2627e-008     1.8515e-009    
  -1.8            -4.7066e-005    -1.132e-008     7.48e-011      
END_DB

BEGIN_DB
 ICCAP_VAR VG         -1.8           
 ICCAP_VAR VS         0              
 ICCAP_VAR VB         0              

 #VD              ID              IB              IG             
  0               -7.334e-009     -2.74e-010      1.518e-010     
  -0.05           -5.719e-006     -1.5604e-008    -2.0414e-009   
  -0.1            -1.12114e-005   1.0347e-008     -8.36e-011     
  -0.15           -1.6479e-005    -9.932e-009     -1.249e-010    
  -0.2            -2.1535e-005    -1.7206e-008    2.3695e-009    
  -0.25           -2.6345e-005    -1.9427e-008    1.6978e-009    
  -0.3            -3.0874e-005    -1.1172e-008    -9.968e-010    
  -0.35           -3.5148e-005    8.795e-009      -1.3022e-009   
  -0.4            -3.9228e-005    1.2629e-008     1.8466e-009    
  -0.45           -4.2981e-005    -1.132e-008     7.93e-011      
  -0.5            -4.6382e-005    1.1721e-008     -2.1817e-009   
  -0.55           -4.9659e-005    1.2062e-008     2.1411e-009    
  -0.6            -5.2622e-005    -1.0259e-008    -1.961e-010    
  -0.65           -5.5236e-005    1.8065e-008     -1.7351e-009   
  -0.7            -5.7767e-005    1.0541e-008     8.581e-010     
  -0.75           -6.0041e-005    -2.6954e-008    1.224e-009     
  -0.8            -6.2038e-005    -1.0008e-008    -4.322e-010    
  -0.85           -6.3803e-005    2.186e-008      -1.5141e-009   
  -0.9            -6.5559e-005    1.0411e-008     1.0528e-009    
  -0.95           -6.7059e-005    -2.6434e-008    2.2825e-009    
  -1              -6.8388e-005    -1.0401e-008    -6.722e-010    
  -1.05           -6.9567e-005    2.4992e-008     -1.3979e-009   
  -1.1            -7.0851e-005    1.0294e-008     1.2439e-009    
  -1.15           -7.1889e-005    -1.4367e-008    2.6828e-009    
  -1.2            -7.2807e-005    -1.0081e-008    -3.437e-010    
  -1.25           -7.3604e-005    2.0441e-008     -1.5885e-009   
  -1.3            -7.4532e-005    1.0448e-008     9.754e-010     
  -1.35           -7.5331e-005    -2.7095e-008    2.4193e-009    
  -1.4            -7.6025e-005    -1.0108e-008    -5.752e-010    
  -1.45           -7.6632e-005    2.3632e-008     -1.4348e-009   
  -1.5            -7.7446e-005    1.0436e-008     1.1667e-009    
  -1.55           -7.8087e-005    -1.3077e-008    2.7525e-009    
  -1.6            -7.8653e-005    -1.0218e-008    -2.566e-010    
  -1.65           -7.9116e-005    1.8872e-008     -1.6816e-009   
  -1.7            -7.9773e-005    1.0827e-008     9.057e-010     
  -1.75           -8.0356e-005    -2.7122e-008    2.5278e-009    
  -1.8            -8.086e-005     -2.2295e-008    1.8756e-009    
END_DB

BEGIN_DB
 ICCAP_VAR VG         0              
 ICCAP_VAR VS         0              
 ICCAP_VAR VB         0.9            

 #VD              ID              IB              IG             
  0               -9.683e-010     -2.1471e-008    -1.0309e-009   
  -0.05           -1.5495e-009    6.467e-009      -1.709e-009    
  -0.1            -1.5678e-009    -1.9677e-008    2.1329e-009    
  -0.15           1.9631e-009     -7.069e-009     1.4505e-009    
  -0.2            2.0847e-009     9.564e-009      3.3e-011       
  -0.25           2.2009e-009     9.526e-009      2.191e-010     
  -0.3            2.2987e-009     1.0327e-008     4.217e-010     
  -0.35           2.3649e-009     1.0799e-008     6.16e-010      
  -0.4            2.3803e-009     1.0614e-008     7.984e-010     
  -0.45           2.3439e-009     1.0281e-008     9.659e-010     
  -0.5            2.256e-009      1.0121e-008     1.1298e-009    
  -0.55           2.1064e-009     1.0753e-008     1.3069e-009    
  -0.6            2.0173e-009     9.883e-009      -1.08e-010     
  -0.65           2.1089e-009     9.447e-009      7.35e-011      
  -0.7            2.2235e-009     9.599e-009      2.654e-010     
  -0.75           2.3135e-009     1.0474e-008     4.592e-010     
  -0.8            2.3756e-009     1.0767e-008     6.529e-010     
  -0.85           2.3762e-009     1.0705e-008     8.382e-010     
  -0.9            2.3303e-009     1.023e-008      1.0014e-009    
  -0.95           2.228e-009      1.1276e-008     1.1661e-009    
  -1              2.063e-009      1.2084e-008     1.3475e-009    
  -1.05           1.8398e-009     1.2432e-008     1.5331e-009    
  -1.1            2.1299e-009     9.371e-009      1.09e-010      
  -1.15           2.2451e-009     9.672e-009      3.012e-010     
  -1.2            2.3324e-009     1.0299e-008     5.035e-010     
  -1.25           2.3795e-009     1.0534e-008     6.955e-010     
  -1.3            2.3693e-009     1.042e-008      8.727e-010     
  -1.35           2.3149e-009     1.0054e-008     1.0387e-009    
  -1.4            2.1954e-009     1.04e-008       1.2073e-009    
  -1.45           1.97e-009       1.0258e-008     -1.989e-010    
  -1.5            2.0578e-009     9.654e-009      -2.53e-011     
  -1.55           2.1611e-009     9.446e-009      1.605e-010     
  -1.6            2.2724e-009     9.997e-009      3.513e-010     
  -1.65           2.3463e-009     1.0785e-008     5.586e-010     
  -1.7            2.3828e-009     1.041e-008      7.483e-010     
  -1.75           2.3579e-009     1.0356e-008     9.16e-010      
  -1.8            2.2836e-009     1.0549e-008     1.0865e-009    
END_DB

BEGIN_DB
 ICCAP_VAR VG         -0.36          
 ICCAP_VAR VS         0              
 ICCAP_VAR VB         0.9            

 #VD              ID              IB              IG             
  0               1.3753e-009     5.953e-009      1.2519e-009    
  -0.05           2.067e-009      1.1019e-008     1.339e-009     
  -0.1            2.014e-009      9.845e-009      -8.06e-011     
  -0.15           9.936e-010      2.6421e-008     -1.468e-009    
  -0.2            -1.3624e-009    8.48e-009       -1.8536e-009   
  -0.25           -1.6805e-009    -1.463e-008     1.7685e-009    
  -0.3            2.3489e-009     -9.165e-009     7.22e-010      
  -0.35           2.3312e-009     1.0413e-008     8.993e-010     
  -0.4            2.2641e-009     1.0477e-008     1.0664e-009    
  -0.45           2.1289e-009     1.174e-008      1.2314e-009    
  -0.5            1.9318e-009     1.008e-008      -1.72e-010     
  -0.55           2.0094e-009     9.621e-009      5.5e-012       
