! VERSION = 6.00
BEGIN_HEADER
 ICCAP_INPUTS
  VG         V  B GROUND SMU4 0.001 LIN        2    0          -1.8       6    -0.36     
  VS         V  E GROUND SMU3 0.1 CON        0
  VD         V  S GROUND SMU2 0.1 LIN        1    0          -1.8       37   -0.05     
  VB         V  C GROUND SMU1 0.1 LIN        3    0          0.9        2    0.9       
 ICCAP_OUTPUTS
  ID         I  S GROUND SMU2 B
  IB         I  C GROUND SMU1 B
  IG         I  B GROUND SMU4 B
END_HEADER

BEGIN_DB
 ICCAP_VAR VG         0              
 ICCAP_VAR VS         0              
 ICCAP_VAR VB         0              

 #VD              ID              IB              IG             
  0               4.1625e-009     2.4083e-008     2.9025e-009    
  -0.05           -8.603e-010     6.436e-009      -1.4836e-009   
  -0.1            -4.3779e-009    -1.1135e-008    -6.765e-010    
  -0.15           2.0475e-009     -3.705e-009     2.3753e-009    
  -0.2            1.4859e-009     2.017e-008      -1.7912e-009   
  -0.25           -3.0263e-009    -1.9117e-008    2.2122e-009    
  -0.3            2.6882e-009     2.4143e-008     -1.3929e-009   
  -0.35           -2.784e-009     -2.4613e-008    1.3147e-009    
  -0.4            2.541e-009      2.5453e-008     -1.3939e-009   
  -0.45           -2.6613e-009    -2.5107e-008    1.3162e-009    
  -0.5            9.101e-010      1.5102e-008     -2.3665e-009   
  -0.55           -2.5408e-009    -2.5153e-008    1.3241e-009    
  -0.6            4.495e-009      9.322e-009      8.883e-010     
  -0.65           -2.1982e-009    4.93e-009       -2.5338e-009   
  -0.7            -2.824e-010     -1.4593e-008    2.8902e-009    
  -0.75           4.3154e-009     9.223e-009      1.0889e-009    
  -0.8            -8.744e-010     6.694e-009      -1.466e-009    
  -0.85           -4.4306e-009    -1.114e-008     -7.222e-010    
  -0.9            1.9856e-009     -4.345e-009     2.4015e-009    
  -0.95           1.4635e-009     2.0603e-008     -1.7408e-009   
  -1              -4.4362e-009    -1.1727e-008    -4.099e-010    
  -1.05           -1.0589e-009    -1.8155e-008    2.6276e-009    
  -1.1            3.8444e-009     1.0061e-008     -1.377e-010    
  -1.15           -4.61e-011      9.496e-009      -1.3762e-009   
  -1.2            -3.0802e-009    -2.0681e-008    2.3002e-009    
  -1.25           2.4973e-009     2.5172e-008     -1.395e-009    
  -1.3            -2.8402e-009    -2.4979e-008    1.3162e-009    
  -1.35           2.3254e-009     2.5916e-008     -1.3949e-009   
  -1.4            -2.7383e-009    -2.518e-008     1.318e-009     
  -1.45           4.3266e-009     9.319e-009      9.245e-010     
  -1.5            -2.3521e-009    5.023e-009      -2.5733e-009   
  -1.55           -2.3368e-009    -2.33e-008      1.4413e-009    
  -1.6            4.3124e-009     1.0746e-008     6.701e-010     
  -1.65           1.0254e-009     1.8358e-008     -2.0195e-009   
  -1.7            -3.1286e-009    -2.3434e-008    1.3112e-009    
  -1.75           2.3552e-009     2.4749e-008     -1.3914e-009   
  -1.8            -3.0622e-009    -2.4837e-008    1.3155e-009    
END_DB

BEGIN_DB
 ICCAP_VAR VG         -0.36          
 ICCAP_VAR VS         0              
 ICCAP_VAR VB         0              

 #VD              ID              IB              IG             
  0               9.128e-010      -8.322e-009     2.589e-010     
  -0.05           -1.9883e-008    1.9996e-008     2.9053e-009    
  -0.1            -3.2241e-008    -1.7399e-008    1.6457e-009    
  -0.15           -4.0791e-008    -1.528e-008     1.5972e-009    
  -0.2            -4.6975e-008    -1.4496e-008    1.5544e-009    
  -0.25           -5.2931e-008    -1.3858e-008    1.5193e-009    
  -0.3            -5.9024e-008    -1.3171e-008    1.4837e-009    
  -0.35           -6.5094e-008    -1.2713e-008    3.11e-010      
  -0.4            -7.0414e-008    -2.5805e-008    1.3237e-009    
  -0.45           -7.5992e-008    -1.8599e-008    1.5165e-009    
  -0.5            -8.3914e-008    -1.3096e-008    1.48e-009      
  -0.55           -9.0347e-008    -1.2628e-008    3.122e-010     
  -0.6            -9.6086e-008    -2.5862e-008    1.3256e-009    
  -0.65           -1.02823e-007   -1.4705e-008    -2.4393e-009   
  -0.7            -1.0428e-007    -2.5902e-008    -2.6691e-009   
  -0.75           -1.179e-007     -2.3094e-008    2.0181e-009    
  -0.8            -1.2556e-007    -1.2184e-008    2.754e-010     
  -0.85           -1.3317e-007    -2.1115e-008    1.8892e-009    
  -0.9            -1.393e-007     -1.7539e-008    2.0561e-009    
  -0.95           -1.4955e-007    -1.2523e-008    3.043e-010     
  -1              -1.5798e-007    -2.1889e-008    1.9345e-009    
  -1.05           -1.6522e-007    -1.7534e-008    2.1011e-009    
  -1.1            -1.7682e-007    -1.3077e-008    1.484e-009     
  -1.15           -1.8461e-007    -1.8515e-008    1.5829e-009    
  -1.2            -1.9466e-007    -1.7678e-008    1.7136e-009    
  -1.25           -2.0515e-007    -1.761e-008     1.8525e-009    
  -1.3            -2.1584e-007    -1.7418e-008    2.0316e-009    
  -1.35           -2.2921e-007    -1.238e-008     2.828e-010     
  -1.4            -2.4105e-007    -2.0945e-008    1.894e-009     
  -1.45           -2.5185e-007    -1.7361e-008    2.073e-009     
  -1.5            -2.6666e-007    -1.2734e-008    3.069e-010     
  -1.55           -2.8002e-007    -2.1815e-008    1.9509e-009    
  -1.6            -2.9452e-007    -1.1568e-008    2.488e-010     
  -1.65           -3.0939e-007    -1.9713e-008    1.8292e-009    
  -1.7            -3.2298e-007    -1.7495e-008    1.9932e-009    
  -1.75           -3.4089e-007    -1.2024e-008    2.746e-010     
  -1.8            -3.5769e-007    -2.0517e-008    1.8715e-009    
END_DB

BEGIN_DB
 ICCAP_VAR VG         -0.72          
 ICCAP_VAR VS         0              
 ICCAP_VAR VB         0              

 #VD              ID              IB              IG             
  0               1.3022e-008     -2.069e-008     2.8011e-009    
  -0.05           -1.5468e-006    8.142e-009      1.8376e-009    
  -0.1            -2.5734e-006    -8.025e-009     1.3168e-009    
  -0.15           -3.2863e-006    -2.1261e-008    1.3633e-009    
  -0.2            -3.8059e-006    -1.8278e-008    1.5461e-009    
  -0.25           -4.22e-006      -1.8066e-008    1.8953e-009    
  -0.3            -4.5769e-006    -1.3178e-008    1.4698e-009    
  -0.35           -4.8905e-006    -1.7597e-008    1.7647e-009    
  -0.4            -5.1837e-006    -1.1692e-008    2.704e-010     
  -0.45           -5.4428e-006    -2.4777e-008    2.1124e-009    
  -0.5            -5.7088e-006    -1.585e-008     1.6055e-009    
  -0.55           -5.9611e-006    -1.8179e-008    1.9911e-009    
  -0.6            -6.2075e-006    -1.3948e-008    1.5259e-009    
  -0.65           -6.4465e-006    -1.7746e-008    1.8606e-009    
  -0.7            -6.6855e-006    -1.2505e-008    3.112e-010     
  -0.75           -6.9063e-006    -2.527e-008     2.1969e-009    
  -0.8            -7.1437e-006    -1.7307e-008    1.6737e-009    
  -0.85           -7.3773e-006    -1.7988e-008    2.0749e-009    
  -0.9            -7.6073e-006    -1.505e-008     1.5677e-009    
  -0.95           -7.8372e-006    -1.773e-008     1.9423e-009    
  -1              -8.0701e-006    -1.3497e-008    1.4914e-009    
  -1.05           -8.2976e-006    -1.7532e-008    1.8156e-009    
  -1.1            -8.5341e-006    -1.2308e-008    2.873e-010     
  -1.15           -8.7495e-006    -2.5182e-008    2.159e-009     
  -1.2            -8.9895e-006    -1.6366e-008    1.6446e-009    
  -1.25           -9.2275e-006    -1.7838e-008    2.0271e-009    
  -1.3            -9.4646e-006    -1.4686e-008    1.5547e-009    
  -1.35           -9.7041e-006    -1.7568e-008    1.9052e-009    
  -1.4            -9.9495e-006    -1.3279e-008    1.4826e-009    
  -1.45           -1.0187e-005    -1.7346e-008    1.7833e-009    
  -1.5            -1.04357e-005   -1.1962e-008    2.774e-010     
  -1.55           -1.06616e-005   -2.4427e-008    2.1251e-009    
  -1.6            -1.09203e-005   -1.5848e-008    1.6224e-009    
  -1.65           -1.1174e-005    -1.761e-008     1.9958e-009    
  -1.7            -1.1431e-005    -2.0798e-008    1.8801e-009    
  -1.75           -1.1564e-005    1.8293e-008     -1.5758e-009   
  -1.8            -1.1819e-005    2.1101e-008     -1.4587e-009   
END_DB

BEGIN_DB
 ICCAP_VAR VG         -1.08          
 ICCAP_VAR VS         0              
 ICCAP_VAR VB         0              

 #VD              ID              IB              IG             
  0               1.9361e-008     -1.4681e-008    -2.99e-010     
  -0.05           -8.0048e-006    -1.3369e-008    -2.2246e-009   
  -0.1            -1.4965e-005    -2.5786e-008    1.6119e-009    
  -0.15           -2.0795e-005    -8.016e-009     1.3167e-009    
  -0.2            -2.5618e-005    -1.1201e-008    -8.99e-010     
  -0.25           -2.9672e-005    -1.1479e-008    -8.18e-010     
  -0.3            -3.2988e-005    1.472e-009      -1.9424e-009   
  -0.35           -3.5792e-005    1.682e-008      -1.7175e-009   
  -0.4            -3.8194e-005    1.8949e-008     -1.5343e-009   
  -0.45           -4.0268e-005    2.1599e-008     -1.4388e-009   
  -0.5            -4.2101e-005    9.839e-009      -2.6079e-009   
  -0.55           -4.3753e-005    1.9433e-008     -1.7055e-009   
  -0.6            -4.5252e-005    1.9139e-008     -1.5279e-009   
  -0.65           -4.6613e-005    2.179e-008      -1.4336e-009   
  -0.7            -4.7894e-005    9.785e-009      -2.5991e-009   
  -0.75           -4.9098e-005    1.9147e-008     -1.6885e-009   
  -0.8            -5.0245e-005    1.9272e-008     -1.5193e-009   
  -0.85           -5.1328e-005    2.1846e-008     -1.4323e-009   
  -0.9            -5.2372e-005    9.836e-009      -2.5921e-009   
  -0.95           -5.339e-005     1.8753e-008     -1.6817e-009   
  -1              -5.4375e-005    1.9505e-008     -1.5137e-009   
  -1.05           -5.5321e-005    2.2077e-008     -1.4287e-009   
  -1.1            -5.6247e-005    9.918e-009      -2.5862e-009   
  -1.15           -5.7168e-005    1.8577e-008     -1.6703e-009   
  -1.2            -5.8071e-005    1.9626e-008     -1.5029e-009   
  -1.25           -5.8936e-005    2.2161e-008     -1.4256e-009   
  -1.3            -5.9809e-005    1.0002e-008     -2.5769e-009   
  -1.35           -6.0672e-005    1.8061e-008     -1.6575e-009   
  -1.4            -6.1524e-005    1.9668e-008     -1.4976e-009   
  -1.45           -6.2358e-005    2.2342e-008     -1.4225e-009   
  -1.5            -6.3187e-005    9.967e-009      -2.5653e-009   
  -1.55           -6.4021e-005    1.7809e-008     -1.6481e-009   
  -1.6            -6.4834e-005    1.9876e-008     -1.4949e-009   
  -1.65           -6.5629e-005    2.2528e-008     -1.4194e-009   
  -1.7            -6.6453e-005    1.0099e-008     -2.5612e-009   
  -1.75           -6.7268e-005    1.7512e-008     -1.6332e-009   
  -1.8            -6.8091e-005    2.0116e-008     -1.4878e-009   
END_DB

BEGIN_DB
 ICCAP_VAR VG         -1.44          
 ICCAP_VAR VS         0              
 ICCAP_VAR VB         0              

 #VD              ID              IB              IG             
  0               3.816e-008      1.9204e-008     9.911e-010     
  -0.05           -1.4885e-005    2.5626e-008     -1.7897e-009   
  -0.1            -2.8855e-005    8.202e-009      -1.3857e-009   
  -0.15           -4.1878e-005    1.074e-008      9.324e-010     
  -0.2            -5.3869e-005    -4.627e-009     1.7208e-009    
  -0.25           -6.4834e-005    -1.9108e-008    1.5121e-009    
  -0.3            -7.4742e-005    -2.1045e-008    1.382e-009     
  -0.35           -8.3675e-005    -2.3193e-008    1.3209e-009    
  -0.4            -9.1654e-005    -2.5083e-008    1.3166e-009    
  -0.45           -9.8657e-005    -1.1622e-008    -8.298e-010    
  -0.5            -0.00010498     -1.1877e-008    -7.456e-010    
  -0.55           -0.00011052     1.055e-009      -2.075e-009    
  -0.6            -0.00011579     2.6279e-008     1.4192e-009    
  -0.65           -0.00012014     -7.754e-009     1.3972e-009    
  -0.7            -0.00012421     -1.9138e-008    1.49e-009      
  -0.75           -0.00012785     -1.8243e-008    1.599e-009     
  -0.8            -0.00013116     -1.7952e-008    1.7422e-009    
  -0.85           -0.00013417     -1.8374e-008    1.9047e-009    
  -0.9            -0.00013696     -1.0841e-008    2.218e-010     
  -0.95           -0.0001395      -1.9802e-008    1.784e-009     
  -1              -0.00014201     -1.8389e-008    1.9529e-009    
  -1.05           -0.00014434     -1.1406e-008    2.421e-010     
  -1.1            -0.00014641     -2.0705e-008    1.826e-009     
  -1.15           -0.00014856     -1.827e-008     2.0122e-009    
  -1.2            -0.00015059     -1.2023e-008    2.615e-010     
  -1.25           -0.00015239     -2.1423e-008    1.8738e-009    
  -1.3            -0.00015427     -1.8419e-008    2.057e-009     
  -1.35           -0.00015609     -1.2389e-008    2.876e-010     
  -1.4            -0.00015774     -2.1944e-008    1.927e-009     
  -1.45           -0.00015947     -1.1107e-008    2.306e-010     
  -1.5            -0.00016105     -2.0067e-008    1.804e-009     
  -1.55           -0.00016279     -1.0044e-008    1.738e-010     
  -1.6            -0.00016425     -1.7937e-008    1.6898e-009    
  -1.65           -0.00016589     -9.64e-009      1.114e-010     
  -1.7            -0.00016737     -1.5987e-008    1.5886e-009    
  -1.75           -0.00016886     -1.7924e-008    1.7272e-009    
  -1.8            -0.00017037     -1.8243e-008    1.891e-009     
END_DB

BEGIN_DB
 ICCAP_VAR VG         -1.8           
 ICCAP_VAR VS         0              
 ICCAP_VAR VB         0              

 #VD              ID              IB              IG             
  0               4.2566e-008     -1.8636e-008    2.8566e-009    
  -0.05           -1.9901e-005    1.0416e-008     -2.2041e-009   
  -0.1            -3.916e-005     1.5506e-008     -1.9703e-009   
  -0.15           -5.7662e-005    1.7105e-008     -1.7348e-009   
  -0.2            -7.5375e-005    1.8967e-008     -1.5464e-009   
  -0.25           -9.2254e-005    2.1442e-008     -1.4399e-009   
  -0.3            -0.000108265    2.3647e-008     -1.3988e-009   
  -0.35           -0.00012341     1.1423e-008     2.8021e-009    
  -0.4            -0.00013776     -1.7959e-008    1.7914e-009    
  -0.45           -0.00015111     -1.8393e-008    1.9601e-009    
  -0.5            -0.00016354     -1.1375e-008    2.459e-010     
  -0.55           -0.00017509     -2.0922e-008    1.8461e-009    
  -0.6            -0.00018576     -1.8483e-008    2.0211e-009    
  -0.65           -0.00019555     -1.1888e-008    2.712e-010     
  -0.7            -0.00020452     -2.1818e-008    1.8978e-009    
  -0.75           -0.00021283     -1.8436e-008    2.0778e-009    
  -0.8            -0.00022033     -1.2628e-008    2.97e-010      
  -0.85           -0.00022722     -2.2679e-008    1.9519e-009    
  -0.9            -0.00023355     -1.8444e-008    2.1331e-009    
  -0.95           -0.00023936     -1.3234e-008    1.4675e-009    
  -1              -0.00024472     -1.8206e-008    1.5805e-009    
  -1.05           -0.00024966     -1.7737e-008    1.7179e-009    
  -1.1            -0.00025417     -1.812e-008     1.8876e-009    
  -1.15           -0.00025835     -1.8424e-008    2.0641e-009    
  -1.2            -0.00026229     -1.2296e-008    2.935e-010     
  -1.25           -0.00026592     -2.2515e-008    1.9424e-009    
  -1.3            -0.00026946     -1.8345e-008    2.1334e-009    
  -1.35           -0.00027271     -1.3133e-008    1.4665e-009    
  -1.4            -0.00027585     -1.8183e-008    1.5762e-009    
  -1.45           -0.00027881     -1.7561e-008    1.7106e-009    
  -1.5            -0.00028159     -1.8159e-008    1.8836e-009    
  -1.55           -0.00028434     -1.8159e-008    2.0656e-009    
  -1.6            -0.00028691     -1.2439e-008    2.901e-010     
  -1.65           -0.00028938     -2.2542e-008    1.933e-009     
  -1.7            -0.00029192     -1.1197e-008    2.395e-010     
  -1.75           -0.00029425     -2.0308e-008    1.8219e-009    
  -1.8            -0.00029662     -1.8345e-008    2.0009e-009    
END_DB

BEGIN_DB
 ICCAP_VAR VG         0              
 ICCAP_VAR VS         0              
 ICCAP_VAR VB         0.9            

 #VD              ID              IB              IG             
  0               4.1918e-009     2.4311e-008     2.8807e-009    
  -0.05           -2.1287e-009    5.502e-009      -2.6234e-009   
  -0.1            -2.1986e-009    -2.399e-008     1.4002e-009    
  -0.15           4.556e-009      1.0341e-008     7.211e-010     
  -0.2            -2.2624e-009    -2.4266e-008    1.3751e-009    
  -0.25           4.5631e-009     1.0269e-008     7.534e-010     
  -0.3            -2.32e-009      -2.4735e-008    1.3525e-009    
  -0.35           4.5538e-009     9.992e-009      7.89e-010      
  -0.4            -4.3321e-009    -1.0807e-008    -8.289e-010    
  -0.45           2.0567e-009     -5.846e-009     2.4908e-009    
  -0.5            1.6989e-009     2.1912e-008     -1.6176e-009   
  -0.55           -4.3716e-009    -1.1522e-008    -5.333e-010    
  -0.6            -1.1403e-009    -1.8473e-008    2.4974e-009    
  -0.65           3.3827e-009     1.2066e-008     1.5742e-009    
  -0.7            -1.703e-010     9.069e-009      -1.3912e-009   
  -0.75           -2.7787e-009    -2.4529e-008    1.3124e-009    
  -0.8            2.5999e-009     2.5671e-008     -1.3922e-009   
  -0.85           -2.6636e-009    -2.5228e-008    1.3138e-009    
  -0.9            2.4582e-009     2.6064e-008     -1.3903e-009   
  -0.95           -2.5213e-009    -2.523e-008     1.3173e-009    
  -1              4.5277e-009     9.22e-009       9.031e-010     
  -1.05           -2.1468e-009    5.11e-009       -2.5529e-009   
  -1.1            -2.775e-010     -1.4939e-008    2.8835e-009    
  -1.15           3.45e-009       1.0939e-008     -1.6068e-009   
  -1.2            -4.3694e-009    -1.1552e-008    -5.352e-010    
  -1.25           -1.1563e-009    -1.8524e-008    2.4986e-009    
  -1.3            3.369e-009      1.2129e-008     1.5773e-009    
  -1.35           -1.556e-010     9.275e-009      -1.3957e-009   
  -1.4            -2.7843e-009    -2.4344e-008    1.3191e-009    
  -1.45           2.6125e-009     2.5535e-008     -1.4006e-009   
  -1.5            -2.6743e-009    -2.541e-008     1.3219e-009    
  -1.55           2.4755e-009     2.6331e-008     -1.399e-009    
  -1.6            -2.5495e-009    -2.5739e-008    1.3222e-009    
  -1.65           4.5414e-009     9.179e-009      9.177e-010     
  -1.7            -2.1566e-009    5.063e-009      -2.569e-009    
  -1.75           -3.268e-010     -1.5776e-008    2.8966e-009    
  -1.8            4.3608e-009     8.965e-009      1.125e-009     
END_DB

BEGIN_DB
 ICCAP_VAR VG         -0.36          
 ICCAP_VAR VS         0              
 ICCAP_VAR VB         0.9            

 #VD              ID              IB              IG             
  0               1.2058e-009     4.877e-009      -2.317e-010    
  -0.05           -4.7181e-009    -1.1836e-008    -4.291e-010    
  -0.1            3.5382e-009     1.0378e-008     1.2818e-009    
  -0.15           -2.6612e-009    7.609e-009      -2.7636e-009   
  -0.2            -3.5522e-009    -2.5006e-008    1.3221e-009    
  -0.25           1.5714e-009     2.6098e-008     -1.3991e-009   
  -0.3            -3.7513e-009    -2.5717e-008    1.3219e-009    
  -0.35           1.0906e-009     2.6585e-008     -1.3971e-009   
  -0.4            -3.9899e-009    -2.5877e-008    1.3259e-009    
  -0.45           9.311e-010      9.174e-009      -1.4001e-009   
  -0.5            -4.6654e-009    -2.5052e-008    1.3204e-009    
  -0.55           3.279e-010      2.6065e-008     -1.4e-009      
