! VERSION = 6.00
BEGIN_HEADER
 ICCAP_INPUTS
  VG         V  B GROUND SMU4 0.001 LIN        2    0          -1.8       6    -0.36     
  VS         V  E GROUND SMU2 0.1 CON        0
  VD         V  S GROUND SMU1 0.1 LIN        1    0          -1.8       37   -0.05     
  VB         V  C GROUND SMU3 0.1 LIN        3    0          0.9        2    0.9       
 ICCAP_OUTPUTS
  ID         I  S GROUND SMU1 B
  IB         I  C GROUND SMU3 B
  IG         I  B GROUND SMU4 B
END_HEADER

BEGIN_DB
 ICCAP_VAR VG         0              
 ICCAP_VAR VS         0              
 ICCAP_VAR VB         0              

 #VD              ID              IB              IG             
  0               2.2664e-009     -1.3492e-008    2.3422e-009    
  -0.05           2.2165e-009     1.0163e-008     4.436e-010     
  -0.1            2.285e-009      1.0064e-008     6.174e-010     
  -0.15           2.3135e-009     1.0144e-008     7.679e-010     
  -0.2            2.3051e-009     9.841e-009      9.157e-010     
  -0.25           2.2479e-009     1.0603e-008     1.0572e-009    
  -0.3            2.1308e-009     1.1991e-008     1.2109e-009    
  -0.35           1.9051e-009     1.0451e-008     -1.844e-010    
  -0.4            1.9788e-009     9.958e-009      -2.86e-011     
  -0.45           2.0599e-009     9.669e-009      1.307e-010     
  -0.5            2.1544e-009     1.012e-008      3.103e-010     
  -0.55           2.233e-009      1.0206e-008     4.804e-010     
  -0.6            2.2984e-009     1.018e-008      6.532e-010     
  -0.65           2.3166e-009     1.0103e-008     8.105e-010     
  -0.7            2.2947e-009     9.816e-009      9.515e-010     
  -0.75           2.228e-009      1.0911e-008     1.0931e-009    
  -0.8            2.099e-009      1.1992e-008     1.2454e-009    
  -0.85           1.9233e-009     1.0261e-008     -1.478e-010    
  -0.9            1.999e-009      9.851e-009      1.44e-011      
  -0.95           2.0898e-009     9.726e-009      1.813e-010     
  -1              2.1781e-009     1.0262e-008     3.606e-010     
  -1.05           2.2565e-009     1.0176e-008     5.289e-010     
  -1.1            2.3092e-009     1.012e-008      6.967e-010     
  -1.15           2.3132e-009     9.942e-009      8.526e-010     
  -1.2            2.2822e-009     9.771e-009      9.916e-010     
  -1.25           2.1968e-009     1.0308e-008     1.1355e-009    
  -1.3            2.0634e-009     1.1434e-008     1.2931e-009    
  -1.35           1.8173e-009     1.2159e-008     -1.4347e-009   
  -1.4            -2.1796e-009    8.508e-009      -9.831e-010    
  -1.45           -2.1056e-009    -1.023e-008     -1.134e-009    
  -1.5            -1.0652e-009    -2.6027e-008    1.403e-009     
  -1.55           2.3e-009        -9.125e-009     9.417e-010     
  -1.6            2.2348e-009     1.0814e-008     1.0808e-009    
  -1.65           2.1202e-009     1.245e-008      1.2237e-009    
  -1.7            1.7724e-009     1.2715e-008     -1.4724e-009   
  -1.75           -1.3452e-009    8.236e-009      -1.7876e-009   
  -1.8            -2.1676e-009    -1.0564e-008    -5.028e-010    
END_DB

BEGIN_DB
 ICCAP_VAR VG         -0.36          
 ICCAP_VAR VS         0              
 ICCAP_VAR VB         0              

 #VD              ID              IB              IG             
  0               -1.8622e-009    -3.149e-009     -1.6687e-009   
  -0.05           -2.0893e-009    -2.7335e-008    1.3059e-009    
  -0.1            -9.842e-010     -9.545e-009     1.2261e-009    
  -0.15           -1.2477e-009    -1.0344e-008    2.8357e-009    
  -0.2            -2.1807e-009    1.2191e-008     -2.265e-009    
  -0.25           -3.1677e-009    -1.3192e-008    1.602e-009     
  -0.3            -1.3203e-009    -8.989e-009     1.3958e-009    
  -0.35           -1.5655e-009    -8.988e-009     1.2767e-009    
  -0.4            -1.8337e-009    -9.873e-009     2.7902e-009    
  -0.45           -5.947e-010     1.2512e-008     1.7287e-009    
  -0.5            -2.1896e-009    1.0271e-008     -1.2781e-009   
  -0.55           -2.2115e-009    9.013e-009      -2.5889e-009   
  -0.6            -3.4358e-009    4.68e-010       -2.4255e-009   
  -0.65           -4.9225e-009    -1.0677e-008    -4.05e-010     
  -0.7            -4.43e-009      -2.5658e-008    2.5306e-009    
  -0.75           -2.6157e-009    -3.394e-009     2.2691e-009    
  -0.8            -2.9338e-009    -5.474e-009     1.9786e-009    
  -0.85           -3.2816e-009    -8.193e-009     1.699e-009     
  -0.9            -3.6594e-009    -9.261e-009     1.4752e-009    
  -0.95           -4.0561e-009    -8.897e-009     1.3297e-009    
  -1              -4.4817e-009    -9.317e-009     1.2421e-009    
  -1.05           -4.934e-009     -1.0003e-008    2.8232e-009    
  -1.1            -4.382e-009     5.45e-010       2.8439e-009    
  -1.15           -4.7794e-009    -1.25e-010      2.8168e-009    
  -1.2            -3.7663e-009    1.0387e-008     1.0534e-009    
  -1.25           -4.2768e-009    1.1717e-008     1.2027e-009    
  -1.3            -4.8969e-009    1.0283e-008     -1.885e-010    
  -1.35           -5.3067e-009    9.929e-009      -3.17e-011     
  -1.4            -5.7017e-009    9.688e-009      1.383e-010     
  -1.45           -6.1254e-009    1.018e-008      3.088e-010     
  -1.5            -6.6422e-009    1.0517e-008     4.888e-010     
  -1.55           -7.2094e-009    1.0526e-008     6.573e-010     
  -1.6            -1.1136e-008    -1.9041e-008    -2.6647e-009   
  -1.65           -1.1582e-008    1.0141e-008     -1.3658e-009   
  -1.7            -1.1755e-008    1.0317e-008     -2.0745e-009   
  -1.75           -9.011e-009     1.2294e-008     1.5351e-009    
  -1.8            -1.3937e-008    -2.7242e-008    2.4201e-009    
END_DB

BEGIN_DB
 ICCAP_VAR VG         -0.72          
 ICCAP_VAR VS         0              
 ICCAP_VAR VB         0              

 #VD              ID              IB              IG             
  0               1.568e-011      8.345e-009      -8.859e-010    
  -0.05           -1.919e-006     -1.2425e-008    -1.3849e-009   
  -0.1            -2.8253e-006    1.0066e-008     8.841e-010     
  -0.15           -3.3696e-006    -2.3023e-008    1.4022e-009    
  -0.2            -3.7226e-006    -1.3874e-008    1.3834e-009    
  -0.25           -4.0117e-006    -1.3629e-008    2.17e-010      
  -0.3            -4.1697e-006    8.908e-009      -1.2786e-009   
  -0.35           -4.535e-006     1.1527e-008     1.4189e-009    
  -0.4            -4.7382e-006    -2.5845e-008    2.1864e-009    
  -0.45           -4.984e-006     -1.8286e-008    1.9303e-009    
  -0.5            -5.2008e-006    -2.2733e-008    1.8934e-009    
  -0.55           -5.4276e-006    -2.1998e-008    1.8611e-009    
  -0.6            -5.6596e-006    -2.1498e-008    1.822e-009     
  -0.65           -5.8905e-006    -2.0918e-008    1.7711e-009    
  -0.7            -6.1237e-006    -2.011e-008     1.7375e-009    
  -0.75           -6.3634e-006    -1.9465e-008    1.7086e-009    
  -0.8            -6.5381e-006    -1.0507e-008    -6.353e-010    
  -0.85           -6.7212e-006    1.711e-008      -1.7181e-009   
  -0.9            -7.0477e-006    1.3085e-008     2.0232e-009    
  -0.95           -7.3455e-006    -1.3049e-008    1.898e-010     
  -1              -7.4209e-006    8.838e-009      -1.273e-009    
  -1.05           -7.8637e-006    1.0661e-008     1.4528e-009    
  -1.1            -8.0964e-006    -1.2436e-008    2.7611e-009    
  -1.15           -8.3518e-006    -1.2337e-008    1.38e-010      
  -1.2            -8.4176e-006    8.54e-009       -1.265e-009    
  -1.25           -8.9028e-006    1.2236e-008     1.5235e-009    
  -1.3            -9.1421e-006    -1.3409e-008    2.7106e-009    
  -1.35           -9.3995e-006    -2.5951e-008    1.2586e-009    
  -1.4            -9.6621e-006    -2.709e-008     2.525e-009     
  -1.45           -9.9345e-006    -2.732e-008     2.4968e-009    
  -1.5            -1.02176e-005   -1.0928e-008    -9.22e-011     
  -1.55           -1.02991e-005   8.18e-009       -2.3988e-009   
  -1.6            -1.0851e-005    1.2231e-008     1.5366e-009    
  -1.65           -1.11094e-005   -1.368e-008     2.6951e-009    
  -1.7            -1.1229e-005    1.8591e-008     -8.748e-010    
  -1.75           -1.1473e-005    2.742e-008      -1.3348e-009   
  -1.8            -1.2045e-005    1.1663e-008     1.4106e-009    
END_DB

BEGIN_DB
 ICCAP_VAR VG         -1.08          
 ICCAP_VAR VS         0              
 ICCAP_VAR VB         0              

 #VD              ID              IB              IG             
  0               -2.6049e-008    -2.409e-009     -1.9561e-009   
  -0.05           -2.9578e-005    -1.0538e-008    2.7164e-009    
  -0.1            -5.299e-005     -1.757e-008     1.5999e-009    
  -0.15           -7.0681e-005    -1.0576e-008    -1.0427e-009   
  -0.2            -8.4319e-005    2.7213e-008     -1.3022e-009   
  -0.25           -9.5115e-005    1.005e-008      5.633e-010     
  -0.3            -0.000103861    -2.37e-008      1.3809e-009    
  -0.35           -0.000110421    -1.7743e-008    2.0446e-009    
  -0.4            -0.00011554     8.894e-009      -1.2189e-009   
  -0.45           -0.00012057     1.2969e-008     2.0146e-009    
  -0.5            -0.00012493     -1.188e-008     9.83e-011      
  -0.55           -0.00012754     7.779e-009      -2.4872e-009   
  -0.6            -0.00013119     1.0527e-008     4e-012         
  -0.65           -0.00013531     -1.5943e-008    2.5233e-009    
  -0.7            -0.00013815     -1.7191e-008    2.1065e-009    
  -0.75           -0.00014097     -2.1978e-008    1.8552e-009    
  -0.8            -0.00014342     -1.065e-008     -6.724e-010    
  -0.85           -0.00014567     2.016e-008      -1.5489e-009   
  -0.9            -0.00014865     1.0456e-008     7.581e-010     
  -0.95           -0.00015184     -2.2748e-008    1.4218e-009    
  -1              -0.00015445     -1.2631e-008    1.478e-010     
  -1.05           -0.00015563     7.787e-009      -2.5435e-009   
  -1.1            -0.00015975     1.0924e-008     1.506e-009     
  -1.15           -0.00016138     -2.1356e-008    1.8358e-009    
  -1.2            -0.00016346     -1.0653e-008    -6.932e-010    
  -1.25           -0.00016523     2.0759e-008     -1.5384e-009   
  -1.3            -0.00016804     1.0453e-008     7.728e-010     
  -1.35           -0.00017095     -2.3116e-008    1.4072e-009    
  -1.4            -0.00017331     -1.2409e-008    1.343e-010     
  -1.45           -0.0001742      7.778e-009      -2.5317e-009   
  -1.5            -0.00017821     1.0973e-008     1.5231e-009    
  -1.55           -0.0001798      -2.0808e-008    1.8078e-009    
  -1.6            -0.00018153     -1.0683e-008    -7.059e-010    
  -1.65           -0.00018329     2.1081e-008     -1.5213e-009   
  -1.7            -0.00018595     1.0504e-008     7.853e-010     
  -1.75           -0.00018879     -2.3224e-008    1.3964e-009    
  -1.8            -0.00019094     -2.6286e-008    2.6144e-009    
END_DB

BEGIN_DB
 ICCAP_VAR VG         -1.44          
 ICCAP_VAR VS         0              
 ICCAP_VAR VB         0              

 #VD              ID              IB              IG             
  0               -3.646e-008     1.0192e-008     6.342e-010     
  -0.05           -6.7813e-005    -8.877e-009     -1.4806e-009   
  -0.1            -0.00012982     1.0443e-008     2.8001e-009    
  -0.15           -0.00018594     -2.0162e-008    1.7296e-009    
  -0.2            -0.00023568     -1.0809e-008    -7.557e-010    
  -0.25           -0.00027938     2.1689e-008     -1.4809e-009   
  -0.3            -0.00031794     1.0614e-008     8.275e-010     
  -0.35           -0.00035119     -2.3911e-008    1.3465e-009    
  -0.4            -0.00037843     -1.0632e-008    -1.0242e-009   
  -0.45           -0.00040181     2.6847e-008     -1.3482e-009   
  -0.5            -0.00042364     9.959e-009      1.1092e-009    
  -0.55           -0.00044088     -2.7442e-008    2.5059e-009    
  -0.6            -0.000456       -1.7612e-008    2.0723e-009    
  -0.65           -0.00046868     -1.0278e-008    -5.302e-010    
  -0.7            -0.00047927     1.7508e-008     -1.6752e-009   
  -0.75           -0.00049025     1.0418e-008     6.382e-010     
  -0.8            -0.00050079     -2.0182e-008    1.5539e-009    
  -0.85           -0.00050923     -1.4054e-008    1.3871e-009    
  -0.9            -0.00051609     -1.0701e-008    -9.794e-010    
  -0.95           -0.00052309     2.6303e-008     -1.3597e-009   
  -1              -0.00053176     1.0151e-008     1.0608e-009    
  -1.05           -0.00053856     -2.7215e-008    2.5739e-009    
  -1.1            -0.00054478     -2.7231e-008    2.3708e-009    
  -1.15           -0.00055113     -1.8626e-008    1.9071e-009    
  -1.2            -0.00055699     -1.8782e-008    1.6554e-009    
  -1.25           -0.00056175     -1.0869e-008    -7.907e-010    
  -1.3            -0.00056649     2.2593e-008     -1.4528e-009   
  -1.35           -0.00057315     1.0538e-008     8.645e-010     
  -1.4            -0.00057941     -2.4614e-008    1.3183e-009    
  -1.45           -0.00058448     -2.7308e-008    2.5141e-009    
  -1.5            -0.00058946     -1.0571e-008    -2.124e-010    
  -1.55           -0.00059264     1.1737e-008     -2.0704e-009   
  -1.6            -0.0005981      9.824e-009      3.445e-010     
  -1.65           -0.00060451     -1.817e-008     1.9915e-009    
  -1.7            -0.00060894     -2.0239e-008    1.7489e-009    
  -1.75           -0.00061329     -1.0753e-008    -7.441e-010    
  -1.8            -0.00061687     2.177e-008      -1.4942e-009   
END_DB

BEGIN_DB
 ICCAP_VAR VG         -1.8           
 ICCAP_VAR VS         0              
 ICCAP_VAR VB         0              

 #VD              ID              IB              IG             
  0               -4.7582e-008    1.0415e-008     5.76e-011      
  -0.05           -9.5277e-005    -1.6451e-008    3.605e-010     
  -0.1            -0.00018641     -1.7528e-008    -3.459e-010    
  -0.15           -0.00027261     1.4157e-008     -1.9163e-009   
  -0.2            -0.0003546      1.324e-008      2.0129e-009    
  -0.25           -0.00043131     -1.9201e-008    1.8098e-009    
  -0.3            -0.00050238     -1.0828e-008    -7.075e-010    
  -0.35           -0.00056786     2.089e-008      -1.5196e-009   
  -0.4            -0.00062883     1.067e-008      7.847e-010     
  -0.45           -0.00068423     -2.3147e-008    1.3854e-009    
  -0.5            -0.00073312     -1.0693e-008    -9.859e-010    
  -0.55           -0.00077726     2.6142e-008     -1.3545e-009   
  -0.6            -0.0008185      9.963e-009      1.0686e-009    
  -0.65           -0.00085396     -2.703e-008     1.2112e-009    
  -0.7            -0.00088563     -1.0548e-008    -1.814e-010    
  -0.75           -0.00091191     1.1182e-008     -2.1392e-009   
  -0.8            -0.00093692     9.642e-009      3.137e-010     
  -0.85           -0.00096042     -1.7984e-008    2.0684e-009    
  -0.9            -0.00097981     -1.0279e-008    -5.367e-010    
  -0.95           -0.00099634     1.7864e-008     -1.6764e-009   
  -1              -0.00101308     1.0345e-008     6.439e-010     
  -1.05           -0.00102897     -2.0284e-008    1.5445e-009    
  -1.1            -0.00104233     -1.3966e-008    1.3787e-009    
  -1.15           -0.00105485     -2.6505e-008    1.2246e-009    
  -1.2            -0.00106627     -1.0691e-008    -1.137e-010    
  -1.25           -0.00107502     1.0456e-008     -2.1993e-009   
  -1.3            -0.00108571     9.695e-009      2.566e-010     
  -1.35           -0.00109741     -1.7536e-008    2.153e-009     
  -1.4            -0.00110617     -1.0104e-008    -4.885e-010    
  -1.45           -0.0011137      1.6844e-008     -1.7371e-009   
  -1.5            -0.00112305     1.0297e-008     5.987e-010     
  -1.55           -0.0011328      -1.9856e-008    1.6156e-009    
  -1.6            -0.00114094     -1.4748e-008    1.4347e-009    
  -1.65           -0.0011473      1.0578e-008     1.1411e-009    
  -1.7            -0.0011563      -1.4952e-008    1.433e-009     
  -1.75           -0.0011637      -1.2565e-008    1.606e-010     
  -1.8            -0.0011685      7.752e-009      -2.5659e-009   
END_DB

BEGIN_DB
 ICCAP_VAR VG         0              
 ICCAP_VAR VS         0              
 ICCAP_VAR VB         0.9            

 #VD              ID              IB              IG             
  0               9.849e-010      9.288e-009      1.0731e-009    
  -0.05           2.1969e-009     1.0152e-008     1.1317e-009    
  -0.1            2.0478e-009     1.1177e-008     1.2996e-009    
  -0.15           1.8255e-009     1.2426e-008     -1.4212e-009   
  -0.2            -2.1688e-009    8.707e-009      -1.0108e-009   
  -0.25           -1.6545e-009    -1.2692e-008    1.543e-009     
  -0.3            2.3123e-009     -8.92e-009      8.395e-010     
  -0.35           2.2868e-009     9.733e-009      9.853e-010     
  -0.4            2.1956e-009     1.021e-008      1.1366e-009    
  -0.45           2.0452e-009     1.1235e-008     1.3033e-009    
  -0.5            1.8264e-009     1.2528e-008     -1.4187e-009   
  -0.55           -2.1679e-009    8.582e-009      -1.0106e-009   
  -0.6            -1.661e-009     -1.26e-008      1.5382e-009    
  -0.65           2.3106e-009     -8.995e-009     8.386e-010     
  -0.7            2.2821e-009     9.842e-009      9.907e-010     
  -0.75           2.1884e-009     1.0395e-008     1.1437e-009    
  -0.8            1.8763e-009     1.0517e-008     -1.3862e-009   
  -0.85           -2.1437e-009    8.812e-009      -1.0823e-009   
  -0.9            -1.03e-009      -2.5506e-008    1.4497e-009    
  -0.95           2.3052e-009     -8.964e-009     9.128e-010     
  -1              2.2498e-009     1.003e-008      1.0614e-009    
  -1.05           2.1325e-009     1.0667e-008     1.22e-009      
  -1.1            1.9129e-009     1.0208e-008     -1.695e-010    
  -1.15           8.981e-010      2.5223e-008     -1.5237e-009   
  -1.2            -1.404e-009     7.606e-009      -1.7492e-009   
  -1.25           -2.1448e-009    -1.0795e-008    -4.192e-010    
  -1.3            -5.071e-010     -1.7225e-008    2.4943e-009    
  -1.35           2.1784e-009     -3.588e-009     1.1747e-009    
  -1.4            1.8883e-009     1.0383e-008     -2.093e-010    
  -1.45           8.644e-010      2.4545e-008     -1.5649e-009   
  -1.5            -1.4601e-009    7.059e-009      -1.7143e-009   
  -1.55           -2.1314e-009    -1.0561e-008    -3.642e-010    
  -1.6            -1.3269e-009    -2.5929e-008    1.2172e-009    
  -1.65           3.37e-011       -1.0926e-008    2.8428e-009    
  -1.7            2.2838e-009     2.11e-010       6.167e-010     
  -1.75           2.3095e-009     1.0078e-008     7.871e-010     
  -1.8            2.3004e-009     9.784e-009      9.341e-010     
END_DB

BEGIN_DB
 ICCAP_VAR VG         -0.36          
 ICCAP_VAR VS         0              
 ICCAP_VAR VB         0.9            

 #VD              ID              IB              IG             
  0               8.51e-010       2.2603e-008     8.933e-010     
  -0.05           2.29e-009       -9.171e-009     6.494e-010     
  -0.1            2.3058e-009     1.0101e-008     8.206e-010     
  -0.15           2.2854e-009     9.815e-009      9.662e-010     
  -0.2            1.7579e-009     1.1707e-008     -1.4961e-009   
  -0.25           -1.3836e-009    8.14e-009       -1.7761e-009   
  -0.3            -2.1699e-009    -1.0746e-008    -4.661e-010    
  -0.35           -5.542e-010     -1.7867e-008    2.4568e-009    
  -0.4            2.1459e-009     -4.19e-009      1.2096e-009    
  -0.45           1.8989e-009     1.0056e-008     -1.772e-010    
  -0.5            1.974e-009      9.656e-009      -9.4e-012      
  -0.55           2.0725e-009     9.654e-009      1.595e-010     
