! VERSION = 6.00
BEGIN_HEADER
 ICCAP_INPUTS
  VG         V  B GROUND SMU4 0.001 LIN        1    0          -1.8       37   -0.05     
  VS         V  E GROUND SMU2 0.1 CON        0
  VB         V  C GROUND SMU3 0.1 LIN        3    0          1.8        3    0.9       
  VD         V  S GROUND SMU1 0.1 LIN        2    -0.1       -1.8       2    -1.7      
 ICCAP_OUTPUTS
  IG         I  B GROUND SMU4 B
  ID         I  S GROUND SMU1 B
  IB         I  C GROUND SMU3 B
END_HEADER

BEGIN_DB
 ICCAP_VAR VS         0              
 ICCAP_VAR VB         0              
 ICCAP_VAR VD         -0.1           

 #VG              IG              ID              IB             
  0               -1.1734e-009    -1.0349e-009    -1.9014e-008   
  -0.05           -4.614e-010     -2.1753e-009    -1.0704e-008   
  -0.1            2.481e-009      -5.398e-010     -1.7498e-008   
  -0.15           1.1846e-009     2.1837e-009     -3.854e-009    
  -0.2            -2.094e-010     1.8827e-009     1.0203e-008    
  -0.25           -1.5762e-009    8.179e-010      2.4023e-008    
  -0.3            -1.7101e-009    -1.6668e-009    7.044e-009     
  -0.35           -3.412e-010     -2.7837e-009    -1.0554e-008   
  -0.4            2.6077e-009     -3.679e-009     -2.6346e-008   
  -0.45           2.3708e-009     -7.4216e-009    -2.759e-009    
  -0.5            -1.5119e-009    -2.7186e-008    -1.3362e-008   
  -0.55           -1.3359e-009    -8.2157e-008    7.632e-009     
  -0.6            1.7443e-009     -2.381e-007     -2.7156e-008   
  -0.65           6.15e-010       -6.1434e-007    1.0371e-008    
  -0.7            -1.2854e-009    -1.4234e-006    -1.0765e-008   
  -0.75           -2.3688e-009    -2.9625e-006    8.672e-009     
  -0.8            1.3945e-009     -5.6531e-006    -1.3962e-008   
  -0.85           2.8265e-009     -9.5631e-006    -9.023e-009    
  -0.9            -2.6972e-009    -1.4779e-005    1.0363e-008    
  -0.95           2.4301e-009     -2.1527e-005    -2.7047e-008   
  -1              1.7227e-009     -2.9305e-005    -4.442e-009    
  -1.05           1.2833e-009     -3.8026e-005    -9.224e-009    
  -1.1            2.8416e-009     -4.7402e-005    -9.527e-009    
  -1.15           2.6657e-009     -5.7087e-005    2e-012         
  -1.2            5.901e-010      -6.6976e-005    1.0281e-008    
  -1.25           9.689e-010      -7.711e-005     1.0444e-008    
  -1.3            -2.113e-010     -8.6798e-005    1.194e-008     
  -1.35           -1.4076e-009    -9.6306e-005    2.4006e-008    
  -1.4            -1.3101e-009    -0.000105614    8.593e-009     
  -1.45           -1.2158e-009    -0.00011467     8.858e-009     
  -1.5            -1.6232e-009    -0.00012308     1.8507e-008    
  -1.55           -1.3625e-009    -0.00013122     6.378e-009     
  -1.6            -1.2938e-009    -0.00013891     8.787e-009     
  -1.65           -2.4608e-009    -0.0001462      7.633e-009     
  -1.7            -6.697e-010     -0.00015338     -1.0629e-008   
  -1.75           1.7714e-009     -0.00016009     -2.0321e-008   
  -1.8            1.3015e-009     -0.0001664      -9.1e-009      
END_DB

BEGIN_DB
 ICCAP_VAR VS         0              
 ICCAP_VAR VB         0              
 ICCAP_VAR VD         -1.8           

 #VG              IG              ID              IB             
  0               1.1163e-009     1.0062e-009     7.554e-009     
  -0.05           7.502e-010      2.3143e-009     -3.15e-010     
  -0.1            8.998e-010      2.3089e-009     1.0058e-008    
  -0.15           1.042e-009      2.2385e-009     9.938e-009     
  -0.2            -1.2689e-009    1.5036e-009     1.1785e-008    
  -0.25           -2.4369e-009    -1.5717e-009    1.0926e-008    
  -0.3            -2.504e-010     -3.8617e-009    -1.0265e-008   
  -0.35           -4.417e-010     -8.2291e-009    -1.0708e-008   
  -0.4            2.4993e-009     -1.8409e-008    9.854e-009     
  -0.45           1.5057e-009     -5.5696e-008    1.2061e-008    
  -0.5            2.1194e-009     -1.5601e-007    -2.3046e-008   
  -0.55           9.718e-010      -4.0745e-007    1.0434e-008    
  -0.6            -2.065e-010     -9.8989e-007    1.191e-008     
  -0.65           -1.942e-009     -2.2427e-006    -1.2905e-008   
  -0.7            -2.6203e-009    -4.7429e-006    -5.718e-009    
  -0.75           1.826e-010      -9.329e-006     -1.2754e-008   
  -0.8            1.168e-009      -1.6584e-005    -2.5064e-008   
  -0.85           1.07e-011       -2.7124e-005    1.0367e-008    
  -0.9            4.509e-010      -4.2147e-005    9.944e-009     
  -0.95           8.519e-010      -6.2134e-005    1.0715e-008    
  -1              1.2139e-009     -8.7387e-005    9.956e-009     
  -1.05           2.845e-009      -0.00011675     9.983e-009     
  -1.1            2.664e-009      -0.00015171     1.1e-011       
  -1.15           5.93e-010       -0.00019105     1.0388e-008    
  -1.2            9.677e-010      -0.00023577     1.0564e-008    
  -1.25           1.347e-009      -0.00028507     1.0339e-008    
  -1.3            1.7631e-009     -0.00033745     1.2898e-008    
  -1.35           6.408e-010      -0.00039151     1.0473e-008    
  -1.4            1.0105e-009     -0.00045119     1.0205e-008    
  -1.45           1.3965e-009     -0.0005139      1.1413e-008    
  -1.5            2.399e-010      -0.00057553     9.878e-009     
  -1.55           6.873e-010      -0.00064211     1.0492e-008    
  -1.6            1.0507e-009     -0.00071137     1.004e-008     
  -1.65           1.4436e-009     -0.0007822      1.1728e-008    
  -1.7            2.983e-010      -0.00085076     9.753e-009     
  -1.75           7.313e-010      -0.00092394     1.0684e-008    
  -1.8            1.0889e-009     -0.00099855     1.0171e-008    
END_DB

BEGIN_DB
 ICCAP_VAR VS         0              
 ICCAP_VAR VB         0.9            
 ICCAP_VAR VD         -0.1           

 #VG              IG              ID              IB             
  0               1.0138e-009     9.724e-010      1.1203e-008    
  -0.05           1.1189e-009     2.2348e-009     -3.043e-009    
  -0.1            1.2714e-009     2.0845e-009     1.0941e-008    
  -0.15           -1.4418e-009    1.8122e-009     1.2249e-008    
  -0.2            -1.8154e-009    -1.3179e-009    8.456e-009     
  -0.25           1.7956e-009     -1.6074e-009    -1.5047e-008   
  -0.3            6.778e-010      2.3018e-009     -9.276e-009    
  -0.35           8.355e-010      2.3192e-009     1.0196e-008    
  -0.4            9.766e-010      2.298e-009      9.827e-009     
  -0.45           1.1197e-009     2.2023e-009     1.0009e-008    
  -0.5            -1.5634e-009    1.6213e-009     1.098e-008     
  -0.55           -2.5104e-009    -1.4562e-009    7.114e-009     
  -0.6            -3.596e-010     -3.827e-009     -1.0544e-008   
  -0.65           2.5798e-009     -8.5703e-009    -2.6007e-008   
  -0.7            -1.6331e-009    -2.8645e-008    -1.5687e-008   
  -0.75           2.0914e-009     -1.03174e-007   -1.7144e-008   
  -0.8            -9.843e-010     -3.2089e-007    1.2833e-008    
  -0.85           1.907e-010      -9.2077e-007    -1.3086e-008   
  -0.9            2.2325e-009     -2.1936e-006    1.2098e-008    
  -0.95           1.5395e-009     -4.5471e-006    -6.049e-009    
  -1              1.237e-009      -8.3548e-006    -9.062e-009    
  -1.05           -1.2761e-009    -1.3596e-005    -9.154e-009    
  -1.1            -2.2263e-009    -2.0441e-005    9.696e-009     
  -1.15           1.674e-010      -2.8872e-005    -1.271e-008    
  -1.2            1.387e-009      -3.7946e-005    -2.306e-008    
  -1.25           2.8304e-009     -4.7623e-005    -9.176e-009    
  -1.3            2.7587e-009     -5.7506e-005    2.95e-010      
  -1.35           1.3868e-009     -6.7714e-005    1.1303e-008    
  -1.4            2.451e-010      -7.7177e-005    9.938e-009     
  -1.45           6.887e-010      -8.6803e-005    1.0347e-008    
  -1.5            1.0547e-009     -9.6092e-005    9.964e-009     
  -1.55           1.4422e-009     -0.000104881    1.1841e-008    
  -1.6            2.986e-010      -0.000112903    9.835e-009     
  -1.65           5.355e-010      -0.00012085     1.7623e-008    
  -1.7            9.258e-010      -0.00012849     1.0468e-008    
  -1.75           1.2897e-009     -0.00013575     1.0063e-008    
  -1.8            1.711e-009      -0.00014253     1.2537e-008    
END_DB

BEGIN_DB
 ICCAP_VAR VS         0              
 ICCAP_VAR VB         0.9            
 ICCAP_VAR VD         -1.8           

 #VG              IG              ID              IB             
  0               -2.4418e-009    -2.2263e-009    1.33e-010      
  -0.05           -2.258e-010     -2.0784e-009    -1.0137e-008   
  -0.1            -4.15e-010      -2.1575e-009    -1.0465e-008   
  -0.15           2.4847e-009     -5.137e-010     -1.7049e-008   
  -0.2            1.1552e-009     2.1729e-009     -3.491e-009    
  -0.25           -2.251e-010     1.8808e-009     1.071e-008     
  -0.3            -6.61e-011      1.95e-009       1.002e-008     
  -0.35           9.47e-011       2.0165e-009     9.737e-009     
  -0.4            2.733e-010      2.0449e-009     9.887e-009     
  -0.45           4.597e-010      1.806e-009      1.0235e-008    
  -0.5            -1.451e-009     -2.1842e-009    1.0201e-008    
  -0.55           -1.3805e-009    -7.2529e-009    8.492e-009     
  -0.6            -1.4762e-009    -2.5591e-008    -1.3011e-008   
  -0.65           -1.3264e-009    -7.8103e-008    8.328e-009     
  -0.7            1.0966e-009     -2.2967e-007    -1.925e-008    
  -0.75           1.4971e-009     -6.4353e-007    1.2066e-008    
  -0.8            -2.4484e-009    -1.6275e-006    -1.9842e-008   
  -0.85           1.6188e-009     -3.882e-006     -1.7522e-008   
  -0.9            2.7554e-009     -8.141e-006     -9.175e-009    
  -0.95           -2.2719e-009    -1.5293e-005    1.0567e-008    
  -1              2.092e-010      -2.6867e-005    -1.3989e-008   
  -1.05           -1.494e-010     -4.2932e-005    -1.0661e-008   
  -1.1            -6.255e-010     -6.3986e-005    -1.0177e-008   
  -1.15           1.8256e-009     -9.1021e-005    -1.9243e-008   
  -1.2            2.702e-009      -0.00012266     1.0369e-008    
  -1.25           1.8053e-009     -0.00016043     1.2812e-008    
  -1.3            6.846e-010      -0.00020148     1.0218e-008    
  -1.35           1.0457e-009     -0.0002485      1.0167e-008    
  -1.4            1.4335e-009     -0.00029936     1.1692e-008    
  -1.45           3.044e-010      -0.00035129     9.707e-009     
  -1.5            7.393e-010      -0.0004087      1.0246e-008    
  -1.55           1.094e-009      -0.00046934     1.0061e-008    
  -1.6            1.4969e-009     -0.00053208     1.2163e-008    
  -1.65           1.9276e-009     -0.00059582     1.259e-008     
  -1.7            7.987e-010      -0.00066109     1.0279e-008    
  -1.75           1.151e-009      -0.00073        9.965e-009     
  -1.8            3.4e-012        -0.00079748     1.0741e-008    
END_DB

BEGIN_DB
 ICCAP_VAR VS         0              
 ICCAP_VAR VB         1.8            
 ICCAP_VAR VD         -0.1           

 #VG              IG              ID              IB             
  0               3.289e-010      4.819e-010      1.044e-008     
  -0.05           2.7792e-009     -2.032e-010     -1.4839e-008   
  -0.1            1.1017e-009     2.2116e-009     1.0111e-008    
  -0.15           1.257e-009      2.0722e-009     1.09e-008      
  -0.2            -1.34e-010      1.9258e-009     1.0116e-008    
  -0.25           -1.5096e-009    9.243e-010      2.5205e-008    
  -0.3            -1.7632e-009    -1.4053e-009    7.973e-009     
  -0.35           -4.339e-010     -2.1769e-009    -1.0492e-008   
  -0.4            2.4531e-009     -5.46e-010      -1.7856e-008   
  -0.45           1.1854e-009     2.1444e-009     -3.869e-009    
  -0.5            -1.979e-010     1.895e-009      1.0345e-008    
  -0.55           -1.5721e-009    8.65e-010       2.4308e-008    
  -0.6            -1.7179e-009    -1.5161e-009    7.112e-009     
  -0.65           -3.724e-010     -2.3723e-009    -1.0315e-008   
  -0.7            2.5375e-009     -1.5867e-009    -1.6967e-008   
  -0.75           2.2855e-009     -4.3738e-009    -3.117e-009    
  -0.8            -1.482e-009     -2.2055e-008    -1.3112e-008   
  -0.85           -1.3272e-009    -8.1693e-008    8.351e-009     
  -0.9            1.6964e-009     -2.8345e-007    -2.6125e-008   
  -0.95           5.752e-010      -8.189e-007     9.938e-009     
  -1              -2.0622e-009    -2.0314e-006    -1.4843e-008   
  -1.05           1.2285e-009     -4.4406e-006    -2.6352e-008   
  -1.1            2.805e-009      -8.2939e-006    -1.0827e-008   
  -1.15           -2.4286e-009    -1.3638e-005    9.981e-009     
  -1.2            -6.561e-010     -2.0673e-005    -1.0423e-008   
  -1.25           1.7924e-009     -2.9047e-005    -1.9384e-008   
  -1.3            1.3105e-009     -3.8238e-005    -9.084e-009    
  -1.35           2.846e-009      -4.7954e-005    -9.69e-009     
  -1.4            2.6394e-009     -5.775e-005     -9.6e-011      
  -1.45           5.832e-010      -6.7451e-005    1.0001e-008    
  -1.5            9.629e-010      -7.7133e-005    1.0236e-008    
  -1.55           1.3349e-009     -8.6412e-005    1.1125e-008    
  -1.6            1.7604e-009     -9.5125e-005    1.2811e-008    
  -1.65           6.368e-010      -0.000103279    1.0198e-008    
  -1.7            1.0096e-009     -0.000111333    1.0101e-008    
  -1.75           2.7383e-009     -0.00011883     1.0268e-008    
  -1.8            8.125e-010      -0.00012594     1.07e-008      
END_DB

BEGIN_DB
 ICCAP_VAR VS         0              
 ICCAP_VAR VB         1.8            
 ICCAP_VAR VD         -1.8           

 #VG              IG              ID              IB             
  0               -1.3492e-009    -1.3135e-009    -9.215e-009    
  -0.05           2.0554e-009     -1.5467e-009    -1.8534e-008   
  -0.1            5.121e-010      2.2435e-009     -7.621e-009    
  -0.15           6.849e-010      2.3103e-009     1.0519e-008    
  -0.2            8.413e-010      2.3237e-009     1.0118e-008    
  -0.25           9.857e-010      2.2963e-009     9.954e-009     
  -0.3            1.1305e-009     2.1991e-009     1.1252e-008    
  -0.35           1.2842e-009     2.057e-009      1.2153e-008    
  -0.4            -1.4318e-009    1.8156e-009     1.2547e-008    
  -0.45           -1.8226e-009    -1.3195e-009    8.587e-009     
  -0.5            1.7594e-009     -1.6769e-009    -1.4716e-008   
  -0.55           -1.4141e-009    1.5329e-009     -9.166e-009    
  -0.6            -2.6368e-009    -2.4517e-009    8.637e-009     
  -0.65           1.54e-009       -8.0149e-009    -1.2626e-008   
  -0.7            -2.3994e-009    -2.572e-008     -2.6812e-008   
  -0.75           -7.019e-010     -8.8509e-008    -1.0537e-008   
  -0.8            2.4115e-009     -2.7283e-007    -1.3625e-008   
  -0.85           1.3655e-009     -8.1162e-007    1.0213e-008    
  -0.9            -2.4391e-009    -2.0775e-006    -1.8997e-008   
  -0.95           1.6145e-009     -4.9233e-006    -1.7856e-008   
  -1              2.7425e-009     -1.01916e-005   -8.993e-009    
  -1.05           -2.3275e-009    -1.8814e-005    1.0583e-008    
  -1.1            1.3943e-009     -3.2382e-005    -1.3937e-008   
  -1.15           2.8315e-009     -5.0787e-005    -9.053e-009    
  -1.2            2.7624e-009     -7.4468e-005    4.37e-010      
  -1.25           1.3767e-009     -0.000104532    1.1335e-008    
  -1.3            2.8133e-009     -0.00013844     1.03e-008      
  -1.35           2.0114e-009     -0.00017846     1.2289e-008    
  -1.4            8.723e-010      -0.00022231     1.0395e-008    
  -1.45           1.2325e-009     -0.00027148     1.026e-008     
  -1.5            8.15e-011       -0.00032193     1.0345e-008    
  -1.55           5.216e-010      -0.00037707     1.0012e-008    
  -1.6            9.15e-010       -0.00043606     1.056e-008     
  -1.65           1.2881e-009     -0.00049786     1.0087e-008    
  -1.7            1.7002e-009     -0.00056085     1.2462e-008    
  -1.75           5.748e-010      -0.00062403     1.0187e-008    
  -1.8            9.605e-010      -0.00069143     1.0444e-008    
END_DB

