! VERSION = 6.00
BEGIN_HEADER
 ICCAP_INPUTS
  VG         V  B GROUND SMU4 0.001 LIN        1    0          -1.8       37   -0.05     
  VS         V  E GROUND SMU3 0.1 CON        0
  VB         V  C GROUND SMU1 0.1 LIN        3    0          1.8        3    0.9       
  VD         V  S GROUND SMU2 0.1 LIN        2    -0.1       -1.8       2    -1.7      
 ICCAP_OUTPUTS
  IG         I  B GROUND SMU4 B
  ID         I  S GROUND SMU2 B
  IB         I  C GROUND SMU1 B
END_HEADER

BEGIN_DB
 ICCAP_VAR VS         0              
 ICCAP_VAR VB         0              
 ICCAP_VAR VD         -0.1           

 #VG              IG              ID              IB             
  0               1.271e-009      2.477e-010      8.792e-009     
  -0.05           -2.6123e-009    5.98e-011       8.718e-009     
  -0.1            1.9134e-009     -2.9046e-009    -1.4784e-008   
  -0.15           -2.0762e-009    2.629e-009      2.11e-008      
  -0.2            2.3829e-009     -1.1486e-009    -1.7008e-008   
  -0.25           -2.2663e-009    9.215e-010      1.295e-008     
  -0.3            2.5549e-009     -9.352e-010     -1.6791e-008   
  -0.35           -1.357e-010     3.6102e-009     7.96e-009      
  -0.4            -2.6132e-009    1.24e-011       8.611e-009     
  -0.45           1.9777e-009     -2.9041e-009    -1.5489e-008   
  -0.5            -1.9171e-009    1.1654e-009     1.5999e-008    
  -0.55           2.412e-009      -2.9289e-009    -2.2814e-008   
  -0.6            -2.3019e-009    -4.012e-010     1.2534e-008    
  -0.65           2.5747e-009     -5.9925e-009    -1.6557e-008   
  -0.7            2.7139e-009     -1.7296e-008    1.5401e-008    
  -0.75           -1.4556e-009    -6.343e-008     1.597e-008     
  -0.8            6.19e-010       -1.8992e-007    -1.3503e-008   
  -0.85           -2.6142e-009    -4.7702e-007    5.471e-009     
  -0.9            1.6465e-009     -1.02261e-006   -1.6788e-008   
  -0.95           -2.4618e-009    -1.8491e-006    -2.0792e-008   
  -1              2.1543e-009     -3.0377e-006    -1.6819e-008   
  -1.05           -1.506e-009     -4.4601e-006    1.7322e-008    
  -1.1            2.5359e-009     -6.2278e-006    -1.5326e-008   
  -1.15           -1.7143e-009    -8.0753e-006    1.4461e-008    
  -1.2            2.657e-009      -1.01831e-005   -1.2826e-008   
  -1.25           7.848e-010      -1.229e-005     -1.6983e-008   
  -1.3            -2.6291e-009    -1.4462e-005    6.806e-009     
  -1.35           2.7177e-009     -1.6721e-005    -1.2866e-008   
  -1.4            1.048e-010      -1.8886e-005    7.965e-009     
  -1.45           -2.0771e-009    -2.1081e-005    1.1579e-008    
  -1.5            1.7116e-009     -2.3269e-005    -1.8863e-008   
  -1.55           8.195e-010      -2.5355e-005    9.029e-009     
  -1.6            -2.6278e-009    -2.7377e-005    6.858e-009     
  -1.65           2.7015e-009     -2.9437e-005    -1.1036e-008   
  -1.7            -2.0793e-009    -3.1255e-005    1.1275e-008    
  -1.75           1.7175e-009     -3.3216e-005    -1.8783e-008   
  -1.8            8.192e-010      -3.5021e-005    8.986e-009     
END_DB

BEGIN_DB
 ICCAP_VAR VS         0              
 ICCAP_VAR VB         0              
 ICCAP_VAR VD         -1.8           

 #VG              IG              ID              IB             
  0               2.234e-010      -1.2273e-009    -1.6368e-008   
  -0.05           -1.8728e-009    2.7791e-009     1.6621e-008    
  -0.1            2.1772e-009     -1.3235e-009    -1.6274e-008   
  -0.15           -2.0982e-009    1.0866e-009     1.4059e-008    
  -0.2            2.4073e-009     -1.1265e-009    -1.65e-008     
  -0.25           -2.2925e-009    8.986e-010      1.2375e-008    
  -0.3            2.5807e-009     -9.168e-010     -1.6306e-008   
  -0.35           -1.414e-010     3.6123e-009     8.032e-009     
  -0.4            -2.6153e-009    2.02e-011       8.79e-009      
  -0.45           1.9447e-009     -2.8981e-009    -1.4629e-008   
  -0.5            -2.1029e-009    2.5048e-009     2.1447e-008    
  -0.55           2.4144e-009     -1.4775e-009    -1.6703e-008   
  -0.6            -2.2956e-009    -5.91e-010      1.2201e-008    
  -0.65           2.5813e-009     -6.7289e-009    -1.6527e-008   
  -0.7            -2.1898e-009    -2.4122e-008    -1.1788e-008   
  -0.75           2.641e-009      -7.7898e-008    -1.4065e-008   
  -0.8            -1.0602e-009    -2.3336e-007    1.3074e-008    
  -0.85           2.7612e-009     -6.0288e-007    -8.483e-009    
  -0.9            -1.919e-009     -1.3119e-006    -1.2461e-008   
  -0.95           2.7598e-009     -2.5878e-006    -1.647e-008    
  -1              -7.74e-011      -4.4649e-006    7.622e-009     
  -1.05           -2.3311e-009    -7.1918e-006    9.821e-009     
  -1.1            2.0468e-009     -1.09449e-005   -2.3329e-008   
  -1.15           6.542e-010      -1.5525e-005    -1.6657e-008   
  -1.2            -2.6036e-009    -2.1181e-005    5.559e-009     
  -1.25           2.7586e-009     -2.8111e-005    -1.5745e-008   
  -1.3            -3.66e-011      -3.5804e-005    7.524e-009     
  -1.35           -2.2733e-009    -4.4667e-005    9.957e-009     
  -1.4            1.6947e-009     -5.4902e-005    -1.5984e-008   
  -1.45           8.084e-010      -6.5724e-005    8.89e-009      
  -1.5            -2.6169e-009    -7.748e-005     6.521e-009     
  -1.55           2.218e-010      -9.0715e-005    -1.1063e-008   
  -1.6            2.7056e-009     -0.000104461    -1.2954e-008   
  -1.65           1.4973e-009     -0.00011923     2.1061e-008    
  -1.7            -1.3988e-009    -0.00013388     1.421e-008     
  -1.75           2.4798e-009     -0.00015037     -1.6336e-008   
  -1.8            -1.5712e-009    -0.00016671     1.4385e-008    
END_DB

BEGIN_DB
 ICCAP_VAR VS         0              
 ICCAP_VAR VB         0.9            
 ICCAP_VAR VD         -0.1           

 #VG              IG              ID              IB             
  0               -1.141e-010     1.2919e-009     1.5386e-008    
  -0.05           2.7496e-009     -3.192e-010     -1.2687e-008   
  -0.1            -1.5465e-009    3.1239e-009     1.1312e-008    
  -0.15           2.0201e-009     -2.8636e-009    -1.619e-008    
  -0.2            -1.9661e-009    1.2117e-009     1.5591e-008    
  -0.25           2.2692e-009     -1.2611e-009    -1.716e-008    
  -0.3            -2.163e-009     1.0269e-009     1.4079e-008    
  -0.35           2.4581e-009     -1.0546e-009    -1.7104e-008   
  -0.4            -2.3331e-009    8.307e-010      1.2061e-008    
  -0.45           2.601e-009      -8.445e-010     -1.6359e-008   
  -0.5            -2.4589e-009    3.5497e-009     7.742e-009     
  -0.55           2.6948e-009     -6.234e-010     -1.5823e-008   
  -0.6            -1.3608e-009    3.3629e-009     8.071e-009     
  -0.65           2.7429e-009     -3.69e-010      -1.3505e-008   
  -0.7            -2.5903e-009    1.86e-010       8.881e-009     
  -0.75           1.7165e-009     -3.1159e-009    -1.2454e-008   
  -0.8            -1.9016e-009    2.1739e-009     1.7803e-008    
  -0.85           2.2147e-009     -4.2553e-009    -1.7042e-008   
  -0.9            -1.0551e-009    -1.5099e-008    8.036e-009     
  -0.95           1.8429e-009     -5.6428e-008    -1.7259e-008   
  -1              -1.1853e-009    -1.8601e-007    1.528e-008     
  -1.05           2.7271e-009     -5.0269e-007    -1.0051e-008   
  -1.1            7.55e-011       -1.09383e-006   7.887e-009     
  -1.15           -1.894e-009     -2.0523e-006    -1.1451e-008   
  -1.2            1.5303e-009     -3.405e-006     -1.7049e-008   
  -1.25           9.107e-010      -5.0219e-006    8.759e-009     
  -1.3            -2.6179e-009    -6.8598e-006    7.156e-009     
  -1.35           2.6308e-009     -8.9542e-006    -1.3514e-008   
  -1.4            -1.8919e-009    -1.1018e-005    1.314e-008     
  -1.45           8.549e-010      -1.321e-005     -1.6972e-008   
  -1.5            -2.6271e-009    -1.5349e-005    7.047e-009     
  -1.55           2.675e-009      -1.7567e-005    -1.2116e-008   
  -1.6            -1.9958e-009    -1.961e-005     1.2202e-008    
  -1.65           1.6214e-009     -2.1712e-005    -1.7379e-008   
  -1.7            8.628e-010      -2.3703e-005    9.069e-009     
  -1.75           -2.6275e-009    -2.5626e-005    7.028e-009     
  -1.8            2.6672e-009     -2.7577e-005    -1.2328e-008   
END_DB

BEGIN_DB
 ICCAP_VAR VS         0              
 ICCAP_VAR VB         0.9            
 ICCAP_VAR VD         -1.8           

 #VG              IG              ID              IB             
  0               5.65e-011       -1.4874e-009    -1.6694e-008   
  -0.05           4.653e-010      4.1793e-009     9.475e-009     
  -0.1            -1.9685e-009    -1.8842e-009    1.978e-009     
  -0.15           2.2051e-009     -1.3219e-009    -1.6734e-008   
  -0.2            -2.1116e-009    1.0843e-009     1.4576e-008    
  -0.25           2.4157e-009     -1.1144e-009    -1.7024e-008   
  -0.3            -2.2986e-009    8.986e-010      1.2677e-008    
  -0.35           2.5716e-009     -9.046e-010     -1.6701e-008   
  -0.4            -1.454e-010     3.5949e-009     7.876e-009     
  -0.45           -2.6164e-009    7.4e-012        8.623e-009     
  -0.5            1.978e-009      -2.8752e-009    -1.5542e-008   
  -0.55           -1.9321e-009    1.23e-009       1.5713e-008    
  -0.6            2.4321e-009     -2.6017e-009    -2.3145e-008   
  -0.65           -2.3114e-009    8.691e-010      1.2391e-008    
  -0.7            2.5819e-009     -9.199e-010     -1.6595e-008   
  -0.75           -2.4444e-009    5.341e-010      1.053e-008     
  -0.8            2.682e-009      -1.3485e-009    -1.6016e-008   
  -0.85           -2.3375e-009    -4.8396e-009    1.2017e-008    
  -0.9            2.6327e-009     -1.5088e-008    8.86e-009      
  -0.95           -1.8822e-009    -6.3639e-008    1.3332e-008    
  -1              2.1327e-009     -2.1831e-007    -1.9232e-008   
  -1.05           -1.2748e-009    -6.0785e-007    1.9594e-008    
  -1.1            2.7463e-009     -1.4582e-006    8.198e-009     
  -1.15           1.467e-009      -2.9321e-006    8.254e-009     
  -1.2            -1.4734e-009    -5.0982e-006    1.6326e-008    
  -1.25           2.5213e-009     -8.379e-006     -1.5755e-008   
  -1.3            2.39e-010       -1.2509e-005    -1.358e-008    
  -1.35           -1.8643e-009    -1.7778e-005    1.3673e-008    
  -1.4            2.745e-009      -2.4358e-005    -1.4866e-008   
  -1.45           1.481e-009      -3.2017e-005    7.58e-009      
  -1.5            -1.4565e-009    -4.0252e-005    1.5928e-008    
  -1.55           2.5049e-009     -5.0178e-005    -1.5943e-008   
  -1.6            -1.661e-009     -6.0493e-005    1.4811e-008    
  -1.65           2.6469e-009     -7.242e-005     -1.3503e-008   
  -1.7            -1.9082e-009    -8.4532e-005    1.2804e-008    
  -1.75           2.75e-009       -9.8201e-005    -1.5576e-008   
  -1.8            1.4501e-009     -0.000112587    8.194e-009     
END_DB

BEGIN_DB
 ICCAP_VAR VS         0              
 ICCAP_VAR VB         1.8            
 ICCAP_VAR VD         -0.1           

 #VG              IG              ID              IB             
  0               3.345e-010      -1.0138e-009    -1.596e-008    
  -0.05           -1.8951e-009    1.2307e-009     1.5786e-008    
  -0.1            2.2172e-009     -1.2864e-009    -1.6424e-008   
  -0.15           -2.1282e-009    1.0371e-009     1.368e-008     
  -0.2            2.4385e-009     -1.0658e-009    -1.6337e-008   
  -0.25           -2.3297e-009    8.326e-010      1.1611e-008    
  -0.3            2.6097e-009     -8.417e-010     -1.5858e-008   
  -0.35           1.2722e-009     3.7039e-009     8.678e-009     
  -0.4            -2.6089e-009    -3.83e-010      7.054e-009     
  -0.45           2.4501e-009     -1.0555e-009    -1.6247e-008   
  -0.5            -2.3412e-009    8.282e-010      1.1383e-008    
  -0.55           2.6193e-009     -8.335e-010     -1.5934e-008   
  -0.6            1.2639e-009     3.7229e-009     7.84e-009      
  -0.65           -2.6057e-009    -3.951e-010     6.996e-009     
  -0.7            2.4551e-009     -2.5493e-009    -2.2945e-008   
  -0.75           -2.3499e-009    8.172e-010      1.1256e-008    
  -0.8            2.625e-009      -8.197e-010     -1.6012e-008   
  -0.85           1.2584e-009     3.7184e-009     8.586e-009     
  -0.9            -2.607e-009     -5.299e-010     6.954e-009     
  -0.95           2.4678e-009     -1.7084e-009    -1.6172e-008   
  -1              -1.9904e-009    -4.7771e-009    1.4685e-008    
  -1.05           2.5883e-009     -1.4582e-008    1.1784e-008    
  -1.1            8.653e-010      -6.3239e-008    8.74e-009      
  -1.15           1.846e-010      -2.2341e-007    4.649e-009     
  -1.2            2.6717e-009     -5.79e-007      -1.2953e-008   
  -1.25           2.4174e-009     -1.2295e-006    1.3003e-008    
  -1.3            -2.271e-009     -2.2438e-006    9.441e-009     
  -1.35           1.7441e-009     -3.6645e-006    -1.657e-008    
  -1.4            7.935e-010      -5.3305e-006    8.781e-009     
  -1.45           -2.6313e-009    -7.2034e-006    6.781e-009     
  -1.5            2.7359e-009     -9.2844e-006    -1.2206e-008   
  -1.55           1.196e-010      -1.13242e-005   8.377e-009     
  -1.6            3.834e-010      -1.3432e-005    -1.5492e-008   
  -1.65           -1.6061e-009    -1.5507e-005    1.4768e-008    
  -1.7            2.6242e-009     -1.7627e-005    -1.4192e-008   
  -1.75           -1.8332e-009    -1.9576e-005    1.2826e-008    
  -1.8            2.7276e-009     -2.1582e-005    -1.1247e-008   
END_DB

BEGIN_DB
 ICCAP_VAR VS         0              
 ICCAP_VAR VB         1.8            
 ICCAP_VAR VD         -1.8           

 #VG              IG              ID              IB             
  0               2.991e-010      -1.079e-009     -1.6785e-008   
  -0.05           -1.841e-009     1.2937e-009     1.6235e-008    
  -0.1            2.149e-009      -1.3445e-009    -1.659e-008    
  -0.15           -2.0759e-009    1.108e-009      1.4488e-008    
  -0.2            2.3882e-009     -1.1469e-009    -1.6702e-008   
  -0.25           -2.2792e-009    9.15e-010       1.2689e-008    
  -0.3            2.5559e-009     -9.263e-010     -1.6574e-008   
  -0.35           -2.4301e-009    7.133e-010      1.0776e-008    
  -0.4            2.6802e-009     -6.966e-010     -1.6124e-008   
  -0.45           -1.3112e-009    3.4249e-009     7.666e-009     
  -0.5            2.7462e-009     -4.621e-010     -1.4548e-008   
  -0.55           -1.4334e-009    3.2285e-009     9.376e-009     
  -0.6            2.7675e-009     -2.101e-010     -1.1709e-008   
  -0.65           -2.6164e-009    7e-011          8.911e-009     
  -0.7            1.8877e-009     -2.9029e-009    -1.4141e-008   
  -0.75           -1.8514e-009    1.2692e-009     1.6007e-008    
  -0.8            2.1692e-009     -1.3284e-009    -1.6462e-008   
  -0.85           -2.086e-009     1.0482e-009     1.4035e-008    
  -0.9            2.4011e-009     -1.2547e-009    -1.6414e-008   
  -0.95           -2.2885e-009    9.19e-011       1.2194e-008    
  -1              2.5792e-009     -4.9422e-009    -1.6086e-008   
  -1.05           -2.5528e-009    -2.1653e-008    -1.6247e-008   
  -1.1            1.9474e-009     -8.1508e-008    -1.6343e-008   
  -1.15           -5.776e-010     -2.7099e-007    9.157e-009     
  -1.2            1.5078e-009     -7.366e-007     -1.6969e-008   
  -1.25           -1.8152e-009    -1.644e-006     -9.656e-009    
  -1.3            1.7744e-009     -3.2937e-006    -1.6407e-008   
  -1.35           -2.4396e-009    -5.6849e-006    9.151e-009     
  -1.4            2.0555e-009     -9.2165e-006    -1.6459e-008   
  -1.45           4.011e-010      -1.3624e-005    -1.5829e-008   
  -1.5            -1.5779e-009    -1.9194e-005    1.5141e-008    
  -1.55           2.6155e-009     -2.6099e-005    -1.4488e-008   
  -1.6            -1.8331e-009    -3.3653e-005    1.3373e-008    
  -1.65           2.7165e-009     -4.2752e-005    -1.1442e-008   
  -1.7            -2.0716e-009    -5.2303e-005    1.1296e-008    
  -1.75           1.7117e-009     -6.3341e-005    -1.8632e-008   
  -1.8            8.069e-010      -7.4948e-005    9.174e-009     
END_DB

