! VERSION = 6.00
BEGIN_HEADER
 ICCAP_INPUTS
  VG         V  B GROUND SMU4 0.001 LIN        1    0          -1.8       37   -0.05     
  VS         V  E GROUND SMU2 0.1 CON        0
  VB         V  C GROUND SMU3 0.1 LIN        3    0          1.8        3    0.9       
  VD         V  S GROUND SMU1 0.1 LIN        2    -0.1       -1.8       2    -1.7      
 ICCAP_OUTPUTS
  IG         I  B GROUND SMU4 B
  ID         I  S GROUND SMU1 B
  IB         I  C GROUND SMU3 B
END_HEADER

BEGIN_DB
 ICCAP_VAR VS         0              
 ICCAP_VAR VB         0              
 ICCAP_VAR VD         -0.1           

 #VG              IG              ID              IB             
  0               1.0099e-009     9.607e-010      1.4573e-008    
  -0.05           1.1444e-009     2.2563e-009     -3.149e-009    
  -0.1            1.3016e-009     2.1111e-009     1.2133e-008    
  -0.15           -1.4394e-009    1.8372e-009     1.2626e-008    
  -0.2            -1.8291e-009    -1.3553e-009    8.485e-009     
  -0.25           1.8145e-009     -1.6744e-009    -1.4862e-008   
  -0.3            7.05e-010       2.2088e-009     -9.175e-009    
  -0.35           -1.3214e-009    8.911e-010      1.005e-008     
  -0.4            -2.7096e-009    -2.5187e-009    7.784e-009     
  -0.45           2.3223e-009     -6.3077e-009    -1.8889e-008   
  -0.5            -2.4193e-009    -1.9264e-008    -1.0878e-008   
  -0.55           1.437e-009      -6.3555e-008    -1.4496e-008   
  -0.6            -9.556e-010     -1.8336e-007    1.2046e-008    
  -0.65           2.294e-010      -5.2333e-007    -1.3644e-008   
  -0.7            1.9214e-009     -1.2858e-006    1.2722e-008    
  -0.75           1.3603e-009     -2.8292e-006    -8.652e-009    
  -0.8            2.8565e-009     -5.5896e-006    -9.136e-009    
  -0.85           2.7645e-009     -9.7819e-006    2.98e-010      
  -0.9            -1.5209e-009    -1.5534e-005    -3.68e-010     
  -0.95           -1.3431e-009    -2.2905e-005    7.606e-009     
  -1              -1.2917e-009    -3.1577e-005    8.752e-009     
  -1.05           -2.3299e-009    -4.1285e-005    9.136e-009     
  -1.1            2.123e-010      -5.2098e-005    -1.3447e-008   
  -1.15           1.4408e-009     -6.2953e-005    -2.1982e-008   
  -1.2            2.835e-009      -7.3993e-005    -8.669e-009    
  -1.25           2.0353e-009     -8.4951e-005    1.2348e-008    
  -1.3            8.923e-010      -9.5692e-005    1.0265e-008    
  -1.35           1.262e-009      -0.000106312    1.0256e-008    
  -1.4            2.8701e-009     -0.00011615     9.947e-009     
  -1.45           2.6501e-009     -0.00012573     -2.18e-010     
  -1.5            2.022e-009      -0.0001349      -2.514e-009    
  -1.55           1.4125e-009     -0.00014352     -7.945e-009    
  -1.6            2.8414e-009     -0.00015173     -8.959e-009    
  -1.65           2.0583e-009     -0.00015947     1.2308e-008    
  -1.7            9.105e-010      -0.00016673     1.0256e-008    
  -1.75           1.2808e-009     -0.00017382     1.0314e-008    
  -1.8            1.065e-010      -0.00018019     9.944e-009     
END_DB

BEGIN_DB
 ICCAP_VAR VS         0              
 ICCAP_VAR VB         0              
 ICCAP_VAR VD         -1.8           

 #VG              IG              ID              IB             
  0               8.19e-011       2.902e-010      9.817e-009     
  -0.05           2.5211e-009     -5.42e-010      -1.7359e-008   
  -0.1            1.1824e-009     2.1991e-009     -3.766e-009    
  -0.15           -2.273e-010     1.8833e-009     1.0461e-008    
  -0.2            -1.6029e-009    7.657e-010      2.3993e-008    
  -0.25           -2.5153e-009    -1.4327e-009    6.583e-009     
  -0.3            -3.332e-010     -3.3451e-009    -1.0506e-008   
  -0.35           -5.284e-010     -6.1968e-009    -1.06e-008     
  -0.4            2.6636e-009     -1.2368e-008    1.3368e-008    
  -0.45           6.649e-010      -4.2139e-008    1.0424e-008    
  -0.5            2.8394e-009     -1.3699e-007    -1.0637e-008   
  -0.55           1.2693e-009     -4.0266e-007    1.023e-008     
  -0.6            9.95e-011       -1.03286e-006   1.0117e-008    
  -0.65           -1.5621e-009    -2.4654e-006    -1.0872e-008   
  -0.7            -1.3558e-009    -5.3934e-006    7.054e-009     
  -0.75           -1.2917e-009    -1.07602e-005   8.972e-009     
  -0.8            1.3646e-009     -2.0052e-005    -2.6472e-008   
  -0.85           1.781e-010      -3.3088e-005    1.0105e-008    
  -0.9            6.314e-010      -5.1868e-005    1.0417e-008    
  -0.95           1.0024e-009     -7.6632e-005    1.0203e-008    
  -1              1.3966e-009     -0.000107363    1.1733e-008    
  -1.05           2.8387e-009     -0.00014257     1.0242e-008    
  -1.1            2.0308e-009     -0.00018457     1.2343e-008    
  -1.15           8.96e-010       -0.00023102     1.0445e-008    
  -1.2            1.2639e-009     -0.00028328     1.051e-008     
  -1.25           9.65e-011       -0.00033711     1.038e-008     
  -1.3            5.481e-010      -0.00039721     1.0175e-008    
  -1.35           9.417e-010      -0.0004608      1.0275e-008    
  -1.4            1.3112e-009     -0.000528       1.0701e-008    
  -1.45           1.7313e-009     -0.00059686     1.244e-008     
  -1.5            6.009e-010      -0.00066559     1.0271e-008    
  -1.55           9.819e-010      -0.00073933     1.0465e-008    
  -1.6            -2.09e-010      -0.00081279     1.2192e-008    
  -1.65           -1.4218e-009    -0.00088849     2.4399e-008    
  -1.7            -1.3181e-009    -0.00096594     8.729e-009     
  -1.75           -2.5571e-009    -0.00104416     7.729e-009     
  -1.8            -2.0387e-009    -0.00112387     8.09e-010      
END_DB

BEGIN_DB
 ICCAP_VAR VS         0              
 ICCAP_VAR VB         0.9            
 ICCAP_VAR VD         -0.1           

 #VG              IG              ID              IB             
  0               2.6701e-009     2.3524e-009     -1.7425e-008   
  -0.05           -4.86e-011      1.9942e-009     1.2099e-008    
  -0.1            1.173e-010      2.0823e-009     9.763e-009     
  -0.15           3.044e-010      2.1825e-009     1.024e-008     
  -0.2            4.884e-010      2.259e-009      1.0317e-008    
  -0.25           6.54e-010       2.328e-009      1.0205e-008    
  -0.3            8.155e-010      2.3481e-009     1.0027e-008    
  -0.35           9.615e-010      2.3341e-009     9.702e-009     
  -0.4            1.1029e-009     2.2657e-009     1.0756e-008    
  -0.45           1.2582e-009     2.1157e-009     1.0734e-008    
  -0.5            -1.543e-010     1.843e-009      1.0127e-008    
  -0.55           1.01e-011       1.5621e-009     9.883e-009     
  -0.6            -1.8926e-009    -2.6676e-009    9.826e-009     
  -0.65           -2.5264e-009    -9.3548e-009    -5.59e-009     
  -0.7            2.2008e-009     -3.422e-008     9.687e-009     
  -0.75           -1.1644e-009    -1.2136e-007    1.7053e-008    
  -0.8            1.2513e-009     -4.0023e-007    -2.6132e-008   
  -0.85           2.8548e-009     -1.11645e-006   -1.0062e-008   
  -0.9            1.798e-009      -2.6769e-006    8.786e-009     
  -0.95           6.668e-010      -5.4952e-006    1.0509e-008    
  -1              1.042e-009      -1.01606e-005   1.0158e-008    
  -1.05           -2.5712e-009    -1.6483e-005    9.723e-009     
  -1.1            -2.0657e-009    -2.4505e-005    6.18e-010      
  -1.15           1.2294e-009     -3.4116e-005    -2.6782e-008   
  -1.2            2.8372e-009     -4.4496e-005    -1.0837e-008   
  -1.25           3.517e-010      -5.5054e-005    9.783e-009     
  -1.3            7.857e-010      -6.617e-005     1.0297e-008    
  -1.35           1.1473e-009     -7.7287e-005    9.73e-009      
  -1.4            1.5548e-009     -8.7995e-005    1.2301e-008    
  -1.45           1.9779e-009     -9.8101e-005    1.2449e-008    
  -1.5            8.36e-010       -0.000107805    1.0691e-008    
  -1.55           2.7049e-009     -0.00011713     1.0644e-008    
  -1.6            1.7805e-009     -0.00012607     1.267e-008     
  -1.65           6.472e-010      -0.00013416     1.0415e-008    
  -1.7            1.0229e-009     -0.00014218     1.0141e-008    
  -1.75           1.4137e-009     -0.00014976     1.0274e-008    
  -1.8            2.525e-010      -0.00015653     9.834e-009     
END_DB

BEGIN_DB
 ICCAP_VAR VS         0              
 ICCAP_VAR VB         0.9            
 ICCAP_VAR VD         -1.8           

 #VG              IG              ID              IB             
  0               -1.3356e-009    -1.2672e-009    -8.684e-009    
  -0.05           -3.848e-010     -2.1981e-009    -1.0531e-008   
  -0.1            2.5505e-009     -1.3689e-009    -2.5002e-008   
  -0.15           1.1411e-009     2.2342e-009     -3.31e-009     
  -0.2            1.301e-009      2.0756e-009     1.0909e-008    
  -0.25           -1.4462e-009    1.8439e-009     1.2297e-008    
  -0.3            -1.8271e-009    -1.3439e-009    8.628e-009     
  -0.35           1.7728e-009     -1.6677e-009    -1.4657e-008   
  -0.4            7.056e-010      2.2222e-009     -8.789e-009    
  -0.45           -1.3261e-009    8.825e-010      1.0027e-008    
  -0.5            -2.7032e-009    -2.9014e-009    7.942e-009     
  -0.55           2.2608e-009     -8.9112e-009    -1.8956e-008   
  -0.6            -1.8417e-009    -3.232e-008     -1.9004e-008   
  -0.65           2.7149e-009     -1.1473e-007    -1.0647e-008   
  -0.7            1.4757e-009     -3.8906e-007    1.0404e-008    
  -0.75           2.208e-009      -1.1225e-006    1.2907e-008    
  -0.8            1.5352e-009     -2.9156e-006    -6.344e-009    
  -0.85           1.2394e-009     -6.6854e-006    -8.562e-009    
  -0.9            -2.325e-010     -1.3644e-005    7.79e-009      
  -0.95           -7.135e-010     -2.4874e-005    -1.0622e-008   
  -1              1.7226e-009     -4.1834e-005    -1.9368e-008   
  -1.05           1.2879e-009     -6.4633e-005    -8.738e-009    
  -1.1            2.8666e-009     -9.3738e-005    -9.433e-009    
  -1.15           2.6693e-009     -0.00012829     1.0722e-008    
  -1.2            1.7306e-009     -0.00017001     1.2519e-008    
  -1.25           6.013e-010      -0.00021473     1.0427e-008    
  -1.3            9.881e-010      -0.00026634     1.0463e-008    
  -1.35           1.3716e-009     -0.00032218     1.0378e-008    
  -1.4            1.793e-009      -0.00038105     1.2795e-008    
  -1.45           6.59e-010       -0.00044163     1.0455e-008    
  -1.5            1.0381e-009     -0.00050762     1.004e-008     
  -1.55           1.43e-009       -0.00057622     1.1634e-008    
  -1.6            2.791e-010      -0.00064364     9.966e-009     
  -1.65           7.221e-010      -0.00071588     1.0427e-008    
  -1.7            1.0916e-009     -0.00079042     9.958e-009     
  -1.75           1.4869e-009     -0.0008662      1.192e-008     
  -1.8            3.45e-010       -0.00093932     9.899e-009     
END_DB

BEGIN_DB
 ICCAP_VAR VS         0              
 ICCAP_VAR VB         1.8            
 ICCAP_VAR VD         -0.1           

 #VG              IG              ID              IB             
  0               -9.139e-010     -8.599e-010     -2.6674e-008   
  -0.05           -1.828e-009     -1.3345e-009    8.42e-009      
  -0.1            -5.763e-010     -2.252e-009     -1.0575e-008   
  -0.15           2.3409e-009     -6.699e-010     -1.8644e-008   
  -0.2            1.3005e-009     2.1082e-009     -5.412e-009    
  -0.25           1.4699e-009     1.8994e-009     1.269e-008     
  -0.3            5.34e-011       2.052e-009      9.717e-009     
  -0.35           2.327e-010      2.1519e-009     9.975e-009     
  -0.4            4.148e-010      2.2404e-009     1.0419e-008    
  -0.45           5.926e-010      2.3062e-009     1.0349e-008    
  -0.5            7.617e-010      2.3408e-009     1.0132e-008    
  -0.55           9.164e-010      2.3137e-009     9.774e-009     
  -0.6            -1.2954e-009    1.3964e-009     9.851e-009     
  -0.65           -2.3133e-009    -1.8144e-009    8.728e-009     
  -0.7            -7.88e-011      -5.195e-009     -1.0254e-008   
  -0.75           2.8505e-009     -1.2669e-008    2.0807e-008    
  -0.8            2.0666e-009     -5.4508e-008    1.2169e-008    
  -0.85           1.1073e-009     -2.0126e-007    -1.8774e-008   
  -0.9            1.5086e-009     -6.2652e-007    1.1806e-008    
  -0.95           -2.7181e-009    -1.6129e-006    -2.5919e-008   
  -1              2.4297e-009     -3.7147e-006    -2.6928e-008   
  -1.05           1.7219e-009     -7.3346e-006    -4.446e-009    
  -1.1            -1.6578e-009    -1.2685e-005    -8.9e-009      
  -1.15           2.1048e-009     -2.0162e-005    -1.7401e-008   
  -1.2            1.4553e-009     -2.8982e-005    -7.764e-009    
  -1.25           2.8215e-009     -3.8938e-005    -9.21e-009     
  -1.3            2.0163e-009     -4.9524e-005    1.2281e-008    
  -1.35           8.75e-010       -6.0303e-005    1.0258e-008    
  -1.4            1.2394e-009     -7.1317e-005    1.0161e-008    
  -1.45           7.29e-011       -8.1506e-005    1.0073e-008    
  -1.5            5.229e-010      -9.1742e-005    9.952e-009     
  -1.55           9.223e-010      -0.000101549    1.0256e-008    
  -1.6            1.2934e-009     -0.000110876    1.0506e-008    
  -1.65           2.8373e-009     -0.00011943     1.0133e-008    
  -1.7            2.0418e-009     -0.00012771     1.2286e-008    
  -1.75           8.926e-010      -0.00013549     1.0377e-008    
  -1.8            1.2612e-009     -0.00014295     1.0256e-008    
END_DB

BEGIN_DB
 ICCAP_VAR VS         0              
 ICCAP_VAR VB         1.8            
 ICCAP_VAR VD         -1.8           

 #VG              IG              ID              IB             
  0               -1.2775e-009    -1.1565e-009    -9.583e-009    
  -0.05           1.231e-010      -1.8722e-009    -1.0683e-008   
  -0.1            1.6093e-009     -9.815e-010     -2.3859e-008   
  -0.15           8.072e-010      2.3455e-009     -8.817e-009    
  -0.2            9.526e-010      2.3329e-009     9.874e-009     
  -0.25           1.0955e-009     2.272e-009      1.0709e-008    
  -0.3            1.2469e-009     2.1487e-009     1.192e-008     
  -0.35           -1.614e-010     1.9424e-009     9.981e-009     
  -0.4            -1.5266e-009    8.956e-010      2.4898e-008    
  -0.45           -1.7589e-009    -1.548e-009     7.546e-009     
  -0.5            2.0064e-009     -2.0364e-009    -1.7539e-008   
  -0.55           1.7006e-009     -1.4447e-009    -8.124e-009    
  -0.6            1.4741e-009     -8.104e-009     -9.092e-009    
  -0.65           -2.5063e-009    -3.5474e-008    -2.7033e-008   
  -0.7            2.4312e-009     -1.3173e-007    -1.3284e-008   
  -0.75           3.006e-010      -4.469e-007     9.658e-009     
  -0.8            -1.3473e-009    -1.3127e-006    -1.0302e-008   
  -0.85           -1.2928e-009    -3.3941e-006    8.762e-009     
  -0.9            -2.3412e-009    -7.733e-006     8.816e-009     
  -0.95           2.1707e-009     -1.5813e-005    -1.3067e-008   
  -1              1.0229e-009     -2.8666e-005    1.018e-008     
  -1.05           1.4133e-009     -4.7522e-005    1.1554e-008    
  -1.1            2.625e-010      -7.133e-005     9.887e-009     
  -1.15           7.071e-010      -0.000102522    1.0553e-008    
  -1.2            7.862e-010      -0.00013947     2.2904e-008    
  -1.25           1.1518e-009     -0.00018282     1.0004e-008    
  -1.3            -2.72e-011      -0.00022929     1.0468e-008    
  -1.35           4.191e-010      -0.00028161     9.858e-009     
  -1.4            8.41e-010       -0.00033877     1.0595e-008    
  -1.45           1.203e-009      -0.00039983     1.0053e-008    
  -1.5            2.41e-011       -0.0004611      1.0287e-008    
  -1.55           4.726e-010      -0.00052715     9.957e-009     
  -1.6            8.927e-010      -0.00059609     1.0738e-008    
  -1.65           1.2553e-009     -0.00066767     9.896e-009     
  -1.7            8.2e-011        -0.00073754     1.0058e-008    
  -1.75           5.355e-010      -0.00081165     1.0103e-008    
  -1.8            9.348e-010      -0.00088767     1.0588e-008    
END_DB

