! VERSION = 6.00
BEGIN_HEADER
 ICCAP_INPUTS
  VG         V  B GROUND SMU4 0.001 LIN        2    0          -1.8       6    -0.36     
  VS         V  E GROUND SMU2 0.1 CON        0
  VD         V  S GROUND SMU1 0.1 LIN        1    0          -1.8       37   -0.05     
  VB         V  C GROUND SMU3 0.1 LIN        3    0          0.9        2    0.9       
 ICCAP_OUTPUTS
  ID         I  S GROUND SMU1 B
  IB         I  C GROUND SMU3 B
  IG         I  B GROUND SMU4 B
END_HEADER

BEGIN_DB
 ICCAP_VAR VG         0              
 ICCAP_VAR VS         0              
 ICCAP_VAR VB         0              

 #VD              ID              IB              IG             
  0               -2.1988e-009    1.2817e-008     -2.1685e-009   
  -0.05           -2.226e-009     -1.0626e-008    -5.028e-010    
  -0.1            -6.003e-010     -1.7947e-008    2.4304e-009    
  -0.15           2.162e-009      -4.421e-009     1.2369e-009    
  -0.2            1.9384e-009     1.0097e-008     -1.654e-010    
  -0.25           9.109e-010      2.4911e-008     -1.5266e-009   
  -0.3            -1.4461e-009    7.411e-009      -1.7495e-009   
  -0.35           -2.2018e-009    -1.0619e-008    -4.182e-010    
  -0.4            -5.212e-010     -1.7186e-008    2.5327e-009    
  -0.45           2.2242e-009     -3.617e-009     1.1724e-009    
  -0.5            1.9045e-009     1.0362e-008     -2.28e-010     
  -0.55           1.9814e-009     9.89e-009       -7.64e-011     
  -0.6            2.0594e-009     9.756e-009      9.02e-011      
  -0.65           2.1706e-009     1.0032e-008     2.732e-010     
  -0.7            2.2542e-009     1.0418e-008     4.616e-010     
  -0.75           2.3212e-009     1.0322e-008     6.387e-010     
  -0.8            2.3465e-009     1.002e-008      8.024e-010     
  -0.85           2.3335e-009     9.658e-009      9.533e-010     
  -0.9            2.2643e-009     9.869e-009      1.0996e-009    
  -0.95           2.1378e-009     1.0678e-008     1.2547e-009    
  -1              1.9453e-009     1.008e-008      -1.616e-010    
  -1.05           9.23e-010       2.5218e-008     -1.5164e-009   
  -1.1            -1.4351e-009    7.732e-009      -1.7617e-009   
  -1.15           -2.2017e-009    -1.0681e-008    -4.371e-010    
  -1.2            -1.4043e-009    -2.5041e-008    2.5163e-009    
  -1.25           2.2149e-009     -3.409e-009     1.1767e-009    
  -1.3            1.9117e-009     1.0291e-008     -2.126e-010    
  -1.35           8.756e-010      2.4111e-008     -1.5878e-009   
  -1.4            -1.5114e-009    7.49e-009       -1.7121e-009   
  -1.45           -2.1803e-009    -1.0483e-008    -3.495e-010    
  -1.5            -1.3399e-009    -2.6049e-008    1.2345e-009    
  -1.55           4.08e-011       -1.0445e-008    2.8591e-009    
  -1.6            2.3055e-009     4.46e-010       5.805e-010     
  -1.65           2.3417e-009     1.0165e-008     7.654e-010     
  -1.7            2.3397e-009     9.83e-009       9.191e-010     
  -1.75           2.2914e-009     1.048e-008      1.0642e-009    
  -1.8            2.1779e-009     1.1644e-008     1.2144e-009    
END_DB

BEGIN_DB
 ICCAP_VAR VG         -0.36          
 ICCAP_VAR VS         0              
 ICCAP_VAR VB         0              

 #VD              ID              IB              IG             
  0               2.3311e-009     -1.4577e-008    2.4695e-009    
  -0.05           2.0822e-009     1.0308e-008     3.777e-010     
  -0.1            2.1246e-009     1.0349e-008     5.73e-010      
  -0.15           2.1454e-009     1.014e-008      7.432e-010     
  -0.2            1.1795e-009     9.946e-009      -1.3146e-009   
  -0.25           -1.3695e-009    7.703e-009      -2.1433e-009   
  -0.3            -2.1539e-009    -1.0676e-008    7.54e-011      
  -0.35           -1.2945e-009    -2.5043e-008    1.519e-009     
  -0.4            4.05e-011       -8.778e-009     1.3432e-009    
  -0.45           -9.35e-011      -9.158e-009     1.255e-009     
  -0.5            -2.343e-010     -9.925e-009     2.8493e-009    
  -0.55           1.6896e-009     1.286e-008      1.9e-012       
  -0.6            1.7703e-009     9.818e-009      1.751e-010     
  -0.65           1.8467e-009     1.0352e-008     3.636e-010     
  -0.7            1.9064e-009     1.0726e-008     5.557e-010     
  -0.75           8.341e-010      1.0383e-008     -1.3452e-009   
  -0.8            -1.613e-009     8.667e-009      -2.0013e-009   
  -0.85           -1.6939e-009    -2.7078e-008    1.299e-009     
  -0.9            -3.417e-010     -9.499e-009     2.8144e-009    
  -0.95           1.4709e-009     1.2273e-008     -7.65e-011     
  -1              1.5355e-009     9.743e-009      9.23e-011      
  -1.05           1.6088e-009     1.0034e-008     2.809e-010     
  -1.1            4.525e-010      1.0342e-008     -1.412e-009    
  -1.15           -1.6656e-009    8.72e-009       -2.6754e-009   
  -1.2            -2.896e-009     -1.0962e-008    -6.523e-010    
  -1.25           -1.4223e-009    -1.9182e-008    2.2181e-009    
  -1.3            -1.443e-010     -6.161e-009     1.89e-009      
  -1.35           -2.836e-010     -8.639e-009     1.6159e-009    
  -1.4            -4.339e-010     -9.005e-009     1.4214e-009    
  -1.45           -5.902e-010     -8.776e-009     1.2977e-009    
  -1.5            -7.509e-010     -9.421e-009     2.8121e-009    
  -1.55           1.0433e-009     1.2289e-008     -8.73e-011     
  -1.6            1.0815e-009     9.762e-009      8.3e-011       
  -1.65           -1.139e-010     9.988e-009      -1.5189e-009   
  -1.7            -2.149e-009     7.641e-009      -2.5809e-009   
  -1.75           -3.3294e-009    -1.0567e-008    -4.427e-010    
  -1.8            -1.7779e-009    -1.7586e-008    2.5008e-009    
END_DB

BEGIN_DB
 ICCAP_VAR VG         -0.72          
 ICCAP_VAR VS         0              
 ICCAP_VAR VB         0              

 #VD              ID              IB              IG             
  0               -1.8383e-010    -9.133e-009     1.4537e-009    
  -0.05           -6.8572e-007    9.883e-009      -2.4546e-009   
  -0.1            -9.4797e-007    1.0188e-008     3.19e-011      
  -0.15           -1.11268e-006   -1.6059e-008    2.4986e-009    
  -0.2            -1.2046e-006    1.0692e-008     2.8661e-009    
  -0.25           -1.2947e-006    -1.587e-008     1.5087e-009    
  -0.3            -1.376e-006     -1.5353e-008    1.4799e-009    
  -0.35           -1.4548e-006    -1.4803e-008    1.4578e-009    
  -0.4            -1.5303e-006    -1.4343e-008    1.4292e-009    
  -0.45           -1.6075e-006    -1.3892e-008    1.4024e-009    
  -0.5            -1.6828e-006    -1.3598e-008    2.249e-010     
  -0.55           -1.7007e-006    8.725e-009      -1.2937e-009   
  -0.6            -1.7818e-006    2.1168e-008     -1.2807e-009   
  -0.65           -1.91e-006      1.1181e-008     1.5685e-009    
  -0.7            -1.9834e-006    -1.4075e-008    2.6949e-009    
  -0.75           -2.0617e-006    -1.1408e-008    4.84e-011      
  -0.8            -2.0716e-006    7.62e-009       -2.5579e-009   
  -0.85           -2.2161e-006    1.0258e-008     1.4033e-009    
  -0.9            -2.2829e-006    -2.6027e-008    2.2607e-009    
  -0.95           -2.3679e-006    -1.8073e-008    2.0102e-009    
  -1              -2.4391e-006    -2.3072e-008    1.9606e-009    
  -1.05           -2.5233e-006    -2.2644e-008    1.9218e-009    
  -1.1            -2.6065e-006    -2.2011e-008    1.8741e-009    
  -1.15           -2.6691e-006    -1.0224e-008    -5.381e-010    
  -1.2            -2.7224e-006    1.4876e-008     -1.8516e-009   
  -1.25           -2.8568e-006    1.3017e-008     1.9463e-009    
  -1.3            -2.9708e-006    -1.4142e-008    1.4247e-009    
  -1.35           -3.061e-006     -1.3971e-008    1.401e-009     
  -1.4            -3.1557e-006    -1.3586e-008    2.256e-010     
  -1.45           -3.1544e-006    8.778e-009      -1.2934e-009   
  -1.5            -3.349e-006     1.0249e-008     1.4258e-009    
  -1.55           -3.4388e-006    -1.1841e-008    2.8027e-009    
  -1.6            -3.542e-006     -1.2458e-008    1.686e-010     
  -1.65           -3.5334e-006    8.574e-009      -1.2854e-009   
  -1.7            -3.7505e-006    1.0767e-008     1.5032e-009    
  -1.75           -3.8487e-006    -1.2862e-008    2.7561e-009    
  -1.8            -3.9554e-006    -1.1856e-008    1.032e-010     
END_DB

BEGIN_DB
 ICCAP_VAR VG         -1.08          
 ICCAP_VAR VS         0              
 ICCAP_VAR VB         0              

 #VD              ID              IB              IG             
  0               -2.0407e-008    -2.2076e-008    2.8512e-009    
  -0.05           -2.2771e-005    1.0705e-008     -2.2574e-009   
  -0.1            -4.0123e-005    1.2769e-008     2.0183e-009    
  -0.15           -5.2865e-005    -2.1613e-008    1.4721e-009    
  -0.2            -6.2086e-005    -2.675e-008     2.4052e-009    
  -0.25           -6.8756e-005    -1.0304e-008    -5.982e-010    
  -0.3            -7.3546e-005    2.3724e-008     -1.43e-009     
  -0.35           -7.8344e-005    9.946e-009      1.1404e-009    
  -0.4            -8.183e-005     -1.2905e-008    2.751e-009     
  -0.45           -8.4563e-005    -1.0376e-008    -2.55e-010     
  -0.5            -8.6601e-005    1.7843e-008     -1.6724e-009   
  -0.55           -8.9443e-005    1.03e-008       8.879e-010     
  -0.6            -9.1935e-005    -2.7125e-008    1.2167e-009    
  -0.65           -9.3804e-005    -1.007e-008     -4.888e-010    
  -0.7            -9.5277e-005    2.1969e-008     -1.4874e-009   
  -0.75           -9.7945e-005    1.0024e-008     1.0589e-009    
  -0.8            -9.9754e-005    -2.5882e-008    2.2344e-009    
  -0.85           -0.000101232    -1.0631e-008    -7.22e-010     
  -0.9            -0.000102574    2.5277e-008     -1.388e-009    
  -0.95           -0.000105392    1.0134e-008     1.2351e-009    
  -1              -0.000107005    -1.4625e-008    2.6577e-009    
  -1.05           -0.000108562    -1.887e-008     1.8517e-009    
  -1.1            -0.000110289    -1.3095e-008    1.967e-010     
  -1.15           -0.00011082     8.521e-009      -2.3676e-009   
  -1.2            -0.000113452    1.255e-008      1.9576e-009    
  -1.25           -0.00011395     -2.0674e-008    -2.5645e-009   
  -1.3            -0.000117       1.0979e-008     1.5078e-009    
  -1.35           -0.00011832     -1.4839e-008    2.633e-009     
  -1.4            -0.0001196      -2.6979e-008    2.4426e-009    
  -1.45           -0.00012129     -1.822e-008     1.9798e-009    
  -1.5            -0.00012261     -1.9898e-008    1.7325e-009    
  -1.55           -0.00012372     -1.0804e-008    -7.785e-010    
  -1.6            -0.00012487     2.1968e-008     -1.484e-009    
  -1.65           -0.00012688     1.0797e-008     8.38e-010      
  -1.7            -0.00012895     -2.3676e-008    1.3548e-009    
  -1.75           -0.00013038     -2.6628e-008    2.5822e-009    
  -1.8            -0.00013186     -1.7125e-008    2.1668e-009    
END_DB

BEGIN_DB
 ICCAP_VAR VG         -1.44          
 ICCAP_VAR VS         0              
 ICCAP_VAR VB         0              

 #VD              ID              IB              IG             
  0               -3.3996e-008    -2.6726e-008    -9.603e-010    
  -0.05           -5.8207e-005    -4.813e-009     2.6855e-009    
  -0.1            -0.000110882    -1.8905e-008    1.9027e-009    
  -0.15           -0.00015759     -2.1234e-008    -1.6268e-009   
  -0.2            -0.00019922     1.9807e-008     -1.6433e-009   
  -0.25           -0.00023544     1.0457e-008     6.946e-010     
  -0.3            -0.00026677     -2.1109e-008    1.5054e-009    
  -0.35           -0.00029285     -1.3392e-008    2.024e-010     
  -0.4            -0.00031371     8e-009          -2.6101e-009   
  -0.45           -0.00033381     1.0626e-008     1.4492e-009    
  -0.5            -0.00034899     -1.4256e-008    2.695e-009     
  -0.55           -0.00036182     -2.6918e-008    2.5202e-009    
  -0.6            -0.00037304     -1.7749e-008    2.0896e-009    
  -0.65           -0.00038277     -2.1289e-008    1.8192e-009    
  -0.7            -0.00039152     -1.7303e-008    1.5909e-009    
  -0.75           -0.00039942     -1.4309e-008    1.4076e-009    
  -0.8            -0.0004054      -1.0779e-008    -9.895e-010    
  -0.85           -0.00041156     2.595e-008      -1.3702e-009   
  -0.9            -0.00041899     1.0176e-008     1.0645e-009    
  -0.95           -0.00042472     -2.6693e-008    2.5975e-009    
  -1              -0.00043007     -1.7149e-008    2.1884e-009    
  -1.05           -0.00043506     -2.2772e-008    1.9187e-009    
  -1.1            -0.00044002     -1.9018e-008    1.6757e-009    
  -1.15           -0.00044495     -1.534e-008     1.4695e-009    
  -1.2            -0.00044975     -1.2872e-008    1.801e-010     
  -1.25           -0.00045233     7.785e-009      -2.5911e-009   
  -1.3            -0.00045928     1.0732e-008     1.4826e-009    
  -1.35           -0.00046295     -1.445e-008     2.6623e-009    
  -1.4            -0.00046687     -2.6976e-008    2.4722e-009    
  -1.45           -0.00047076     -1.7976e-008    2.0254e-009    
  -1.5            -0.00047418     -1.0291e-008    -5.746e-010    
  -1.55           -0.00047725     1.8414e-008     -1.6354e-009   
  -1.6            -0.00048166     1.036e-008      6.958e-010     
  -1.65           -0.00048653     -2.121e-008     1.511e-009     
  -1.7            -0.00049031     -1.3259e-008    2.052e-010     
  -1.75           -0.00049211     8.065e-009      -2.6192e-009   
  -1.8            -0.00049849     1.1919e-008     1.4476e-009    
END_DB

BEGIN_DB
 ICCAP_VAR VG         -1.8           
 ICCAP_VAR VS         0              
 ICCAP_VAR VB         0              

 #VD              ID              IB              IG             
  0               -4.7254e-008    -9.119e-009     -1.3994e-009   
  -0.05           -8.3259e-005    -2.6304e-008    1.539e-009     
  -0.1            -0.0001623      -1.9989e-008    -1.6459e-009   
  -0.15           -0.00023738     1.8939e-008     -1.6082e-009   
  -0.2            -0.00030821     1.0321e-008     7.262e-010     
  -0.25           -0.00037469     -2.1891e-008    1.4782e-009    
  -0.3            -0.00043616     -2.5414e-008    1.2721e-009    
  -0.35           -0.00049275     -1.1003e-008    -3.39e-011     
  -0.4            -0.00054359     9.086e-009      -2.2954e-009   
  -0.45           -0.00059153     1.2704e-008     1.7617e-009    
  -0.5            -0.00063317     -1.5449e-008    1.5005e-009    
  -0.55           -0.0006707      -1.3251e-008    1.921e-010     
  -0.6            -0.00070244     7.904e-009      -2.5923e-009   
  -0.65           -0.00073368     1.1745e-008     1.4736e-009    
  -0.7            -0.00075905     -1.4352e-008    2.6568e-009    
  -0.75           -0.00078156     -2.6864e-008    2.473e-009     
  -0.8            -0.0008016      -1.0399e-008    -2.559e-010    
  -0.85           -0.00081768     1.2413e-008     -2.0183e-009   
  -0.9            -0.00083557     1.2501e-008     1.9592e-009    
  -0.95           -0.00084979     -1.2475e-008    1.546e-010     
  -1              -0.00086055     7.535e-009      -2.556e-009    
  -1.05           -0.00087496     1.2016e-008     1.5159e-009    
  -1.1            -0.0008845      -2.0959e-008    1.8497e-009    
  -1.15           -0.00089408     -1.0494e-008    -7.054e-010    
  -1.2            -0.00090227     2.0827e-008     -1.5425e-009   
  -1.25           -0.00091231     1.0367e-008     7.933e-010     
  -1.3            -0.00092142     -2.3101e-008    1.4135e-009    
  -1.35           -0.00092957     -2.5931e-008    1.2415e-009    
  -1.4            -0.00093694     -1.7905e-008    2.0451e-009    
  -1.45           -0.0009437      -1.0167e-008    -5.766e-010    
  -1.5            -0.00094951     1.841e-008      -1.653e-009    
  -1.55           -0.00095706     1.0292e-008     6.858e-010     
  -1.6            -0.00096481     -2.1188e-008    1.5331e-009    
  -1.65           -0.00097127     -1.3583e-008    2.115e-010     
  -1.7            -0.00097534     8.037e-009      -2.6081e-009   
  -1.75           -0.00098451     1.1644e-008     1.4453e-009    
  -1.8            -0.00098977     -1.3922e-008    2.6838e-009    
END_DB

BEGIN_DB
 ICCAP_VAR VG         0              
 ICCAP_VAR VS         0              
 ICCAP_VAR VB         0.9            

 #VD              ID              IB              IG             
  0               9.65e-010       1.2604e-008     1.0325e-009    
  -0.05           2.243e-009      -3.092e-009     1.1319e-009    
  -0.1            2.0916e-009     1.217e-008      1.3015e-009    
  -0.15           1.8413e-009     1.2711e-008     -1.4288e-009   
  -0.2            -1.3188e-009    8.606e-009      -1.8436e-009   
  -0.25           -1.6508e-009    -1.41e-008      1.7307e-009    
  -0.3            2.3371e-009     -9.011e-009     7.466e-010     
  -0.35           2.3326e-009     9.892e-009      9.097e-010     
  -0.4            2.2791e-009     1.0265e-008     1.0615e-009    
  -0.45           2.1655e-009     1.1638e-008     1.2235e-009    
  -0.5            1.931e-009      1.0113e-008     -1.756e-010    
  -0.55           9.092e-010      2.4578e-008     -1.5379e-009   
  -0.6            -1.4477e-009    7.638e-009      -1.7627e-009   
  -0.65           -2.212e-009     -1.0678e-008    -4.361e-010    
  -0.7            -5.529e-010     -1.777e-008     2.5001e-009    
  -0.75           2.1895e-009     -3.902e-009     1.2077e-009    
  -0.8            1.9255e-009     1.0157e-008     -1.912e-010    
  -0.85           8.979e-010      2.454e-008      -1.55e-009     
  -0.9            -1.4643e-009    7.542e-009      -1.7485e-009   
  -0.95           -2.2062e-009    -1.0645e-008    -4.21e-010     
  -1              -5.287e-010     -1.7769e-008    2.5139e-009    
  -1.05           2.2027e-009     -3.757e-009     1.1927e-009    
  -1.1            1.9165e-009     1.0233e-008     -2.004e-010    
  -1.15           1.9979e-009     9.701e-009      -3.55e-011     
  -1.2            2.096e-009      9.732e-009      1.385e-010     
  -1.25           2.2018e-009     1.0272e-008     3.336e-010     
  -1.3            2.2803e-009     1.0435e-008     5.3e-010       
  -1.35           2.3324e-009     1.0238e-008     7.136e-010     
  -1.4            2.3334e-009     9.867e-009      8.797e-010     
  -1.45           2.2932e-009     1.0122e-008     1.0318e-009    
  -1.5            2.188e-009      1.1417e-008     1.1918e-009    
  -1.55           1.9153e-009     1.0208e-008     -2.046e-010    
  -1.6            8.904e-010      2.4272e-008     -1.5635e-009   
  -1.65           -1.4771e-009    7.362e-009      -1.7372e-009   
  -1.7            -1.5838e-009    -1.8051e-008    2.0399e-009    
  -1.75           2.2908e-009     -7.97e-009      5.611e-010     
  -1.8            2.3341e-009     1.041e-008      7.429e-010     
END_DB

BEGIN_DB
 ICCAP_VAR VG         -0.36          
 ICCAP_VAR VS         0              
 ICCAP_VAR VB         0.9            

 #VD              ID              IB              IG             
  0               3.451e-010      1.0322e-008     1.417e-010     
  -0.05           -4.78e-010      -1.7279e-008    2.5884e-009    
  -0.1            2.2365e-009     -3.045e-009     1.1346e-009    
  -0.15           1.8922e-009     1.0419e-008     -1.3963e-009   
  -0.2            -2.1869e-009    8.756e-009      -1.0911e-009   
  -0.25           -1.0675e-009    -2.5016e-008    1.4515e-009    
  -0.3            2.3315e-009     -8.737e-009     9.214e-010     
  -0.35           2.2691e-009     1.064e-008      1.0566e-009    
  -0.4            2.1425e-009     1.2066e-008     1.2166e-009    
  -0.45           1.9438e-009     1.2363e-008     1.4084e-009    
  -0.5            2.0299e-009     9.758e-009      2.85e-011      
  -0.55           2.1382e-009     1.0009e-008     2.197e-010     
