! VERSION = 6.00
BEGIN_HEADER
 ICCAP_INPUTS
  VG         V  B GROUND SMU4 0.001 LIN        1    0          -1.8       37   -0.05     
  VS         V  E GROUND SMU2 0.1 CON        0
  VB         V  C GROUND SMU3 0.1 LIN        3    0          1.8        3    0.9       
  VD         V  S GROUND SMU1 0.1 LIN        2    -0.1       -1.8       2    -1.7      
 ICCAP_OUTPUTS
  IG         I  B GROUND SMU4 B
  ID         I  S GROUND SMU1 B
  IB         I  C GROUND SMU3 B
END_HEADER

BEGIN_DB
 ICCAP_VAR VS         0              
 ICCAP_VAR VB         0              
 ICCAP_VAR VD         -0.1           

 #VG              IG              ID              IB             
  0               1.9918e-009     2.16e-009       9.87e-010      
  -0.05           6.634e-010      2.3365e-009     1.0548e-008    
  -0.1            8.345e-010      2.317e-009      1.0342e-008    
  -0.15           9.931e-010      2.2191e-009     1.0064e-008    
  -0.2            -1.2905e-009    1.3712e-009     1.0974e-008    
  -0.25           -2.4853e-009    -1.6927e-009    1.0965e-008    
  -0.3            -2.2767e-009    -3.2479e-009    1.266e-009     
  -0.35           1.6033e-009     -8.3971e-009    -1.2952e-008   
  -0.4            -1.3199e-009    -1.6788e-008    -1.0394e-008   
  -0.45           -2.5339e-009    -3.39e-008      7.809e-009     
  -0.5            -1.9838e-009    -6.3667e-008    8.34e-010      
  -0.55           2.4644e-009     -1.11242e-007   -2.6937e-008   
  -0.6            -8.972e-010     -1.853e-007     1.1801e-008    
  -0.65           1.414e-009      -3.045e-007     -1.4181e-008   
  -0.7            2.8531e-009     -4.7881e-007    -8.894e-009    
  -0.75           2.0962e-009     -7.2471e-007    1.2783e-008    
  -0.8            9.266e-010      -1.05048e-006   1.0668e-008    
  -0.85           -2.5161e-009    -1.4438e-006    -2.0281e-008   
  -0.9            -5.595e-010     -1.9032e-006    -1.0405e-008   
  -0.95           1.8607e-009     -2.4128e-006    -1.9478e-008   
  -1              1.3317e-009     -2.9517e-006    -8.77e-009     
  -1.05           2.8685e-009     -3.5224e-006    -9.299e-009    
  -1.1            2.6943e-009     -4.105e-006     2.13e-010      
  -1.15           1.4808e-009     -4.7157e-006    1.1468e-008    
  -1.2            3.225e-010      -5.2949e-006    9.675e-009     
  -1.25           7.638e-010      -5.8964e-006    1.0366e-008    
  -1.3            1.1518e-009     -6.4902e-006    1.0172e-008    
  -1.35           1.5689e-009     -7.063e-006     1.1949e-008    
  -1.4            2.0074e-009     -7.6084e-006    1.24e-008      
  -1.45           8.397e-010      -8.1342e-006    1.0423e-008    
  -1.5            1.2235e-009     -8.65e-006      1.0099e-008    
  -1.55           4.96e-011       -9.1234e-006    1.007e-008     
  -1.6            4.985e-010      -9.5917e-006    9.8e-009       
  -1.65           9.157e-010      -1.00416e-005   1.0366e-008    
  -1.7            1.3072e-009     -1.04735e-005   1.0444e-008    
  -1.75           1.301e-010      -1.08677e-005   9.915e-009     
  -1.8            5.83e-010       -1.12582e-005   1.0136e-008    
END_DB

BEGIN_DB
 ICCAP_VAR VS         0              
 ICCAP_VAR VB         0              
 ICCAP_VAR VD         -1.8           

 #VG              IG              ID              IB             
  0               -9.808e-010     -9.119e-010     -1.0958e-008   
  -0.05           -1.7548e-009    -1.4564e-009    7.4e-009       
  -0.1            -4.057e-010     -2.298e-009     -1.0707e-008   
  -0.15           2.4905e-009     -7.983e-010     -1.7903e-008   
  -0.2            2.2084e-009     -2.4e-010       -3.434e-009    
  -0.25           1.9093e-009     -2.1957e-009    -5.874e-009    
  -0.3            1.6249e-009     -7.4947e-009    -8.604e-009    
  -0.35           -2.5879e-009    -2.1568e-008    -2.6047e-008   
  -0.4            -2.1019e-009    -4.8944e-008    5.37e-010      
  -0.45           8.99e-011       -1.04003e-007   -1.146e-008    
  -0.5            2.7986e-009     -1.9581e-007    -1.0369e-008   
  -0.55           8.359e-010      -3.5479e-007    1.0802e-008    
  -0.6            1.2219e-009     -6.1672e-007    9.858e-009     
  -0.65           4.92e-011       -1.00722e-006   1.0011e-008    
  -0.7            -2.6805e-009    -1.6072e-006    -2.6657e-008   
  -0.75           -2.898e-010     -2.4638e-006    -1.0295e-008   
  -0.8            -7.686e-010     -3.5742e-006    -1.0829e-008   
  -0.85           1.5753e-009     -5.0308e-006    -1.7417e-008   
  -0.9            1.2329e-009     -6.7756e-006    -8.909e-009    
  -0.95           2.8354e-009     -8.8518e-006    -9.998e-009    
  -1              1.2544e-009     -1.12271e-005   1.0047e-008    
  -1.05           -2.3634e-009    -1.3834e-005    9.867e-009     
  -1.1            -3.811e-010     -1.6799e-005    -1.0284e-008   
  -1.15           2.1458e-009     -2.004e-005     -1.776e-008    
  -1.2            1.4648e-009     -2.3489e-005    -6.75e-009     
  -1.25           2.8335e-009     -2.7171e-005    -8.766e-009    
  -1.3            2.0397e-009     -3.1052e-005    1.2812e-008    
  -1.35           8.745e-010      -3.509e-005     1.0812e-008    
  -1.4            1.263e-009      -3.9389e-005    1.0164e-008    
  -1.45           8.99e-011       -4.3621e-005    9.899e-009     
  -1.5            5.449e-010      -4.8154e-005    9.971e-009     
  -1.55           9.512e-010      -5.2823e-005    1.0331e-008    
  -1.6            1.3504e-009     -5.7625e-005    1.0707e-008    
  -1.65           1.7915e-009     -6.2436e-005    1.2312e-008    
  -1.7            6.301e-010      -6.7206e-005    1.0345e-008    
  -1.75           1.031e-009      -7.2227e-005    1.0322e-008    
  -1.8            1.4371e-009     -7.726e-005     1.1283e-008    
END_DB

BEGIN_DB
 ICCAP_VAR VS         0              
 ICCAP_VAR VB         0.9            
 ICCAP_VAR VD         -0.1           

 #VG              IG              ID              IB             
  0               1.0877e-009     1.0011e-009     8.592e-009     
  -0.05           1.1334e-009     2.2286e-009     9.933e-009     
  -0.1            1.3058e-009     2.0715e-009     1.0767e-008    
  -0.15           -1.048e-010     1.9949e-009     9.988e-009     
  -0.2            -1.4734e-009    9.751e-010      2.6048e-008    
  -0.25           -1.8179e-009    -1.3536e-009    8.222e-009     
  -0.3            1.8227e-009     -1.6331e-009    -1.522e-008    
  -0.35           6.713e-010      2.2701e-009     -8.905e-009    
  -0.4            -1.3262e-009    1.1194e-009     1.0224e-008    
  -0.45           -2.6989e-009    -1.8151e-009    8.143e-009     
  -0.5            6.7e-012        -4.7936e-009    -1.0497e-008   
  -0.55           1.4131e-009     -9.3973e-009    -2.584e-008    
  -0.6            -1.3089e-009    -2.1615e-008    -1.0256e-008   
  -0.65           -2.4746e-009    -4.7146e-008    7.907e-009     
  -0.7            1.4746e-009     -9.7685e-008    -1.5527e-008   
  -0.75           -1.4974e-009    -1.8104e-007    2.4014e-008    
  -0.8            -3.362e-010     -3.2295e-007    -1.0294e-008   
  -0.85           2.2111e-009     -5.3926e-007    -2.6027e-008   
  -0.9            1.5043e-009     -8.3897e-007    -6.178e-009    
  -0.95           2.8498e-009     -1.2216e-006    2.6451e-008    
  -1              2.0912e-009     -1.6857e-006    1.2842e-008    
  -1.05           9.302e-010      -2.2076e-006    1.0713e-008    
  -1.1            1.3277e-009     -2.7847e-006    9.92e-009      
  -1.15           1.593e-010      -3.3624e-006    9.773e-009     
  -1.2            6.157e-010      -3.9796e-006    1.0354e-008    
  -1.25           1.0225e-009     -4.6015e-006    1.0519e-008    
  -1.3            1.4352e-009     -5.2203e-006    1.0119e-008    
  -1.35           2.707e-010      -5.799e-006     9.616e-009     
  -1.4            7.227e-010      -6.3843e-006    1.0563e-008    
  -1.45           1.1151e-009     -6.9505e-006    1.0268e-008    
  -1.5            1.5339e-009     -7.4889e-006    1.0665e-008    
  -1.55           3.771e-010      -7.9854e-006    9.561e-009     
  -1.6            8.182e-010      -8.481e-006     1.0302e-008    
  -1.65           1.2119e-009     -8.9548e-006    1.0005e-008    
  -1.7            4.06e-011       -9.3912e-006    1e-008         
  -1.75           4.893e-010      -9.8179e-006    9.624e-009     
  -1.8            9.155e-010      -1.02277e-005   1.0509e-008    
END_DB

BEGIN_DB
 ICCAP_VAR VS         0              
 ICCAP_VAR VB         0.9            
 ICCAP_VAR VD         -1.8           

 #VG              IG              ID              IB             
  0               7.776e-010      8.132e-010      2.6363e-008    
  -0.05           9.42e-010       2.3214e-009     -8.888e-009    
  -0.1            1.1141e-009     2.2487e-009     1.0041e-008    
  -0.15           1.2888e-009     2.1157e-009     1.0733e-008    
  -0.2            -1.192e-010     1.9725e-009     9.744e-009     
  -0.25           -1.4823e-009    9.183e-010      2.5678e-008    
  -0.3            -1.8118e-009    -1.5423e-009    8.108e-009     
  -0.35           -5.016e-010     -2.8864e-009    -1.0888e-008   
  -0.4            2.3746e-009     -2.9667e-009    -1.9111e-008   
  -0.45           2.0414e-009     -6.9723e-009    -4.81e-009     
  -0.5            -1.5126e-009    -2.2507e-008    -1.3556e-008   
  -0.55           -1.3362e-009    -5.4677e-008    7.68e-009      
  -0.6            1.8445e-009     -1.2016e-007    -2.7079e-008   
  -0.65           7.028e-010      -2.4392e-007    1.0454e-008    
  -0.7            1.1027e-009     -4.6227e-007    1.0399e-008    
  -0.75           1.5239e-009     -8.2346e-007    1.1842e-008    
  -0.8            -1.3355e-009    -1.3652e-006    -1.0294e-008   
  -0.85           -1.288e-009     -2.1874e-006    8.687e-009     
  -0.9            -2.2482e-009    -3.3236e-006    1.0721e-008    
  -0.95           1.544e-010      -4.8522e-006    -1.2426e-008   
  -1              -2.362e-010     -6.6665e-006    -1.0194e-008   
  -1.05           -7.255e-010     -8.8123e-006    -1.0682e-008   
  -1.1            1.6311e-009     -1.13428e-005   -1.8395e-008   
  -1.15           -2.7202e-009    -1.4085e-005    1.0603e-008    
  -1.2            -9.627e-010     -1.7151e-005    -1.1076e-008   
  -1.25           1.985e-010      -2.057e-005     -1.2973e-008   
  -1.3            -1.813e-010     -2.4131e-005    -1.0349e-008   
  -1.35           -6.675e-010     -2.7875e-005    -1.0522e-008   
  -1.4            1.701e-009      -3.1896e-005    -1.9716e-008   
  -1.45           1.2649e-009     -3.6051e-005    -9.037e-009    
  -1.5            2.8491e-009     -4.0365e-005    -9.719e-009    
  -1.55           2.5763e-009     -4.4753e-005    -1.48e-010     
  -1.6            1.9018e-009     -4.9326e-005    -2.775e-009    
  -1.65           1.3413e-009     -5.3987e-005    -8.531e-009    
  -1.7            2.8598e-009     -5.8746e-005    -9.152e-009    
  -1.75           2.712e-009      -6.3544e-005    2.97e-010      
  -1.8            1.4969e-009     -6.8552e-005    1.1711e-008    
END_DB

BEGIN_DB
 ICCAP_VAR VS         0              
 ICCAP_VAR VB         1.8            
 ICCAP_VAR VD         -0.1           

 #VG              IG              ID              IB             
  0               -7.233e-010     -7.678e-010     -2.669e-008    
  -0.05           -1.2291e-009    -2.063e-009     8.972e-009     
  -0.1            1.3091e-009     -1.1731e-009    -2.6924e-008   
  -0.15           1.0757e-009     2.2749e-009     -9.424e-009    
  -0.2            1.2425e-009     2.1378e-009     1.1684e-008    
  -0.25           -1.618e-010     1.9624e-009     1.0102e-008    
  -0.3            1e-011          2.0418e-009     9.761e-009     
  -0.35           1.911e-010      2.148e-009      9.684e-009     
  -0.4            3.863e-010      2.2297e-009     1.0186e-008    
  -0.45           5.764e-010      2.2502e-009     1.0146e-008    
  -0.5            -1.3354e-009    1.0276e-009     1.0259e-008    
  -0.55           -2.7184e-009    -1.9942e-009    8.629e-009     
  -0.6            7.32e-011       -5.5397e-009    -1.0695e-008   
  -0.65           -1.4831e-009    -1.0951e-008    -4.788e-009    
  -0.7            -1.334e-009     -2.9968e-008    8.07e-009      
  -0.75           -1.2808e-009    -6.767e-008     8.595e-009     
  -0.8            2.3611e-009     -1.3989e-007    -1.6139e-008   
  -0.85           1.2485e-009     -2.702e-007     1.0079e-008    
  -0.9            8.14e-011       -4.7116e-007    1.0095e-008    
  -0.95           5.329e-010      -7.6611e-007    9.849e-009     
  -1              -1.9141e-009    -1.1483e-006    -1.2752e-008   
  -1.05           -2.6797e-009    -1.6166e-006    -5.463e-009    
  -1.1            1.432e-010      -2.1598e-006    -1.2279e-008   
  -1.15           -2.53e-010      -2.734e-006     -1.0417e-008   
  -1.2            -7.385e-010     -3.3346e-006    -1.0628e-008   
  -1.25           1.6178e-009     -3.9617e-006    -1.7997e-008   
  -1.3            1.2448e-009     -4.5781e-006    -9.009e-009    
  -1.35           2.8458e-009     -5.1902e-006    -1.0032e-008   
  -1.4            1.2328e-009     -5.7844e-006    1.0085e-008    
  -1.45           7.38e-011       -6.3411e-006    1.0123e-008    
  -1.5            5.241e-010      -6.8947e-006    9.862e-009     
  -1.55           9.449e-010      -7.4286e-006    1.0169e-008    
  -1.6            1.3378e-009     -7.9405e-006    1.0743e-008    
  -1.65           1.7698e-009     -8.4204e-006    1.2388e-008    
  -1.7            6.289e-010      -8.8691e-006    1.0151e-008    
  -1.75           1.0343e-009     -9.3122e-006    1.0192e-008    
  -1.8            -1.447e-010     -9.7264e-006    1.1053e-008    
END_DB

BEGIN_DB
 ICCAP_VAR VS         0              
 ICCAP_VAR VB         1.8            
 ICCAP_VAR VD         -1.8           

 #VG              IG              ID              IB             
  0               1.3966e-009     1.6944e-009     -1.002e-008    
  -0.05           1.0705e-009     2.2807e-009     1.0354e-008    
  -0.1            1.2421e-009     2.1582e-009     1.1765e-008    
  -0.15           -1.668e-010     1.9599e-009     9.938e-009     
  -0.2            -2e-012         2.0439e-009     9.437e-009     
  -0.25           1.793e-010      2.1404e-009     9.477e-009     
  -0.3            3.661e-010      2.2064e-009     1.0167e-008    
  -0.35           5.666e-010      2.139e-009      1.0414e-008    
  -0.4            -1.3317e-009    5.714e-010      1.0814e-008    
  -0.45           -1.306e-009     -2.6105e-009    8.484e-009     
  -0.5            -1.291e-009     -8.4197e-009    7.521e-009     
  -0.55           -2.7141e-009    -2.6303e-008    -1.9416e-008   
  -0.6            1.2137e-009     -6.5615e-008    -2.6858e-008   
  -0.65           1.511e-010      -1.4723e-007    6.591e-009     
  -0.7            -2.334e-010     -2.9474e-007    -1.0168e-008   
  -0.75           -7.272e-010     -5.4853e-007    -1.0591e-008   
  -0.8            1.6333e-009     -9.8006e-007    -1.8516e-008   
  -0.85           6.231e-010      -1.6283e-006    8.05e-010      
  -0.9            1.0308e-009     -2.6017e-006    1.065e-008     
  -0.95           -1.537e-010     -3.8741e-006    1.0938e-008    
  -1              2.746e-010      -5.5136e-006    9.445e-009     
  -1.05           7.227e-010      -7.528e-006     1.0605e-008    
  -1.1            1.1205e-009     -9.8983e-006    1.0252e-008    
  -1.15           -2.3407e-009    -1.2502e-005    9.828e-009     
  -1.2            -3.555e-010     -1.5478e-005    -9.967e-009    
  -1.25           2.1675e-009     -1.8703e-005    -2.5767e-008   
  -1.3            1.4745e-009     -2.2174e-005    -6.734e-009    
  -1.35           2.8379e-009     -2.5872e-005    -8.764e-009    
  -1.4            2.0292e-009     -2.9762e-005    1.2357e-008    
  -1.45           8.791e-010      -3.3799e-005    1.0485e-008    
  -1.5            1.2685e-009     -3.8094e-005    9.998e-009     
  -1.55           9.88e-011       -4.2307e-005    9.67e-009      
  -1.6            5.557e-010      -4.6831e-005    1.0041e-008    
  -1.65           9.718e-010      -5.1489e-005    1.073e-008     
  -1.7            1.377e-009      -5.6259e-005    1.018e-008     
  -1.75           1.8052e-009     -6.1024e-005    1.2329e-008    
  -1.8            6.602e-010      -6.5774e-005    1.0305e-008    
END_DB

