! VERSION = 6.00
BEGIN_HEADER
 ICCAP_INPUTS
  VG         V  B GROUND SMU4 0.001 LIN        1    0          -1.8       37   -0.05     
  VS         V  E GROUND SMU3 0.1 CON        0
  VB         V  C GROUND SMU1 0.1 LIN        3    0          1.8        3    0.9       
  VD         V  S GROUND SMU2 0.1 LIN        2    -0.1       -1.8       2    -1.7      
 ICCAP_OUTPUTS
  IG         I  B GROUND SMU4 B
  ID         I  S GROUND SMU2 B
  IB         I  C GROUND SMU1 B
END_HEADER

BEGIN_DB
 ICCAP_VAR VS         0              
 ICCAP_VAR VB         0              
 ICCAP_VAR VD         -0.1           

 #VG              IG              ID              IB             
  0               2.025e-010      -1.2276e-009    -1.7165e-008   
  -0.05           -1.7477e-009    2.8914e-009     1.4853e-008    
  -0.1            2.2135e-009     -2.7068e-009    -2.0164e-008   
  -0.15           -2.1166e-009    1.0038e-009     1.4887e-008    
  -0.2            2.3846e-009     -1.1069e-009    -1.7262e-008   
  -0.25           -2.2614e-009    6.522e-010      1.3103e-008    
  -0.3            2.5136e-009     -1.5653e-009    -1.6833e-008   
  -0.35           -2.0738e-009    -3.6435e-009    1.4966e-008    
  -0.4            -1.889e-010     -1.0314e-008    1.3012e-008    
  -0.45           -1.8912e-009    -2.352e-008     1.3411e-008    
  -0.5            2.7108e-009     -7.3264e-008    -1.5506e-008   
  -0.55           -2.1114e-009    -2.0184e-007    1.6519e-008    
  -0.6            2.6334e-009     -5.4841e-007    -1.1777e-008   
  -0.65           -1.959e-009     -1.344e-006     -1.3232e-008   
  -0.7            2.7118e-009     -3.067e-006     -1.7976e-008   
  -0.75           -1.97e-011      -6.0597e-006    7.69e-009      
  -0.8            -2.1583e-009    -1.10073e-005   1.0695e-008    
  -0.85           -2.2123e-009    -1.8341e-005    7.851e-009     
  -0.9            1.6923e-009     -2.8328e-005    -1.7016e-008   
  -0.95           8.206e-010      -4.027e-005     9.076e-009     
  -1              -2.617e-009     -5.3975e-005    6.917e-009     
  -1.05           2.6372e-009     -6.9741e-005    -1.186e-008    
  -1.1            -1.9528e-009    -8.5348e-005    1.2613e-008    
  -1.15           2.7206e-009     -0.00010217     -1.6566e-008   
  -1.2            1.6532e-009     -0.00011879     1.5801e-008    
  -1.25           -1.8689e-009    -0.00013421     1.3584e-008    
  -1.3            2.7056e-009     -0.0001501      -1.5161e-008   
  -1.35           -3.8e-012       -0.00016411     7.686e-009     
  -1.4            -2.132e-009     -0.00017873     1.0917e-008    
  -1.45           1.5488e-009     -0.00019228     -1.6879e-008   
  -1.5            8.853e-010      -0.00020487     8.813e-009     
  -1.55           -2.5948e-009    -0.0002164      6.993e-009     
  -1.6            2.5792e-009     -0.00022757     -1.3668e-008   
  -1.65           -1.8267e-009    -0.00023762     1.3934e-008    
  -1.7            2.6994e-009     -0.0002475      -1.4276e-008   
  -1.75           2.82e-011       -0.0002563      7.763e-009     
  -1.8            -2.0896e-009    -0.00026498     1.1295e-008    
END_DB

BEGIN_DB
 ICCAP_VAR VS         0              
 ICCAP_VAR VB         0              
 ICCAP_VAR VD         -1.8           

 #VG              IG              ID              IB             
  0               3.99e-011       -1.4808e-009    -1.6871e-008   
  -0.05           4.978e-010      4.1555e-009     9.314e-009     
  -0.1            2.726e-009      -2.965e-010     -1.1256e-008   
  -0.15           -1.6036e-009    2.4802e-009     1.2363e-008    
  -0.2            2.0326e-009     -4.5874e-009    -1.7127e-008   
  -0.25           -1.9506e-009    -4.532e-009     1.5992e-008    
  -0.3            2.4668e-009     -1.5778e-008    9.221e-009     
  -0.35           -2.1199e-009    -5.3887e-008    1.071e-008     
  -0.4            2.2647e-009     -1.5643e-007    -1.5474e-008   
  -0.45           -2.419e-009     -4.2971e-007    8.539e-009     
  -0.5            2.0295e-009     -1.12363e-006   -1.7175e-008   
  -0.55           -2.2804e-009    -2.6001e-006    -1.6925e-008   
  -0.6            2.4728e-009     -5.6993e-006    -1.5639e-008   
  -0.65           -1.6439e-009    -1.10667e-005   1.5488e-008    
  -0.7            -1.8978e-009    -2.0256e-005    -5.931e-009    
  -0.75           2.7122e-009     -3.511e-005     -1.5361e-008   
  -0.8            1.4709e-009     -5.6534e-005    8.401e-009     
  -0.85           -1.4379e-009    -8.3982e-005    1.5356e-008    
  -0.9            -3.847e-010     -0.0001213      -1.662e-008    
  -0.95           1.6873e-009     -0.00016719     -1.6703e-008   
  -1              8.205e-010      -0.00022073     9.525e-009     
  -1.05           -2.6154e-009    -0.00028201     7.325e-009     
  -1.1            2.6253e-009     -0.00035469     -1.1589e-008   
  -1.15           -1.921e-009     -0.00042952     1.3174e-008    
  -1.2            2.7166e-009     -0.00051582     -1.557e-008    
  -1.25           1.4557e-009     -0.00060777     8.421e-009     
  -1.3            -1.4444e-009    -0.00069949     1.5614e-008    
  -1.35           2.4134e-009     -0.00080285     -1.5682e-008   
  -1.4            -1.5733e-009    -0.0009047      1.6184e-008    
  -1.45           2.525e-009      -0.0010161      -1.4662e-008   
  -1.5            -1.7185e-009    -0.0011246      1.5105e-008    
  -1.55           -1.6858e-009    -0.0012389      -1.6405e-008   
  -1.6            2.593e-009      -0.0013598      -1.3034e-008   
  -1.65           -1.8464e-009    -0.0014749      1.3869e-008    
  -1.7            2.7036e-009     -0.0015992      -1.4613e-008   
  -1.75           1.5071e-009     -0.0017238      8.438e-009     
  -1.8            -1.398e-009     -0.0018421      1.4076e-008    
END_DB

BEGIN_DB
 ICCAP_VAR VS         0              
 ICCAP_VAR VB         0.9            
 ICCAP_VAR VD         -0.1           

 #VG              IG              ID              IB             
  0               2.266e-010      -1.1788e-009    -1.6879e-008   
  -0.05           1.284e-009      3.6246e-009     8.531e-009     
  -0.1            -2.6288e-009    -3.82e-010      6.79e-009      
  -0.15           2.338e-009      -1.0958e-009    -1.7314e-008   
  -0.2            -2.2167e-009    9.076e-010      1.3632e-008    
  -0.25           2.4683e-009     -9.233e-010     -1.6885e-008   
  -0.3            -1.076e-010     3.6793e-009     8.264e-009     
  -0.35           -2.5817e-009    7.45e-011       8.506e-009     
  -0.4            1.7361e-009     -3.0145e-009    -1.3135e-008   
  -0.45           3.351e-010      3.8441e-009     9.566e-009     
  -0.5            -2.3181e-009    -3.169e-010     1.2353e-008    
  -0.55           2.5587e-009     -4.9821e-009    -1.6387e-008   
  -0.6            1.7657e-009     -1.1254e-008    5.929e-009     
  -0.65           -1.667e-009     -5.5553e-008    1.5247e-008    
  -0.7            9.592e-010      -1.8356e-007    -1.6968e-008   
  -0.75           -2.5751e-009    -5.5686e-007    7.311e-009     
  -0.8            2.0808e-009     -1.5523e-006    7.595e-009     
  -0.85           -1.4507e-009    -3.5977e-006    1.5573e-008    
  -0.9            2.4157e-009     -7.6293e-006    -1.5978e-008   
  -0.95           3.177e-010      -1.3816e-005    -1.5114e-008   
  -1              -1.6494e-009    -2.2797e-005    1.5601e-008    
  -1.05           2.5672e-009     -3.4894e-005    -1.396e-008    
  -1.1            -1.8074e-009    -4.8469e-005    1.4195e-008    
  -1.15           2.7001e-009     -6.4407e-005    -1.4033e-008   
  -1.2            4.23e-011       -8.0555e-005    7.89e-009      
  -1.25           -2.0646e-009    -9.7298e-005    1.1557e-008    
  -1.3            2.6537e-009     -0.00011434     1.1488e-008    
  -1.35           -1.9947e-009    -0.00013007     1.2072e-008    
  -1.4            1.5981e-009     -0.00014585     -1.7343e-008   
  -1.45           8.656e-010      -0.00016052     9.256e-009     
  -1.5            -2.6086e-009    -0.00017413     6.892e-009     
  -1.55           2.5968e-009     -0.00018758     -1.3194e-008   
  -1.6            -1.8588e-009    -0.00019938     1.3664e-008    
  -1.65           2.7116e-009     -0.0002109      -1.4789e-008   
  -1.7            1.5022e-009     -0.00022182     7.522e-009     
  -1.75           -1.4092e-009    -0.00023127     1.4412e-008    
  -1.8            2.3754e-009     -0.00024105     -1.6148e-008   
END_DB

BEGIN_DB
 ICCAP_VAR VS         0              
 ICCAP_VAR VB         0.9            
 ICCAP_VAR VD         -1.8           

 #VG              IG              ID              IB             
  0               3.696e-010      -8.702e-010     -1.6101e-008   
  -0.05           -1.9014e-009    1.2132e-009     1.6317e-008    
  -0.1            2.1493e-009     -1.2689e-009    -1.7194e-008   
  -0.15           -2.0524e-009    1.0614e-009     1.5302e-008    
  -0.2            2.3171e-009     -1.1409e-009    -1.727e-008    
  -0.25           -2.1973e-009    7.954e-010      1.375e-008     
  -0.3            2.453e-009      -1.4366e-009    -1.6879e-008   
  -0.35           -9.63e-011      1.8267e-009     8.287e-009     
  -0.4            -2.572e-009     -6.909e-009     8.348e-009     
  -0.45           -1.6162e-009    -2.656e-008     -1.4877e-008   
  -0.5            2.556e-009      -8.4181e-008    -1.4035e-008   
  -0.55           -1.0913e-009    -2.6325e-007    1.4694e-008    
  -0.6            2.7088e-009     -7.6735e-007    -9.036e-009    
  -0.65           -2.5393e-009    -1.9689e-006    -1.683e-008    
  -0.7            2.0218e-009     -4.7398e-006    -1.7138e-008   
  -0.75           -1.4181e-009    -9.9595e-006    1.4856e-008    
  -0.8            -1.8275e-009    -1.9406e-005    -6.566e-009    
  -0.85           2.6997e-009     -3.5211e-005    -1.435e-008    
  -0.9            2.51e-011       -5.7436e-005    8.052e-009     
  -0.95           -2.0905e-009    -8.8526e-005    1.1645e-008    
  -1              -1.665e-009     -0.00012835     -1.6494e-008   
  -1.05           2.0861e-009     -0.00017964     -1.6566e-008   
  -1.1            6.279e-010      -0.00023768     9.969e-009     
  -1.15           -2.6234e-009    -0.00030397     6.158e-009     
  -1.2            2.7128e-009     -0.00038079     -1.5416e-008   
  -1.25           1.4582e-009     -0.00046448     8.555e-009     
  -1.3            -1.4483e-009    -0.0005495      1.5717e-008    
  -1.35           2.4172e-009     -0.00064667     -1.5658e-008   
  -1.4            -1.585e-009     -0.00074306     1.6125e-008    
  -1.45           2.5353e-009     -0.00085002     -1.4398e-008   
  -1.5            -1.7429e-009    -0.00095444     1.4925e-008    
  -1.55           2.6776e-009     -0.00106841     -1.3145e-008   
  -1.6            7.37e-011       -0.0011821      1.2871e-008    
  -1.65           2.4376e-009     -0.0012987      -1.5727e-008   
  -1.7            -1.6079e-009    -0.001414       1.5834e-008    
  -1.75           2.5507e-009     -0.0015384      -1.414e-008    
  -1.8            -1.7684e-009    -0.0016568      1.4592e-008    
END_DB

BEGIN_DB
 ICCAP_VAR VS         0              
 ICCAP_VAR VB         1.8            
 ICCAP_VAR VD         -0.1           

 #VG              IG              ID              IB             
  0               3.146e-010      -9.762e-010     9.347e-009     
  -0.05           -1.9903e-009    2.6673e-009     1.9666e-008    
  -0.1            2.2487e-009     -1.1952e-009    -1.7329e-008   
  -0.15           -2.1358e-009    1.0005e-009     1.4684e-008    
  -0.2            2.4023e-009     -1.0383e-009    -1.7216e-008   
  -0.25           -2.2714e-009    8.535e-010      1.2993e-008    
  -0.3            2.5136e-009     -8.632e-010     -1.6791e-008   
  -0.35           -1.43e-010      3.6321e-009     7.952e-009     
  -0.4            -2.5899e-009    1.68e-011       8.338e-009     
  -0.45           1.823e-009      -2.9605e-009    -1.412e-008    
  -0.5            -1.9671e-009    2.4802e-009     1.9176e-008    
  -0.55           2.2285e-009     -2.0851e-009    -1.7286e-008   
  -0.6            -1.7269e-009    -4.7734e-009    1.7413e-008    
  -0.65           2.6184e-009     -1.2483e-008    1.2532e-008    
  -0.7            8.854e-010      -5.0226e-008    8.748e-009     
  -0.75           1.207e-010      -1.9901e-007    5.222e-009     
  -0.8            2.5138e-009     -5.9137e-007    -1.5402e-008   
  -0.85           -2.1946e-009    -1.6123e-006    -1.6637e-008   
  -0.9            2.5672e-009     -3.8906e-006    -1.4192e-008   
  -0.95           -1.7923e-009    -7.918e-006     1.4333e-008    
  -1              9.256e-010      -1.4687e-005    -1.706e-008    
  -1.05           -2.5808e-009    -2.3934e-005    7.009e-009     
  -1.1            2.5331e-009     -3.65e-005      -1.4723e-008   
  -1.15           -1.736e-009     -5.0364e-005    1.4664e-008    
  -1.2            2.6824e-009     -6.664e-005     -1.3163e-008   
  -1.25           8.85e-011       -8.2943e-005    8.001e-009     
  -1.3            -2.0066e-009    -9.9677e-005    1.2338e-008    
  -1.35           6.79e-011       -0.00011626     9.144e-009     
  -1.4            -2.0392e-009    -0.00013214     1.2089e-008    
  -1.45           1.6377e-009     -0.00014762     -1.8258e-008   
  -1.5            8.504e-010      -0.00016198     9.279e-009     
  -1.55           -2.6064e-009    -0.00017526     6.797e-009     
  -1.6            2.6147e-009     -0.00018831     -1.2636e-008   
  -1.65           -1.8857e-009    -0.00019985     1.3512e-008    
  -1.7            2.7101e-009     -0.00021108     -1.5395e-008   
  -1.75           -4.9e-012       -0.0002212      7.518e-009     
  -1.8            -2.1437e-009    -0.00023104     1.0903e-008    
END_DB

BEGIN_DB
 ICCAP_VAR VS         0              
 ICCAP_VAR VB         1.8            
 ICCAP_VAR VD         -1.8           

 #VG              IG              ID              IB             
  0               -1.028e-010     1.2931e-009     1.5399e-008    
  -0.05           2.7001e-009     -3.49e-010      -1.4176e-008   
  -0.1            -2.5489e-009    2.395e-010      8.45e-009      
  -0.15           2.7204e-009     -1.769e-010     -1.1898e-008   
  -0.2            -1.5665e-009    3.0642e-009     1.1669e-008    
  -0.25           1.9888e-009     -2.8948e-009    -1.6382e-008   
  -0.3            -1.9191e-009    9.651e-010      1.617e-008     
  -0.35           2.178e-009      -2.1791e-009    -1.7206e-008   
  -0.4            -1.6772e-009    -4.6488e-009    1.7794e-008    
  -0.45           -2.5884e-009    -1.5354e-008    -1.6751e-008   
  -0.5            2.5664e-009     -4.6315e-008    -1.4118e-008   
  -0.55           -2.508e-009     -1.5481e-007    7.52e-009      
  -0.6            2.1183e-009     -4.7245e-007    -1.7004e-008   
  -0.65           -2.465e-009     -1.2966e-006    -1.7217e-008   
  -0.7            2.2033e-009     -3.286e-006     -1.6718e-008   
  -0.75           5.724e-010      -7.3387e-006    9.664e-009     
  -0.8            6.465e-010      -1.5031e-005    -1.7068e-008   
  -0.85           -2.6247e-009    -2.7786e-005    6.025e-009     
  -0.9            2.7114e-009     -4.8154e-005    -1.4989e-008   
  -0.95           1.4791e-009     -7.6958e-005    8.56e-009      
  -1              2.7261e-009     -0.000113703    -7.03e-009     
  -1.05           1.6716e-009     -0.00016111     1.5388e-008    
  -1.1            -1.8401e-009    -0.00021468     1.4385e-008    
  -1.15           2.701e-009      -0.00028063     -1.4203e-008   
  -1.2            1.5122e-009     -0.00035475     8.985e-009     
  -1.25           -1.39e-009      -0.00043133     1.4169e-008    
  -1.3            2.363e-009      -0.00052068     -1.6035e-008   
  -1.35           -1.6882e-009    -0.00061027     2.1454e-008    
  -1.4            2.5978e-009     -0.00071105     -1.3181e-008   
  -1.45           -1.8486e-009    -0.00081038     1.4084e-008    
  -1.5            2.7044e-009     -0.00091927     -1.456e-008    
  -1.55           2.11e-011       -0.00102665     7.743e-009     
  -1.6            3.621e-010      -0.0011395      -1.656e-008    
  -1.65           -1.5929e-009    -0.0012543      1.5953e-008    
  -1.7            2.5471e-009     -0.0013757      -1.4699e-008   
  -1.75           -1.7479e-009    -0.0014916      1.4692e-008    
  -1.8            2.6227e-009     -0.0016164      -1.2483e-008   
END_DB

