! VERSION = 6.00
BEGIN_HEADER
 ICCAP_INPUTS
  VG         V  B GROUND SMU4 0.001 LIN        1    0          -1.8       37   -0.05     
  VS         V  E GROUND SMU3 0.1 CON        0
  VB         V  C GROUND SMU1 0.1 LIN        3    0          1.8        3    0.9       
  VD         V  S GROUND SMU2 0.1 LIN        2    -0.1       -1.8       2    -1.7      
 ICCAP_OUTPUTS
  IG         I  B GROUND SMU4 B
  ID         I  S GROUND SMU2 B
  IB         I  C GROUND SMU1 B
END_HEADER

BEGIN_DB
 ICCAP_VAR VS         0              
 ICCAP_VAR VB         0              
 ICCAP_VAR VD         -0.1           

 #VG              IG              ID              IB             
  0               1.257e-009      2.0597e-009     9.105e-009     
  -0.05           8.584e-010      4.521e-009      9.459e-009     
  -0.1            -2.5023e-009    -2.2891e-009    4.88e-009      
  -0.15           1.5019e-009     -2.3601e-009    -2.2776e-008   
  -0.2            5.917e-010      3.3881e-009     1.1184e-008    
  -0.25           -2.1328e-009    -4.987e-009     1.6826e-008    
  -0.3            -1.6133e-009    -1.2306e-008    1.8549e-008    
  -0.35           1.325e-009      -2.7378e-008    -2.3698e-008   
  -0.4            -1.3727e-009    -6.0765e-008    2.4554e-008    
  -0.45           2.3948e-009     -1.3351e-007    -1.6923e-008   
  -0.5            -2.599e-009     -2.6757e-007    9.69e-009      
  -0.55           2.39e-009       -5.0011e-007    -2.5817e-008   
  -0.6            5.663e-010      -8.5608e-007    1.1633e-008    
  -0.65           -2.7461e-009    -1.4026e-006    -1.9081e-008   
  -0.7            1.8634e-009     -2.1916e-006    -2.1207e-008   
  -0.75           8.348e-010      -3.2109e-006    1.0876e-008    
  -0.8            -1.4e-009       -4.4888e-006    7.622e-009     
  -0.85           1.688e-009      -6.0677e-006    -1.7918e-008   
  -0.9            9.222e-010      -7.7801e-006    1.0687e-008    
  -0.95           -1.3975e-009    -9.6149e-006    2.5733e-008    
  -1              1.2959e-009     -1.1657e-005    -2.3537e-008   
  -1.05           -1.3727e-009    -1.3614e-005    2.4224e-008    
  -1.1            -8.161e-010     -1.5709e-005    -1.1742e-008   
  -1.15           1.3194e-009     -1.78e-005      -8.147e-009    
  -1.2            -1.7732e-009    -1.9773e-005    2.1534e-008    
  -1.25           -9.033e-010     -2.1796e-005    -1.1504e-008   
  -1.3            2.8989e-009     -2.3771e-005    -7.795e-009    
  -1.35           -1.4455e-009    -2.5571e-005    1.1494e-008    
  -1.4            2.4752e-009     -2.7427e-005    -2.5807e-008   
  -1.45           2.0809e-009     -2.9128e-005    1.1882e-008    
  -1.5            -1.5462e-009    -3.0728e-005    1.8886e-008    
  -1.55           -1.0657e-009    -3.2291e-005    -1.0263e-008   
  -1.6            1.3203e-009     -3.3798e-005    -2.5444e-008   
  -1.65           1.4914e-009     -3.5215e-005    9.254e-009     
  -1.7            -1.6514e-009    -3.6477e-005    1.7744e-008    
  -1.75           1.3281e-009     -3.781e-005     -2.3373e-008   
  -1.8            -1.3785e-009    -3.8962e-005    2.501e-008     
END_DB

BEGIN_DB
 ICCAP_VAR VS         0              
 ICCAP_VAR VB         0              
 ICCAP_VAR VD         -1.8           

 #VG              IG              ID              IB             
  0               1.92e-011       -8.797e-010     7.427e-009     
  -0.05           1.5134e-009     -4.436e-009     -9.929e-009    
  -0.1            -1.3801e-009    3.49e-011       1.875e-008     
  -0.15           -2.7914e-009    -1.0936e-008    7.638e-009     
  -0.2            1.5292e-009     -2.5439e-008    -1.474e-008    
  -0.25           1.0472e-009     -5.5357e-008    9.904e-009     
  -0.3            1.481e-010      -1.4565e-007    6.553e-009     
  -0.35           2.6316e-009     -3.0813e-007    -1.6751e-008   
  -0.4            -1.3716e-009    -5.9499e-007    2.4953e-008    
  -0.45           -7.796e-010     -1.09915e-006   -1.1722e-008   
  -0.5            -2.6934e-009    -1.8814e-006    -2.5032e-008   
  -0.55           -1.64e-011      -3.0923e-006    -1.0028e-008   
  -0.6            2.4028e-009     -4.8111e-006    -1.7715e-008   
  -0.65           2.1439e-009     -7.1736e-006    1.1979e-008    
  -0.7            -1.5292e-009    -1.0301e-005    2.0054e-008    
  -0.75           -1.7024e-009    -1.4409e-005    -8.76e-009     
  -0.8            2.264e-010      -1.9723e-005    -1.1558e-008   
  -0.85           2.7232e-009     -2.5997e-005    -1.5452e-008   
  -0.9            -1.3853e-009    -3.3084e-005    2.5884e-008    
  -0.95           -6.852e-010     -4.1603e-005    -1.182e-008    
  -1              1.3251e-009     -5.1192e-005    -8.76e-009     
  -1.05           -1.3705e-009    -6.1349e-005    2.4908e-008    
  -1.1            -7.864e-010     -7.2872e-005    -1.1493e-008   
  -1.15           1.3141e-009     -8.5354e-005    -8.28e-009     
  -1.2            -1.3567e-009    -9.8067e-005    2.2876e-008    
  -1.25           2.6432e-009     -0.000112324    -1.6563e-008   
  -1.3            2.1471e-009     -0.00012663     1.1967e-008    
  -1.35           6.941e-010      -0.00014156     1.1517e-008    
  -1.4            -1.395e-009     -0.00015699     7.347e-009     
  -1.45           1.9948e-009     -0.00017352     -2.3047e-008   
  -1.5            7.768e-010      -0.00018994     1.1381e-008    
  -1.55           -1.3966e-009    -0.0002067      7.633e-009     
  -1.6            1.8276e-009     -0.00022443     -2.0509e-008   
  -1.65           8.65e-010       -0.00024197     1.0831e-008    
  -1.7            -1.3956e-009    -0.00025953     7.859e-009     
  -1.75           -5.709e-010     -0.00027805     -1.1865e-008   
  -1.8            1.5759e-009     -0.00029659     -1.8633e-008   
END_DB

BEGIN_DB
 ICCAP_VAR VS         0              
 ICCAP_VAR VB         0.9            
 ICCAP_VAR VD         -0.1           

 #VG              IG              ID              IB             
  0               -1.474e-009     -2.92e-011      1.1379e-008    
  -0.05           1.697e-009      -1.7752e-009    -2.0605e-008   
  -0.1            4.389e-010      4.4503e-009     1.1295e-008    
  -0.15           -2.3685e-009    9.468e-010      1.495e-008     
  -0.2            1.3301e-009     -2.5009e-009    -2.5795e-008   
  -0.25           8.813e-010      4.5315e-009     9.058e-009     
  -0.3            -2.5201e-009    -2.2778e-009    5.008e-009     
  -0.35           2.9071e-009     -6.353e-010     -1.4598e-008   
  -0.4            -1.383e-009     1.4123e-009     9.254e-009     
  -0.45           2.2524e-009     -8.2143e-009    -1.9664e-008   
  -0.5            2.8735e-009     -1.3648e-008    1.7144e-008    
  -0.55           -1.5406e-009    -4.1098e-008    1.5021e-008    
  -0.6            1.084e-010      -1.04212e-007   1.0071e-008    
  -0.65           2.3699e-009     -2.4171e-007    -1.7635e-008   
  -0.7            -2.6349e-009    -4.9765e-007    9.712e-009     
  -0.75           1.3202e-009     -9.5602e-007    -2.5961e-008   
  -0.8            -1.4011e-009    -1.6433e-006    -1.1526e-008   
  -0.85           -5.824e-010     -2.6861e-006    -1.225e-008    
  -0.9            1.5602e-009     -4.0661e-006    -1.8004e-008   
  -0.95           1.0006e-009     -5.6946e-006    9.742e-009     
  -1              -1.4032e-009    -7.5224e-006    2.6766e-008    
  -1.05           1.8277e-009     -9.5917e-006    -2.0675e-008   
  -1.1            -8.22e-010      -1.1665e-005    1.5935e-008    
  -1.15           1.3233e-009     -1.3841e-005    -7.791e-009    
  -1.2            -1.7815e-009    -1.5911e-005    2.1818e-008    
  -1.25           -8.969e-010     -1.8059e-005    -1.1674e-008   
  -1.3            2.8933e-009     -2.0155e-005    -7.633e-009    
  -1.35           -1.4477e-009    -2.2071e-005    1.1617e-008    
  -1.4            2.5166e-009     -2.4045e-005    -2.6139e-008   
  -1.45           2.0589e-009     -2.5855e-005    1.2034e-008    
  -1.5            -1.5649e-009    -2.7555e-005    1.8308e-008    
  -1.55           1.3246e-009     -2.9238e-005    -2.4809e-008   
  -1.6            1.3906e-009     -3.0813e-005    9.485e-009     
  -1.65           -1.3532e-009    -3.2229e-005    2.104e-008     
  -1.7            1.3277e-009     -3.3691e-005    -2.4188e-008   
  -1.75           -1.3769e-009    -3.4981e-005    2.4579e-008    
  -1.8            -8.098e-010     -3.6272e-005    -1.1578e-008   
END_DB

BEGIN_DB
 ICCAP_VAR VS         0              
 ICCAP_VAR VB         0.9            
 ICCAP_VAR VD         -1.8           

 #VG              IG              ID              IB             
  0               1.0561e-009     1.8361e-009     1.2094e-008    
  -0.05           -1.477e-010     3.9351e-009     1.002e-008     
  -0.1            -1.3843e-009    -2.07e-011      9.274e-009     
  -0.15           2.3357e-009     -3.1346e-009    -2.1089e-008   
  -0.2            -1.3966e-009    1.8909e-009     2.5959e-008    
  -0.25           1.317e-009      -5.15e-009      -2.5643e-008   
  -0.3            -2.1673e-009    -1.0604e-008    6.383e-009     
  -0.35           1.7775e-009     -2.8733e-008    -1.9553e-008   
  -0.4            8.835e-010      -6.9631e-008    1.1103e-008    
  -0.45           1.8969e-009     -1.8214e-007    -2.5312e-008   
  -0.5            -1.8129e-009    -4.1274e-007    1.6631e-008    
  -0.55           -8.839e-010     -8.5556e-007    -1.1422e-008   
  -0.6            -2.5656e-009    -1.6183e-006    -2.0997e-008   
  -0.65           2.3652e-009     -2.884e-006     -2.5794e-008   
  -0.7            5.92e-010       -4.7465e-006    1.1673e-008    
  -0.75           -1.3987e-009    -7.4434e-006    6.247e-009     
  -0.8            2.2179e-009     -1.12443e-005   -2.5648e-008   
  -0.85           1.6481e-009     -1.619e-005     -2.5842e-008   
  -0.9            -1.5217e-009    -2.1955e-005    1.4449e-008    
  -0.95           1.3184e-009     -2.936e-005     -2.4601e-008   
  -1              -1.354e-009     -3.7468e-005    2.1965e-008    
  -1.05           1.879e-010      -4.7235e-005    -1.0313e-008   
  -1.1            2.7022e-009     -5.7783e-005    -1.6285e-008   
  -1.15           -1.3875e-009    -6.8894e-005    2.6009e-008    
  -1.2            -7.318e-010     -8.1429e-005    -1.2008e-008   
  -1.25           1.3189e-009     -9.4821e-005    -8.579e-009    
  -1.3            -1.3755e-009    -0.000108377    2.4872e-008    
  -1.35           -1.3656e-009    -0.00012289     7.489e-009     
  -1.4            2.332e-010      -0.00013859     -1.1311e-008   
  -1.45           2.7447e-009     -0.0001544      -1.543e-008    
  -1.5            -1.3913e-009    -0.00017001     2.6302e-008    
  -1.55           -6.684e-010     -0.00018692     -1.1879e-008   
  -1.6            1.3288e-009     -0.00020421     -8.793e-009    
  -1.65           -1.3804e-009    -0.00022101     2.5545e-008    
  -1.7            -7.561e-010     -0.00023895     -1.1803e-008   
  -1.75           1.3178e-009     -0.00025719     -8.507e-009    
  -1.8            1.3841e-009     -0.00027547     8.981e-009     
END_DB

BEGIN_DB
 ICCAP_VAR VS         0              
 ICCAP_VAR VB         1.8            
 ICCAP_VAR VD         -0.1           

 #VG              IG              ID              IB             
  0               -2.607e-010     2.351e-010      -8.513e-009    
  -0.05           1.9122e-009     2.4762e-009     1.1119e-008    
  -0.1            -2.6838e-009    3.631e-010      1.0216e-008    
  -0.15           2.8831e-009     -3.03e-010      -1.5209e-008   
  -0.2            -1.5995e-009    3.4626e-009     1.0723e-008    
  -0.25           -5.349e-010     -4.3731e-009    -1.1783e-008   
  -0.3            2.5177e-009     -1.1562e-009    -1.8433e-008   
  -0.35           1.5599e-009     3.3434e-009     1.1693e-008    
  -0.4            -1.3988e-009    -5.59e-010      9.085e-009     
  -0.45           1.3183e-009     -4.0626e-009    -2.5054e-008   
  -0.5            -1.3987e-009    -5.1704e-009    2.636e-008     
  -0.55           1.3177e-009     -1.6434e-008    1.2006e-008    
  -0.6            1.5066e-009     -3.7012e-008    9.334e-009     
  -0.65           1.3209e-009     -1.09164e-007   -8.444e-009    
  -0.7            2.8985e-009     -2.5492e-007    -1.1771e-008   
  -0.75           1.541e-009      -5.4571e-007    9.62e-009      
  -0.8            -1.6174e-009    -1.03813e-006   1.7149e-008    
  -0.85           2.8006e-009     -1.8456e-006    2.3261e-008    
  -0.9            1.7913e-009     -3.0222e-006    1.1686e-008    
  -0.95           -2.646e-010     -4.4544e-006    1.0625e-008    
  -1              -2.5711e-009    -6.2131e-006    9.822e-009     
  -1.05           2.3548e-009     -8.2229e-006    -2.5791e-008   
  -1.1            5.905e-010      -1.02622e-005   1.1572e-008    
  -1.15           1.236e-009      -1.2444e-005    -2.2207e-008   
  -1.2            -1.3838e-009    -1.4526e-005    2.597e-008     
  -1.25           -7.382e-010     -1.6687e-005    -1.1866e-008   
  -1.3            1.3178e-009     -1.8802e-005    -8.45e-009     
  -1.35           -1.3721e-009    -2.0751e-005    2.4623e-008    
  -1.4            -8.176e-010     -2.2715e-005    -1.1661e-008   
  -1.45           1.317e-009      -2.4584e-005    -8.09e-009     
  -1.5            -1.3568e-009    -2.6267e-005    2.2502e-008    
  -1.55           2.6356e-009     -2.7987e-005    -1.6935e-008   
  -1.6            -1.3774e-009    -2.95e-005      2.5185e-008    
  -1.65           -7.835e-010     -3.1019e-005    -1.1697e-008   
  -1.7            1.3151e-009     -3.2453e-005    -8.19e-009     
  -1.75           -1.3628e-009    -3.3745e-005    2.3377e-008    
  -1.8            2.246e-010      -3.5036e-005    -1.1087e-008   
END_DB

BEGIN_DB
 ICCAP_VAR VS         0              
 ICCAP_VAR VB         1.8            
 ICCAP_VAR VD         -1.8           

 #VG              IG              ID              IB             
  0               -2.145e-010     1.256e-009      5.622e-009     
  -0.05           -4.252e-010     -4.3559e-009    -1.1825e-008   
  -0.1            2.6253e-009     -1.0023e-009    -1.8114e-008   
  -0.15           -1.457e-010     3.8661e-009     1.0167e-008    
  -0.2            -1.3841e-009    -2.744e-010     9.348e-009     
  -0.25           2.3462e-009     -4.0825e-009    -2.1298e-008   
  -0.3            -1.8406e-009    -5.3474e-009    1.9512e-008    
  -0.35           -1.5167e-009    -1.5973e-008    -2.4913e-008   
  -0.4            7.96e-011       -4.3401e-008    -9.622e-009    
  -0.45           -1.3946e-009    -1.10386e-007   6.958e-009     
  -0.5            -2.5806e-009    -2.6561e-007    1.0818e-008    
  -0.55           2.4171e-009     -5.8282e-007    -2.5261e-008   
  -0.6            -1.3952e-009    -1.1441e-006    -1.1641e-008   
  -0.65           1.8563e-009     -2.1498e-006    -2.0858e-008   
  -0.7            8.457e-010      -3.6895e-006    1.0991e-008    
  -0.75           -1.3948e-009    -5.9667e-006    7.753e-009     
  -0.8            -5.382e-010     -9.2691e-006    -1.1756e-008   
  -0.85           2.9005e-009     -1.3628e-005    -1.1404e-008   
  -0.9            -1.5119e-009    -1.9049e-005    1.4337e-008    
  -0.95           1.3143e-009     -2.5963e-005    -2.4518e-008   
  -1              -1.7705e-009    -3.364e-005     2.1292e-008    
  -1.05           -9.104e-010     -4.2766e-005    -1.119e-008    
  -1.1            1.333e-009      -5.3109e-005    -2.2769e-008   
  -1.15           -1.3791e-009    -6.386e-005     2.5559e-008    
  -1.2            -7.495e-010     -7.6054e-005    -1.1674e-008   
  -1.25           1.3188e-009     -8.9134e-005    -8.49e-009     
  -1.3            1.372e-009      -0.000102956    9.43e-009      
  -1.35           -6.53e-011      -0.00011672     9.456e-009     
  -1.4            -2.3221e-009    -0.0001316      1.1998e-008    
  -1.45           1.9722e-009     -0.00014756     -2.241e-008    
  -1.5            7.93e-010       -0.00016345     1.1397e-008    
  -1.55           -1.396e-009     -0.00017963     7.66e-009      
  -1.6            1.8334e-009     -0.00019684     -2.0363e-008   
  -1.65           8.632e-010      -0.00021393     1.0859e-008    
  -1.7            -1.394e-009     -0.00023108     7.884e-009     
  -1.75           1.7044e-009     -0.00024927     -1.8103e-008   
  -1.8            9.245e-010      -0.00026719     1.071e-008     
END_DB

