! VERSION = 6.00
BEGIN_HEADER
 ICCAP_INPUTS
  VG         V  B GROUND SMU4 0.001 LIN        1    0          -1.8       37   -0.05     
  VS         V  E GROUND SMU2 0.1 CON        0
  VB         V  C GROUND SMU3 0.1 LIN        3    0          1.8        3    0.9       
  VD         V  S GROUND SMU1 0.1 LIN        2    -0.1       -1.8       2    -1.7      
 ICCAP_OUTPUTS
  IG         I  B GROUND SMU4 B
  ID         I  S GROUND SMU1 B
  IB         I  C GROUND SMU3 B
END_HEADER

BEGIN_DB
 ICCAP_VAR VS         0              
 ICCAP_VAR VB         0              
 ICCAP_VAR VD         -0.1           

 #VG              IG              ID              IB             
  0               -2.313e-009     -2.1894e-009    -2.11e-010     
  -0.05           -4.216e-010     -2.1453e-009    -1.0253e-008   
  -0.1            2.5644e-009     -4.954e-010     -1.7609e-008   
  -0.15           1.1056e-009     2.2083e-009     -3.269e-009    
  -0.2            -1.5725e-009    1.6865e-009     1.2085e-008    
  -0.25           -1.703e-009     -1.5375e-009    7.571e-009     
  -0.3            2.1257e-009     -1.7103e-009    -2.0122e-008   
  -0.35           1.8272e-009     -5.89e-011      -7.531e-009    
  -0.4            1.5743e-009     -1.7371e-009    -9.252e-009    
  -0.45           1.3844e-009     -7.194e-009     -9.192e-009    
  -0.5            -1.9172e-009    -2.5003e-008    -2.1456e-008   
  -0.55           -2.6499e-009    -7.5596e-008    -5.331e-009    
  -0.6            -1.3805e-009    -2.1812e-007    -9.488e-009    
  -0.65           -1.2831e-009    -5.8145e-007    8.906e-009     
  -0.7            -1.8248e-009    -1.4006e-006    -1.1102e-008   
  -0.75           1.4129e-009     -3.095e-006     -1.4879e-008   
  -0.8            1.191e-009      -5.9223e-006    -9.069e-009    
  -0.85           2.7747e-009     -1.02637e-005   -1.1783e-008   
  -0.9            -1.582e-009     -1.5997e-005    -1.87e-010     
  -0.95           -1.3269e-009    -2.3451e-005    7.462e-009     
  -1              -1.2716e-009    -3.2234e-005    9.006e-009     
  -1.05           -2.4243e-009    -4.2076e-005    7.719e-009     
  -1.1            1.4478e-009     -5.3041e-005    -1.5358e-008   
  -1.15           2.8125e-009     -6.4109e-005    -8.895e-009    
  -1.2            2.0173e-009     -7.5349e-005    1.3216e-008    
  -1.25           8.601e-010      -8.6528e-005    1.0464e-008    
  -1.3            1.2197e-009     -9.7769e-005    1.0506e-008    
  -1.35           8.43e-011       -0.00010815     9.826e-009     
  -1.4            5.526e-010      -0.00011858     1.8077e-008    
  -1.45           9.233e-010      -0.00012864     1.0425e-008    
  -1.5            1.2973e-009     -0.00013821     1.1304e-008    
  -1.55           1.7219e-009     -0.00014716     1.3777e-008    
  -1.6            5.866e-010      -0.00015537     9.972e-009     
  -1.65           9.503e-010      -0.0001635      1.0377e-008    
  -1.7            1.3318e-009     -0.00017124     1.1689e-008    
  -1.75           1.7629e-009     -0.00017847     1.3818e-008    
  -1.8            6.234e-010      -0.00018508     1.0173e-008    
END_DB

BEGIN_DB
 ICCAP_VAR VS         0              
 ICCAP_VAR VB         0              
 ICCAP_VAR VD         -1.8           

 #VG              IG              ID              IB             
  0               -1.2704e-009    -1.1033e-009    -1.0163e-008   
  -0.05           1.3019e-009     -1.1873e-009    -2.7844e-008   
  -0.1            1.0305e-009     2.2704e-009     -9.42e-009     
  -0.15           -1.2632e-009    1.5853e-009     1.2501e-008    
  -0.2            -2.4909e-009    1.591e-010      1.02e-008      
  -0.25           -4.231e-010     -2.781e-009     -1.0204e-008   
  -0.3            1.2096e-009     -3.4733e-009    -2.645e-008    
  -0.35           2.8654e-009     -7.0584e-009    -1.0848e-008   
  -0.4            -1.3917e-009    -2.3186e-008    -1.1368e-008   
  -0.45           -1.2918e-009    -7.1511e-008    8.941e-009     
  -0.5            -2.6499e-009    -2.1597e-007    1.0913e-008    
  -0.55           -2.1921e-009    -6.0757e-007    4.72e-010      
  -0.6            -1.9432e-009    -1.5668e-006    -1.5017e-008   
  -0.65           1.2044e-009     -3.7043e-006    -2.773e-008    
  -0.7            2.8365e-009     -7.6704e-006    -1.1108e-008   
  -0.75           -1.9598e-009    -1.4124e-005    1.3887e-008    
  -0.8            1.1941e-009     -2.4806e-005    -2.7723e-008   
  -0.85           2.8123e-009     -3.988e-005     -1.168e-008    
  -0.9            1.3492e-009     -6.0319e-005    1.1802e-008    
  -0.95           1.7735e-009     -8.6311e-005    1.4118e-008    
  -1              2.5303e-009     -0.00011749     1.4066e-008    
  -1.05           1.8625e-009     -0.00015528     -3.398e-009    
  -1.1            1.3246e-009     -0.00019857     -8.959e-009    
  -1.15           1.184e-009      -0.00024726     -9.051e-009    
  -1.2            2.7641e-009     -0.00030063     -1.2689e-008   
  -1.25           1.4199e-009     -0.00035872     1.2619e-008    
  -1.3            2.824e-010      -0.00041788     9.696e-009     
  -1.35           6.922e-010      -0.00048306     1.0592e-008    
  -1.4            1.0564e-009     -0.00055212     1.058e-008     
  -1.45           1.4539e-009     -0.0006236      1.2926e-008    
  -1.5            3.159e-010      -0.00069388     9.508e-009     
  -1.55           7.221e-010      -0.00076903     1.0521e-008    
  -1.6            1.0833e-009     -0.00084704     1.0498e-008    
  -1.65           1.495e-009      -0.00092611     1.1864e-008    
  -1.7            3.535e-010      -0.00100262     9.461e-009     
  -1.75           7.572e-010      -0.00108376     1.0802e-008    
  -1.8            -2.0146e-009    -0.0011644      1.3874e-008    
END_DB

BEGIN_DB
 ICCAP_VAR VS         0              
 ICCAP_VAR VB         0.9            
 ICCAP_VAR VD         -0.1           

 #VG              IG              ID              IB             
  0               1.229e-009      1.3028e-009     7.463e-009     
  -0.05           1.276e-009      2.0928e-009     1.338e-008     
  -0.1            1.4501e-009     1.9036e-009     1.3759e-008    
  -0.15           4.97e-011       2.0081e-009     9.45e-009      
  -0.2            2.147e-010      2.1035e-009     9.522e-009     
  -0.25           3.854e-010      2.1978e-009     1.018e-008     
  -0.3            5.552e-010      2.2754e-009     1.0476e-008    
  -0.35           7.032e-010      2.3285e-009     1.0466e-008    
  -0.4            8.547e-010      2.3251e-009     1.0538e-008    
  -0.45           9.946e-010      2.247e-009      1.0191e-008    
  -0.5            -1.2694e-009    1.3945e-009     1.1044e-008    
  -0.55           -2.5115e-009    -1.7817e-009    9.704e-009     
  -0.6            -2.3196e-009    -4.5669e-009    1.042e-009     
  -0.65           -2.462e-009     -1.5535e-008    -1.0751e-008   
  -0.7            -6.951e-010     -5.7413e-008    -1.0404e-008   
  -0.75           -2.4077e-009    -1.8578e-007    1.062e-008     
  -0.8            -7.335e-010     -5.6131e-007    -1.0478e-008   
  -0.85           2.8095e-009     -1.4929e-006    1.0606e-008    
  -0.9            1.3501e-009     -3.3852e-006    1.069e-008     
  -0.95           1.7779e-009     -6.6701e-006    1.3785e-008    
  -1              -2.433e-009     -1.1522e-005    9.631e-009     
  -1.05           -5.511e-010     -1.8338e-005    -9.885e-009    
  -1.1            -9.346e-010     -2.6607e-005    -1.0824e-008   
  -1.15           2.323e-010      -3.6522e-005    -1.3997e-008   
  -1.2            1.4816e-009     -4.7095e-005    -2.2127e-008   
  -1.25           1.2117e-009     -5.8164e-005    -8.845e-009    
  -1.3            2.8431e-009     -6.9472e-005    -1.0815e-008   
  -1.35           1.2644e-009     -8.0767e-005    1.0288e-008    
  -1.4            1.694e-009      -9.1694e-005    1.3377e-008    
  -1.45           5.446e-010      -0.000101958    9.81e-009      
  -1.5            9.232e-010      -0.000112194    1.0786e-008    
  -1.55           2.6021e-009     -0.00012177     1.0394e-008    
  -1.6            5.756e-010      -0.00013078     1.0007e-008    
  -1.65           9.499e-010      -0.00013955     1.0699e-008    
  -1.7            1.3322e-009     -0.00014783     1.0711e-008    
  -1.75           1.7611e-009     -0.00015557     1.3735e-008    
  -1.8            6.094e-010      -0.00016269     1.0235e-008    
END_DB

BEGIN_DB
 ICCAP_VAR VS         0              
 ICCAP_VAR VB         0.9            
 ICCAP_VAR VD         -1.8           

 #VG              IG              ID              IB             
  0               -1.3019e-009    -1.1973e-009    -9.027e-009    
  -0.05           -4.089e-010     -2.156e-009     -1.0135e-008   
  -0.1            1.2161e-009     -1.344e-009     -2.6629e-008   
  -0.15           2.867e-009      2.55e-011       -1.0723e-008   
  -0.2            5.87e-010       2.2877e-009     3.01e-010      
  -0.25           7.432e-010      2.331e-009      1.0566e-008    
  -0.3            8.869e-010      2.3132e-009     1.0482e-008    
  -0.35           -1.2762e-009    1.4257e-009     1.0405e-008    
  -0.4            -2.2622e-009    -1.4419e-009    8.07e-009      
  -0.45           2.1441e-009     -2.2105e-009    -2.0174e-008   
  -0.5            1.8397e-009     -5.1888e-009    -7.348e-009    
  -0.55           -2.5597e-009    -2.2429e-008    -2.7714e-008   
  -0.6            -2.0036e-009    -7.8652e-008    6.94e-010      
  -0.65           2.8756e-009     -2.6741e-007    -1.0306e-008   
  -0.7            2.6698e-009     -8.2539e-007    -2.1e-011      
  -0.75           1.9579e-009     -2.251e-006     8.135e-009     
  -0.8            7.993e-010      -5.2527e-006    1.0891e-008    
  -0.85           1.1547e-009     -1.10333e-005   1.0354e-008    
  -0.9            -2.6419e-009    -2.0247e-005    9.908e-009     
  -0.95           1.888e-010      -3.473e-005     -1.3232e-008   
  -1              1.4193e-009     -5.4503e-005    -2.2967e-008   
  -1.05           1.2009e-009     -8.0348e-005    -8.602e-009    
  -1.1            2.8248e-009     -0.000112511    -1.1264e-008   
  -1.15           2.7073e-009     -0.00014994     1.0696e-008    
  -1.2            1.7901e-009     -0.00019471     1.3955e-008    
  -1.25           6.298e-010      -0.00024237     1.0436e-008    
  -1.3            9.99e-010       -0.00029688     1.0854e-008    
  -1.35           1.389e-009      -0.00035577     1.1216e-008    
  -1.4            1.8188e-009     -0.00041726     1.4182e-008    
  -1.45           6.622e-010      -0.00048062     1.0548e-008    
  -1.5            1.0281e-009     -0.00054955     1.0784e-008    
  -1.55           1.4268e-009     -0.00062078     1.1381e-008    
  -1.6            2.87e-010       -0.00069057     9.602e-009     
  -1.65           6.88e-010       -0.00076553     1.064e-008     
  -1.7            1.0537e-009     -0.00084285     1.0598e-008    
  -1.75           1.4606e-009     -0.00092131     1.1588e-008    
  -1.8            3.142e-010      -0.0009971      9.514e-009     
END_DB

BEGIN_DB
 ICCAP_VAR VS         0              
 ICCAP_VAR VB         1.8            
 ICCAP_VAR VD         -0.1           

 #VG              IG              ID              IB             
  0               1.1477e-009     1.0225e-009     7.711e-009     
  -0.05           6.511e-010      2.3108e-009     3.3e-011       
  -0.1            7.969e-010      2.3403e-009     1.0473e-008    
  -0.15           9.375e-010      2.326e-009      1.0421e-008    
  -0.2            1.0821e-009     2.2544e-009     1.1502e-008    
  -0.25           1.229e-009      2.1315e-009     1.2926e-008    
  -0.3            -1.433e-010     1.9163e-009     9.906e-009     
  -0.35           1.42e-011       1.9903e-009     9.595e-009     
  -0.4            1.693e-010      2.0736e-009     9.575e-009     
  -0.45           3.378e-010      2.1651e-009     9.963e-009     
  -0.5            5.082e-010      2.2293e-009     1.0304e-008    
  -0.55           6.62e-010       2.2055e-009     1.0612e-008    
  -0.6            -1.2984e-009    8.319e-010      1.0545e-008    
  -0.65           -1.2829e-009    -2.0896e-009    8.156e-009     
  -0.7            -1.2704e-009    -8.7298e-009    7.434e-009     
  -0.75           2.682e-009      -3.5395e-008    1.0735e-008    
  -0.8            -8.564e-010     -1.2568e-007    9.443e-009     
  -0.85           1.4969e-009     -4.0676e-007    -1.6012e-008   
  -0.9            1.2146e-009     -1.11337e-006   -8.981e-009    
  -0.95           2.8706e-009     -2.6179e-006    2.8109e-008    
  -1              2.7026e-009     -5.4302e-006    7.5e-011       
  -1.05           1.4766e-009     -1.00091e-005   1.2815e-008    
  -1.1            -2.2743e-009    -1.6116e-005    9.904e-009     
  -1.15           1.7047e-009     -2.4225e-005    -2.0347e-008   
  -1.2            1.2699e-009     -3.3613e-005    -9.3e-009      
  -1.25           2.8708e-009     -4.401e-005     -9.676e-009    
  -1.3            2.6598e-009     -5.4853e-005    -6.3e-011      
  -1.35           5.964e-010      -6.5907e-005    9.939e-009     
  -1.4            9.673e-010      -7.7158e-005    1.0311e-008    
  -1.45           1.3508e-009     -8.8131e-005    1.1775e-008    
  -1.5            1.7749e-009     -9.8475e-005    1.368e-008     
  -1.55           6.252e-010      -0.0001082      1.0144e-008    
  -1.6            2.4485e-009     -0.00011775     9.661e-009     
  -1.65           1.4206e-009     -0.00012689     1.2536e-008    
  -1.7            2.792e-010      -0.0001351      9.568e-009     
  -1.75           6.95e-010       -0.0001432      1.0363e-008    
  -1.8            1.0531e-009     -0.00015094     1.0438e-008    
END_DB

BEGIN_DB
 ICCAP_VAR VS         0              
 ICCAP_VAR VB         1.8            
 ICCAP_VAR VD         -1.8           

 #VG              IG              ID              IB             
  0               -8.216e-010     -8.253e-010     -2.7608e-008   
  -0.05           -1.0956e-009    -2.1858e-009    8.905e-009     
  -0.1            1.4626e-009     -1.6941e-009    -1.1571e-008   
  -0.15           8.782e-010      2.3273e-009     -8.859e-009    
  -0.2            1.0223e-009     2.2802e-009     1.0645e-008    
  -0.25           1.1623e-009     2.1865e-009     1.233e-008     
  -0.3            -2.122e-010     1.8671e-009     1.0041e-008    
  -0.35           -6.21e-011      1.9124e-009     9.642e-009     
  -0.4            9.73e-011       1.8821e-009     9.549e-009     
  -0.45           2.676e-010      1.5319e-009     9.732e-009     
  -0.5            -1.2705e-009    -2.2445e-009    1.054e-008     
  -0.55           -2.6713e-009    -1.062e-008     -2.6544e-008   
  -0.6            -2.2398e-009    -3.7544e-008    4.74e-010      
  -0.65           2.2586e-009     -1.3646e-007    1.127e-009     
  -0.7            1.5547e-009     -4.4405e-007    -6.24e-009     
  -0.75           -1.8133e-009    -1.276e-006     -1.1636e-008   
  -0.8            -2.6946e-009    -3.2965e-006    -4.884e-009    
  -0.85           1.2247e-009     -7.4897e-006    -2.7383e-008   
  -0.9            -2.7381e-009    -1.4634e-005    1.0522e-008    
  -0.95           1.1939e-009     -2.6414e-005    -2.7554e-008   
  -1              2.7938e-009     -4.342e-005     -1.2073e-008   
  -1.05           1.3723e-009     -6.6467e-005    1.2099e-008    
  -1.1            1.8006e-009     -9.5489e-005    1.414e-008     
  -1.15           2.2005e-009     -0.00013012     1.0222e-008    
  -1.2            1.0522e-009     -0.00017166     1.0711e-008    
  -1.25           1.4489e-009     -0.00021891     1.2878e-008    
  -1.3            3.099e-010      -0.00026869     9.72e-009      
  -1.35           7.195e-010      -0.0003252      1.0599e-008    
  -1.4            1.0795e-009     -0.00038611     1.0605e-008    
  -1.45           1.4847e-009     -0.00045046     1.2962e-008    
  -1.5            3.43e-010       -0.00051443     9.6e-009       
  -1.55           7.481e-010      -0.00058416     1.0902e-008    
  -1.6            1.1095e-009     -0.00065675     1.061e-008     
  -1.65           1.5223e-009     -0.000731       1.1919e-008    
  -1.7            3.775e-010      -0.00080358     9.55e-009      
  -1.75           7.826e-010      -0.000881       1.0895e-008    
  -1.8            1.1434e-009     -0.00096015     1.0397e-008    
END_DB

