! VERSION = 6.00
BEGIN_HEADER
 ICCAP_INPUTS
  VG         V  B GROUND SMU4 0.001 LIN        2    0          -1.8       6    -0.36     
  VS         V  E GROUND SMU2 0.1 CON        0
  VD         V  S GROUND SMU1 0.1 LIN        1    0          -1.8       37   -0.05     
  VB         V  C GROUND SMU3 0.1 LIN        3    0          0.9        2    0.9       
 ICCAP_OUTPUTS
  ID         I  S GROUND SMU1 B
  IB         I  C GROUND SMU3 B
  IG         I  B GROUND SMU4 B
END_HEADER

BEGIN_DB
 ICCAP_VAR VG         0              
 ICCAP_VAR VS         0              
 ICCAP_VAR VB         0              

 #VD              ID              IB              IG             
  0               -8.895e-010     1.1576e-008     -9.645e-010    
  -0.05           -1.3987e-009    7.998e-009      -1.7614e-009   
  -0.1            -2.2157e-009    -1.0762e-008    -4.411e-010    
  -0.15           -1.3792e-009    -2.5451e-008    1.2102e-009    
  -0.2            1e-013          -1.1043e-008    2.8822e-009    
  -0.25           2.3272e-009     1.17e-010       6.328e-010     
  -0.3            2.3535e-009     1.0513e-008     7.877e-010     
  -0.35           2.3308e-009     1.0292e-008     9.322e-010     
  -0.4            2.2602e-009     1.0875e-008     1.0727e-009    
  -0.45           2.1398e-009     1.2229e-008     1.2232e-009    
  -0.5            1.9387e-009     9.885e-009      -1.744e-010    
  -0.55           2.0158e-009     9.657e-009      -1.54e-011     
  -0.6            2.1017e-009     9.741e-009      1.382e-010     
  -0.65           2.2029e-009     1.0178e-008     3.108e-010     
  -0.7            2.2822e-009     1.0578e-008     4.828e-010     
  -0.75           2.3381e-009     1.067e-008      6.474e-010     
  -0.8            2.3503e-009     1.0517e-008     7.998e-010     
  -0.85           2.3243e-009     1.0253e-008     9.453e-010     
  -0.9            2.2521e-009     1.0964e-008     1.0823e-009    
  -0.95           2.1223e-009     1.2264e-008     1.2322e-009    
  -1              1.944e-009      9.785e-009      -1.599e-010    
  -1.05           2.0207e-009     9.556e-009      -5.1e-012      
  -1.1            2.1108e-009     9.73e-009       1.548e-010     
  -1.15           2.2139e-009     1.029e-008      3.269e-010     
  -1.2            2.2874e-009     1.0651e-008     5.012e-010     
  -1.25           2.3423e-009     1.0788e-008     6.643e-010     
  -1.3            2.3503e-009     1.0536e-008     8.201e-010     
  -1.35           2.3196e-009     1.031e-008      9.573e-010     
  -1.4            2.2415e-009     1.1146e-008     1.1033e-009    
  -1.45           2.1074e-009     1.2465e-008     1.2527e-009    
  -1.5            1.9521e-009     9.784e-009      -1.424e-010    
  -1.55           2.0291e-009     9.48e-009       1.45e-011      
  -1.6            2.1224e-009     9.698e-009      1.788e-010     
  -1.65           2.2242e-009     1.0335e-008     3.431e-010     
  -1.7            2.2957e-009     1.0989e-008     5.223e-010     
  -1.75           2.3431e-009     1.0945e-008     6.779e-010     
  -1.8            2.3485e-009     1.0697e-008     8.295e-010     
END_DB

BEGIN_DB
 ICCAP_VAR VG         -0.36          
 ICCAP_VAR VS         0              
 ICCAP_VAR VB         0              

 #VD              ID              IB              IG             
  0               1.0939e-009     8.736e-009      1.1796e-009    
  -0.05           1.537e-009      1.3386e-008     -1.3746e-009   
  -0.1            -1.5069e-009    8.824e-009      -2.7136e-009   
  -0.15           -1.6944e-009    -2.7091e-008    1.348e-009     
  -0.2            -4.224e-010     -9.197e-009     1.2436e-009    
  -0.25           -6.284e-010     -9.718e-009     1.2e-009       
  -0.3            -8.529e-010     -1.1111e-008    2.8918e-009    
  -0.35           8.898e-010      2.98e-010       -1.431e-009    
  -0.4            -2.0827e-009    8.543e-009      -2.6591e-009   
  -0.45           -2.8348e-009    -1.3255e-008    1.6308e-009    
  -0.5            -9.43e-010      -9.263e-009     1.4133e-009    
  -0.55           -1.196e-009     -9.062e-009     1.2858e-009    
  -0.6            -1.4757e-009    -9.557e-009     1.2188e-009    
  -0.65           -1.7759e-009    -1.0289e-008    2.8799e-009    
  -0.7            -1.0905e-009    5.23e-010       2.883e-009     
  -0.75           -1.3456e-009    -5e-012         2.8292e-009    
  -0.8            -2.486e-009     9.478e-009      -1.3005e-009   
  -0.85           -2.5969e-009    7.795e-009      -1.2854e-009   
  -0.9            -2.7421e-009    7.941e-009      -1.2775e-009   
  -0.95           -2.8944e-009    1.0392e-008     -2.5288e-009   
  -1              -4.3099e-009    1.024e-009      -2.3258e-009   
  -1.05           -5.5359e-009    -1.3421e-008    1.6496e-009    
  -1.1            -3.9301e-009    -9.409e-009     1.4246e-009    
  -1.15           -4.4485e-009    -9.001e-009     1.2931e-009    
  -1.2            -5.0155e-009    -9.462e-009     1.2222e-009    
  -1.25           -5.596e-009     -1.0117e-008    2.8799e-009    
  -1.3            -5.1851e-009    5.67e-010       2.8834e-009    
  -1.35           -5.7952e-009    4e-012          2.8372e-009    
  -1.4            -4.9584e-009    1.0158e-008     1.0644e-009    
  -1.45           -5.7229e-009    1.0991e-008     1.2142e-009    
  -1.5            -6.5665e-009    9.904e-009      -1.763e-010    
  -1.55           -7.235e-009     9.417e-009      -2.5e-011      
  -1.6            -1.1123e-008    -1.4052e-008    -1.5498e-009   
  -1.65           -1.1493e-008    9.394e-009      -2.526e-009    
  -1.7            -8.685e-009     1.0271e-008     1.2029e-009    
  -1.75           -1.3392e-008    -2.4936e-008    1.3083e-009    
  -1.8            -1.6123e-008    -1.0533e-008    -7.42e-010     
END_DB

BEGIN_DB
 ICCAP_VAR VG         -0.72          
 ICCAP_VAR VS         0              
 ICCAP_VAR VB         0              

 #VD              ID              IB              IG             
  0               7.586e-010      9.264e-009      -1.1922e-009   
  -0.05           -1.0269e-006    1.0464e-008     2.8827e-009    
  -0.1            -1.4942e-006    -1.8111e-008    1.5991e-009    
  -0.15           -1.7459e-006    -1.0482e-008    -7.11e-010     
  -0.2            -1.9521e-006    1.8732e-008     -1.639e-009    
  -0.25           -2.1771e-006    1.3476e-008     2.0997e-009    
  -0.3            -2.4058e-006    -1.194e-008     1.312e-010     
  -0.35           -2.5257e-006    8.439e-009      -1.2749e-009   
  -0.4            -2.7993e-006    1.1326e-008     1.5168e-009    
  -0.45           -2.9867e-006    -1.3371e-008    2.7439e-009    
  -0.5            -3.1932e-006    -1.1434e-008    8.3e-011       
  -0.55           -3.2992e-006    8.038e-009      -2.6214e-009   
  -0.6            -3.5964e-006    1.036e-008      1.3283e-009    
  -0.65           -3.788e-006     -2.716e-008     2.3734e-009    
  -0.7            -4.0031e-006    -1.7927e-008    2.1301e-009    
  -0.75           -4.2231e-006    -1.9403e-008    1.8795e-009    
  -0.8            -4.405e-006     -9.98e-009      -5.318e-010    
  -0.85           -4.5792e-006    1.5004e-008     -1.8615e-009   
  -0.9            -4.8077e-006    9.529e-009      3.703e-010     
  -0.95           -5.1336e-006    -1.7811e-008    2.1966e-009    
  -1              -5.3766e-006    -1.8929e-008    1.9451e-009    
  -1.05           -5.5789e-006    -9.973e-009     -4.883e-010    
  -1.1            -5.7657e-006    1.3994e-008     -1.9272e-009   
  -1.15           -6.0263e-006    9.465e-009      3.29e-010      
  -1.2            -6.4012e-006    -1.7561e-008    2.2814e-009    
  -1.25           -6.6483e-006    -1.0053e-008    -2.778e-010    
  -1.3            -6.8165e-006    1.0488e-008     -2.2071e-009   
  -1.35           -7.2662e-006    1.3312e-008     1.712e-009     
  -1.4            -7.513e-006     -2.0004e-008    1.7367e-009    
  -1.45           -7.7513e-006    -1.0202e-008    -6.185e-010    
  -1.5            -7.9936e-006    1.6763e-008     -1.7564e-009   
  -1.55           -8.4118e-006    1.2783e-008     2.0205e-009    
  -1.6            -8.7894e-006    -1.3121e-008    2.012e-010     
  -1.65           -8.93e-006      8.755e-009      -1.2792e-009   
  -1.7            -9.4923e-006    1.199e-008      1.4297e-009    
  -1.75           -9.8052e-006    -1.1844e-008    2.8049e-009    
  -1.8            -1.01698e-005   -1.2357e-008    1.548e-010     
END_DB

BEGIN_DB
 ICCAP_VAR VG         -1.08          
 ICCAP_VAR VS         0              
 ICCAP_VAR VB         0              

 #VD              ID              IB              IG             
  0               -3.2462e-008    -1.7374e-008    -1.2388e-009   
  -0.05           -2.5605e-005    -1.9069e-008    6.762e-010     
  -0.1            -4.5288e-005    -2.524e-008     1.2874e-009    
  -0.15           -5.9992e-005    -1.946e-008     1.8611e-009    
  -0.2            -7.1071e-005    -1.3081e-008    1.965e-010     
  -0.25           -7.8786e-005    8.395e-009      -2.3943e-009   
  -0.3            -8.5578e-005    9.512e-009      3.788e-010     
  -0.35           -9.1614e-005    -2.1061e-008    1.5684e-009    
  -0.4            -9.6406e-005    -1.1153e-008    3.75e-011      
  -0.45           -9.9659e-005    1.1279e-008     -2.1357e-009   
  -0.5            -0.000103759    1.0006e-008     5.725e-010     
  -0.55           -0.000107923    -2.3892e-008    1.3626e-009    
  -0.6            -0.000111214    -1.8473e-008    2.0484e-009    
  -0.65           -0.000113893    -1.0634e-008    -8.171e-010    
  -0.7            -0.000117       2.1327e-008     6.716e-010     
  -0.75           -0.00012056     -2.1499e-008    1.5195e-009    
  -0.8            -0.00012353     -1.3515e-008    2.161e-010     
  -0.85           -0.00012543     8.371e-009      -1.2743e-009   
  -0.9            -0.0001286      1.0119e-008     6.125e-010     
  -0.95           -0.00013205     -2.0971e-008    1.6001e-009    
  -1              -0.00013478     -1.4509e-008    1.4203e-009    
  -1.05           -0.00013763     -1.2343e-008    1.499e-010     
  -1.1            -0.00013914     7.877e-009      -2.5888e-009   
  -1.15           -0.00014346     1.2459e-008     1.505e-009     
  -1.2            -0.00014567     -1.4921e-008    2.6427e-009    
  -1.25           -0.00014826     -2.7535e-008    1.193e-009     
  -1.3            -0.00015094     -1.9792e-008    1.7986e-009    
  -1.35           -0.00015305     -1.047e-008     -7.082e-010    
  -1.4            -0.00015517     2.1356e-008     -1.5112e-009   
  -1.45           -0.00015837     1.0457e-008     7.872e-010     
  -1.5            -0.00016166     -2.3385e-008    1.3833e-009    
  -1.55           -0.00016421     -2.6718e-008    1.2251e-009    
  -1.6            -0.00016687     -1.0426e-008    -1.214e-010    
  -1.65           -0.00016818     1.0275e-008     -2.2322e-009   
  -1.7            -0.00017239     1.3499e-008     1.8212e-009    
  -1.75           -0.00017479     -1.4254e-008    1.4228e-009    
  -1.8            -0.00017754     -1.2018e-008    1.545e-010     
END_DB

BEGIN_DB
 ICCAP_VAR VG         -1.44          
 ICCAP_VAR VS         0              
 ICCAP_VAR VB         0              

 #VD              ID              IB              IG             
  0               -5.4326e-008    -1.4085e-008    4.21e-011      
  -0.05           -6.3323e-005    -1.6667e-008    3.51e-010      
  -0.1            -0.00012095     -1.22e-008      1.539e-010     
  -0.15           -0.000172       7.816e-009      -2.5872e-009   
  -0.2            -0.00021827     1.131e-008      1.5066e-009    
  -0.25           -0.00025772     -1.5036e-008    2.6456e-009    
  -0.3            -0.00029175     -2.7421e-008    2.4624e-009    
  -0.35           -0.00032089     -1.86e-008      2.0192e-009    
  -0.4            -0.00034519     -1.0086e-008    -5.817e-010    
  -0.45           -0.0003654      1.8626e-008     -1.6425e-009   
  -0.5            -0.0003837      1.0361e-008     6.65e-010      
  -0.55           -0.00039988     -2.1415e-008    1.5205e-009    
  -0.6            -0.00041336     -1.3676e-008    2.17e-010      
  -0.65           -0.00042358     8.372e-009      -1.2741e-009   
  -0.7            -0.00043483     1.0071e-008     6.062e-010     
  -0.75           -0.00044541     -2.0807e-008    1.6007e-009    
  -0.8            -0.00045438     -1.4584e-008    1.4217e-009    
  -0.85           -0.00046297     -1.2336e-008    1.502e-010     
  -0.9            -0.00046886     7.851e-009      -2.5909e-009   
  -0.95           -0.00047889     1.2497e-008     1.4969e-009    
  -1              -0.00048534     -1.4951e-008    2.653e-009     
  -1.05           -0.00049212     -1.0478e-008    -1.278e-010    
  -1.1            -0.00049696     1.0207e-008     -2.2411e-009   
  -1.15           -0.00050564     1.3406e-008     1.8179e-009    
  -1.2            -0.00051156     -1.4523e-008    1.4239e-009    
  -1.25           -0.00051781     -1.241e-008     1.551e-010     
  -1.3            -0.00052177     7.75e-009       -2.5929e-009   
  -1.35           -0.00053032     1.2401e-008     1.4952e-009    
  -1.4            -0.00053562     -1.4914e-008    2.6509e-009    
  -1.45           -0.00054098     -2.7489e-008    1.1944e-009    
  -1.5            -0.00054675     -1.975e-008     1.8102e-009    
  -1.55           -0.00055196     -1.7584e-008    1.5825e-009    
  -1.6            -0.00055775     -1.4363e-008    1.407e-009     
  -1.65           -0.00056183     -1.0881e-008    -9.637e-010    
  -1.7            -0.00056661     2.6283e-008     -1.3548e-009   
  -1.75           -0.00057369     1.0655e-008     1.0374e-009    
  -1.8            -0.00057928     -2.7012e-008    1.2215e-009    
END_DB

BEGIN_DB
 ICCAP_VAR VG         -1.8           
 ICCAP_VAR VS         0              
 ICCAP_VAR VB         0              

 #VD              ID              IB              IG             
  0               -6.2471e-008    -1.7127e-008    1.546e-010     
  -0.05           -8.8792e-005    -1.4995e-008    2.194e-010     
  -0.1            -0.00017366     -1.6947e-008    -2.033e-010    
  -0.15           -0.00025372     1.109e-008      -2.1191e-009   
  -0.2            -0.00032956     9.598e-009      3.089e-010     
  -0.25           -0.00040097     -1.8168e-008    2.0715e-009    
  -0.3            -0.00046677     -9.961e-009     -5.375e-010    
  -0.35           -0.0005271      1.8029e-008     -1.6805e-009   
  -0.4            -0.0005831      1.0182e-008     6.304e-010     
  -0.45           -0.00063383     -2.1572e-008    1.5765e-009    
  -0.5            -0.00067913     -1.4257e-008    1.4032e-009    
  -0.55           -0.00071885     -1.0835e-008    -9.766e-010    
  -0.6            -0.00075426     2.6439e-008     -1.3587e-009   
  -0.65           -0.00078768     1.0533e-008     1.0458e-009    
  -0.7            -0.00081617     -2.6946e-008    1.2233e-009    
  -0.75           -0.00084145     -1.8726e-008    1.9965e-009    
  -0.8            -0.00086372     -2.032e-008     1.7552e-009    
  -0.85           -0.00088343     -1.0642e-008    -7.441e-010    
  -0.9            -0.0009004      2.2293e-008     -1.4923e-009   
  -0.95           -0.00091818     1.0786e-008     8.117e-010     
  -1              -0.00093377     -2.4294e-008    1.3638e-009    
  -1.05           -0.00094601     -1.0707e-008    -1.015e-009    
  -1.1            -0.00095836     2.6863e-008     -1.3452e-009   
  -1.15           -0.00097274     1.0509e-008     1.0846e-009    
  -1.2            -0.00098363     -2.7258e-008    2.5366e-009    
  -1.25           -0.00099477     -1.7832e-008    2.1251e-009    
  -1.3            -0.00100466     -2.0683e-008    1.6781e-009    
  -1.35           -0.00101497     -1.5706e-008    1.4869e-009    
  -1.4            -0.00102441     -1.3206e-008    1.872e-010     
  -1.45           -0.00103152     8.077e-009      -2.6126e-009   
  -1.5            -0.00104345     1.0986e-008     1.4534e-009    
  -1.55           -0.00105173     -1.4203e-008    2.6783e-009    
  -1.6            -0.00106028     -2.7162e-008    2.4984e-009    
  -1.65           -0.00106855     -1.7927e-008    2.0801e-009    
  -1.7            -0.00107647     -2.1561e-008    1.8383e-009    
  -1.75           -0.00108471     -1.7697e-008    1.6058e-009    
  -1.8            -0.00109272     -1.4718e-008    1.4341e-009    
END_DB

BEGIN_DB
 ICCAP_VAR VG         0              
 ICCAP_VAR VS         0              
 ICCAP_VAR VB         0.9            

 #VD              ID              IB              IG             
  0               8.154e-010      9.885e-009      8.33e-010      
  -0.05           2.3468e-009     -9.081e-009     8.377e-010     
  -0.1            2.3129e-009     1.0119e-008     9.866e-010     
  -0.15           2.2274e-009     1.1384e-008     1.128e-009     
  -0.2            2.0828e-009     1.2629e-008     1.2868e-009    
  -0.25           1.9691e-009     9.826e-009      -1.003e-010    
  -0.3            2.0478e-009     9.549e-009      5.7e-011       
  -0.35           2.1518e-009     9.659e-009      2.265e-010     
  -0.4            2.2381e-009     1.0306e-008     4.047e-010     
  -0.45           2.3091e-009     1.0462e-008     5.735e-010     
  -0.5            2.3475e-009     1.0403e-008     7.388e-010     
  -0.55           2.3402e-009     1.0412e-008     8.91e-010      
  -0.6            2.2908e-009     1.0095e-008     1.0304e-009    
  -0.65           2.1866e-009     1.081e-008      1.1792e-009    
  -0.7            1.9123e-009     1.016e-008      -2.049e-010    
  -0.75           8.632e-010      2.4577e-008     -1.5688e-009   
  -0.8            -1.4887e-009    6.97e-009       -1.7169e-009   
  -0.85           -2.1661e-009    -1.0224e-008    -3.518e-010    
  -0.9            -2.2279e-009    -1.0595e-008    -5.359e-010    
  -0.95           -1.4519e-009    -2.3579e-008    2.3935e-009    
  -1              2.1381e-009     -4.653e-009     1.2524e-009    
  -1.05           1.9489e-009     9.929e-009      -1.416e-010    
  -1.1            2.0275e-009     9.572e-009      2.24e-011      
  -1.15           2.1202e-009     9.573e-009      1.898e-010     
  -1.2            2.2185e-009     1.0121e-008     3.589e-010     
  -1.25           2.2954e-009     1.0382e-008     5.291e-010     
  -1.3            2.3383e-009     1.0417e-008     6.96e-010      
  -1.35           2.3473e-009     1.0374e-008     8.496e-010     
  -1.4            2.3089e-009     1.0255e-008     9.952e-010     
  -1.45           2.2158e-009     1.1606e-008     1.1454e-009    
  -1.5            2.0674e-009     1.2764e-008     1.2983e-009    
  -1.55           1.8392e-009     1.3144e-008     -1.4119e-009   
  -1.6            -1.2904e-009    8.706e-009      -1.8376e-009   
  -1.65           -2.2361e-009    -1.0608e-008    -5.735e-010    
  -1.7            -1.4731e-009    -2.2836e-008    2.3385e-009    
  -1.75           2.1035e-009     -5.164e-009     1.2833e-009    
  -1.8            1.9648e-009     9.838e-009      -1.097e-010    
END_DB

BEGIN_DB
 ICCAP_VAR VG         -0.36          
 ICCAP_VAR VS         0              
 ICCAP_VAR VB         0.9            

 #VD              ID              IB              IG             
  0               2.2529e-009     -1.1958e-008    2.2206e-009    
  -0.05           2.2932e-009     1.0707e-008     5.35e-010      
  -0.1            2.3405e-009     1.0676e-008     6.996e-010     
  -0.15           2.3436e-009     1.0354e-008     8.538e-010     
  -0.2            2.2989e-009     1.0368e-008     1.0021e-009    
  -0.25           2.2088e-009     1.1664e-008     1.1459e-009    
  -0.3            2.0515e-009     1.2804e-008     1.3126e-009    
  -0.35           1.8366e-009     1.3154e-008     -1.4075e-009   
  -0.4            -1.2902e-009    8.678e-009      -1.8426e-009   
  -0.45           -1.6362e-009    -1.4352e-008    1.741e-009     
  -0.5            2.3269e-009     -9.353e-009     6.955e-010     
  -0.55           2.3319e-009     1.0387e-008     8.517e-010     
