! VERSION = 6.00
BEGIN_HEADER
 ICCAP_INPUTS
  VG         V  B GROUND SMU4 0.001 LIN        2    0          -1.8       6    -0.36     
  VS         V  E GROUND SMU2 0.1 CON        0
  VD         V  S GROUND SMU1 0.1 LIN        1    0          -1.8       37   -0.05     
  VB         V  C GROUND SMU3 0.1 LIN        3    0          0.9        2    0.9       
 ICCAP_OUTPUTS
  ID         I  S GROUND SMU1 B
  IB         I  C GROUND SMU3 B
  IG         I  B GROUND SMU4 B
END_HEADER

BEGIN_DB
 ICCAP_VAR VG         0              
 ICCAP_VAR VS         0              
 ICCAP_VAR VB         0              

 #VD              ID              IB              IG             
  0               -8.723e-010     -2.7147e-008    -9.226e-010    
  -0.05           -1.3111e-009    8.831e-009      -1.8074e-009   
  -0.1            -2.2179e-009    -1.055e-008     -5.6e-010      
  -0.15           -2.2532e-009    -1.0813e-008    -7.29e-010     
  -0.2            -1.5401e-009    -1.9179e-008    2.1084e-009    
  -0.25           2.2616e-009     -7.447e-009     4.989e-010     
  -0.3            2.3249e-009     1.0691e-008     6.648e-010     
  -0.35           2.3432e-009     1.0525e-008     8.208e-010     
  -0.4            2.3171e-009     1.0135e-008     9.658e-010     
  -0.45           2.237e-009      1.1542e-008     1.1107e-009    
  -0.5            2.1008e-009     1.2923e-008     1.2717e-009    
  -0.55           1.8157e-009     1.3501e-008     -1.4195e-009   
  -0.6            -1.298e-009     8.797e-009      -1.8155e-009   
  -0.65           -2.222e-009     -1.0537e-008    -5.744e-010    
  -0.7            -1.4575e-009    -2.3318e-008    1.1859e-009    
  -0.75           -9.58e-011      -1.3144e-008    2.8687e-009    
  -0.8            2.3354e-009     -2.77e-010      7.584e-010     
  -0.85           2.3326e-009     1.0324e-008     9.029e-010     
  -0.9            2.2801e-009     1.0267e-008     1.0474e-009    
  -0.95           2.1594e-009     1.125e-008      1.2072e-009    
  -1              1.9128e-009     1.0032e-008     -1.731e-010    
  -1.05           1.9885e-009     9.646e-009      -1.29e-011     
  -1.1            2.0798e-009     9.552e-009      1.51e-010      
  -1.15           2.183e-009      1.0045e-008     3.279e-010     
  -1.2            2.2641e-009     1.0306e-008     5.021e-010     
  -1.25           2.3244e-009     1.0413e-008     6.666e-010     
  -1.3            2.3448e-009     1.0328e-008     8.201e-010     
  -1.35           2.3128e-009     1.0222e-008     9.685e-010     
  -1.4            2.2339e-009     1.1713e-008     1.1141e-009    
  -1.45           2.0912e-009     1.301e-008      1.276e-009     
  -1.5            1.9482e-009     9.888e-009      -1.056e-010    
  -1.55           2.025e-009      9.608e-009      5.88e-011      
  -1.6            2.1188e-009     9.644e-009      2.3e-010       
  -1.65           2.2172e-009     1.0461e-008     4.052e-010     
  -1.7            2.2924e-009     1.0687e-008     5.769e-010     
  -1.75           2.3372e-009     1.0524e-008     7.389e-010     
  -1.8            2.336e-009      1.0305e-008     8.845e-010     
END_DB

BEGIN_DB
 ICCAP_VAR VG         -0.36          
 ICCAP_VAR VS         0              
 ICCAP_VAR VB         0              

 #VD              ID              IB              IG             
  0               7.802e-010      -1.1312e-008    7.769e-010     
  -0.05           -4.978e-010     -8.85e-009      1.2649e-009    
  -0.1            -8.267e-010     -9.662e-009     1.2082e-009    
  -0.15           -1.0788e-009    -1.1199e-008    2.8725e-009    
  -0.2            6.361e-010      2.13e-010       -1.4335e-009   
  -0.25           -2.294e-009     8.771e-009      -2.6367e-009   
  -0.3            -3.0463e-009    -1.357e-008     1.6423e-009    
  -0.35           -1.1267e-009    -9.243e-009     1.4152e-009    
  -0.4            -1.3494e-009    -8.91e-009      1.2867e-009    
  -0.45           -1.5926e-009    -9.376e-009     1.2183e-009    
  -0.5            -1.8486e-009    -1.0556e-008    2.8639e-009    
  -0.55           -1.1408e-009    3.92e-010       2.8664e-009    
  -0.6            -1.3205e-009    -3.08e-010      2.8156e-009    
  -0.65           -5.53e-011      1.0686e-008     1.0571e-009    
  -0.7            -3.387e-010     1.1914e-008     1.2194e-009    
  -0.75           -1.9781e-009    9.988e-009      -2.0264e-009   
  -0.8            -4.4895e-009    -1.1182e-008    1.3993e-009    
  -0.85           -2.7214e-009    -8.978e-009     1.2728e-009    
  -0.9            -3.0282e-009    -9.676e-009     1.2108e-009    
  -0.95           -3.346e-009     -1.0718e-008    2.8706e-009    
  -1              -2.6187e-009    2.95e-010       2.8625e-009    
  -1.05           -2.8688e-009    -2.97e-010      2.7878e-009    
  -1.1            -1.7083e-009    1.1616e-008     1.1278e-009    
  -1.15           -2.0675e-009    1.2895e-008     1.2896e-009    
  -1.2            -2.49e-009      1.3361e-008     1.4552e-009    
  -1.25           -2.5853e-009    9.598e-009      6.69e-011      
  -1.3            -2.764e-009     9.675e-009      2.331e-010     
  -1.35           -2.9337e-009    1.0361e-008     3.998e-010     
  -1.4            -3.1663e-009    1.0702e-008     5.694e-010     
  -1.45           -3.4376e-009    1.0517e-008     7.32e-010      
  -1.5            -3.7829e-009    1.041e-008      8.803e-010     
  -1.55           -4.1595e-009    1.0148e-008     1.0226e-009    
  -1.6            -4.6224e-009    1.0998e-008     1.1767e-009    
  -1.65           -5.2709e-009    1.0198e-008     -2.036e-010    
  -1.7            -6.6463e-009    2.46e-008       -1.5734e-009   
  -1.75           -8.2721e-009    7.065e-009      -1.4275e-009   
  -1.8            -8.6119e-009    8.771e-009      -1.3545e-009   
END_DB

BEGIN_DB
 ICCAP_VAR VG         -0.72          
 ICCAP_VAR VS         0              
 ICCAP_VAR VB         0              

 #VD              ID              IB              IG             
  0               2.9706e-010     2.6105e-008     2.5945e-009    
  -0.05           -9.3579e-007    1.0644e-008     -2.679e-009    
  -0.1            -1.3437e-006    -1.0667e-008    -1.2759e-009   
  -0.15           -1.6247e-006    1.0891e-008     1.4029e-009    
  -0.2            -1.8039e-006    -1.176e-008     2.8095e-009    
  -0.25           -1.9662e-006    -1.2873e-008    1.672e-010     
  -0.3            -2.0531e-006    8.793e-009      -1.2714e-009   
  -0.35           -2.2544e-006    1.1248e-008     1.4699e-009    
  -0.4            -2.3915e-006    -1.2582e-008    2.7663e-009    
  -0.45           -2.5329e-006    -1.2073e-008    1.028e-010     
  -0.5            -2.5981e-006    8.483e-009      -1.2672e-009   
  -0.55           -2.8134e-006    1.1849e-008     1.5389e-009    
  -0.6            -2.9502e-006    -1.3616e-008    2.7073e-009    
  -0.65           -3.0893e-006    -2.671e-008     1.2573e-009    
  -0.7            -3.228e-006     -2.7457e-008    1.2099e-009    
  -0.75           -3.3663e-006    -2.6671e-008    2.3072e-009    
  -0.8            -3.5199e-006    -1.7987e-008    2.0618e-009    
  -0.85           -3.6715e-006    -1.9798e-008    1.8145e-009    
  -0.9            -3.7833e-006    -9.999e-009     -5.797e-010    
  -0.95           -3.8981e-006    1.5338e-008     -1.8013e-009   
  -1              -4.1196e-006    1.2986e-008     1.9771e-009    
  -1.05           -4.3041e-006    -1.3919e-008    1.4038e-009    
  -1.1            -4.4667e-006    -1.3795e-008    2.137e-010     
  -1.15           -4.5238e-006    8.835e-009      -1.2761e-009   
  -1.2            -4.8194e-006    1.2029e-008     1.4118e-009    
  -1.25           -4.9789e-006    -1.1832e-008    2.8077e-009    
  -1.3            -5.1562e-006    -1.2902e-008    1.62e-010      
  -1.35           -5.2069e-006    8.725e-009      -1.2685e-009   
  -1.4            -5.5337e-006    1.2596e-008     1.4841e-009    
  -1.45           -5.7024e-006    -1.2633e-008    2.7638e-009    
  -1.5            -5.895e-006     -1.2032e-008    1.014e-010     
  -1.55           -5.9425e-006    8.508e-009      -1.2644e-009   
  -1.6            -6.3053e-006    1.2939e-008     1.5484e-009    
  -1.65           -6.4817e-006    -1.3644e-008    2.6992e-009    
  -1.7            -6.6903e-006    -1.1443e-008    3.84e-011      
  -1.75           -6.7399e-006    7.812e-009      -2.5907e-009   
  -1.8            -7.1239e-006    1.0716e-008     1.3646e-009    
END_DB

BEGIN_DB
 ICCAP_VAR VG         -1.08          
 ICCAP_VAR VS         0              
 ICCAP_VAR VB         0              

 #VD              ID              IB              IG             
  0               -3.5023e-008    -1.8619e-008    -1.1968e-009   
  -0.05           -2.5367e-005    -2.1092e-008    8.41e-010      
  -0.1            -4.4722e-005    -2.7255e-008    1.2236e-009    
  -0.15           -5.9079e-005    -2.0264e-008    1.7551e-009    
  -0.2            -6.9874e-005    -1.2467e-008    1.338e-010     
  -0.25           -7.7193e-005    8.792e-009      -2.2885e-009   
  -0.3            -8.4035e-005    1.3497e-008     2.0157e-009    
  -0.35           -8.91e-005      -2.2622e-008    1.4938e-009    
  -0.4            -9.3256e-005    -2.7053e-008    2.4095e-009    
  -0.45           -9.6917e-005    -2.0504e-008    1.7724e-009    
  -0.5            -9.9675e-005    -1.0693e-008    -9.573e-010    
  -0.55           -0.000102553    2.7476e-008     -1.3113e-009   
  -0.6            -0.000106732    1.1485e-008     1.5045e-009    
  -0.65           -0.000109088    -1.5392e-008    1.5023e-009    
  -0.7            -0.000111643    -2.7118e-008    2.4194e-009    
  -0.75           -0.00011409     -2.0597e-008    1.7837e-009    
  -0.8            -0.00011543     -1.9165e-008    -1.6554e-009   
  -0.85           -0.00011818     1.8436e-008     -1.5635e-009   
  -0.9            -0.00012083     1.0644e-008     7.242e-010     
  -0.95           -0.00012366     -2.3271e-008    1.456e-009     
  -1              -0.00012595     -1.2692e-008    1.547e-010     
  -1.05           -0.00012704     7.922e-009      -2.5891e-009   
  -1.1            -0.00013079     1.1365e-008     1.4857e-009    
  -1.15           -0.00013256     -1.4683e-008    2.6254e-009    
  -1.2            -0.00013456     -2.7126e-008    2.4422e-009    
  -1.25           -0.00013686     -1.8691e-008    2.0112e-009    
  -1.3            -0.00013877     -2.0352e-008    1.7697e-009    
  -1.35           -0.00014046     -1.0578e-008    -7.425e-010    
  -1.4            -0.00014209     2.2201e-008     -1.491e-009    
  -1.45           -0.00014482     1.0692e-008     8.052e-010     
  -1.5            -0.00014737     -2.4578e-008    1.3761e-009    
  -1.55           -0.00014841     -1.0593e-008    -1.0113e-009   
  -1.6            -0.00015033     2.6857e-008     -1.3431e-009   
  -1.65           -0.00015366     1.0523e-008     1.0821e-009    
  -1.7            -0.00015563     -2.7228e-008    1.2161e-009    
  -1.75           -0.00015775     -1.9459e-008    1.9057e-009    
  -1.8            -0.00015966     -1.8539e-008    1.6702e-009    
END_DB

BEGIN_DB
 ICCAP_VAR VG         -1.44          
 ICCAP_VAR VS         0              
 ICCAP_VAR VB         0              

 #VD              ID              IB              IG             
  0               -6.0099e-008    -1.1894e-008    -2.423e-010    
  -0.05           -6.4334e-005    7.5e-009        -2.625e-010    
  -0.1            -0.00012247     8.99e-009       -1.508e-009    
  -0.15           -0.00017485     1.0809e-008     7.763e-010     
  -0.2            -0.00022133     -2.4109e-008    1.3869e-009    
  -0.25           -0.00026108     -1.0825e-008    -9.937e-010    
  -0.3            -0.0002953      2.6795e-008     -1.3452e-009   
  -0.35           -0.00032577     1.039e-008      1.0585e-009    
  -0.4            -0.00035069     -2.7539e-008    1.2174e-009    
  -0.45           -0.00037192     -1.9167e-008    1.9375e-009    
  -0.5            -0.00038933     -1.0214e-008    -6.328e-010    
  -0.55           -0.00040386     1.9585e-008     -1.5845e-009   
  -0.6            -0.00041783     1.0404e-008     7.047e-010     
  -0.65           -0.00043025     -2.2556e-008    1.4692e-009    
  -0.7            -0.00044085     -1.2823e-008    1.79e-010      
  -0.75           -0.00044833     7.951e-009      -2.6208e-009   
  -0.8            -0.00045943     1.252e-008      1.4677e-009    
  -0.85           -0.00046682     -1.4395e-008    2.6608e-009    
  -0.9            -0.00047399     -2.7578e-008    1.2023e-009    
  -0.95           -0.00048099     -1.9774e-008    1.8267e-009    
  -1              -0.00048689     -1.0264e-008    -7.036e-010    
  -1.05           -0.0004923      2.1279e-008     -1.5161e-009   
  -1.1            -0.00049941     1.0423e-008     7.698e-010     
  -1.15           -0.00050616     -2.3914e-008    1.3935e-009    
  -1.2            -0.00051207     -1.1947e-008    1.147e-010     
  -1.25           -0.00051536     7.606e-009      -2.5563e-009   
  -1.3            -0.00052389     1.2919e-008     1.5402e-009    
  -1.35           -0.00052778     -2.0766e-008    1.7845e-009    
  -1.4            -0.00053254     -1.0334e-008    -7.245e-010    
  -1.45           -0.00053652     2.1692e-008     -1.4959e-009   
  -1.5            -0.0005428      1.0804e-008     7.892e-010     
  -1.55           -0.00054877     -2.4378e-008    1.3732e-009    
  -1.6            -0.00055181     -1.0718e-008    -1.0051e-009   
  -1.65           -0.00055626     2.6924e-008     -1.3415e-009   
  -1.7            -0.00056317     1.0641e-008     1.071e-009     
  -1.75           -0.00056777     -2.7451e-008    1.217e-009     
  -1.8            -0.00057254     -1.9052e-008    1.9107e-009    
END_DB

BEGIN_DB
 ICCAP_VAR VG         -1.8           
 ICCAP_VAR VS         0              
 ICCAP_VAR VB         0              

 #VD              ID              IB              IG             
  0               -7.4807e-008    -1.7328e-008    -1.233e-009    
  -0.05           -9.2343e-005    -1.9108e-008    7.006e-010     
  -0.1            -0.00018032     -2.1303e-008    -7.255e-010    
  -0.15           -0.00026351     2.1445e-008     -1.5028e-009   
  -0.2            -0.00034226     1.0368e-008     7.914e-010     
  -0.25           -0.00041603     -2.3897e-008    1.3783e-009    
  -0.3            -0.00048424     -2.7254e-008    1.2248e-009    
  -0.35           -0.00054699     -1.8571e-008    2.0162e-009    
  -0.4            -0.00060416     -1.0035e-008    -5.881e-010    
  -0.45           -0.00065553     1.8664e-008     -1.626e-009    
  -0.5            -0.00070263     1.0298e-008     6.674e-010     
  -0.55           -0.00074513     -2.1987e-008    1.5081e-009    
  -0.6            -0.00078236     -1.3374e-008    2.071e-010     
  -0.65           -0.00081382     8.328e-009      -1.2707e-009   
  -0.7            -0.00084362     1.0229e-008     6.26e-010      
  -0.75           -0.00087052     -2.1491e-008    1.5728e-009    
  -0.8            -0.00089361     -1.421e-008     1.3998e-009    
  -0.85           -0.00091432     -1.2067e-008    1.246e-010     
  -0.9            -0.00093072     7.515e-009      -2.5724e-009   
  -0.95           -0.00095036     1.2926e-008     1.5291e-009    
  -1              -0.00096453     -1.5322e-008    2.5967e-009    
  -1.05           -0.00097843     -1.7591e-008    2.2021e-009    
  -1.1            -0.00099122     -2.0287e-008    1.734e-009     
  -1.15           -0.00100213     -1.0539e-008    -7.652e-010    
  -1.2            -0.00101232     2.229e-008      -1.4699e-009   
  -1.25           -0.00102432     1.0525e-008     8.281e-010     
  -1.3            -0.00103517     -2.4576e-008    1.3404e-009    
  -1.35           -0.0010447      -2.7629e-008    1.2139e-009    
  -1.4            -0.00105397     -1.03e-008      -2.006e-010    
  -1.45           -0.00106076     1.0786e-008     -2.1439e-009   
  -1.5            -0.00106966     9.483e-009      3.117e-010     
  -1.55           -0.00107962     -1.8546e-008    2.0781e-009    
  -1.6            -0.00108711     -1.0018e-008    -5.526e-010    
  -1.65           -0.00109366     1.7672e-008     -1.6716e-009   
  -1.7            -0.00110211     1.0207e-008     6.342e-010     
  -1.75           -0.00111125     -2.1459e-008    1.5521e-009    
  -1.8            -0.00111841     -1.38e-008      2.362e-010     
END_DB

BEGIN_DB
 ICCAP_VAR VG         0              
 ICCAP_VAR VS         0              
 ICCAP_VAR VB         0.9            

 #VD              ID              IB              IG             
  0               8.497e-010      -1.3532e-008    8.505e-010     
  -0.05           2.3477e-009     -9.031e-009     8.125e-010     
  -0.1            2.3193e-009     1.0233e-008     9.63e-010      
  -0.15           2.2288e-009     1.1574e-008     1.1139e-009    
  -0.2            2.0836e-009     1.2814e-008     1.2782e-009    
  -0.25           1.953e-009      9.884e-009      -1.007e-010    
  -0.3            2.03e-009       9.61e-009       6.07e-011      
  -0.35           2.1365e-009     9.731e-009      2.348e-010     
  -0.4            2.2304e-009     1.0298e-008     4.134e-010     
  -0.45           2.3081e-009     1.0471e-008     5.915e-010     
  -0.5            2.3466e-009     1.0431e-008     7.567e-010     
  -0.55           2.3297e-009     1.0252e-008     9.115e-010     
  -0.6            2.267e-009      1.0919e-008     1.0559e-009    
  -0.65           2.1428e-009     1.2483e-008     1.2169e-009    
  -0.7            1.9254e-009     1.0134e-008     -1.623e-010    
  -0.75           2.0027e-009     9.724e-009      3.2e-012       
  -0.8            2.096e-009      9.655e-009      1.727e-010     
  -0.85           2.2018e-009     1.0136e-008     3.497e-010     
  -0.9            2.2824e-009     1.0294e-008     5.315e-010     
  -0.95           2.338e-009      1.0386e-008     6.996e-010     
  -1              2.3446e-009     1.0294e-008     8.577e-010     
  -1.05           2.3011e-009     1.0443e-008     1.0032e-009    
  -1.1            2.1935e-009     1.1986e-008     1.1616e-009    
  -1.15           2.0257e-009     1.213e-008      1.332e-009     
  -1.2            1.8527e-009     1.3241e-008     -1.3961e-009   
  -1.25           -2.2009e-009    8.985e-009      -1.0399e-009   
  -1.3            -1.6789e-009    -1.2124e-008    1.5253e-009    
  -1.35           2.3444e-009     -8.856e-009     8.51e-010      
  -1.4            2.3025e-009     1.0434e-008     9.98e-010      
  -1.45           2.1982e-009     1.1929e-008     1.1515e-009    
  -1.5            2.0438e-009     1.3013e-008     1.3201e-009    
  -1.55           1.8448e-009     1.3219e-008     -1.4027e-009   
  -1.6            -1.2648e-009    8.968e-009      -1.8436e-009   
  -1.65           -1.6222e-009    -1.4124e-008    1.7159e-009    
  -1.7            2.338e-009      -9.37e-009      7.254e-010     
  -1.75           2.3386e-009     1.0315e-008     8.813e-010     
  -1.8            2.2931e-009     1.0687e-008     1.0303e-009    
END_DB

BEGIN_DB
 ICCAP_VAR VG         -0.36          
 ICCAP_VAR VS         0              
 ICCAP_VAR VB         0.9            

 #VD              ID              IB              IG             
  0               4.754e-010      1.032e-008      3.028e-010     
  -0.05           -2.742e-010     -1.5739e-008    2.7903e-009    
  -0.1            2.2009e-009     1.1798e-008     1.1448e-009    
  -0.15           2.0362e-009     1.2998e-008     1.3157e-009    
  -0.2            1.837e-009      1.3354e-008     -1.4005e-009   
  -0.25           -1.2702e-009    8.907e-009      -1.8459e-009   
  -0.3            -1.6322e-009    -1.4093e-008    1.7003e-009    
  -0.35           2.3334e-009     -9.294e-009     7.328e-010     
  -0.4            2.3296e-009     1.0246e-008     8.891e-010     
  -0.45           2.271e-009      1.0815e-008     1.0392e-009    
  -0.5            2.1496e-009     1.1243e-008     1.1974e-009    
  -0.55           1.9023e-009     1.0211e-008     -1.726e-010    
