! VERSION = 6.00
BEGIN_HEADER
 ICCAP_INPUTS
  VG         V  B GROUND SMU4 0.001 LIN        2    0          -1.8       6    -0.36     
  VS         V  E GROUND SMU2 0.1 CON        0
  VD         V  S GROUND SMU1 0.1 LIN        1    0          -1.8       37   -0.05     
  VB         V  C GROUND SMU3 0.1 LIN        3    0          0.9        2    0.9       
 ICCAP_OUTPUTS
  ID         I  S GROUND SMU1 B
  IB         I  C GROUND SMU3 B
  IG         I  B GROUND SMU4 B
END_HEADER

BEGIN_DB
 ICCAP_VAR VG         0              
 ICCAP_VAR VS         0              
 ICCAP_VAR VB         0              

 #VD              ID              IB              IG             
  0               6.305e-010      -1.0366e-008    5.171e-010     
  -0.05           -5.9e-012       -1.1802e-008    2.8778e-009    
  -0.1            2.3369e-009     -2.18e-010      6.681e-010     
  -0.15           2.3579e-009     1.026e-008      8.329e-010     
  -0.2            2.3407e-009     9.831e-009      9.75e-010      
  -0.25           2.2637e-009     1.0142e-008     1.1181e-009    
  -0.3            2.1323e-009     1.0884e-008     1.2723e-009    
  -0.35           1.9616e-009     1.0144e-008     -1.414e-010    
  -0.4            9.305e-010      2.5478e-008     -1.5182e-009   
  -0.45           -1.4364e-009    7.701e-009      -1.7678e-009   
  -0.5            -2.2138e-009    -1.0717e-008    -4.345e-010    
  -0.55           -5.37e-010      -1.7256e-008    2.5216e-009    
  -0.6            2.2258e-009     -3.586e-009     1.181e-009     
  -0.65           1.9139e-009     1.0446e-008     -2.278e-010    
  -0.7            8.668e-010      2.3953e-008     -1.6042e-009   
  -0.75           -1.5399e-009    6.493e-009      -1.699e-009    
  -0.8            -1.5604e-009    -1.9497e-008    2.1575e-009    
  -0.85           1.9925e-009     -6.903e-009     1.4074e-009    
  -0.9            2.0192e-009     9.912e-009      -1.39e-011     
  -0.95           2.1092e-009     9.742e-009      1.598e-010     
  -1              2.2059e-009     1.0266e-008     3.396e-010     
  -1.05           2.2896e-009     1.0283e-008     5.193e-010     
  -1.1            2.3447e-009     1.0237e-008     6.939e-010     
  -1.15           2.3583e-009     1.0015e-008     8.509e-010     
  -1.2            2.3309e-009     1.0021e-008     9.959e-010     
  -1.25           1.7943e-009     1.1877e-008     -1.5031e-009   
  -1.3            -1.418e-009     7.769e-009      -1.7801e-009   
  -1.35           -2.2212e-009    -1.0734e-008    -4.529e-010    
  -1.4            -5.579e-010     -1.7477e-008    2.4991e-009    
  -1.45           2.2056e-009     -3.734e-009     1.2006e-009    
  -1.5            1.9231e-009     1.0375e-008     -2.108e-010    
  -1.55           8.771e-010      2.4312e-008     -1.5809e-009   
  -1.6            -1.5152e-009    6.898e-009      -1.716e-009    
  -1.65           -2.1883e-009    -1.0532e-008    -3.478e-010    
  -1.7            -1.3548e-009    -2.5955e-008    1.2426e-009    
  -1.75           4.56e-011       -1.0606e-008    2.8638e-009    
  -1.8            2.3081e-009     8.8e-011        5.878e-010     
END_DB

BEGIN_DB
 ICCAP_VAR VG         -0.36          
 ICCAP_VAR VS         0              
 ICCAP_VAR VB         0              

 #VD              ID              IB              IG             
  0               1.264e-010      1.0986e-008     -7.58e-010     
  -0.05           -1.4885e-009    8.631e-009      -2.7173e-009   
  -0.1            -1.8255e-009    -2.7059e-008    1.3055e-009    
  -0.15           -5.02e-010      -9.646e-009     2.8131e-009    
  -0.2            1.2824e-009     1.2625e-008     -9.11e-011     
  -0.25           2.115e-010      2.6184e-008     -1.4775e-009   
  -0.3            -1.8822e-009    8.221e-009      -2.6159e-009   
  -0.35           -2.5593e-009    -1.3689e-008    1.6807e-009    
  -0.4            -5.881e-010     -8.905e-009     1.4573e-009    
  -0.45           -7.704e-010     -8.889e-009     1.3219e-009    
  -0.5            -9.732e-010     -9.404e-009     1.2428e-009    
  -0.55           -1.1836e-009    -1.0339e-008    2.8586e-009    
  -0.6            4.995e-010      2.23e-010       -1.4995e-009   
  -0.65           -2.4558e-009    7.885e-009      -2.5952e-009   
  -0.7            -3.1617e-009    -1.4206e-008    1.7395e-009    
  -0.75           -1.2302e-009    -8.983e-009     1.4947e-009    
  -0.8            -1.4318e-009    -8.805e-009     1.3411e-009    
  -0.85           -1.6842e-009    -9.146e-009     1.2561e-009    
  -0.9            -1.9194e-009    -1.0098e-008    2.8506e-009    
  -0.95           -6.697e-010     1.2068e-008     1.8355e-009    
  -1              -2.0594e-009    1.0341e-008     -1.284e-009    
  -1.05           -2.0635e-009    9.899e-009      -2.5211e-009   
  -1.1            -3.2896e-009    1.089e-009      -2.3135e-009   
  -1.15           -4.3427e-009    -1.3705e-008    1.6706e-009    
  -1.2            -2.4808e-009    -8.952e-009     1.4486e-009    
  -1.25           -2.7453e-009    -8.82e-009      1.316e-009     
  -1.3            -3.0375e-009    -9.344e-009     1.2394e-009    
  -1.35           -3.3196e-009    -1.0382e-008    2.858e-009     
  -1.4            -2.6161e-009    1.66e-010       2.8632e-009    
  -1.45           -2.8275e-009    -3.76e-010      2.8145e-009    
  -1.5            -1.6232e-009    1.0794e-008     1.1111e-009    
  -1.55           -1.9428e-009    1.2051e-008     1.2631e-009    
  -1.6            -2.3143e-009    1.0083e-008     -1.448e-010    
  -1.65           -3.5471e-009    2.5209e-008     -1.5237e-009   
  -1.7            -5.0497e-009    7.706e-009      -1.4138e-009   
  -1.75           -5.1709e-009    8.54e-009       -1.3636e-009   
  -1.8            -5.2943e-009    8.83e-009       -1.3318e-009   
END_DB

BEGIN_DB
 ICCAP_VAR VG         -0.72          
 ICCAP_VAR VS         0              
 ICCAP_VAR VB         0              

 #VD              ID              IB              IG             
  0               7.863e-010      -3.27e-010      -2.3112e-009   
  -0.05           -1.2453e-006    9.737e-009      1.3149e-009    
  -0.1            -1.7913e-006    -2.613e-008     1.2521e-009    
  -0.15           -2.0783e-006    -2.7215e-008    2.4994e-009    
  -0.2            -2.2754e-006    -2.7248e-008    2.4694e-009    
  -0.25           -2.4412e-006    -1.6888e-008    2.2519e-009    
  -0.3            -2.5963e-006    -1.8261e-008    1.9859e-009    
  -0.35           -2.7123e-006    -1.0205e-008    -4.673e-010    
  -0.4            -2.82e-006      1.3536e-008     -1.9582e-009   
  -0.45           -2.9564e-006    9.781e-009      3.102e-010     
  -0.5            -3.1622e-006    -1.6726e-008    2.3112e-009    
  -0.55           -3.3007e-006    -1.7759e-008    2.0653e-009    
  -0.6            -3.4431e-006    -1.8949e-008    1.8079e-009    
  -0.65           -3.5389e-006    -1.0417e-008    -5.914e-010    
  -0.7            -3.646e-006     1.5853e-008     -1.8085e-009   
  -0.75           -3.8457e-006    1.2293e-008     1.99e-009      
  -0.8            -4.0211e-006    -1.361e-008     2.344e-010     
  -0.85           -4.0568e-006    8.757e-009      -1.2968e-009   
  -0.9            -4.3215e-006    1.1184e-008     1.4113e-009    
  -0.95           -4.4644e-006    -1.1393e-008    2.8196e-009    
  -1              -4.6171e-006    -1.3024e-008    1.899e-010     
  -1.05           -4.6449e-006    8.622e-009      -1.2914e-009   
  -1.1            -4.9425e-006    1.1691e-008     1.475e-009     
  -1.15           -5.0863e-006    -1.2342e-008    2.7864e-009    
  -1.2            -5.2459e-006    -1.2165e-008    1.395e-010     
  -1.25           -5.2618e-006    8.313e-009      -1.2846e-009   
  -1.3            -5.5853e-006    1.2013e-008     1.5339e-009    
  -1.35           -5.7392e-006    -1.3434e-008    2.7365e-009    
  -1.4            -5.8969e-006    -2.5282e-008    1.2716e-009    
  -1.45           -6.0637e-006    -2.694e-008     2.5762e-009    
  -1.5            -6.2364e-006    -1.0735e-008    -4.33e-011     
  -1.55           -6.2725e-006    7.843e-009      -2.4587e-009   
  -1.6            -6.6259e-006    1.2099e-008     1.5139e-009    
  -1.65           -6.7966e-006    -1.3024e-008    2.7598e-009    
  -1.7            -6.9695e-006    -2.4942e-008    1.283e-009     
  -1.75           -7.1509e-006    -2.6719e-008    1.2273e-009    
  -1.8            -7.3465e-006    -1.0758e-008    -2.41e-011     
END_DB

BEGIN_DB
 ICCAP_VAR VG         -1.08          
 ICCAP_VAR VS         0              
 ICCAP_VAR VB         0              

 #VD              ID              IB              IG             
  0               -2.4319e-008    1.029e-008      4.234e-010     
  -0.05           -2.6823e-005    -1.019e-008     -1.367e-010    
  -0.1            -4.7827e-005    -1.639e-008     2.4107e-009    
  -0.15           -6.3506e-005    -1.046e-008     -6.055e-010    
  -0.2            -7.497e-005     2.3694e-008     -1.4355e-009   
  -0.25           -8.4544e-005    9.78e-009       1.144e-009     
  -0.3            -9.1488e-005    -1.3043e-008    2.7594e-009    
  -0.35           -9.6767e-005    -1.0279e-008    -2.474e-010    
  -0.4            -0.000100715    1.7436e-008     -1.7002e-009   
  -0.45           -0.000105135    1.0337e-008     8.848e-010     
  -0.5            -0.000108924    -2.7083e-008    1.2232e-009    
  -0.55           -0.000111861    -1.013e-008     -4.684e-010    
  -0.6            -0.00011464     -2.6323e-008    4.576e-010     
  -0.65           -0.00011697     8.611e-009      -1.3161e-009   
  -0.7            -0.00012085     1.0959e-008     1.3558e-009    
  -0.75           -0.00012315     -1.2436e-008    2.782e-009     
  -0.8            -0.00012558     -1.1292e-008    3.81e-011      
  -0.85           -0.00012674     8.052e-009      -2.4305e-009   
  -0.9            -0.0001293      1.0007e-008     7.76e-011      
  -0.95           -0.00013263     -1.6322e-008    2.4524e-009    
  -1              -0.00013461     -1.8138e-008    2.0011e-009    
  -1.05           -0.00013665     -2.0181e-008    1.7585e-009    
  -1.1            -0.00013836     -1.0821e-008    -7.642e-010    
  -1.15           -0.00014004     2.1606e-008     -1.5034e-009   
  -1.2            -0.00014271     1.0645e-008     8.354e-010     
  -1.25           -0.00014548     -2.3629e-008    1.3724e-009    
  -1.3            -0.00014647     -1.0705e-008    -1.0295e-009   
  -1.35           -0.00014832     2.6456e-008     -1.3639e-009   
  -1.4            -0.00015144     1.0104e-008     1.1049e-009    
  -1.45           -0.00015337     -2.7168e-008    2.5658e-009    
  -1.5            -0.00015537     -1.7263e-008    2.13e-009      
  -1.55           -0.00015707     -1.0153e-008    -5.118e-010    
  -1.6            -0.00015842     1.7068e-008     -1.7321e-009   
  -1.65           -0.00016064     1.0393e-008     6.219e-010     
  -1.7            -0.0001635      -2.0037e-008    1.6192e-009    
  -1.75           -0.00016536     -1.457e-008     1.44e-009      
  -1.8            -0.00016752     -2.5624e-008    1.2598e-009    
END_DB

BEGIN_DB
 ICCAP_VAR VG         -1.44          
 ICCAP_VAR VS         0              
 ICCAP_VAR VB         0              

 #VD              ID              IB              IG             
  0               -3.9226e-008    -1.599e-008     1.443e-010     
  -0.05           -6.4789e-005    -1.5594e-008    2.454e-010     
  -0.1            -0.00012391     -9.321e-009     1.7046e-009    
  -0.15           -0.00017695     -1.0791e-008    -7.897e-010    
  -0.2            -0.00022387     2.2047e-008     -1.4827e-009   
  -0.25           -0.00026562     1.0345e-008     8.573e-010     
  -0.3            -0.00030171     -2.3809e-008    1.3491e-009    
  -0.35           -0.00033222     -2.6819e-008    1.227e-009     
  -0.4            -0.00035818     -1.8475e-008    1.9494e-009    
  -0.45           -0.00037977     -1.064e-008     -6.278e-010    
  -0.5            -0.00039746     1.9118e-008     -1.6095e-009   
  -0.55           -0.00041407     1.0487e-008     7.211e-010     
  -0.6            -0.00042871     -2.1482e-008    1.4833e-009    
  -0.65           -0.00044068     -1.3035e-008    1.979e-010     
  -0.7            -0.00044961     8.083e-009      -2.6115e-009   
  -0.75           -0.00046157     1.1778e-008     1.4639e-009    
  -0.8            -0.00046973     -1.42e-008      2.6989e-009    
  -0.85           -0.00047748     -2.7181e-008    2.5396e-009    
  -0.9            -0.00048493     -1.7303e-008    2.1156e-009    
  -0.95           -0.00049146     -1.0346e-008    -5.207e-010    
  -1              -0.00049718     1.7316e-008     -1.7177e-009   
  -1.05           -0.00050388     1.0414e-008     6.377e-010     
  -1.1            -0.00051119     -2.0011e-008    1.6058e-009    
  -1.15           -0.00051703     -1.4404e-008    1.4337e-009    
  -1.2            -0.00052283     -2.5961e-008    1.2574e-009    
  -1.25           -0.00052818     -1.7504e-008    2.123e-009     
  -1.3            -0.00053304     -1.0274e-008    -5.191e-010    
  -1.35           -0.00053706     1.699e-008      -1.7239e-009   
  -1.4            -0.00054286     1.0421e-008     6.296e-010     
  -1.45           -0.00054907     -2.0041e-008    1.6133e-009    
  -1.5            -0.00055384     -1.4423e-008    1.4302e-009    
  -1.55           -0.00055904     -2.5861e-008    1.2553e-009    
  -1.6            -0.00056362     -1.0779e-008    -6.18e-011     
  -1.65           -0.00056636     9.577e-009      -2.2833e-009   
  -1.7            -0.00057366     1.2906e-008     1.7798e-009    
  -1.75           -0.00057753     -1.5094e-008    1.4848e-009    
  -1.8            -0.000582       -2.5263e-008    1.2759e-009    
END_DB

BEGIN_DB
 ICCAP_VAR VG         -1.8           
 ICCAP_VAR VS         0              
 ICCAP_VAR VB         0              

 #VD              ID              IB              IG             
  0               -4.6348e-008    -2.5424e-008    -1.0409e-009   
  -0.05           -9.2297e-005    -2.7203e-008    1.416e-009     
  -0.1            -0.00018007     -2.5806e-008    -1.4105e-009   
  -0.15           -0.0002635      7.711e-009      -2.5893e-009   
  -0.2            -0.00034283     1.1965e-008     1.4942e-009    
  -0.25           -0.00041646     -2.2186e-008    1.9013e-009    
  -0.3            -0.00048499     -1.0582e-008    -6.637e-010    
  -0.35           -0.00054788     1.9855e-008     -1.5815e-009   
  -0.4            -0.00060631     1.0696e-008     7.534e-010     
  -0.45           -0.00065947     -2.1785e-008    1.4599e-009    
  -0.5            -0.0007071      -1.2715e-008    1.748e-010     
  -0.55           -0.00074821     7.794e-009      -2.5909e-009   
  -0.6            -0.0007882      1.063e-008      1.4919e-009    
  -0.65           -0.00082151     -1.467e-008     2.672e-009     
  -0.7            -0.00085112     -1.668e-008     2.3137e-009    
  -0.75           -0.00087756     -1.9064e-008    1.8455e-009    
  -0.8            -0.00090101     -1.7774e-008    1.6157e-009    
  -0.85           -0.00092195     -1.4702e-008    1.4397e-009    
  -0.9            -0.00094071     -2.5675e-008    1.256e-009     
  -0.95           -0.00095743     -1.7446e-008    2.1334e-009    
  -1              -0.00097231     -2.2027e-008    1.8745e-009    
  -1.05           -0.00098592     -1.0669e-008    -6.82e-010     
  -1.1            -0.00099789     1.9996e-008     -1.5655e-009   
  -1.15           -0.00101079     1.0478e-008     7.637e-010     
  -1.2            -0.00102298     -2.2101e-008    1.4421e-009    
  -1.25           -0.00103367     -2.5497e-008    1.2587e-009    
  -1.3            -0.00104325     -2.6691e-008    2.3605e-009    
  -1.35           -0.00105299     -1.89e-008      1.8882e-009    
  -1.4            -0.001061       -1.0686e-008    -6.692e-010    
  -1.45           -0.00106884     1.9961e-008     -1.5758e-009   
  -1.5            -0.00107821     1.0423e-008     7.575e-010     
  -1.55           -0.00108759     -2.2035e-008    1.4506e-009    
  -1.6            -0.00109552     -2.5542e-008    1.2606e-009    
  -1.65           -0.00110339     -1.729e-008     2.1588e-009    
  -1.7            -0.00111032     -1.0107e-008    -4.963e-010    
  -1.75           -0.00111631     1.6829e-008     -1.7526e-009   
  -1.8            -0.00112429     1.034e-008      6.062e-010     
END_DB

BEGIN_DB
 ICCAP_VAR VG         0              
 ICCAP_VAR VS         0              
 ICCAP_VAR VB         0.9            

 #VD              ID              IB              IG             
  0               5.86e-010       -1.0136e-008    4.711e-010     
  -0.05           -2.83e-011      -1.2304e-008    2.8696e-009    
  -0.1            2.3434e-009     -2.79e-010      7.137e-010     
  -0.15           2.3535e-009     1.0265e-008     8.631e-010     
  -0.2            2.3249e-009     9.823e-009      1.0053e-009    
  -0.25           1.8006e-009     1.1501e-008     -1.5003e-009   
  -0.3            -1.4258e-009    7.794e-009      -1.7878e-009   
  -0.35           -1.6157e-009    -1.6906e-008    1.9685e-009    
  -0.4            2.3151e-009     -8.595e-009     5.896e-010     
  -0.45           2.3519e-009     1.0195e-008     7.561e-010     
  -0.5            2.3552e-009     9.781e-009      8.818e-010     
  -0.55           2.3176e-009     1.0335e-008     1.0118e-009    
  -0.6            2.2233e-009     1.1527e-008     1.1589e-009    
  -0.65           1.9154e-009     1.0251e-008     -2.256e-010    
  -0.7            8.694e-010      2.3742e-008     -1.6127e-009   
  -0.75           -1.5586e-009    6.421e-009      -1.7016e-009   
  -0.8            -1.5603e-009    -2.0206e-008    2.188e-009     
  -0.85           2.0265e-009     -6.932e-009     1.3937e-009    
  -0.9            1.8852e-009     1.2839e-008     -2.581e-010    
  -0.95           8.419e-010      2.3132e-008     -1.6459e-009   
  -1              -1.5922e-009    6.375e-009      -1.6779e-009   
  -1.05           -1.5437e-009    -2.1131e-008    2.2491e-009    
  -1.1            2.0604e-009     -6.193e-009     1.3632e-009    
  -1.15           1.87e-009       1.2674e-008     -1.4168e-009   
  -1.2            -1.3095e-009    8.499e-009      -1.8552e-009   
  -1.25           -1.6597e-009    -1.4117e-008    1.7301e-009    
  -1.3            2.3447e-009     -9.159e-009     7.391e-010     
  -1.35           2.3517e-009     1.0015e-008     8.814e-010     
  -1.4            2.3149e-009     9.8e-009        1.0232e-009    
  -1.45           1.808e-009      1.1304e-008     -1.4874e-009   
  -1.5            -1.4073e-009    8.213e-009      -1.7966e-009   
  -1.55           -2.2325e-009    -1.0832e-008    -4.774e-010    
  -1.6            -5.746e-010     -1.7946e-008    2.4898e-009    
  -1.65           2.2028e-009     -3.953e-009     1.2102e-009    
  -1.7            1.9247e-009     1.0067e-008     -2.034e-010    
  -1.75           8.858e-010      2.42e-008       -1.588e-009    
  -1.8            -1.5267e-009    6.941e-009      -1.725e-009    
END_DB

BEGIN_DB
 ICCAP_VAR VG         -0.36          
 ICCAP_VAR VS         0              
 ICCAP_VAR VB         0.9            

 #VD              ID              IB              IG             
  0               2.885e-010      9.962e-009      8.74e-011      
  -0.05           -5.224e-010     -1.7577e-008    2.5504e-009    
  -0.1            2.2404e-009     -3.526e-009     1.1687e-009    
  -0.15           2.0843e-009     1.2405e-008     1.3293e-009    
  -0.2            1.8491e-009     1.2562e-008     -1.4299e-009   
  -0.25           -1.3339e-009    8.32e-009       -1.8411e-009   
  -0.3            -1.6516e-009    -1.4707e-008    1.7756e-009    
  -0.35           2.3449e-009     -9.188e-009     7.022e-010     
  -0.4            2.3568e-009     1.0244e-008     8.564e-010     
  -0.45           2.3299e-009     9.81e-009       1.0041e-009    
  -0.5            1.7934e-009     1.1694e-008     -1.4997e-009   
  -0.55           -1.4274e-009    7.862e-009      -1.7854e-009   
