! VERSION = 6.00
BEGIN_HEADER
 ICCAP_INPUTS
  VG         V  B GROUND SMU4 0.001 LIN        1    0          -1.8       37   -0.05     
  VS         V  E GROUND SMU3 0.1 CON        0
  VB         V  C GROUND SMU1 0.1 LIN        3    0          1.8        3    0.9       
  VD         V  S GROUND SMU2 0.1 LIN        2    -0.1       -1.8       2    -1.7      
 ICCAP_OUTPUTS
  IG         I  B GROUND SMU4 B
  ID         I  S GROUND SMU2 B
  IB         I  C GROUND SMU1 B
END_HEADER

BEGIN_DB
 ICCAP_VAR VS         0              
 ICCAP_VAR VB         0              
 ICCAP_VAR VD         -0.1           

 #VG              IG              ID              IB             
  0               -2.3124e-009    -3.9289e-009    -1.2581e-008   
  -0.05           2.713e-009      -9.48e-011      -1.1309e-008   
  -0.1            -1.6346e-009    3.0075e-009     1.2982e-008    
  -0.15           2.0878e-009     -2.8272e-009    -1.7993e-008   
  -0.2            -2.0073e-009    9.741e-010      1.5659e-008    
  -0.25           2.2815e-009     -1.5938e-009    -1.7319e-008   
  -0.3            -2.1718e-009    -5.403e-010     1.4215e-008    
  -0.35           2.4414e-009     -5.6481e-009    -1.7227e-008   
  -0.4            2.71e-009       -1.2536e-008    1.6221e-008    
  -0.45           -1.4331e-009    -3.9098e-008    1.5083e-008    
  -0.5            2.383e-009      -1.06988e-007   -1.614e-008    
  -0.55           -1.0981e-009    -2.4977e-007    1.4947e-008    
  -0.6            2.6897e-009     -5.2417e-007    -9e-009        
  -0.65           1.4853e-009     -9.918e-007     8.161e-009     
  -0.7            -1.8802e-009    -1.6955e-006    -1.0488e-008   
  -0.75           1.5351e-009     -2.7184e-006    -1.7103e-008   
  -0.8            8.954e-010      -3.9831e-006    8.764e-009     
  -0.85           -2.5834e-009    -5.4998e-006    6.927e-009     
  -0.9            2.5535e-009     -7.3038e-006    -1.3793e-008   
  -0.95           -1.8245e-009    -9.1597e-006    1.4244e-008    
  -1              2.6811e-009     -1.12291e-005   -1.4678e-008   
  -1.05           8.462e-010      -1.3307e-005    -1.7112e-008   
  -1.1            -2.599e-009     -1.5407e-005    6.839e-009     
  -1.15           2.6041e-009     -1.7614e-005    -1.2388e-008   
  -1.2            -1.9118e-009    -1.9674e-005    1.3316e-008    
  -1.25           2.7005e-009     -2.1789e-005    -1.612e-008    
  -1.3            -4.37e-011      -2.3772e-005    7.718e-009     
  -1.35           -2.1782e-009    -2.5752e-005    1.0524e-008    
  -1.4            1.6325e-009     -2.7699e-005    -1.7193e-008   
  -1.45           8.439e-010      -2.9495e-005    9.022e-009     
  -1.5            -2.6019e-009    -3.1199e-005    6.953e-009     
  -1.55           2.6028e-009     -3.2903e-005    -1.2355e-008   
  -1.6            -1.9168e-009    -3.4435e-005    1.326e-008     
  -1.65           2.701e-009      -3.5947e-005    -1.6027e-008   
  -1.7            -4.43e-011      -3.7339e-005    7.684e-009     
  -1.75           -2.1786e-009    -3.8723e-005    1.0585e-008    
  -1.8            1.6367e-009     -4.0048e-005    -1.7294e-008   
END_DB

BEGIN_DB
 ICCAP_VAR VS         0              
 ICCAP_VAR VB         0              
 ICCAP_VAR VD         -1.8           

 #VG              IG              ID              IB             
  0               4.39e-010       -7.052e-010     -3.411e-009    
  -0.05           -2.066e-009     9.828e-010      1.5279e-008    
  -0.1            2.3177e-009     -1.3653e-009    -1.7485e-008   
  -0.15           -2.2047e-009    1.59e-011       1.3941e-008    
  -0.2            2.4544e-009     -3.8416e-009    -1.7184e-008   
  -0.25           -1.2432e-009    -1.1657e-008    -1.7106e-008   
  -0.3            1.8998e-009     -2.9838e-008    -1.737e-008    
  -0.35           -2.4231e-009    -8.4314e-008    8.49e-009      
  -0.4            1.617e-010      -2.1387e-007    -7.488e-009    
  -0.45           -1.8837e-009    -5.0142e-007    1.3881e-008    
  -0.5            2.6899e-009     -1.07201e-006   -1.5329e-008   
  -0.55           -2.4564e-009    -2.0155e-006    -1.7299e-008   
  -0.6            2.2317e-009     -3.5741e-006    -1.6754e-008   
  -0.65           -1.576e-009     -5.7644e-006    1.8507e-008    
  -0.7            2.5071e-009     -8.9827e-006    -1.4943e-008   
  -0.75           2.226e-010      -1.2997e-005    -1.3497e-008   
  -0.8            -1.7936e-009    -1.8124e-005    1.4845e-008    
  -0.85           2.6168e-009     -2.4597e-005    -1.1862e-008   
  -0.9            -1.9472e-009    -3.1726e-005    1.2986e-008    
  -0.95           2.708e-009      -4.0409e-005    -1.6372e-008   
  -1              1.4477e-009     -5.0102e-005    7.269e-009     
  -1.05           -1.4739e-009    -6.0232e-005    1.6039e-008    
  -1.1            2.4272e-009     -7.2107e-005    -1.5796e-008   
  -1.15           -1.6035e-009    -8.4136e-005    1.5877e-008    
  -1.2            2.5279e-009     -9.7743e-005    -1.4548e-008   
  -1.25           -1.7555e-009    -0.000111323    1.4873e-008    
  -1.3            -6.682e-010     -0.00012614     -1.6847e-008   
  -1.35           2.691e-009      -0.00014167     -7.959e-009    
  -1.4            -1.4787e-009    -0.00015717     1.6389e-008    
  -1.45           2.4301e-009     -0.00017414     -1.5841e-008   
  -1.5            -1.6128e-009    -0.00019033     1.5792e-008    
  -1.55           2.5351e-009     -0.00020823     -1.45e-008     
  -1.6            -1.7612e-009    -0.00022533     1.4706e-008    
  -1.65           2.6062e-009     -0.00024394     -1.2403e-008   
  -1.7            -1.9081e-009    -0.00026148     1.3225e-008    
  -1.75           2.6959e-009     -0.00028048     -1.589e-008    
  -1.8            1.4671e-009     -0.0002995      8.064e-009     
END_DB

BEGIN_DB
 ICCAP_VAR VS         0              
 ICCAP_VAR VB         0.9            
 ICCAP_VAR VD         -0.1           

 #VG              IG              ID              IB             
  0               -4.63e-011      -1.5717e-009    -1.6999e-008   
  -0.05           6.039e-010      4.2335e-009     9.308e-009     
  -0.1            2.6875e-009     -3.072e-010     -1.4003e-008   
  -0.15           -2.5397e-009    2.236e-010      8.482e-009     
  -0.2            2.7113e-009     -1.519e-010     -1.1668e-008   
  -0.25           -2.5683e-009    8.18e-011       8.315e-009     
  -0.3            1.7407e-009     -2.9826e-009    -1.3138e-008   
  -0.35           -1.8838e-009    2.6929e-009     1.7233e-008    
  -0.4            2.1225e-009     -1.6053e-009    -1.7216e-008   
  -0.45           -2.0129e-009    -1.412e-010     1.5666e-008    
  -0.5            2.2625e-009     -5.7192e-009    -1.7469e-008   
  -0.55           1.7322e-009     -1.0814e-008    5.693e-009     
  -0.6            -1.7295e-009    -4.8354e-008    1.5119e-008    
  -0.65           8.446e-010      -1.3126e-007    -1.6498e-008   
  -0.7            -2.5983e-009    -3.2752e-007    6.929e-009     
  -0.75           2.5891e-009     -7.2351e-007    -1.2774e-008   
  -0.8            -2.2308e-009    -1.3784e-006    -1.6746e-008   
  -0.85           2.5059e-009     -2.3886e-006    -1.4892e-008   
  -0.9            -1.7195e-009    -3.6795e-006    1.5047e-008    
  -0.95           2.5818e-009     -5.3581e-006    -1.293e-008    
  -1              -1.8553e-009    -7.1661e-006    1.3945e-008    
  -1.05           2.6869e-009     -9.2445e-006    -1.4829e-008   
  -1.1            1.65e-011       -1.1327e-005    7.809e-009     
  -1.15           3.635e-010      -1.3526e-005    -1.5832e-008   
  -1.2            -1.5731e-009    -1.5723e-005    1.6333e-008    
  -1.25           2.504e-009      -1.7974e-005    -1.5055e-008   
  -1.3            -1.7037e-009    -2.0045e-005    1.524e-008     
  -1.35           2.5825e-009     -2.2186e-005    -1.321e-008    
  -1.4            -1.838e-009     -2.4131e-005    1.3927e-008    
  -1.45           2.6873e-009     -2.6088e-005    -1.4622e-008   
  -1.5            2.88e-011       -2.7887e-005    7.821e-009     
  -1.55           -2.0655e-009    -2.9646e-005    1.1654e-008    
  -1.6            1.679e-009      -3.1325e-005    -1.87e-008     
  -1.65           8.316e-010      -3.2906e-005    9.032e-009     
  -1.7            -2.6057e-009    -3.4389e-005    6.82e-009      
  -1.75           2.5932e-009     -3.5868e-005    -1.2479e-008   
  -1.8            -1.8812e-009    -3.7189e-005    1.3513e-008    
END_DB

BEGIN_DB
 ICCAP_VAR VS         0              
 ICCAP_VAR VB         0.9            
 ICCAP_VAR VD         -1.8           

 #VG              IG              ID              IB             
  0               -1.2573e-009    -2.389e-010     -1.0006e-008   
  -0.05           2.7021e-009     -1.613e-010     -1.182e-008    
  -0.1            -1.557e-009     3.0699e-009     1.1372e-008    
  -0.15           1.9618e-009     -2.8697e-009    -1.6027e-008   
  -0.2            -1.877e-009     1.0914e-009     1.6201e-008    
  -0.25           2.3146e-009     -3.1446e-009    -2.2157e-008   
  -0.3            -2.166e-009     -3.3865e-009    1.4099e-008    
  -0.35           -7.953e-010     -1.1974e-008    9.639e-009     
  -0.4            -1.7109e-009    -2.5352e-008    1.5047e-008    
  -0.45           2.5942e-009     -7.7771e-008    -1.3055e-008   
  -0.5            -1.0844e-009    -2.112e-007     1.4508e-008    
  -0.55           2.6907e-009     -5.0848e-007    -8.98e-009     
  -0.6            1.4975e-009     -1.10366e-006   8.433e-009     
  -0.65           -1.6667e-009    -2.1316e-006    -7.17e-009     
  -0.7            2.0558e-009     -3.9235e-006    -1.7259e-008   
  -0.75           -1.4239e-009    -6.45e-006      1.5161e-008    
  -0.8            2.3937e-009     -1.01742e-005   -1.6472e-008   
  -0.85           1.8204e-009     -1.4925e-005    -1.8229e-008   
  -0.9            -1.5644e-009    -2.065e-005     1.5753e-008    
  -0.95           2.5178e-009     -2.7963e-005    -1.53e-008     
  -1              -1.6948e-009    -3.599e-005     1.506e-008     
  -1.05           2.5954e-009     -4.5709e-005    -1.3445e-008   
  -1.1            -1.8401e-009    -5.5838e-005    1.3927e-008    
  -1.15           2.6861e-009     -6.7609e-005    -1.4263e-008   
  -1.2            1.5286e-009     -8.0251e-005    7.816e-009     
  -1.25           -1.367e-009     -9.2946e-005    1.3068e-008    
  -1.3            2.3292e-009     -0.00010744     -1.6763e-008   
  -1.35           2.6202e-009     -0.00012195     9.519e-009     
  -1.4            8.902e-010      -0.00013731     8.534e-009     
  -1.45           -2.5729e-009    -0.00015286     6.785e-009     
  -1.5            2.5596e-009     -0.00016998     -1.4429e-008   
  -1.55           -1.7648e-009    -0.00018621     1.437e-008     
  -1.6            2.626e-009      -0.00020409     -1.2361e-008   
  -1.65           -1.9148e-009    -0.00022123     1.3311e-008    
  -1.7            2.7023e-009     -0.00023965     -1.5505e-008   
  -1.75           1.4795e-009     -0.00025824     7.461e-009     
  -1.8            -1.4158e-009    -0.00027591     1.4369e-008    
END_DB

BEGIN_DB
 ICCAP_VAR VS         0              
 ICCAP_VAR VB         1.8            
 ICCAP_VAR VD         -0.1           

 #VG              IG              ID              IB             
  0               3.777e-010      -8.21e-010      -1.6468e-008   
  -0.05           -2.0751e-009    2.5699e-009     2.1122e-008    
  -0.1            2.3241e-009     -1.0999e-009    -1.6647e-008   
  -0.15           -2.1925e-009    9.31e-010       1.3544e-008    
  -0.2            2.4413e-009     -9.733e-010     -1.6996e-008   
  -0.25           -2.3015e-009    8.21e-010       1.2437e-008    
  -0.3            2.5369e-009     -8.426e-010     -1.6802e-008   
  -0.35           -1.494e-010     3.6291e-009     8.058e-009     
  -0.4            -2.574e-009     -3.35e-011      8.596e-009     
  -0.45           1.7538e-009     -3.2351e-009    -1.2668e-008   
  -0.5            -1.9013e-009    1.4723e-009     1.7603e-008    
  -0.55           2.3519e-009     -7.3685e-009    -2.2477e-008   
  -0.6            2.714e-009      -1.5129e-008    1.6903e-008    
  -0.65           -1.28e-009      -5.1245e-008    1.0227e-008    
  -0.7            9.81e-010       -1.4809e-007    -1.7037e-008   
  -0.75           -2.5559e-009    -3.7245e-007    7.224e-009     
  -0.8            2.4639e-009     -8.2508e-007    -1.6451e-008   
  -0.85           -2.1767e-009    -1.5653e-006    -1.6812e-008   
  -0.9            2.597e-009      -2.6736e-006    -1.3879e-008   
  -0.95           -1.811e-009     -4.0787e-006    1.392e-008     
  -1              2.6945e-009     -5.8556e-006    -1.3641e-008   
  -1.05           1.5401e-009     -7.833e-006     8.92e-009      
  -1.1            -1.3531e-009    -9.8391e-006    1.254e-008     
  -1.15           5.842e-010      -1.2047e-005    -1.7119e-008   
  -1.2            -2.6132e-009    -1.4237e-005    5.216e-009     
  -1.25           2.7122e-009     -1.6495e-005    -1.6576e-008   
  -1.3            -4.96e-011      -1.8627e-005    7.48e-009      
  -1.35           -2.1875e-009    -2.0749e-005    1.074e-008     
  -1.4            1.7982e-009     -2.2837e-005    -2.0839e-008   
  -1.45           -2.4164e-009    -2.4754e-005    9.005e-009     
  -1.5            1.9703e-009     -2.668e-005     -1.6972e-008   
  -1.55           -2.4787e-009    -2.8418e-005    8.699e-009     
  -1.6            2.1271e-009     -3.0162e-005    -1.6745e-008   
  -1.65           6.096e-010      -3.174e-005     9.737e-009     
  -1.7            -2.6121e-009    -3.3268e-005    5.462e-009     
  -1.75           2.7122e-009     -3.4747e-005    -1.5633e-008   
  -1.8            1.4659e-009     -3.6159e-005    7.461e-009     
END_DB

BEGIN_DB
 ICCAP_VAR VS         0              
 ICCAP_VAR VB         1.8            
 ICCAP_VAR VD         -1.8           

 #VG              IG              ID              IB             
  0               6.638e-010      1.23e-010       -7.628e-009    
  -0.05           7.217e-010      4.2127e-009     8.365e-009     
  -0.1            2.6457e-009     -5.466e-010     -1.6327e-008   
  -0.15           -1.3227e-009    3.381e-009      7.644e-009     
  -0.2            2.6789e-009     -4.494e-010     -1.4887e-008   
  -0.25           -1.4008e-009    3.0311e-009     8.389e-009     
  -0.3            1.715e-009      -3.9264e-009    -1.2741e-008   
  -0.35           -2.5529e-009    -3.6108e-009    8.48e-009      
  -0.4            -1.5104e-009    -1.5437e-008    -1.3222e-008   
  -0.45           2.4849e-009     -4.3438e-008    -1.5911e-008   
  -0.5            -9.859e-010     -1.284e-007     1.2605e-008    
  -0.55           2.7122e-009     -3.2322e-007    -7.861e-009    
  -0.6            -1.097e-010     -7.3046e-007    7.837e-009     
  -0.65           -1.3407e-009    -1.5227e-006    -7.613e-009    
  -0.7            2.5491e-009     -2.9572e-006    -1.4499e-008   
  -0.75           -1.7549e-009    -5.0767e-006    1.4703e-008    
  -0.8            2.6742e-009     -8.3013e-006    -1.3025e-008   
  -0.85           6.085e-010      -1.2468e-005    -1.7234e-008   
  -0.9            -2.6216e-009    -1.7812e-005    5.742e-009     
  -0.95           2.7039e-009     -2.4581e-005    -1.5988e-008   
  -1              1.4645e-009     -3.2553e-005    7.461e-009     
  -1.05           -1.437e-009     -4.1167e-005    1.4948e-008    
  -1.1            2.4018e-009     -5.153e-005     -1.6349e-008   
  -1.15           -1.5426e-009    -6.2334e-005    1.6064e-008    
  -1.2            2.4981e-009     -7.4779e-005    -1.5508e-008   
  -1.25           -1.6703e-009    -8.7359e-005    1.5298e-008    
  -1.3            2.582e-009      -0.000101459    -1.3676e-008   
  -1.35           5.12e-010       -0.00011561     1.5344e-008    
  -1.4            -1.3891e-009    -0.00013056     1.7532e-008    
  -1.45           2.3399e-009     -0.0001467      -1.6583e-008   
  -1.5            -1.4838e-009    -0.00016239     1.6397e-008    
  -1.55           2.4547e-009     -0.00017965     -1.6168e-008   
  -1.6            -1.6025e-009    -0.00019626     1.5628e-008    
  -1.65           2.5469e-009     -0.00021418     -1.48e-008     
  -1.7            -1.7488e-009    -0.00023151     1.4719e-008    
  -1.75           2.6719e-009     -0.00025008     -1.2892e-008   
  -1.8            8.71e-011       -0.00026797     7.978e-009     
END_DB

