! VERSION = 6.00
BEGIN_HEADER
 ICCAP_INPUTS
  VG         V  B GROUND SMU4 0.001 LIN        1    0          -1.8       37   -0.05     
  VS         V  E GROUND SMU2 0.1 CON        0
  VB         V  C GROUND SMU3 0.1 LIN        3    0          1.8        3    0.9       
  VD         V  S GROUND SMU1 0.1 LIN        2    -0.1       -1.8       2    -1.7      
 ICCAP_OUTPUTS
  IG         I  B GROUND SMU4 B
  ID         I  S GROUND SMU1 B
  IB         I  C GROUND SMU3 B
END_HEADER

BEGIN_DB
 ICCAP_VAR VS         0              
 ICCAP_VAR VB         0              
 ICCAP_VAR VD         -0.1           

 #VG              IG              ID              IB             
  0               -5.889e-010     -6.631e-010     9.588e-009     
  -0.05           -1.2945e-009    5.8e-012        8.173e-009     
  -0.1            -1.2803e-009    1.325e-010      7.915e-009     
  -0.15           -2.5467e-009    2.84e-010       1.0417e-008    
  -0.2            -1.9271e-009    -1.2076e-009    8.12e-010      
  -0.25           1.3748e-009     -1.1184e-009    -2.6546e-008   
  -0.3            9.633e-010      2.2713e-009     -9.209e-009    
  -0.35           -1.2813e-009    1.427e-009      1.0966e-008    
  -0.4            -2.3913e-009    -1.7123e-009    1.0094e-008    
  -0.45           -1.53e-010      -4.2876e-009    -1.0057e-008   
  -0.5            -3.456e-010     -9.9486e-009    -1.0313e-008   
  -0.55           2.8774e-009     -2.6008e-008    2.3363e-008    
  -0.6            2.7232e-009     -8.9435e-008    2.65e-010      
  -0.65           -5.36e-010      -2.7989e-007    7.807e-009     
  -0.7            1.9612e-009     -7.807e-007     -2.352e-008    
  -0.75           2.5339e-009     -1.8516e-006    1.7804e-008    
  -0.8            1.4977e-009     -4.0235e-006    1.2021e-008    
  -0.85           3.371e-010      -7.4343e-006    9.606e-009     
  -0.9            -2.7126e-009    -1.2653e-005    1.0284e-008    
  -0.95           -9.105e-010     -1.9584e-005    -1.0983e-008   
  -1              1.4073e-009     -2.8354e-005    -1.4183e-008   
  -1.05           2.859e-009      -3.8249e-005    -9.043e-009    
  -1.1            2.0772e-009     -4.9095e-005    1.3119e-008    
  -1.15           9.026e-010      -6.0566e-005    1.0752e-008    
  -1.2            1.278e-009      -7.255e-005     1.053e-008     
  -1.25           1.083e-010      -8.3902e-005    9.92e-009      
  -1.3            5.415e-010      -9.5613e-005    9.874e-009     
  -1.35           9.385e-010      -0.000107009    1.041e-008     
  -1.4            2.7355e-009     -0.00011778     1.0336e-008    
  -1.45           1.7957e-009     -0.00012825     1.291e-008     
  -1.5            6.366e-010      -0.00013775     1.0189e-008    
  -1.55           1.0148e-009     -0.00014712     1.0314e-008    
  -1.6            1.4112e-009     -0.000156       1.0494e-008    
  -1.65           1.8419e-009     -0.00016424     1.3101e-008    
  -1.7            6.807e-010      -0.00017184     1.0485e-008    
  -1.75           1.0597e-009     -0.00017936     1.0548e-008    
  -1.8            1.4589e-009     -0.0001864      1.0721e-008    
END_DB

BEGIN_DB
 ICCAP_VAR VS         0              
 ICCAP_VAR VB         0              
 ICCAP_VAR VD         -1.8           

 #VG              IG              ID              IB             
  0               -5.729e-010     -6.594e-010     9.585e-009     
  -0.05           -1.2876e-009    3.75e-011       7.731e-009     
  -0.1            -2.6253e-009    1.66e-010       8.054e-009     
  -0.15           -1.8707e-009    -1.2986e-009    6.79e-010      
  -0.2            1.6774e-009     -1.74e-009      -1.3881e-008   
  -0.25           -1.3915e-009    1.6133e-009     -9.281e-009    
  -0.3            -2.7119e-009    -1.9891e-009    8.949e-009     
  -0.35           1.3606e-009     -4.4603e-009    -2.6601e-008   
  -0.4            -2.7295e-009    -1.2231e-008    -2.0577e-008   
  -0.45           3.14e-011       -3.918e-008     -1.1434e-008   
  -0.5            2.4829e-009     -1.1822e-007    -1.291e-008    
  -0.55           1.4181e-009     -3.69e-007      1.0409e-008    
  -0.6            2.689e-010      -9.9843e-007    9.574e-009     
  -0.65           -1.3811e-009    -2.4743e-006    -9.954e-009    
  -0.7            -1.2989e-009    -5.5091e-006    9.105e-009     
  -0.75           -2.3362e-009    -1.1104e-005    1.0162e-008    
  -0.8            -3.741e-010     -2.0332e-005    -9.956e-009    
  -0.85           2.1832e-009     -3.4146e-005    -1.7336e-008   
  -0.9            1.5225e-009     -5.3165e-005    -6.038e-009    
  -0.95           2.8295e-009     -7.8136e-005    -8.824e-009    
  -1              8.828e-010      -0.000108887    1.1108e-008    
  -1.05           2.51e-009       -0.00014558     9.851e-009     
  -1.1            1.4696e-009     -0.00018935     1.1053e-008    
  -1.15           3.166e-010      -0.00023578     9.852e-009     
  -1.2            7.391e-010      -0.00028935     1.0868e-008    
  -1.25           1.1143e-009     -0.0003477      1.0765e-008    
  -1.3            1.5232e-009     -0.00040995     1.1389e-008    
  -1.35           3.642e-010      -0.00047273     9.691e-009     
  -1.4            7.912e-010      -0.00054165     1.1021e-008    
  -1.45           1.1588e-009     -0.00061351     1.0473e-008    
  -1.5            1.5761e-009     -0.00068749     1.1598e-008    
  -1.55           2.0105e-009     -0.00076177     1.3297e-008    
  -1.6            8.418e-010      -0.00083801     1.0988e-008    
  -1.65           1.2096e-009     -0.00091793     1.0238e-008    
  -1.7            4.54e-011       -0.00099546     1.0311e-008    
  -1.75           4.789e-010      -0.00107686     9.641e-009     
  -1.8            -1.0793e-009    -0.0011575      1.078e-008     
END_DB

BEGIN_DB
 ICCAP_VAR VS         0              
 ICCAP_VAR VB         0.9            
 ICCAP_VAR VD         -0.1           

 #VG              IG              ID              IB             
  0               -7.655e-010     -7.845e-010     -2.6556e-008   
  -0.05           -1.1628e-009    -2.1237e-009    9.06e-009      
  -0.1            1.3745e-009     -1.1111e-009    -2.674e-008    
  -0.15           9.776e-010      2.316e-009      -9.274e-009    
  -0.2            1.1283e-009     2.2204e-009     1.1176e-008    
  -0.25           1.2879e-009     2.0768e-009     1.2242e-008    
  -0.3            -1.146e-010     1.9719e-009     9.958e-009     
  -0.35           5.06e-011       2.057e-009      9.704e-009     
  -0.4            2.209e-010      2.1497e-009     9.66e-009      
  -0.45           4.023e-010      2.2338e-009     1.0322e-008    
  -0.5            5.815e-010      2.2483e-009     1.0827e-008    
  -0.55           -1.3295e-009    9.644e-010      1.059e-008     
  -0.6            -2.7437e-009    -2.2448e-009    8.852e-009     
  -0.65           1.2248e-009     -6.6993e-009    -2.5783e-008   
  -0.7            -1.523e-009     -2.1981e-008    -1.3712e-008   
  -0.75           -1.3394e-009    -7.9167e-008    7.474e-009     
  -0.8            1.7637e-009     -2.7388e-007    -2.7024e-008   
  -0.85           6.129e-010      -8.1794e-007    1.0015e-008    
  -0.9            -2.0146e-009    -2.1056e-006    -1.3696e-008   
  -0.95           -9.494e-010     -4.6694e-006    -1.0985e-008   
  -1              2.185e-010      -9.0882e-006    -1.3492e-008   
  -1.05           2.3175e-009     -1.5237e-005    -1.1383e-008   
  -1.1            1.1751e-009     -2.3481e-005    1.0274e-008    
  -1.15           1.5934e-009     -3.3228e-005    1.2519e-008    
  -1.2            2.0224e-009     -4.3887e-005    1.2459e-008    
  -1.25           8.58e-010       -5.5322e-005    1.044e-008     
  -1.3            1.2334e-009     -6.7288e-005    1.0363e-008    
  -1.35           7.19e-011       -7.8602e-005    1.0046e-008    
  -1.4            5.074e-010      -9.013e-005     9.701e-009     
  -1.45           9.092e-010      -0.000101283    1.05e-008      
  -1.5            1.2878e-009     -0.000111916    1.0071e-008    
  -1.55           2.8252e-009     -0.00012168     1.0814e-008    
  -1.6            8.498e-010      -0.00013108     1.0834e-008    
  -1.65           1.2212e-009     -0.00014011     1.0323e-008    
  -1.7            6.54e-011       -0.00014821     1.0152e-008    
  -1.75           4.997e-010      -0.0001562      9.657e-009     
  -1.8            9.037e-010      -0.00016379     1.0503e-008    
END_DB

BEGIN_DB
 ICCAP_VAR VS         0              
 ICCAP_VAR VB         0.9            
 ICCAP_VAR VD         -1.8           

 #VG              IG              ID              IB             
  0               1.2941e-009     1.4591e-009     -1.0003e-008   
  -0.05           1.1684e-009     2.19e-009       1.0346e-008    
  -0.1            1.3305e-009     2.0291e-009     1.1419e-008    
  -0.15           -1.4064e-009    1.8668e-009     1.2648e-008    
  -0.2            -1.8596e-009    -1.2787e-009    8.74e-009      
  -0.25           1.7079e-009     -1.6496e-009    -1.3895e-008   
  -0.3            7.183e-010      2.3397e-009     -9.214e-009    
  -0.35           8.774e-010      2.2989e-009     1.0406e-008    
  -0.4            -1.2906e-009    1.3345e-009     1.0477e-008    
  -0.45           -2.6193e-009    -1.6579e-009    8.32e-009      
  -0.5            -2.4639e-009    -3.8803e-009    5.37e-010      
  -0.55           -1.4176e-009    -1.51e-008      -5.173e-009    
  -0.6            2.2548e-009     -4.9161e-008    -2.6168e-008   
  -0.65           -2.603e-010     -1.7494e-007    8.953e-009     
  -0.7            -7.183e-010     -5.626e-007     -1.0411e-008   
  -0.75           2.8845e-009     -1.6615e-006    1.0439e-008    
  -0.8            2.6384e-009     -4.1768e-006    1.9e-011       
  -0.85           1.5437e-009     -9.4233e-006    1.2333e-008    
  -0.9            -2.7085e-009    -1.8116e-005    1.0503e-008    
  -0.95           1.7722e-009     -3.2366e-005    -1.98e-008     
  -1              1.2955e-009     -5.2149e-005    -8.98e-009     
  -1.05           2.8884e-009     -7.8392e-005    -9.332e-009    
  -1.1            2.6823e-009     -0.000110738    4.28e-010      
  -1.15           2.807e-009      -0.00014951     1.081e-008     
  -1.2            1.3396e-009     -0.00019507     1.0458e-008    
  -1.25           1.7709e-009     -0.00024509     1.2966e-008    
  -1.3            6.147e-010      -0.00029835     1.0335e-008    
  -1.35           1.0035e-009     -0.0003583      1.0873e-008    
  -1.4            1.3906e-009     -0.0004221      1.1608e-008    
  -1.45           1.8219e-009     -0.00048792     1.3127e-008    
  -1.5            6.636e-010      -0.0005552      1.032e-008     
  -1.55           1.0459e-009     -0.00062766     1.0556e-008    
  -1.6            1.4452e-009     -0.00070212     1.1959e-008    
  -1.65           2.914e-010      -0.00077489     9.713e-009     
  -1.7            7.194e-010      -0.00085281     1.0416e-008    
  -1.75           1.0901e-009     -0.0009325      1.0452e-008    
  -1.8            1.4948e-009     -0.00101297     1.2094e-008    
END_DB

BEGIN_DB
 ICCAP_VAR VS         0              
 ICCAP_VAR VB         1.8            
 ICCAP_VAR VD         -0.1           

 #VG              IG              ID              IB             
  0               -2.468e-010     6.6e-011        1.0952e-008    
  -0.05           1.9619e-009     -7.984e-010     -2.1433e-008   
  -0.1            5.652e-010      2.3165e-009     -8.355e-009    
  -0.15           7.374e-010      2.3503e-009     1.0355e-008    
  -0.2            8.896e-010      2.3425e-009     1.037e-008     
  -0.25           1.0431e-009     2.2838e-009     1.0438e-008    
  -0.3            1.1919e-009     2.1702e-009     1.1799e-008    
  -0.35           -2.062e-010     1.9276e-009     1.0178e-008    
  -0.4            -4.84e-011      2.0051e-009     9.77e-009      
  -0.45           1.178e-010      2.0898e-009     9.602e-009     
  -0.5            2.959e-010      2.1901e-009     9.866e-009     
  -0.55           4.76e-010       2.2375e-009     1.0583e-008    
  -0.6            6.462e-010      2.1428e-009     1.0777e-008    
  -0.65           -1.3197e-009    4.407e-010      1.0552e-008    
  -0.7            -1.2982e-009    -3.8331e-009    8.331e-009     
  -0.75           -1.3755e-009    -1.7047e-008    -1.1036e-008   
  -0.8            -1.3022e-009    -6.3383e-008    8.859e-009     
  -0.85           1.9024e-009     -2.2796e-007    -2.6843e-008   
  -0.9            7.371e-010      -7.2009e-007    1.0327e-008    
  -0.95           -2.7331e-009    -1.9321e-006    -2.7285e-008   
  -1              1.9251e-009     -4.475e-006     -1.9133e-008   
  -1.05           1.3523e-009     -8.707e-006     -8.641e-009    
  -1.1            -1.4149e-009    -1.4752e-005    -9.207e-009    
  -1.15           -1.3122e-009    -2.2741e-005    8.675e-009     
  -1.2            -2.5978e-009    -3.233e-005     7.888e-009     
  -1.25           -2.076e-009     -4.3182e-005    7.5e-010       
  -1.3            8.29e-011       -5.4952e-005    -1.1556e-008   
  -1.35           -3.271e-010     -6.6517e-005    -1.0126e-008   
  -1.4            -7.797e-010     -7.7968e-005    -1.0549e-008   
  -1.45           1.5817e-009     -8.9429e-005    -1.7283e-008   
  -1.5            1.2348e-009     -0.0001002      -9.105e-009    
  -1.55           2.8657e-009     -0.000110471    -1.0021e-008   
  -1.6            2.7525e-009     -0.00012006     1.0757e-008    
  -1.65           1.422e-009      -0.00012946     1.0431e-008    
  -1.7            2.653e-010      -0.00013781     9.629e-009     
  -1.75           6.939e-010      -0.00014608     1.0499e-008    
  -1.8            1.0723e-009     -0.00015391     1.0632e-008    
END_DB

BEGIN_DB
 ICCAP_VAR VS         0              
 ICCAP_VAR VB         1.8            
 ICCAP_VAR VD         -1.8           

 #VG              IG              ID              IB             
  0               -8.031e-010     -8.205e-010     -2.7218e-008   
  -0.05           -1.9084e-009    -1.232e-009     8.866e-009     
  -0.1            1.5441e-009     -1.7023e-009    -1.2352e-008   
  -0.15           8.212e-010      2.3347e-009     -9.051e-009    
  -0.2            9.711e-010      2.298e-009      1.0307e-008    
  -0.25           1.117e-009      2.2143e-009     1.1167e-008    
  -0.3            -1.5653e-009    1.7083e-009     1.2144e-008    
  -0.35           -1.7256e-009    -1.5143e-009    6.972e-009     
  -0.4            2.0985e-009     -1.6527e-009    -1.9034e-008   
  -0.45           4.897e-010      1.9373e-009     -7.425e-009    
  -0.5            -2.569e-009     -2.3066e-009    1.0987e-008    
  -0.55           -2.3927e-009    -6.7117e-009    6.88e-010      
  -0.6            -1.528e-009     -2.5088e-008    -1.3711e-008   
  -0.65           -1.3344e-009    -9.2328e-008    7.36e-009      
  -0.7            1.1219e-009     -3.317e-007     -2.0003e-008   
  -0.75           1.5357e-009     -1.05096e-006   1.2281e-008    
  -0.8            -1.3505e-009    -2.7827e-006    -9.923e-009    
  -0.85           -1.2944e-009    -6.6259e-006    8.968e-009     
  -0.9            1.969e-010      -1.4128e-005    9.007e-009     
  -0.95           1.409e-009      -2.6093e-005    -2.2485e-008   
  -1              2.8652e-009     -4.3654e-005    -8.945e-009    
  -1.05           2.0745e-009     -6.7418e-005    1.3305e-008    
  -1.1            9.045e-010      -9.7664e-005    1.124e-008     
  -1.15           2.7241e-009     -0.00013407     1.1063e-008    
  -1.2            1.7539e-009     -0.00017765     1.3011e-008    
  -1.25           6.031e-010      -0.00022452     1.0413e-008    
  -1.3            9.897e-010      -0.00027838     1.0938e-008    
  -1.35           1.3823e-009     -0.000337       1.0577e-008    
  -1.4            1.8185e-009     -0.00039833     1.3144e-008    
  -1.45           6.602e-010      -0.00046175     1.0627e-008    
  -1.5            1.0398e-009     -0.00053049     1.0792e-008    
  -1.55           1.4342e-009     -0.00060198     1.0797e-008    
  -1.6            2.824e-010      -0.00067191     9.671e-009     
  -1.65           7.121e-010      -0.00074734     1.0793e-008    
  -1.7            1.0854e-009     -0.00082494     1.0644e-008    
  -1.75           1.4966e-009     -0.00090382     1.1035e-008    
  -1.8            3.416e-010      -0.00097992     9.529e-009     
END_DB

