! VERSION = 6.00
BEGIN_HEADER
 ICCAP_INPUTS
  VG         V  B GROUND SMU4 0.001 LIN        2    0          -1.8       6    -0.36     
  VS         V  E GROUND SMU2 0.1 CON        0
  VD         V  S GROUND SMU1 0.1 LIN        1    0          -1.8       37   -0.05     
  VB         V  C GROUND SMU3 0.1 LIN        3    0          0.9        2    0.9       
 ICCAP_OUTPUTS
  ID         I  S GROUND SMU1 B
  IB         I  C GROUND SMU3 B
  IG         I  B GROUND SMU4 B
END_HEADER

BEGIN_DB
 ICCAP_VAR VG         0              
 ICCAP_VAR VS         0              
 ICCAP_VAR VB         0              

 #VD              ID              IB              IG             
  0               -1.0132e-009    -1.818e-008     -1.1537e-009   
  -0.05           -1.109e-009     -2.6043e-008    1.3972e-009    
  -0.1            2.3331e-009     -9.223e-009     9.804e-010     
  -0.15           1.7774e-009     1.1919e-008     -1.5313e-009   
  -0.2            -1.4174e-009    7.839e-009      -1.7803e-009   
  -0.25           -2.1852e-009    -1.074e-008     -4.58e-010     
  -0.3            -5.684e-010     -1.7708e-008    2.4922e-009    
  -0.35           2.1992e-009     -4.379e-009     1.2331e-009    
  -0.4            1.9306e-009     1.0105e-008     -1.676e-010    
  -0.45           9.092e-010      2.4718e-008     -1.5593e-009   
  -0.5            -1.4518e-009    7.646e-009      -1.7588e-009   
  -0.55           -2.1734e-009    -1.0698e-008    -4.216e-010    
  -0.6            -5.289e-010     -1.7462e-008    2.5398e-009    
  -0.65           2.2243e-009     -3.844e-009     1.2004e-009    
  -0.7            1.9164e-009     1.0202e-008     -1.98e-010     
  -0.75           8.86e-010       2.4123e-008     -1.5936e-009   
  -0.8            -1.4849e-009    7.256e-009      -1.7387e-009   
  -0.85           -1.5765e-009    -1.87e-008      2.073e-009     
  -0.9            1.9376e-009     -8.226e-009     1.4902e-009    
  -0.95           2.055e-009      9.691e-009      7.56e-011      
  -1              2.1583e-009     1.0149e-008     2.576e-010     
  -1.05           2.2481e-009     1.0376e-008     4.596e-010     
  -1.1            2.3169e-009     1.0428e-008     6.458e-010     
  -1.15           2.3411e-009     9.842e-009      8.186e-010     
  -1.2            2.3353e-009     9.68e-009       9.705e-010     
  -1.25           2.2737e-009     1.0772e-008     1.1188e-009    
  -1.3            2.1471e-009     1.1988e-008     1.2772e-009    
  -1.35           1.9509e-009     9.923e-009      -1.278e-010    
  -1.4            2.0406e-009     9.646e-009      4.76e-011      
  -1.45           2.1446e-009     1.0085e-008     2.338e-010     
  -1.5            2.234e-009      1.048e-008      4.187e-010     
  -1.55           2.3075e-009     1.0368e-008     6.146e-010     
  -1.6            2.3403e-009     9.992e-009      7.86e-010      
  -1.65           2.3386e-009     9.649e-009      9.452e-010     
  -1.7            2.2903e-009     1.0443e-008     1.0914e-009    
  -1.75           2.1732e-009     1.186e-008      1.2562e-009    
  -1.8            1.9402e-009     1.004e-008      -1.498e-010    
END_DB

BEGIN_DB
 ICCAP_VAR VG         -0.36          
 ICCAP_VAR VS         0              
 ICCAP_VAR VB         0              

 #VD              ID              IB              IG             
  0               -1.2472e-009    -2.5738e-008    -1.2804e-009   
  -0.05           -7.367e-009     -2.6764e-008    1.2332e-009    
  -0.1            -7.2956e-009    -1.0553e-008    2.8437e-009    
  -0.15           -1.3056e-009    1.79e-010       2.8563e-009    
  -0.2            -1.7943e-009    -3.31e-010      2.8016e-009    
  -0.25           -6.9044e-009    1.0033e-008     -1.29e-009     
  -0.3            -9.6597e-009    1.017e-008      -2.5345e-009   
  -0.35           -2.5781e-009    -1.068e-008     -3.281e-010    
  -0.4            -1.0788e-008    -2.6529e-008    2.62e-009      
  -0.45           -2.9462e-009    -3.055e-009     2.3672e-009    
  -0.5            -3.5922e-009    -5.348e-009     2.0581e-009    
  -0.55           -4.5112e-009    -8.102e-009     1.7466e-009    
  -0.6            -1.1705e-008    -9.3e-009       -1.3815e-009   
  -0.65           -1.1739e-008    1.0455e-008     -2.0963e-009   
  -0.7            -1.1125e-008    1.2199e-008     -2.2386e-009   
  -0.75           -1.2607e-008    1.1548e-008     -1.3614e-009   
  -0.8            -1.136e-008     1.0335e-008     -1.9713e-009   
  -0.85           -1.1878e-008    1.0109e-008     -1.5031e-009   
  -0.9            -1.1655e-008    1.2586e-008     -1.5849e-009   
  -0.95           -1.19e-008      1.2815e-008     -1.6934e-009   
  -1              -1.2376e-008    9.697e-009      -1.3921e-009   
  -1.05           -1.0969e-008    1.0463e-008     -2.1444e-009   
  -1.1            -1.2874e-008    1.0832e-008     -1.3498e-009   
  -1.15           -1.1648e-008    1.0785e-008     -1.8864e-009   
  -1.2            -1.2231e-008    9.984e-009      -1.4611e-009   
  -1.25           -1.3398e-008    1.022e-008      -1.3345e-009   
  -1.3            -1.1833e-008    1.0599e-008     -1.7736e-009   
  -1.35           -1.1346e-008    1.2725e-008     -1.9053e-009   
  -1.4            -1.1682e-008    9.976e-009      -1.4725e-009   
  -1.45           -1.1821e-008    1.3211e-008     -1.5435e-009   
  -1.5            -1.1818e-008    1.3007e-008     -1.6418e-009   
  -1.55           -1.2972e-008    9.749e-009      -1.3785e-009   
  -1.6            -1.2476e-008    1.0454e-008     -2.0772e-009   
  -1.65           -1.1715e-008    1.214e-008      -2.2184e-009   
  -1.7            -1.2458e-008    1.1615e-008     -1.358e-009    
  -1.75           -1.1753e-008    1.0376e-008     -1.9599e-009   
  -1.8            -1.1622e-008    1.0044e-008     -1.49e-009     
END_DB

BEGIN_DB
 ICCAP_VAR VG         -0.72          
 ICCAP_VAR VS         0              
 ICCAP_VAR VB         0              

 #VD              ID              IB              IG             
  0               -4.3092e-008    2.2267e-008     -3.06e-010     
  -0.05           -3.8215e-008    8.734e-009      2.3911e-009    
  -0.1            -3.4864e-008    1.0363e-008     -1.5358e-009   
  -0.15           -7.3565e-007    -1.4146e-008    2.388e-010     
  -0.2            -4.7775e-007    8.298e-009      -1.2838e-009   
  -0.25           -1.8958e-007    1.0382e-008     6.239e-010     
  -0.3            -7.7783e-007    -1.9525e-008    1.6182e-009    
  -0.35           -9.5688e-007    -1.4856e-008    1.4263e-009    
  -0.4            -4.0919e-008    -1.0742e-008    2.8274e-009    
  -0.45           -1.5102e-007    1.0334e-008     1.2257e-009    
  -0.5            -8.8708e-007    -2.6954e-008    2.3898e-009    
  -0.55           -8.2438e-007    -1.8379e-008    1.919e-009     
  -0.6            -4.0006e-008    -1.871e-008     -2.6741e-009   
  -0.65           -1.4636e-007    -1.0761e-008    -7.15e-010     
  -0.7            -8.2343e-007    2.0178e-008     -1.5556e-009   
  -0.75           -1.418e-007     1.0345e-008     7.912e-010     
  -0.8            -8.8533e-007    -2.2636e-008    1.4045e-009    
  -0.85           -1.6597e-007    -2.509e-008     1.4012e-009    
  -0.9            -7.4177e-007    -1.3311e-008    2.7529e-009    
  -0.95           -8.7999e-007    -2.6655e-008    1.2248e-009    
  -1              -6.11e-008      1.1159e-008     1.2649e-009    
  -1.05           -4.368e-008     -1.0348e-008    2.7411e-009    
  -1.1            -3.792e-008     -1.9354e-008    2.5676e-009    
  -1.15           -8.5419e-007    -1.7144e-008    2.1711e-009    
  -1.2            -4.2072e-008    -1.8777e-008    -2.6805e-009   
  -1.25           -1.5508e-007    -1.0775e-008    -6.855e-010    
  -1.3            -8.791e-007     1.9706e-008     1.3337e-009    
  -1.35           -9.006e-007     -2.5614e-008    1.2506e-009    
  -1.4            -4.5451e-007    -2.7272e-008    -1.2974e-009   
  -1.45           -1.7203e-007    1.2056e-008     1.3305e-009    
  -1.5            -6.9987e-007    -1.2089e-008    2.8074e-009    
  -1.55           -8.8126e-007    -1.8827e-008    1.7387e-009    
  -1.6            -1.5556e-007    -2.0997e-008    1.1447e-009    
  -1.65           -9.116e-007     -2.7363e-008    2.5134e-009    
  -1.7            -4.4364e-008    -1.7931e-008    -1.3202e-009   
  -1.75           -9.381e-007     6.01e-009       3.531e-010     
  -1.8            -3.764e-008     -1.3208e-008    -2.2687e-009   
END_DB

BEGIN_DB
 ICCAP_VAR VG         -1.08          
 ICCAP_VAR VS         0              
 ICCAP_VAR VB         0              

 #VD              ID              IB              IG             
  0               -4.5319e-008    -6.555e-009     2.3057e-009    
  -0.05           -7.493e-007     7.924e-009      -1.3567e-009   
  -0.1            -1.4659e-006    -5.905e-009     -2.6367e-009   
  -0.15           -2.246e-006     1.0607e-008     7.407e-010     
  -0.2            -3.6657e-006    -1.9398e-008    1.6288e-009    
  -0.25           -3.008e-006     -1.0849e-008    -7.205e-010    
  -0.3            -4.577e-006     1.7899e-008     -1.6795e-009   
  -0.35           -3.7413e-006    1.0291e-008     5.594e-010     
  -0.4            -5.1815e-006    -1.8468e-008    1.9174e-009    
  -0.45           -5.6595e-006    -2.2355e-008    1.8712e-009    
  -0.5            -5.8901e-006    -2.1746e-008    1.827e-009     
  -0.55           -6.0619e-006    -2.1063e-008    1.7888e-009    
  -0.6            -6.1222e-006    -2.03e-008      1.7411e-009    
  -0.65           -6.3108e-006    -1.9636e-008    1.7031e-009    
  -0.7            -6.4805e-006    -1.8914e-008    1.66e-009      
  -0.75           -6.4798e-006    -1.8369e-008    1.6334e-009    
  -0.8            -3.6918e-006    -1.0893e-008    -7.151e-010    
  -0.85           -5.9489e-006    1.7948e-008     -1.6792e-009   
  -0.9            -4.2791e-006    1.0246e-008     5.641e-010     
  -0.95           -6.0321e-006    -1.8546e-008    1.9104e-009    
  -1              -6.5312e-006    -2.2287e-008    1.8676e-009    
  -1.05           -6.5522e-006    -2.1728e-008    1.8362e-009    
  -1.1            -6.5934e-006    -2.0802e-008    1.787e-009     
  -1.15           -6.6392e-006    -2.0535e-008    1.7498e-009    
  -1.2            -6.6865e-006    -1.9552e-008    1.7049e-009    
  -1.25           -3.9209e-006    -1.0745e-008    -6.661e-010    
  -1.3            -6.1348e-006    1.7e-008        -1.7413e-009   
  -1.35           -3.2519e-006    1.2411e-008     2.0549e-009    
  -1.4            -7.2019e-006    -1.2826e-008    1.901e-010     
  -1.45           -4.4617e-006    8.637e-009      -1.2922e-009   
  -1.5            -3.6971e-006    1.1653e-008     1.4955e-009    
  -1.55           -5.4848e-006    -1.2645e-008    2.7813e-009    
  -1.6            -6.3842e-006    -2.4819e-008    1.2891e-009    
  -1.65           -6.4777e-006    -2.6531e-008    1.2273e-009    
  -1.7            -6.51e-006      -2.7415e-008    2.4381e-009    
  -1.75           -6.5182e-006    -2.7273e-008    2.3872e-009    
  -1.8            -6.3827e-006    -1.7278e-008    2.1482e-009    
END_DB

BEGIN_DB
 ICCAP_VAR VG         -1.44          
 ICCAP_VAR VS         0              
 ICCAP_VAR VB         0              

 #VD              ID              IB              IG             
  0               -3.2017e-008    -2.4516e-008    -1.0652e-009   
  -0.05           -2.9591e-006    -2.7103e-008    -2.7142e-009   
  -0.1            -5.6031e-006    9.851e-009      1.0482e-009    
  -0.15           -7.8412e-006    -2.4999e-008    1.2849e-009    
  -0.2            -9.8468e-006    -2.6719e-008    2.6141e-009    
  -0.25           -1.1612e-005    -1.0753e-008    2.16e-010      
  -0.3            -1.2623e-005    8.605e-009      -2.4011e-009   
  -0.35           -1.4143e-005    1.3003e-008     1.9711e-009    
  -0.4            -1.5519e-005    -1.999e-008     1.5736e-009    
  -0.45           -1.6567e-005    -2.7193e-008    2.5402e-009    
  -0.5            -1.755e-005     -2.2351e-008    1.886e-009     
  -0.55           -1.9125e-005    -1.3338e-008    2.19e-010      
  -0.6            -1.7592e-005    8.657e-009      -2.4068e-009   
  -0.65           -1.7074e-005    1.3182e-008     1.963e-009     
  -0.7            -1.9368e-005    -1.9879e-008    1.5759e-009    
  -0.75           -1.9887e-005    -2.7263e-008    2.5443e-009    
  -0.8            -1.8552e-005    -1.0437e-008    -5.065e-010    
  -0.85           -2.0143e-005    2.1723e-008     -1.4996e-009   
  -0.9            -1.7178e-005    9.869e-009      1.0701e-009    
  -0.95           -1.907e-005     -1.1786e-008    2.81e-009      
  -1              -2.0943e-005    -2.7189e-008    2.4144e-009    
  -1.05           -1.8655e-005    -1.0692e-008    -6.098e-010    
  -1.1            -2.073e-005     2.3524e-008     -1.442e-009    
  -1.15           -1.7619e-005    9.566e-009      1.1555e-009    
  -1.2            -2.0109e-005    -1.3307e-008    2.7544e-009    
  -1.25           -2.1168e-005    -1.0376e-008    -2.55e-010     
  -1.3            -2.103e-005     1.7663e-008     -1.7095e-009   
  -1.35           -1.7689e-005    1.0321e-008     8.917e-010     
  -1.4            -2.1582e-005    -2.7178e-008    2.5639e-009    
  -1.45           -1.9803e-005    -1.0356e-008    -4.893e-010    
  -1.5            -2.1434e-005    2.1429e-008     -1.512e-009    
  -1.55           -1.7919e-005    9.845e-009      1.0599e-009    
  -1.6            -1.9839e-005    -1.1488e-008    2.8204e-009    
  -1.65           -2.183e-005     -2.7268e-008    2.4415e-009    
  -1.7            -1.9466e-005    -1.0657e-008    -5.927e-010    
  -1.75           -2.1631e-005    2.312e-008      -1.4513e-009   
  -1.8            -1.8206e-005    9.625e-009      1.1437e-009    
END_DB

BEGIN_DB
 ICCAP_VAR VG         -1.8           
 ICCAP_VAR VS         0              
 ICCAP_VAR VB         0              

 #VD              ID              IB              IG             
  0               -1.4056e-008    8.229e-009      1.1632e-009    
  -0.05           -4.9075e-006    1.2541e-008     1.8499e-009    
  -0.1            -9.5437e-006    -2.1375e-008    1.8039e-009    
  -0.15           -1.4205e-005    -2.0068e-008    1.9016e-009    
  -0.2            -1.7612e-005    -1.9539e-008    1.6644e-009    
  -0.25           -2.1668e-005    -1.0604e-008    -1.0227e-009   
  -0.3            -2.4376e-005    2.7785e-008     -1.327e-009    
  -0.35           -2.8453e-005    1.0971e-008     1.5956e-009    
  -0.4            -3.0986e-005    -1.4287e-008    1.4144e-009    
  -0.45           -3.2425e-005    -2.7068e-008    2.3571e-009    
  -0.5            -3.4933e-005    -1.9162e-008    1.6772e-009    
  -0.55           -3.6771e-005    -1.0664e-008    -1.0113e-009   
  -0.6            -3.7804e-005    2.7878e-008     -1.3274e-009   
  -0.65           -4.0257e-005    1.2092e-008     1.586e-009     
  -0.7            -4.2019e-005    -1.445e-008     1.4292e-009    
  -0.75           -4.4116e-005    -1.0824e-008    -4.02e-011     
  -0.8            -4.2407e-005    1.3624e-008     -1.964e-009    
  -0.85           -4.3443e-005    1.0509e-008     7.185e-010     
  -0.9            -4.4364e-005    -2.4955e-008    1.2849e-009    
  -0.95           -4.4865e-005    -1.8884e-008    1.8197e-009    
  -1              -4.5503e-005    -2.5502e-008    1.2642e-009    
  -1.05           -4.6891e-005    -1.0364e-008    -3.116e-010    
  -1.1            -4.6036e-005    1.8543e-008     -1.6488e-009   
  -1.15           -4.4213e-005    1.0236e-008     9.321e-010     
  -1.2            -4.7102e-005    -2.7343e-008    2.4962e-009    
  -1.25           -4.6409e-005    -1.0568e-008    -5.434e-010    
  -1.3            -4.7129e-005    2.2383e-008     -1.4777e-009   
  -1.35           -4.5081e-005    9.703e-009      1.0991e-009    
  -1.4            -4.8112e-005    -2.5767e-008    2.198e-009     
  -1.45           -4.6015e-005    -1.0844e-008    -7.577e-010    
  -1.5            -4.8029e-005    2.5609e-008     -1.3867e-009   
  -1.55           -4.6106e-005    1.0077e-008     1.2831e-009    
  -1.6            -4.916e-005     -2.1866e-008    1.8539e-009    
  -1.65           -4.8607e-005    -2.5169e-008    1.2715e-009    
  -1.7            -4.9082e-005    -2.3971e-008    1.9904e-009    
  -1.75           -5.1051e-005    -1.4226e-008    1.4121e-009    
  -1.8            -5.1744e-005    -1.0747e-008    -5.59e-011     
END_DB

BEGIN_DB
 ICCAP_VAR VG         0              
 ICCAP_VAR VS         0              
 ICCAP_VAR VB         0.9            

 #VD              ID              IB              IG             
  0               -6.068e-010     -2.1513e-008    2.7749e-009    
  -0.05           1.9374e-009     1.3042e-008     -1.511e-010    
  -0.1            9.167e-010      2.5067e-008     -1.5393e-009   
  -0.15           -1.431e-009     7.951e-009      -1.762e-009    
  -0.2            -2.1839e-009    -1.0986e-008    -4.267e-010    
  -0.25           -5.277e-010     -1.7508e-008    2.5336e-009    
  -0.3            2.2272e-009     -3.711e-009     1.193e-009     
  -0.35           1.912e-009      1.0229e-008     -2.165e-010    
  -0.4            8.702e-010      2.3794e-008     -1.6055e-009   
  -0.45           -1.5084e-009    7.197e-009      -1.7176e-009   
  -0.5            -1.5609e-009    -1.9365e-008    2.1347e-009    
  -0.55           1.9814e-009     -7.425e-009     1.4457e-009    
  -0.6            2.0287e-009     9.801e-009      1.8e-011       
  -0.65           2.1274e-009     1.0042e-008     2.022e-010     
  -0.7            2.2172e-009     1.0598e-008     3.836e-010     
  -0.75           2.2961e-009     1.0786e-008     5.721e-010     
  -0.8            2.3406e-009     1.0399e-008     7.412e-010     
  -0.85           2.3414e-009     9.702e-009      8.956e-010     
  -0.9            2.3073e-009     1.0163e-008     1.0429e-009    
  -0.95           2.2078e-009     1.1418e-008     1.1971e-009    
  -1              1.9119e-009     1.0216e-008     -2.112e-010    
  -1.05           8.79e-010       2.3952e-008     -1.5999e-009   
  -1.1            -1.4954e-009    7.03e-009       -1.7198e-009   
  -1.15           -2.1612e-009    -1.0776e-008    -3.535e-010    
  -1.2            -1.3579e-009    -2.6416e-008    2.607e-009     
  -1.25           2.2671e-009     -3.089e-009     1.1333e-009    
  -1.3            2.1264e-009     1.1988e-008     1.2956e-009    
  -1.35           1.9354e-009     1.2529e-008     1.4698e-009    
  -1.4            2.0392e-009     9.697e-009      4.54e-011      
  -1.45           2.1386e-009     1.0135e-008     2.24e-010      
  -1.5            2.2363e-009     1.0493e-008     4.12e-010      
  -1.55           2.3032e-009     1.0353e-008     5.998e-010     
  -1.6            2.3398e-009     1.0102e-008     7.691e-010     
  -1.65           2.3422e-009     9.609e-009      9.195e-010     
  -1.7            2.2952e-009     1.0392e-008     1.0664e-009    
  -1.75           2.1882e-009     1.1578e-008     1.225e-009     
  -1.8            1.9264e-009     1.0111e-008     -1.827e-010    
END_DB

BEGIN_DB
 ICCAP_VAR VG         -0.36          
 ICCAP_VAR VS         0              
 ICCAP_VAR VB         0.9            

 #VD              ID              IB              IG             
  0               5.481e-010      -1.0389e-008    4.22e-010      
  -0.05           -1.596e-010     -1.4203e-008    2.8479e-009    
  -0.1            2.3027e-009     9.737e-009      1.0367e-009    
  -0.15           2.2032e-009     1.0317e-008     1.1921e-009    
  -0.2            1.8916e-009     1.0348e-008     -2.111e-010    
  -0.25           1.9747e-009     9.925e-009      -5.22e-011     
  -0.3            2.0735e-009     9.928e-009      1.197e-010     
  -0.35           2.177e-009      1.0363e-008     3.053e-010     
  -0.4            2.2592e-009     1.0424e-008     4.914e-010     
  -0.45           2.3248e-009     1.0299e-008     6.753e-010     
  -0.5            2.3467e-009     9.866e-009      8.391e-010     
  -0.55           2.3257e-009     9.813e-009      9.821e-010     
