! VERSION = 6.00
BEGIN_HEADER
 ICCAP_INPUTS
  VG         V  B GROUND SMU4 0.001 LIN        1    0          -1.8       37   -0.05     
  VS         V  E GROUND SMU2 0.1 CON        0
  VB         V  C GROUND SMU3 0.1 LIN        3    0          1.8        3    0.9       
  VD         V  S GROUND SMU1 0.1 LIN        2    -0.1       -1.8       2    -1.7      
 ICCAP_OUTPUTS
  IG         I  B GROUND SMU4 B
  ID         I  S GROUND SMU1 B
  IB         I  C GROUND SMU3 B
END_HEADER

BEGIN_DB
 ICCAP_VAR VS         0              
 ICCAP_VAR VB         0              
 ICCAP_VAR VD         -0.1           

 #VG              IG              ID              IB             
  0               -5.83e-011      1.833e-010      1.0328e-008    
  -0.05           2.2076e-009     -7.183e-010     -2.0107e-008   
  -0.1            4.449e-010      2.2825e-009     -6.23e-009     
  -0.15           6.388e-010      2.3425e-009     1.0454e-008    
  -0.2            8.169e-010      2.3509e-009     1.0425e-008    
  -0.25           9.832e-010      2.3017e-009     1.0158e-008    
  -0.3            -1.2933e-009    1.5758e-009     1.1163e-008    
  -0.35           -2.5159e-009    1.143e-010      1.1137e-008    
  -0.4            -1.9668e-009    -1.8358e-009    1.269e-009     
  -0.45           1.3345e-009     -3.3995e-009    -2.6799e-008   
  -0.5            1.2408e-009     -7.5552e-009    -9.187e-009    
  -0.55           -1.5413e-009    -2.5829e-008    -1.387e-008    
  -0.6            -1.3486e-009    -7.7527e-008    7.421e-009     
  -0.65           1.8246e-009     -2.1958e-007    -2.7092e-008   
  -0.7            6.704e-010      -5.6562e-007    1.0371e-008    
  -0.75           -1.5908e-009    -1.3257e-006    -1.0814e-008   
  -0.8            -1.3594e-009    -2.8582e-006    6.698e-009     
  -0.85           -1.3051e-009    -5.5633e-006    8.752e-009     
  -0.9            -2.3778e-009    -9.771e-006     8.849e-009     
  -0.95           1.339e-009      -1.5839e-005    5.92e-010      
  -1              2.8846e-009     -2.3233e-005    -9.182e-009    
  -1.05           2.7023e-009     -3.1823e-005    2e-010         
  -1.1            1.5234e-009     -4.1587e-005    1.1788e-008    
  -1.15           3.601e-010      -5.1303e-005    9.581e-009     
  -1.2            8.062e-010      -6.169e-005     1.0445e-008    
  -1.25           1.1991e-009     -7.207e-005     1.0152e-008    
  -1.3            2.25e-011       -8.1742e-005    1.0069e-008    
  -1.35           4.756e-010      -9.1448e-005    9.762e-009     
  -1.4            9.074e-010      -0.000100737    1.0535e-008    
  -1.45           1.3069e-009     -0.000109536    1.0436e-008    
  -1.5            2.8811e-009     -0.00011753     1.0233e-008    
  -1.55           2.6855e-009     -0.00012519     9.6e-011       
  -1.6            1.5423e-009     -0.00013256     1.18e-008      
  -1.65           3.81e-010       -0.00013908     9.672e-009     
  -1.7            8.264e-010      -0.0001455      1.0859e-008    
  -1.75           1.2183e-009     -0.00015157     9.969e-009     
  -1.8            3.67e-011       -0.00015697     1.0054e-008    
END_DB

BEGIN_DB
 ICCAP_VAR VS         0              
 ICCAP_VAR VB         0              
 ICCAP_VAR VD         -1.8           

 #VG              IG              ID              IB             
  0               -9.467e-010     -8.915e-010     -2.5474e-008   
  -0.05           -1.831e-009     -1.3785e-009    8.275e-009     
  -0.1            -5.263e-010     -2.2785e-009    -1.0699e-008   
  -0.15           2.35e-009       -1.5138e-009    -2.2832e-008   
  -0.2            3.467e-010      2.1793e-009     -5.066e-009    
  -0.25           5.463e-010      2.1204e-009     1.026e-008     
  -0.3            -1.346e-009     6.321e-010      1.0325e-008    
  -0.35           -1.3181e-009    -2.1382e-009    8.823e-009     
  -0.4            -1.296e-009     -6.6818e-009    7.923e-009     
  -0.45           -1.5001e-009    -2.2633e-008    -1.3133e-008   
  -0.5            -1.3443e-009    -6.7566e-008    7.931e-009     
  -0.55           2.5035e-009     -1.9378e-007    -1.3027e-008   
  -0.6            1.4563e-009     -5.395e-007     1.1607e-008    
  -0.65           -1.3604e-009    -1.3229e-006    -1.0077e-008   
  -0.7            -1.2984e-009    -3.0741e-006    9.078e-009     
  -0.75           -2.3526e-009    -6.5359e-006    9.296e-009     
  -0.8            2.2257e-009     -1.2774e-005    -1.3031e-008   
  -0.85           1.0642e-009     -2.2689e-005    1.0555e-008    
  -0.9            1.4828e-009     -3.7215e-005    1.0541e-008    
  -0.95           3.23e-010       -5.5765e-005    9.95e-009      
  -1              7.723e-010      -8.0273e-005    1.0712e-008    
  -1.05           1.1606e-009     -0.000110305    1.0287e-008    
  -1.1            2.8203e-009     -0.0001443      1.0497e-008    
  -1.15           8.722e-010      -0.00018355     1.0504e-008    
  -1.2            1.2657e-009     -0.0002279      1.0411e-008    
  -1.25           9.35e-011       -0.0002738      1.0322e-008    
  -1.3            5.563e-010      -0.00032524     1.0012e-008    
  -1.35           9.731e-010      -0.00037992     1.0422e-008    
  -1.4            1.3759e-009     -0.00043783     1.1221e-008    
  -1.45           1.8206e-009     -0.00049709     1.2613e-008    
  -1.5            6.644e-010      -0.00055659     1.029e-008     
  -1.55           1.0667e-009     -0.00062073     1.0556e-008    
  -1.6            1.4838e-009     -0.00068647     1.0598e-008    
  -1.65           3.261e-010      -0.00075053     9.696e-009     
  -1.7            7.762e-010      -0.00081839     1.0585e-008    
  -1.75           1.1651e-009     -0.00088788     1.0168e-008    
  -1.8            1.5948e-009     -0.00095775     1.2156e-008    
END_DB

BEGIN_DB
 ICCAP_VAR VS         0              
 ICCAP_VAR VB         0.9            
 ICCAP_VAR VD         -0.1           

 #VG              IG              ID              IB             
  0               2.738e-010      4.557e-010      1.0648e-008    
  -0.05           2.747e-009      -3.09e-010      -1.6799e-008   
  -0.1            1.2407e-009     2.1721e-009     1.1764e-008    
  -0.15           -1.769e-010     1.964e-009      9.99e-009      
  -0.2            -9.2e-012       2.0493e-009     9.574e-009     
  -0.25           1.657e-010      2.1544e-009     9.555e-009     
  -0.3            3.652e-010      2.2519e-009     1.0219e-008    
  -0.35           5.645e-010      2.3227e-009     1.0373e-008    
  -0.4            7.416e-010      2.3531e-009     1.072e-008     
  -0.45           9.123e-010      2.324e-009      1.0427e-008    
  -0.5            -1.2955e-009    1.5004e-009     1.0164e-008    
  -0.55           -2.3689e-009    -1.3946e-009    9.618e-009     
  -0.6            2.269e-009      -2.6726e-009    -2.1846e-008   
  -0.65           1.9271e-009     -4.1008e-009    -5.982e-009    
  -0.7            -2.4134e-009    -1.8776e-008    -2.6998e-008   
  -0.75           1.4087e-009     -6.5259e-008    -1.4359e-008   
  -0.8            -1.5729e-009    -1.9095e-007    2.522e-008     
  -0.85           1.772e-009      -5.4041e-007    -1.9783e-008   
  -0.9            2.7475e-009     -1.3132e-006    2.2537e-008    
  -0.95           1.815e-009      -2.9972e-006    1.242e-008     
  -1              6.561e-010      -5.9099e-006    1.0371e-008    
  -1.05           1.0594e-009     -1.06584e-005   1.0543e-008    
  -1.1            -2.5649e-009    -1.7038e-005    1.001e-008     
  -1.15           -2.0096e-009    -2.5075e-005    9.35e-010      
  -1.2            1.2067e-009     -3.4527e-005    -2.7149e-008   
  -1.25           2.8024e-009     -4.4561e-005    -1.1855e-008   
  -1.3            1.4044e-009     -5.4939e-005    1.1175e-008    
  -1.35           1.8405e-009     -6.5118e-005    1.2591e-008    
  -1.4            6.862e-010      -7.4902e-005    1.0325e-008    
  -1.45           1.0892e-009     -8.4566e-005    1.0333e-008    
  -1.5            1.5086e-009     -9.369e-005     1.0719e-008    
  -1.55           3.426e-010      -0.000101889    9.513e-009     
  -1.6            7.876e-010      -0.000109951    1.0773e-008    
  -1.65           2.652e-009      -0.00011742     1.0221e-008    
  -1.7            5.767e-010      -0.00012434     9.988e-009     
  -1.75           9.886e-010      -0.00013101     1.0713e-008    
  -1.8            1.3965e-009     -0.00013729     1.029e-008     
END_DB

BEGIN_DB
 ICCAP_VAR VS         0              
 ICCAP_VAR VB         0.9            
 ICCAP_VAR VD         -1.8           

 #VG              IG              ID              IB             
  0               1.248e-009      1.3567e-009     -1.0303e-008   
  -0.05           1.3052e-009     2.1079e-009     1.1937e-008    
  -0.1            -1.177e-010     1.9959e-009     9.785e-009     
  -0.15           5.33e-011       2.0822e-009     9.392e-009     
  -0.2            2.306e-010      2.1915e-009     9.753e-009     
  -0.25           4.294e-010      2.2866e-009     1.0525e-008    
  -0.3            6.168e-010      2.3401e-009     1.0873e-008    
  -0.35           7.995e-010      2.3399e-009     1.064e-008     
  -0.4            9.606e-010      2.2527e-009     1.0097e-008    
  -0.45           -1.2916e-009    1.2943e-009     1.0948e-008    
  -0.5            -2.5467e-009    -2.1756e-009    1.0586e-008    
  -0.55           -2.3585e-009    -5.9107e-009    9.85e-010      
  -0.6            -1.2876e-009    -2.0486e-008    -1.0545e-008   
  -0.65           -2.2079e-009    -7.1289e-008    1.1475e-008    
  -0.7            2.8728e-009     -2.3144e-007    -1.045e-008    
  -0.75           2.5843e-009     -6.7558e-007    -1.39e-010     
  -0.8            2.2018e-009     -1.7609e-006    8.417e-009     
  -0.85           1.0451e-009     -4.1995e-006    1.0445e-008    
  -0.9            1.4632e-009     -9.0642e-006    1.1677e-008    
  -0.95           -2.7483e-009    -1.7069e-005    1.0536e-008    
  -1              2.3395e-009     -3.0023e-005    -2.6799e-008   
  -1.05           1.6035e-009     -4.7948e-005    -5.233e-009    
  -1.1            1.2425e-009     -7.1545e-005    -8.913e-009    
  -1.15           2.8718e-009     -0.000100773    -9.774e-009    
  -1.2            2.6982e-009     -0.00013447     1.055e-008     
  -1.25           6.403e-010      -0.00017341     1.0429e-008    
  -1.3            1.0453e-009     -0.00021763     1.0606e-008    
  -1.35           1.4562e-009     -0.00026596     1.1706e-008    
  -1.4            2.852e-010      -0.00031509     9.679e-009     
  -1.45           7.354e-010      -0.00036972     1.0439e-008    
  -1.5            1.1265e-009     -0.00042731     1.0415e-008    
  -1.55           1.5498e-009     -0.00048711     1.2066e-008    
  -1.6            3.822e-010      -0.00054602     9.463e-009     
  -1.65           8.21e-010       -0.00060951     1.0428e-008    
  -1.7            1.2068e-009     -0.00067468     1.0159e-008    
  -1.75           2.6e-011        -0.00073855     1.0055e-008    
  -1.8            4.748e-010      -0.00080567     9.515e-009     
END_DB

BEGIN_DB
 ICCAP_VAR VS         0              
 ICCAP_VAR VB         1.8            
 ICCAP_VAR VD         -0.1           

 #VG              IG              ID              IB             
  0               -1.1475e-009    -1.0373e-009    -1.9556e-008   
  -0.05           1.3332e-009     -1.1839e-009    -2.6893e-008   
  -0.1            1.055e-009      2.293e-009      -9.342e-009    
  -0.15           1.2175e-009     2.1807e-009     1.1709e-008    
  -0.2            -2.047e-010     1.9473e-009     1.0285e-008    
  -0.25           -1.5648e-009    8.921e-010      2.4589e-008    
  -0.3            -1.7516e-009    -1.4971e-009    7.164e-009     
  -0.35           -3.777e-010     -2.2405e-009    -1.0333e-008   
  -0.4            1.2206e-009     -1.4004e-009    -2.5327e-008   
  -0.45           2.8793e-009     -2.4e-012       -1.1287e-008   
  -0.5            6.522e-010      2.3351e-009     2.2e-010       
  -0.55           8.252e-010      2.33e-009       1.035e-008     
  -0.6            -1.3055e-009    1.3757e-009     1.0131e-008    
  -0.65           -2.2632e-009    -1.6189e-009    8.116e-009     
  -0.7            -4.2e-012       -4.1286e-009    -1.0208e-008   
  -0.75           -1.773e-010     -1.1009e-008    -9.963e-009    
  -0.8            2.867e-009      -3.3047e-008    2.1379e-008    
  -0.85           -1.07e-010      -1.1706e-007    8.815e-009     
  -0.9            -5.938e-010     -3.34e-007      -1.0211e-008   
  -0.95           1.8341e-009     -8.8244e-007    -2.1599e-008   
  -1              2.6163e-009     -2.0429e-006    1.9969e-008    
  -1.05           1.6214e-009     -4.4059e-006    1.2176e-008    
  -1.1            2.0564e-009     -8.24e-006      1.2062e-008    
  -1.15           -2.7478e-009    -1.3852e-005    1.0276e-008    
  -1.2            -1.72e-011      -2.1449e-005    -1.099e-008    
  -1.25           -4.773e-010     -3.0169e-005    -9.98e-009     
  -1.3            2.0016e-009     -3.9948e-005    -2.3819e-008   
  -1.35           1.3904e-009     -5.0107e-005    -7.96e-009     
  -1.4            2.871e-009      -6.0289e-005    -9.019e-009    
  -1.45           2.1195e-009     -7.015e-005     1.1993e-008    
  -1.5            9.484e-010      -7.9652e-005    1.0417e-008    
  -1.55           1.352e-009      -8.8753e-005    1.0796e-008    
  -1.6            1.7827e-009     -9.7139e-005    1.2404e-008    
  -1.65           6.211e-010      -0.000104894    1.0196e-008    
  -1.7            1.0252e-009     -0.000112418    1.0567e-008    
  -1.75           2.6478e-009     -0.00011937     1.0106e-008    
  -1.8            5.777e-010      -0.00012577     9.99e-009      
END_DB

BEGIN_DB
 ICCAP_VAR VS         0              
 ICCAP_VAR VB         1.8            
 ICCAP_VAR VD         -1.8           

 #VG              IG              ID              IB             
  0               1.1817e-009     1.0953e-009     -1.0937e-008   
  -0.05           5.464e-010      2.3056e-009     1.0382e-008    
  -0.1            7.287e-010      2.3415e-009     1.0413e-008    
  -0.15           8.993e-010      2.3307e-009     1.0272e-008    
  -0.2            1.0573e-009     2.2814e-009     1.0327e-008    
  -0.25           1.2191e-009     2.1699e-009     1.1562e-008    
  -0.3            -2.074e-010     1.944e-009      1.0275e-008    
  -0.35           -4.63e-011      2.0187e-009     9.785e-009     
  -0.4            1.285e-010      2.0944e-009     9.561e-009     
  -0.45           3.162e-010      2.1238e-009     9.915e-009     
  -0.5            5.024e-010      1.875e-009      1.0291e-008    
  -0.55           -1.4227e-009    -2.1935e-009    1.0639e-008    
  -0.6            -1.367e-009     -7.6387e-009    8.673e-009     
  -0.65           -1.2901e-009    -2.977e-008     -1.0317e-008   
  -0.7            -2.2456e-009    -1.04238e-007   1.0699e-008    
  -0.75           2.8008e-009     -3.3093e-007    -1.0398e-008   
  -0.8            8.303e-010      -9.3797e-007    1.0275e-008    
  -0.85           -2.0679e-009    -2.3606e-006    -1.4139e-008   
  -0.9            -9.341e-010     -5.4558e-006    -1.0963e-008   
  -0.95           2.4675e-009     -1.1393e-005    -1.0689e-008   
  -1              1.3916e-009     -2.1533e-005    1.032e-008     
  -1.05           1.8221e-009     -3.6387e-005    1.2556e-008    
  -1.1            6.667e-010      -5.629e-005     1.0318e-008    
  -1.15           1.0642e-009     -8.2632e-005    1.0576e-008    
  -1.2            2.7628e-009     -0.00011377     1.1862e-008    
  -1.25           1.421e-009      -0.00015121     1.1441e-008    
  -1.3            2.455e-010      -0.00019115     9.955e-009     
  -1.35           6.962e-010      -0.00023717     1.0509e-008    
  -1.4            1.0911e-009     -0.00028721     1.0438e-008    
  -1.45           1.5052e-009     -0.00034057     1.1851e-008    
  -1.5            3.287e-010      -0.00039414     9.696e-009     
  -1.55           7.797e-010      -0.00045251     1.0676e-008    
  -1.6            1.1642e-009     -0.00051362     1.0427e-008    
  -1.65           1.5828e-009     -0.00057641     1.1007e-008    
  -1.7            2.0227e-009     -0.00063902     1.2761e-008    
  -1.75           8.548e-010      -0.00070376     1.0808e-008    
  -1.8            1.2378e-009     -0.00077116     1.0167e-008    
END_DB

