! VERSION = 6.00
BEGIN_HEADER
 ICCAP_INPUTS
  VG         V  B GROUND SMU4 0.001 LIN        2    0          -1.8       6    -0.36     
  VS         V  E GROUND SMU2 0.1 CON        0
  VD         V  S GROUND SMU1 0.1 LIN        1    0          -1.8       37   -0.05     
  VB         V  C GROUND SMU3 0.1 LIN        3    0          0.9        2    0.9       
 ICCAP_OUTPUTS
  ID         I  S GROUND SMU1 B
  IB         I  C GROUND SMU3 B
  IG         I  B GROUND SMU4 B
END_HEADER

BEGIN_DB
 ICCAP_VAR VG         0              
 ICCAP_VAR VS         0              
 ICCAP_VAR VB         0              

 #VD              ID              IB              IG             
  0               -2.467e-010     -2.0756e-008    -4.238e-010    
  -0.05           -9.088e-010     -2.2848e-008    1.7026e-009    
  -0.1            2.3153e-009     -9.245e-009     7.519e-010     
  -0.15           2.318e-009      9.801e-009      9.044e-010     
  -0.2            2.2719e-009     1.061e-008      1.0552e-009    
  -0.25           2.1593e-009     1.1747e-008     1.2146e-009    
  -0.3            1.917e-009      1.0075e-008     -1.729e-010    
  -0.35           1.9965e-009     9.774e-009      -5.1e-012      
  -0.4            2.0922e-009     9.889e-009      1.697e-010     
  -0.45           2.1905e-009     1.0441e-008     3.636e-010     
  -0.5            2.2675e-009     1.0492e-008     5.531e-010     
  -0.55           2.3123e-009     1.0238e-008     7.29e-010      
  -0.6            2.3197e-009     9.964e-009      8.873e-010     
  -0.65           2.2809e-009     1.0312e-008     1.0346e-009    
  -0.7            2.175e-009      1.1663e-008     1.193e-009     
  -0.75           1.9055e-009     1.0176e-008     -2.005e-010    
  -0.8            8.859e-010      2.4486e-008     -1.5543e-009   
  -0.85           -1.4575e-009    7.332e-009      -1.7335e-009   
  -0.9            -2.1613e-009    -1.0702e-008    -3.982e-010    
  -0.95           -4.949e-010     -1.7197e-008    2.5434e-009    
  -1              2.2094e-009     -3.605e-009     1.1599e-009    
  -1.05           1.8884e-009     1.0315e-008     -2.243e-010    
  -1.1            8.629e-010      2.3981e-008     -1.5893e-009   
  -1.15           -1.4933e-009    6.948e-009      -1.7109e-009   
  -1.2            -2.1506e-009    -1.0702e-008    -3.583e-010    
  -1.25           -1.3466e-009    -2.6106e-008    1.2215e-009    
  -1.3            2.78e-011       -1.0643e-008    2.842e-009     
  -1.35           2.291e-009      2.32e-010       6.225e-010     
  -1.4            2.3204e-009     1.0297e-008     7.94e-010      
  -1.45           2.3132e-009     9.791e-009      9.442e-010     
  -1.5            2.2456e-009     1.0103e-008     1.0957e-009    
  -1.55           2.1165e-009     1.0813e-008     1.2576e-009    
  -1.6            1.9386e-009     9.973e-009      -1.36e-010     
  -1.65           2.0166e-009     9.707e-009      3.4e-011       
  -1.7            2.1189e-009     9.98e-009       2.206e-010     
  -1.75           2.2097e-009     1.0443e-008     4.086e-010     
  -1.8            2.2855e-009     1.043e-008      5.959e-010     
END_DB

BEGIN_DB
 ICCAP_VAR VG         -0.36          
 ICCAP_VAR VS         0              
 ICCAP_VAR VB         0              

 #VD              ID              IB              IG             
  0               -1.1438e-009    -9.675e-009     -1.287e-009    
  -0.05           -1.8401e-009    -2.7231e-008    1.3204e-009    
  -0.1            -6.901e-010     -9.48e-009      1.2333e-009    
  -0.15           -9.416e-010     -1.0291e-008    2.8358e-009    
  -0.2            6.931e-010      2.73e-010       -1.4805e-009   
  -0.25           -2.2432e-009    8.316e-009      -2.5902e-009   
  -0.3            -2.9792e-009    -1.3835e-008    1.6868e-009    
  -0.35           -1.1206e-009    -9.176e-009     1.4405e-009    
  -0.4            -1.3823e-009    -8.914e-009     1.3026e-009    
  -0.45           -1.6688e-009    -9.689e-009     2.7803e-009    
  -0.5            -2.268e-009     1.2589e-008     -1.3761e-009   
  -0.55           -2.3186e-009    8.891e-009      -1.3367e-009   
  -0.6            -2.3768e-009    8.645e-009      -1.3101e-009   
  -0.65           -2.4378e-009    7.716e-009      -1.2868e-009   
  -0.7            -2.4882e-009    8.566e-009      -2.598e-009    
  -0.75           -3.7181e-009    5.66e-010       -2.4377e-009   
  -0.8            -5.2302e-009    -1.0672e-008    -4.072e-010    
  -0.85           -3.9345e-009    -1.7255e-008    2.532e-009     
  -0.9            -2.9219e-009    -3.588e-009     2.2408e-009    
  -0.95           -3.2302e-009    -5.92e-009      1.9508e-009    
  -1              -3.5641e-009    -8.639e-009     1.6611e-009    
  -1.05           -3.9093e-009    -9.206e-009     1.4403e-009    
  -1.1            -4.2573e-009    -8.945e-009     1.2991e-009    
  -1.15           -4.6358e-009    -9.493e-009     2.7843e-009    
  -1.2            -2.6562e-009    1.0331e-008     6.424e-010     
  -1.25           -2.8662e-009    1.0031e-008     8.002e-010     
  -1.3            -3.1357e-009    9.988e-009      9.553e-010     
  -1.35           -3.4635e-009    1.1446e-008     1.1199e-009    
  -1.4            -3.9937e-009    1.0538e-008     -1.3913e-009   
  -1.45           -6.2729e-009    8.295e-009      -1.3418e-009   
  -1.5            -6.3982e-009    8.259e-009      -1.3138e-009   
  -1.55           -6.5061e-009    7.69e-009       -1.2904e-009   
  -1.6            -6.6167e-009    7.955e-009      -1.2761e-009   
  -1.65           -6.7196e-009    1.0196e-008     -2.4905e-009   
  -1.7            -9.3576e-009    -1.0592e-008    -3.663e-010    
  -1.75           -8.212e-009     -1.6944e-008    2.5746e-009    
  -1.8            -7.232e-009     -3.245e-009     2.3008e-009    
END_DB

BEGIN_DB
 ICCAP_VAR VG         -0.72          
 ICCAP_VAR VS         0              
 ICCAP_VAR VB         0              

 #VD              ID              IB              IG             
  0               4.356e-010      1.2962e-008     -9.065e-010    
  -0.05           -1.3774e-006    8.544e-009      1.5483e-009    
  -0.1            -1.9842e-006    -1.3987e-008    2.7014e-009    
  -0.15           -2.2947e-006    -2.6078e-008    1.2563e-009    
  -0.2            -2.5012e-006    -2.7207e-008    2.5039e-009    
  -0.25           -2.6721e-006    -2.7293e-008    2.4683e-009    
  -0.3            -2.821e-006     -2.7247e-008    2.4254e-009    
  -0.35           -2.9586e-006    -1.073e-008     -1.599e-010    
  -0.4            -3.0255e-006    8.839e-009      -2.3261e-009   
  -0.45           -3.1635e-006    1.0278e-008     2.9e-011       
  -0.5            -3.3577e-006    -1.4799e-008    2.6453e-009    
  -0.55           -3.4764e-006    -2.659e-008     1.2351e-009    
  -0.6            -3.5927e-006    -2.7361e-008    2.4268e-009    
  -0.65           -3.7125e-006    -1.6956e-008    2.1834e-009    
  -0.7            -3.8307e-006    -1.8224e-008    1.9199e-009    
  -0.75           -3.9354e-006    -2.2225e-008    1.8785e-009    
  -0.8            -4.0503e-006    -2.1658e-008    1.8344e-009    
  -0.85           -4.1654e-006    -2.0842e-008    1.7904e-009    
  -0.9            -4.2862e-006    -2.0216e-008    1.7508e-009    
  -0.95           -4.3974e-006    -1.9523e-008    1.706e-009     
  -1              -4.5146e-006    -1.887e-008     1.6704e-009    
  -1.05           -4.629e-006     -1.8159e-008    1.6286e-009    
  -1.1            -4.6859e-006    -1.0772e-008    -7.055e-010    
  -1.15           -4.7722e-006    1.7925e-008     -1.652e-009    
  -1.2            -4.8837e-006    1.0053e-008     5.479e-010     
  -1.25           -5.0835e-006    -1.8572e-008    1.9118e-009    
  -1.3            -5.1838e-006    -2.219e-008     1.8683e-009    
  -1.35           -5.2972e-006    -2.1261e-008    1.824e-009     
  -1.4            -5.3697e-006    -1.0344e-008    -5.639e-010    
  -1.45           -5.4454e-006    1.5397e-008     -1.8073e-009   
  -1.5            -5.623e-006     1.2903e-008     1.9663e-009    
  -1.55           -5.7708e-006    -1.3753e-008    1.3958e-009    
  -1.6            -5.8895e-006    -1.3524e-008    2.201e-010     
  -1.65           -5.8659e-006    8.818e-009      -1.2842e-009   
  -1.7            -6.132e-006     1.046e-008      1.4194e-009    
  -1.75           -6.2362e-006    -1.1952e-008    2.7921e-009    
  -1.8            -6.3515e-006    -1.2547e-008    1.592e-010     
END_DB

BEGIN_DB
 ICCAP_VAR VG         -1.08          
 ICCAP_VAR VS         0              
 ICCAP_VAR VB         0              

 #VD              ID              IB              IG             
  0               -2.0586e-008    -2.1431e-008    -6.567e-010    
  -0.05           -2.4603e-005    8.731e-009      2.029e-010     
  -0.1            -4.3293e-005    8.379e-009      -2.3662e-009   
  -0.15           -5.7944e-005    1.3043e-008     1.943e-009     
  -0.2            -6.85e-005      -2.046e-008     1.566e-009     
  -0.25           -7.6297e-005    -2.7008e-008    2.5161e-009    
  -0.3            -8.2081e-005    -2.2118e-008    1.869e-009     
  -0.35           -8.6839e-005    -1.3284e-008    2.033e-010     
  -0.4            -8.9742e-005    8.379e-009      -2.369e-009    
  -0.45           -9.3677e-005    1.3106e-008     1.9481e-009    
  -0.5            -9.6406e-005    -2.0534e-008    1.5609e-009    
  -0.55           -9.8924e-005    -1.1288e-008    4.67e-011      
  -0.6            -0.000100248    1.154e-008      -2.1004e-009   
  -0.65           -0.000102655    1.0392e-008     5.961e-010     
  -0.7            -0.000105189    -2.3597e-008    1.3522e-009    
  -0.75           -0.000107002    -1.8634e-008    1.9912e-009    
  -0.8            -0.000108844    -1.4428e-008    1.4168e-009    
  -0.85           -0.000110502    -1.7618e-008    2.1119e-009    
  -0.9            -0.000112218    -1.5719e-008    1.4896e-009    
  -0.95           -0.000113787    -2.7055e-008    2.4346e-009    
  -1              -0.00011437     -2.0728e-008    -1.7222e-009   
  -1.05           -0.00011613     1.6118e-008     -1.4994e-009   
  -1.1            -0.00011805     1.0565e-008     8.15e-010      
  -1.15           -0.00011991     -2.3441e-008    1.37e-009      
  -1.2            -0.00012133     -2.6498e-008    1.2247e-009    
  -1.25           -0.00012273     -1.8543e-008    1.9831e-009    
  -1.3            -0.00012384     -1.0514e-008    -6.032e-010    
  -1.35           -0.00012467     1.8902e-008     -1.6184e-009   
  -1.4            -0.0001264      1.0473e-008     7.057e-010     
  -1.45           -0.00012832     -2.157e-008     1.4878e-009    
  -1.5            -0.00012975     -1.311e-008     1.969e-010     
  -1.55           -0.00012995     8.031e-009      -2.5925e-009   
  -1.6            -0.00013272     1.1638e-008     1.4585e-009    
  -1.65           -0.00013378     -1.429e-008     2.6633e-009    
  -1.7            -0.00013496     -2.703e-008     2.4953e-009    
  -1.75           -0.00013615     -1.7931e-008    2.0584e-009    
  -1.8            -0.0001372      -1.0228e-008    -5.495e-010    
END_DB

BEGIN_DB
 ICCAP_VAR VG         -1.44          
 ICCAP_VAR VS         0              
 ICCAP_VAR VB         0              

 #VD              ID              IB              IG             
  0               -3.4472e-008    1.0416e-008     4.477e-010     
  -0.05           -5.9197e-005    -9.92e-009      -1.519e-010    
  -0.1            -0.00011299     -1.6389e-008    2.4272e-009    
  -0.15           -0.00016123     -1.7385e-008    -3.595e-010    
  -0.2            -0.00020354     1.4292e-008     -1.8952e-009   
  -0.25           -0.00024135     1.2895e-008     2.0286e-009    
  -0.3            -0.00027346     -1.1576e-008    8.77e-011      
  -0.35           -0.00029948     7.447e-009      -2.4842e-009   
  -0.4            -0.00032248     1.0252e-008     1.32e-011      
  -0.45           -0.00034266     -1.6052e-008    2.5235e-009    
  -0.5            -0.00035837     -1.7494e-008    2.0923e-009    
  -0.55           -0.00037178     -2.1694e-008    1.831e-009     
  -0.6            -0.00038277     -1.0742e-008    -7.002e-010    
  -0.65           -0.0003919      2.0566e-008     -1.5317e-009   
  -0.7            -0.00040118     1.0792e-008     7.846e-010     
  -0.75           -0.00040978     -2.2713e-008    1.3953e-009    
  -0.8            -0.00041538     -1.0757e-008    -9.887e-010    
  -0.85           -0.00042119     2.5978e-008     -1.3627e-009   
  -0.9            -0.00042847     9.986e-009      1.0602e-009    
  -0.95           -0.00043393     -2.6944e-008    2.5781e-009    
  -1              -0.00043901     -2.7011e-008    2.3705e-009    
  -1.05           -0.00044386     -1.8373e-008    1.9062e-009    
  -1.1            -0.00044772     -1.0562e-008    -6.45e-010     
  -1.15           -0.00045134     1.9546e-008     -1.5723e-009   
  -1.2            -0.0004563      1.0477e-008     7.433e-010     
  -1.25           -0.00046119     -2.2003e-008    1.4414e-009    
  -1.3            -0.00046547     -2.5864e-008    1.2532e-009    
  -1.35           -0.00046892     -2.6794e-008    2.3332e-009    
  -1.4            -0.00047301     -1.8705e-008    1.8695e-009    
  -1.45           -0.00047582     -1.0683e-008    -6.812e-010    
  -1.5            -0.00047848     2.0165e-008     -1.554e-009    
  -1.55           -0.00048281     1.0428e-008     7.63e-010      
  -1.6            -0.0004874      -2.2285e-008    1.4194e-009    
  -1.65           -0.00049057     -2.5897e-008    1.2423e-009    
  -1.7            -0.00049394     -1.7573e-008    2.0827e-009    
  -1.75           -0.00049678     -1.0179e-008    -5.337e-010    
  -1.8            -0.00049867     1.7514e-008     -1.6826e-009   
END_DB

BEGIN_DB
 ICCAP_VAR VG         -1.8           
 ICCAP_VAR VS         0              
 ICCAP_VAR VB         0              

 #VD              ID              IB              IG             
  0               -4.1577e-008    9.889e-009      1.878e-010     
  -0.05           -8.5164e-005    -1.4675e-008    1.9e-010       
  -0.1            -0.00016641     -1.6308e-008    -1.582e-010    
  -0.15           -0.00024295     1.0777e-008     -2.1488e-009   
  -0.2            -0.00031536     9.821e-009      2.975e-010     
  -0.25           -0.00038337     -1.7592e-008    2.0884e-009    
  -0.3            -0.00044602     -2.1661e-008    1.8452e-009    
  -0.35           -0.00050389     -1.7801e-008    1.6081e-009    
  -0.4            -0.00055687     -1.4543e-008    1.4288e-009    
  -0.45           -0.00060449     -2.5942e-008    1.2501e-009    
  -0.5            -0.00064729     -1.7436e-008    2.1001e-009    
  -0.55           -0.00068523     -1.0227e-008    -5.241e-010    
  -0.6            -0.00071832     1.7186e-008     -1.6948e-009   
  -0.65           -0.00074851     1.0348e-008     6.354e-010     
  -0.7            -0.00077557     -2.0409e-008    1.5779e-009    
  -0.75           -0.00079855     -1.43e-008      1.4064e-009    
  -0.8            -0.00081877     -2.6164e-008    1.2405e-009    
  -0.85           -0.00083625     -1.7743e-008    2.0586e-009    
  -0.9            -0.0008515      -1.0285e-008    -5.458e-010    
  -0.95           -0.00086456     1.7752e-008     -1.6695e-009   
  -1              -0.00087781     1.041e-008      6.545e-010     
  -1.05           -0.00089031     -2.0624e-008    1.5393e-009    
  -1.1            -0.0009007      -1.3841e-008    1.3849e-009    
  -1.15           -0.00091009     -2.6603e-008    1.2323e-009    
  -1.2            -0.0009191      -1.7789e-008    2.0287e-009    
  -1.25           -0.00092668     -1.0335e-008    -5.744e-010    
  -1.3            -0.00093335     1.8218e-008     -1.6442e-009   
  -1.35           -0.0009416      1.0406e-008     6.76e-010      
  -1.4            -0.00094998     -2.0875e-008    1.5139e-009    
  -1.45           -0.00095663     -1.3488e-008    2.151e-010     
  -1.5            -0.00096085     8.214e-009      -2.6159e-009   
  -1.55           -0.00097024     1.1667e-008     1.4262e-009    
  -1.6            -0.00097573     -1.3712e-008    2.7025e-009    
  -1.65           -0.00098147     -2.7242e-008    2.5424e-009    
  -1.7            -0.00098691     -1.7361e-008    2.1137e-009    
  -1.75           -0.0009922      -2.1909e-008    1.8577e-009    
  -1.8            -0.00099819     -1.8079e-008    1.6176e-009    
END_DB

BEGIN_DB
 ICCAP_VAR VG         0              
 ICCAP_VAR VS         0              
 ICCAP_VAR VB         0.9            

 #VD              ID              IB              IG             
  0               2.3242e-009     -1.923e-008     2.6875e-009    
  -0.05           1.9613e-009     1.2298e-008     -6.21e-011     
  -0.1            2.0522e-009     9.782e-009      1.064e-010     
  -0.15           2.1551e-009     1.0083e-008     2.901e-010     
  -0.2            2.2425e-009     1.0393e-008     4.813e-010     
  -0.25           2.3015e-009     1.0353e-008     6.612e-010     
  -0.3            2.3263e-009     1.0087e-008     8.256e-010     
  -0.35           2.3063e-009     9.907e-009      9.723e-010     
  -0.4            1.7702e-009     1.1811e-008     -1.4985e-009   
  -0.45           -1.3881e-009    8.009e-009      -1.7746e-009   
  -0.5            -2.1824e-009    -1.0674e-008    -4.657e-010    
  -0.55           -5.58e-010      -1.7659e-008    2.4628e-009    
  -0.6            2.1643e-009     -4.055e-009     1.211e-009     
  -0.65           1.9174e-009     1.0257e-008     -1.763e-010    
  -0.7            1.9928e-009     9.845e-009      -1.36e-011     
  -0.75           2.0818e-009     9.805e-009      1.58e-010      
  -0.8            2.1839e-009     1.0217e-008     3.401e-010     
  -0.85           2.2671e-009     1.0363e-008     5.367e-010     
  -0.9            2.317e-009      1.0198e-008     7.078e-010     
  -0.95           2.3287e-009     1.0074e-008     8.66e-010      
  -1              2.2893e-009     1.0167e-008     1.0137e-009    
  -1.05           2.1869e-009     1.1604e-008     1.1591e-009    
  -1.1            1.8933e-009     1.0456e-008     -2.24e-010     
  -1.15           1.9664e-009     9.946e-009      -5.86e-011     
  -1.2            2.0534e-009     9.833e-009      1.048e-010     
  -1.25           2.1608e-009     1.006e-008      2.907e-010     
  -1.3            2.2407e-009     1.0398e-008     4.764e-010     
  -1.35           2.3069e-009     1.0325e-008     6.574e-010     
  -1.4            2.3269e-009     1.0088e-008     8.257e-010     
  -1.45           2.308e-009      9.892e-009      9.708e-010     
  -1.5            2.2252e-009     1.1126e-008     1.1191e-009    
  -1.55           2.0872e-009     1.2243e-008     1.2806e-009    
  -1.6            1.9481e-009     1.0134e-008     -1.132e-010    
  -1.65           2.0257e-009     9.817e-009      5.65e-011      
  -1.7            2.1273e-009     9.921e-009      2.355e-010     
  -1.75           2.2176e-009     1.0322e-008     4.2e-010       
  -1.8            2.2894e-009     1.0302e-008     6.072e-010     
END_DB

BEGIN_DB
 ICCAP_VAR VG         -0.36          
 ICCAP_VAR VS         0              
 ICCAP_VAR VB         0.9            

 #VD              ID              IB              IG             
  0               1.3493e-009     -1.0513e-008    1.2562e-009    
  -0.05           2.097e-009      1.0956e-008     1.2653e-009    
  -0.1            1.8063e-009     1.2266e-008     -1.441e-009    
  -0.15           -1.3182e-009    8.598e-009      -1.8175e-009   
  -0.2            -2.2048e-009    -1.0685e-008    -5.594e-010    
  -0.25           -1.4619e-009    -2.2597e-008    2.3298e-009    
  -0.3            2.0888e-009     -5.19e-009      1.2883e-009    
  -0.35           1.818e-009      1.2778e-008     -1.4311e-009   
  -0.4            -1.3083e-009    8.595e-009      -1.8251e-009   
  -0.45           -1.6182e-009    -1.461e-008     1.7586e-009    
  -0.5            2.3102e-009     -9.176e-009     7.085e-010     
  -0.55           2.3225e-009     1.007e-008      8.643e-010     
