! VERSION = 6.00
BEGIN_HEADER
 ICCAP_INPUTS
  VG         V  B GROUND SMU4 0.001 LIN        1    0          -1.8       37   -0.05     
  VS         V  E GROUND SMU2 0.1 CON        0
  VB         V  C GROUND SMU3 0.1 LIN        3    0          1.8        3    0.9       
  VD         V  S GROUND SMU1 0.1 LIN        2    -0.1       -1.8       2    -1.7      
 ICCAP_OUTPUTS
  IG         I  B GROUND SMU4 B
  ID         I  S GROUND SMU1 B
  IB         I  C GROUND SMU3 B
END_HEADER

BEGIN_DB
 ICCAP_VAR VS         0              
 ICCAP_VAR VB         0              
 ICCAP_VAR VD         -0.1           

 #VG              IG              ID              IB             
  0               -2.664e-010     -4.501e-010     -1.0434e-008   
  -0.05           -2.4979e-009    3.147e-010      1.0729e-008    
  -0.1            -3.579e-010     -2.1632e-009    -1.0925e-008   
  -0.15           2.5891e-009     -5.817e-010     -1.7082e-008   
  -0.2            1.1415e-009     2.2417e-009     -3.174e-009    
  -0.25           -1.5887e-009    -3.544e-010     1.0802e-008    
  -0.3            -1.4485e-009    -2.5879e-009    7.194e-009     
  -0.35           1.3026e-009     -1.272e-008     -1.1745e-008   
  -0.4            2.8494e-009     -5.284e-009     -9.655e-009    
  -0.45           -9.965e-010     -3.37e-009      2.0941e-008    
  -0.5            -2.447e-010     -1.4434e-007    1.2471e-008    
  -0.55           3.851e-010      -1.7575e-007    -1.08e-008     
  -0.6            -2.4262e-009    -1.924e-009     1.2989e-008    
  -0.65           1.971e-009      -6.3391e-008    -1.4776e-008   
  -0.7            -1.3126e-009    -2.0163e-007    1.0716e-008    
  -0.75           -2.4596e-009    -5.5521e-007    8.01e-009      
  -0.8            3.835e-010      -2.8336e-007    -2.7132e-008   
  -0.85           -1.3074e-009    -6.716e-007     -2.6829e-008   
  -0.9            2.299e-010      -6.4791e-007    -2.7136e-008   
  -0.95           2.5334e-009     -1.5188e-006    -2.7191e-008   
  -1              1.8277e-009     -5.24e-007      -3.813e-009    
  -1.05           1.3145e-009     -9.733e-007     -9.128e-009    
  -1.1            2.8477e-009     -1.676e-006     -9.554e-009    
  -1.15           2.7159e-009     -1.6687e-006    4.9e-011       
  -1.2            1.499e-009      -2.9853e-006    1.1542e-008    
  -1.25           3.507e-010      -4.0868e-006    9.794e-009     
  -1.3            7.831e-010      -4.0198e-006    1.0433e-008    
  -1.35           1.1469e-009     -4.5857e-006    9.722e-009     
  -1.4            1.561e-009      -5.3378e-006    1.2159e-008    
  -1.45           1.9689e-009     -5.8306e-006    1.2514e-008    
  -1.5            8.315e-010      -6.3672e-006    1.0484e-008    
  -1.55           1.2009e-009     -6.9954e-006    9.681e-009     
  -1.6            3.57e-011       -8.2824e-006    1.0225e-008    
  -1.65           -1.3559e-009    -7.9816e-006    2.7175e-008    
  -1.7            -1.3004e-009    -7.9314e-006    8.647e-009     
  -1.75           -2.328e-009     -8.7631e-006    9.459e-009     
  -1.8            2.174e-010      -1.00439e-005   -1.3229e-008   
END_DB

BEGIN_DB
 ICCAP_VAR VS         0              
 ICCAP_VAR VB         0              
 ICCAP_VAR VD         -1.8           

 #VG              IG              ID              IB             
  0               1.1774e-009     1.1069e-009     -1.0689e-008   
  -0.05           6.107e-010      2.3088e-009     1.0896e-008    
  -0.1            7.827e-010      2.338e-009      1.0459e-008    
  -0.15           9.3e-010        2.3328e-009     9.826e-009     
  -0.2            1.0774e-009     2.2659e-009     9.764e-009     
  -0.25           -1.6676e-009    -2.3778e-009    1.0403e-008    
  -0.3            -1.4975e-009    -3.6178e-009    6.539e-009     
  -0.35           1.3485e-009     -1.5288e-008    1.116e-008     
  -0.4            1.5949e-009     -3.0551e-008    -1.9035e-008   
  -0.45           5.853e-010      -7.432e-008     1.9441e-008    
  -0.5            1.1937e-009     -1.8131e-008    1.0265e-008    
  -0.55           -1.5945e-009    -2.97e-009      1.0309e-008    
  -0.6            -1.3714e-009    -2.685e-008     7.12e-009      
  -0.65           1.7167e-009     -5.5043e-007    -2.6507e-008   
  -0.7            2.8282e-009     -1.2356e-008    2.0333e-008    
  -0.75           4.111e-010      -8.047e-007     -1.2229e-008   
  -0.8            -1.2356e-009    -6.218e-007     1.0587e-008    
  -0.85           2.5329e-009     -2.3985e-006    -2.7042e-008   
  -0.9            1.8292e-009     -2.39e-007      -3.537e-009    
  -0.95           1.3212e-009     -8.195e-007     -9.043e-009    
  -1              2.8487e-009     -2.2486e-006    -9.314e-009    
  -1.05           2.7147e-009     -1.2908e-006    3.9e-011       
  -1.1            -2.6099e-009    -2.9088e-006    1.0124e-008    
  -1.15           -1.8396e-009    -1.03417e-005   1.1769e-008    
  -1.2            1.2876e-009     -1.0606e-005    -2.5033e-008   
  -1.25           2.8549e-009     -8.48e-006      -9.582e-009    
  -1.3            2.8527e-009     -7.771e-006     -1.31e-010     
  -1.35           2.5692e-009     -8.655e-006     -3.4e-010      
  -1.4            1.8869e-009     -1.0249e-005    -3.024e-009    
  -1.45           1.3494e-009     -1.3964e-005    -8.793e-009    
  -1.5            2.842e-009      -1.9347e-005    -9.179e-009    
  -1.55           2.7455e-009     -2.0302e-005    1.58e-010      
  -1.6            1.448e-009      -3.0361e-005    1.12e-008      
  -1.65           2.94e-010       -4.0292e-005    9.902e-009     
  -1.7            7.406e-010      -3.8507e-005    1.0591e-008    
  -1.75           1.102e-009      -4.1852e-005    9.728e-009     
  -1.8            1.5113e-009     -4.7764e-005    1.17e-008      
END_DB

BEGIN_DB
 ICCAP_VAR VS         0              
 ICCAP_VAR VB         0.9            
 ICCAP_VAR VD         -0.1           

 #VG              IG              ID              IB             
  0               2.4145e-009     2.3488e-009     -1.6289e-008   
  -0.05           4.396e-010      2.2427e-009     1.0496e-008    
  -0.1            6.201e-010      2.3139e-009     1.0382e-008    
  -0.15           7.9e-010        2.3424e-009     1.0029e-008    
  -0.2            9.358e-010      2.3455e-009     9.656e-009     
  -0.25           1.0791e-009     2.2972e-009     9.942e-009     
  -0.3            1.2336e-009     2.1748e-009     1.0494e-008    
  -0.35           -1.539e-010     1.6718e-009     1.0155e-008    
  -0.4            3.9e-012        1.6236e-009     9.818e-009     
  -0.45           -1.4385e-009    -2.4333e-009    2.7036e-008    
  -0.5            1.2852e-009     -9.949e-009     -1.2073e-008   
  -0.55           2.8537e-009     -2.486e-009     -9.604e-009    
  -0.6            -2.443e-010     -2.52e-009      2.17e-008      
  -0.65           -1.084e-010     3.13e-009       1.0038e-008    
  -0.7            -9.59e-011      -2.0021e-007    -1.0984e-008   
  -0.75           2.732e-010      -3.0741e-007    -1.0746e-008   
  -0.8            -5.69e-010      -4.1903e-007    1.0153e-008    
  -0.85           2.3899e-009     -5.8662e-007    -2.7176e-008   
  -0.9            1.6621e-009     -1.585e-008     -4.906e-009    
  -0.95           -2.3024e-009    -6.34e-009      9.983e-009     
  -1              2.0764e-009     -2.54e-008      -1.293e-008    
  -1.05           2.8428e-009     -5.5915e-008    1.812e-008     
  -1.1            -1.4128e-009    -2.973e-007     -1.0311e-008   
  -1.15           -1.3195e-009    -8.3e-007       8.485e-009     
  -1.2            -2.58e-009      -1.6155e-006    7.692e-009     
  -1.25           -2.0481e-009    -5.181e-007     8e-010         
  -1.3            2.5167e-009     -2.9043e-006    -2.7173e-008   
  -1.35           1.7964e-009     -1.1712e-006    -3.917e-009    
  -1.4            1.3078e-009     -2.0848e-006    -9.28e-009     
  -1.45           2.8452e-009     -3.1642e-006    -9.38e-009     
  -1.5            2.7067e-009     -2.6407e-006    2.2e-011       
  -1.55           1.489e-009      -4.6244e-006    1.056e-008     
  -1.6            3.506e-010      -5.9552e-006    9.867e-009     
  -1.65           7.833e-010      -5.7981e-006    1.0395e-008    
  -1.7            1.1452e-009     -6.3002e-006    9.69e-009      
  -1.75           1.5486e-009     -6.871e-006     1.2197e-008    
  -1.8            1.9546e-009     -7.1319e-006    1.2594e-008    
END_DB

BEGIN_DB
 ICCAP_VAR VS         0              
 ICCAP_VAR VB         0.9            
 ICCAP_VAR VD         -1.8           

 #VG              IG              ID              IB             
  0               -1.116e-010     5.132e-010      1.8315e-008    
  -0.05           -2.3441e-009    4.661e-010      1.3785e-008    
  -0.1            1.6115e-009     -1.6673e-009    -1.3159e-008   
  -0.15           8.043e-010      2.345e-009      -9.137e-009    
  -0.2            9.509e-010      2.3414e-009     9.762e-009     
  -0.25           1.0934e-009     2.2875e-009     9.951e-009     
  -0.3            1.2449e-009     2.1695e-009     1.0603e-008    
  -0.35           -1.474e-010     1.618e-009      1.0146e-008    
  -0.4            -1.5485e-009    -1.2488e-009    2.4827e-008    
  -0.45           -1.4387e-009    -2.6385e-009    7.493e-009     
  -0.5            2.0859e-009     -7.019e-009     -1.6432e-008   
  -0.55           1.4356e-009     1.214e-009      -7.678e-009    
  -0.6            2.438e-010      -9.719e-008     2.7408e-008    
  -0.65           -4.603e-010     -2.0043e-007    1.0206e-008    
  -0.7            1.9352e-009     -1.947e-007     -1.8185e-008   
  -0.75           1.3529e-009     -4.73e-009      -8.857e-009    
  -0.8            -1.9322e-009    -1.91e-009      1.0065e-008    
  -0.85           2.8345e-009     -9.65e-008      -9.776e-009    
  -0.9            -2.5757e-009    -2.91e-009      2.44e-010      
  -0.95           1.1727e-009     -8.79e-008      -8.928e-009    
  -1              -2.6046e-009    -4.02e-008      1.2811e-008    
  -1.05           2.5149e-009     -1.248e-007     -1.4222e-008   
  -1.1            -1.9322e-009    -5.685e-007     1.0887e-008    
  -1.15           1.578e-010      -6.3237e-006    -1.2136e-008   
  -1.2            1.3397e-009     -6.1614e-006    -2.3618e-008   
  -1.25           2.838e-009      -1.5372e-006    1.0021e-008    
  -1.3            -6.626e-010     -9.838e-006     2.5896e-008    
  -1.35           -2.5787e-009    -7.3493e-006    1.3624e-008    
  -1.4            2.8481e-009     -7.95e-006      -9.525e-009    
  -1.45           2.8568e-009     -5.11e-006      5e-011         
  -1.5            2.8439e-009     -6.768e-006     -3.45e-010     
  -1.55           1.2544e-009     -1.4359e-005    9.999e-009     
  -1.6            9.82e-011       -2.7081e-005    1.0121e-008    
  -1.65           5.414e-010      -2.3428e-005    1.0273e-008    
  -1.7            9.381e-010      -2.3221e-005    1.0551e-008    
  -1.75           1.3095e-009     -2.7538e-005    9.946e-009     
  -1.8            1.7146e-009     -3.0955e-005    1.1588e-008    
END_DB

BEGIN_DB
 ICCAP_VAR VS         0              
 ICCAP_VAR VB         1.8            
 ICCAP_VAR VD         -0.1           

 #VG              IG              ID              IB             
  0               -1.3252e-009    -1.1953e-009    -9.015e-009    
  -0.05           1.6809e-009     -1.6518e-009    -1.3978e-008   
  -0.1            7.663e-010      2.3395e-009     -9.11e-009     
  -0.15           9.17e-010       2.3432e-009     9.739e-009     
  -0.2            1.0569e-009     2.3044e-009     1.0224e-008    
  -0.25           1.2075e-009     2.2005e-009     1.1434e-008    
  -0.3            -1.884e-010     1.9077e-009     1.0204e-008    
  -0.35           -1.6091e-009    8.722e-010      2.4043e-008    
  -0.4            -1.7301e-009    -1.4939e-009    7.267e-009     
  -0.45           2.1001e-009     -1.6038e-009    -1.9204e-008   
  -0.5            5.178e-010      2.2682e-009     -7.516e-009    
  -0.55           6.943e-010      2.3149e-009     1.0627e-008    
  -0.6            8.492e-010      2.2875e-009     9.842e-009     
  -0.65           2.041e-009      -4.654e-009     -2.7077e-008   
  -0.7            1.4062e-009     1.129e-009      -8.101e-009    
  -0.75           1.946e-009      -3.12e-008      1.0446e-008    
  -0.8            4.973e-010      -9.004e-008     2.2465e-008    
  -0.85           -7.054e-010     -1.6333e-007    9.883e-009     
  -0.9            1.234e-009      -2.5524e-007    -2.6304e-008   
  -0.95           2.8362e-009     -1.7265e-007    -1.0299e-008   
  -1              1.6621e-009     -7.1194e-008    1.0019e-008    
  -1.05           -1.3565e-009    -9.908e-008     1.2349e-008    
  -1.1            2.8488e-009     -8.18e-009      -2.6868e-008   
  -1.15           -1.5923e-009    -8.165e-008     1.0261e-008    
  -1.2            1.3823e-009     -4.82e-008      -1.2747e-008   
  -1.25           -2.6348e-009    -9.604e-007     8.258e-009     
  -1.3            -1.3579e-009    -4.079e-007     5.43e-010      
  -1.35           1.7768e-009     -2.2917e-006    -2.0603e-008   
  -1.4            1.2936e-009     -1.0224e-006    -9.232e-009    
  -1.45           2.847e-009      -1.8819e-006    -9.463e-009    
  -1.5            2.6844e-009     -1.3051e-006    -7.2e-011      
  -1.55           5.839e-010      -3.3449e-006    1.0328e-008    
  -1.6            9.73e-010       -3.5013e-006    1.0191e-008    
  -1.65           1.3462e-009     -4.1846e-006    1.0628e-008    
  -1.7            1.7602e-009     -4.6188e-006    1.2572e-008    
  -1.75           6.392e-010      -5.5014e-006    1.042e-008     
  -1.8            1.0141e-009     -5.7414e-006    1.0047e-008    
END_DB

BEGIN_DB
 ICCAP_VAR VS         0              
 ICCAP_VAR VB         1.8            
 ICCAP_VAR VD         -1.8           

 #VG              IG              ID              IB             
  0               -4.997e-010     -6.174e-010     -3.85e-009     
  -0.05           -1.3005e-009    5.93e-011       7.732e-009     
  -0.1            -2.6271e-009    1.969e-010      8.684e-009     
  -0.15           -1.8951e-009    -1.2532e-009    4.47e-010      
  -0.2            1.4664e-009     -1.0452e-009    -2.5154e-008   
  -0.25           9.071e-010      2.3459e-009     -8.777e-009    
  -0.3            1.0473e-009     2.3041e-009     9.81e-009      
  -0.35           1.1973e-009     2.2052e-009     1.0329e-008    
  -0.4            -1.948e-010     1.892e-009      1.0231e-008    
  -0.45           -1.6133e-009    7.28e-010       2.3914e-008    
  -0.5            -1.7258e-009    -1.5196e-009    7.114e-009     
  -0.55           -3.385e-010     -2.188e-009     -1.0822e-008   
  -0.6            1.2259e-009     -5.6531e-009    -2.6367e-008   
  -0.65           -1.8842e-009    -8.826e-009     1.1363e-008    
  -0.7            1.5207e-009     -2.6847e-008    -5.452e-009    
  -0.75           -1.136e-010     -9.956e-008     2.6475e-008    
  -0.8            1.7271e-009     1.18e-009       -1.1092e-008   
  -0.85           -1.356e-009     -3.4691e-007    2.7323e-008    
  -0.9            -1.2975e-009    -1.3765e-007    8.82e-009      
  -0.95           1.5635e-009     -6.213e-007     -2.7016e-008   
  -1              9.537e-010      -8.5282e-007    8.403e-009     
  -1.05           -1.3068e-009    -4.53e-008      8.791e-009     
  -1.1            1.9796e-009     -1.7028e-006    -1.8463e-008   
  -1.15           1.3822e-009     -1.379e-007     -8.254e-009    
  -1.2            2.829e-009      -8.188e-007     -8.949e-009    
  -1.25           -2.3664e-009    -2.334e-007     1.2358e-008    
  -1.3            1.8222e-009     -6.3642e-006    -2.1509e-008   
  -1.35           1.3123e-009     -1.3845e-006    -9.155e-009    
  -1.4            2.896e-010      -2.787e-006     -1.1598e-008   
  -1.45           -2.6996e-009    -2.0633e-006    1.0703e-008    
  -1.5            2.2665e-009     -4.549e-006     8.156e-009     
  -1.55           -1.4188e-009    -4.925e-006     5.608e-009     
  -1.6            -1.328e-009     -9.003e-006     8.837e-009     
  -1.65           -2.5794e-009    -1.4841e-005    7.825e-009     
  -1.7            -2.0641e-009    -7.56e-006      5.41e-010      
  -1.75           1.2165e-009     -2.4911e-005    -2.6927e-008   
  -1.8            2.8081e-009     -2.3017e-005    -1.1373e-008   
END_DB

