! VERSION = 6.00
BEGIN_HEADER
 ICCAP_INPUTS
  VG         V  B GROUND SMU4 0.001 LIN        1    0          -1.8       37   -0.05     
  VS         V  E GROUND SMU2 0.1 CON        0
  VB         V  C GROUND SMU3 0.1 LIN        3    0          1.8        3    0.9       
  VD         V  S GROUND SMU1 0.1 LIN        2    -0.1       -1.8       2    -1.7      
 ICCAP_OUTPUTS
  IG         I  B GROUND SMU4 B
  ID         I  S GROUND SMU1 B
  IB         I  C GROUND SMU3 B
END_HEADER

BEGIN_DB
 ICCAP_VAR VS         0              
 ICCAP_VAR VB         0              
 ICCAP_VAR VD         -0.1           

 #VG              IG              ID              IB             
  0               8.791e-010      8.147e-010      2.6632e-008    
  -0.05           8.172e-010      2.3664e-009     -8.879e-009    
  -0.1            9.564e-010      2.3515e-009     9.813e-009     
  -0.15           1.087e-009      2.2913e-009     1.0733e-008    
  -0.2            1.2292e-009     2.1791e-009     1.1917e-008    
  -0.25           -1.533e-010     1.9461e-009     1.0164e-008    
  -0.3            -1.5612e-009    8.681e-010      2.4787e-008    
  -0.35           -1.7693e-009    -1.4722e-009    7.17e-009      
  -0.4            -3.865e-010     -2.1821e-009    -1.0727e-008   
  -0.45           1.2454e-009     -1.617e-009     -2.6e-008      
  -0.5            2.8545e-009     -1.0245e-009    -1.064e-008    
  -0.55           2.8599e-009     -1.106e-010     2.8e-010       
  -0.6            2.8146e-009     -1.7095e-009    -4.74e-010     
  -0.65           1.8205e-009     -3.9754e-008    -1.7573e-008   
  -0.7            2.694e-010      -1.6997e-007    2.7281e-008    
  -0.75           -2.2659e-009    -1.542e-009     1.2095e-008    
  -0.8            -6.208e-010     -4.0362e-007    -4.492e-009    
  -0.85           1.2251e-009     -4.2461e-007    -2.7335e-008   
  -0.9            2.8188e-009     -4.0072e-007    -1.1982e-008   
  -0.95           -2.7357e-009    -1.692e-009     1.0132e-008    
  -1              1.3592e-009     -1.06271e-007   -1.7998e-008   
  -1.05           1.8096e-009     -1.0439e-006    1.276e-008     
  -1.1            1.327e-009      -2.854e-007     -8.98e-009     
  -1.15           2.8557e-009     -8.048e-007     -9.426e-009    
  -1.2            1.4413e-009     -1.3444e-007    7.7e-011       
  -1.25           -2.6632e-009    -1.6606e-006    8.502e-009     
  -1.3            -2.2568e-009    -3.312e-007     8.38e-010      
  -1.35           1.831e-010      -2.7752e-006    -1.2528e-008   
  -1.4            1.406e-009      -3.2501e-006    -2.2868e-008   
  -1.45           2.8392e-009     -2.6088e-006    -9.133e-009    
  -1.5            2.0312e-009     -1.6849e-006    1.2206e-008    
  -1.55           9.159e-010      -2.4595e-006    1.0306e-008    
  -1.6            1.2713e-009     -3.0594e-006    1.0419e-008    
  -1.65           1.173e-010      -4.9483e-006    1.0021e-008    
  -1.7            5.491e-010      -4.5544e-006    1.0246e-008    
  -1.75           9.327e-010      -4.5394e-006    1.0228e-008    
  -1.8            1.2955e-009     -5.1235e-006    1.053e-008     
END_DB

BEGIN_DB
 ICCAP_VAR VS         0              
 ICCAP_VAR VB         0              
 ICCAP_VAR VD         -1.8           

 #VG              IG              ID              IB             
  0               2.6069e-009     2.3554e-009     -1.5395e-008   
  -0.05           2.809e-010      2.179e-009      1.0171e-008    
  -0.1            4.524e-010      2.2618e-009     1.0679e-008    
  -0.15           6.157e-010      2.3277e-009     1.0756e-008    
  -0.2            7.688e-010      2.3567e-009     1.0328e-008    
  -0.25           9.085e-010      2.3526e-009     9.859e-009     
  -0.3            -1.2846e-009    -6.873e-010     9.792e-009     
  -0.35           -2.6366e-009    -7.4549e-009    8.967e-009     
  -0.4            2.0317e-009     -1.5431e-008    8.23e-010      
  -0.45           1.4307e-009     9.29e-010       -7.968e-009    
  -0.5            1.2279e-009     -5.214e-009     -8.812e-009    
  -0.55           -1.5215e-009    -1.73e-009      1.2404e-008    
  -0.6            -1.3423e-009    -1.303e-008     7.553e-009     
  -0.65           -1.2814e-009    -9.922e-008     8.63e-009      
  -0.7            -2.3821e-009    -2.7376e-007    9.232e-009     
  -0.75           1.9848e-009     1.16e-009       -1.3776e-008   
  -0.8            -1.3823e-009    -8.0039e-007    2.557e-008     
  -0.85           -1.2909e-009    -3.145e-007     8.693e-009     
  -0.9            -2.4838e-009    -1.3421e-006    7.947e-009     
  -0.95           9.767e-010      -5.005e-007     -1.0765e-008   
  -1              -2.4962e-009    -5.94e-008      1.1828e-008    
  -1.05           9.79e-010       -1.0073e-006    -1.0171e-008   
  -1.1            -1.8472e-009    -7.274e-007     1.0061e-008    
  -1.15           -2.2265e-009    -7.971e-007     -1.4997e-008   
  -1.2            1.637e-010      -8.6609e-006    -1.2181e-008   
  -1.25           -2.6754e-009    -1.6858e-006    -2.3285e-008   
  -1.3            1.3937e-009     -1.548e-005     6.15e-010      
  -1.35           1.2166e-009     -1.1078e-005    -8.89e-009     
  -1.4            2.7963e-009     -1.8573e-005    -1.2401e-008   
  -1.45           2.7028e-009     -8.1e-006       1.1045e-008    
  -1.5            -2.148e-009     -3.3749e-005    6.417e-009     
  -1.55           -9.442e-010     -2.3615e-005    -1.1003e-008   
  -1.6            1.4353e-009     -3.9699e-005    -1.4096e-008   
  -1.65           2.8231e-009     -3.1828e-005    -1.2218e-008   
  -1.7            2.8064e-009     -2.0424e-005    -1.0603e-008   
  -1.75           2.3818e-009     -2.2524e-005    -7.8235e-008   
  -1.8            1.6961e-009     -3.1207e-005    -4.0778e-008   
END_DB

BEGIN_DB
 ICCAP_VAR VS         0              
 ICCAP_VAR VB         0.9            
 ICCAP_VAR VD         -0.1           

 #VG              IG              ID              IB             
  0               1.1207e-009     -2.3e-009       1.9132e-008    
  -0.05           4.76e-010       -1.227e-008     2.063e-009     
  -0.1            2.282e-010      -5.9696e-007    9.65e-009      
  -0.15           -2.2444e-009    -8.821e-007     1.6777e-008    
  -0.2            -1.3801e-009    -1.055e-008     -2.2104e-008   
  -0.25           1.279e-009      -7.591e-007     1.1714e-008    
  -0.3            -9.887e-010     -2.6e-009       1.5417e-008    
  -0.35           -3.534e-010     -1.6781e-006    1.0087e-008    
  -0.4            -1.5454e-009    -1.1157e-006    1.5628e-008    
  -0.45           -1.3541e-009    -6.49e-008      7.787e-009     
  -0.5            -1.2967e-009    -3.531e-007     1.0672e-008    
  -0.55           -2.3977e-009    -1.1041e-006    1.1802e-008    
  -0.6            1.8462e-009     -2.1125e-006    3.754e-009     
  -0.65           1.3611e-009     -2.7622e-006    -9.618e-009    
  -0.7            1.2377e-009     -3.2269e-006    -1.2324e-008   
  -0.75           2.7584e-009     -3.5719e-006    -1.7259e-008   
  -0.8            2.215e-009      -4.3656e-006    -4.043e-009    
  -0.85           1.56e-009       -4.5883e-006    -7.852e-009    
  -0.9            1.2761e-009     -4.2896e-006    -9.612e-009    
  -0.95           2.8599e-009     -4.4679e-006    -1.2771e-008   
  -1              2.5599e-009     -4.5166e-006    -1.988e-009    
  -1.05           1.8873e-009     -5.339e-006     -5.38e-009     
  -1.1            1.3739e-009     -4.2168e-006    -8.895e-009    
  -1.15           1.2283e-009     -3.7165e-006    -9.573e-009    
  -1.2            2.7895e-009     -5.3842e-006    -1.4557e-008   
  -1.25           2.2834e-009     -6.7526e-006    -2.677e-009    
  -1.3            1.5995e-009     -6.6996e-006    -7.836e-009    
  -1.35           1.2804e-009     -5.4238e-006    -9.069e-009    
  -1.4            2.8616e-009     -5.0341e-006    -1.1146e-008   
  -1.45           8.729e-010      -1.1596e-005    -2.2792e-008   
  -1.5            -1.4355e-009    -6.2e-006       1.2964e-008    
  -1.55           1.2257e-009     -5.1249e-006    1.3696e-008    
  -1.6            1.0095e-009     -1.2457e-005    -2.4036e-008   
  -1.65           -9.666e-010     -1.543e-006     2.3531e-008    
  -1.7            1.2224e-009     -5.791e-006     -1.5132e-008   
  -1.75           1.778e-009      -5.314e-006     -1.7075e-008   
  -1.8            -1.5796e-009    -1.214e-006     -8.364e-009    
END_DB

BEGIN_DB
 ICCAP_VAR VS         0              
 ICCAP_VAR VB         0.9            
 ICCAP_VAR VD         -1.8           

 #VG              IG              ID              IB             
  0               -1.646e-010     -5e-010         -1.0455e-008   
  -0.05           1.6619e-009     -6.6289e-006    -2.0438e-008   
  -0.1            1.3437e-009     -3.5116e-006    -9.954e-009    
  -0.15           1.2741e-009     -3.4241e-006    -1.2198e-008   
  -0.2            2.6663e-009     -6.6146e-006    -1.5899e-008   
  -0.25           -2.537e-010     -9.606e-007     -2.339e-008    
  -0.3            2.8677e-009     -2.0494e-006    8.607e-009     
  -0.35           -6.183e-010     -2.4973e-006    -2.0409e-008   
  -0.4            5.223e-010      -4.6781e-006    -1.6411e-008   
  -0.45           -1.816e-010     3e-009          1.201e-008     
  -0.5            9.311e-010      -6.0259e-006    -2.9392e-008   
  -0.55           -2.7853e-009    5e-009          1.885e-008     
  -0.6            2.1249e-009     -1.831e-005     -1.8953e-008   
  -0.65           1.5023e-009     -1.4237e-005    -7.599e-009    
  -0.7            1.2856e-009     -1.5047e-005    -1.0095e-008   
  -0.75           1.2465e-009     -1.9665e-005    -1.3805e-008   
  -0.8            2.4689e-009     -2.4589e-005    -1.7545e-008   
  -0.85           1.7673e-009     -2.3338e-005    -6.149e-009    
  -0.9            1.3296e-009     -1.5007e-005    -8.929e-009    
  -0.95           1.2446e-009     -2.0354e-005    -9.494e-009    
  -1              2.7358e-009     -2.8874e-005    -1.577e-008    
  -1.05           2.1507e-009     -2.5694e-005    -4.476e-009    
  -1.1            1.5197e-009     -3.3123e-005    -8.13e-009     
  -1.15           1.2799e-009     -3.4036e-005    -9.204e-009    
  -1.2            2.8608e-009     -3.6507e-005    -1.2704e-008   
  -1.25           2.963e-010      -2.595e-005     9.95e-009      
  -1.3            7.523e-010      -3.0275e-005    9.955e-009     
  -1.35           -1.5539e-009    -3.533e-005     1.3914e-008    
  -1.4            -1.3578e-009    -1.246e-005     1.884e-009     
  -1.45           -1.3026e-009    -2.2509e-005    6.5e-009       
  -1.5            -2.4141e-009    -3.6089e-005    1.0261e-008    
  -1.55           1.2307e-009     -5.3656e-005    -1.1588e-008   
  -1.6            2.5936e-009     -6.3944e-005    -1.6803e-008   
  -1.65           1.9052e-009     -7.6689e-005    -5.248e-009    
  -1.7            1.3844e-009     -6.9101e-005    -9.268e-009    
  -1.75           1.2579e-009     -7.9413e-005    -1.1678e-008   
  -1.8            2.8023e-009     -8.5834e-005    -1.5169e-008   
END_DB

BEGIN_DB
 ICCAP_VAR VS         0              
 ICCAP_VAR VB         1.8            
 ICCAP_VAR VD         -0.1           

 #VG              IG              ID              IB             
  0               7.328e-010      -2.093e-008     1.0315e-008    
  -0.05           -2.6378e-009    -2.7686e-007    1.8875e-008    
  -0.1            5.974e-010      -1.1745e-006    1.825e-009     
  -0.15           -2.28e-009      -4e-010         1.7503e-008    
  -0.2            -1.5468e-009    -1.82e-009      -2.2186e-008   
  -0.25           1.445e-009      -1.7102e-006    -2.2473e-008   
  -0.3            1.257e-009      -9.97e-007      -9.757e-009    
  -0.35           2.8307e-009     -1.8669e-006    -1.408e-008    
  -0.4            -1.5579e-009    -9.759e-007     2.3264e-008    
  -0.45           -1.3814e-009    -6.08e-008      9.713e-009     
  -0.5            -1.3015e-009    -5.24e-007      1.6128e-008    
  -0.55           -2.3913e-009    -9.646e-007     1.5695e-008    
  -0.6            1.8592e-009     -3.1712e-006    4.224e-009     
  -0.65           1.3707e-009     -2.8503e-006    -9.449e-009    
  -0.7            1.2405e-009     -3.1203e-006    -1.0689e-008   
  -0.75           2.7856e-009     -2.7422e-006    -1.5263e-008   
  -0.8            -1.5672e-009    -2.6258e-006    1.5224e-008    
  -0.85           -1.3586e-009    -2.49e-007      8.749e-009     
  -0.9            -1.2933e-009    -7.372e-007     1.3485e-008    
  -0.95           -2.4434e-009    -1.608e-006     1.4768e-008    
  -1              -1.8243e-009    -2.57e-008      3.128e-009     
  -1.05           -1.4486e-009    -1.26e-007      6.595e-009     
  -1.1            -1.3325e-009    -4.485e-007     1.1734e-008    
  -1.15           -2.6633e-009    -1.44e-006      1.3342e-008    
  -1.2            2.8713e-009     -5.6768e-006    2.432e-009     
  -1.25           -1.3265e-009    -4.2184e-006    1.9362e-008    
  -1.3            -2.2008e-009    -2.7939e-006    1.7482e-008    
  -1.35           -1.6373e-009    -7.67e-008      4.802e-009     
  -1.4            2.8128e-009     -7.1263e-006    1.9266e-008    
  -1.45           -1.6438e-009    -4.8101e-006    1.6028e-008    
  -1.5            2.6525e-009     -5.202e-007     1.9843e-008    
  -1.55           2.0385e-009     -7.496e-007     -2.477e-009    
  -1.6            1.4344e-009     -1.6185e-006    -7.736e-009    
  -1.65           1.227e-009      -2.7807e-006    -8.882e-009    
  -1.7            2.818e-009      -4.0788e-006    -1.1397e-008   
  -1.75           3.813e-010      -3.9984e-006    9.86e-009      
  -1.8            7.936e-010      -3.7291e-006    1.0408e-008    
END_DB

BEGIN_DB
 ICCAP_VAR VS         0              
 ICCAP_VAR VB         1.8            
 ICCAP_VAR VD         -1.8           

 #VG              IG              ID              IB             
  0               -2.42e-011      1.848e-010      1.2221e-008    
  -0.05           2.3454e-009     -6.716e-010     -1.8913e-008   
  -0.1            1.278e-009      2.1463e-009     -5.325e-009    
  -0.15           1.4342e-009     1.9527e-009     1.2227e-008    
  -0.2            3.75e-011       2.0444e-009     9.724e-009     
  -0.25           1.958e-010      2.1369e-009     9.926e-009     
  -0.3            3.668e-010      2.2246e-009     1.0461e-008    
  -0.35           5.343e-010      2.2965e-009     1.0775e-008    
  -0.4            6.9e-010        2.3422e-009     1.055e-008     
  -0.45           8.352e-010      2.3529e-009     1.009e-008     
  -0.5            9.682e-010      2.3349e-009     9.745e-009     
  -0.55           1.1032e-009     2.2729e-009     9.967e-009     
  -0.6            1.2464e-009     2.1572e-009     1.0639e-008    
  -0.65           -1.406e-010     1.6818e-009     1.0018e-008    
  -0.7            -1.554e-009     -3.2364e-009    2.4398e-008    
  -0.75           1.6184e-009     -1.6244e-008    -9.401e-009    
  -0.8            1.2594e-009     1.1e-010        -9.043e-009    
  -0.85           -2.5216e-009    -8.576e-008     9.759e-009     
  -0.9            2.0077e-009     1.22e-009       -1.0688e-008   
  -0.95           -1.3855e-009    -4.7317e-007    2.5113e-008    
  -1              -1.2996e-009    -1.4441e-007    8.774e-009     
  -1.05           2.3373e-009     1.05e-009       7.61e-009      
  -1.1            -1.6816e-009    -1.47e-008      -1.3258e-008   
  -1.15           2.5475e-009     1.3e-009        -2.1921e-008   
  -1.2            -2.7259e-009    -2.1e-009       1.0149e-008    
  -1.25           2.7196e-009     -6.1e-009       -1.0741e-008   
  -1.3            -1.1977e-009    -7.899e-007     1.0469e-008    
  -1.35           1.246e-009      -5.5685e-006    -2.6096e-008   
  -1.4            2.839e-009      -4.5346e-006    -1.02e-008     
  -1.45           -1.7699e-009    -2.0317e-006    9.867e-009     
  -1.5            -1.2923e-009    -2.899e-006     5.866e-009     
  -1.55           -2.4707e-009    -1.0807e-005    8.037e-009     
  -1.6            2.3299e-009     -2.0201e-006    -1.0832e-008   
  -1.65           -1.3698e-009    -7.587e-006     1.0419e-008    
  -1.7            -1.2976e-009    -1.285e-005     8.826e-009     
  -1.75           -2.5202e-009    -2.009e-005     7.698e-009     
  -1.8            -1.9644e-009    -8.759e-006     1.295e-009     
END_DB

