! VERSION = 6.00
BEGIN_HEADER
 ICCAP_INPUTS
  VG         V  B GROUND SMU4 0.001 LIN        2    0          -1.8       6    -0.36     
  VS         V  E GROUND SMU2 0.1 CON        0
  VD         V  S GROUND SMU1 0.1 LIN        1    0          -1.8       37   -0.05     
  VB         V  C GROUND SMU3 0.1 LIN        3    0          0.9        2    0.9       
 ICCAP_OUTPUTS
  ID         I  S GROUND SMU1 B
  IB         I  C GROUND SMU3 B
  IG         I  B GROUND SMU4 B
END_HEADER

BEGIN_DB
 ICCAP_VAR VG         0              
 ICCAP_VAR VS         0              
 ICCAP_VAR VB         0              

 #VD              ID              IB              IG             
  0               1.0253e-009     7.884e-009      1.1529e-009    
  -0.05           1.5888e-009     7.4e-011        1.6948e-009    
  -0.1            2.1354e-009     9.845e-009      3.015e-010     
  -0.15           2.2259e-009     1.0563e-008     4.676e-010     
  -0.2            2.2978e-009     1.0797e-008     6.202e-010     
  -0.25           2.336e-009      1.0584e-008     7.732e-010     
  -0.3            2.3293e-009     1.0306e-008     9.14e-010      
  -0.35           2.2737e-009     1.06e-008       1.055e-009     
  -0.4            2.1543e-009     1.1816e-008     1.2045e-009    
  -0.45           1.8948e-009     1.0059e-008     -1.676e-010    
  -0.5            1.967e-009      9.609e-009      -1.12e-011     
  -0.55           2.048e-009      9.58e-009       1.472e-010     
  -0.6            2.1447e-009     9.974e-009      3.124e-010     
  -0.65           2.2293e-009     1.0652e-008     4.798e-010     
  -0.7            2.3014e-009     1.0431e-008     6.316e-010     
  -0.75           2.3378e-009     1.0357e-008     7.824e-010     
  -0.8            2.3282e-009     1.0363e-008     9.285e-010     
  -0.85           2.2661e-009     1.1423e-008     1.0642e-009    
  -0.9            2.1477e-009     1.3134e-008     1.2145e-009    
  -0.95           1.9009e-009     1.0007e-008     -1.564e-010    
  -1              1.9657e-009     9.613e-009      -6.8e-012      
  -1.05           2.0534e-009     9.537e-009      1.573e-010     
  -1.1            2.15e-009       1.0003e-008     3.175e-010     
  -1.15           2.233e-009      1.0634e-008     4.825e-010     
  -1.2            2.3049e-009     1.0759e-008     6.411e-010     
  -1.25           2.3393e-009     1.055e-008      7.9e-010       
  -1.3            2.3236e-009     1.0281e-008     9.313e-010     
  -1.35           2.2581e-009     1.0682e-008     1.0721e-009    
  -1.4            2.1376e-009     1.1873e-008     1.2215e-009    
  -1.45           1.9041e-009     9.985e-009      -1.537e-010    
  -1.5            1.971e-009      9.579e-009      5e-012         
  -1.55           2.0521e-009     9.574e-009      1.643e-010     
  -1.6            2.1517e-009     1.001e-008      3.266e-010     
  -1.65           2.2366e-009     1.0304e-008     4.899e-010     
  -1.7            2.3079e-009     1.044e-008      6.462e-010     
  -1.75           2.3386e-009     1.0373e-008     7.959e-010     
  -1.8            2.3218e-009     1.0443e-008     9.358e-010     
END_DB

BEGIN_DB
 ICCAP_VAR VG         -0.36          
 ICCAP_VAR VS         0              
 ICCAP_VAR VB         0              

 #VD              ID              IB              IG             
  0               -1.2655e-009    -9.258e-009     -1.3187e-009   
  -0.05           -2.6925e-009    -9.798e-009     -2.888e-010    
  -0.1            -2.9613e-009    -1.0206e-008    -4.686e-010    
  -0.15           -1.4793e-009    -1.7509e-008    2.52e-009      
  -0.2            -3.359e-010     -3.801e-009     2.2613e-009    
  -0.25           -5.378e-010     -6.033e-009     1.9826e-009    
  -0.3            -7.499e-010     -8.197e-009     1.7133e-009    
  -0.35           -9.644e-010     -9.36e-009      1.4887e-009    
  -0.4            -1.1865e-009    -8.995e-009     1.3337e-009    
  -0.45           -1.454e-009     -9.125e-009     1.2463e-009    
  -0.5            -1.6651e-009    -1.0153e-008    1.2016e-009    
  -0.55           -1.9277e-009    -1.1418e-008    2.8685e-009    
  -0.6            -1.1058e-009    -7.9e-011       2.848e-009     
  -0.65           1.535e-010      1.0723e-008     1.0082e-009    
  -0.7            -8.38e-011      1.2605e-008     1.1511e-009    
  -0.75           -3.938e-010     1.3737e-008     1.3106e-009    
  -0.8            -7.666e-010     1.3859e-008     1.4725e-009    
  -0.85           -1.9923e-009    9.404e-009      -1.7204e-009   
  -0.9            -3.9321e-009    -4.436e-009     -2.5875e-009   
  -0.95           -4.7604e-009    -1.4296e-008    1.7104e-009    
  -1              -2.9958e-009    -9.328e-009     1.4795e-009    
  -1.05           -3.301e-009     -9.063e-009     1.3268e-009    
  -1.1            -3.6571e-009    -9.213e-009     1.2401e-009    
  -1.15           -4.0194e-009    -1.0003e-008    1.1997e-009    
  -1.2            -4.4031e-009    -1.1437e-008    2.8697e-009    
  -1.25           -3.6702e-009    1.7e-011        2.8509e-009    
  -1.3            -2.5538e-009    1.0712e-008     1.0151e-009    
  -1.35           -2.944e-009     1.2671e-008     1.1532e-009    
  -1.4            -3.4086e-009    1.3753e-008     1.3103e-009    
  -1.45           -3.9239e-009    1.3991e-008     1.4792e-009    
  -1.5            -4.0854e-009    9.429e-009      9.1e-011       
  -1.55           -4.3767e-009    9.737e-009      2.512e-010     
  -1.6            -4.7055e-009    1.0351e-008     4.172e-010     
  -1.65           -5.065e-009     1.0468e-008     5.844e-010     
  -1.7            -5.4794e-009    1.0496e-008     7.328e-010     
  -1.75           -5.972e-009     1.037e-008      8.816e-010     
  -1.8            -6.5277e-009    1.0951e-008     1.0174e-009    
END_DB

BEGIN_DB
 ICCAP_VAR VG         -0.72          
 ICCAP_VAR VS         0              
 ICCAP_VAR VB         0              

 #VD              ID              IB              IG             
  0               4.971e-010      -1.3495e-008    -2.7011e-009   
  -0.05           -1.3453e-006    1.1207e-008     1.9792e-009    
  -0.1            -1.9637e-006    -9.775e-009     -4.866e-010    
  -0.15           -2.2813e-006    1.2114e-008     -1.9847e-009   
  -0.2            -2.541e-006     9.441e-009      3e-010         
  -0.25           -2.8295e-006    -1.6915e-008    2.3133e-009    
  -0.3            -3.0445e-006    -1.8153e-008    2.0809e-009    
  -0.35           -3.2555e-006    -1.9627e-008    1.8332e-009    
  -0.4            -3.4207e-006    -9.799e-009     -5.829e-010    
  -0.45           -3.5799e-006    1.4492e-008     -1.8354e-009   
  -0.5            -3.8326e-006    1.3549e-008     1.9494e-009    
  -0.55           -4.0567e-006    -1.4532e-008    1.4146e-009    
  -0.6            -4.2589e-006    -1.4376e-008    2.283e-010     
  -0.65           -4.3491e-006    8.954e-009      -1.2684e-009   
  -0.7            -4.6616e-006    1.2079e-008     1.3801e-009    
  -0.75           -4.8618e-006    -1.1191e-008    2.8157e-009    
  -0.8            -5.0734e-006    -1.3495e-008    1.779e-010     
  -0.85           -5.1548e-006    8.873e-009      -1.2648e-009   
  -0.9            -5.4974e-006    1.2783e-008     1.4393e-009    
  -0.95           -5.7057e-006    -1.2094e-008    2.788e-009     
  -1              -5.9284e-006    -1.2558e-008    1.256e-010     
  -1.05           -5.9985e-006    8.659e-009      -1.2636e-009   
  -1.1            -6.3835e-006    1.333e-008      1.5003e-009    
  -1.15           -6.5991e-006    -1.2988e-008    2.7447e-009    
  -1.2            -6.8365e-006    -1.1949e-008    7.71e-011      
  -1.25           -6.9034e-006    8.275e-009      -2.6508e-009   
  -1.3            -7.3091e-006    1.1644e-008     1.307e-009     
  -1.35           -7.5252e-006    -2.7141e-008    1.1883e-009    
  -1.4            -7.7745e-006    -1.0257e-008    -2.295e-010    
  -1.45           -7.8816e-006    8.434e-009      -2.3235e-009   
  -1.5            -8.1544e-006    1.0054e-008     7.04e-011      
  -1.55           -8.5688e-006    -1.4786e-008    2.6248e-009    
  -1.6            -8.8257e-006    -2.7256e-008    1.2237e-009    
  -1.65           -9.0856e-006    -2.7334e-008    1.193e-009     
  -1.7            -9.3666e-006    -1.032e-008     -2.037e-010    
  -1.75           -9.472e-006     8.114e-009      -2.3643e-009   
  -1.8            -9.7886e-006    1.0201e-008     4.26e-011      
END_DB

BEGIN_DB
 ICCAP_VAR VG         -1.08          
 ICCAP_VAR VS         0              
 ICCAP_VAR VB         0              

 #VD              ID              IB              IG             
  0               -2.6077e-008    -2.24e-010      -2.5884e-009   
  -0.05           -2.7208e-005    -1.7446e-008    5.201e-010     
  -0.1            -4.8556e-005    -2.3547e-008    1.4118e-009    
  -0.15           -6.4734e-005    -1.7846e-008    2.1437e-009    
  -0.2            -7.6751e-005    -1.0458e-008    -7.856e-010    
  -0.25           -8.576e-005     2.6463e-008     -1.3353e-009   
  -0.3            -9.4035e-005    1.1077e-008     1.275e-009     
  -0.35           -9.9857e-005    -1.5299e-008    2.6091e-009    
  -0.4            -0.000104665    -9.805e-009     -4.488e-010    
  -0.45           -0.000108387    2.0653e-008     -1.5187e-009   
  -0.5            -0.000113007    1.0476e-008     9.843e-010     
  -0.55           -0.00011576     -2.7147e-008    -1.1067e-009   
  -0.6            -0.00011896     2.7932e-008     -1.3126e-009   
  -0.65           -0.00012325     1.0411e-008     1.1446e-009    
  -0.7            -0.00012605     -2.7629e-008    1.1916e-009    
  -0.75           -0.00012898     -2.0222e-008    1.7609e-009    
  -0.8            -0.00013122     -1.052e-008     -7.65e-010     
  -0.85           -0.00013346     2.1444e-008     -1.4827e-009   
  -0.9            -0.0001365      1.0856e-008     7.992e-010     
  -0.95           -0.0001397      -2.433e-008     1.3663e-009    
  -1              -0.00014124     -1.0683e-008    -1.0018e-009   
  -1.05           -0.00014344     2.687e-008      -1.3332e-009   
  -1.1            -0.00014705     1.0757e-008     1.0565e-009    
  -1.15           -0.00014942     -2.7783e-008    1.2125e-009    
  -1.2            -0.00015188     -1.8977e-008    1.9502e-009    
  -1.25           -0.00015421     -1.9836e-008    1.7022e-009    
  -1.3            -0.000156       -1.0709e-008    -7.891e-010    
  -1.35           -0.00015784     2.2277e-008     -1.4566e-009   
  -1.4            -0.00016087     1.0492e-008     8.326e-010     
  -1.45           -0.00016368     -2.48e-008      1.3375e-009    
  -1.5            -0.00016602     -2.7707e-008    1.2111e-009    
  -1.55           -0.00016836     -1.9102e-008    1.9565e-009    
  -1.6            -0.00017017     -9.994e-009     -6.463e-010    
  -1.65           -0.00017174     1.8649e-008     -1.5998e-009   
  -1.7            -0.00017458     1.0434e-008     6.917e-010     
  -1.75           -0.00017769     -2.2478e-008    1.48e-009      
  -1.8            -0.00017999     -1.2972e-008    1.787e-010     
END_DB

BEGIN_DB
 ICCAP_VAR VG         -1.44          
 ICCAP_VAR VS         0              
 ICCAP_VAR VB         0              

 #VD              ID              IB              IG             
  0               -5.4491e-008    1.0513e-008     1.938e-010     
  -0.05           -6.5878e-005    -1.3888e-008    1.655e-010     
  -0.1            -0.00012608     -1.2736e-008    8.86e-011      
  -0.15           -0.00017954     7.581e-009      -2.5566e-009   
  -0.2            -0.00022821     1.3563e-008     1.5488e-009    
  -0.25           -0.00026986     -2.088e-008     1.7693e-009    
  -0.3            -0.000306       -1.0408e-008    -7.471e-010    
  -0.35           -0.00033653     2.1522e-008     -1.4942e-009   
  -0.4            -0.00036364     1.0612e-008     7.885e-010     
  -0.45           -0.0003868      -2.4247e-008    1.3747e-009    
  -0.5            -0.00040616     -2.7312e-008    1.2244e-009    
  -0.55           -0.00042283     -1.869e-008     2.0254e-009    
  -0.6            -0.0004371      -2.1131e-008    1.768e-009     
  -0.65           -0.00044961     -1.0553e-008    -7.412e-010    
  -0.7            -0.00046021     2.1296e-008     -1.5006e-009   
  -0.75           -0.00047141     1.1e-008        7.873e-010     
  -0.8            -0.00048143     -2.41e-008      1.3744e-009    
  -0.85           -0.00048872     -1.0604e-008    -1.0032e-009   
  -0.9            -0.00049623     2.6728e-008     -1.336e-009    
  -0.95           -0.00050572     1.0712e-008     1.0513e-009    
  -1              -0.00051283     -2.7698e-008    1.2172e-009    
  -1.05           -0.00051982     -1.9024e-008    1.9586e-009    
  -1.1            -0.00052623     -2.0272e-008    1.7167e-009    
  -1.15           -0.00053187     -1.0712e-008    -7.726e-010    
  -1.2            -0.00053717     2.2185e-008     -1.4682e-009   
  -1.25           -0.00054411     1.1001e-008     8.161e-010     
  -1.3            -0.00055093     -2.4556e-008    1.3448e-009    
  -1.35           -0.00055467     -1.0571e-008    -1.0284e-009   
  -1.4            -0.00056007     8.889e-009      -1.2882e-009   
  -1.45           -0.00056823     1.1474e-008     1.3151e-009    
  -1.5            -0.00057313     -1.1954e-008    2.7842e-009    
  -1.55           -0.00057834     -2.6946e-008    1.2352e-009    
  -1.6            -0.00058336     -1.8186e-008    2.0877e-009    
  -1.65           -0.00058806     -9.899e-009     -5.601e-010    
  -1.7            -0.00059168     1.6947e-008     -1.6973e-009   
  -1.75           -0.00059745     1.0359e-008     6.217e-010     
  -1.8            -0.00060382     -2.1588e-008    1.5791e-009    
END_DB

BEGIN_DB
 ICCAP_VAR VG         -1.8           
 ICCAP_VAR VS         0              
 ICCAP_VAR VB         0              

 #VD              ID              IB              IG             
  0               -6.3941e-008    1.2096e-008     -1.592e-010    
  -0.05           -9.4198e-005    -1.8134e-008    5.487e-010     
  -0.1            -0.00018407     -1.9918e-008    -5.703e-010    
  -0.15           -0.00026903     1.7123e-008     -1.6823e-009   
  -0.2            -0.00034941     1.0383e-008     6.225e-010     
  -0.25           -0.00042498     -2.1764e-008    1.5623e-009    
  -0.3            -0.00049492     -1.4214e-008    1.3951e-009    
  -0.35           -0.00055955     -1.1933e-008    1.232e-010     
  -0.4            -0.0006176      7.621e-009      -2.5877e-009   
  -0.45           -0.0006726      1.333e-008      1.513e-009     
  -0.5            -0.00072055     -1.5018e-008    2.6037e-009    
  -0.55           -0.00076381     -2.761e-008     1.1969e-009    
  -0.6            -0.00080257     -2.0285e-008    1.7561e-009    
  -0.65           -0.00083638     -1.0775e-008    -7.515e-010    
  -0.7            -0.00086629     2.1661e-008     -1.4877e-009   
  -0.75           -0.00089438     1.1071e-008     7.925e-010     
  -0.8            -0.00091947     -2.4466e-008    1.3676e-009    
  -0.85           -0.00093979     -1.0697e-008    -1.0122e-009   
  -0.9            -0.00095883     2.6863e-008     -1.3344e-009   
  -0.95           -0.00097874     1.0725e-008     1.0583e-009    
  -1              -0.00099475     -2.7691e-008    1.216e-009     
  -1.05           -0.00100965     -1.949e-008     1.9315e-009    
  -1.1            -0.00102316     -1.9807e-008    1.7003e-009    
  -1.15           -0.00103519     -1.0853e-008    -7.834e-010    
  -1.2            -0.0010462      2.2355e-008     -1.4564e-009   
  -1.25           -0.00105879     1.0995e-008     8.268e-010     
  -1.3            -0.00107029     -2.4988e-008    1.3355e-009    
  -1.35           -0.0010808      -1.119e-008     4.76e-011      
  -1.4            -0.0010878      7.465e-009      -2.5159e-009   
  -1.45           -0.00109771     9.856e-009      3.52e-011      
  -1.5            -0.0011089      -1.5994e-008    2.5163e-009    
  -1.55           -0.00111748     -1.8304e-008    2.1012e-009    
  -1.6            -0.00112555     -1.0024e-008    -5.505e-010    
  -1.65           -0.00113217     1.6786e-008     -1.698e-009    
  -1.7            -0.0011411      -1.0056e-008    3.306e-010     
  -1.75           -0.0011477      8.973e-009      -1.283e-009    
  -1.8            -0.0011592      1.3359e-008     1.5203e-009    
END_DB

BEGIN_DB
 ICCAP_VAR VG         0              
 ICCAP_VAR VS         0              
 ICCAP_VAR VB         0.9            

 #VD              ID              IB              IG             
  0               1.3601e-009     -1.0298e-008    1.2483e-009    
  -0.05           2.1415e-009     1.2933e-008     1.2205e-009    
  -0.1            1.9106e-009     9.712e-009      -1.472e-010    
  -0.15           1.9835e-009     9.508e-009      1.08e-011      
  -0.2            2.0676e-009     9.536e-009      1.632e-010     
  -0.25           2.1676e-009     1.0184e-008     3.347e-010     
  -0.3            2.2556e-009     1.0941e-008     5.035e-010     
  -0.35           2.3189e-009     1.0917e-008     6.63e-010      
  -0.4            2.3394e-009     1.0704e-008     8.168e-010     
  -0.45           2.3204e-009     1.0381e-008     9.566e-010     
  -0.5            2.2399e-009     1.1679e-008     1.1009e-009    
  -0.55           2.1054e-009     1.3272e-008     1.2556e-009    
  -0.6            1.9225e-009     9.622e-009      -1.213e-010    
  -0.65           1.9944e-009     9.403e-009      4.13e-011      
  -0.7            2.0887e-009     9.631e-009      1.973e-010     
  -0.75           2.1887e-009     1.0255e-008     3.694e-010     
  -0.8            2.2734e-009     1.0607e-008     5.354e-010     
  -0.85           2.3266e-009     1.0504e-008     6.909e-010     
  -0.9            2.342e-009      1.071e-008      8.442e-010     
  -0.95           2.3097e-009     1.028e-008      9.84e-010      
  -1              2.2202e-009     1.099e-008      1.1278e-009    
  -1.05           2.077e-009      1.2238e-008     1.2841e-009    
  -1.1            1.8741e-009     1.3622e-008     1.4544e-009    
  -1.15           2.0109e-009     9.508e-009      6.71e-011      
  -1.2            2.1084e-009     9.705e-009      2.308e-010     
  -1.25           2.2047e-009     1.0448e-008     4.011e-010     
  -1.3            2.2851e-009     1.0973e-008     5.685e-010     
  -1.35           2.3302e-009     1.0692e-008     7.271e-010     
  -1.4            2.3388e-009     1.0639e-008     8.675e-010     
  -1.45           2.2936e-009     1.0285e-008     1.0124e-009    
  -1.5            2.1894e-009     1.1143e-008     1.1581e-009    
  -1.55           1.8733e-009     9.976e-009      -2.076e-010    
  -1.6            1.9503e-009     9.543e-009      -5.68e-011     
  -1.65           2.0298e-009     9.502e-009      1.04e-010      
  -1.7            2.131e-009      9.828e-009      2.664e-010     
  -1.75           2.2231e-009     1.0677e-008     4.307e-010     
  -1.8            2.2955e-009     1.0964e-008     6.024e-010     
END_DB

BEGIN_DB
 ICCAP_VAR VG         -0.36          
 ICCAP_VAR VS         0              
 ICCAP_VAR VB         0.9            

 #VD              ID              IB              IG             
  0               1.0227e-009     7.606e-009      1.1557e-009    
  -0.05           2.306e-009      5.1e-011        6.45e-010      
  -0.1            2.3367e-009     1.0497e-008     7.922e-010     
  -0.15           2.32e-009       1.0355e-008     9.362e-010     
  -0.2            2.2572e-009     1.142e-008      1.0781e-009    
  -0.25           2.1362e-009     1.3111e-008     1.2229e-009    
  -0.3            1.9016e-009     9.829e-009      -1.496e-010    
  -0.35           1.974e-009      9.495e-009      4.6e-012       
  -0.4            2.0593e-009     9.57e-009       1.634e-010     
  -0.45           2.1568e-009     1.0205e-008     3.309e-010     
  -0.5            2.236e-009      1.084e-008      4.925e-010     
  -0.55           2.3012e-009     1.0824e-008     6.54e-010      
