! VERSION = 6.00
BEGIN_HEADER
 ICCAP_INPUTS
  VG         V  B GROUND SMU4 0.001 LIN        2    0          -1.8       6    -0.36     
  VS         V  E GROUND SMU2 0.1 CON        0
  VD         V  S GROUND SMU1 0.1 LIN        1    0          -1.8       37   -0.05     
  VB         V  C GROUND SMU3 0.1 LIN        3    0          0.9        2    0.9       
 ICCAP_OUTPUTS
  ID         I  S GROUND SMU1 B
  IB         I  C GROUND SMU3 B
  IG         I  B GROUND SMU4 B
END_HEADER

BEGIN_DB
 ICCAP_VAR VG         0              
 ICCAP_VAR VS         0              
 ICCAP_VAR VB         0              

 #VD              ID              IB              IG             
  0               1.101e-010      1.1722e-008     -3.351e-010    
  -0.05           -8.619e-010     -2.1547e-008    1.83e-009      
  -0.1            2.3016e-009     -9.089e-009     6.687e-010     
  -0.15           2.3235e-009     9.905e-009      8.334e-010     
  -0.2            2.3063e-009     9.847e-009      9.792e-010     
  -0.25           2.2324e-009     1.1162e-008     1.1272e-009    
  -0.3            1.8643e-009     1.0443e-008     -1.3993e-009   
  -0.35           -2.177e-009     8.584e-009      -1.0635e-009   
  -0.4            -1.0264e-009    -2.4834e-008    1.4951e-009    
  -0.45           2.3226e-009     -8.84e-009      8.811e-010     
  -0.5            2.2874e-009     1.0277e-008     1.0303e-009    
  -0.55           2.1893e-009     1.167e-008      1.1824e-009    
  -0.6            1.8992e-009     1.0266e-008     -2.14e-010     
  -0.65           8.744e-010      2.4051e-008     -1.5756e-009   
  -0.7            -1.4824e-009    6.829e-009      -1.7136e-009   
  -0.75           -2.1481e-009    -1.0639e-008    -3.648e-010    
  -0.8            -1.3454e-009    -2.5962e-008    1.2242e-009    
  -0.85           3.59e-011       -1.0761e-008    2.838e-009     
  -0.9            2.2866e-009     1.42e-010       6.162e-010     
  -0.95           2.3217e-009     1.0281e-008     7.826e-010     
  -1              2.3192e-009     9.79e-009       9.27e-010      
  -1.05           2.2619e-009     1.0046e-008     1.0778e-009    
  -1.1            2.1484e-009     1.081e-008      1.2271e-009    
  -1.15           1.9221e-009     1.0086e-008     -1.647e-010    
  -1.2            1.9995e-009     9.783e-009      -1.1e-012      
  -1.25           2.0947e-009     9.876e-009      1.765e-010     
  -1.3            2.1882e-009     1.0351e-008     3.625e-010     
  -1.35           2.2637e-009     1.0324e-008     5.433e-010     
  -1.4            2.314e-009      1.0163e-008     7.2e-010       
  -1.45           2.3241e-009     9.803e-009      8.713e-010     
  -1.5            2.2889e-009     1.0181e-008     1.0146e-009    
  -1.55           2.199e-009      1.1581e-008     1.1652e-009    
  -1.6            1.8868e-009     1.0229e-008     -2.24e-010     
  -1.65           8.622e-010      2.3639e-008     -1.5991e-009   
  -1.7            -1.5121e-009    6.669e-009      -1.7043e-009   
  -1.75           -1.5442e-009    -1.9557e-008    2.137e-009     
  -1.8            2.2398e-009     -7.312e-009     4.929e-010     
END_DB

BEGIN_DB
 ICCAP_VAR VG         -0.36          
 ICCAP_VAR VS         0              
 ICCAP_VAR VB         0              

 #VD              ID              IB              IG             
  0               8.531e-010      2.0543e-008     9.315e-010     
  -0.05           -6.093e-010     -7.955e-009     1.749e-009     
  -0.1            -1.0249e-009    -9.105e-009     1.5052e-009    
  -0.15           -1.2936e-009    -8.804e-009     1.3426e-009    
  -0.2            -1.5474e-009    -9.309e-009     1.2473e-009    
  -0.25           -1.8115e-009    -9.936e-009     2.8216e-009    
  -0.3            -5.665e-010     1.209e-008      1.8063e-009    
  -0.35           -2.6668e-009    1.0342e-008     -1.6081e-009   
  -0.4            -2.7167e-009    6.581e-009      -1.4612e-009   
  -0.45           -2.7675e-009    8.296e-009      -1.3813e-009   
  -0.5            -2.8289e-009    8.661e-009      -1.3373e-009   
  -0.55           -2.8822e-009    8.784e-009      -1.3119e-009   
  -0.6            -2.9306e-009    7.751e-009      -1.2898e-009   
  -0.65           -2.9854e-009    7.935e-009      -1.2743e-009   
  -0.7            -3.0355e-009    1.029e-008      -2.499e-009    
  -0.75           -5.1752e-009    -1.6721e-008    1.9216e-009    
  -0.8            -3.354e-009     -8.902e-009     1.6272e-009    
  -0.85           -3.7133e-009    -9.011e-009     1.4201e-009    
  -0.9            -4.0384e-009    -8.919e-009     1.2913e-009    
  -0.95           -4.4089e-009    -9.574e-009     2.7915e-009    
  -1              -3.1692e-009    1.2977e-008     1.7222e-009    
  -1.05           -2.7909e-009    1.0301e-008     3.366e-010     
  -1.1            -3.0015e-009    1.0688e-008     5.225e-010     
  -1.15           -3.2441e-009    1.0515e-008     6.93e-010      
  -1.2            -3.5422e-009    1.0181e-008     8.445e-010     
  -1.25           -3.8904e-009    9.817e-009      9.891e-010     
  -1.3            -4.6987e-009    1.1623e-008     -1.4954e-009   
  -1.35           -7.1101e-009    8.051e-009      -1.3932e-009   
  -1.4            -7.3659e-009    8.686e-009      -1.3444e-009   
  -1.45           -7.6251e-009    8.704e-009      -1.3145e-009   
  -1.5            -7.9211e-009    8.089e-009      -1.2953e-009   
  -1.55           -8.2159e-009    7.687e-009      -1.2767e-009   
  -1.6            -8.5123e-009    9.767e-009      -2.53e-009     
  -1.65           -9.9947e-009    1.013e-009      -2.3356e-009   
  -1.7            -1.1411e-008    -8.98e-009      -1.8569e-009   
  -1.75           -1.0797e-008    1.9516e-008     -2.3151e-009   
  -1.8            -1.16e-008      1.1676e-008     -1.3171e-009   
END_DB

BEGIN_DB
 ICCAP_VAR VG         -0.72          
 ICCAP_VAR VS         0              
 ICCAP_VAR VB         0              

 #VD              ID              IB              IG             
  0               4.6054e-010     -1.0311e-008    2.6264e-009    
  -0.05           -2.1363e-006    8.722e-009      2.908e-010     
  -0.1            -3.1689e-006    -1.6661e-008    2.3288e-009    
  -0.15           -3.6898e-006    -1.7784e-008    2.068e-009     
  -0.2            -4.0321e-006    -1.894e-008     1.8264e-009    
  -0.25           -4.2519e-006    -1.0376e-008    -5.829e-010    
  -0.3            -4.443e-006     1.5788e-008     -1.8028e-009   
  -0.35           -4.7201e-006    1.2495e-008     1.9711e-009    
  -0.4            -4.9492e-006    -1.3831e-008    2.301e-010     
  -0.45           -5.0231e-006    8.77e-009       -1.2865e-009   
  -0.5            -5.2187e-006    9.695e-009      3.403e-010     
  -0.55           -5.4947e-006    -1.6931e-008    2.2554e-009    
  -0.6            -5.6738e-006    -1.8299e-008    2.0048e-009    
  -0.65           -5.8018e-006    -1.0079e-008    -4.6e-010      
  -0.7            -5.9082e-006    1.3208e-008     -1.9648e-009   
  -0.75           -6.0757e-006    9.652e-009      3.059e-010     
  -0.8            -6.3557e-006    -1.6806e-008    2.3041e-009    
  -0.85           -6.5268e-006    -1.7847e-008    2.0514e-009    
  -0.9            -6.6944e-006    -1.8871e-008    1.7957e-009    
  -0.95           -6.7923e-006    -1.0406e-008    -5.916e-010    
  -1              -6.8974e-006    1.6007e-008     -1.7926e-009   
  -1.05           -7.1575e-006    1.2363e-008     1.9793e-009    
  -1.1            -7.3626e-006    -1.3683e-008    2.232e-010     
  -1.15           -7.3716e-006    8.837e-009      -1.2846e-009   
  -1.2            -7.7195e-006    1.1483e-008     1.4125e-009    
  -1.25           -7.8709e-006    -1.1699e-008    2.7952e-009    
  -1.3            -8.0378e-006    -1.2749e-008    1.699e-010     
  -1.35           -8.0187e-006    8.486e-009      -1.2791e-009   
  -1.4            -8.3957e-006    1.1882e-008     1.4816e-009    
  -1.45           -8.5486e-006    -1.2757e-008    2.7557e-009    
  -1.5            -8.7111e-006    -1.1942e-008    1.12e-010      
  -1.55           -8.6849e-006    7.99e-009       -2.608e-009    
  -1.6            -9.0572e-006    1.0044e-008     1.3066e-009    
  -1.65           -9.1942e-006    -2.684e-008     2.4132e-009    
  -1.7            -9.375e-006     -1.7158e-008    2.172e-009     
  -1.75           -9.5513e-006    -1.8636e-008    1.9175e-009    
  -1.8            -9.7016e-006    -2.2169e-008    1.8747e-009    
END_DB

BEGIN_DB
 ICCAP_VAR VG         -1.08          
 ICCAP_VAR VS         0              
 ICCAP_VAR VB         0              

 #VD              ID              IB              IG             
  0               -1.6983e-008    1.0995e-008     -1.151e-010    
  -0.05           -2.8501e-005    -1.7015e-008    5.741e-010     
  -0.1            -5.133e-005     -2.3076e-008    1.3816e-009    
  -0.15           -6.8897e-005    -1.7699e-008    2.0531e-009    
  -0.2            -8.2262e-005    -1.5085e-008    1.4464e-009    
  -0.25           -9.2233e-005    -1.6977e-008    2.1881e-009    
  -0.3            -9.949e-005     -1.0618e-008    -7.591e-010    
  -0.35           -0.000104974    2.5486e-008     -1.3694e-009   
  -0.4            -0.000110665    1.0329e-008     1.2639e-009    
  -0.45           -0.000114231    -2.1637e-008    1.8498e-009    
  -0.5            -0.00011698     -1.2747e-008    -1.8586e-009   
  -0.55           -0.00011991     1.5773e-008     -1.7698e-009   
  -0.6            -0.0001227      1.0205e-008     5.813e-010     
  -0.65           -0.00012583     -1.9651e-008    1.6579e-009    
  -0.7            -0.0001277      -1.0579e-008    -8.111e-010    
  -0.75           -0.00012948     2.2526e-008     -1.4554e-009   
  -0.8            -0.00013212     1.0309e-008     8.792e-010     
  -0.85           -0.00013462     -2.4214e-008    1.3164e-009    
  -0.9            -0.00013647     -2.7066e-008    2.5171e-009    
  -0.95           -0.00013824     -1.765e-008     2.0855e-009    
  -1              -0.00013981     -1.0243e-008    -5.396e-010    
  -1.05           -0.00014104     1.7251e-008     -1.6895e-009   
  -1.1            -0.00014294     1.032e-008      6.437e-010     
  -1.15           -0.00014532     -2.0261e-008    1.5766e-009    
  -1.2            -0.00014709     -1.4257e-008    1.4069e-009    
  -1.25           -0.0001488      -2.6066e-008    1.2386e-009    
  -1.3            -0.00015031     -1.7805e-008    2.0663e-009    
  -1.35           -0.00015157     -1.0239e-008    -5.532e-010    
  -1.4            -0.00015244     1.7699e-008     -1.6729e-009   
  -1.45           -0.00015433     1.0334e-008     6.555e-010     
  -1.5            -0.00015661     -2.0458e-008    1.5512e-009    
  -1.55           -0.00015817     -1.4024e-008    2.327e-010     
  -1.6            -0.00015847     8.255e-009      -1.2752e-009   
  -1.65           -0.00016045     1.0337e-008     6.075e-010     
  -1.7            -0.00016272     -1.9935e-008    1.6248e-009    
  -1.75           -0.00016415     -1.4921e-008    1.4413e-009    
  -1.8            -0.00016555     -2.5546e-008    1.2521e-009    
END_DB

BEGIN_DB
 ICCAP_VAR VG         -1.44          
 ICCAP_VAR VS         0              
 ICCAP_VAR VB         0              

 #VD              ID              IB              IG             
  0               -2.3179e-008    1.1899e-008     2.377e-010     
  -0.05           -6.3551e-005    -1.3577e-008    1.189e-010     
  -0.1            -0.00012189     -1.0735e-008    2.251e-010     
  -0.15           -0.00017409     8.257e-009      -1.2763e-009   
  -0.2            -0.00022123     1.0283e-008     6.086e-010     
  -0.25           -0.00026305     -1.9879e-008    1.6257e-009    
  -0.3            -0.00029897     -1.4751e-008    1.4343e-009    
  -0.35           -0.00032992     -1.25e-008      1.604e-010     
  -0.4            -0.0003549      7.737e-009      -2.5709e-009   
  -0.45           -0.00037855     1.2141e-008     1.4925e-009    
  -0.5            -0.00039665     -1.4807e-008    2.6367e-009    
  -0.55           -0.0004123      -1.0608e-008    -1.08e-010     
  -0.6            -0.00042407     1.0136e-008     -2.2223e-009   
  -0.65           -0.00043572     9.74e-009       2.476e-010     
  -0.7            -0.00044688     -1.7227e-008    2.1821e-009    
  -0.75           -0.00045515     -2.3035e-008    1.9255e-009    
  -0.8            -0.00046266     -1.0536e-008    -6.394e-010    
  -0.85           -0.00046882     1.9248e-008     -1.583e-009    
  -0.9            -0.0004759      1.0395e-008     7.325e-010     
  -0.95           -0.00048305     -2.1676e-008    1.4645e-009    
  -1              -0.00048854     -1.2767e-008    1.758e-010     
  -1.05           -0.00049189     7.841e-009      -2.5811e-009   
  -1.1            -0.00049943     1.2105e-008     1.4715e-009    
  -1.15           -0.00050358     -1.4661e-008    2.6604e-009    
  -1.2            -0.00050778     -2.7146e-008    2.483e-009     
  -1.25           -0.00051219     -1.7858e-008    2.049e-009     
  -1.3            -0.00051603     -1.0319e-008    -5.672e-010    
  -1.35           -0.00051921     1.7867e-008     -1.6638e-009   
  -1.4            -0.00052385     1.034e-008      6.681e-010     
  -1.45           -0.00052877     -2.0625e-008    1.5423e-009    
  -1.5            -0.00053266     -1.3936e-008    2.293e-010     
  -1.55           -0.00053446     8.236e-009      -1.2752e-009   
  -1.6            -0.00053886     1.0264e-008     6.116e-010     
  -1.65           -0.00054368     -1.9897e-008    1.6155e-009    
  -1.7            -0.00054741     -1.4736e-008    1.437e-009     
  -1.75           -0.00055066     -2.5582e-008    1.251e-009     
  -1.8            -0.00055398     -2.6693e-008    2.3326e-009    
END_DB

BEGIN_DB
 ICCAP_VAR VG         -1.8           
 ICCAP_VAR VS         0              
 ICCAP_VAR VB         0              

 #VD              ID              IB              IG             
  0               -2.4878e-008    -1.0748e-008    -4.988e-010    
  -0.05           -8.9432e-005    8.656e-009      6.19e-011      
  -0.1            -0.00017466     7.601e-009      -1.72e-010     
  -0.15           -0.0002558      -1.3545e-008    2.7292e-009    
  -0.2            -0.00033223     -2.6732e-008    1.225e-009     
  -0.25           -0.00040413     -1.8312e-008    1.9872e-009    
  -0.3            -0.00047075     -1.0384e-008    -6.108e-010    
  -0.35           -0.00053209     1.878e-008      -1.6199e-009   
  -0.4            -0.00058898     1.0446e-008     7.036e-010     
  -0.45           -0.00064081     -2.1304e-008    1.4955e-009    
  -0.5            -0.00068739     -1.3255e-008    2.011e-010     
  -0.55           -0.00072758     8.018e-009      -2.6085e-009   
  -0.6            -0.00076659     1.1753e-008     1.4407e-009    
  -0.65           -0.00079891     -1.4136e-008    2.6889e-009    
  -0.7            -0.00082757     -2.7067e-008    2.5284e-009    
  -0.75           -0.00085294     -1.7642e-008    2.1054e-009    
  -0.8            -0.00087465     -1.0279e-008    -5.227e-010    
  -0.85           -0.00089315     1.7108e-008     -1.7044e-009   
  -0.9            -0.00091116     1.0273e-008     6.279e-010     
  -0.95           -0.00092785     -2.0396e-008    1.5974e-009    
  -1              -0.00094168     -1.4473e-008    1.4156e-009    
  -1.05           -0.00095396     -2.5918e-008    1.2458e-009    
  -1.1            -0.0009653      -1.7556e-008    2.1003e-009    
  -1.15           -0.00097514     -1.022e-008     -5.265e-010    
  -1.2            -0.00098365     1.7324e-008     -1.7007e-009   
  -1.25           -0.00099289     1.0318e-008     6.349e-010     
  -1.3            -0.0010027      -2.0214e-008    1.5844e-009    
  -1.35           -0.00101048     -1.4165e-008    1.4139e-009    
  -1.4            -0.00101809     -2.5907e-008    1.2414e-009    
  -1.45           -0.00102525     -1.7836e-008    2.0875e-009    
  -1.5            -0.00103151     -1.0295e-008    -5.356e-010    
  -1.55           -0.00103665     1.7313e-008     -1.6892e-009   
  -1.6            -0.00104381     1.0307e-008     6.378e-010     
  -1.65           -0.00105108     -2.0499e-008    1.572e-009     
  -1.7            -0.00105738     -1.418e-008     1.4063e-009    
  -1.75           -0.00106299     -2.5983e-008    1.2426e-009    
  -1.8            -0.00106861     -1.7745e-008    2.0756e-009    
END_DB

BEGIN_DB
 ICCAP_VAR VG         0              
 ICCAP_VAR VS         0              
 ICCAP_VAR VB         0.9            

 #VD              ID              IB              IG             
  0               -1.4354e-009    -8.716e-009     -1.38e-009     
  -0.05           -2.0177e-009    -1.015e-008     -7.46e-011     
  -0.1            -2.1201e-009    -1.0337e-008    -2.639e-010    
  -0.15           -2.1869e-009    -1.066e-008     -4.493e-010    
  -0.2            -5.394e-010     -1.7631e-008    2.5002e-009    
  -0.25           2.1961e-009     -3.873e-009     1.1818e-009    
  -0.3            1.8982e-009     1.0199e-008     -2.121e-010    
  -0.35           8.66e-010       2.3845e-008     -1.5881e-009   
  -0.4            -1.5049e-009    6.763e-009      -1.7047e-009   
  -0.45           -2.1446e-009    -1.0474e-008    -3.307e-010    
  -0.5            -2.2046e-009    -1.0621e-008    -5.282e-010    
  -0.55           -6.059e-010     -1.838e-008     2.4088e-009    
  -0.6            2.1491e-009     -4.726e-009     1.2485e-009    
  -0.65           1.9255e-009     1.0013e-008     -1.577e-010    
  -0.7            1.9986e-009     9.7e-009        -7.6e-012      
  -0.75           2.094e-009      9.74e-009       1.675e-010     
  -0.8            2.1898e-009     1.0264e-008     3.467e-010     
  -0.85           2.2685e-009     1.0468e-008     5.238e-010     
  -0.9            2.3181e-009     1.0372e-008     6.952e-010     
  -0.95           2.3306e-009     1.0027e-008     8.481e-010     
  -1              2.3099e-009     9.992e-009      9.859e-010     
  -1.05           1.7753e-009     1.1727e-008     -1.4924e-009   
  -1.1            -1.3961e-009    7.813e-009      -1.7698e-009   
  -1.15           -2.189e-009     -1.0665e-008    -4.582e-010    
  -1.2            -1.4001e-009    -2.4937e-008    2.5007e-009    
  -1.25           2.1988e-009     -3.932e-009     1.1852e-009    
  -1.3            1.8996e-009     1.0246e-008     -2.132e-010    
  -1.35           8.657e-010      2.3948e-008     -1.5867e-009   
  -1.4            -1.5043e-009    6.763e-009      -1.7e-009      
  -1.45           -2.1467e-009    -1.0445e-008    -3.328e-010    
  -1.5            -2.2067e-009    -1.0686e-008    -5.289e-010    
  -1.55           -6.067e-010     -1.8377e-008    2.416e-009     
  -1.6            2.1498e-009     -4.668e-009     1.2437e-009    
  -1.65           1.9247e-009     1.0011e-008     -1.6e-010      
  -1.7            2.0025e-009     9.68e-009       2.6e-012       
  -1.75           2.0956e-009     9.753e-009      1.629e-010     
  -1.8            2.1904e-009     1.0346e-008     3.427e-010     
END_DB

BEGIN_DB
 ICCAP_VAR VG         -0.36          
 ICCAP_VAR VS         0              
 ICCAP_VAR VB         0.9            

 #VD              ID              IB              IG             
  0               -1.3145e-009    1.0322e-008     -1.3477e-009   
  -0.05           -2.0996e-009    -1.0209e-008    -2.31e-010     
  -0.1            -2.1749e-009    -1.0629e-008    -4.174e-010    
  -0.15           -1.3755e-009    -2.5539e-008    2.5375e-009    
  -0.2            2.2161e-009     -3.564e-009     1.1546e-009    
  -0.25           1.8778e-009     1.0417e-008     -2.42e-010     
  -0.3            8.423e-010      2.3602e-008     -1.6189e-009   
  -0.35           -1.5423e-009    6.33e-009       -1.6781e-009   
  -0.4            -1.5262e-009    -2.0437e-008    2.1967e-009    
  -0.45           2.2226e-009     -6.613e-009     4.393e-010     
  -0.5            2.293e-009      1.0767e-008     6.208e-010     
  -0.55           2.3249e-009     1.0115e-008     7.818e-010     
