! VERSION = 6.00
BEGIN_HEADER
 ICCAP_INPUTS
  VG         V  B GROUND SMU4 0.001 LIN        1    0          -1.8       37   -0.05     
  VS         V  E GROUND SMU2 0.1 CON        0
  VB         V  C GROUND SMU3 0.1 LIN        3    0          1.8        3    0.9       
  VD         V  S GROUND SMU1 0.1 LIN        2    -0.1       -1.8       2    -1.7      
 ICCAP_OUTPUTS
  IG         I  B GROUND SMU4 B
  ID         I  S GROUND SMU1 B
  IB         I  C GROUND SMU3 B
END_HEADER

BEGIN_DB
 ICCAP_VAR VS         0              
 ICCAP_VAR VB         0              
 ICCAP_VAR VD         -0.1           

 #VG              IG              ID              IB             
  0               -9.792e-010     3.763e-010      1.0119e-008    
  -0.05           -1.7384e-009    -1.4478e-009    7.417e-009     
  -0.1            -4.128e-010     -2.1801e-009    -1.0592e-008   
  -0.15           2.5104e-009     -1.3961e-009    -2.4676e-008   
  -0.2            2.107e-010      2.0326e-009     -3.514e-009    
  -0.25           3.955e-010      1.9321e-009     1.0427e-008    
  -0.3            -1.377e-009     1.335e-010      1.0623e-008    
  -0.35           -1.3377e-009    -3.5449e-009    8.845e-009     
  -0.4            -2.6655e-009    -1.2219e-008    -1.9076e-008   
  -0.45           1.2422e-009     -3.5938e-008    -2.623e-008    
  -0.5            2.8329e-009     -1.02255e-007   -1.0352e-008   
  -0.55           -3.334e-010     -2.7781e-007    8.822e-009     
  -0.6            -7.951e-010     -6.8943e-007    -1.0551e-008   
  -0.65           2.7995e-009     -1.5982e-006    1.0068e-008    
  -0.7            1.3252e-009     -3.281e-006     1.0914e-008    
  -0.75           1.7547e-009     -6.0499e-006    1.2692e-008    
  -0.8            6.378e-010      -1.00216e-005   1.0285e-008    
  -0.85           -2.7114e-009    -1.5504e-005    1.0223e-008    
  -0.9            2.3178e-009     -2.2458e-005    -2.6151e-008   
  -0.95           1.6204e-009     -3.0513e-005    -5.157e-009    
  -1              1.2595e-009     -3.9551e-005    -8.995e-009    
  -1.05           2.8453e-009     -4.9339e-005    -1.0138e-008   
  -1.1            2.5402e-009     -5.9433e-005    -4.01e-010     
  -1.15           1.8823e-009     -6.9913e-005    -3.042e-009    
  -1.2            1.3562e-009     -8.0464e-005    -8.81e-009     
  -1.25           2.849e-009      -9.0892e-005    -9.317e-009    
  -1.3            2.7196e-009     -0.000101017    1.03e-010      
  -1.35           1.4386e-009     -0.000111161    1.0535e-008    
  -1.4            2.8518e-009     -0.0001205      9.833e-009     
  -1.45           2.6519e-009     -0.00012965     -1.61e-010     
  -1.5            6.026e-010      -0.00013833     1.024e-008     
  -1.55           9.801e-010      -0.00014675     1.0152e-008    
  -1.6            -1.815e-010     -0.00015456     1.185e-008     
  -1.65           -1.4035e-009    -0.00016193     2.4792e-008    
  -1.7            -1.3086e-009    -0.00016913     8.741e-009     
  -1.75           -2.5117e-009    -0.00017588     7.041e-009     
  -1.8            -1.9537e-009    -0.00018243     1.223e-009     
END_DB

BEGIN_DB
 ICCAP_VAR VS         0              
 ICCAP_VAR VB         0              
 ICCAP_VAR VD         -1.8           

 #VG              IG              ID              IB             
  0               3.34e-011       2.64e-010       9.826e-009     
  -0.05           2.4032e-009     -6.024e-010     -1.8334e-008   
  -0.1            2.981e-010      2.1241e-009     -4.395e-009    
  -0.15           4.901e-010      2.1391e-009     1.0341e-008    
  -0.2            -1.3553e-009    7.8e-010        1.0277e-008    
  -0.25           -2.7114e-009    -2.409e-009     8.866e-009     
  -0.3            1.672e-010      -6.7603e-009    -1.1169e-008   
  -0.35           -1.2906e-009    -1.6868e-008    -1.0408e-008   
  -0.4            -2.3522e-009    -5.0771e-008    8.249e-009     
  -0.45           2.8514e-009     -1.4514e-007    -1.0295e-008   
  -0.5            2.7096e-009     -3.9868e-007    8e-011         
  -0.55           1.4504e-009     -1.02667e-006   1.0508e-008    
  -0.6            -2.4332e-009    -2.3456e-006    -1.9327e-008   
  -0.65           1.649e-009      -5.0921e-006    -1.8117e-008   
  -0.7            2.7497e-009     -9.8737e-006    -8.929e-009    
  -0.75           -2.4546e-009    -1.7444e-005    1.0002e-008    
  -0.8            -6.545e-010     -2.8952e-005    -1.0465e-008   
  -0.85           1.7821e-009     -4.5058e-005    -1.9223e-008   
  -0.9            1.3059e-009     -6.5766e-005    -8.93e-009     
  -0.95           2.8534e-009     -9.1679e-005    -9.398e-009    
  -1              2.4234e-009     -0.00012247     1.282e-008     
  -1.05           1.7487e-009     -0.00015879     -3.968e-009    
  -1.1            1.3018e-009     -0.00020022     -8.919e-009    
  -1.15           2.8528e-009     -0.00024611     -9.435e-009    
  -1.2            2.6359e-009     -0.00029602     -1.5e-010      
  -1.25           6.163e-010      -0.00034978     1.0411e-008    
  -1.3            9.985e-010      -0.00040859     1.041e-008     
  -1.35           1.3844e-009     -0.00047072     1.0357e-008    
  -1.4            2.491e-010      -0.00053262     9.93e-009      
  -1.45           6.981e-010      -0.00059999     1.0406e-008    
  -1.5            1.0696e-009     -0.00066986     1.0037e-008    
  -1.55           1.4682e-009     -0.00074176     1.1879e-008    
  -1.6            3.349e-010      -0.00081162     9.829e-009     
  -1.65           7.713e-010      -0.00088676     1.04e-008      
  -1.7            1.1362e-009     -0.00096329     9.857e-009     
  -1.75           1.5496e-009     -0.00104087     1.229e-008     
  -1.8            1.9755e-009     -0.00111711     1.2257e-008    
END_DB

BEGIN_DB
 ICCAP_VAR VS         0              
 ICCAP_VAR VB         0.9            
 ICCAP_VAR VD         -0.1           

 #VG              IG              ID              IB             
  0               2.1858e-009     2.3013e-009     3.95e-010      
  -0.05           5.749e-010      2.2869e-009     1.0705e-008    
  -0.1            7.479e-010      2.3272e-009     1.0462e-008    
  -0.15           9.035e-010      2.3288e-009     9.944e-009     
  -0.2            1.0505e-009     2.2813e-009     9.844e-009     
  -0.25           1.2038e-009     2.1691e-009     1.0597e-008    
  -0.3            -1.971e-010     1.9119e-009     1.0164e-008    
  -0.35           -1.548e-009     8.88e-010       2.4478e-008    
  -0.4            -1.7314e-009    -1.478e-009     7.443e-009     
  -0.45           2.0391e-009     -1.6681e-009    -1.8036e-008   
  -0.5            5.468e-010      1.8192e-009     -7.925e-009    
  -0.55           -1.402e-009     -2.2676e-009    1.0458e-008    
  -0.6            -1.3537e-009    -7.9719e-009    8.656e-009     
  -0.65           2.66e-009       -3.0027e-008    1.0601e-008    
  -0.7            6.235e-010      -1.01693e-007   1.046e-008     
  -0.75           2.4131e-009     -3.2342e-007    -1.3579e-008   
  -0.8            1.3673e-009     -9.1555e-007    1.0123e-008    
  -0.85           -1.3437e-009    -2.1458e-006    -1.0506e-008   
  -0.9            -1.2868e-009    -4.5182e-006    8.807e-009     
  -0.95           -2.3106e-009    -8.4021e-006    9.014e-009     
  -1              2.7502e-009     -1.4062e-005    -1.0763e-008   
  -1.05           8.31e-010       -2.1296e-005    1.0274e-008    
  -1.1            1.1969e-009     -3.0087e-005    9.751e-009     
  -1.15           3.98e-011       -3.9435e-005    1.027e-008     
  -1.2            4.882e-010      -4.9784e-005    1.0058e-008    
  -1.25           8.99e-010       -6.0547e-005    1.0544e-008    
  -1.3            1.2669e-009     -7.1421e-005    9.848e-009     
  -1.35           1.6881e-009     -8.193e-005     1.2215e-008    
  -1.4            5.686e-010      -9.1889e-005    1.0268e-008    
  -1.45           9.593e-010      -0.00010187     1.0391e-008    
  -1.5            1.3404e-009     -0.00011142     1.0127e-008    
  -1.55           2.8368e-009     -0.00012021     1.0001e-008    
  -1.6            2.0942e-009     -0.00012879     1.2862e-008    
  -1.65           9.552e-010      -0.00013686     1.0425e-008    
  -1.7            1.3326e-009     -0.00014465     1.0058e-008    
  -1.75           1.7589e-009     -0.00015197     1.275e-008     
  -1.8            6.326e-010      -0.00015868     1.0522e-008    
END_DB

BEGIN_DB
 ICCAP_VAR VS         0              
 ICCAP_VAR VB         0.9            
 ICCAP_VAR VD         -1.8           

 #VG              IG              ID              IB             
  0               1.0607e-009     9.883e-010      9.87e-009      
  -0.05           1.1827e-009     2.1793e-009     1.1476e-008    
  -0.1            -2.137e-010     1.9065e-009     1.0169e-008    
  -0.15           -5.17e-011      1.9842e-009     9.889e-009     
  -0.2            1.201e-010      2.0666e-009     9.874e-009     
  -0.25           3.1e-010        2.1669e-009     1.0382e-008    
  -0.3            4.973e-010      2.2418e-009     1.0472e-008    
  -0.35           6.689e-010      2.2626e-009     1.0264e-008    
  -0.4            -1.3216e-009    1.1358e-009     9.951e-009     
  -0.45           -2.6875e-009    -1.7933e-009    8.059e-009     
  -0.5            2.301e-009      -4.2652e-009    -1.8859e-008   
  -0.55           -1.546e-009     -1.5218e-008    -1.4002e-008   
  -0.6            -1.3507e-009    -5.2969e-008    7.118e-009     
  -0.65           8.932e-010      -1.7919e-007    -1.7138e-008   
  -0.7            1.2707e-009     -5.6855e-007    1.0373e-008    
  -0.75           -1.4022e-009    -1.5149e-006    -1.0363e-008   
  -0.8            -1.3138e-009    -3.7207e-006    8.735e-009     
  -0.85           -2.5464e-009    -8.1017e-006    7.797e-009     
  -0.9            1.3615e-009     -1.6103e-005    -2.6782e-008   
  -0.95           2.158e-010      -2.7671e-005    9.976e-009     
  -1              6.61e-010       -4.4679e-005    1.0724e-008    
  -1.05           1.0323e-009     -6.744e-005     1.0309e-008    
  -1.1            1.4316e-009     -9.6034e-005    1.0457e-008    
  -1.15           2.8352e-009     -0.00012895     1.0374e-008    
  -1.2            2.5465e-009     -0.00016812     -4.35e-010     
  -1.25           1.8739e-009     -0.00021231     -3.207e-009    
  -1.3            1.3417e-009     -0.0002611      -8.621e-009    
  -1.35           2.8386e-009     -0.00031392     -9.088e-009    
  -1.4            2.7248e-009     -0.00037012     1.93e-010      
  -1.45           1.4418e-009     -0.00043131     1.1506e-008    
  -1.5            3.001e-010      -0.00049177     9.9e-009       
  -1.55           7.426e-010      -0.0005574      1.0491e-008    
  -1.6            1.1065e-009     -0.00062579     9.849e-009     
  -1.65           1.5132e-009     -0.00069617     1.2046e-008    
  -1.7            1.9428e-009     -0.00076657     1.2579e-008    
  -1.75           8.014e-010      -0.00083814     1.0418e-008    
  -1.8            1.1635e-009     -0.0009131      9.742e-009     
END_DB

BEGIN_DB
 ICCAP_VAR VS         0              
 ICCAP_VAR VB         1.8            
 ICCAP_VAR VD         -0.1           

 #VG              IG              ID              IB             
  0               -9.603e-010     -8.9e-010       -2.5058e-008   
  -0.05           -1.7631e-009    -1.4049e-009    7.864e-009     
  -0.1            -4.49e-010      -2.1933e-009    -1.0858e-008   
  -0.15           2.486e-009      -5.499e-010     -1.7789e-008   
  -0.2            1.1909e-009     2.1883e-009     -3.848e-009    
  -0.25           -2.03e-010      1.913e-009      1.0162e-008    
  -0.3            -4.55e-011      1.9881e-009     9.905e-009     
  -0.35           -1.4356e-009    9.962e-010      2.6485e-008    
  -0.4            -1.8219e-009    -1.3217e-009    8.664e-009     
  -0.45           1.7716e-009     -1.6227e-009    -1.4511e-008   
  -0.5            6.965e-010      2.3065e-009     -8.995e-009    
  -0.55           8.518e-010      2.2779e-009     9.896e-009     
  -0.6            -1.3022e-009    1.2537e-009     1.0092e-008    
  -0.65           -2.6147e-009    -2.0017e-009    7.996e-009     
  -0.7            -2.4821e-009    -5.8265e-009    5.42e-010      
  -0.75           2.8412e-009     -2.121e-008     9.801e-009     
  -0.8            2.7274e-009     -8.1901e-008    1.71e-010      
  -0.85           -5.379e-010     -2.8206e-007    7.723e-009     
  -0.9            1.9679e-009     -8.341e-007     -1.8458e-008   
  -0.95           2.4204e-009     -2.0412e-006    1.4533e-008    
  -1              1.3713e-009     -4.5035e-006    1.1059e-008    
  -1.05           2.233e-010      -8.3463e-006    9.783e-009     
  -1.1            -2.6491e-009    -1.412e-005     1.042e-008     
  -1.15           1.748e-010      -2.1771e-005    -1.2565e-008   
  -1.2            1.3851e-009     -3.0653e-005    -2.2919e-008   
  -1.25           2.8326e-009     -4.0511e-005    -9.008e-009    
  -1.3            2.0943e-009     -5.0925e-005    1.2055e-008    
  -1.35           9.41e-010       -6.1585e-005    1.0224e-008    
  -1.4            1.3215e-009     -7.2316e-005    9.936e-009     
  -1.45           1.7466e-009     -8.2556e-005    1.2558e-008    
  -1.5            6.179e-010      -9.2236e-005    1.0552e-008    
  -1.55           9.972e-010      -0.000101832    1.0256e-008    
  -1.6            1.3795e-009     -0.000110939    1.0247e-008    
  -1.65           2.8422e-009     -0.00011933     9.785e-009     
  -1.7            2.7211e-009     -0.00012744     4.6e-011       
  -1.75           1.4447e-009     -0.00013534     1.1715e-008    
  -1.8            2.997e-010      -0.00014239     9.841e-009     
END_DB

BEGIN_DB
 ICCAP_VAR VS         0              
 ICCAP_VAR VB         1.8            
 ICCAP_VAR VD         -1.8           

 #VG              IG              ID              IB             
  0               7.673e-010      8.264e-010      -1.3619e-008   
  -0.05           9.178e-010      2.3279e-009     -8.824e-009    
  -0.1            1.0599e-009     2.2731e-009     1.0553e-008    
  -0.15           1.2162e-009     2.1578e-009     1.0628e-008    
  -0.2            -1.843e-010     1.9246e-009     1.012e-008     
  -0.25           -1.5365e-009    8.973e-010      2.4835e-008    
  -0.3            -1.7376e-009    -1.4513e-009    7.312e-009     
  -0.35           2.036e-009      -1.5683e-009    -1.7786e-008   
  -0.4            5.436e-010      2.2635e-009     -7.927e-009    
  -0.45           7.133e-010      2.2915e-009     1.0278e-008    
  -0.5            -1.3181e-009    1.209e-009      9.897e-009     
  -0.55           -2.6842e-009    -1.6619e-009    7.671e-009     
  -0.6            2.2339e-009     -4.1454e-009    -1.8932e-008   
  -0.65           -1.5245e-009    -1.5783e-008    -1.3539e-008   
  -0.7            -1.346e-009     -6.0876e-008    7.428e-009     
  -0.75           9.216e-010      -2.227e-007     -1.7121e-008   
  -0.8            1.2933e-009     -7.295e-007     1.0054e-008    
  -0.85           -1.5485e-009    -1.9751e-006    -1.0782e-008   
  -0.9            -1.3516e-009    -4.8195e-006    7.061e-009     
  -0.95           -1.2938e-009    -1.03223e-005   8.821e-009     
  -1              2.7668e-009     -2.0021e-005    -5.365e-009    
  -1.05           1.4082e-009     -3.4417e-005    1.14e-008      
  -1.1            2.633e-010      -5.342e-005     9.886e-009     
  -1.15           7.04e-010       -7.9064e-005    1.0605e-008    
  -1.2            1.0673e-009     -0.000110866    9.984e-009     
  -1.25           2.7196e-009     -0.00014727     1.0928e-008    
  -1.3            1.8097e-009     -0.00019027     1.2961e-008    
  -1.35           6.824e-010      -0.00023608     1.0665e-008    
  -1.4            1.0514e-009     -0.00028808     1.0195e-008    
  -1.45           1.4491e-009     -0.00034395     1.0618e-008    
  -1.5            3.081e-010      -0.00040033     9.863e-009     
  -1.55           7.444e-010      -0.00046216     1.0481e-008    
  -1.6            1.1046e-009     -0.00052726     9.865e-009     
  -1.65           1.5095e-009     -0.00059429     1.2144e-008    
  -1.7            1.9259e-009     -0.00066202     1.2567e-008    
  -1.75           7.975e-010      -0.00073096     1.0432e-008    
  -1.8            1.1524e-009     -0.00080375     9.784e-009     
END_DB

