! VERSION = 6.00
BEGIN_HEADER
 ICCAP_INPUTS
  VG         V  B GROUND SMU4 0.001 LIN        1    0          -1.8       37   -0.05     
  VS         V  E GROUND SMU2 0.1 CON        0
  VB         V  C GROUND SMU3 0.1 LIN        3    0          1.8        3    0.9       
  VD         V  S GROUND SMU1 0.1 LIN        2    -0.1       -1.8       2    -1.7      
 ICCAP_OUTPUTS
  IG         I  B GROUND SMU4 B
  ID         I  S GROUND SMU1 B
  IB         I  C GROUND SMU3 B
END_HEADER

BEGIN_DB
 ICCAP_VAR VS         0              
 ICCAP_VAR VB         0              
 ICCAP_VAR VD         -0.1           

 #VG              IG              ID              IB             
  0               -9.988e-010     3.916e-010      1.0531e-008    
  -0.05           -1.7432e-009    -1.4792e-009    7.168e-009     
  -0.1            2.0536e-009     -1.5824e-009    -1.8748e-008   
  -0.15           5.137e-010      2.2934e-009     -7.774e-009    
  -0.2            6.818e-010      2.3439e-009     1.0753e-008    
  -0.25           8.438e-010      2.3353e-009     1.0536e-008    
  -0.3            9.997e-010      2.2736e-009     1.0158e-008    
  -0.35           -1.2795e-009    1.5164e-009     1.0414e-008    
  -0.4            -2.4255e-009    -1.4728e-009    1.0786e-008    
  -0.45           2.1236e-009     -2.9646e-009    -1.9663e-008   
  -0.5            1.8121e-009     -4.5673e-009    -7.098e-009    
  -0.55           -2.3642e-009    -1.8762e-008    -2.6486e-008   
  -0.6            -7.346e-010     -6.2625e-008    -1.0529e-008   
  -0.65           -2.4421e-009    -1.9251e-007    1.0414e-008    
  -0.7            1.4601e-009     -5.7109e-007    -1.5392e-008   
  -0.75           2.0544e-009     -1.4232e-006    7.837e-009     
  -0.8            8.831e-010      -3.1607e-006    1.0846e-008    
  -0.85           1.2616e-009     -6.2772e-006    1.003e-008     
  -0.9            9.28e-011       -1.08014e-005   9.9e-009       
  -0.95           -1.3343e-009    -1.7102e-005    2.7153e-008    
  -1              2.1826e-009     -2.5392e-005    -1.7383e-008   
  -1.05           1.5059e-009     -3.4767e-005    -6.342e-009    
  -1.1            2.8343e-009     -4.5182e-005    -8.984e-009    
  -1.15           8.898e-010      -5.6198e-005    1.0766e-008    
  -1.2            1.2699e-009     -6.778e-005     1.0011e-008    
  -1.25           1.004e-010      -7.8841e-005    9.95e-009      
  -1.3            5.446e-010      -9.0306e-005    9.659e-009     
  -1.35           9.416e-010      -0.000101522    1.0674e-008    
  -1.4            1.3261e-009     -0.000112319    1.014e-008     
  -1.45           2.7721e-009     -0.00012234     1.0688e-008    
  -1.5            1.8419e-009     -0.00013217     1.2742e-008    
  -1.55           6.875e-010      -0.00014113     1.0225e-008    
  -1.6            1.0672e-009     -0.00015003     1.0328e-008    
  -1.65           1.4711e-009     -0.00015837     1.1724e-008    
  -1.7            3.12e-010       -0.00016587     9.55e-009      
  -1.75           7.412e-010      -0.00017337     1.0303e-008    
  -1.8            1.1193e-009     -0.00018048     1.0306e-008    
END_DB

BEGIN_DB
 ICCAP_VAR VS         0              
 ICCAP_VAR VB         0              
 ICCAP_VAR VD         -1.8           

 #VG              IG              ID              IB             
  0               -1.3505e-009    -1.3671e-009    -9.244e-009    
  -0.05           -1.7e-010       -2.1094e-009    -9.923e-009    
  -0.1            -3.624e-010     -2.2034e-009    -1.0232e-008   
  -0.15           1.2084e-009     -1.3757e-009    -2.6009e-008   
  -0.2            2.8786e-009     -2.13e-011      -1.0719e-008   
  -0.25           6.183e-010      2.1972e-009     3.52e-010      
  -0.3            -1.3174e-009    8.464e-010      1.0466e-008    
  -0.35           -2.7231e-009    -2.5479e-009    8.317e-009     
  -0.4            2.3652e-009     -6.1903e-009    -1.9057e-008   
  -0.45           -1.2883e-009    -1.9263e-008    -9.945e-009    
  -0.5            -2.3943e-009    -6.1773e-008    8.612e-009     
  -0.55           1.8606e-009     -1.9158e-007    -2.7147e-008   
  -0.6            6.998e-010      -5.4924e-007    1.0353e-008    
  -0.65           -2.0736e-009    -1.4225e-006    -1.4183e-008   
  -0.7            7.34e-011       -3.4537e-006    -1.1373e-008   
  -0.75           1.2842e-009     -7.325e-006     -2.4673e-008   
  -0.8            -6.89e-011      -1.4074e-005    8.02e-009      
  -0.85           -5.213e-010     -2.4633e-005    -9.835e-009    
  -0.9            1.935e-009      -4.0295e-005    -2.3412e-008   
  -0.95           1.348e-009      -6.1438e-005    -8.439e-009    
  -1              2.8745e-009     -8.8553e-005    -8.995e-009    
  -1.05           2.6117e-009     -0.00012109     1.0123e-008    
  -1.1            1.6095e-009     -0.00016111     1.2524e-008    
  -1.15           2.0354e-009     -0.00020517     1.2719e-008    
  -1.2            8.672e-010      -0.00025447     1.0832e-008    
  -1.25           1.2488e-009     -0.00030982     1.0529e-008    
  -1.3            8.05e-011       -0.00036682     9.981e-009     
  -1.35           5.24e-010       -0.00042946     9.846e-009     
  -1.4            9.289e-010      -0.00049602     1.0753e-008    
  -1.45           1.3187e-009     -0.00056589     1.086e-008     
  -1.5            1.526e-010      -0.00063461     9.691e-009     
  -1.55           5.961e-010      -0.00070871     1.0069e-008    
  -1.6            9.905e-010      -0.00078507     1.0675e-008    
  -1.65           1.3915e-009     -0.00086332     1.1281e-008    
  -1.7            1.8199e-009     -0.00094165     1.2867e-008    
  -1.75           6.642e-010      -0.00101952     1.0345e-008    
  -1.8            1.0553e-009     -0.00110131     1.0534e-008    
END_DB

BEGIN_DB
 ICCAP_VAR VS         0              
 ICCAP_VAR VB         0.9            
 ICCAP_VAR VD         -0.1           

 #VG              IG              ID              IB             
  0               -3.67e-011      2.108e-010      1.0345e-008    
  -0.05           2.2888e-009     -6.549e-010     -1.971e-008    
  -0.1            1.3286e-009     2.0609e-009     -5.651e-009    
  -0.15           -1.4049e-009    1.8623e-009     1.2583e-008    
  -0.2            -1.8625e-009    -1.2891e-009    8.614e-009     
  -0.25           1.6907e-009     -1.6558e-009    -1.3956e-008   
  -0.3            7.37e-010       2.3491e-009     -9.277e-009    
  -0.35           8.915e-010      2.3308e-009     1.0469e-008    
  -0.4            1.0476e-009     2.2704e-009     1.0427e-008    
  -0.45           1.2066e-009     2.153e-009      1.1487e-008    
  -0.5            -1.946e-010     1.9095e-009     9.881e-009     
  -0.55           -3.06e-011      1.888e-009      9.495e-009     
  -0.6            1.4e-010        1.5406e-009     9.473e-009     
  -0.65           -1.2907e-009    -2.4111e-009    9.899e-009     
  -0.7            -2.3112e-009    -1.1553e-008    -1.4327e-008   
  -0.75           -3.309e-010     -4.3802e-008    -1.0011e-008   
  -0.8            -2.6288e-009    -1.5284e-007    1.0536e-008    
  -0.85           -2.1815e-009    -4.9351e-007    4.17e-010      
  -0.9            -2.1918e-009    -1.3907e-006    -1.7526e-008   
  -0.95           -2.047e-010     -3.3553e-006    -1.0289e-008   
  -1              -6.718e-010     -6.7668e-006    -1.0466e-008   
  -1.05           2.2631e-009     -1.2082e-005    -1.1807e-008   
  -1.1            1.1099e-009     -1.9384e-005    1.0628e-008    
  -1.15           1.5288e-009     -2.8357e-005    1.0761e-008    
  -1.2            3.743e-010      -3.8115e-005    9.46e-009      
  -1.25           8.053e-010      -4.9144e-005    1.1019e-008    
  -1.3            1.1835e-009     -6.0653e-005    1.0337e-008    
  -1.35           1.6079e-009     -7.2113e-005    1.1191e-008    
  -1.4            2.038e-009      -8.3149e-005    1.2413e-008    
  -1.45           8.729e-010      -9.3979e-005    1.0683e-008    
  -1.5            1.2544e-009     -0.00010452     1.0298e-008    
  -1.55           1.9771e-009     -0.00011423     9.704e-009     
  -1.6            1.3637e-009     -0.00012365     -8.432e-009    
  -1.65           2.8696e-009     -0.00013258     -9.16e-009     
  -1.7            2.758e-009      -0.0001409      5.38e-010      
  -1.75           1.4119e-009     -0.00014903     1.1155e-008    
  -1.8            1.8495e-009     -0.00015651     1.2684e-008    
END_DB

BEGIN_DB
 ICCAP_VAR VS         0              
 ICCAP_VAR VB         0.9            
 ICCAP_VAR VD         -1.8           

 #VG              IG              ID              IB             
  0               1.1038e-009     1.0011e-009     7.758e-009     
  -0.05           1.1213e-009     2.2324e-009     1.0054e-008    
  -0.1            1.2877e-009     2.0952e-009     1.0856e-008    
  -0.15           -1.26e-010      1.9734e-009     9.674e-009     
  -0.2            4.53e-011       2.0614e-009     9.418e-009     
  -0.25           2.241e-010      2.1724e-009     9.566e-009     
  -0.3            4.141e-010      2.2608e-009     1.0245e-008    
  -0.35           5.989e-010      2.3138e-009     1.0573e-008    
  -0.4            7.696e-010      2.2899e-009     1.0436e-008    
  -0.45           -1.3017e-009    1.2139e-009     1.0363e-008    
  -0.5            -2.671e-009     -1.8714e-009    7.792e-009     
  -0.55           2.077e-009      -4.7048e-009    -2.0332e-008   
  -0.6            -1.4398e-009    -1.6663e-008    -1.2074e-008   
  -0.65           -1.3179e-009    -6.0835e-008    8.534e-009     
  -0.7            1.6537e-009     -2.1924e-007    -2.5768e-008   
  -0.75           2.0824e-009     -6.9289e-007    1.237e-008     
  -0.8            -2.3307e-009    -1.9297e-006    -1.8583e-008   
  -0.85           -3.647e-010     -4.7812e-006    -9.942e-009    
  -0.9            2.1909e-009     -1.03512e-005   -1.777e-008    
  -0.95           -2.314e-009     -1.9611e-005    1.0006e-008    
  -1              1.6809e-009     -3.4311e-005    -2.0116e-008   
  -1.05           1.2481e-009     -5.4601e-005    -8.948e-009    
  -1.1            2.8684e-009     -8.1284e-005    -9.373e-009    
  -1.15           2.0001e-009     -0.00011415     1.23e-010      
  -1.2            1.3698e-009     -0.00015315     -7.973e-009    
  -1.25           2.8645e-009     -0.000198       -8.834e-009    
  -1.3            2.7664e-009     -0.0002474      8.12e-010      
  -1.35           1.4077e-009     -0.00030325     1.1384e-008    
  -1.4            2.446e-010      -0.00035981     9.699e-009     
  -1.45           6.897e-010      -0.00042276     1.0475e-008    
  -1.5            1.0783e-009     -0.00048919     1.0582e-008    
  -1.55           1.4965e-009     -0.00055831     1.1811e-008    
  -1.6            3.345e-010      -0.00062646     9.573e-009     
  -1.65           7.685e-010      -0.00069992     1.081e-008     
  -1.7            1.1554e-009     -0.00077586     1.0556e-008    
  -1.75           1.5803e-009     -0.00085281     1.1069e-008    
  -1.8            4.204e-010      -0.00092758     9.564e-009     
END_DB

BEGIN_DB
 ICCAP_VAR VS         0              
 ICCAP_VAR VB         1.8            
 ICCAP_VAR VD         -0.1           

 #VG              IG              ID              IB             
  0               -1.1663e-009    -1.0527e-009    -1.9653e-008   
  -0.05           1.6275e-009     -1.6692e-009    -1.3272e-008   
  -0.1            7.827e-010      2.3474e-009     -9.233e-009    
  -0.15           9.394e-010      2.3215e-009     1.0344e-008    
  -0.2            1.0985e-009     2.2498e-009     1.0038e-008    
  -0.25           1.2591e-009     2.1189e-009     1.0782e-008    
  -0.3            -1.444e-010     1.9659e-009     9.849e-009     
  -0.35           2.67e-011       2.0509e-009     9.539e-009     
  -0.4            2.132e-010      2.1578e-009     9.563e-009     
  -0.45           4.005e-010      2.2577e-009     1.0265e-008    
  -0.5            5.836e-010      2.3191e-009     1.0876e-008    
  -0.55           7.613e-010      2.3383e-009     1.0696e-008    
  -0.6            9.25e-010       2.2802e-009     1.0415e-008    
  -0.65           -1.2883e-009    1.3435e-009     1.0026e-008    
  -0.7            -2.5617e-009    -1.9346e-009    9.605e-009     
  -0.75           -2.378e-009     -5.5842e-009    7.32e-010      
  -0.8            2.8701e-009     -1.9685e-008    2.2725e-008    
  -0.85           2.7217e-009     -8.3658e-008    3.68e-010      
  -0.9            -5.606e-010     -3.0515e-007    7.638e-009     
  -0.95           -9.724e-010     -9.2573e-007    -1.105e-008    
  -1              2.7429e-009     -2.4678e-006    1.0475e-008    
  -1.05           1.4626e-009     -5.4185e-006    1.0473e-008    
  -1.1            3.068e-010      -9.9862e-006    9.521e-009     
  -1.15           -2.6642e-009    -1.6665e-005    9.73e-009      
  -1.2            1.895e-010      -2.5263e-005    -1.2812e-008   
  -1.25           1.3784e-009     -3.504e-005     -2.3056e-008   
  -1.3            2.8697e-009     -4.5745e-005    -9.032e-009    
  -1.35           2.7594e-009     -5.6804e-005    5.67e-010      
  -1.4            1.4244e-009     -6.8329e-005    1.0332e-008    
  -1.45           1.8649e-009     -7.9294e-005    1.2786e-008    
  -1.5            7.072e-010      -8.9847e-005    1.0531e-008    
  -1.55           1.0958e-009     -0.000100236    1.0407e-008    
  -1.6            1.5199e-009     -0.000110058    1.0717e-008    
  -1.65           2.8682e-009     -0.0001191      1.0028e-008    
  -1.7            2.5825e-009     -0.0001278      -1.34e-010     
  -1.75           1.9068e-009     -0.00013612     -2.718e-009    
  -1.8            1.3416e-009     -0.00014395     -8.696e-009    
END_DB

BEGIN_DB
 ICCAP_VAR VS         0              
 ICCAP_VAR VB         1.8            
 ICCAP_VAR VD         -1.8           

 #VG              IG              ID              IB             
  0               -7.122e-010     -7.78e-010      -2.6671e-008   
  -0.05           -1.2529e-009    -2.0769e-009    8.843e-009     
  -0.1            1.392e-010      -1.8649e-009    -1.0543e-008   
  -0.15           -9.9e-012       -2.0006e-009    -1.0046e-008   
  -0.2            -1.856e-010     -2.1306e-009    -9.852e-009    
  -0.25           -3.861e-010     -2.223e-009     -1.0296e-008   
  -0.3            2.5221e-009     -5.152e-010     -1.7897e-008   
  -0.35           1.1871e-009     2.181e-009      -3.306e-009    
  -0.4            -2.126e-010     1.8968e-009     9.967e-009     
  -0.45           -4.49e-011      1.9241e-009     9.588e-009     
  -0.5            1.317e-010      1.7776e-009     9.433e-009     
  -0.55           -1.705e-009     -2.0055e-009    9.924e-009     
  -0.6            -2.6431e-009    -7.025e-009     -4.542e-009    
  -0.65           -1.4543e-009    -2.5891e-008    -1.2564e-008   
  -0.7            -1.3167e-009    -9.7594e-008    8.422e-009     
  -0.75           1.5205e-009     -3.536e-007     -2.4284e-008   
  -0.8            3.69e-010       -1.06901e-006   9.366e-009     
  -0.85           -2.464e-009     -2.9035e-006    -1.955e-008    
  -0.9            -5.119e-010     -6.8656e-006    -9.862e-009    
  -0.95           -4.69e-011      -1.4034e-005    -1.068e-008    
  -1              3.958e-010      -2.5856e-005    9.478e-009     
  -1.05           8.355e-010      -4.3474e-005    1.0746e-008    
  -1.1            1.222e-009      -6.7563e-005    1.0501e-008    
  -1.15           6.32e-011       -9.6706e-005    1.0068e-008    
  -1.2            2.2375e-009     -0.00013353     1.0115e-008    
  -1.25           1.092e-009      -0.00017625     1.0709e-008    
  -1.3            1.5051e-009     -0.00022471     1.2155e-008    
  -1.35           3.575e-010      -0.00027554     9.602e-009     
  -1.4            7.996e-010      -0.00033311     1.0689e-008    
  -1.45           1.1822e-009     -0.00039488     1.0454e-008    
  -1.5            1.99e-011       -0.00045707     1.0139e-008    
  -1.55           4.682e-010      -0.00052449     9.618e-009     
  -1.6            8.934e-010      -0.00059485     1.0729e-008    
  -1.65           1.2835e-009     -0.00066783     1.0451e-008    
  -1.7            1.28e-010       -0.00073918     9.77e-009      
  -1.75           5.83e-010       -0.0008153      1.0025e-008    
  -1.8            9.846e-010      -0.0008931      1.0514e-008    
END_DB

