,VG,IB,ID,IG,IS,VD,VS,VB
0,0.0,-3.5945e-10,3.4839e-10,1.23e-13,1.2e-15,1.8,0,0.0
1,0.0225,-4.4709e-10,4.5417e-10,9.17e-13,-9.3e-15,1.8,0,0.0
2,0.045,-6.9056e-10,6.7771e-10,4.4e-13,9.2e-15,1.8,0,0.0
3,0.0675,-1.09907e-09,1.10677e-09,1.254e-12,-1.39e-14,1.8,0,0.0
4,0.09,-1.9158e-09,1.9221e-09,2.41e-13,-3.5e-15,1.8,0,0.0
5,0.1125,-3.3901e-09,3.3998e-09,-3e-15,3.1e-15,1.8,0,0.0
6,0.135,-6.1298e-09,6.0884e-09,6.86e-13,-7.7e-15,1.8,0,0.0
7,0.1575,-1.09419e-08,1.09362e-08,6.36e-13,1.11e-14,1.8,0,0.0
8,0.18,-1.9522e-08,1.9527e-08,3.63e-13,-1.8e-14,1.8,0,0.0
9,0.2025,-3.4583e-08,3.4615e-08,1.57e-13,-1e-16,1.8,0,0.0
10,0.225,-6.0462e-08,6.0498e-08,-3.02e-13,7.1e-15,1.8,0,0.0
11,0.2475,-1.04144e-07,1.0402e-07,5.82e-13,-6.8e-15,1.8,0,0.0
12,0.27,-1.7612e-07,1.7628e-07,5.59e-13,-1.3e-15,1.8,0,0.0
13,0.2925,-2.9504e-07,2.9524e-07,1.93e-13,-5.8e-15,1.8,0,0.0
14,0.315,-4.9098e-07,4.9028e-07,5.11e-13,-1.09e-14,1.8,0,0.0
15,0.3375,-8.1244e-07,8.1256e-07,1.9e-13,-1.61e-14,1.8,0,0.0
16,0.36,-1.3559e-06,1.3577e-06,5.74e-13,-4.05e-14,1.8,0,0.0
17,0.3825,-2.2924e-06,2.2938e-06,2.86e-13,-1.73e-14,1.8,0,0.0
18,0.405,-3.9366e-06,3.9361e-06,3.55e-13,-1.21e-14,1.8,0,0.0
19,0.4275,-6.8807e-06,6.8895e-06,5.79e-13,2.8e-15,1.8,0,0.0
20,0.45,-1.2142e-05,1.2148e-05,7.53e-13,-9.9e-15,1.8,0,0.0
21,0.4725,-2.1382e-05,2.138e-05,2.39e-13,-1.87e-14,1.8,0,0.0
22,0.495,-3.7374e-05,3.738e-05,4.79e-13,-1.11e-14,1.8,0,0.0
23,0.5175,-6.3962e-05,6.3994e-05,1.448e-12,-2.48e-14,1.8,0,0.0
24,0.54,-0.00010602,0.00010606,7.43e-13,-1.48e-14,1.8,0,0.0
25,0.5625,-0.00016924,0.00016926,3.75e-13,-1.58e-14,1.8,0,0.0
26,0.585,-0.00025882,0.00025876,7.32e-13,-5.6e-15,1.8,0,0.0
27,0.6075,-0.0003775,0.0003775,6.48e-13,-4.2e-15,1.8,0,0.0
28,0.63,-0.00052784,0.00052804,5.59e-13,5.1e-15,1.8,0,0.0
29,0.6525,-0.00070928,0.00070928,7.57e-13,-6.1e-15,1.8,0,0.0
30,0.675,-0.00091966,0.00091976,2.14e-13,-8.4e-15,1.8,0,0.0
31,0.6975,-0.0011558,0.0011558,1.004e-12,3.6e-15,1.8,0,0.0
32,0.72,-0.0014162,0.001416,8.9e-13,8.9e-15,1.8,0,0.0
33,0.7425,-0.0016976,0.0016976,4.29e-13,-3.8e-15,1.8,0,0.0
34,0.765,-0.001997,0.0019968,4.22e-13,5.8e-15,1.8,0,0.0
35,0.7875,-0.0023112,0.0023114,8.06e-13,-1.46e-14,1.8,0,0.0
36,0.81,-0.002641,0.0026412,3.95e-13,-4.7e-15,1.8,0,0.0
37,0.8325,-0.0029832,0.0029826,1.003e-12,-3.1e-15,1.8,0,0.0
38,0.855,-0.003336,0.003336,1.731e-12,-8.8e-15,1.8,0,0.0
39,0.8775,-0.003697,0.0036968,9.2e-13,-1.02e-14,1.8,0,0.0
40,0.9,-0.0040678,0.0040682,4.74e-13,-3e-15,1.8,0,0.0
41,0.9225,-0.0044462,0.004447,8.2e-13,4.7e-15,1.8,0,0.0
42,0.945,-0.0048324,0.0048324,9.8e-14,-1.2e-15,1.8,0,0.0
43,0.9675,-0.005223,0.0052228,9.3e-13,-4.6e-15,1.8,0,0.0
44,0.99,-0.0056202,0.0056202,6.91e-13,-1.4e-15,1.8,0,0.0
45,1.0125,-0.0060228,0.0060224,5.63e-13,-8.3e-15,1.8,0,0.0
46,1.035,-0.0064278,0.0064276,1.306e-12,-1.07e-14,1.8,0,0.0
47,1.0575,-0.0068376,0.0068382,7.07e-13,1e-15,1.8,0,0.0
48,1.08,-0.0072522,0.007253,8.96e-13,-5.3e-15,1.8,0,0.0
49,1.1025,-0.0076678,0.0076686,1.169e-12,0.0,1.8,0,0.0
50,1.125,-0.0080892,0.008089,1.124e-12,1.6e-15,1.8,0,0.0
51,1.1475,-0.0085122,0.0085122,9.98e-13,-3.3e-15,1.8,0,0.0
52,1.17,-0.008938,0.0089376,7.16e-13,-8.2e-15,1.8,0,0.0
53,1.1925,-0.0093658,0.009366,1.978e-12,-5.3e-15,1.8,0,0.0
54,1.215,-0.0097966,0.0097964,5.08e-13,-1.78e-14,1.8,0,0.0
55,1.2375,-0.010228,0.0102284,8.63e-13,-1.18e-14,1.8,0,0.0
56,1.26,-0.0106596,0.01066,6.14e-13,-6.7e-15,1.8,0,0.0
57,1.2825,-0.011094,0.011094,7.89e-13,5e-16,1.8,0,0.0
58,1.305,-0.01153,0.01153,1.103e-12,-2.8e-15,1.8,0,0.0
59,1.3275,-0.011966,0.011966,6.15e-13,-4.5e-15,1.8,0,0.0
60,1.35,-0.0124,0.012406,1.207e-12,0.0,1.8,0,0.0
61,1.3725,-0.012844,0.012846,1.153e-12,-6e-16,1.8,0,0.0
62,1.395,-0.013282,0.013288,7.44e-13,-3e-16,1.8,0,0.0
63,1.4175,-0.013722,0.013728,1.082e-12,-6.3e-15,1.8,0,0.0
64,1.44,-0.014162,0.014168,2.038e-12,-2.3e-15,1.8,0,0.0
65,1.4625,-0.014604,0.014608,8.06e-13,-1.1e-15,1.8,0,0.0
66,1.485,-0.015048,0.015052,1.339e-12,-7.7e-15,1.8,0,0.0
67,1.5075,-0.015488,0.015492,1.059e-12,0.0,1.8,0,0.0
68,1.53,-0.01593,0.015934,1.767e-12,1.9e-15,1.8,0,0.0
69,1.5525,-0.01637,0.016378,1.256e-12,-8.1e-15,1.8,0,0.0
70,1.575,-0.016814,0.016818,1.107e-12,-9e-15,1.8,0,0.0
71,1.5975,-0.017254,0.01726,9.26e-13,3.3e-15,1.8,0,0.0
72,1.62,-0.017694,0.017702,1.838e-12,9e-16,1.8,0,0.0
73,1.6425,-0.018134,0.018138,9.42e-13,6.8e-15,1.8,0,0.0
74,1.665,-0.018574,0.018578,1.41e-12,2.4e-15,1.8,0,0.0
75,1.6875,-0.01901,0.019018,1.362e-12,-6.7e-15,1.8,0,0.0
76,1.71,-0.019442,0.019452,1.861e-12,-1.03e-14,1.8,0,0.0
77,1.7325,-0.019874,0.01988,1.324e-12,2.3e-15,1.8,0,0.0
78,1.755,-0.0203,0.02031,1.432e-12,-1.18e-14,1.8,0,0.0
79,1.7775,-0.020718,0.020734,1.101e-12,-4.7e-15,1.8,0,0.0
80,1.8,-0.021134,0.021148,2.177e-12,-8.7e-15,1.8,0,0.0
