,VD,IB,ID,IG,IS,VG,VB,VS
0,0.0,2.7484e-07,-9.0053e-08,4.171e-13,-5.9e-15,1.2,0.0,0.0
1,0.0225,-0.00034868,0.00034886,4.952e-13,3.1e-15,1.2,0.0,0.0
2,0.045,-0.00069616,0.00069598,3.645e-13,-7e-16,1.2,0.0,0.0
3,0.0675,-0.00104354,0.00104366,3.772e-13,4.6e-15,1.2,0.0,0.0
4,0.09,-0.0013894,0.0013896,4.226e-13,-1.5e-15,1.2,0.0,0.0
5,0.1125,-0.0017328,0.001733,4.21e-13,-4.1e-15,1.2,0.0,0.0
6,0.135,-0.002075,0.0020752,3.883e-13,-2.7e-15,1.2,0.0,0.0
7,0.1575,-0.0024154,0.0024156,3.845e-13,-1e-15,1.2,0.0,0.0
8,0.18,-0.0027542,0.0027536,3.708e-13,-5.2e-15,1.2,0.0,0.0
9,0.2025,-0.0030896,0.003089,3.319e-13,-3.4e-15,1.2,0.0,0.0
10,0.225,-0.0034216,0.0034232,3.113e-13,-8e-16,1.2,0.0,0.0
11,0.2475,-0.0037512,0.0037522,3.149e-13,-8.4e-15,1.2,0.0,0.0
12,0.27,-0.0040766,0.0040776,3.129e-13,4e-15,1.2,0.0,0.0
13,0.2925,-0.0044012,0.0044002,3.383e-13,-1.11e-14,1.2,0.0,0.0
14,0.315,-0.0047228,0.00472,3.774e-13,-9.5e-15,1.2,0.0,0.0
15,0.3375,-0.0050356,0.0050362,4.154e-13,-4.8e-15,1.2,0.0,0.0
16,0.36,-0.005347,0.0053446,4.31e-13,-6.8e-15,1.2,0.0,0.0
17,0.3825,-0.0056516,0.0056484,4.091e-13,8.1e-15,1.2,0.0,0.0
18,0.405,-0.0059452,0.0059454,3.927e-13,-7e-15,1.2,0.0,0.0
19,0.4275,-0.0062316,0.0062312,3.916e-13,-4.2e-15,1.2,0.0,0.0
20,0.45,-0.00651,0.0065064,3.691e-13,-6.4e-15,1.2,0.0,0.0
21,0.4725,-0.0067752,0.0067724,3.659e-13,-3.5e-15,1.2,0.0,0.0
22,0.495,-0.0070256,0.0070262,3.492e-13,-5e-15,1.2,0.0,0.0
23,0.5175,-0.0072602,0.0072604,3.294e-13,-8e-16,1.2,0.0,0.0
24,0.54,-0.0074792,0.0074784,2.626e-13,4.3e-15,1.2,0.0,0.0
25,0.5625,-0.0076798,0.0076782,2.355e-13,-1.1e-15,1.2,0.0,0.0
26,0.585,-0.0078576,0.007857,2.184e-13,4e-16,1.2,0.0,0.0
27,0.6075,-0.008013,0.008013,3.131e-13,6.4e-15,1.2,0.0,0.0
28,0.63,-0.008147,0.0081482,3.259e-13,-6.6e-15,1.2,0.0,0.0
29,0.6525,-0.0082606,0.0082594,3.031e-13,1.1e-15,1.2,0.0,0.0
30,0.675,-0.008353,0.0083542,3.278e-13,-1.6e-15,1.2,0.0,0.0
31,0.6975,-0.0084306,0.0084314,3.044e-13,-1.3e-15,1.2,0.0,0.0
32,0.72,-0.0084956,0.0084958,3.834e-13,-9e-16,1.2,0.0,0.0
33,0.7425,-0.008549,0.0085492,5.552e-13,-6.3e-15,1.2,0.0,0.0
34,0.765,-0.0085948,0.0085956,5.312e-13,2.4e-15,1.2,0.0,0.0
35,0.7875,-0.0086352,0.008635,6.029e-13,-2.2e-15,1.2,0.0,0.0
36,0.81,-0.0086694,0.008671,5.938e-13,1.4e-15,1.2,0.0,0.0
37,0.8325,-0.0087008,0.0087014,6.07e-13,-7.2e-15,1.2,0.0,0.0
38,0.855,-0.0087292,0.0087298,5.734e-13,5.7e-15,1.2,0.0,0.0
39,0.8775,-0.0087562,0.0087568,2.478e-13,-7.6e-15,1.2,0.0,0.0
40,0.9,-0.008782,0.0087814,3.056e-13,-9e-16,1.2,0.0,0.0
41,0.9225,-0.0088056,0.0088062,4.415e-13,-9e-16,1.2,0.0,0.0
42,0.945,-0.0088288,0.0088286,1.938e-13,-1.26e-14,1.2,0.0,0.0
43,0.9675,-0.008851,0.0088514,2.374e-13,7e-15,1.2,0.0,0.0
44,0.99,-0.0088728,0.0088722,1.237e-13,-1.16e-14,1.2,0.0,0.0
45,1.0125,-0.008893,0.0088938,2.427e-13,-5e-15,1.2,0.0,0.0
46,1.035,-0.0089136,0.008914,1.847e-13,4.5e-15,1.2,0.0,0.0
47,1.0575,-0.0089342,0.0089338,2.267e-13,-2.7e-15,1.2,0.0,0.0
48,1.08,-0.0089538,0.0089538,1.849e-13,4.1e-15,1.2,0.0,0.0
49,1.1025,-0.0089728,0.0089736,2.317e-13,-6e-16,1.2,0.0,0.0
50,1.125,-0.0089916,0.0089922,1.944e-13,-1.6e-15,1.2,0.0,0.0
51,1.1475,-0.0090108,0.009011,2.788e-13,1e-15,1.2,0.0,0.0
52,1.17,-0.0090292,0.0090296,1.823e-13,-1.07e-14,1.2,0.0,0.0
53,1.1925,-0.0090474,0.009048,3.038e-13,-7e-15,1.2,0.0,0.0
54,1.215,-0.0090656,0.009066,2.904e-13,-9.7e-15,1.2,0.0,0.0
55,1.2375,-0.009083,0.009084,3.394e-13,-4.7e-15,1.2,0.0,0.0
56,1.26,-0.0091012,0.0091006,2.524e-13,1.3e-15,1.2,0.0,0.0
57,1.2825,-0.0091188,0.0091194,3.631e-13,-7.8e-15,1.2,0.0,0.0
58,1.305,-0.0091362,0.0091364,2.589e-13,-3.3e-15,1.2,0.0,0.0
59,1.3275,-0.0091536,0.0091536,3.8e-13,-5.4e-15,1.2,0.0,0.0
60,1.35,-0.009171,0.0091712,3.022e-13,3.5e-15,1.2,0.0,0.0
61,1.3725,-0.0091876,0.0091884,3.314e-13,-1.79e-14,1.2,0.0,0.0
62,1.395,-0.0092048,0.0092044,2.374e-13,-5.7e-15,1.2,0.0,0.0
63,1.4175,-0.009221,0.0092214,3.443e-13,-5.9e-15,1.2,0.0,0.0
64,1.44,-0.0092374,0.0092374,2.213e-13,3.7e-15,1.2,0.0,0.0
65,1.4625,-0.0092536,0.009254,3.001e-13,-5e-15,1.2,0.0,0.0
66,1.485,-0.0092698,0.0092706,2.005e-13,-8.1e-15,1.2,0.0,0.0
67,1.5075,-0.009286,0.0092872,2.317e-13,-5.7e-15,1.2,0.0,0.0
68,1.53,-0.009303,0.0093028,4.72e-13,7e-16,1.2,0.0,0.0
69,1.5525,-0.009319,0.0093186,1.446e-13,-1.6e-15,1.2,0.0,0.0
70,1.575,-0.0093356,0.0093352,2.194e-13,-4.1e-15,1.2,0.0,0.0
71,1.5975,-0.0093512,0.0093518,1.522e-13,8.1e-15,1.2,0.0,0.0
72,1.62,-0.009367,0.009368,8.84e-14,-5.3e-15,1.2,0.0,0.0
73,1.6425,-0.0093834,0.0093838,1.47e-13,3e-15,1.2,0.0,0.0
74,1.665,-0.0093994,0.0093994,2.709e-13,-8.7e-15,1.2,0.0,0.0
75,1.6875,-0.009415,0.0094152,1.604e-13,-7e-16,1.2,0.0,0.0
76,1.71,-0.0094306,0.0094308,2.856e-13,-6e-16,1.2,0.0,0.0
77,1.7325,-0.0094462,0.0094464,1.837e-13,6.8e-15,1.2,0.0,0.0
78,1.755,-0.0094604,0.0094614,2.742e-13,-1.1e-15,1.2,0.0,0.0
79,1.7775,-0.0094764,0.0094764,2.087e-13,2.9e-15,1.2,0.0,0.0
80,1.8,-0.009492,0.009492,3.347e-13,-9.4e-15,1.2,0.0,0.0
