,VG,IB,ID,IG,IS,VD,VS,VB
0,0.0,-1.9378e-10,2.0107e-10,-3.38e-13,-7.5e-15,1.8,0,0.0
1,0.0225,-1.9313e-10,1.789e-10,1.442e-12,2.6e-15,1.8,0,0.0
2,0.045,-1.8384e-10,1.8148e-10,3.73e-13,-2.9e-15,1.8,0,0.0
3,0.0675,-2.1028e-10,2.0905e-10,8.52e-13,-1.38e-14,1.8,0,0.0
4,0.09,-2.7793e-10,2.9492e-10,3.89e-13,-1.14e-14,1.8,0,0.0
5,0.1125,-5.0812e-10,4.8123e-10,1.31e-13,3e-15,1.8,0,0.0
6,0.135,-8.6598e-10,8.5683e-10,4.97e-13,4e-16,1.8,0,0.0
7,0.1575,-1.6265e-09,1.5971e-09,3.8e-14,-7.1e-15,1.8,0,0.0
8,0.18,-3.0504e-09,3.0451e-09,4.86e-13,-9e-15,1.8,0,0.0
9,0.2025,-5.8875e-09,5.8786e-09,1.178e-12,7.7e-15,1.8,0,0.0
10,0.225,-1.144e-08,1.144e-08,1.31e-13,-9.8e-15,1.8,0,0.0
11,0.2475,-2.2343e-08,2.2321e-08,1.07e-12,-8.9e-15,1.8,0,0.0
12,0.27,-4.3526e-08,4.3483e-08,5.87e-13,7.8e-15,1.8,0,0.0
13,0.2925,-8.4976e-08,8.5045e-08,6.44e-13,-2e-15,1.8,0,0.0
14,0.315,-1.662e-07,1.6644e-07,6.33e-13,-2.6e-15,1.8,0,0.0
15,0.3375,-3.244e-07,3.2462e-07,5.47e-13,5.4e-15,1.8,0,0.0
16,0.36,-6.3364e-07,6.338e-07,3.37e-13,3.6e-15,1.8,0,0.0
17,0.3825,-1.2332e-06,1.2375e-06,9.75e-13,-2.4e-15,1.8,0,0.0
18,0.405,-2.3875e-06,2.3875e-06,6.43e-13,-2e-15,1.8,0,0.0
19,0.4275,-4.5916e-06,4.5935e-06,9.22e-13,1.8e-15,1.8,0,0.0
20,0.45,-8.7443e-06,8.7512e-06,2.89e-13,-4.3e-15,1.8,0,0.0
21,0.4725,-1.6342e-05,1.6364e-05,1.05e-13,2.8e-15,1.8,0,0.0
22,0.495,-3.0024e-05,3.002e-05,7.12e-13,-1.03e-14,1.8,0,0.0
23,0.5175,-5.3744e-05,5.3738e-05,6.33e-13,3.2e-15,1.8,0,0.0
24,0.54,-9.295e-05,9.2962e-05,8.08e-13,-5.2e-15,1.8,0,0.0
25,0.5625,-0.00015518,0.00015522,3.05e-13,-8.7e-15,1.8,0,0.0
26,0.585,-0.0002484,0.00024844,2.39e-13,3e-16,1.8,0,0.0
27,0.6075,-0.00037972,0.00037972,9.16e-13,1.15e-14,1.8,0,0.0
28,0.63,-0.00055568,0.0005561,7.26e-13,-1.76e-14,1.8,0,0.0
29,0.6525,-0.00077872,0.00077872,2.68e-13,-1.14e-14,1.8,0,0.0
30,0.675,-0.0010496,0.0010492,1.135e-12,3.8e-15,1.8,0,0.0
31,0.6975,-0.0013638,0.001364,7.24e-13,-3.9e-15,1.8,0,0.0
32,0.72,-0.0017214,0.0017214,4.47e-13,9e-16,1.8,0,0.0
33,0.7425,-0.0021168,0.0021166,8.22e-13,-5.3e-15,1.8,0,0.0
34,0.765,-0.002546,0.0025466,9.39e-13,-6e-15,1.8,0,0.0
35,0.7875,-0.0030038,0.003004,7.07e-13,2.7e-15,1.8,0,0.0
36,0.81,-0.0034894,0.0034896,6.85e-13,1.9e-15,1.8,0,0.0
37,0.8325,-0.0039992,0.0039992,6.7e-13,0.0,1.8,0,0.0
38,0.855,-0.0045292,0.0045298,9.15e-13,3.5e-15,1.8,0,0.0
39,0.8775,-0.0050762,0.0050764,8.62e-13,-7e-16,1.8,0,0.0
40,0.9,-0.0056416,0.0056426,8.15e-13,-1.5e-15,1.8,0,0.0
41,0.9225,-0.0062218,0.0062218,1.327e-12,-5.5e-15,1.8,0,0.0
42,0.945,-0.0068146,0.0068152,5.51e-13,-5.7e-15,1.8,0,0.0
43,0.9675,-0.0074172,0.0074178,8.96e-13,2e-15,1.8,0,0.0
44,0.99,-0.0080324,0.0080322,5.99e-13,-3.6e-15,1.8,0,0.0
45,1.0125,-0.008655,0.008655,1.73e-12,0.0,1.8,0,0.0
46,1.035,-0.0092854,0.0092858,1.294e-12,-7.5e-15,1.8,0,0.0
47,1.0575,-0.0099252,0.0099254,4.25e-13,-3.8e-15,1.8,0,0.0
48,1.08,-0.0105718,0.010574,3.95e-13,-5e-16,1.8,0,0.0
49,1.1025,-0.011218,0.011224,1.124e-12,-6e-15,1.8,0,0.0
50,1.125,-0.011878,0.01188,5.8e-13,-1.38e-14,1.8,0,0.0
51,1.1475,-0.012536,0.012542,8.75e-13,-1.78e-14,1.8,0,0.0
52,1.17,-0.0132,0.013206,1.023e-12,4.4e-15,1.8,0,0.0
53,1.1925,-0.013872,0.013874,1.644e-12,-5.1e-15,1.8,0,0.0
54,1.215,-0.014542,0.014548,8.37e-13,6e-16,1.8,0,0.0
55,1.2375,-0.01522,0.015224,6.43e-13,-1.13e-14,1.8,0,0.0
56,1.26,-0.015894,0.015898,7.68e-13,-4.9e-15,1.8,0,0.0
57,1.2825,-0.016572,0.016574,1.941e-12,-5.7e-15,1.8,0,0.0
58,1.305,-0.017252,0.017258,7.2e-13,-4.9e-15,1.8,0,0.0
59,1.3275,-0.01793,0.017932,1.165e-12,-3.6e-15,1.8,0,0.0
60,1.35,-0.01861,0.018614,9.61e-13,-1.61e-14,1.8,0,0.0
61,1.3725,-0.019294,0.0193,1.863e-12,-5.3e-15,1.8,0,0.0
62,1.395,-0.019976,0.01998,1.313e-12,6e-16,1.8,0,0.0
63,1.4175,-0.020658,0.020664,8.53e-13,-7.8e-15,1.8,0,0.0
64,1.44,-0.021338,0.021342,1.169e-12,-1.49e-14,1.8,0,0.0
65,1.4625,-0.022022,0.022028,1.922e-12,-3e-15,1.8,0,0.0
66,1.485,-0.022706,0.022708,7.1e-13,-8.9e-15,1.8,0,0.0
67,1.5075,-0.023382,0.023382,1.395e-12,-9e-15,1.8,0,0.0
68,1.53,-0.02406,0.024062,6.87e-13,5.5e-15,1.8,0,0.0
69,1.5525,-0.02474,0.024738,1.873e-12,-3.3e-15,1.8,0,0.0
70,1.575,-0.025404,0.025412,1.268e-12,-5.4e-15,1.8,0,0.0
71,1.5975,-0.02608,0.026084,7.99e-13,-2.8e-15,1.8,0,0.0
72,1.62,-0.026754,0.026758,9.7e-13,-1.29e-14,1.8,0,0.0
73,1.6425,-0.027424,0.027428,2.375e-12,9.8e-15,1.8,0,0.0
74,1.665,-0.02809,0.028092,9.31e-13,-1.5e-15,1.8,0,0.0
75,1.6875,-0.028754,0.028758,1.226e-12,-1.9e-15,1.8,0,0.0
76,1.71,-0.029416,0.029422,1.225e-12,-1.2e-14,1.8,0,0.0
77,1.7325,-0.030074,0.030082,1.234e-12,-2.3e-14,1.8,0,0.0
78,1.755,-0.03073,0.030734,1.582e-12,-1.01e-14,1.8,0,0.0
79,1.7775,-0.03139,0.031394,1.167e-12,-1.4e-15,1.8,0,0.0
80,1.8,-0.032042,0.03204,8.71e-13,-1.7e-15,1.8,0,0.0
