,VD,IB,ID,IG,IS,VG,VB,VS
0,0.0,3.7308e-07,-5.9578e-08,3.894e-13,-4.3e-15,1.2,0.0,0.0
1,0.0225,-0.0007108,0.0007108,3.84e-13,5.1e-15,1.2,0.0,0.0
2,0.045,-0.0014148,0.0014144,3.278e-13,-4.5e-15,1.2,0.0,0.0
3,0.0675,-0.002115,0.002115,4.216e-13,-4.9e-15,1.2,0.0,0.0
4,0.09,-0.0028088,0.0028082,4.281e-13,-1.7e-15,1.2,0.0,0.0
5,0.1125,-0.0034922,0.0034924,4.257e-13,-9.6e-15,1.2,0.0,0.0
6,0.135,-0.0041684,0.0041688,4.119e-13,-7.8e-15,1.2,0.0,0.0
7,0.1575,-0.0048352,0.0048346,4.036e-13,3e-15,1.2,0.0,0.0
8,0.18,-0.0054898,0.0054898,3.888e-13,-1.43e-14,1.2,0.0,0.0
9,0.2025,-0.006129,0.0061286,3.76e-13,-1.38e-14,1.2,0.0,0.0
10,0.225,-0.0067544,0.0067546,3.519e-13,1.5e-15,1.2,0.0,0.0
11,0.2475,-0.0073626,0.0073628,3.277e-13,-7.8e-15,1.2,0.0,0.0
12,0.27,-0.007948,0.0079472,3.18e-13,-1.74e-14,1.2,0.0,0.0
13,0.2925,-0.0085112,0.0085108,3.314e-13,-2.79e-14,1.2,0.0,0.0
14,0.315,-0.0090456,0.0090464,3.522e-13,3.03e-14,1.2,0.0,0.0
15,0.3375,-0.0095472,0.0095472,3.278e-13,4.7e-15,1.2,0.0,0.0
16,0.36,-0.0100166,0.0100158,3.128e-13,-2.65e-14,1.2,0.0,0.0
17,0.3825,-0.0104438,0.0104444,2.651e-13,9.2e-15,1.2,0.0,0.0
18,0.405,-0.0108306,0.0108292,2.404e-13,-6.9e-15,1.2,0.0,0.0
19,0.4275,-0.0111684,0.0111688,2.363e-13,-1.29e-14,1.2,0.0,0.0
20,0.45,-0.0114588,0.0114584,2.484e-13,-2e-15,1.2,0.0,0.0
21,0.4725,-0.0117,0.011708,3.321e-13,-1.03e-14,1.2,0.0,0.0
22,0.495,-0.011906,0.011912,3.988e-13,2.4e-15,1.2,0.0,0.0
23,0.5175,-0.012068,0.012078,4.081e-13,-6.7e-15,1.2,0.0,0.0
24,0.54,-0.012208,0.012212,3.776e-13,-2.4e-15,1.2,0.0,0.0
25,0.5625,-0.012316,0.012322,3.891e-13,3.9e-15,1.2,0.0,0.0
26,0.585,-0.012408,0.01241,5.758e-13,-5e-16,1.2,0.0,0.0
27,0.6075,-0.012484,0.01249,5.609e-13,-5e-15,1.2,0.0,0.0
28,0.63,-0.01255,0.012556,5.628e-13,1.07e-14,1.2,0.0,0.0
29,0.6525,-0.012612,0.012616,5.576e-13,3.3e-15,1.2,0.0,0.0
30,0.675,-0.012658,0.012664,5.045e-13,-1.19e-14,1.2,0.0,0.0
31,0.6975,-0.012704,0.012712,5.277e-13,4e-16,1.2,0.0,0.0
32,0.72,-0.012754,0.012756,5.647e-13,8.5e-15,1.2,0.0,0.0
33,0.7425,-0.012796,0.012798,5.013e-13,-1.61e-14,1.2,0.0,0.0
34,0.765,-0.012834,0.012836,5.345e-13,3.4e-15,1.2,0.0,0.0
35,0.7875,-0.01287,0.012876,4.999e-13,-4.6e-15,1.2,0.0,0.0
36,0.81,-0.012902,0.01291,2.231e-13,-2e-15,1.2,0.0,0.0
37,0.8325,-0.012938,0.012946,3.053e-13,5e-15,1.2,0.0,0.0
38,0.855,-0.012976,0.012976,4.677e-13,7e-16,1.2,0.0,0.0
39,0.8775,-0.013008,0.013012,4.4e-13,-6e-16,1.2,0.0,0.0
40,0.9,-0.01304,0.013048,4.797e-13,1.6e-15,1.2,0.0,0.0
41,0.9225,-0.01307,0.013078,4.357e-13,1.6e-15,1.2,0.0,0.0
42,0.945,-0.013102,0.013104,4.096e-13,1.2e-15,1.2,0.0,0.0
43,0.9675,-0.01313,0.013138,4.807e-13,-9.6e-15,1.2,0.0,0.0
44,0.99,-0.01316,0.013164,4.326e-13,-5e-15,1.2,0.0,0.0
45,1.0125,-0.01319,0.013198,1.51e-13,1.8e-15,1.2,0.0,0.0
46,1.035,-0.013218,0.013228,2.578e-13,4.2e-15,1.2,0.0,0.0
47,1.0575,-0.01325,0.013254,4.196e-13,-1.06e-14,1.2,0.0,0.0
48,1.08,-0.013276,0.013282,1.606e-13,-1e-16,1.2,0.0,0.0
49,1.1025,-0.013306,0.01331,1.976e-13,-1.9e-15,1.2,0.0,0.0
50,1.125,-0.013334,0.013338,4.351e-13,7.7e-15,1.2,0.0,0.0
51,1.1475,-0.01336,0.013366,4.342e-13,1.39e-14,1.2,0.0,0.0
52,1.17,-0.013388,0.013392,1.522e-13,-1.2e-14,1.2,0.0,0.0
53,1.1925,-0.013414,0.013422,2.562e-13,-3.16e-14,1.2,0.0,0.0
54,1.215,-0.013444,0.013448,4.468e-13,1.32e-14,1.2,0.0,0.0
55,1.2375,-0.013472,0.013476,4.484e-13,-4.8e-15,1.2,0.0,0.0
56,1.26,-0.013494,0.013502,4.206e-13,-3.2e-15,1.2,0.0,0.0
57,1.2825,-0.01352,0.013526,1.821e-13,-1.35e-14,1.2,0.0,0.0
58,1.305,-0.013546,0.013554,2.755e-13,-3.2e-15,1.2,0.0,0.0
59,1.3275,-0.013572,0.013578,5.061e-13,-9.2e-15,1.2,0.0,0.0
60,1.35,-0.0136,0.013608,5.014e-13,-5.4e-15,1.2,0.0,0.0
61,1.3725,-0.013626,0.01363,2.267e-13,5.7e-15,1.2,0.0,0.0
62,1.395,-0.013652,0.013656,3.038e-13,6.6e-15,1.2,0.0,0.0
63,1.4175,-0.013678,0.013686,4.933e-13,-3.2e-15,1.2,0.0,0.0
64,1.44,-0.013704,0.01371,2.108e-13,-2.7e-15,1.2,0.0,0.0
65,1.4625,-0.013728,0.013734,3.163e-13,-1.08e-14,1.2,0.0,0.0
66,1.485,-0.013752,0.01376,1.952e-13,-3.3e-15,1.2,0.0,0.0
67,1.5075,-0.013778,0.013784,3.041e-13,-8e-15,1.2,0.0,0.0
68,1.53,-0.013802,0.013808,2.708e-13,-7.6e-15,1.2,0.0,0.0
69,1.5525,-0.013826,0.013832,2.989e-13,-9e-15,1.2,0.0,0.0
70,1.575,-0.013854,0.013856,2.721e-13,2.5e-15,1.2,0.0,0.0
71,1.5975,-0.013878,0.013882,2.838e-13,-5.8e-15,1.2,0.0,0.0
72,1.62,-0.013904,0.013908,5.469e-13,-6e-15,1.2,0.0,0.0
73,1.6425,-0.013928,0.013934,2.756e-13,8e-16,1.2,0.0,0.0
74,1.665,-0.013952,0.013958,3.473e-13,5.6e-15,1.2,0.0,0.0
75,1.6875,-0.013976,0.013984,5.559e-13,1.14e-14,1.2,0.0,0.0
76,1.71,-0.014,0.014006,2.661e-13,-1.42e-14,1.2,0.0,0.0
77,1.7325,-0.014026,0.01403,3.618e-13,-1.3e-15,1.2,0.0,0.0
78,1.755,-0.01405,0.014052,5.215e-13,-5.9e-15,1.2,0.0,0.0
79,1.7775,-0.014074,0.014078,5.064e-13,-9.8e-15,1.2,0.0,0.0
80,1.8,-0.014096,0.0141,5.483e-13,-8.2e-15,1.2,0.0,0.0
