,VD,IB,ID,IG,IS,VG,VB,VS
0,0.0,5.5941e-08,-3.5765e-08,1.085e-13,-4.5e-15,0.6,0.0,0.0
1,0.0225,-4.5786e-05,4.581e-05,9.01e-14,2.9e-15,0.6,0.0,0.0
2,0.045,-7.2194e-05,7.2194e-05,2.106e-13,1.1e-14,0.6,0.0,0.0
3,0.0675,-8.7116e-05,8.7118e-05,-1.52e-14,0.0,0.6,0.0,0.0
4,0.09,-9.5608e-05,9.558e-05,-4.32e-14,-8.3e-15,0.6,0.0,0.0
5,0.1125,-0.000100724,0.000100702,2.38e-14,1.9e-15,0.6,0.0,0.0
6,0.135,-0.000104114,0.000104104,1.085e-13,-4.9e-15,0.6,0.0,0.0
7,0.1575,-0.000106646,0.000106654,-2.24e-14,-3.3e-15,0.6,0.0,0.0
8,0.18,-0.000108702,0.000108708,-1.97e-14,-6.4e-15,0.6,0.0,0.0
9,0.2025,-0.000110482,0.000110518,1.026e-13,4.1e-15,0.6,0.0,0.0
10,0.225,-0.00011218,0.000112168,2.44e-14,1.4e-15,0.6,0.0,0.0
11,0.2475,-0.000113808,0.000113788,1.373e-13,-2.8e-15,0.6,0.0,0.0
12,0.27,-0.00011529,0.00011526,-1.429e-13,-4.3e-15,0.6,0.0,0.0
13,0.2925,-0.000116776,0.00011678,-1.55e-14,-4.5e-15,0.6,0.0,0.0
14,0.315,-0.00011814,0.00011822,7.15e-14,6.9e-15,0.6,0.0,0.0
15,0.3375,-0.0001196,0.00011968,8.49e-14,-3.5e-15,0.6,0.0,0.0
16,0.36,-0.000121,0.00012108,2.413e-13,-3.3e-15,0.6,0.0,0.0
17,0.3825,-0.00012238,0.0001225,2.77e-14,-1.41e-14,0.6,0.0,0.0
18,0.405,-0.00012376,0.00012382,1.168e-13,-3.4e-15,0.6,0.0,0.0
19,0.4275,-0.00012516,0.0001252,1.32e-14,-3.6e-15,0.6,0.0,0.0
20,0.45,-0.00012648,0.00012652,1.267e-13,-6e-16,0.6,0.0,0.0
21,0.4725,-0.0001278,0.00012788,-2.1e-15,-1.42e-14,0.6,0.0,0.0
22,0.495,-0.00012918,0.00012922,1.264e-13,-1.45e-14,0.6,0.0,0.0
23,0.5175,-0.00013046,0.00013056,2.22e-14,1.5e-15,0.6,0.0,0.0
24,0.54,-0.0001318,0.00013184,1.469e-13,7e-16,0.6,0.0,0.0
25,0.5625,-0.00013312,0.00013318,5.1e-15,-1.1e-15,0.6,0.0,0.0
26,0.585,-0.00013448,0.00013446,1.749e-13,-2.9e-15,0.6,0.0,0.0
27,0.6075,-0.00013572,0.00013582,4.08e-14,2.8e-15,0.6,0.0,0.0
28,0.63,-0.00013702,0.00013708,1.838e-13,-1.8e-15,0.6,0.0,0.0
29,0.6525,-0.00013832,0.00013836,5.89e-14,-1.08e-14,0.6,0.0,0.0
30,0.675,-0.00013954,0.00013974,2.447e-13,1.3e-15,0.6,0.0,0.0
31,0.6975,-0.00014092,0.00014094,1.054e-13,-5e-15,0.6,0.0,0.0
32,0.72,-0.0001422,0.0001422,2.379e-13,-6e-15,0.6,0.0,0.0
33,0.7425,-0.00014342,0.0001435,1.262e-13,-2.8e-15,0.6,0.0,0.0
34,0.765,-0.00014476,0.00014476,2.229e-13,-7e-15,0.6,0.0,0.0
35,0.7875,-0.000146,0.0001461,1.236e-13,-4.7e-15,0.6,0.0,0.0
36,0.81,-0.00014728,0.00014732,1.922e-13,7.1e-15,0.6,0.0,0.0
37,0.8325,-0.00014862,0.00014864,1.175e-13,-6.1e-15,0.6,0.0,0.0
38,0.855,-0.00014988,0.00014992,1.622e-13,-7.5e-15,0.6,0.0,0.0
39,0.8775,-0.00015112,0.0001512,6.06e-14,-8.2e-15,0.6,0.0,0.0
40,0.9,-0.0001524,0.00015248,1.691e-13,-7.6e-15,0.6,0.0,0.0
41,0.9225,-0.0001537,0.00015372,-4.4e-15,-5.3e-15,0.6,0.0,0.0
42,0.945,-0.00015494,0.000155,1.22e-13,-5.8e-15,0.6,0.0,0.0
43,0.9675,-0.00015624,0.00015618,-2.63e-14,8e-16,0.6,0.0,0.0
44,0.99,-0.00015752,0.00015752,1.195e-13,3e-15,0.6,0.0,0.0
45,1.0125,-0.00015878,0.0001588,-4.3e-15,-5e-15,0.6,0.0,0.0
46,1.035,-0.00016008,0.0001601,1.135e-13,6.1e-15,0.6,0.0,0.0
47,1.0575,-0.00016132,0.0001613,-1.13e-14,-3.5e-15,0.6,0.0,0.0
48,1.08,-0.0001626,0.00016264,1.228e-13,-3.3e-15,0.6,0.0,0.0
49,1.1025,-0.00016378,0.00016392,1.66e-14,-3.5e-15,0.6,0.0,0.0
50,1.125,-0.00016512,0.00016518,1.874e-13,9e-16,0.6,0.0,0.0
51,1.1475,-0.00016636,0.00016646,9.41e-14,-2.6e-15,0.6,0.0,0.0
52,1.17,-0.00016764,0.00016774,1.804e-13,-9.4e-15,0.6,0.0,0.0
53,1.1925,-0.00016898,0.00016898,8.3e-14,-1.3e-15,0.6,0.0,0.0
54,1.215,-0.00017024,0.00017034,2.301e-13,-1.01e-14,0.6,0.0,0.0
55,1.2375,-0.00017148,0.0001716,1.23e-13,2.2e-15,0.6,0.0,0.0
56,1.26,-0.0001728,0.00017286,2.352e-13,6.5e-15,0.6,0.0,0.0
57,1.2825,-0.0001741,0.00017418,9.75e-14,1e-16,0.6,0.0,0.0
58,1.305,-0.00017544,0.00017542,2.078e-13,0.0,0.6,0.0,0.0
59,1.3275,-0.00017674,0.00017676,9.5e-14,8e-16,0.6,0.0,0.0
60,1.35,-0.0001779,0.00017808,2.046e-13,-6.7e-15,0.6,0.0,0.0
61,1.3725,-0.00017932,0.00017932,1.045e-13,-1.55e-14,0.6,0.0,0.0
62,1.395,-0.00018068,0.00018066,1.988e-13,-1.8e-15,0.6,0.0,0.0
63,1.4175,-0.00018186,0.00018198,6.42e-14,9e-16,0.6,0.0,0.0
64,1.44,-0.00018322,0.00018324,1.27e-14,1.1e-15,0.6,0.0,0.0
65,1.4625,-0.00018446,0.00018458,1.85e-14,-9.2e-15,0.6,0.0,0.0
66,1.485,-0.0001858,0.00018584,1.315e-13,-7.9e-15,0.6,0.0,0.0
67,1.5075,-0.00018714,0.0001872,-1.4e-14,-2.9e-15,0.6,0.0,0.0
68,1.53,-0.00018848,0.00018854,1.489e-13,-2.1e-15,0.6,0.0,0.0
69,1.5525,-0.00018978,0.00018986,3.74e-14,-4.8e-15,0.6,0.0,0.0
70,1.575,-0.00019114,0.0001912,1.355e-13,-6e-15,0.6,0.0,0.0
71,1.5975,-0.0001923,0.00019248,3.45e-14,-6.4e-15,0.6,0.0,0.0
72,1.62,-0.00019372,0.0001938,1.649e-13,1.7e-15,0.6,0.0,0.0
73,1.6425,-0.00019508,0.00019514,7.65e-14,-5.8e-15,0.6,0.0,0.0
74,1.665,-0.00019652,0.00019654,1.615e-13,4e-15,0.6,0.0,0.0
75,1.6875,-0.00019774,0.00019786,8.13e-14,-1.2e-15,0.6,0.0,0.0
76,1.71,-0.0001991,0.0001992,2.012e-13,2.3e-15,0.6,0.0,0.0
77,1.7325,-0.00020046,0.00020048,1.286e-13,-2e-16,0.6,0.0,0.0
78,1.755,-0.0002019,0.000202,2.287e-13,-4.3e-15,0.6,0.0,0.0
79,1.7775,-0.00020318,0.00020334,1.378e-13,-4.7e-15,0.6,0.0,0.0
80,1.8,-0.00020464,0.00020468,2.248e-13,-6.9e-15,0.6,0.0,0.0
