,VG,IB,ID,IG,IS
0,0.0,-1.3365e-12,2.1138e-09,-3.94e-13,-3.1602e-10
1,0.0225,-1.2941e-12,1.9095e-09,1.55e-13,-3.4863e-10
2,0.045,-1.2827e-12,1.976e-09,2.22e-13,-3.7016e-10
3,0.0675,-1.9592e-12,2.1174e-09,1.3e-13,-3.5729e-10
4,0.09,-1.0452e-12,2.067e-09,5.91e-13,-3.4763e-10
5,0.1125,-1.4422e-12,2.0645e-09,3.36e-13,-4.3673e-10
6,0.135,-1.3681e-12,2.1458e-09,-1.71e-13,-4.6903e-10
7,0.1575,-1.022e-12,2.1018e-09,1.098e-12,-5.14e-10
8,0.18,-1.5356e-12,2.1264e-09,-1.66e-13,-4.5706e-10
9,0.2025,-1.2874e-12,2.2273e-09,1.204e-12,-5.6039e-10
10,0.225,-2.0356e-12,2.0503e-09,1.292e-12,-6.85e-10
11,0.2475,-1.6889e-12,2.3893e-09,1.244e-12,-9.375e-10
12,0.27,-2.4768e-12,2.5648e-09,2.73e-13,-1.2198e-09
13,0.2925,-4.2081e-12,3.2931e-09,1.62e-13,-1.5324e-09
14,0.315,-7.1921e-12,4.1763e-09,6.77e-13,-2.4828e-09
15,0.3375,-1.2457e-11,6.1894e-09,7.04e-13,-4.2133e-09
16,0.36,-2.0393e-11,9.1845e-09,1.89e-12,-7.7444e-09
17,0.3825,-3.3672e-11,1.6247e-08,1.978e-12,-1.4469e-08
18,0.405,-6.0415e-11,2.9194e-08,1.248e-12,-2.7436e-08
19,0.4275,-1.04971e-10,5.396e-08,1.05e-13,-5.2022e-08
20,0.45,-1.8336e-10,9.9883e-08,7.3e-14,-9.7901e-08
21,0.4725,-3.1315e-10,1.8322e-07,-8.1e-14,-1.8078e-07
22,0.495,-5.0955e-10,3.311e-07,2.42e-13,-3.282e-07
23,0.5175,-8.4862e-10,5.844e-07,1.03e-12,-5.8148e-07
24,0.54,-1.3529e-09,1.0052e-06,4.98e-13,-1.0004e-06
25,0.5625,-2.1124e-09,1.681e-06,-8.33e-13,-1.6788e-06
26,0.585,-3.1928e-09,2.7421e-06,1.4e-13,-2.7373e-06
27,0.6075,-4.7159e-09,4.3438e-06,4.01e-13,-4.3393e-06
28,0.63,-6.7578e-09,6.6889e-06,3.01e-13,-6.6805e-06
29,0.6525,-9.4225e-09,1.0006e-05,2.5e-13,-9.9944e-06
30,0.675,-1.3071e-08,1.4514e-05,3.9e-12,-1.451e-05
31,0.6975,-1.6854e-08,2.045e-05,1.966e-12,-2.0436e-05
32,0.72,-2.1491e-08,2.8068e-05,1.647e-12,-2.8046e-05
33,0.7425,-2.6758e-08,3.7524e-05,1.458e-12,-3.7484e-05
34,0.765,-3.2515e-08,4.8922e-05,7.55e-13,-4.8878e-05
35,0.7875,-3.8622e-08,6.223e-05,1.188e-12,-6.2206e-05
36,0.81,-4.4963e-08,7.763e-05,1.73e-13,-7.7628e-05
37,0.8325,-5.1353e-08,9.5066e-05,1.766e-12,-9.5006e-05
38,0.855,-5.7652e-08,0.00011434,6.57e-13,-0.00011422
39,0.8775,-6.3763e-08,0.0001354,3.057e-12,-0.00013532
40,0.9,-6.9559e-08,0.0001582,1.396e-12,-0.00015812
41,0.9225,-7.4941e-08,0.00018254,6.3e-13,-0.00018246
42,0.945,-7.9882e-08,0.00020822,3.33e-13,-0.0002081
43,0.9675,-8.4336e-08,0.00023506,6.87e-13,-0.00023512
44,0.99,-8.8263e-08,0.00026348,1.05e-12,-0.0002633
45,1.0125,-9.166e-08,0.00029248,3.32e-13,-0.00029246
46,1.035,-9.4563e-08,0.0003227,9.02e-13,-0.00032266
47,1.0575,-9.6939e-08,0.00035372,4.38e-13,-0.00035364
48,1.08,-9.8845e-08,0.0003855,6.49e-13,-0.00038546
49,1.1025,-1.00241e-07,0.0004179,8.26e-13,-0.0004178
50,1.125,-1.01233e-07,0.00045096,4.17e-13,-0.00045072
51,1.1475,-1.01805e-07,0.00048454,5.08e-13,-0.00048432
52,1.17,-1.01983e-07,0.0005184,1.404e-12,-0.00051832
53,1.1925,-1.01832e-07,0.00055284,7.84e-13,-0.00055268
54,1.215,-1.01356e-07,0.00058764,2.17e-13,-0.0005876
55,1.2375,-1.00586e-07,0.00062282,3.11e-13,-0.0006227
56,1.26,-9.9574e-08,0.00065818,1.303e-12,-0.00065802
57,1.2825,-9.8326e-08,0.00069386,3.87e-13,-0.00069376
58,1.305,-9.6861e-08,0.00072984,1.477e-12,-0.00072966
59,1.3275,-9.5244e-08,0.00076578,1.619e-12,-0.00076568
60,1.35,-9.3462e-08,0.00080198,1.544e-12,-0.00080188
61,1.3725,-9.1561e-08,0.0008384,2.927e-12,-0.00083828
62,1.395,-8.954e-08,0.00087476,1.187e-12,-0.00087468
63,1.4175,-8.744e-08,0.00091136,1.626e-12,-0.00091126
64,1.44,-8.5273e-08,0.00094808,1.489e-12,-0.00094802
65,1.4625,-8.303e-08,0.00098484,1.831e-12,-0.0009847
66,1.485,-8.0776e-08,0.00102152,1.452e-12,-0.0010214
67,1.5075,-7.8472e-08,0.0010584,9.72e-13,-0.00105824
68,1.53,-7.6145e-08,0.0010954,8.46e-13,-0.0010951
69,1.5525,-7.3837e-08,0.001132,7.13e-13,-0.0011322
70,1.575,-7.1523e-08,0.001169,1.872e-12,-0.0011686
71,1.5975,-6.9216e-08,0.001206,8.86e-13,-0.0012054
72,1.62,-6.6936e-08,0.0012424,5.5e-13,-0.0012424
73,1.6425,-6.4667e-08,0.001279,5.05e-13,-0.001279
74,1.665,-6.2447e-08,0.0013158,1.557e-12,-0.0013158
75,1.6875,-6.0246e-08,0.0013526,1.581e-12,-0.0013524
76,1.71,-5.8104e-08,0.0013892,1.749e-12,-0.0013894
77,1.7325,-5.6008e-08,0.001426,1.155e-12,-0.001426
78,1.755,-5.3937e-08,0.0014624,7.09e-13,-0.0014628
79,1.7775,-5.1916e-08,0.0014992,1.174e-12,-0.001499
80,1.8,-4.9962e-08,0.0015354,2.863e-12,-0.0015354
