,VD,IB,ID,IG,IS,VG,VB,VS
0,0.0,-2.615e-13,-1.4242e-08,2.288e-13,1.6021e-08,1.2,0.0,0.0
1,0.0225,2.6e-15,2.1606e-05,4.675e-13,-2.1592e-05,1.2,0.0,0.0
2,0.045,-1.473e-13,4.2274e-05,1.169e-13,-4.2258e-05,1.2,0.0,0.0
3,0.0675,-2.073e-13,6.1866e-05,2.118e-13,-6.1856e-05,1.2,0.0,0.0
4,0.09,-8.31e-14,8.0402e-05,3.489e-13,-8.0398e-05,1.2,0.0,0.0
5,0.1125,1.426e-13,9.7758e-05,2.436e-13,-9.7758e-05,1.2,0.0,0.0
6,0.135,1.346e-13,0.000113792,2.021e-13,-0.000113786,1.2,0.0,0.0
7,0.1575,3.899e-13,0.00012862,5.166e-13,-0.00012856,1.2,0.0,0.0
8,0.18,2.817e-13,0.00014214,3.154e-13,-0.00014208,1.2,0.0,0.0
9,0.2025,2.692e-13,0.00015426,4.525e-13,-0.00015424,1.2,0.0,0.0
10,0.225,2.389e-13,0.0001652,3.511e-13,-0.00016524,1.2,0.0,0.0
11,0.2475,1.834e-13,0.00017504,1.992e-13,-0.000175,1.2,0.0,0.0
12,0.27,1.981e-13,0.00018362,2.107e-13,-0.00018358,1.2,0.0,0.0
13,0.2925,9.6e-14,0.00019118,2.641e-13,-0.00019112,1.2,0.0,0.0
14,0.315,-5.2e-15,0.00019774,1.145e-13,-0.00019772,1.2,0.0,0.0
15,0.3375,4.23e-14,0.0002035,2.519e-13,-0.00020346,1.2,0.0,0.0
16,0.36,-1.296e-13,0.00020846,3.612e-13,-0.00020844,1.2,0.0,0.0
17,0.3825,2.34e-14,0.00021282,1.749e-13,-0.00021282,1.2,0.0,0.0
18,0.405,-1.189e-13,0.00021664,6.355e-13,-0.00021666,1.2,0.0,0.0
19,0.4275,-7.18e-14,0.00022002,1.843e-13,-0.00022,1.2,0.0,0.0
20,0.45,-9.95e-14,0.000223,6.294e-13,-0.00022298,1.2,0.0,0.0
21,0.4725,1.6e-14,0.00022566,-9.61e-14,-0.00022564,1.2,0.0,0.0
22,0.495,-4.27e-14,0.00022806,-7.51e-14,-0.00022802,1.2,0.0,0.0
23,0.5175,-9.87e-14,0.00023022,3.944e-13,-0.00023022,1.2,0.0,0.0
24,0.54,1.232e-13,0.00023226,4.826e-13,-0.00023224,1.2,0.0,0.0
25,0.5625,1.407e-13,0.0002341,5.343e-13,-0.00023406,1.2,0.0,0.0
26,0.585,4.156e-13,0.00023586,5.483e-13,-0.00023582,1.2,0.0,0.0
27,0.6075,4.649e-13,0.0002375,3.733e-13,-0.0002375,1.2,0.0,0.0
28,0.63,3.376e-13,0.00023908,4.271e-13,-0.00023906,1.2,0.0,0.0
29,0.6525,3.039e-13,0.00024058,2.241e-13,-0.00024054,1.2,0.0,0.0
30,0.675,5.551e-13,0.000242,3.79e-13,-0.00024184,1.2,0.0,0.0
31,0.6975,5.323e-13,0.00024326,5.04e-13,-0.00024324,1.2,0.0,0.0
32,0.72,5.555e-13,0.00024462,2.525e-13,-0.00024458,1.2,0.0,0.0
33,0.7425,1.663e-13,0.0002459,3.286e-13,-0.00024588,1.2,0.0,0.0
34,0.765,7.71e-14,0.00024722,8.6e-14,-0.00024716,1.2,0.0,0.0
35,0.7875,-1.207e-13,0.00024844,1.19e-14,-0.00024844,1.2,0.0,0.0
36,0.81,-9.09e-14,0.00024968,1.034e-13,-0.00024962,1.2,0.0,0.0
37,0.8325,-2.047e-13,0.0002509,1.573e-13,-0.00025086,1.2,0.0,0.0
38,0.855,-1.898e-13,0.00025206,3.92e-14,-0.00025204,1.2,0.0,0.0
39,0.8775,-1.998e-13,0.00025324,6.93e-14,-0.0002532,1.2,0.0,0.0
40,0.9,-2.159e-13,0.00025438,1.215e-13,-0.00025434,1.2,0.0,0.0
41,0.9225,-2.667e-13,0.00025552,2.571e-13,-0.0002555,1.2,0.0,0.0
42,0.945,-3.821e-13,0.00025662,3.682e-13,-0.00025662,1.2,0.0,0.0
43,0.9675,-7.313e-13,0.00025774,2.406e-13,-0.0002577,1.2,0.0,0.0
44,0.99,-9.088e-13,0.00025884,6.881e-13,-0.00025882,1.2,0.0,0.0
45,1.0125,-1.6267e-12,0.00025992,2.375e-13,-0.00025988,1.2,0.0,0.0
46,1.035,-2.7928e-12,0.00026102,8.907e-13,-0.00026096,1.2,0.0,0.0
47,1.0575,-4.1253e-12,0.00026206,2.417e-13,-0.00026204,1.2,0.0,0.0
48,1.08,-6.5636e-12,0.00026316,1.105e-13,-0.00026312,1.2,0.0,0.0
49,1.1025,-1.01986e-11,0.00026434,5.092e-13,-0.00026438,1.2,0.0,0.0
50,1.125,-1.7284e-11,0.00026542,1.27e-13,-0.00026536,1.2,0.0,0.0
51,1.1475,-2.2987e-11,0.00026644,5.298e-13,-0.00026642,1.2,0.0,0.0
52,1.17,-3.3269e-11,0.0002675,5.642e-13,-0.00026746,1.2,0.0,0.0
53,1.1925,-4.7651e-11,0.00026848,5.603e-13,-0.00026846,1.2,0.0,0.0
54,1.215,-7.1256e-11,0.00026954,6.124e-13,-0.00026954,1.2,0.0,0.0
55,1.2375,-1.01002e-10,0.00027058,3.892e-13,-0.0002705,1.2,0.0,0.0
56,1.26,-1.4852e-10,0.00027152,7.835e-13,-0.0002715,1.2,0.0,0.0
57,1.2825,-1.96e-10,0.00027252,1.237e-13,-0.0002725,1.2,0.0,0.0
58,1.305,-2.7575e-10,0.00027348,4.211e-13,-0.00027348,1.2,0.0,0.0
59,1.3275,-3.7079e-10,0.00027452,3.668e-13,-0.00027444,1.2,0.0,0.0
60,1.35,-5.2147e-10,0.00027544,2.959e-13,-0.00027546,1.2,0.0,0.0
61,1.3725,-6.8804e-10,0.00027646,6.394e-13,-0.00027644,1.2,0.0,0.0
62,1.395,-9.2783e-10,0.00027742,1.814e-13,-0.00027738,1.2,0.0,0.0
63,1.4175,-1.2321e-09,0.00027842,1.563e-13,-0.0002785,1.2,0.0,0.0
64,1.44,-1.6225e-09,0.00027958,4.163e-13,-0.00027936,1.2,0.0,0.0
65,1.4625,-2.1143e-09,0.00028032,-1.095e-13,-0.00028032,1.2,0.0,0.0
66,1.485,-2.7582e-09,0.00028132,6.645e-13,-0.00028136,1.2,0.0,0.0
67,1.5075,-3.5307e-09,0.00028234,1.569e-13,-0.00028226,1.2,0.0,0.0
68,1.53,-4.5174e-09,0.0002834,3.967e-13,-0.0002832,1.2,0.0,0.0
69,1.5525,-5.7226e-09,0.00028416,6.846e-13,-0.00028414,1.2,0.0,0.0
70,1.575,-7.1935e-09,0.00028512,1.625e-13,-0.00028508,1.2,0.0,0.0
71,1.5975,-8.9683e-09,0.0002861,4.25e-13,-0.00028578,1.2,0.0,0.0
72,1.62,-1.11361e-08,0.00028678,5.859e-13,-0.00028672,1.2,0.0,0.0
73,1.6425,-1.3718e-08,0.00028764,1.14e-13,-0.00028764,1.2,0.0,0.0
74,1.665,-1.6822e-08,0.00028862,2.406e-13,-0.00028858,1.2,0.0,0.0
75,1.6875,-2.0472e-08,0.00028956,2.201e-13,-0.00028948,1.2,0.0,0.0
76,1.71,-2.4782e-08,0.00029042,3.82e-13,-0.00029042,1.2,0.0,0.0
77,1.7325,-2.9834e-08,0.00029138,1.774e-13,-0.00029134,1.2,0.0,0.0
78,1.755,-3.575e-08,0.00029256,2.234e-13,-0.00029306,1.2,0.0,0.0
79,1.7775,-4.2549e-08,0.00029402,3.917e-13,-0.00029388,1.2,0.0,0.0
80,1.8,-5.0443e-08,0.00029482,3.237e-13,-0.00029498,1.2,0.0,0.0
