,VG,IB,ID,IG,IS
0,0.0,2.584e-13,2.4922e-11,3.57e-13,2.2569e-12
1,0.0225,7.314e-13,2.3156e-11,-4.8e-14,4.5889e-12
2,0.045,5.657e-13,2.2202e-11,1.4e-13,7.073e-12
3,0.0675,-4.047e-13,2.2615e-11,-1.5e-14,1.0538e-11
4,0.09,-2.939e-13,2.3788e-11,4.84e-13,2.2871e-12
5,0.1125,-2.624e-13,2.3556e-11,9.09e-13,3.1794e-12
6,0.135,4.48e-14,2.4938e-11,1.251e-12,5.3272e-12
7,0.1575,-3.735e-13,2.8008e-11,4.08e-13,5.6171e-12
8,0.18,-3.45e-14,3.0369e-11,1.242e-12,2.3037e-12
9,0.2025,-2.353e-13,3.4511e-11,7.29e-13,-5.3373e-12
10,0.225,2.233e-13,4.2637e-11,-4.85e-13,-2.2625e-11
11,0.2475,-2.023e-13,7.007e-11,4.55e-13,-4.6283e-11
12,0.27,-2.749e-13,1.09358e-10,6.63e-13,-8.6376e-11
13,0.2925,1.339e-13,1.8836e-10,1.177e-12,-1.681e-10
14,0.315,-3.038e-13,3.4034e-10,-1.83e-13,-3.0942e-10
15,0.3375,2.226e-13,6.0263e-10,1.039e-12,-5.9925e-10
16,0.36,2.179e-13,1.1679e-09,1.254e-12,-1.1396e-09
17,0.3825,1.966e-13,2.1993e-09,8.4e-14,-2.1862e-09
18,0.405,4.849e-13,4.1229e-09,1.559e-12,-4.1795e-09
19,0.4275,-5.19e-14,7.8838e-09,-1.6e-14,-7.8617e-09
20,0.45,-8.03e-14,1.491e-08,-2.69e-13,-1.4882e-08
21,0.4725,1.363e-13,2.8051e-08,-1.13e-13,-2.8033e-08
22,0.495,-1.364e-13,5.2342e-08,9.3e-13,-5.2277e-08
23,0.5175,4.572e-13,9.6321e-08,3.48e-13,-9.6305e-08
24,0.54,5.71e-14,1.7368e-07,5.4e-13,-1.7376e-07
25,0.5625,7.91e-14,3.0688e-07,9.33e-13,-3.068e-07
26,0.585,2.161e-13,5.2844e-07,4.03e-13,-5.2846e-07
27,0.6075,-1.639e-13,8.814e-07,9.1e-14,-8.8162e-07
28,0.63,5.22e-14,1.4272e-06,1.169e-12,-1.4266e-06
29,0.6525,3.758e-13,2.2321e-06,9.91e-13,-2.2311e-06
30,0.675,-9.69e-14,3.3711e-06,1.27e-13,-3.3691e-06
31,0.6975,1.362e-13,4.9073e-06,3.48e-13,-4.905e-06
32,0.72,2.684e-13,6.902e-06,8.09e-13,-6.9019e-06
33,0.7425,3.228e-13,9.3863e-06,2.116e-12,-9.3835e-06
34,0.765,-1.155e-13,1.2358e-05,1.87e-13,-1.2348e-05
35,0.7875,2.164e-13,1.5782e-05,2.13e-12,-1.5788e-05
36,0.81,1.344e-13,1.9646e-05,3.16e-13,-1.9646e-05
37,0.8325,3.928e-13,2.3838e-05,1.164e-12,-2.3836e-05
38,0.855,1.91e-13,2.833e-05,3.89e-13,-2.8324e-05
39,0.8775,3.685e-13,3.3044e-05,8.7e-13,-3.3044e-05
40,0.9,3.747e-13,3.7908e-05,2.725e-12,-3.7908e-05
41,0.9225,4.221e-13,4.2878e-05,7.33e-13,-4.2872e-05
42,0.945,-2.074e-13,4.7854e-05,1.084e-12,-4.7856e-05
43,0.9675,4.472e-13,5.2824e-05,1.581e-12,-5.283e-05
44,0.99,1.675e-13,5.7766e-05,3.52e-13,-5.776e-05
45,1.0125,2.33e-13,6.2602e-05,6.29e-13,-6.2584e-05
46,1.035,-1.321e-13,6.7348e-05,2.016e-12,-6.7356e-05
47,1.0575,4.052e-13,7.1998e-05,1.286e-12,-7.1992e-05
48,1.08,1.424e-13,7.6516e-05,2.43e-13,-7.6504e-05
49,1.1025,3.065e-13,8.089e-05,8.28e-13,-8.0876e-05
50,1.125,-1.027e-13,8.515e-05,2.035e-12,-8.5142e-05
51,1.1475,5.046e-13,8.9286e-05,1.488e-12,-8.9254e-05
52,1.17,4.2e-14,9.3248e-05,7.76e-13,-9.322e-05
53,1.1925,-5.64e-14,9.71e-05,1.85e-13,-9.7082e-05
54,1.215,3.419e-13,0.00010078,1.222e-12,-0.000100774
55,1.2375,4.8e-15,0.000104368,3.9e-13,-0.000104348
56,1.26,4.62e-13,0.000107808,3.276e-12,-0.000107804
57,1.2825,3.74e-13,0.000111126,1.166e-12,-0.00011112
58,1.305,5.66e-13,0.000114336,1.579e-12,-0.000114342
59,1.3275,1.613e-13,0.00011744,2.502e-12,-0.0001174
60,1.35,-9.12e-14,0.00012046,6.13e-13,-0.0001204
61,1.3725,3.309e-13,0.00012328,1.378e-12,-0.00012324
62,1.395,2.607e-13,0.00012604,2.34e-12,-0.000126
63,1.4175,-4.83e-14,0.00012868,6.04e-13,-0.00012866
64,1.44,-1.309e-13,0.00013124,1.616e-12,-0.0001312
65,1.4625,4.45e-14,0.00013372,1.198e-12,-0.00013368
66,1.485,4.305e-13,0.0001361,2.023e-12,-0.00013604
67,1.5075,1.127e-13,0.00013838,4.98e-13,-0.00013838
68,1.53,4.267e-13,0.0001406,1.538e-12,-0.00014056
69,1.5525,2.3e-14,0.00014274,6.11e-13,-0.0001427
70,1.575,7.49e-14,0.00014478,7.07e-13,-0.00014474
71,1.5975,-3.47e-14,0.00014674,9.54e-13,-0.00014672
72,1.62,4.621e-13,0.0001486,1.693e-12,-0.00014862
73,1.6425,-1.724e-13,0.00015048,5.15e-13,-0.00015042
74,1.665,4.44e-14,0.00015224,7.51e-13,-0.0001522
75,1.6875,-1.789e-13,0.00015394,8.93e-13,-0.00015394
76,1.71,3.822e-13,0.00015564,3.351e-12,-0.00015558
77,1.7325,-1.578e-13,0.0001572,6.73e-13,-0.00015714
78,1.755,2.254e-13,0.00015874,1.344e-12,-0.00015874
79,1.7775,-7.28e-14,0.00016022,5.48e-13,-0.0001602
80,1.8,5.944e-13,0.0001617,1.539e-12,-0.00016164
