,VD,IB,ID,IG,IS,VG,VB,VS
0,0.0,1.328e-13,-1.1323e-08,2.976e-13,2.3732e-08,1.2,0.0,0.0
1,0.0225,2.156e-13,4.28e-05,2.246e-13,-4.2788e-05,1.2,0.0,0.0
2,0.045,1.372e-13,8.3954e-05,2.076e-13,-8.392e-05,1.2,0.0,0.0
3,0.0675,2.981e-13,0.00012328,6.923e-13,-0.00012324,1.2,0.0,0.0
4,0.09,4.009e-13,0.00016094,4.287e-13,-0.0001609,1.2,0.0,0.0
5,0.1125,4.539e-13,0.00019682,4.376e-13,-0.00019674,1.2,0.0,0.0
6,0.135,5.179e-13,0.0002307,4.432e-13,-0.00023062,1.2,0.0,0.0
7,0.1575,5.096e-13,0.00026264,4.322e-13,-0.00026268,1.2,0.0,0.0
8,0.18,6.014e-13,0.00029282,4.396e-13,-0.00029276,1.2,0.0,0.0
9,0.2025,5.103e-13,0.0003208,2.899e-13,-0.00032076,1.2,0.0,0.0
10,0.225,5.588e-13,0.00034678,4.045e-13,-0.00034678,1.2,0.0,0.0
11,0.2475,5.025e-13,0.0003708,3.502e-13,-0.00037076,1.2,0.0,0.0
12,0.27,3.247e-13,0.0003928,2.68e-13,-0.0003928,1.2,0.0,0.0
13,0.2925,3.152e-13,0.00041278,2.434e-13,-0.00041274,1.2,0.0,0.0
14,0.315,2.017e-13,0.00043078,2.092e-13,-0.00043068,1.2,0.0,0.0
15,0.3375,1.112e-13,0.00044664,1.734e-13,-0.00044664,1.2,0.0,0.0
16,0.36,1.309e-13,0.00046076,1.444e-13,-0.0004608,1.2,0.0,0.0
17,0.3825,1.34e-14,0.00047304,1.86e-13,-0.00047308,1.2,0.0,0.0
18,0.405,-2.22e-14,0.00048372,1.788e-13,-0.00048358,1.2,0.0,0.0
19,0.4275,5.84e-14,0.00049274,2.073e-13,-0.0004927,1.2,0.0,0.0
20,0.45,1.939e-13,0.00050056,2.805e-13,-0.00050044,1.2,0.0,0.0
21,0.4725,2.025e-13,0.00050692,3.306e-13,-0.00050696,1.2,0.0,0.0
22,0.495,3.206e-13,0.00051234,3.373e-13,-0.00051236,1.2,0.0,0.0
23,0.5175,5.054e-13,0.00051696,3.568e-13,-0.00051694,1.2,0.0,0.0
24,0.54,6.005e-13,0.00052086,3.984e-13,-0.00052078,1.2,0.0,0.0
25,0.5625,5.86e-13,0.00052422,3.876e-13,-0.0005241,1.2,0.0,0.0
26,0.585,4.859e-13,0.00052694,3.994e-13,-0.00052694,1.2,0.0,0.0
27,0.6075,4.048e-13,0.00052952,3.206e-13,-0.00052948,1.2,0.0,0.0
28,0.63,4.112e-13,0.00053166,2.785e-13,-0.00053164,1.2,0.0,0.0
29,0.6525,2.562e-13,0.00053356,9.45e-14,-0.0005335,1.2,0.0,0.0
30,0.675,3.145e-13,0.00053534,1.902e-13,-0.00053532,1.2,0.0,0.0
31,0.6975,2.001e-13,0.00053704,2.026e-13,-0.00053698,1.2,0.0,0.0
32,0.72,1.034e-13,0.0005385,1.326e-13,-0.0005385,1.2,0.0,0.0
33,0.7425,9.82e-14,0.00054,1.404e-13,-0.00053992,1.2,0.0,0.0
34,0.765,3.57e-14,0.00054136,2.093e-13,-0.00054134,1.2,0.0,0.0
35,0.7875,9e-16,0.0005426,1.998e-13,-0.00054264,1.2,0.0,0.0
36,0.81,7.53e-14,0.0005438,1.508e-13,-0.00054382,1.2,0.0,0.0
37,0.8325,6.6e-14,0.00054504,2.233e-13,-0.0005449,1.2,0.0,0.0
38,0.855,1.033e-13,0.00054614,2.587e-13,-0.0005462,1.2,0.0,0.0
39,0.8775,1.71e-13,0.00054726,2.644e-13,-0.0005472,1.2,0.0,0.0
40,0.9,2.971e-13,0.00054826,3.139e-13,-0.00054824,1.2,0.0,0.0
41,0.9225,3.134e-13,0.00054936,4.569e-13,-0.00054938,1.2,0.0,0.0
42,0.945,5.229e-13,0.00055042,3.961e-13,-0.00055044,1.2,0.0,0.0
43,0.9675,5.035e-13,0.00055138,4.397e-13,-0.0005514,1.2,0.0,0.0
44,0.99,7.041e-13,0.0005524,3.762e-13,-0.00055242,1.2,0.0,0.0
45,1.0125,5.276e-13,0.00055344,4.319e-13,-0.00055334,1.2,0.0,0.0
46,1.035,4.089e-13,0.00055428,3.087e-13,-0.00055428,1.2,0.0,0.0
47,1.0575,2.275e-13,0.0005552,2.919e-13,-0.00055514,1.2,0.0,0.0
48,1.08,1.027e-13,0.0005562,2.068e-13,-0.00055612,1.2,0.0,0.0
49,1.1025,1.1e-14,0.00055694,1.879e-13,-0.00055706,1.2,0.0,0.0
50,1.125,-1.863e-13,0.0005579,1.752e-13,-0.00055788,1.2,0.0,0.0
51,1.1475,-4.168e-13,0.00055878,2.492e-13,-0.00055882,1.2,0.0,0.0
52,1.17,-6.479e-13,0.0005597,1.89e-13,-0.00055966,1.2,0.0,0.0
53,1.1925,-1.1593e-12,0.00056044,1.833e-13,-0.00056046,1.2,0.0,0.0
54,1.215,-1.698e-12,0.00056138,2.27e-13,-0.0005613,1.2,0.0,0.0
55,1.2375,-2.8128e-12,0.00056206,2.695e-13,-0.0005621,1.2,0.0,0.0
56,1.26,-4.4798e-12,0.00056296,3.52e-13,-0.00056284,1.2,0.0,0.0
57,1.2825,-7.0677e-12,0.00056368,3.153e-13,-0.00056364,1.2,0.0,0.0
58,1.305,-1.11577e-11,0.00056454,3.67e-13,-0.00056446,1.2,0.0,0.0
59,1.3275,-1.6596e-11,0.0005652,3.208e-13,-0.00056532,1.2,0.0,0.0
60,1.35,-2.7649e-11,0.0005661,3.495e-13,-0.00056604,1.2,0.0,0.0
61,1.3725,-4.1555e-11,0.00056684,1.925e-13,-0.0005668,1.2,0.0,0.0
62,1.395,-6.1562e-11,0.00056756,1.312e-13,-0.0005675,1.2,0.0,0.0
63,1.4175,-9.0866e-11,0.0005683,1.371e-13,-0.00056832,1.2,0.0,0.0
64,1.44,-1.367e-10,0.00056906,5.869e-13,-0.00056898,1.2,0.0,0.0
65,1.4625,-1.9434e-10,0.00056978,2.748e-13,-0.00056974,1.2,0.0,0.0
66,1.485,-2.7709e-10,0.00057052,4.14e-13,-0.00057038,1.2,0.0,0.0
67,1.5075,-3.9133e-10,0.00057114,2.409e-13,-0.00057118,1.2,0.0,0.0
68,1.53,-5.5756e-10,0.00057194,4.383e-13,-0.0005719,1.2,0.0,0.0
69,1.5525,-7.6577e-10,0.00057268,2.493e-13,-0.00057258,1.2,0.0,0.0
70,1.575,-1.07723e-09,0.00057338,4.334e-13,-0.00057332,1.2,0.0,0.0
71,1.5975,-1.4697e-09,0.00057396,2.678e-13,-0.00057394,1.2,0.0,0.0
72,1.62,-1.9799e-09,0.00057466,2.599e-13,-0.00057464,1.2,0.0,0.0
73,1.6425,-2.6622e-09,0.00057536,3.307e-13,-0.00057532,1.2,0.0,0.0
74,1.665,-3.5343e-09,0.00057606,4.752e-13,-0.00057598,1.2,0.0,0.0
75,1.6875,-4.6566e-09,0.00057672,2.101e-13,-0.00057668,1.2,0.0,0.0
76,1.71,-6.0664e-09,0.00057736,4.723e-13,-0.00057736,1.2,0.0,0.0
77,1.7325,-7.8375e-09,0.00057802,2.542e-13,-0.000578,1.2,0.0,0.0
78,1.755,-1.00664e-08,0.00057878,4.094e-13,-0.00057874,1.2,0.0,0.0
79,1.7775,-1.2789e-08,0.00057942,1.278e-13,-0.00057926,1.2,0.0,0.0
80,1.8,-1.6112e-08,0.00058008,2.4e-13,-0.00058,1.2,0.0,0.0
