,VG,IB,ID,IG,IS,VD,VS,VB
0,0.0,2.63e-14,-1.1787e-10,4.62e-13,1.0364e-10,-1.8,0,0.0
1,-0.0225,8.783e-13,-1.8544e-10,-4.34e-13,1.7421e-10,-1.8,0,0.0
2,-0.045,1.303e-12,-2.972e-10,4.34e-13,2.7572e-10,-1.8,0,0.0
3,-0.0675,8.776e-13,-4.6485e-10,3.31e-13,4.4644e-10,-1.8,0,0.0
4,-0.09,1.3105e-12,-7.4138e-10,4.36e-13,7.267e-10,-1.8,0,0.0
5,-0.1125,6.811e-13,-1.1931e-09,-3.41e-13,1.19e-09,-1.8,0,0.0
6,-0.135,4.707e-13,-1.9372e-09,3.7e-13,1.9262e-09,-1.8,0,0.0
7,-0.1575,4.988e-13,-3.1445e-09,4.49e-13,3.1289e-09,-1.8,0,0.0
8,-0.18,1.479e-13,-5.0767e-09,-1.31e-13,5.0741e-09,-1.8,0,0.0
9,-0.2025,4.922e-13,-8.2122e-09,6.62e-13,8.1949e-09,-1.8,0,0.0
10,-0.225,1.0346e-12,-1.3202e-08,-1.29e-13,1.3204e-08,-1.8,0,0.0
11,-0.2475,6.113e-13,-2.1062e-08,-1.2e-13,2.1126e-08,-1.8,0,0.0
12,-0.27,1.1708e-12,-3.3533e-08,2.01e-13,3.3491e-08,-1.8,0,0.0
13,-0.2925,1.9663e-12,-5.2717e-08,-2.88e-13,5.2623e-08,-1.8,0,0.0
14,-0.315,2.5502e-12,-8.2527e-08,3.08e-13,8.2492e-08,-1.8,0,0.0
15,-0.3375,3.799e-12,-1.2774e-07,-5.54e-13,1.2784e-07,-1.8,0,0.0
16,-0.36,5.368e-12,-1.9644e-07,3.75e-13,1.9618e-07,-1.8,0,0.0
17,-0.3825,6.0025e-12,-2.9878e-07,2.25e-13,2.9876e-07,-1.8,0,0.0
18,-0.405,8.6332e-12,-4.5152e-07,2.27e-13,4.5114e-07,-1.8,0,0.0
19,-0.4275,1.1109e-11,-6.76e-07,-1.47e-13,6.759e-07,-1.8,0,0.0
20,-0.45,1.5599e-11,-1.0016e-06,-4.39e-13,1.00248e-06,-1.8,0,0.0
21,-0.4725,2.1245e-11,-1.4744e-06,-8.25e-13,1.4737e-06,-1.8,0,0.0
22,-0.495,2.9046e-11,-2.1493e-06,-5.16e-13,2.1491e-06,-1.8,0,0.0
23,-0.5175,3.9251e-11,-3.1007e-06,1.4e-13,3.1005e-06,-1.8,0,0.0
24,-0.54,5.3143e-11,-4.4286e-06,8e-15,4.429e-06,-1.8,0,0.0
25,-0.5625,7.0611e-11,-6.2544e-06,-7.44e-13,6.255e-06,-1.8,0,0.0
26,-0.585,9.1915e-11,-8.7208e-06,-3.1e-14,8.7209e-06,-1.8,0,0.0
27,-0.6075,1.2037e-10,-1.1986e-05,-3.8e-13,1.1986e-05,-1.8,0,0.0
28,-0.63,1.5029e-10,-1.6266e-05,-7e-15,1.6268e-05,-1.8,0,0.0
29,-0.6525,1.8508e-10,-2.1772e-05,-6.57e-13,2.1772e-05,-1.8,0,0.0
30,-0.675,2.2578e-10,-2.8728e-05,-7.29e-13,2.8728e-05,-1.8,0,0.0
31,-0.6975,2.7487e-10,-3.7372e-05,-6.82e-13,3.7378e-05,-1.8,0,0.0
32,-0.72,3.1659e-10,-4.8014e-05,-2.59e-13,4.8014e-05,-1.8,0,0.0
33,-0.7425,3.7646e-10,-6.0864e-05,-7.96e-13,6.0862e-05,-1.8,0,0.0
34,-0.765,4.2176e-10,-7.615e-05,-1.89e-13,7.6172e-05,-1.8,0,0.0
35,-0.7875,4.8453e-10,-9.408e-05,-2.4e-13,9.4086e-05,-1.8,0,0.0
36,-0.81,5.3799e-10,-0.000114916,-7.21e-13,0.000114922,-1.8,0,0.0
37,-0.8325,5.9125e-10,-0.00013876,-5.83e-13,0.00013876,-1.8,0,0.0
38,-0.855,6.4353e-10,-0.00016578,-8.19e-13,0.00016572,-1.8,0,0.0
39,-0.8775,6.8614e-10,-0.00019596,-5.9e-13,0.00019592,-1.8,0,0.0
40,-0.9,7.3391e-10,-0.00022938,-6.73e-13,0.0002294,-1.8,0,0.0
41,-0.9225,7.723e-10,-0.00026622,-7.17e-13,0.00026624,-1.8,0,0.0
42,-0.945,8.01e-10,-0.00030638,-5.83e-13,0.00030634,-1.8,0,0.0
43,-0.9675,8.3549e-10,-0.00034956,-8.84e-13,0.00034954,-1.8,0,0.0
44,-0.99,8.3767e-10,-0.00039614,-6.38e-13,0.00039616,-1.8,0,0.0
45,-1.0125,8.4539e-10,-0.00044582,-5.6e-13,0.0004458,-1.8,0,0.0
46,-1.035,8.4368e-10,-0.00049862,-2.2e-14,0.00049852,-1.8,0,0.0
47,-1.0575,8.3198e-10,-0.00055432,-6e-15,0.00055436,-1.8,0,0.0
48,-1.08,8.2125e-10,-0.00061278,-7.61e-13,0.00061274,-1.8,0,0.0
49,-1.1025,8.1625e-10,-0.00067402,-8.1e-13,0.000674,-1.8,0,0.0
50,-1.125,7.8019e-10,-0.00073796,-4.45e-13,0.000738,-1.8,0,0.0
51,-1.1475,7.4857e-10,-0.00080456,1.77e-13,0.00080452,-1.8,0,0.0
52,-1.17,7.1355e-10,-0.00087366,-2.07e-13,0.00087348,-1.8,0,0.0
53,-1.1925,6.8756e-10,-0.00094454,-4.54e-13,0.00094456,-1.8,0,0.0
54,-1.215,6.5386e-10,-0.00101798,-1.121e-12,0.0010182,-1.8,0,0.0
55,-1.2375,6.1677e-10,-0.00109362,-7.03e-13,0.0010936,-1.8,0,0.0
56,-1.26,5.6563e-10,-0.001171,-8.43e-13,0.0011712,-1.8,0,0.0
57,-1.2825,5.2656e-10,-0.0012502,-1.94e-13,0.00125,-1.8,0,0.0
58,-1.305,4.9662e-10,-0.0013314,-9.4e-13,0.0013314,-1.8,0,0.0
59,-1.3275,4.513e-10,-0.0014142,-9.21e-13,0.0014144,-1.8,0,0.0
60,-1.35,4.1346e-10,-0.0014986,-2.76e-13,0.0014984,-1.8,0,0.0
61,-1.3725,3.7494e-10,-0.0015844,-1.9e-13,0.0015842,-1.8,0,0.0
62,-1.395,3.4375e-10,-0.0016716,-1.077e-12,0.0016714,-1.8,0,0.0
63,-1.4175,3.0989e-10,-0.0017606,-9.7e-13,0.0017602,-1.8,0,0.0
64,-1.44,2.7941e-10,-0.0018502,-7.89e-13,0.0018498,-1.8,0,0.0
65,-1.4625,2.3932e-10,-0.0019408,-6.4e-14,0.0019408,-1.8,0,0.0
66,-1.485,2.1802e-10,-0.002033,-6.99e-13,0.002033,-1.8,0,0.0
67,-1.5075,1.9855e-10,-0.0021262,-8.74e-13,0.0021262,-1.8,0,0.0
68,-1.53,1.7881e-10,-0.0022204,-1.097e-12,0.0022206,-1.8,0,0.0
69,-1.5525,1.4935e-10,-0.0023152,-5.02e-13,0.002315,-1.8,0,0.0
70,-1.575,1.302e-10,-0.0024112,-1.93e-13,0.0024114,-1.8,0,0.0
71,-1.5975,1.2233e-10,-0.0025078,-5.85e-13,0.0025076,-1.8,0,0.0
72,-1.62,1.015e-10,-0.002605,-2.32e-13,0.0026048,-1.8,0,0.0
73,-1.6425,8.3493e-11,-0.0027028,-1.017e-12,0.002703,-1.8,0,0.0
74,-1.665,7.4586e-11,-0.0028018,-9.31e-13,0.0028018,-1.8,0,0.0
75,-1.6875,6.2092e-11,-0.002901,-7.89e-13,0.0029012,-1.8,0,0.0
76,-1.71,5.2852e-11,-0.003001,-1.075e-12,0.0030006,-1.8,0,0.0
77,-1.7325,4.4193e-11,-0.003101,-4.36e-13,0.0031006,-1.8,0,0.0
78,-1.755,3.9899e-11,-0.003202,-6.52e-13,0.0032018,-1.8,0,0.0
79,-1.7775,3.1678e-11,-0.003303,-4.53e-13,0.0033032,-1.8,0,0.0
80,-1.8,2.8816e-11,-0.0034046,-1.71e-13,0.0034046,-1.8,0,0.0
