,VD,IB,ID,IG,IS,VG,VB,VS
0,0.0,-9.21e-14,1.6063e-10,-1.94e-14,-2.4157e-10,-0.6,0.0,0.0
1,-0.0225,2.952e-13,-3.296e-07,-2.061e-13,3.296e-07,-0.6,0.0,0.0
2,-0.045,-1.346e-13,-5.6262e-07,-1.974e-13,5.6296e-07,-0.6,0.0,0.0
3,-0.0675,6.686e-13,-7.3204e-07,-9.17e-14,7.3204e-07,-0.6,0.0,0.0
4,-0.09,1.0075e-12,-8.5848e-07,-2.422e-13,8.588e-07,-0.6,0.0,0.0
5,-0.1125,-9e-14,-9.5788e-07,-1.477e-13,9.58e-07,-0.6,0.0,0.0
6,-0.135,5.653e-13,-1.03952e-06,-1.102e-13,1.0397e-06,-0.6,0.0,0.0
7,-0.1575,2.269e-13,-1.11064e-06,-8.85e-14,1.11096e-06,-0.6,0.0,0.0
8,-0.18,-2.143e-13,-1.1746e-06,-1.081e-13,1.1744e-06,-0.6,0.0,0.0
9,-0.2025,1.0648e-12,-1.2332e-06,1.93e-14,1.2333e-06,-0.6,0.0,0.0
10,-0.225,6.515e-13,-1.2899e-06,-5.5e-14,1.2894e-06,-0.6,0.0,0.0
11,-0.2475,7.65e-13,-1.3441e-06,-7.5e-14,1.3439e-06,-0.6,0.0,0.0
12,-0.27,8.26e-13,-1.3972e-06,-1.953e-13,1.3966e-06,-0.6,0.0,0.0
13,-0.2925,1.198e-12,-1.45e-06,-1.509e-13,1.4476e-06,-0.6,0.0,0.0
14,-0.315,8.01e-13,-1.5013e-06,-1.362e-13,1.4999e-06,-0.6,0.0,0.0
15,-0.3375,4.618e-13,-1.5527e-06,-1.227e-13,1.5503e-06,-0.6,0.0,0.0
16,-0.36,2.037e-13,-1.6055e-06,-5.55e-14,1.601e-06,-0.6,0.0,0.0
17,-0.3825,3.527e-13,-1.6592e-06,-1.662e-13,1.6516e-06,-0.6,0.0,0.0
18,-0.405,3.93e-14,-1.7128e-06,-1.72e-14,1.7019e-06,-0.6,0.0,0.0
19,-0.4275,1.4756e-12,-1.7624e-06,9e-15,1.7513e-06,-0.6,0.0,0.0
20,-0.45,9.834e-13,-1.8055e-06,-3.41e-14,1.8018e-06,-0.6,0.0,0.0
21,-0.4725,7.329e-13,-1.8524e-06,-8.8e-14,1.8518e-06,-0.6,0.0,0.0
22,-0.495,5.597e-13,-1.9019e-06,-1.294e-13,1.9025e-06,-0.6,0.0,0.0
23,-0.5175,1.0905e-12,-1.9534e-06,-1.365e-13,1.9536e-06,-0.6,0.0,0.0
24,-0.54,1.1433e-12,-2.0035e-06,-1.391e-13,2.0029e-06,-0.6,0.0,0.0
25,-0.5625,1.1461e-12,-2.0543e-06,-1.132e-13,2.0538e-06,-0.6,0.0,0.0
26,-0.585,1.664e-12,-2.1046e-06,-7.21e-14,2.1048e-06,-0.6,0.0,0.0
27,-0.6075,3.3117e-12,-2.1556e-06,3.05e-14,2.1553e-06,-0.6,0.0,0.0
28,-0.63,2.6251e-12,-2.2066e-06,-1.87e-14,2.206e-06,-0.6,0.0,0.0
29,-0.6525,3.0892e-12,-2.258e-06,2.53e-14,2.2578e-06,-0.6,0.0,0.0
30,-0.675,3.9476e-12,-2.3095e-06,-1.551e-13,2.3094e-06,-0.6,0.0,0.0
31,-0.6975,4.524e-12,-2.362e-06,-1.278e-13,2.3615e-06,-0.6,0.0,0.0
32,-0.72,4.2483e-12,-2.4144e-06,-1.727e-13,2.4137e-06,-0.6,0.0,0.0
33,-0.7425,4.3209e-12,-2.4665e-06,-2.308e-13,2.4666e-06,-0.6,0.0,0.0
34,-0.765,3.9618e-12,-2.5197e-06,-2.052e-13,2.519e-06,-0.6,0.0,0.0
35,-0.7875,4.8948e-12,-2.5723e-06,-1.711e-13,2.5725e-06,-0.6,0.0,0.0
36,-0.81,3.9879e-12,-2.6267e-06,9e-16,2.6266e-06,-0.6,0.0,0.0
37,-0.8325,5.0796e-12,-2.6804e-06,-3.34e-14,2.6796e-06,-0.6,0.0,0.0
38,-0.855,4.7683e-12,-2.7342e-06,1.82e-14,2.7342e-06,-0.6,0.0,0.0
39,-0.8775,4.9562e-12,-2.7886e-06,-1.632e-13,2.7888e-06,-0.6,0.0,0.0
40,-0.9,4.1646e-12,-2.8438e-06,-5.46e-14,2.8436e-06,-0.6,0.0,0.0
41,-0.9225,4.8201e-12,-2.8985e-06,-1.148e-13,2.8993e-06,-0.6,0.0,0.0
42,-0.945,4.5862e-12,-2.9548e-06,-2.409e-13,2.9559e-06,-0.6,0.0,0.0
43,-0.9675,4.7614e-12,-3.0118e-06,-2.613e-13,3.0115e-06,-0.6,0.0,0.0
44,-0.99,5.0397e-12,-3.0679e-06,-1.114e-13,3.0676e-06,-0.6,0.0,0.0
45,-1.0125,4.4443e-12,-3.1246e-06,-2.071e-13,3.1244e-06,-0.6,0.0,0.0
46,-1.035,4.9107e-12,-3.1818e-06,-2.8e-15,3.1826e-06,-0.6,0.0,0.0
47,-1.0575,5.1609e-12,-3.2398e-06,-1.81e-14,3.2396e-06,-0.6,0.0,0.0
48,-1.08,5.2925e-12,-3.2983e-06,-7.16e-14,3.2975e-06,-0.6,0.0,0.0
49,-1.1025,5.986e-12,-3.3563e-06,-1.74e-13,3.3566e-06,-0.6,0.0,0.0
50,-1.125,6.3448e-12,-3.4183e-06,-2.056e-13,3.4161e-06,-0.6,0.0,0.0
51,-1.1475,5.3145e-12,-3.4769e-06,-1.593e-13,3.4771e-06,-0.6,0.0,0.0
52,-1.17,5.8007e-12,-3.537e-06,-2.132e-13,3.5375e-06,-0.6,0.0,0.0
53,-1.1925,5.9279e-12,-3.5993e-06,-3.51e-14,3.5982e-06,-0.6,0.0,0.0
54,-1.215,6.2962e-12,-3.6599e-06,-1.05e-13,3.6601e-06,-0.6,0.0,0.0
55,-1.2375,6.7692e-12,-3.7226e-06,4.03e-14,3.7215e-06,-0.6,0.0,0.0
56,-1.26,7.1432e-12,-3.7842e-06,-8.38e-14,3.7843e-06,-0.6,0.0,0.0
57,-1.2825,7.0132e-12,-3.8479e-06,-2.006e-13,3.848e-06,-0.6,0.0,0.0
58,-1.305,7.0142e-12,-3.9109e-06,-1.059e-13,3.9108e-06,-0.6,0.0,0.0
59,-1.3275,7.5121e-12,-3.9757e-06,-1.869e-13,3.9765e-06,-0.6,0.0,0.0
60,-1.35,5.2012e-12,-4.0408e-06,1.2e-15,4.0405e-06,-0.6,0.0,0.0
61,-1.3725,8.2458e-12,-4.1063e-06,-9.3e-14,4.1057e-06,-0.6,0.0,0.0
62,-1.395,4.9834e-12,-4.1725e-06,-6.6e-15,4.1731e-06,-0.6,0.0,0.0
63,-1.4175,7.7899e-12,-4.2389e-06,-1.23e-13,4.2383e-06,-0.6,0.0,0.0
64,-1.44,6.204e-12,-4.3065e-06,-5.07e-14,4.3058e-06,-0.6,0.0,0.0
65,-1.4625,8.6432e-12,-4.3743e-06,-1.206e-13,4.3738e-06,-0.6,0.0,0.0
66,-1.485,9.744e-12,-4.442e-06,-1.61e-13,4.4427e-06,-0.6,0.0,0.0
67,-1.5075,1.5188e-11,-4.5116e-06,-1.451e-13,4.5112e-06,-0.6,0.0,0.0
68,-1.53,1.475e-11,-4.5808e-06,9.47e-14,4.5799e-06,-0.6,0.0,0.0
69,-1.5525,1.7693e-11,-4.651e-06,8.67e-14,4.6508e-06,-0.6,0.0,0.0
70,-1.575,1.3695e-11,-4.7237e-06,-1.8e-15,4.722e-06,-0.6,0.0,0.0
71,-1.5975,1.9985e-11,-4.7936e-06,-8e-16,4.7933e-06,-0.6,0.0,0.0
72,-1.62,1.6257e-11,-4.8657e-06,8.5e-14,4.8653e-06,-0.6,0.0,0.0
73,-1.6425,1.6556e-11,-4.9392e-06,-3.19e-14,4.9381e-06,-0.6,0.0,0.0
74,-1.665,2.0002e-11,-5.0127e-06,-1.097e-13,5.012e-06,-0.6,0.0,0.0
75,-1.6875,2.151e-11,-5.087e-06,6.51e-14,5.0857e-06,-0.6,0.0,0.0
76,-1.71,2.2977e-11,-5.1591e-06,1.113e-13,5.1586e-06,-0.6,0.0,0.0
77,-1.7325,2.9634e-11,-5.2358e-06,-2.88e-14,5.2371e-06,-0.6,0.0,0.0
78,-1.755,3.1633e-11,-5.3142e-06,6.49e-14,5.3142e-06,-0.6,0.0,0.0
79,-1.7775,3.2827e-11,-5.3908e-06,-8.65e-14,5.3904e-06,-0.6,0.0,0.0
80,-1.8,4.352e-11,-5.4693e-06,1.067e-13,5.4667e-06,-0.6,0.0,0.0
