,VG,IB,ID,IG,IS,VD,VS,VB
0,0.0,2.0903e-11,-3.202e-10,2.7e-13,2.262e-10,-1.8,0,0.0
1,-0.0225,1.7185e-11,-4.8355e-10,-2.1e-14,3.8231e-10,-1.8,0,0.0
2,-0.045,1.8953e-11,-7.2992e-10,9.46e-13,6.315e-10,-1.8,0,0.0
3,-0.0675,1.6772e-11,-1.14608e-09,-5.73e-13,1.05895e-09,-1.8,0,0.0
4,-0.09,2.2657e-11,-1.8453e-09,2.27e-13,1.7548e-09,-1.8,0,0.0
5,-0.1125,2.0525e-11,-2.9988e-09,1.96e-13,2.9238e-09,-1.8,0,0.0
6,-0.135,2.0605e-11,-4.9175e-09,2.74e-13,4.8432e-09,-1.8,0,0.0
7,-0.1575,2.1332e-11,-8.0964e-09,-5.24e-13,8.012e-09,-1.8,0,0.0
8,-0.18,2.1668e-11,-1.3244e-08,2.39e-13,1.3154e-08,-1.8,0,0.0
9,-0.2025,2.8974e-11,-2.1515e-08,-6.18e-13,2.1394e-08,-1.8,0,0.0
10,-0.225,2.637e-11,-3.4605e-08,-1.08e-13,3.4473e-08,-1.8,0,0.0
11,-0.2475,2.9582e-11,-5.4918e-08,1.1e-13,5.4785e-08,-1.8,0,0.0
12,-0.27,2.8908e-11,-8.5578e-08,-5.57e-13,8.5455e-08,-1.8,0,0.0
13,-0.2925,2.7582e-11,-1.31e-07,1.85e-13,1.3088e-07,-1.8,0,0.0
14,-0.315,2.6859e-11,-1.966e-07,-5.69e-13,1.9638e-07,-1.8,0,0.0
15,-0.3375,2.6409e-11,-2.8888e-07,-8.8e-14,2.8868e-07,-1.8,0,0.0
16,-0.36,2.8166e-11,-4.1522e-07,4e-14,4.1494e-07,-1.8,0,0.0
17,-0.3825,2.8861e-11,-5.8622e-07,-5.2e-14,5.8602e-07,-1.8,0,0.0
18,-0.405,3.2624e-11,-8.131e-07,-3.64e-13,8.1312e-07,-1.8,0,0.0
19,-0.4275,3.3499e-11,-1.10918e-06,2.17e-13,1.10908e-06,-1.8,0,0.0
20,-0.45,3.3352e-11,-1.4899e-06,5.2e-13,1.4893e-06,-1.8,0,0.0
21,-0.4725,3.4094e-11,-1.9731e-06,-4.31e-13,1.9731e-06,-1.8,0,0.0
22,-0.495,3.7361e-11,-2.5815e-06,4.1e-13,2.5811e-06,-1.8,0,0.0
23,-0.5175,4.0985e-11,-3.3351e-06,-1.1e-13,3.3332e-06,-1.8,0,0.0
24,-0.54,4.6617e-11,-4.2581e-06,-2.2e-14,4.2582e-06,-1.8,0,0.0
25,-0.5625,4.8454e-11,-5.3796e-06,2.2e-14,5.3796e-06,-1.8,0,0.0
26,-0.585,5.4123e-11,-6.7241e-06,-8.88e-13,6.7247e-06,-1.8,0,0.0
27,-0.6075,6.0851e-11,-8.313e-06,-1.52e-13,8.3137e-06,-1.8,0,0.0
28,-0.63,6.4822e-11,-1.01878e-05,-1.7e-13,1.01877e-05,-1.8,0,0.0
29,-0.6525,7.1456e-11,-1.2362e-05,-8.25e-13,1.2358e-05,-1.8,0,0.0
30,-0.675,7.8426e-11,-1.486e-05,-5.61e-13,1.4866e-05,-1.8,0,0.0
31,-0.6975,8.4944e-11,-1.771e-05,-5.81e-13,1.7708e-05,-1.8,0,0.0
32,-0.72,9.1884e-11,-2.0934e-05,-3.97e-13,2.0932e-05,-1.8,0,0.0
33,-0.7425,9.5014e-11,-2.4558e-05,-6.3e-14,2.455e-05,-1.8,0,0.0
34,-0.765,9.9855e-11,-2.8576e-05,-1.2e-14,2.8572e-05,-1.8,0,0.0
35,-0.7875,1.05329e-10,-3.2994e-05,-7.59e-13,3.2992e-05,-1.8,0,0.0
36,-0.81,1.06663e-10,-3.7858e-05,-6.64e-13,3.7854e-05,-1.8,0,0.0
37,-0.8325,1.10219e-10,-4.3158e-05,-1.32e-13,4.3152e-05,-1.8,0,0.0
38,-0.855,1.13389e-10,-4.8904e-05,5.9e-14,4.89e-05,-1.8,0,0.0
39,-0.8775,1.1781e-10,-5.5052e-05,-6.55e-13,5.505e-05,-1.8,0,0.0
40,-0.9,1.2132e-10,-6.1664e-05,-2.81e-13,6.1664e-05,-1.8,0,0.0
41,-0.9225,1.1942e-10,-6.871e-05,-7.5e-14,6.871e-05,-1.8,0,0.0
42,-0.945,1.1395e-10,-7.6172e-05,-1.8e-14,7.6184e-05,-1.8,0,0.0
43,-0.9675,1.1166e-10,-8.4046e-05,-2.32e-13,8.4052e-05,-1.8,0,0.0
44,-0.99,1.1558e-10,-9.2362e-05,-9.16e-13,9.2366e-05,-1.8,0,0.0
45,-1.0125,1.1463e-10,-0.000101076,-5.37e-13,0.00010108,-1.8,0,0.0
46,-1.035,1.1544e-10,-0.00011018,-5.91e-13,0.000110178,-1.8,0,0.0
47,-1.0575,1.0737e-10,-0.00011966,-6.35e-13,0.00011966,-1.8,0,0.0
48,-1.08,1.0792e-10,-0.0001295,-6.08e-13,0.0001295,-1.8,0,0.0
49,-1.1025,1.127e-10,-0.0001397,-4.01e-13,0.0001397,-1.8,0,0.0
50,-1.125,1.0518e-10,-0.0001503,-4.04e-13,0.00015028,-1.8,0,0.0
51,-1.1475,9.907e-11,-0.00016122,-9.21e-13,0.00016124,-1.8,0,0.0
52,-1.17,1.0305e-10,-0.00017248,-5.65e-13,0.00017244,-1.8,0,0.0
53,-1.1925,8.6134e-11,-0.000184,-8.49e-13,0.000184,-1.8,0,0.0
54,-1.215,8.4731e-11,-0.00019586,-6.75e-13,0.00019586,-1.8,0,0.0
55,-1.2375,7.8287e-11,-0.000208,-2.08e-13,0.00020796,-1.8,0,0.0
56,-1.26,7.462e-11,-0.00022042,9e-14,0.00022044,-1.8,0,0.0
57,-1.2825,6.9142e-11,-0.00023312,-3.26e-13,0.00023308,-1.8,0,0.0
58,-1.305,6.6819e-11,-0.00024608,-8.14e-13,0.00024602,-1.8,0,0.0
59,-1.3275,6.4967e-11,-0.00025926,-4.51e-13,0.00025924,-1.8,0,0.0
60,-1.35,5.819e-11,-0.00027274,-2.84e-13,0.0002727,-1.8,0,0.0
61,-1.3725,5.4866e-11,-0.0002863,-8.89e-13,0.00028626,-1.8,0,0.0
62,-1.395,5.2258e-11,-0.00030014,1.9e-14,0.00030012,-1.8,0,0.0
63,-1.4175,4.5857e-11,-0.00031426,-2.89e-13,0.0003142,-1.8,0,0.0
64,-1.44,4.2858e-11,-0.00032852,-1.57e-13,0.00032848,-1.8,0,0.0
65,-1.4625,4.2331e-11,-0.00034288,-2.08e-13,0.00034284,-1.8,0,0.0
66,-1.485,4.0027e-11,-0.00035756,-8.25e-13,0.0003575,-1.8,0,0.0
67,-1.5075,3.9226e-11,-0.0003723,-3.37e-13,0.00037228,-1.8,0,0.0
68,-1.53,3.4903e-11,-0.0003873,-3.7e-13,0.00038722,-1.8,0,0.0
69,-1.5525,3.5686e-11,-0.00040234,-1.15e-13,0.0004023,-1.8,0,0.0
70,-1.575,2.9713e-11,-0.00041758,-6.9e-13,0.00041752,-1.8,0,0.0
71,-1.5975,2.9255e-11,-0.00043288,-4.06e-13,0.0004329,-1.8,0,0.0
72,-1.62,2.9582e-11,-0.00044838,1.05e-13,0.00044834,-1.8,0,0.0
73,-1.6425,2.7228e-11,-0.00046396,-5.65e-13,0.00046394,-1.8,0,0.0
74,-1.665,2.6556e-11,-0.00047978,-7.31e-13,0.00047976,-1.8,0,0.0
75,-1.6875,2.4619e-11,-0.00049548,-9.31e-13,0.00049546,-1.8,0,0.0
76,-1.71,2.3587e-11,-0.00051144,-8.72e-13,0.0005114,-1.8,0,0.0
77,-1.7325,2.3386e-11,-0.00052744,-3.92e-13,0.00052738,-1.8,0,0.0
78,-1.755,2.2044e-11,-0.00054342,-2.6e-13,0.00054342,-1.8,0,0.0
79,-1.7775,2.1185e-11,-0.00055966,-9.96e-13,0.00055966,-1.8,0,0.0
80,-1.8,1.8444e-11,-0.0005759,-5.17e-13,0.0005759,-1.8,0,0.0
