! VERSION = 6.00
BEGIN_HEADER
 ICCAP_INPUTS
  VU1        V  E GROUND SMU1 0.1 CON        0
  VU2        V  S GROUND SMU3 0.1 CON        0
  VN         V  B GROUND SMU2 0.025 CON        0
  VP         V  C GROUND SMU4 0.025 LIN        1    -0.6       0.6        121  0.01      
 ICCAP_OUTPUTS
  IP         I  C GROUND SMU4 B
  IN         I  B GROUND SMU2 B
END_HEADER

BEGIN_DB
 ICCAP_VAR VU1        0              
 ICCAP_VAR VU2        0              
 ICCAP_VAR VN         0              

 #VP              IP              IN             
  -0.6            -9.6871e-005    5.1056e-005    
  -0.59           -7.5504e-005    3.9504e-005    
  -0.58           -5.7886e-005    3.01e-005      
  -0.57           -4.3518e-005    2.2494e-005    
  -0.56           -3.2156e-005    1.6527e-005    
  -0.55           -2.3373e-005    1.1957e-005    
  -0.54           -1.6779e-005    8.5461e-006    
  -0.53           -1.1872e-005    6.023e-006     
  -0.52           -8.3191e-006    4.2071e-006    
  -0.51           -5.7795e-006    2.9145e-006    
  -0.5            -4.0041e-006    2.0116e-006    
  -0.49           -2.7552e-006    1.3789e-006    
  -0.48           -1.893e-006     9.4619e-007    
  -0.47           -1.2925e-006    6.4373e-007    
  -0.46           -8.8079e-007    4.3801e-007    
  -0.45           -6.0235e-007    2.9763e-007    
  -0.44           -4.0932e-007    2.0252e-007    
  -0.43           -2.7817e-007    1.3683e-007    
  -0.42           -1.8888e-007    9.3242e-008    
  -0.41           -1.2882e-007    6.2681e-008    
  -0.4            -8.7511e-008    4.284e-008     
  -0.39           -5.9384e-008    2.9054e-008    
  -0.38           -3.9957e-008    1.9683e-008    
  -0.37           -2.765e-008     1.3084e-008    
  -0.36           -1.887e-008     9.2145e-009    
  -0.35           -1.2236e-008    6.3671e-009    
  -0.34           -8.661e-009     3.8556e-009    
  -0.33           -5.9169e-009    2.9356e-009    
  -0.32           -4.0384e-009    2.0279e-009    
  -0.31           -2.767e-009     1.4119e-009    
  -0.3            -1.9064e-009    9.925e-010     
  -0.29           -1.1882e-009    1.0327e-009    
  -0.28           -8.493e-010     3.6458e-010    
  -0.27           -3.3551e-010    -2.013e-011    
  -0.26           -1.1215e-010    3.8768e-010    
  -0.25           -3.2865e-010    5.8564e-010    
  -0.24           -3.4308e-010    1.596e-010     
  -0.23           -3.2008e-010    1.418e-011     
  -0.22           2.8239e-010     -2.5484e-010   
  -0.21           -1.5413e-010    -1.419e-011    
  -0.2            -2.4383e-010    1.952e-011     
  -0.19           3.092e-010      -2.9368e-010   
  -0.18           -8.035e-011     1.288e-011     
  -0.17           -5.548e-011     6.526e-011     
  -0.16           1.933e-011      -2.726e-010    
  -0.15           2.7517e-010     -2.8425e-010   
  -0.14           -2.723e-011     7.055e-011     
  -0.13           -1.1326e-010    1.1562e-010    
  -0.12           3.424e-010      -1.8939e-010   
  -0.11           -7.002e-011     -7.84e-012     
  -0.1            -3.104e-011     4.529e-011     
  -0.09           3.0791e-010     -2.8704e-010   
  -0.08           -4.659e-011     2.939e-011     
  -0.07           -6.753e-011     8.594e-011     
  -0.06           1.76e-011       -2.5311e-010   
  -0.05           2.6527e-010     -2.986e-010    
  -0.04           8.64e-012       1.0573e-010    
  -0.03           -1.5606e-010    1.3543e-010    
  -0.02           3.1849e-010     -2.4387e-010   
  -0.01           -4.401e-011     3.152e-011     
  0               2.9553e-010     -2.7503e-010   
  0.01            -3.296e-011     6.488e-011     
  0.02            -8.79e-011      1.009e-010     
  0.03            3.5515e-010     -1.6789e-010   
  0.04            -8.781e-011     -2.46e-011     
  0.05            -3.79e-012      7.6e-012       
  0.06            3.3355e-010     -3.0606e-010   
  0.07            -6.321e-011     9.06e-012      
  0.08            -3.179e-011     4.868e-011     
  0.09            3.0749e-010     -2.8626e-010   
  0.1             -4.092e-011     5.103e-011     
  0.11            -6.911e-011     8.832e-011     
  0.12            1.92e-011       -2.4881e-010   
  0.13            2.6601e-010     -3.0123e-010   
  0.14            2.87e-012       1.0827e-010    
  0.15            -1.4124e-010    1.2827e-010    
  0.16            3.3093e-010     -2.3002e-010   
  0.17            -6.68e-011      1.74e-012      
  0.18            -2.299e-011     3.782e-011     
  0.19            3.1516e-010     -2.9335e-010   
  0.2             -5.38e-011      2.253e-011     
  0.21            -4.152e-011     6.288e-011     
  0.22            3.086e-011      -2.7434e-010   
  0.23            2.8494e-010     -2.9056e-010   
  0.24            -1.646e-011     8.702e-011     
  0.25            -1.0775e-010    1.1415e-010    
  0.26            3.4772e-010     -1.9417e-010   
  0.27            -7.126e-011     -8.5e-012      
  0.28            -1.377e-011     2.797e-011     
  0.29            3.2334e-010     -2.9957e-010   
  0.3             -5.01e-011      3.021e-011     
  0.31            -4.753e-011     6.997e-011     
  0.32            2.906e-011      -2.6906e-010   
  0.33            2.802e-010      -2.9505e-010   
  0.34            -2.12e-011      7.706e-011     
  0.35            -9.703e-011     1.0876e-010    
  0.36            3.5369e-010     -1.8246e-010   
  0.37            -7.587e-011     -1.728e-011    
  0.38            -5.19e-012      1.822e-011     
  0.39            3.3082e-010     -3.0406e-010   
  0.4             -5.326e-011     2.022e-011     
  0.41            -3.63e-011      5.898e-011     
  0.42            3.393e-011      -2.7794e-010   
  0.43            2.886e-010      -2.9013e-010   
  0.44            -1.614e-011     8.341e-011     
  0.45            -1.0205e-010    1.1225e-010    
  0.46            3.512e-010      -1.9163e-010   
  0.47            -8.274e-011     -2.539e-011    
  0.48            1.41e-012       7.45e-012      
  0.49            2.3374e-010     -3.0905e-010   
  0.5             1.1843e-010     2.6302e-010    
  0.51            -1.84e-012      1.237e-011     
  0.52            2.2994e-010     -3.0655e-010   
  0.53            1.3972e-010     2.8162e-010    
  0.54            -1.622e-011     3.554e-011     
  0.55            3.2108e-010     -2.9559e-010   
  0.56            -4.319e-011     3.67e-011      
  0.57            -5.063e-011     7.529e-011     
  0.58            2.967e-011      -2.6432e-010   
  0.59            2.7964e-010     -2.9902e-010   
  0.6             -1.511e-011     8.195e-011     
END_DB

