! VERSION = 6.00
BEGIN_HEADER
 ICCAP_INPUTS
  VU1        V  E GROUND SMU1 0.1 CON        0
  VU2        V  S GROUND SMU3 0.1 CON        0
  VN         V  B GROUND SMU2 0.025 CON        0
  VP         V  C GROUND SMU4 0.025 LIN        1    -0.5       0.5        101  0.01      
 ICCAP_OUTPUTS
  IP         I  C GROUND SMU4 B
  IN         I  B GROUND SMU2 B
END_HEADER

BEGIN_DB
 ICCAP_VAR VU1        0              
 ICCAP_VAR VU2        0              
 ICCAP_VAR VN         0              

 #VP              IP              IN             
  -0.5            -0.00023405     0.00023407     
  -0.49           -0.00022917     0.00022925     
  -0.48           -0.00022431     0.00022441     
  -0.47           -0.00021948     0.00021962     
  -0.46           -0.00021467     0.0002148      
  -0.45           -0.00020988     0.00021005     
  -0.44           -0.0002051      0.00020524     
  -0.43           -0.00020032     0.00020045     
  -0.42           -0.00019553     0.00019569     
  -0.41           -0.00019077     0.00019095     
  -0.4            -0.00018602     0.00018619     
  -0.39           -0.00018125     0.00018144     
  -0.38           -0.0001765      0.00017666     
  -0.37           -0.0001718      0.00017197     
  -0.36           -0.00016706     0.00016723     
  -0.35           -0.00016232     0.00016249     
  -0.34           -0.00015759     0.00015775     
  -0.33           -0.00015288     0.00015306     
  -0.32           -0.00014816     0.00014833     
  -0.31           -0.00014346     0.00014362     
  -0.3            -0.00013875     0.00013892     
  -0.29           -0.0001341      0.00013428     
  -0.28           -0.00012939     0.00012956     
  -0.27           -0.0001247      0.00012486     
  -0.26           -0.00012        0.00012018     
  -0.25           -0.00011531     0.00011548     
  -0.24           -0.00011068     0.00011083     
  -0.23           -0.00010602     0.00010617     
  -0.22           -0.00010133     0.0001015      
  -0.21           -9.6745e-005    9.6763e-005    
  -0.2            -9.2119e-005    9.2137e-005    
  -0.19           -8.7463e-005    8.7479e-005    
  -0.18           -8.2813e-005    8.2829e-005    
  -0.17           -7.8163e-005    7.8183e-005    
  -0.16           -7.3556e-005    7.3576e-005    
  -0.15           -6.8927e-005    6.894e-005     
  -0.14           -6.4294e-005    6.4312e-005    
  -0.13           -5.9663e-005    5.9681e-005    
  -0.12           -5.5074e-005    5.509e-005     
  -0.11           -5.045e-005     5.0467e-005    
  -0.1            -4.5832e-005    4.5851e-005    
  -0.09           -4.1225e-005    4.1242e-005    
  -0.08           -3.6617e-005    3.6633e-005    
  -0.07           -3.2049e-005    3.2064e-005    
  -0.06           -2.745e-005     2.7467e-005    
  -0.05           -2.2855e-005    2.2868e-005    
  -0.04           -1.8261e-005    1.8281e-005    
  -0.03           -1.3713e-005    1.3728e-005    
  -0.02           -9.1359e-006    9.1385e-006    
  -0.01           -4.559e-006     4.5634e-006    
  0               1.1498e-008     -1.2838e-008   
  0.01            4.5859e-006     -4.5857e-006   
  0.02            9.1488e-006     -9.1452e-006   
  0.03            1.3684e-005     -1.3665e-005   
  0.04            1.8243e-005     -1.8228e-005   
  0.05            2.279e-005      -2.2775e-005   
  0.06            2.7339e-005     -2.7326e-005   
  0.07            3.1854e-005     -3.1837e-005   
  0.08            3.6392e-005     -3.6378e-005   
  0.09            4.0928e-005     -4.0915e-005   
  0.1             4.5463e-005     -4.5449e-005   
  0.11            4.9992e-005     -4.9978e-005   
  0.12            5.4488e-005     -5.4472e-005   
  0.13            5.9013e-005     -5.8997e-005   
  0.14            6.3528e-005     -6.3513e-005   
  0.15            6.8046e-005     -6.8029e-005   
  0.16            7.2517e-005     -7.2503e-005   
  0.17            7.702e-005      -7.7008e-005   
  0.18            8.1524e-005     -8.1509e-005   
  0.19            8.6023e-005     -8.6008e-005   
  0.2             9.0481e-005     -9.0467e-005   
  0.21            9.4973e-005     -9.4958e-005   
  0.22            9.9457e-005     -9.9445e-005   
  0.23            0.00010404      -0.000103931   
  0.24            0.00010853      -0.00010834    
  0.25            0.00011295      -0.0001128     
  0.26            0.00011742      -0.00011726    
  0.27            0.0001219       -0.00012172    
  0.28            0.00012635      -0.00012618    
  0.29            0.0001308       -0.00013063    
  0.3             0.00013524      -0.00013507    
  0.31            0.00013968      -0.00013953    
  0.32            0.00014414      -0.00014399    
  0.33            0.0001486       -0.00014843    
  0.34            0.00015301      -0.00015283    
  0.35            0.00015743      -0.00015725    
  0.36            0.00016189      -0.0001617     
  0.37            0.0001663       -0.00016614    
  0.38            0.0001707       -0.00017053    
  0.39            0.00017513      -0.00017496    
  0.4             0.00017952      -0.00017937    
  0.41            0.00018394      -0.00018378    
  0.42            0.00018833      -0.00018817    
  0.43            0.00019274      -0.00019257    
  0.44            0.00019714      -0.000197      
  0.45            0.00020155      -0.00020139    
  0.46            0.00020594      -0.00020579    
  0.47            0.0002103       -0.00021016    
  0.48            0.0002147       -0.00021452    
  0.49            0.00021906      -0.00021891    
  0.5             0.00022344      -0.00022329    
END_DB

