! VERSION = 6.00
BEGIN_HEADER
 ICCAP_INPUTS
  VU1        V  E GROUND SMU2 0.1 CON        0
  VU2        V  S GROUND SMU1 0.1 CON        0
  VN         V  B GROUND SMU4 0.015 CON        0
  VP         V  C GROUND SMU3 0.015 LIN        1    -0.5       0.5        101  0.01      
 ICCAP_OUTPUTS
  IP         I  C GROUND SMU3 B
  IN         I  B GROUND SMU4 B
END_HEADER

BEGIN_DB
 ICCAP_VAR VU1        0              
 ICCAP_VAR VU2        0              
 ICCAP_VAR VN         0              

 #VP              IP              IN             
  -0.5            -0.00024118     0.00024114     
  -0.49           -0.00023613     0.00023613     
  -0.48           -0.00023109     0.00023118     
  -0.47           -0.00022615     0.00022625     
  -0.46           -0.00022121     0.00022133     
  -0.45           -0.00021625     0.00021639     
  -0.44           -0.00021133     0.00021147     
  -0.43           -0.00020641     0.0002066      
  -0.42           -0.00020151     0.0002017      
  -0.41           -0.00019661     0.0001968      
  -0.4            -0.00019172     0.00019189     
  -0.39           -0.00018682     0.000187       
  -0.38           -0.00018198     0.00018216     
  -0.37           -0.00017709     0.00017726     
  -0.36           -0.00017221     0.00017239     
  -0.35           -0.00016734     0.00016755     
  -0.34           -0.00016247     0.00016266     
  -0.33           -0.00015764     0.00015785     
  -0.32           -0.0001528      0.00015295     
  -0.31           -0.00014795     0.00014813     
  -0.3            -0.00014311     0.00014329     
  -0.29           -0.00013827     0.00013845     
  -0.28           -0.00013346     0.00013364     
  -0.27           -0.00012864     0.00012882     
  -0.26           -0.0001238      0.00012398     
  -0.25           -0.00011898     0.00011917     
  -0.24           -0.00011421     0.00011439     
  -0.23           -0.0001094      0.00010956     
  -0.22           -0.00010459     0.00010477     
  -0.21           -9.9884e-005    9.998e-005     
  -0.2            -9.5076e-005    9.5095e-005    
  -0.19           -9.0322e-005    9.0339e-005    
  -0.18           -8.5536e-005    8.5545e-005    
  -0.17           -8.0743e-005    8.0753e-005    
  -0.16           -7.5954e-005    7.597e-005     
  -0.15           -7.1179e-005    7.1203e-005    
  -0.14           -6.6445e-005    6.6456e-005    
  -0.13           -6.167e-005     6.1682e-005    
  -0.12           -5.6894e-005    5.692e-005     
  -0.11           -5.2141e-005    5.2151e-005    
  -0.1            -4.7378e-005    4.7394e-005    
  -0.09           -4.2655e-005    4.2673e-005    
  -0.08           -3.7907e-005    3.7922e-005    
  -0.07           -3.3163e-005    3.3172e-005    
  -0.06           -2.8419e-005    2.8437e-005    
  -0.05           -2.3707e-005    2.3726e-005    
  -0.04           -1.8979e-005    1.8989e-005    
  -0.03           -1.4243e-005    1.4261e-005    
  -0.02           -9.5162e-006    9.5174e-006    
  -0.01           -4.7891e-006    4.7949e-006    
  0               -1.0634e-007    1.03757e-007   
  0.01            4.6104e-006     -4.6065e-006   
  0.02            9.3256e-006     -9.322e-006    
  0.03            1.4037e-005     -1.4023e-005   
  0.04            1.8709e-005     -1.8688e-005   
  0.05            2.3404e-005     -2.339e-005    
  0.06            2.81e-005       -2.8093e-005   
  0.07            3.2801e-005     -3.2783e-005   
  0.08            3.7487e-005     -3.7464e-005   
  0.09            4.2135e-005     -4.2119e-005   
  0.1             4.6822e-005     -4.6802e-005   
  0.11            5.1503e-005     -5.148e-005    
  0.12            5.617e-005      -5.6161e-005   
  0.13            6.0847e-005     -6.0832e-005   
  0.14            6.5491e-005     -6.5464e-005   
  0.15            7.0148e-005     -7.0131e-005   
  0.16            7.4802e-005     -7.4789e-005   
  0.17            7.9459e-005     -7.944e-005    
  0.18            8.4116e-005     -8.41e-005     
  0.19            8.8727e-005     -8.8714e-005   
  0.2             9.3376e-005     -9.3349e-005   
  0.21            9.8015e-005     -9.8e-005      
  0.22            0.00010271      -0.00010251    
  0.23            0.00010735      -0.00010715    
  0.24            0.00011193      -0.00011175    
  0.25            0.00011655      -0.00011637    
  0.26            0.00012119      -0.00012098    
  0.27            0.00012582      -0.00012562    
  0.28            0.00013042      -0.00013025    
  0.29            0.00013501      -0.00013481    
  0.3             0.00013959      -0.00013941    
  0.31            0.0001442       -0.00014402    
  0.32            0.00014882      -0.00014863    
  0.33            0.00015337      -0.0001532     
  0.34            0.00015798      -0.00015778    
  0.35            0.00016257      -0.00016237    
  0.36            0.00016715      -0.00016697    
  0.37            0.00017175      -0.00017153    
  0.38            0.0001763       -0.00017609    
  0.39            0.00018085      -0.00018065    
  0.4             0.00018544      -0.00018525    
  0.41            0.00019001      -0.00018982    
  0.42            0.00019456      -0.00019439    
  0.43            0.0001991       -0.00019891    
  0.44            0.00020364      -0.00020348    
  0.45            0.00020822      -0.00020804    
  0.46            0.00021277      -0.00021261    
  0.47            0.00021732      -0.00021714    
  0.48            0.00022184      -0.00022164    
  0.49            0.00022637      -0.0002262     
  0.5             0.00023092      -0.00023071    
END_DB

