! VERSION = 6.00
BEGIN_HEADER
 ICCAP_INPUTS
  VU1        V  E GROUND SMU4 0.1 CON        0
  VU2        V  S GROUND SMU1 0.1 CON        0
  VN         V  B GROUND SMU2 0.015 CON        0
  VP         V  C GROUND SMU3 0.015 LIN        1    -0.6       0.6        121  0.01      
 ICCAP_OUTPUTS
  IP         I  C GROUND SMU3 B
  IN         I  B GROUND SMU2 B
END_HEADER

BEGIN_DB
 ICCAP_VAR VU1        0              
 ICCAP_VAR VU2        0              
 ICCAP_VAR VN         0              

 #VP              IP              IN             
  -0.6            -0.00014676     0.00011654     
  -0.59           -0.00011284     8.9581e-005    
  -0.58           -8.5504e-005    6.7846e-005    
  -0.57           -6.3782e-005    5.0647e-005    
  -0.56           -4.6796e-005    3.7171e-005    
  -0.55           -3.3864e-005    2.6944e-005    
  -0.54           -2.4207e-005    1.9305e-005    
  -0.53           -1.7163e-005    1.3681e-005    
  -0.52           -1.2083e-005    9.6437e-006    
  -0.51           -8.441e-006     6.7436e-006    
  -0.5            -5.8607e-006    4.6954e-006    
  -0.49           -4.0525e-006    3.2508e-006    
  -0.48           -2.7967e-006    2.2424e-006    
  -0.47           -1.9292e-006    1.5487e-006    
  -0.46           -1.33e-006      1.0651e-006    
  -0.45           -9.1415e-007    7.3301e-007    
  -0.44           -6.2641e-007    5.0431e-007    
  -0.43           -4.2741e-007    3.439e-007     
  -0.42           -2.9585e-007    2.3668e-007    
  -0.41           -1.9914e-007    1.6244e-007    
  -0.4            -1.4015e-007    1.1003e-007    
  -0.39           -9.5276e-008    7.6966e-008    
  -0.38           -6.3645e-008    5.0855e-008    
  -0.37           -4.4781e-008    3.6585e-008    
  -0.36           -2.9379e-008    2.381e-008     
  -0.35           -2.1337e-008    1.677e-008     
  -0.34           -1.1732e-008    1.1427e-008    
  -0.33           -1.1894e-008    1.0203e-008    
  -0.32           -8.3054e-009    7.231e-009     
  -0.31           -5.7881e-009    4.0615e-009    
  -0.3            -4.7806e-009    2.2681e-009    
  -0.29           -3.447e-009     2.379e-009     
  -0.28           -3.3351e-009    1.9933e-009    
  -0.27           -2.8738e-009    2.278e-009     
  -0.26           -2.2792e-009    2.1708e-009    
  -0.25           -1.841e-009     2.2188e-009    
  -0.24           -1.5598e-009    2.2137e-009    
  -0.23           -1.3441e-009    1.6778e-009    
  -0.22           -1.6566e-009    1.8188e-009    
  -0.21           -1.422e-009     1.9817e-009    
  -0.2            -1.2766e-009    2.0153e-009    
  -0.19           -1.1254e-009    1.5989e-009    
  -0.18           -1.4653e-009    1.811e-009     
  -0.17           -1.3045e-009    1.958e-009     
  -0.16           -1.1799e-009    1.9645e-009    
  -0.15           -1.0389e-009    1.6435e-009    
  -0.14           -1.3743e-009    1.8612e-009    
  -0.13           -1.2424e-009    1.9607e-009    
  -0.12           -1.1203e-009    1.9432e-009    
  -0.11           -9.731e-010     1.7134e-009    
  -0.1            -1.3157e-009    1.9102e-009    
  -0.09           -1.1978e-009    1.9567e-009    
  -0.08           -1.0689e-009    1.5691e-009    
  -0.07           -1.4169e-009    1.7942e-009    
  -0.06           -1.2679e-009    1.9469e-009    
  -0.05           -1.154e-009     1.9476e-009    
  -0.04           -1.0172e-009    1.6497e-009    
  -0.03           -1.355e-009     1.8623e-009    
  -0.02           -1.2295e-009    1.9577e-009    
  -0.01           -1.1111e-009    1.9372e-009    
  0               2.0291e-009     1.0829e-009    
  0.01            1.6426e-009     1.4039e-009    
  0.02            1.8749e-009     1.2768e-009    
  0.03            2.0211e-009     1.1676e-009    
  0.04            2.02e-009       1.0279e-009    
  0.05            1.7278e-009     1.3504e-009    
  0.06            1.9441e-009     1.2408e-009    
  0.07            2.0332e-009     1.1255e-009    
  0.08            1.5926e-009     1.4506e-009    
  0.09            1.8284e-009     1.3113e-009    
  0.1             2e-009          1.2011e-009    
  0.11            2.0217e-009     1.0697e-009    
  0.12            1.6809e-009     1.3922e-009    
  0.13            1.9072e-009     1.2705e-009    
  0.14            2.0226e-009     1.1502e-009    
  0.15            2.0079e-009     1.0066e-009    
  0.16            1.7686e-009     1.3411e-009    
  0.17            1.9661e-009     1.2262e-009    
  0.18            2.0212e-009     1.1008e-009    
  0.19            1.6224e-009     1.4339e-009    
  0.2             1.8578e-009     1.2976e-009    
  0.21            2.0025e-009     1.1795e-009    
  0.22            2.0096e-009     1.0444e-009    
  0.23            1.7144e-009     1.3728e-009    
  0.24            1.931e-009      1.2556e-009    
  0.25            2.014e-009      1.1343e-009    
  0.26            2.0051e-009     9.904e-010     
  0.27            1.8019e-009     1.3268e-009    
  0.28            1.9812e-009     1.2114e-009    
  0.29            2.0169e-009     1.0822e-009    
  0.3             1.6545e-009     1.4163e-009    
  0.31            1.8822e-009     1.2819e-009    
  0.32            2.0052e-009     1.1653e-009    
  0.33            2.0053e-009     1.0275e-009    
  0.34            1.743e-009      1.3586e-009    
  0.35            1.9439e-009     1.24e-009      
  0.36            2.009e-009      1.118e-009     
  0.37            1.6058e-009     1.4602e-009    
  0.38            1.8281e-009     1.3139e-009    
  0.39            1.9842e-009     1.194e-009     
  0.4             2.0087e-009     1.0626e-009    
  0.41            1.6885e-009     1.3962e-009    
  0.42            1.8973e-009     1.2696e-009    
  0.43            2.0016e-009     1.1476e-009    
  0.44            2.0065e-009     1.0102e-009    
  0.45            1.7743e-009     1.3457e-009    
  0.46            1.9596e-009     1.2253e-009    
  0.47            2.0095e-009     1.0999e-009    
  0.48            1.6339e-009     1.4402e-009    
  0.49            1.8565e-009     1.2977e-009    
  0.5             1.9917e-009     1.1799e-009    
  0.51            2.0078e-009     1.0452e-009    
  0.52            1.7135e-009     1.3823e-009    
  0.53            1.9213e-009     1.2553e-009    
  0.54            2.0032e-009     1.1353e-009    
  0.55            2.0044e-009     9.948e-010     
  0.56            1.7969e-009     1.3296e-009    
  0.57            1.9691e-009     1.211e-009     
  0.58            2.0073e-009     1.0847e-009    
  0.59            1.6583e-009     1.4237e-009    
  0.6             1.8734e-009     1.283e-009     
END_DB

