! VERSION = 6.00
BEGIN_HEADER
 ICCAP_INPUTS
  VU1        V  E GROUND SMU3 0.1 CON        0
  VU2        V  S GROUND SMU1 0.1 CON        0
  VN         V  B GROUND SMU4 0.015 CON        0
  VP         V  C GROUND SMU2 0.015 LIN        1    -0.5       0.5        101  0.01      
 ICCAP_OUTPUTS
  IP         I  C GROUND SMU2 B
  IN         I  B GROUND SMU4 B
END_HEADER

BEGIN_DB
 ICCAP_VAR VU1        0              
 ICCAP_VAR VU2        0              
 ICCAP_VAR VN         0              

 #VP              IP              IN             
  -0.5            -0.0001298      0.00012989     
  -0.49           -0.00012722     0.00012738     
  -0.48           -0.00012467     0.00012482     
  -0.47           -0.00012211     0.00012225     
  -0.46           -0.00011956     0.00011973     
  -0.45           -0.000117       0.00011717     
  -0.44           -0.00011443     0.00011459     
  -0.43           -0.00011187     0.00011202     
  -0.42           -0.00010934     0.00010948     
  -0.41           -0.00010676     0.00010692     
  -0.4            -0.00010416     0.00010435     
  -0.39           -0.00010159     0.00010172     
  -0.38           -9.9084e-005    9.9105e-005    
  -0.37           -9.6516e-005    9.6552e-005    
  -0.36           -9.3923e-005    9.3941e-005    
  -0.35           -9.1354e-005    9.1397e-005    
  -0.34           -8.8812e-005    8.8837e-005    
  -0.33           -8.6229e-005    8.625e-005     
  -0.32           -8.3655e-005    8.3677e-005    
  -0.31           -8.1055e-005    8.1123e-005    
  -0.3            -7.8477e-005    7.8518e-005    
  -0.29           -7.5907e-005    7.5927e-005    
  -0.28           -7.331e-005     7.3343e-005    
  -0.27           -7.0725e-005    7.0727e-005    
  -0.26           -6.8109e-005    6.814e-005     
  -0.25           -6.5511e-005    6.5537e-005    
  -0.24           -6.2907e-005    6.2968e-005    
  -0.23           -6.0327e-005    6.0369e-005    
  -0.22           -5.7729e-005    5.7745e-005    
  -0.21           -5.5113e-005    5.5134e-005    
  -0.2            -5.2522e-005    5.2551e-005    
  -0.19           -4.9905e-005    4.9948e-005    
  -0.18           -4.7297e-005    4.7323e-005    
  -0.17           -4.4671e-005    4.4704e-005    
  -0.16           -4.2076e-005    4.2103e-005    
  -0.15           -3.9459e-005    3.9492e-005    
  -0.14           -3.6848e-005    3.6897e-005    
  -0.13           -3.4262e-005    3.4264e-005    
  -0.12           -3.1621e-005    3.1641e-005    
  -0.11           -2.8988e-005    2.9021e-005    
  -0.1            -2.637e-005     2.6391e-005    
  -0.09           -2.3727e-005    2.3743e-005    
  -0.08           -2.1093e-005    2.1109e-005    
  -0.07           -1.8481e-005    1.8496e-005    
  -0.06           -1.5846e-005    1.5863e-005    
  -0.05           -1.3204e-005    1.3218e-005    
  -0.04           -1.056e-005     1.0577e-005    
  -0.03           -7.9392e-006    7.9418e-006    
  -0.02           -5.294e-006     5.2983e-006    
  -0.01           -2.6409e-006    2.6442e-006    
  0               1.1545e-008     -1.0297e-008   
  0.01            2.6422e-006     -2.6432e-006   
  0.02            5.3074e-006     -5.3023e-006   
  0.03            7.9593e-006     -7.9599e-006   
  0.04            1.0623e-005     -1.06242e-005  
  0.05            1.3281e-005     -1.3256e-005   
  0.06            1.5936e-005     -1.5924e-005   
  0.07            1.8608e-005     -1.8599e-005   
  0.08            2.128e-005      -2.1263e-005   
  0.09            2.3928e-005     -2.3922e-005   
  0.1             2.6604e-005     -2.6601e-005   
  0.11            2.9278e-005     -2.9274e-005   
  0.12            3.1954e-005     -3.1957e-005   
  0.13            3.4611e-005     -3.4614e-005   
  0.14            3.731e-005      -3.7313e-005   
  0.15            3.9975e-005     -3.9971e-005   
  0.16            4.2667e-005     -4.2678e-005   
  0.17            4.5325e-005     -4.5323e-005   
  0.18            4.8048e-005     -4.8022e-005   
  0.19            5.0707e-005     -5.0726e-005   
  0.2             5.3421e-005     -5.3418e-005   
  0.21            5.6129e-005     -5.6114e-005   
  0.22            5.8767e-005     -5.8821e-005   
  0.23            6.151e-005      -6.1499e-005   
  0.24            6.4225e-005     -6.4223e-005   
  0.25            6.6895e-005     -6.6914e-005   
  0.26            6.9594e-005     -6.9616e-005   
  0.27            7.2302e-005     -7.2375e-005   
  0.28            7.4991e-005     -7.5059e-005   
  0.29            7.7772e-005     -7.7781e-005   
  0.3             8.0368e-005     -8.0424e-005   
  0.31            8.3247e-005     -8.3288e-005   
  0.32            8.5914e-005     -8.6031e-005   
  0.33            8.8744e-005     -8.8754e-005   
  0.34            9.1396e-005     -9.143e-005    
  0.35            9.4117e-005     -9.4173e-005   
  0.36            9.6856e-005     -9.6891e-005   
  0.37            9.9554e-005     -9.962e-005    
  0.38            0.000102315     -0.000102319   
  0.39            0.000105086     -0.00010491    
  0.4             0.00010789      -0.00010778    
  0.41            0.00011073      -0.00011062    
  0.42            0.00011343      -0.00011329    
  0.43            0.00011606      -0.00011596    
  0.44            0.00011879      -0.00011876    
  0.45            0.00012147      -0.00012136    
  0.46            0.00012435      -0.00012422    
  0.47            0.00012706      -0.00012704    
  0.48            0.00012985      -0.00012979    
  0.49            0.00013259      -0.00013251    
  0.5             0.00013542      -0.00013538    
END_DB

