! VERSION = 6.00
BEGIN_HEADER
 ICCAP_INPUTS
  SVH        I  E GROUND SMU1 2 CON        0
  SVL        I  S GROUND SMU4 2 CON        0
  FVL        V  B GROUND SMU3 0.015 CON        0
  FVH        V  C GROUND SMU2 0.015 LIN        1    -1         1          201  0.01      
 ICCAP_OUTPUTS
  IVH        I  C GROUND SMU2 B
  IVL        I  B GROUND SMU3 B
  VVH        V  E GROUND SMU1 B
  VVL        V  S GROUND SMU4 B
END_HEADER

BEGIN_DB
 ICCAP_VAR SVH        0              
 ICCAP_VAR SVL        0              
 ICCAP_VAR FVL        0              

 #FVH             IVH             IVL             VVH             VVL            
  -1              -0.0013705      0.001372        -0.88706        -0.07472       
  -0.99           -0.0013566      0.0013583       -0.87824        -0.074         
  -0.98           -0.0013429      0.0013447       -0.86918        -0.0732        
  -0.97           -0.0013296      0.0013308       -0.86024        -0.07246       
  -0.96           -0.0013155      0.0013174       -0.85136        -0.07164       
  -0.95           -0.001302       0.0013038       -0.84264        -0.07092       
  -0.94           -0.0012882      0.0012901       -0.83366        -0.07008       
  -0.93           -0.0012744      0.0012762       -0.82474        -0.06942       
  -0.92           -0.001261       0.0012626       -0.8158         -0.06866       
  -0.91           -0.0012474      0.0012492       -0.80706        -0.0679        
  -0.9            -0.0012338      0.0012355       -0.7982         -0.06718       
  -0.89           -0.0012201      0.0012219       -0.7893         -0.0664        
  -0.88           -0.0012065      0.0012083       -0.78044        -0.0657        
  -0.87           -0.0011927      0.0011947       -0.77162        -0.06488       
  -0.86           -0.0011791      0.0011808       -0.76272        -0.06422       
  -0.85           -0.0011654      0.0011672       -0.75372        -0.0634        
  -0.84           -0.0011518      0.0011534       -0.74484        -0.06268       
  -0.83           -0.0011382      0.00114         -0.73616        -0.0619        
  -0.82           -0.0011244      0.0011264       -0.72722        -0.0612        
  -0.81           -0.0011107      0.0011127       -0.71828        -0.06046       
  -0.8            -0.0010972      0.0010989       -0.7095         -0.05968       
  -0.79           -0.0010834      0.0010854       -0.70058        -0.05894       
  -0.78           -0.0010698      0.0010714       -0.6916         -0.05822       
  -0.77           -0.0010561      0.001058        -0.68288        -0.05742       
  -0.76           -0.0010423      0.0010441       -0.67404        -0.05672       
  -0.75           -0.0010286      0.0010305       -0.66512        -0.05598       
  -0.74           -0.0010153      0.0010166       -0.65626        -0.05522       
  -0.73           -0.0010014      0.0010029       -0.64738        -0.05448       
  -0.72           -0.00098847     0.00098853      -0.63842        -0.05372       
  -0.71           -0.00097483     0.00097504      -0.62964        -0.05296       
  -0.7            -0.00096115     0.00096129      -0.62084        -0.05228       
  -0.69           -0.00094746     0.00094774      -0.6119         -0.05152       
  -0.68           -0.00093361     0.00093385      -0.60292        -0.05078       
  -0.67           -0.00092013     0.00092038      -0.5943         -0.05006       
  -0.66           -0.00090638     0.00090651      -0.58528        -0.0493        
  -0.65           -0.00089261     0.00089281      -0.57638        -0.04854       
  -0.64           -0.00087876     0.00087893      -0.56744        -0.0478        
  -0.63           -0.00086533     0.00086543      -0.55866        -0.04708       
  -0.62           -0.0008516      0.00085171      -0.5498         -0.04632       
  -0.61           -0.00083789     0.00083801      -0.54088        -0.04556       
  -0.6            -0.00082413     0.00082428      -0.53208        -0.04486       
  -0.59           -0.0008105      0.00081069      -0.52322        -0.0441        
  -0.58           -0.00079667     0.00079684      -0.51434        -0.04336       
  -0.57           -0.00078308     0.00078322      -0.50552        -0.04264       
  -0.56           -0.00076927     0.00076949      -0.49664        -0.0419        
  -0.55           -0.00075551     0.00075571      -0.48776        -0.04118       
  -0.54           -0.0007419      0.00074198      -0.47888        -0.04042       
  -0.53           -0.00072823     0.00072833      -0.47006        -0.0397        
  -0.52           -0.00071443     0.00071461      -0.46114        -0.03892       
  -0.51           -0.00070071     0.00070079      -0.4522         -0.03822       
  -0.5            -0.00068709     0.0006873       -0.44354        -0.03742       
  -0.49           -0.00067339     0.00067355      -0.43466        -0.0367        
  -0.48           -0.00065955     0.00065978      -0.42568        -0.03596       
  -0.47           -0.00064581     0.00064604      -0.41686        -0.03524       
  -0.46           -0.00063215     0.00063237      -0.40808        -0.03448       
  -0.45           -0.00061843     0.00061855      -0.39916        -0.03372       
  -0.44           -0.00060462     0.00060473      -0.39018        -0.03296       
  -0.43           -0.00059081     0.00059098      -0.3813         -0.03222       
  -0.42           -0.00057719     0.00057734      -0.37256        -0.03152       
  -0.41           -0.00056348     0.00056363      -0.36358        -0.03076       
  -0.4            -0.00054963     0.00054983      -0.35474        -0.03004       
  -0.39           -0.00053594     0.00053604      -0.34592        -0.0293        
  -0.38           -0.00052213     0.00052227      -0.337          -0.02852       
  -0.37           -0.0005084      0.00050866      -0.32814        -0.0278        
  -0.36           -0.00049469     0.00049489      -0.31932        -0.02706       
  -0.35           -0.00048089     0.00048106      -0.31042        -0.02632       
  -0.34           -0.00046717     0.00046731      -0.30144        -0.02558       
  -0.33           -0.0004534      0.00045361      -0.29272        -0.02484       
  -0.32           -0.00043965     0.0004398       -0.28378        -0.02412       
  -0.31           -0.0004259      0.0004261       -0.27486        -0.02334       
  -0.3            -0.0004122      0.00041235      -0.26602        -0.02258       
  -0.29           -0.00039853     0.00039871      -0.2573         -0.02186       
  -0.28           -0.00038475     0.00038493      -0.24836        -0.02114       
  -0.27           -0.00037094     0.00037112      -0.23942        -0.02034       
  -0.26           -0.00035715     0.00035739      -0.23058        -0.01962       
  -0.25           -0.00034353     0.00034368      -0.22174        -0.01888       
  -0.24           -0.00032975     0.00032989      -0.21284        -0.01814       
  -0.23           -0.000316       0.00031612      -0.20394        -0.01744       
  -0.22           -0.0003022      0.00030239      -0.19518        -0.01664       
  -0.21           -0.00028842     0.00028858      -0.18626        -0.01592       
  -0.2            -0.00027476     0.00027494      -0.1774         -0.01516       
  -0.19           -0.000261       0.0002612       -0.16858        -0.0144        
  -0.18           -0.00024723     0.00024741      -0.15972        -0.01374       
  -0.17           -0.00023348     0.00023366      -0.1508         -0.01294       
  -0.16           -0.00021978     0.00021992      -0.142          -0.01226       
  -0.15           -0.00020599     0.0002062       -0.1332         -0.0115        
  -0.14           -0.00019221     0.00019237      -0.12428        -0.01074       
  -0.13           -0.00017843     0.00017861      -0.11536        -0.01          
  -0.12           -0.00016477     0.00016494      -0.1066         -0.00926       
  -0.11           -0.00015099     0.00015119      -0.0977         -0.00852       
  -0.1            -0.00013725     0.0001374       -0.08884        -0.00774       
  -0.09           -0.00012345     0.00012362      -0.07996        -0.00702       
  -0.08           -0.00010964     0.00010987      -0.07104        -0.00626       
  -0.07           -9.6157e-005    9.6188e-005     -0.06224        -0.00546       
  -0.06           -8.2372e-005    8.2383e-005     -0.05336        -0.00474       
  -0.05           -6.8574e-005    6.8592e-005     -0.04448        -0.004         
  -0.04           -5.4777e-005    5.4796e-005     -0.03564        -0.00328       
  -0.03           -4.11e-005      4.1099e-005     -0.02678        -0.00254       
  -0.02           -2.7295e-005    2.7317e-005     -0.01794        -0.0018        
  -0.01           -1.3504e-005    1.3529e-005     -0.00908        -0.0011        
  0               1.7923e-007     -1.5427e-007    -0.00016        -0.00032       
  0.01            1.3968e-005     -1.3932e-005    0.0086          0.00038        
  0.02            2.7763e-005     -2.7738e-005    0.0175          0.0011         
  0.03            4.1552e-005     -4.1528e-005    0.02636         0.00182        
  0.04            5.5334e-005     -5.5315e-005    0.03528         0.0026         
  0.05            6.9017e-005     -6.8991e-005    0.0441          0.0033         
  0.06            8.2799e-005     -8.2796e-005    0.05294         0.00404        
  0.07            9.6604e-005     -9.6586e-005    0.0618          0.00476        
  0.08            0.000110382     -0.00011037     0.0707          0.0055         
  0.09            0.00012405      -0.00012391     0.07952         0.0063         
  0.1             0.00013784      -0.00013768     0.08838         0.00704        
  0.11            0.0001516       -0.00015144     0.09732         0.00782        
  0.12            0.0001654       -0.00016521     0.10616         0.00854        
  0.13            0.00017907      -0.00017886     0.11494         0.00928        
  0.14            0.00019284      -0.00019262     0.12378         0.01           
  0.15            0.00020658      -0.00020638     0.1327          0.01074        
  0.16            0.00022037      -0.0002202      0.14158         0.01148        
  0.17            0.00023403      -0.00023387     0.15038         0.01222        
  0.18            0.00024782      -0.00024767     0.1593          0.013          
  0.19            0.00026164      -0.00026143     0.16816         0.01372        
  0.2             0.00027536      -0.00027519     0.17698         0.01444        
  0.21            0.00028915      -0.00028895     0.18592         0.01524        
  0.22            0.00030278      -0.00030258     0.1947          0.01594        
  0.23            0.00031656      -0.00031638     0.2035          0.01668        
  0.24            0.00033036      -0.00033014     0.21248         0.01744        
  0.25            0.00034412      -0.00034392     0.22134         0.01816        
  0.26            0.00035779      -0.0003576      0.23012         0.0189         
  0.27            0.00037156      -0.00037134     0.23898         0.01968        
  0.28            0.00038532      -0.00038512     0.24792         0.0204         
  0.29            0.00039906      -0.00039888     0.25678         0.02112        
  0.3             0.0004128       -0.00041254     0.26556         0.02188        
  0.31            0.00042654      -0.00042636     0.2745          0.0226         
  0.32            0.0004402       -0.00044006     0.28334         0.02332        
  0.33            0.00045407      -0.00045385     0.29218         0.02408        
  0.34            0.00046771      -0.00046756     0.30102         0.02484        
  0.35            0.00048142      -0.00048127     0.30986         0.0256         
  0.36            0.00049522      -0.00049502     0.31874         0.0263         
  0.37            0.00050898      -0.00050875     0.32762         0.02706        
  0.38            0.00052258      -0.00052241     0.33644         0.0278         
  0.39            0.00053636      -0.00053616     0.3453          0.02854        
  0.4             0.00055008      -0.00054988     0.35418         0.02926        
  0.41            0.00056381      -0.00056358     0.36304         0.03002        
  0.42            0.00057744      -0.00057728     0.37188         0.03074        
  0.43            0.00059126      -0.00059102     0.38072         0.0315         
  0.44            0.00060501      -0.0006048      0.38964         0.03224        
  0.45            0.00061869      -0.0006185      0.39846         0.033          
  0.46            0.00063247      -0.00063226     0.40734         0.0337         
  0.47            0.00064606      -0.00064588     0.41612         0.03444        
  0.48            0.00065978      -0.00065957     0.42498         0.0352         
  0.49            0.00067351      -0.00067336     0.43386         0.03596        
  0.5             0.0006872       -0.00068707     0.44272         0.03666        
  0.51            0.00070089      -0.00070065     0.45152         0.0374         
  0.52            0.00071458      -0.00071438     0.4604          0.03818        
  0.53            0.00072838      -0.00072819     0.4693          0.03892        
  0.54            0.00074209      -0.00074192     0.47818         0.0397         
  0.55            0.0007557       -0.00075552     0.48696         0.04036        
  0.56            0.0007694       -0.00076928     0.4958          0.0411         
  0.57            0.0007832       -0.00078297     0.5047          0.04184        
  0.58            0.00079684      -0.00079675     0.5136          0.04256        
  0.59            0.00081059      -0.00081037     0.52244         0.04332        
  0.6             0.00082426      -0.00082408     0.53126         0.0441         
  0.61            0.00083789      -0.00083767     0.54006         0.0448         
  0.62            0.00085173      -0.00085151     0.54906         0.04554        
  0.63            0.0008653       -0.00086512     0.5578          0.04624        
  0.64            0.00087908      -0.00087871     0.5667          0.04702        
  0.65            0.00089272      -0.00089246     0.57556         0.04778        
  0.66            0.00090642      -0.00090627     0.58446         0.0485         
  0.67            0.00092014      -0.00091996     0.59332         0.04926        
  0.68            0.00093381      -0.00093369     0.60212         0.05002        
  0.69            0.00094758      -0.0009474      0.6111          0.05076        
  0.7             0.00096123      -0.00096112     0.61994         0.05148        
  0.71            0.00097494      -0.00097474     0.62882         0.05218        
  0.72            0.00098855      -0.00098834     0.6376          0.05292        
  0.73            0.00100223      -0.00100212     0.64654         0.05372        
  0.74            0.00101603      -0.00101567     0.65532         0.05444        
  0.75            0.00102963      -0.00102941     0.66422         0.0552         
  0.76            0.00104323      -0.00104304     0.67308         0.0559         
  0.77            0.00105699      -0.0010567      0.68196         0.05664        
  0.78            0.00107063      -0.00107041     0.6908          0.0574         
  0.79            0.0010842       -0.00108397     0.69964         0.05816        
  0.8             0.00109784      -0.0010977      0.7085          0.05888        
  0.81            0.00111152      -0.00111118     0.71738         0.0596         
  0.82            0.00112509      -0.00112494     0.72616         0.06032        
  0.83            0.00113885      -0.00113866     0.73504         0.06108        
  0.84            0.0011534       -0.0011515      0.7441          0.06182        
  0.85            0.0011669       -0.0011654      0.7528          0.06256        
  0.86            0.0011806       -0.0011788      0.7617          0.06324        
  0.87            0.0011942       -0.0011927      0.7705          0.06402        
  0.88            0.0012079       -0.0012059      0.77942         0.06482        
  0.89            0.0012214       -0.0012197      0.78822         0.0655         
  0.9             0.0012353       -0.0012333      0.79704         0.06628        
  0.91            0.0012487       -0.001247       0.8059          0.067          
  0.92            0.0012629       -0.0012606      0.81496         0.06778        
  0.93            0.0012762       -0.0012743      0.8237          0.06848        
  0.94            0.0012898       -0.001288       0.8326          0.06914        
  0.95            0.0013036       -0.0013018      0.8415          0.06992        
  0.96            0.0013171       -0.0013152      0.85032         0.0707         
  0.97            0.0013306       -0.001329       0.85924         0.07142        
  0.98            0.0013442       -0.0013425      0.86796         0.0722         
  0.99            0.0013579       -0.0013558      0.87686         0.07288        
  1               0.0013715       -0.0013697      0.88574         0.07368        
END_DB

