! VERSION = 6.00
BEGIN_HEADER
 ICCAP_INPUTS
  SVH        I  E GROUND SMU1 2 CON        0
  SVL        I  S GROUND SMU4 2 CON        0
  FVL        V  B GROUND SMU3 0.015 CON        0
  FVH        V  C GROUND SMU2 0.015 LIN        1    -1         1          201  0.01      
 ICCAP_OUTPUTS
  IVH        I  C GROUND SMU2 B
  IVL        I  B GROUND SMU3 B
  VVH        V  E GROUND SMU1 B
  VVL        V  S GROUND SMU4 B
END_HEADER

BEGIN_DB
 ICCAP_VAR SVH        0              
 ICCAP_VAR SVL        0              
 ICCAP_VAR FVL        0              

 #FVH             IVH             IVL             VVH             VVL            
  -1              -0.0014773      0.0014788       -0.95216        -0.98334       
  -0.99           -0.0014623      0.0014642       -0.94258        -0.97346       
  -0.98           -0.0014478      0.0014496       -0.93304        -0.96358       
  -0.97           -0.0014329      0.0014349       -0.9235         -0.9537        
  -0.96           -0.0014184      0.0014201       -0.914          -0.94394       
  -0.95           -0.0014035      0.0014054       -0.90444        -0.93412       
  -0.94           -0.0013891      0.0013909       -0.89492        -0.92426       
  -0.93           -0.0013743      0.001376        -0.88536        -0.91438       
  -0.92           -0.0013597      0.0013614       -0.87594        -0.90466       
  -0.91           -0.0013449      0.0013468       -0.86638        -0.8948        
  -0.9            -0.0013301      0.0013321       -0.85682        -0.8849        
  -0.89           -0.0013155      0.0013173       -0.84736        -0.87506       
  -0.88           -0.001301       0.0013026       -0.8379         -0.86532       
  -0.87           -0.0012861      0.0012879       -0.82832        -0.8555        
  -0.86           -0.0012714      0.0012732       -0.81878        -0.84562       
  -0.85           -0.0012567      0.0012584       -0.80928        -0.83576       
  -0.84           -0.0012419      0.0012438       -0.79974        -0.82592       
  -0.83           -0.0012271      0.0012293       -0.79024        -0.8162        
  -0.82           -0.0012126      0.0012144       -0.78074        -0.80632       
  -0.81           -0.0011978      0.0011995       -0.7712         -0.79648       
  -0.8            -0.001183       0.0011847       -0.76166        -0.7866        
  -0.79           -0.0011681      0.0011701       -0.75208        -0.77674       
  -0.78           -0.0011536      0.0011554       -0.74258        -0.7669        
  -0.77           -0.0011387      0.0011406       -0.73306        -0.75708       
  -0.76           -0.0011241      0.0011257       -0.72358        -0.7473        
  -0.75           -0.0011093      0.0011113       -0.71406        -0.73744       
  -0.74           -0.0010946      0.0010963       -0.7045         -0.72764       
  -0.73           -0.0010799      0.0010815       -0.69496        -0.7178        
  -0.72           -0.0010649      0.0010669       -0.68542        -0.70794       
  -0.71           -0.0010502      0.0010523       -0.676          -0.69818       
  -0.7            -0.0010356      0.0010373       -0.66642        -0.6883        
  -0.69           -0.0010209      0.0010226       -0.65692        -0.67844       
  -0.68           -0.0010061      0.0010078       -0.6474         -0.6686        
  -0.67           -0.00099216     0.00099236      -0.63792        -0.65886       
  -0.66           -0.0009774      0.00097752      -0.62834        -0.649         
  -0.65           -0.0009626      0.00096274      -0.61882        -0.63914       
  -0.64           -0.00094781     0.00094798      -0.60934        -0.6293        
  -0.63           -0.00093312     0.00093326      -0.5999         -0.61954       
  -0.62           -0.0009183      0.00091848      -0.59036        -0.60968       
  -0.61           -0.00090352     0.00090369      -0.58082        -0.59984       
  -0.6            -0.00088874     0.00088888      -0.57126        -0.59004       
  -0.59           -0.00087404     0.00087422      -0.56178        -0.58024       
  -0.58           -0.0008592      0.00085941      -0.55228        -0.57034       
  -0.57           -0.0008444      0.00084457      -0.5427         -0.56052       
  -0.56           -0.00082959     0.00082975      -0.53318        -0.5507        
  -0.55           -0.00081479     0.00081494      -0.52364        -0.5408        
  -0.54           -0.00080006     0.00080026      -0.5142         -0.53104       
  -0.53           -0.00078528     0.00078544      -0.50466        -0.5212        
  -0.52           -0.00077046     0.00077061      -0.49508        -0.51136       
  -0.51           -0.00075565     0.00075581      -0.4856         -0.5015        
  -0.5            -0.00074094     0.00074107      -0.47614        -0.49172       
  -0.49           -0.0007261      0.00072625      -0.4666         -0.4819        
  -0.48           -0.00071127     0.00071142      -0.45706        -0.47204       
  -0.47           -0.00069643     0.00069662      -0.44752        -0.4622        
  -0.46           -0.00068174     0.00068193      -0.43808        -0.45246       
  -0.45           -0.00066691     0.00066707      -0.4285         -0.44254       
  -0.44           -0.00065206     0.00065225      -0.419          -0.43274       
  -0.43           -0.00063726     0.00063739      -0.40944        -0.42286       
  -0.42           -0.00062249     0.00062266      -0.39996        -0.4131        
  -0.41           -0.00060765     0.00060783      -0.39044        -0.40322       
  -0.4            -0.00059279     0.00059302      -0.38092        -0.39342       
  -0.39           -0.00057801     0.00057815      -0.37132        -0.3835        
  -0.38           -0.00056315     0.00056331      -0.36186        -0.3737        
  -0.37           -0.00054842     0.00054861      -0.35236        -0.3639        
  -0.36           -0.00053356     0.00053374      -0.3428         -0.35406       
  -0.35           -0.00051874     0.00051887      -0.33328        -0.34422       
  -0.34           -0.00050386     0.00050403      -0.32372        -0.33436       
  -0.33           -0.00048912     0.0004893       -0.31428        -0.32456       
  -0.32           -0.00047427     0.00047444      -0.30474        -0.31472       
  -0.31           -0.00045939     0.00045959      -0.2952         -0.30492       
  -0.3            -0.00044456     0.00044477      -0.28568        -0.29504       
  -0.29           -0.00042984     0.00043001      -0.2762         -0.28526       
  -0.28           -0.000415       0.00041517      -0.26668        -0.2754        
  -0.27           -0.00040015     0.00040031      -0.25714        -0.26554       
  -0.26           -0.00038527     0.00038545      -0.24764        -0.2557        
  -0.25           -0.00037053     0.00037071      -0.23812        -0.24598       
  -0.24           -0.0003557      0.00035585      -0.22862        -0.23608       
  -0.23           -0.00034085     0.00034105      -0.21912        -0.22626       
  -0.22           -0.000326       0.00032618      -0.20954        -0.21646       
  -0.21           -0.00031115     0.00031132      -0.20002        -0.20658       
  -0.2            -0.00029641     0.00029657      -0.19058        -0.19682       
  -0.19           -0.00028152     0.00028174      -0.181          -0.18694       
  -0.18           -0.00026668     0.00026687      -0.1715         -0.1771        
  -0.17           -0.00025182     0.00025199      -0.16196        -0.16726       
  -0.16           -0.00023708     0.00023728      -0.15252        -0.1575        
  -0.15           -0.00022223     0.00022241      -0.143          -0.14764       
  -0.14           -0.00020737     0.00020755      -0.13344        -0.13784       
  -0.13           -0.0001925      0.00019268      -0.12392        -0.12794       
  -0.12           -0.00017775     0.00017795      -0.11444        -0.11818       
  -0.11           -0.00016289     0.00016308      -0.10492        -0.10834       
  -0.1            -0.00014805     0.00014822      -0.09538        -0.09852       
  -0.09           -0.00013318     0.00013337      -0.08584        -0.08864       
  -0.08           -0.00011831     0.00011848      -0.0763         -0.07878       
  -0.07           -0.00010356     0.00010376      -0.06686        -0.06906       
  -0.06           -8.8893e-005    8.8886e-005     -0.05732        -0.05916       
  -0.05           -7.4008e-005    7.4016e-005     -0.04776        -0.04934       
  -0.04           -5.9129e-005    5.913e-005      -0.03826        -0.0395        
  -0.03           -4.4336e-005    4.4366e-005     -0.02882        -0.0297        
  -0.02           -2.9463e-005    2.9476e-005     -0.01928        -0.01986       
  -0.01           -1.4572e-005    1.4578e-005     -0.00974        -0.01002       
  0               1.7778e-007     -1.513e-007     -0.0002         -0.00022       
  0.01            1.506e-005      -1.5005e-005    0.00922         0.0096         
  0.02            2.9935e-005     -2.9915e-005    0.01878         0.01944        
  0.03            4.4814e-005     -4.4783e-005    0.02832         0.02926        
  0.04            5.9679e-005     -5.9669e-005    0.03786         0.03912        
  0.05            7.4434e-005     -7.4415e-005    0.0473          0.04892        
  0.06            8.9329e-005     -8.931e-005     0.05684         0.05876        
  0.07            0.000104198     -0.000104181    0.0664          0.06858        
  0.08            0.00011907      -0.00011888     0.07594         0.07846        
  0.09            0.00013383      -0.00013365     0.08538         0.0882         
  0.1             0.00014869      -0.0001485      0.09498         0.09812        
  0.11            0.00016357      -0.00016336     0.10444         0.10794        
  0.12            0.00017843      -0.00017824     0.11404         0.1178         
  0.13            0.00019317      -0.00019297     0.12346         0.12754        
  0.14            0.00020806      -0.00020786     0.133           0.13738        
  0.15            0.00022291      -0.00022272     0.14254         0.14726        
  0.16            0.00023779      -0.00023757     0.15208         0.1571         
  0.17            0.00025251      -0.00025236     0.1615          0.1669         
  0.18            0.00026741      -0.00026718     0.17106         0.17676        
  0.19            0.00028225      -0.00028205     0.18062         0.18658        
  0.2             0.0002971       -0.00029693     0.19016         0.19642        
  0.21            0.00031199      -0.00031176     0.19966         0.20626        
  0.22            0.00032673      -0.00032653     0.20914         0.21604        
  0.23            0.00034159      -0.00034138     0.21866         0.22586        
  0.24            0.00035645      -0.00035623     0.22822         0.23576        
  0.25            0.00037129      -0.00037111     0.23772         0.24558        
  0.26            0.00038606      -0.00038587     0.2472          0.25542        
  0.27            0.0004009       -0.0004007      0.25674         0.26522        
  0.28            0.00041574      -0.00041557     0.26628         0.2751         
  0.29            0.00043061      -0.00043042     0.27584         0.28492        
  0.3             0.00044535      -0.00044515     0.28528         0.29472        
  0.31            0.00046021      -0.00045998     0.29484         0.30452        
  0.32            0.00047504      -0.00047483     0.30434         0.31436        
  0.33            0.00048988      -0.00048969     0.31388         0.32424        
  0.34            0.00050461      -0.00050441     0.32334         0.33402        
  0.35            0.00051947      -0.00051928     0.3329          0.34386        
  0.36            0.00053432      -0.00053411     0.3424          0.35372        
  0.37            0.00054918      -0.00054897     0.352           0.36358        
  0.38            0.00056388      -0.00056369     0.36144         0.37336        
  0.39            0.0005787       -0.00057851     0.37094         0.38314        
  0.4             0.00059354      -0.00059335     0.38048         0.393          
  0.41            0.00060837      -0.0006082      0.38998         0.40288        
  0.42            0.00062311      -0.00062292     0.39946         0.4126         
  0.43            0.00063795      -0.00063772     0.40898         0.42246        
  0.44            0.00065276      -0.00065254     0.41852         0.43232        
  0.45            0.00066757      -0.00066736     0.42806         0.44218        
  0.46            0.00068242      -0.00068221     0.4376          0.452          
  0.47            0.00069715      -0.00069692     0.44706         0.4618         
  0.48            0.00071194      -0.00071175     0.45658         0.47162        
  0.49            0.00072678      -0.00072659     0.46612         0.48152        
  0.5             0.00074162      -0.00074142     0.47566         0.49132        
  0.51            0.00075632      -0.00075613     0.48516         0.5011         
  0.52            0.00077114      -0.00077091     0.49466         0.51096        
  0.53            0.00078592      -0.00078575     0.50418         0.5208         
  0.54            0.00080077      -0.00080056     0.51376         0.53064        
  0.55            0.00081545      -0.00081522     0.5232          0.5404         
  0.56            0.00083023      -0.00083007     0.5327          0.55026        
  0.57            0.00084507      -0.00084486     0.54224         0.56008        
  0.58            0.00085991      -0.00085966     0.55176         0.56996        
  0.59            0.00087457      -0.00087439     0.56122         0.57974        
  0.6             0.00088937      -0.00088916     0.57078         0.5896         
  0.61            0.00090418      -0.00090397     0.58036         0.59944        
  0.62            0.00091899      -0.00091876     0.5899          0.6093         
  0.63            0.00093365      -0.00093347     0.59936         0.61906        
  0.64            0.00094847      -0.00094829     0.60884         0.62888        
  0.65            0.00096329      -0.00096305     0.61842         0.6388         
  0.66            0.00097806      -0.00097785     0.62798         0.64862        
  0.67            0.00099285      -0.00099265     0.63748         0.65842        
  0.68            0.00100754      -0.00100733     0.64696         0.66824        
  0.69            0.00102231      -0.00102209     0.65646         0.67804        
  0.7             0.00103706      -0.00103686     0.66602         0.68794        
  0.71            0.00105186      -0.00105166     0.67554         0.69776        
  0.72            0.00106654      -0.00106636     0.68504         0.70758        
  0.73            0.00108133      -0.00108111     0.69452         0.71738        
  0.74            0.00109608      -0.00109591     0.70412         0.72722        
  0.75            0.00111089      -0.00111065     0.71366         0.73712        
  0.76            0.00112554      -0.0011253      0.72312         0.74688        
  0.77            0.0011412       -0.0011393      0.73266         0.75674        
  0.78            0.0011561       -0.001154       0.74216         0.76658        
  0.79            0.0011706       -0.0011689      0.75174         0.77644        
  0.8             0.0011854       -0.0011834      0.76122         0.78624        
  0.81            0.0012001       -0.0011982      0.77074         0.79608        
  0.82            0.0012149       -0.0012132      0.78026         0.80592        
  0.83            0.0012296       -0.0012278      0.78982         0.81574        
  0.84            0.0012443       -0.0012426      0.79936         0.82562        
  0.85            0.001259        -0.0012571      0.80882         0.8354         
  0.86            0.0012736       -0.001272       0.81836         0.84522        
  0.87            0.0012884       -0.0012865      0.82792         0.85506        
  0.88            0.0013032       -0.0013013      0.83744         0.86498        
  0.89            0.0013178       -0.001316       0.84694         0.87474        
  0.9             0.0013325       -0.0013307      0.8565          0.88456        
  0.91            0.0013473       -0.0013453      0.866           0.89442        
  0.92            0.0013621       -0.00136        0.87554         0.9043         
  0.93            0.0013765       -0.0013746      0.885           0.91406        
  0.94            0.0013912       -0.0013894      0.89454         0.92392        
  0.95            0.001406        -0.0014042      0.90408         0.93374        
  0.96            0.0014207       -0.0014189      0.91364         0.94358        
  0.97            0.0014354       -0.0014336      0.92316         0.95342        
  0.98            0.00145         -0.0014482      0.9326          0.96322        
  0.99            0.0014646       -0.0014629      0.94214         0.97312        
  1               0.0014795       -0.0014776      0.95168         0.98292        
END_DB

