! VERSION = 6.00
BEGIN_HEADER
 ICCAP_INPUTS
  SVH        I  E GROUND SMU1 2 CON        0
  SVL        I  S GROUND SMU4 2 CON        0
  FVL        V  B GROUND SMU3 0.015 CON        0
  FVH        V  C GROUND SMU2 0.015 LIN        1    -1         1          201  0.01      
 ICCAP_OUTPUTS
  IVH        I  C GROUND SMU2 B
  IVL        I  B GROUND SMU3 B
  VVH        V  E GROUND SMU1 B
  VVL        V  S GROUND SMU4 B
END_HEADER

BEGIN_DB
 ICCAP_VAR SVH        0              
 ICCAP_VAR SVL        0              
 ICCAP_VAR FVL        0              

 #FVH             IVH             IVL             VVH             VVL            
  -1              -0.0014997      0.0015013       -0.9477         -0.98168       
  -0.99           -0.0014845      0.0014863       -0.9382         -0.97182       
  -0.98           -0.0014696      0.0014711       -0.92868        -0.962         
  -0.97           -0.0014548      0.0014566       -0.91918        -0.95214       
  -0.96           -0.00144        0.0014416       -0.90976        -0.9424        
  -0.95           -0.0014251      0.0014268       -0.90022        -0.93256       
  -0.94           -0.0014101      0.0014119       -0.89076        -0.92274       
  -0.93           -0.001395       0.0013968       -0.88126        -0.91286       
  -0.92           -0.0013804      0.0013821       -0.87182        -0.90314       
  -0.91           -0.0013654      0.0013672       -0.86236        -0.89328       
  -0.9            -0.0013506      0.0013521       -0.8529         -0.88346       
  -0.89           -0.0013354      0.0013374       -0.84338        -0.87366       
  -0.88           -0.0013207      0.0013227       -0.83398        -0.86392       
  -0.87           -0.001306       0.0013074       -0.82448        -0.85408       
  -0.86           -0.0012909      0.0012926       -0.815          -0.84422       
  -0.85           -0.0012759      0.0012779       -0.80552        -0.8344        
  -0.84           -0.001261       0.0012627       -0.79602        -0.82458       
  -0.83           -0.0012462      0.0012479       -0.78656        -0.8148        
  -0.82           -0.0012312      0.001233        -0.7771         -0.80498       
  -0.81           -0.0012162      0.0012181       -0.76758        -0.79514       
  -0.8            -0.0012014      0.001203        -0.75808        -0.78534       
  -0.79           -0.0011862      0.0011879       -0.7486         -0.77552       
  -0.78           -0.0011712      0.001173        -0.73912        -0.76566       
  -0.77           -0.0011563      0.0011582       -0.72962        -0.75582       
  -0.76           -0.0011414      0.0011432       -0.72018        -0.74606       
  -0.75           -0.0011264      0.0011282       -0.71074        -0.7362        
  -0.74           -0.0011115      0.0011132       -0.70122        -0.72642       
  -0.73           -0.0010966      0.0010982       -0.69176        -0.7166        
  -0.72           -0.0010814      0.0010834       -0.68224        -0.70676       
  -0.71           -0.0010665      0.0010684       -0.67282        -0.697         
  -0.7            -0.0010516      0.0010531       -0.6633         -0.68718       
  -0.69           -0.0010366      0.0010381       -0.65388        -0.67734       
  -0.68           -0.0010215      0.0010233       -0.64432        -0.66746       
  -0.67           -0.0010066      0.0010083       -0.63488        -0.65776       
  -0.66           -0.00099247     0.00099263      -0.62542        -0.64792       
  -0.65           -0.00097746     0.00097764      -0.61596        -0.63808       
  -0.64           -0.00096245     0.0009626       -0.60646        -0.62826       
  -0.63           -0.00094757     0.00094769      -0.59706        -0.6185        
  -0.62           -0.00093253     0.00093267      -0.58756        -0.60864       
  -0.61           -0.00091751     0.00091768      -0.57806        -0.59882       
  -0.6            -0.00090245     0.0009026       -0.56854        -0.58896       
  -0.59           -0.00088753     0.0008877       -0.55914        -0.57924       
  -0.58           -0.00087252     0.00087267      -0.54962        -0.56942       
  -0.57           -0.00085748     0.00085765      -0.54018        -0.55956       
  -0.56           -0.00084243     0.00084257      -0.53064        -0.5497        
  -0.55           -0.00082739     0.00082756      -0.52114        -0.5399        
  -0.54           -0.00081247     0.00081263      -0.51174        -0.53012       
  -0.53           -0.00079743     0.00079756      -0.50226        -0.52026       
  -0.52           -0.00078236     0.00078255      -0.49276        -0.51042       
  -0.51           -0.0007673      0.00076746      -0.4833         -0.50066       
  -0.5            -0.00075235     0.00075253      -0.47386        -0.4909        
  -0.49           -0.00073729     0.00073748      -0.46436        -0.48108       
  -0.48           -0.00072226     0.00072242      -0.45482        -0.47122       
  -0.47           -0.00070721     0.00070737      -0.44536        -0.46138       
  -0.46           -0.00069226     0.00069242      -0.43592        -0.45164       
  -0.45           -0.00067721     0.00067737      -0.42642        -0.44178       
  -0.44           -0.00066214     0.00066231      -0.41696        -0.43194       
  -0.43           -0.00064707     0.00064723      -0.40746        -0.4221        
  -0.42           -0.00063214     0.0006323       -0.39804        -0.41236       
  -0.41           -0.00061703     0.00061721      -0.38854        -0.4025        
  -0.4            -0.00060199     0.00060214      -0.37904        -0.39268       
  -0.39           -0.00058691     0.00058709      -0.3696         -0.3828        
  -0.38           -0.00057188     0.00057202      -0.36012        -0.373         
  -0.37           -0.00055689     0.00055708      -0.35066        -0.36324       
  -0.36           -0.00054184     0.00054197      -0.34118        -0.35344       
  -0.35           -0.00052674     0.0005269       -0.33166        -0.34358       
  -0.34           -0.00051163     0.00051183      -0.32216        -0.33376       
  -0.33           -0.00049666     0.00049687      -0.31272        -0.32396       
  -0.32           -0.00048161     0.00048176      -0.30326        -0.31414       
  -0.31           -0.00046652     0.0004667       -0.29376        -0.30434       
  -0.3            -0.00045143     0.00045162      -0.28428        -0.29448       
  -0.29           -0.00043648     0.00043665      -0.27488        -0.2847        
  -0.28           -0.0004214      0.00042155      -0.26542        -0.27492       
  -0.27           -0.00040633     0.0004065       -0.2559         -0.2651        
  -0.26           -0.00039128     0.00039143      -0.2464         -0.25528       
  -0.25           -0.00037631     0.00037645      -0.237          -0.24548       
  -0.24           -0.00036119     0.0003614       -0.22748        -0.23562       
  -0.23           -0.00034614     0.0003463       -0.21804        -0.22588       
  -0.22           -0.00033104     0.00033121      -0.20852        -0.21602       
  -0.21           -0.00031596     0.00031612      -0.19904        -0.2062        
  -0.2            -0.00030099     0.00030115      -0.18966        -0.19644       
  -0.19           -0.00028587     0.00028606      -0.18012        -0.18658       
  -0.18           -0.00027081     0.00027098      -0.17068        -0.1768        
  -0.17           -0.00025573     0.0002559       -0.16118        -0.16696       
  -0.16           -0.00024076     0.00024094      -0.15172        -0.1572        
  -0.15           -0.00022565     0.00022584      -0.14226        -0.14738       
  -0.14           -0.00021056     0.00021076      -0.13278        -0.13758       
  -0.13           -0.00019549     0.00019566      -0.1233         -0.12772       
  -0.12           -0.0001805      0.00018069      -0.1139         -0.11796       
  -0.11           -0.00016541     0.00016559      -0.1044         -0.10814       
  -0.1            -0.00015033     0.00015052      -0.0949         -0.09828       
  -0.09           -0.00013523     0.00013541      -0.08542        -0.08846       
  -0.08           -0.00012012     0.00012031      -0.07592        -0.07864       
  -0.07           -0.00010517     0.00010536      -0.06648        -0.06888       
  -0.06           -9.0221e-005    9.0284e-005     -0.05708        -0.05906       
  -0.05           -7.5126e-005    7.513e-005      -0.04756        -0.04922       
  -0.04           -6.0002e-005    6.0031e-005     -0.0381         -0.03942       
  -0.03           -4.5007e-005    4.5033e-005     -0.02866        -0.02964       
  -0.02           -2.9901e-005    2.9931e-005     -0.01918        -0.0198        
  -0.01           -1.4801e-005    1.4802e-005     -0.00968        -0.01002       
  0               1.933e-007      -1.6196e-007    -0.00018        -0.0002        
  0.01            1.5315e-005     -1.5277e-005    0.00922         0.0096         
  0.02            3.0427e-005     -3.0412e-005    0.01872         0.01942        
  0.03            4.553e-005      -4.5516e-005    0.02818         0.02922        
  0.04            6.0623e-005     -6.0607e-005    0.03768         0.03906        
  0.05            7.5604e-005     -7.5591e-005    0.04708         0.04882        
  0.06            9.0747e-005     -9.0713e-005    0.05656         0.05864        
  0.07            0.00010585      -0.000105817    0.06604         0.06848        
  0.08            0.00012094      -0.00012075     0.07554         0.0783         
  0.09            0.00013591      -0.00013576     0.08498         0.0881         
  0.1             0.00015103      -0.00015084     0.09446         0.0979         
  0.11            0.00016613      -0.00016592     0.10394         0.10778        
  0.12            0.0001812       -0.000181       0.11342         0.11756        
  0.13            0.00019617      -0.000196       0.12284         0.12732        
  0.14            0.00021129      -0.00021108     0.1323          0.13716        
  0.15            0.00022637      -0.00022618     0.14182         0.14698        
  0.16            0.00024147      -0.00024129     0.15132         0.15684        
  0.17            0.00025645      -0.00025625     0.16072         0.16654        
  0.18            0.00027154      -0.00027134     0.17022         0.17644        
  0.19            0.00028661      -0.00028644     0.17976         0.18622        
  0.2             0.00030171      -0.00030151     0.1892          0.19606        
  0.21            0.00031679      -0.00031659     0.19872         0.20586        
  0.22            0.00033178      -0.00033157     0.2081          0.21562        
  0.23            0.00034687      -0.00034667     0.2176          0.22546        
  0.24            0.00036193      -0.00036176     0.22708         0.2353         
  0.25            0.00037702      -0.00037683     0.23658         0.24518        
  0.26            0.00039202      -0.0003918      0.246           0.25488        
  0.27            0.0004071       -0.00040691     0.25546         0.26474        
  0.28            0.00042215      -0.00042194     0.265           0.27454        
  0.29            0.00043724      -0.00043705     0.2745          0.2844         
  0.3             0.00045218      -0.00045203     0.28388         0.29418        
  0.31            0.0004673       -0.00046712     0.29338         0.30398        
  0.32            0.00048238      -0.00048221     0.30288         0.31384        
  0.33            0.00049745      -0.00049723     0.31236         0.32362        
  0.34            0.00051239      -0.00051218     0.32176         0.33338        
  0.35            0.0005275       -0.00052727     0.33128         0.3432         
  0.36            0.00054252      -0.00054235     0.34072         0.35304        
  0.37            0.00055762      -0.00055741     0.35022         0.36286        
  0.38            0.00057256      -0.00057237     0.3596          0.37262        
  0.39            0.0005876       -0.00058742     0.36912         0.38246        
  0.4             0.00060266      -0.00060248     0.37862         0.39228        
  0.41            0.00061773      -0.00061751     0.38804         0.40208        
  0.42            0.00063265      -0.00063247     0.39748         0.41182        
  0.43            0.0006477       -0.0006475      0.40698         0.42168        
  0.44            0.00066275      -0.00066255     0.41644         0.4315         
  0.45            0.00067779      -0.00067763     0.42594         0.44136        
  0.46            0.00069286      -0.00069268     0.43542         0.45112        
  0.47            0.00070778      -0.00070762     0.44484         0.46092        
  0.48            0.00072281      -0.00072264     0.4543          0.47072        
  0.49            0.00073789      -0.00073767     0.46378         0.48054        
  0.5             0.00075291      -0.00075271     0.47326         0.49036        
  0.51            0.00076782      -0.00076765     0.4827          0.5001         
  0.52            0.00078288      -0.00078266     0.49218         0.50992        
  0.53            0.00079792      -0.00079773     0.5017          0.51978        
  0.54            0.00081297      -0.00081276     0.51118         0.52962        
  0.55            0.00082787      -0.00082768     0.52054         0.53936        
  0.56            0.00084289      -0.00084274     0.53008         0.54918        
  0.57            0.00085798      -0.00085774     0.53954         0.559          
  0.58            0.00087296      -0.00087276     0.54902         0.5688         
  0.59            0.00088786      -0.00088766     0.55848         0.57858        
  0.6             0.00090287      -0.00090268     0.56792         0.58842        
  0.61            0.00091789      -0.0009177      0.57742         0.59824        
  0.62            0.00093293      -0.00093274     0.58692         0.60806        
  0.63            0.00094781      -0.00094763     0.59634         0.61782        
  0.64            0.00096285      -0.00096264     0.60582         0.62764        
  0.65            0.00097786      -0.00097762     0.6153          0.63748        
  0.66            0.00099285      -0.00099264     0.62478         0.6473         
  0.67            0.00100786      -0.00100765     0.6343          0.65714        
  0.68            0.00102276      -0.00102256     0.6437          0.66688        
  0.69            0.00103778      -0.00103756     0.65322         0.67672        
  0.7             0.00105278      -0.00105256     0.66264         0.68654        
  0.71            0.00106772      -0.00106756     0.67216         0.69642        
  0.72            0.00108265      -0.00108242     0.6816          0.70616        
  0.73            0.00109765      -0.00109742     0.69106         0.71596        
  0.74            0.0011126       -0.00111241     0.70058         0.72578        
  0.75            0.00112757      -0.00112736     0.71006         0.73564        
  0.76            0.0011434       -0.0011414      0.71948         0.74542        
  0.77            0.0011583       -0.0011563      0.72902         0.7552         
  0.78            0.0011733       -0.0011714      0.73848         0.76504        
  0.79            0.0011883       -0.0011863      0.74796         0.77488        
  0.8             0.0012032       -0.0012014      0.75738         0.78464        
  0.81            0.0012182       -0.0012161      0.76684         0.79448        
  0.82            0.0012329       -0.0012313      0.7764          0.80432        
  0.83            0.0012483       -0.0012461      0.78586         0.8141         
  0.84            0.0012631       -0.0012611      0.79536         0.82402        
  0.85            0.0012778       -0.0012759      0.8048          0.83374        
  0.86            0.0012928       -0.001291       0.81426         0.84356        
  0.87            0.0013075       -0.0013059      0.8237          0.85338        
  0.88            0.0013226       -0.0013207      0.83326         0.86322        
  0.89            0.0013372       -0.0013355      0.84264         0.873          
  0.9             0.0013523       -0.0013504      0.8522          0.88282        
  0.91            0.0013672       -0.0013653      0.86162         0.89264        
  0.92            0.0013821       -0.0013805      0.87112         0.9025         
  0.93            0.0013971       -0.0013952      0.88058         0.91226        
  0.94            0.0014119       -0.0014102      0.89004         0.92202        
  0.95            0.0014267       -0.0014251      0.89952         0.9319         
  0.96            0.0014419       -0.0014399      0.90904         0.9417         
  0.97            0.0014567       -0.0014548      0.91852         0.95152        
  0.98            0.0014714       -0.0014699      0.92796         0.96132        
  0.99            0.0014863       -0.0014846      0.93742         0.97112        
  1               0.0015011       -0.0014994      0.94692         0.98094        
END_DB

