! VERSION = 6.00
BEGIN_HEADER
 ICCAP_INPUTS
  SVH        I  E GROUND SMU1 2 CON        0
  SVL        I  S GROUND SMU4 2 CON        0
  FVL        V  B GROUND SMU3 0.015 CON        0
  FVH        V  C GROUND SMU2 0.015 LIN        1    -1         1          201  0.01      
 ICCAP_OUTPUTS
  IVH        I  C GROUND SMU2 B
  IVL        I  B GROUND SMU3 B
  VVH        V  E GROUND SMU1 B
  VVL        V  S GROUND SMU4 B
END_HEADER

BEGIN_DB
 ICCAP_VAR SVH        0              
 ICCAP_VAR SVL        0              
 ICCAP_VAR FVL        0              

 #FVH             IVH             IVL             VVH             VVL            
  -1              -0.0014949      0.0014967       -0.92216        -0.0299        
  -0.99           -0.00148        0.0014818       -0.91282        -0.02956       
  -0.98           -0.0014651      0.001467        -0.90362        -0.0293        
  -0.97           -0.0014502      0.001452        -0.8944         -0.029         
  -0.96           -0.0014355      0.0014372       -0.8852         -0.02872       
  -0.95           -0.0014206      0.0014225       -0.87598        -0.02838       
  -0.94           -0.0014058      0.0014074       -0.86674        -0.02808       
  -0.93           -0.0013909      0.0013925       -0.85748        -0.02782       
  -0.92           -0.0013762      0.001378        -0.84834        -0.0275        
  -0.91           -0.0013614      0.0013629       -0.83906        -0.0272        
  -0.9            -0.0013465      0.0013479       -0.82986        -0.02692       
  -0.89           -0.0013315      0.001333        -0.82062        -0.02664       
  -0.88           -0.0013167      0.0013183       -0.81146        -0.02632       
  -0.87           -0.0013015      0.0013035       -0.80224        -0.02602       
  -0.86           -0.0012868      0.0012883       -0.79296        -0.02576       
  -0.85           -0.0012719      0.0012738       -0.78374        -0.02546       
  -0.84           -0.0012571      0.0012588       -0.77454        -0.0252        
  -0.83           -0.0012424      0.001244        -0.76534        -0.0249        
  -0.82           -0.0012273      0.0012291       -0.7561         -0.02458       
  -0.81           -0.0012124      0.0012141       -0.74686        -0.02426       
  -0.8            -0.0011975      0.0011994       -0.73766        -0.02398       
  -0.79           -0.0011826      0.0011842       -0.72842        -0.02366       
  -0.78           -0.0011677      0.0011694       -0.71916        -0.02338       
  -0.77           -0.0011526      0.0011545       -0.70994        -0.0231        
  -0.76           -0.0011379      0.0011398       -0.70074        -0.02282       
  -0.75           -0.0011229      0.0011248       -0.69158        -0.02252       
  -0.74           -0.0011079      0.0011097       -0.6823         -0.02222       
  -0.73           -0.0010931      0.0010949       -0.67306        -0.02192       
  -0.72           -0.0010782      0.0010799       -0.66386        -0.0216        
  -0.71           -0.001063       0.0010651       -0.65466        -0.02134       
  -0.7            -0.0010481      0.0010501       -0.64542        -0.02102       
  -0.69           -0.0010334      0.0010351       -0.6362         -0.02076       
  -0.68           -0.0010184      0.0010202       -0.62696        -0.0205        
  -0.67           -0.0010035      0.0010052       -0.6178         -0.02016       
  -0.66           -0.00098938     0.00098955      -0.60858        -0.01986       
  -0.65           -0.00097444     0.00097459      -0.59934        -0.01954       
  -0.64           -0.00095945     0.0009596       -0.59012        -0.01928       
  -0.63           -0.0009446      0.00094475      -0.58092        -0.01898       
  -0.62           -0.00092961     0.00092978      -0.57172        -0.01868       
  -0.61           -0.00091464     0.00091479      -0.56248        -0.01842       
  -0.6            -0.00089963     0.00089981      -0.55322        -0.0181        
  -0.59           -0.00088478     0.00088493      -0.54404        -0.01776       
  -0.58           -0.00086979     0.00086996      -0.5348         -0.01752       
  -0.57           -0.00085478     0.00085499      -0.5256         -0.01718       
  -0.56           -0.00083981     0.00083998      -0.51634        -0.01688       
  -0.55           -0.00082482     0.00082498      -0.5071         -0.01662       
  -0.54           -0.00080995     0.00081011      -0.49794        -0.01634       
  -0.53           -0.00079495     0.00079513      -0.4887         -0.01604       
  -0.52           -0.00077995     0.00078012      -0.47946        -0.01568       
  -0.51           -0.00076496     0.00076512      -0.47024        -0.01542       
  -0.5            -0.00075006     0.00075023      -0.46108        -0.01514       
  -0.49           -0.00073506     0.00073522      -0.45182        -0.01482       
  -0.48           -0.00072005     0.0007202       -0.44262        -0.0146        
  -0.47           -0.00070505     0.00070518      -0.43338        -0.01422       
  -0.46           -0.00069012     0.00069028      -0.42424        -0.01398       
  -0.45           -0.00067508     0.00067529      -0.41494        -0.01366       
  -0.44           -0.0006601      0.00066027      -0.40568        -0.01336       
  -0.43           -0.00064508     0.00064526      -0.3965         -0.0131        
  -0.42           -0.00063018     0.00063035      -0.38736        -0.0128        
  -0.41           -0.00061516     0.00061533      -0.37808        -0.01246       
  -0.4            -0.00060015     0.0006003       -0.36882        -0.01216       
  -0.39           -0.00058509     0.00058525      -0.35964        -0.01186       
  -0.38           -0.00057007     0.00057027      -0.3504         -0.0116        
  -0.37           -0.00055517     0.00055536      -0.34122        -0.0113        
  -0.36           -0.00054014     0.00054032      -0.33202        -0.01102       
  -0.35           -0.00052512     0.00052529      -0.32272        -0.01072       
  -0.34           -0.00051011     0.00051025      -0.31348        -0.01038       
  -0.33           -0.00049515     0.00049529      -0.30434        -0.01012       
  -0.32           -0.00048012     0.0004803       -0.29506        -0.0098        
  -0.31           -0.00046511     0.00046528      -0.28586        -0.00954       
  -0.3            -0.00045004     0.00045024      -0.27666        -0.00922       
  -0.29           -0.00043515     0.00043532      -0.2675         -0.00894       
  -0.28           -0.00042013     0.00042032      -0.25826        -0.00864       
  -0.27           -0.00040509     0.00040526      -0.24904        -0.00836       
  -0.26           -0.00039007     0.00039022      -0.2398         -0.00806       
  -0.25           -0.00037513     0.0003753       -0.23062        -0.00772       
  -0.24           -0.0003601      0.00036027      -0.22142        -0.00742       
  -0.23           -0.00034506     0.00034525      -0.21218        -0.00718       
  -0.22           -0.00033003     0.00033023      -0.20292        -0.00688       
  -0.21           -0.00031499     0.00031519      -0.19368        -0.00658       
  -0.2            -0.00030007     0.00030028      -0.18454        -0.0063        
  -0.19           -0.00028506     0.0002852       -0.17528        -0.006         
  -0.18           -0.00027        0.00027017      -0.16606        -0.00568       
  -0.17           -0.00025492     0.0002551       -0.15684        -0.00538       
  -0.16           -0.00023998     0.00024019      -0.14768        -0.00506       
  -0.15           -0.00022494     0.00022516      -0.13848        -0.00478       
  -0.14           -0.00020995     0.00021012      -0.1292         -0.00452       
  -0.13           -0.00019487     0.00019508      -0.12002        -0.00422       
  -0.12           -0.00017998     0.00018014      -0.1108         -0.0039        
  -0.11           -0.00016491     0.00016509      -0.1016         -0.00358       
  -0.1            -0.00014985     0.00015004      -0.0924         -0.00334       
  -0.09           -0.0001348      0.000135        -0.08316        -0.00298       
  -0.08           -0.00011976     0.00011994      -0.07392        -0.0027        
  -0.07           -0.00010484     0.00010504      -0.06474        -0.00242       
  -0.06           -8.9974e-005    8.9967e-005     -0.05552        -0.00208       
  -0.05           -7.4899e-005    7.4929e-005     -0.04628        -0.00176       
  -0.04           -5.9834e-005    5.985e-005      -0.03704        -0.00152       
  -0.03           -4.4871e-005    4.488e-005      -0.0279         -0.0012        
  -0.02           -2.9804e-005    2.9815e-005     -0.01862        -0.00092       
  -0.01           -1.4734e-005    1.4756e-005     -0.00944        -0.00066       
  0               1.9586e-007     -1.6679e-007    -0.00018        -0.00036       
  0.01            1.5275e-005     -1.522e-005     0.00894         -8e-005        
  0.02            3.0346e-005     -3.0325e-005    0.01818         0.00022        
  0.03            4.5392e-005     -4.5375e-005    0.02746         0.00048        
  0.04            6.0456e-005     -6.043e-005     0.03666         0.00078        
  0.05            7.5382e-005     -7.5365e-005    0.04582         0.0011         
  0.06            9.0446e-005     -9.0444e-005    0.05506         0.00134        
  0.07            0.00010552      -0.000105512    0.06428         0.00164        
  0.08            0.00012057      -0.00012039     0.0735          0.00198        
  0.09            0.00013552      -0.00013533     0.08268         0.00228        
  0.1             0.00015054      -0.00015036     0.09188         0.00258        
  0.11            0.00016563      -0.00016543     0.10114         0.00284        
  0.12            0.00018067      -0.00018046     0.1104          0.00318        
  0.13            0.0001956       -0.00019543     0.11956         0.00344        
  0.14            0.00021065      -0.00021045     0.12876         0.00376        
  0.15            0.00022571      -0.00022552     0.13804         0.00408        
  0.16            0.00024076      -0.00024054     0.14728         0.00436        
  0.17            0.0002557       -0.00025549     0.1564          0.00464        
  0.18            0.00027073      -0.00027054     0.16568         0.00498        
  0.19            0.00028579      -0.00028559     0.1749          0.00526        
  0.2             0.00030084      -0.00030066     0.18412         0.00554        
  0.21            0.00031589      -0.00031568     0.19334         0.00582        
  0.22            0.00033082      -0.0003306      0.20252         0.00612        
  0.23            0.00034585      -0.00034567     0.21172         0.0064         
  0.24            0.00036086      -0.00036068     0.221           0.00674        
  0.25            0.00037591      -0.00037574     0.23022         0.00702        
  0.26            0.00039086      -0.00039067     0.23942         0.0073         
  0.27            0.00040588      -0.00040569     0.24858         0.00758        
  0.28            0.00042091      -0.00042075     0.25786         0.00788        
  0.29            0.00043598      -0.00043577     0.26712         0.00824        
  0.3             0.00045088      -0.00045071     0.2763          0.00846        
  0.31            0.00046592      -0.00046575     0.28548         0.0088         
  0.32            0.00048096      -0.00048075     0.29472         0.00906        
  0.33            0.00049596      -0.00049579     0.30396         0.00936        
  0.34            0.00051091      -0.00051068     0.3131          0.00968        
  0.35            0.00052594      -0.00052574     0.32238         0.00998        
  0.36            0.00054093      -0.00054075     0.3316          0.01026        
  0.37            0.00055598      -0.00055578     0.34084         0.0106         
  0.38            0.00057087      -0.00057066     0.34998         0.01084        
  0.39            0.00058587      -0.00058566     0.3592          0.01114        
  0.4             0.00060091      -0.00060068     0.36842         0.01144        
  0.41            0.0006159       -0.00061572     0.37768         0.01174        
  0.42            0.00063081      -0.00063062     0.38682         0.01204        
  0.43            0.00064582      -0.00064562     0.39606         0.01234        
  0.44            0.00066083      -0.00066063     0.4053          0.0126         
  0.45            0.00067584      -0.00067566     0.41454         0.01296        
  0.46            0.00069085      -0.00069065     0.42374         0.0132         
  0.47            0.00070571      -0.00070552     0.43292         0.0135         
  0.48            0.00072072      -0.00072054     0.44216         0.0138         
  0.49            0.00073572      -0.00073554     0.45134         0.0141         
  0.5             0.00075073      -0.00075055     0.4606          0.01438        
  0.51            0.00076563      -0.00076545     0.46978         0.0147         
  0.52            0.00078062      -0.00078043     0.479           0.015          
  0.53            0.00079561      -0.00079543     0.4882          0.01528        
  0.54            0.00081063      -0.0008104      0.49746         0.0156         
  0.55            0.00082547      -0.00082527     0.50662         0.01584        
  0.56            0.00084047      -0.00084026     0.51584         0.01616        
  0.57            0.00085542      -0.00085524     0.52506         0.01644        
  0.58            0.00087043      -0.00087022     0.53432         0.01678        
  0.59            0.00088527      -0.00088511     0.54352         0.01708        
  0.6             0.00090028      -0.00090005     0.55272         0.01734        
  0.61            0.00091525      -0.00091507     0.56198         0.01766        
  0.62            0.00093022      -0.00093002     0.57118         0.01792        
  0.63            0.00094504      -0.00094484     0.58036         0.01824        
  0.64            0.00096004      -0.00095985     0.58962         0.0185         
  0.65            0.00097502      -0.00097481     0.59882         0.0188         
  0.66            0.00098999      -0.00098982     0.60808         0.01912        
  0.67            0.00100494      -0.00100477     0.61728         0.01942        
  0.68            0.00101982      -0.00101961     0.62648         0.0197         
  0.69            0.00103477      -0.00103454     0.63568         0.02           
  0.7             0.0010497       -0.00104953     0.64498         0.02028        
  0.71            0.00106467      -0.00106445     0.65418         0.02058        
  0.72            0.0010795       -0.00107931     0.66334         0.02088        
  0.73            0.00109444      -0.00109426     0.67254         0.02116        
  0.74            0.00110942      -0.00110919     0.68184         0.02148        
  0.75            0.00112435      -0.00112418     0.69104         0.0218         
  0.76            0.00113922      -0.001139       0.70024         0.02206        
  0.77            0.0011551       -0.0011531      0.70946         0.02232        
  0.78            0.00117         -0.001168       0.71868         0.02262        
  0.79            0.0011848       -0.0011829      0.72794         0.02294        
  0.8             0.0011997       -0.0011978      0.73708         0.02324        
  0.81            0.0012146       -0.0012127      0.74634         0.02352        
  0.82            0.0012295       -0.0012278      0.75558         0.02382        
  0.83            0.0012444       -0.0012425      0.76482         0.02414        
  0.84            0.0012593       -0.0012574      0.77408         0.02444        
  0.85            0.0012741       -0.0012723      0.78324         0.0247         
  0.86            0.001289        -0.0012873      0.79244         0.025          
  0.87            0.0013038       -0.001302       0.80172         0.02532        
  0.88            0.0013189       -0.001317       0.81094         0.0256         
  0.89            0.0013336       -0.0013317      0.82012         0.02592        
  0.9             0.0013484       -0.0013466      0.82932         0.02616        
  0.91            0.0013633       -0.0013615      0.8386          0.02646        
  0.92            0.0013783       -0.0013766      0.84784         0.02676        
  0.93            0.001393        -0.0013912      0.857           0.02706        
  0.94            0.0014081       -0.0014062      0.86626         0.02734        
  0.95            0.0014228       -0.001421       0.87548         0.02762        
  0.96            0.0014376       -0.0014361      0.8847          0.0279         
  0.97            0.0014525       -0.0014507      0.89396         0.02824        
  0.98            0.001467        -0.0014655      0.90308         0.02856        
  0.99            0.0014821       -0.0014802      0.91236         0.02882        
  1               0.0014971       -0.0014952      0.92162         0.02912        
END_DB

