! VERSION = 6.00
BEGIN_HEADER
 ICCAP_INPUTS
  VU1        V  E GROUND SMU4 0.1 CON        0
  VU2        V  S GROUND SMU2 0.1 CON        0
  VN         V  B GROUND SMU1 0.015 CON        0
  VP         V  C GROUND SMU3 0.015 LIN        1    -0.5       0.5        101  0.01      
 ICCAP_OUTPUTS
  IP         I  C GROUND SMU3 B
  IN         I  B GROUND SMU1 B
END_HEADER

BEGIN_DB
 ICCAP_VAR VU1        0              
 ICCAP_VAR VU2        0              
 ICCAP_VAR VN         0              

 #VP              IP              IN             
  -0.5            -0.00016585     0.00016599     
  -0.49           -0.00016249     0.00016267     
  -0.48           -0.00015918     0.00015936     
  -0.47           -0.00015587     0.00015606     
  -0.46           -0.00015256     0.00015273     
  -0.45           -0.00014923     0.00014941     
  -0.44           -0.0001459      0.00014607     
  -0.43           -0.00014258     0.00014278     
  -0.42           -0.00013926     0.00013946     
  -0.41           -0.00013592     0.00013612     
  -0.4            -0.00013261     0.00013278     
  -0.39           -0.00012928     0.00012948     
  -0.38           -0.00012598     0.00012619     
  -0.37           -0.00012265     0.00012284     
  -0.36           -0.00011934     0.00011952     
  -0.35           -0.00011601     0.0001162      
  -0.34           -0.00011269     0.00011288     
  -0.33           -0.00010939     0.00010957     
  -0.32           -0.00010606     0.00010624     
  -0.31           -0.00010274     0.00010292     
  -0.3            -9.952e-005     9.9523e-005    
  -0.29           -9.6179e-005    9.6201e-005    
  -0.28           -9.2883e-005    9.2903e-005    
  -0.27           -8.9563e-005    8.9577e-005    
  -0.26           -8.6234e-005    8.6256e-005    
  -0.25           -8.2907e-005    8.2933e-005    
  -0.24           -7.9616e-005    7.963e-005     
  -0.23           -7.6291e-005    7.6311e-005    
  -0.22           -7.2964e-005    7.2988e-005    
  -0.21           -6.9643e-005    6.9657e-005    
  -0.2            -6.6312e-005    6.6336e-005    
  -0.19           -6.3021e-005    6.3041e-005    
  -0.18           -5.9699e-005    5.9714e-005    
  -0.17           -5.6374e-005    5.6387e-005    
  -0.16           -5.3049e-005    5.307e-005     
  -0.15           -4.9733e-005    4.9754e-005    
  -0.14           -4.6441e-005    4.6451e-005    
  -0.13           -4.3113e-005    4.3134e-005    
  -0.12           -3.9793e-005    3.981e-005     
  -0.11           -3.6469e-005    3.6486e-005    
  -0.1            -3.3148e-005    3.3165e-005    
  -0.09           -2.9843e-005    2.9868e-005    
  -0.08           -2.6526e-005    2.6542e-005    
  -0.07           -2.3205e-005    2.3223e-005    
  -0.06           -1.9882e-005    1.9903e-005    
  -0.05           -1.6588e-005    1.6598e-005    
  -0.04           -1.3258e-005    1.3279e-005    
  -0.03           -9.9454e-006    9.9485e-006    
  -0.02           -6.6247e-006    6.6235e-006    
  -0.01           -3.2964e-006    3.3051e-006    
  0               -5.8729e-010    7.396e-010     
  0.01            1.07737e-006    -3.3115e-006   
  0.02            6.6369e-006     -6.6363e-006   
  0.03            9.9572e-006     -9.9571e-006   
  0.04            1.3262e-005     -1.3243e-005   
  0.05            1.6581e-005     -1.6561e-005   
  0.06            1.9905e-005     -1.9883e-005   
  0.07            2.3225e-005     -2.3207e-005   
  0.08            2.6542e-005     -2.6526e-005   
  0.09            2.9839e-005     -2.9817e-005   
  0.1             3.3156e-005     -3.3142e-005   
  0.11            3.6482e-005     -3.6463e-005   
  0.12            3.9802e-005     -3.9777e-005   
  0.13            4.3118e-005     -4.3105e-005   
  0.14            4.6414e-005     -4.6401e-005   
  0.15            4.9735e-005     -4.9719e-005   
  0.16            5.3052e-005     -5.3035e-005   
  0.17            5.6364e-005     -5.6355e-005   
  0.18            5.9691e-005     -5.9671e-005   
  0.19            6.298e-005      -6.2968e-005   
  0.2             6.6294e-005     -6.6288e-005   
  0.21            6.962e-005      -6.96e-005     
  0.22            7.2942e-005     -7.2924e-005   
  0.23            7.6259e-005     -7.6242e-005   
  0.24            7.9548e-005     -7.9536e-005   
  0.25            8.287e-005      -8.2852e-005   
  0.26            8.6189e-005     -8.6179e-005   
  0.27            8.9511e-005     -8.9497e-005   
  0.28            9.2833e-005     -9.2812e-005   
  0.29            9.6122e-005     -9.6108e-005   
  0.3             9.955e-005      -9.9405e-005   
  0.31            0.00010282      -0.00010272    
  0.32            0.00010614      -0.000106036   
  0.33            0.00010946      -0.000109331   
  0.34            0.00011275      -0.00011265    
  0.35            0.00011608      -0.00011591    
  0.36            0.00011942      -0.00011923    
  0.37            0.00012274      -0.00012253    
  0.38            0.00012604      -0.00012583    
  0.39            0.00012935      -0.00012916    
  0.4             0.00013268      -0.00013247    
  0.41            0.00013598      -0.00013578    
  0.42            0.0001393       -0.00013912    
  0.43            0.00014259      -0.0001424     
  0.44            0.00014591      -0.00014572    
  0.45            0.00014923      -0.00014904    
  0.46            0.00015255      -0.00015236    
  0.47            0.00015585      -0.00015568    
  0.48            0.00015917      -0.00015896    
  0.49            0.00016247      -0.00016228    
  0.5             0.0001658       -0.00016559    
END_DB

