! VERSION = 6.00
BEGIN_HEADER
 ICCAP_INPUTS
  VU1        V  E GROUND SMU3 0.1 CON        0
  VU2        V  S GROUND SMU2 0.1 CON        0
  VN         V  B GROUND SMU1 0.015 CON        0
  VP         V  C GROUND SMU4 0.015 LIN        1    -0.5       0.5        101  0.01      
 ICCAP_OUTPUTS
  IP         I  C GROUND SMU4 B
  IN         I  B GROUND SMU1 B
END_HEADER

BEGIN_DB
 ICCAP_VAR VU1        0              
 ICCAP_VAR VU2        0              
 ICCAP_VAR VN         0              

 #VP              IP              IN             
  -0.5            -1.3767e-005    1.3504e-005    
  -0.49           -1.3407e-005    1.3237e-005    
  -0.48           -1.3073e-005    1.297e-005     
  -0.47           -1.2765e-005    1.2696e-005    
  -0.46           -1.2467e-005    1.2424e-005    
  -0.45           -1.218e-005     1.2154e-005    
  -0.44           -1.1893e-005    1.1881e-005    
  -0.43           -1.1612e-005    1.1616e-005    
  -0.42           -1.1338e-005    1.1346e-005    
  -0.41           -1.1063e-005    1.1073e-005    
  -0.4            -1.0793e-005    1.0805e-005    
  -0.39           -1.0521e-005    1.0534e-005    
  -0.38           -1.0249e-005    1.0261e-005    
  -0.37           -9.9856e-006    9.991e-006     
  -0.36           -9.7129e-006    9.7152e-006    
  -0.35           -9.4398e-006    9.4442e-006    
  -0.34           -9.1693e-006    9.1719e-006    
  -0.33           -8.9e-006       8.9035e-006    
  -0.32           -8.6303e-006    8.6329e-006    
  -0.31           -8.3615e-006    8.3608e-006    
  -0.3            -8.0899e-006    8.0922e-006    
  -0.29           -7.8194e-006    7.8224e-006    
  -0.28           -7.5502e-006    7.5519e-006    
  -0.27           -7.28e-006      7.2809e-006    
  -0.26           -7.0085e-006    7.0109e-006    
  -0.25           -6.738e-006     6.7399e-006    
  -0.24           -6.4718e-006    6.4723e-006    
  -0.23           -6.201e-006     6.2033e-006    
  -0.22           -5.9304e-006    5.9323e-006    
  -0.21           -5.6596e-006    5.6626e-006    
  -0.2            -5.39e-006      5.3938e-006    
  -0.19           -5.1207e-006    5.1217e-006    
  -0.18           -4.8506e-006    4.8518e-006    
  -0.17           -4.58e-006      4.5827e-006    
  -0.16           -4.3117e-006    4.3136e-006    
  -0.15           -4.0422e-006    4.0432e-006    
  -0.14           -3.7712e-006    3.7732e-006    
  -0.13           -3.5001e-006    3.5035e-006    
  -0.12           -3.2333e-006    3.2347e-006    
  -0.11           -2.9624e-006    2.9652e-006    
  -0.1            -2.6917e-006    2.6937e-006    
  -0.09           -2.4214e-006    2.4234e-006    
  -0.08           -2.1509e-006    2.1532e-006    
  -0.07           -1.8829e-006    1.8844e-006    
  -0.06           -1.6122e-006    1.6146e-006    
  -0.05           -1.3426e-006    1.3448e-006    
  -0.04           -1.0722e-006    1.0744e-006    
  -0.03           -8.0406e-007    8.0438e-007    
  -0.02           -5.3403e-007    5.3415e-007    
  -0.01           -2.6339e-007    2.6424e-007    
  0               3.4325e-009     -2.9869e-009   
  0.01            2.7607e-007     -2.7593e-007   
  0.02            5.4635e-007     -5.4576e-007   
  0.03            8.1389e-007     -8.1358e-007   
  0.04            1.0868e-006     -1.08327e-006  
  0.05            1.3574e-006     -1.355e-006    
  0.06            1.6271e-006     -1.6251e-006   
  0.07            1.8958e-006     -1.8934e-006   
  0.08            2.1658e-006     -2.1648e-006   
  0.09            2.4359e-006     -2.4339e-006   
  0.1             2.7066e-006     -2.704e-006    
  0.11            2.9768e-006     -2.9753e-006   
  0.12            3.2447e-006     -3.2432e-006   
  0.13            3.5156e-006     -3.5124e-006   
  0.14            3.786e-006      -3.7834e-006   
  0.15            4.0564e-006     -4.054e-006    
  0.16            4.3239e-006     -4.3216e-006   
  0.17            4.5943e-006     -4.5932e-006   
  0.18            4.8645e-006     -4.8628e-006   
  0.19            5.1361e-006     -5.1333e-006   
  0.2             5.4027e-006     -5.4008e-006   
  0.21            5.6722e-006     -5.6722e-006   
  0.22            5.9446e-006     -5.941e-006    
  0.23            6.2141e-006     -6.2115e-006   
  0.24            6.4827e-006     -6.4813e-006   
  0.25            6.7533e-006     -6.7497e-006   
  0.26            7.0212e-006     -7.0214e-006   
  0.27            7.2921e-006     -7.2899e-006   
  0.28            7.5627e-006     -7.5602e-006   
  0.29            7.8303e-006     -7.8288e-006   
  0.3             8.1031e-006     -8.0985e-006   
  0.31            8.3703e-006     -8.3687e-006   
  0.32            8.6412e-006     -8.6386e-006   
  0.33            8.9128e-006     -8.9113e-006   
  0.34            9.1805e-006     -9.1768e-006   
  0.35            9.449e-006      -9.448e-006    
  0.36            9.7185e-006     -9.7175e-006   
  0.37            9.9897e-006     -9.9883e-006   
  0.38            1.02598e-005    -1.02557e-005  
  0.39            1.05282e-005    -1.05281e-005  
  0.4             1.08001e-005    -1.07962e-005  
  0.41            1.10688e-005    -1.10681e-005  
  0.42            1.13378e-005    -1.13348e-005  
  0.43            1.1616e-005     -1.1597e-005   
  0.44            1.1885e-005     -1.1868e-005   
  0.45            1.2155e-005     -1.214e-005    
  0.46            1.2424e-005     -1.2411e-005   
  0.47            1.2693e-005     -1.2675e-005   
  0.48            1.2963e-005     -1.2946e-005   
  0.49            1.3234e-005     -1.3215e-005   
  0.5             1.3499e-005     -1.3486e-005   
END_DB

