! VERSION = 6.00
BEGIN_HEADER
 ICCAP_INPUTS
  VU1        V  E GROUND SMU2 0.1 CON        0
  VU2        V  S GROUND SMU1 0.1 CON        0
  VN         V  B GROUND SMU4 0.015 CON        0
  VP         V  C GROUND SMU3 0.015 LIN        1    -0.5       0.5        101  0.01      
 ICCAP_OUTPUTS
  IP         I  C GROUND SMU3 B
  IN         I  B GROUND SMU4 B
END_HEADER

BEGIN_DB
 ICCAP_VAR VU1        0              
 ICCAP_VAR VU2        0              
 ICCAP_VAR VN         0              

 #VP              IP              IN             
  -0.5            -0.00017105     0.00017123     
  -0.49           -0.00016761     0.00016778     
  -0.48           -0.00016417     0.00016435     
  -0.47           -0.00016077     0.00016095     
  -0.46           -0.00015733     0.00015754     
  -0.45           -0.0001539      0.00015411     
  -0.44           -0.00015046     0.00015069     
  -0.43           -0.00014706     0.00014725     
  -0.42           -0.00014365     0.00014382     
  -0.41           -0.00014023     0.00014042     
  -0.4            -0.00013679     0.00013696     
  -0.39           -0.00013336     0.00013356     
  -0.38           -0.00012996     0.00013015     
  -0.37           -0.00012652     0.00012672     
  -0.36           -0.00012309     0.00012329     
  -0.35           -0.00011967     0.00011987     
  -0.34           -0.00011624     0.00011643     
  -0.33           -0.00011284     0.00011303     
  -0.32           -0.0001094      0.00010959     
  -0.31           -0.000106       0.00010618     
  -0.3            -0.00010256     0.00010277     
  -0.29           -9.9234e-005    9.9253e-005    
  -0.28           -9.5837e-005    9.5849e-005    
  -0.27           -9.241e-005     9.2423e-005    
  -0.26           -8.8983e-005    8.9001e-005    
  -0.25           -8.5553e-005    8.5565e-005    
  -0.24           -8.2152e-005    8.2167e-005    
  -0.23           -7.8727e-005    7.8742e-005    
  -0.22           -7.5298e-005    7.5314e-005    
  -0.21           -7.1866e-005    7.1885e-005    
  -0.2            -6.8442e-005    6.8458e-005    
  -0.19           -6.5044e-005    6.5057e-005    
  -0.18           -6.162e-005     6.1629e-005    
  -0.17           -5.8188e-005    5.8206e-005    
  -0.16           -5.4766e-005    5.4781e-005    
  -0.15           -5.1347e-005    5.1359e-005    
  -0.14           -4.7948e-005    4.7966e-005    
  -0.13           -4.4522e-005    4.4533e-005    
  -0.12           -4.1096e-005    4.1111e-005    
  -0.11           -3.7667e-005    3.7686e-005    
  -0.1            -3.4245e-005    3.4262e-005    
  -0.09           -3.0845e-005    3.086e-005     
  -0.08           -2.7418e-005    2.7435e-005    
  -0.07           -2.3992e-005    2.4015e-005    
  -0.06           -2.0571e-005    2.0583e-005    
  -0.05           -1.7168e-005    1.7185e-005    
  -0.04           -1.374e-005     1.3761e-005    
  -0.03           -1.0318e-005    1.0334e-005    
  -0.02           -6.9016e-006    6.9074e-006    
  -0.01           -3.4775e-006    3.4807e-006    
  0               -8.0762e-008    7.9327e-008    
  0.01            3.3442e-006     -3.3409e-006   
  0.02            6.7694e-006     -6.7669e-006   
  0.03            1.01897e-005    -1.01896e-005  
  0.04            1.3595e-005     -1.3578e-005   
  0.05            1.7019e-005     -1.6998e-005   
  0.06            2.0444e-005     -2.0423e-005   
  0.07            2.3862e-005     -2.3846e-005   
  0.08            2.7284e-005     -2.7267e-005   
  0.09            3.0685e-005     -3.0665e-005   
  0.1             3.4104e-005     -3.4091e-005   
  0.11            3.7531e-005     -3.7509e-005   
  0.12            4.0946e-005     -4.0931e-005   
  0.13            4.4371e-005     -4.4357e-005   
  0.14            4.7768e-005     -4.7757e-005   
  0.15            5.1191e-005     -5.1174e-005   
  0.16            5.4611e-005     -5.4592e-005   
  0.17            5.8025e-005     -5.8012e-005   
  0.18            6.1454e-005     -6.1435e-005   
  0.19            6.4845e-005     -6.483e-005    
  0.2             6.827e-005      -6.8252e-005   
  0.21            7.1692e-005     -7.1674e-005   
  0.22            7.5113e-005     -7.509e-005    
  0.23            7.8532e-005     -7.8517e-005   
  0.24            8.1927e-005     -8.1911e-005   
  0.25            8.535e-005      -8.5329e-005   
  0.26            8.8769e-005     -8.8756e-005   
  0.27            9.2198e-005     -9.2176e-005   
  0.28            9.5612e-005     -9.5595e-005   
  0.29            9.9009e-005     -9.8992e-005   
  0.3             0.00010249      -0.00010229    
  0.31            0.00010589      -0.00010571    
  0.32            0.00010933      -0.00010913    
  0.33            0.00011271      -0.00011254    
  0.34            0.00011615      -0.00011595    
  0.35            0.00011957      -0.00011936    
  0.36            0.00012297      -0.00012278    
  0.37            0.00012639      -0.00012621    
  0.38            0.0001298       -0.0001296     
  0.39            0.0001332       -0.00013302    
  0.4             0.00013663      -0.00013646    
  0.41            0.00014006      -0.00013988    
  0.42            0.00014346      -0.00014327    
  0.43            0.00014684      -0.00014667    
  0.44            0.00015028      -0.0001501     
  0.45            0.00015369      -0.00015351    
  0.46            0.00015713      -0.00015693    
  0.47            0.00016054      -0.00016033    
  0.48            0.00016391      -0.00016375    
  0.49            0.00016733      -0.00016714    
  0.5             0.00017075      -0.00017057    
END_DB

