! VERSION = 6.00
BEGIN_HEADER
 ICCAP_INPUTS
  VU1        V  E GROUND SMU3 0.1 CON        0
  VU2        V  S GROUND SMU1 0.1 CON        0
  VN         V  B GROUND SMU2 0.015 CON        0
  VP         V  C GROUND SMU4 0.015 LIN        1    -0.6       0.6        121  0.01      
 ICCAP_OUTPUTS
  IP         I  C GROUND SMU4 B
  IN         I  B GROUND SMU2 B
END_HEADER

BEGIN_DB
 ICCAP_VAR VU1        0              
 ICCAP_VAR VU2        0              
 ICCAP_VAR VN         0              

 #VP              IP              IN             
  -0.6            -1.2604e-005    6.8714e-006    
  -0.59           -1.105e-005     6.05e-006      
  -0.58           -9.4982e-006    5.2841e-006    
  -0.57           -8.295e-006     4.4948e-006    
  -0.56           -7.1752e-006    3.8564e-006    
  -0.55           -6.0577e-006    3.4756e-006    
  -0.54           -5.0187e-006    2.7141e-006    
  -0.53           -4.1205e-006    2.2104e-006    
  -0.52           -3.6006e-006    1.7812e-006    
  -0.51           -2.6408e-006    1.3996e-006    
  -0.5            -2.0045e-006    1.0771e-006    
  -0.49           -1.6597e-006    8.1282e-007    
  -0.48           -1.13e-006      5.9902e-007    
  -0.47           -8.1341e-007    4.3433e-007    
  -0.46           -5.9154e-007    3.5892e-007    
  -0.45           -4.1553e-007    2.2e-007       
  -0.44           -2.8731e-007    1.5752e-007    
  -0.43           -2.0098e-007    1.0303e-007    
  -0.42           -1.3776e-007    6.9683e-008    
  -0.41           -9.528e-008     5.0607e-008    
  -0.4            -6.7385e-008    3.4349e-008    
  -0.39           -4.4234e-008    2.4544e-008    
  -0.38           -3.014e-008     1.5724e-008    
  -0.37           -1.9844e-008    9.873e-009     
  -0.36           -1.3702e-008    1.0433e-008    
  -0.35           -1.1478e-008    7.2108e-009    
  -0.34           -6.0675e-009    4.8178e-009    
  -0.33           -5.1105e-009    3.4024e-009    
  -0.32           -3.7773e-009    2.6323e-009    
  -0.31           -2.8005e-009    2.0913e-009    
  -0.3            -2.2345e-009    1.7098e-009    
  -0.29           -1.8453e-009    1.4492e-009    
  -0.28           -2.1614e-009    1.2366e-009    
  -0.27           -1.4124e-009    -1.8485e-009   
  -0.26           1.398e-009      -1.3849e-009   
  -0.25           6.639e-010      2.701e-009     
  -0.24           -1.541e-009     1.9093e-009    
  -0.23           -8.099e-010     -2.451e-009    
  -0.22           1.4562e-009     -1.728e-009    
  -0.21           1.4057e-009     2.0397e-009    
  -0.2            1.3712e-009     2.0396e-009    
  -0.19           1.3294e-009     2.0419e-009    
  -0.18           -1.4945e-009    1.9145e-009    
  -0.17           -7.991e-010     -2.4659e-009   
  -0.16           1.4222e-009     -1.2315e-009   
  -0.15           1.0085e-009     2.5428e-009    
  -0.14           -1.4484e-009    1.469e-009     
  -0.13           -8.684e-010     -2.3461e-009   
  -0.12           1.5811e-009     -1.3714e-009   
  -0.11           1.0891e-009     2.3892e-009    
  -0.1            -1.4412e-009    1.604e-009     
  -0.09           -9.457e-010     -2.1466e-009   
  -0.08           1.5924e-009     -1.5007e-009   
  -0.07           1.1829e-009     2.1797e-009    
  -0.06           -1.4355e-009    1.7255e-009    
  -0.05           -1.0574e-009    -1.9696e-009   
  -0.04           1.5809e-009     -1.6322e-009   
  -0.03           1.3177e-009     2.047e-009     
  -0.02           -1.3862e-009    1.8657e-009    
  -0.01           -7.296e-010     -2.508e-009    
  0               1.5931e-009     -1.5563e-009   
  0.01            1.2381e-009     2.1134e-009    
  0.02            -1.4208e-009    1.7805e-009    
  0.03            -1.1171e-009    -1.92e-009     
  0.04            -1.073e-009     -1.9475e-009   
  0.05            1.576e-009      -1.6527e-009   
  0.06            1.3374e-009     2.0396e-009    
  0.07            -1.4821e-009    1.8881e-009    
  0.08            -7.827e-010     -2.4813e-009   
  0.09            1.4336e-009     -1.2271e-009   
  0.1             1.0123e-009     2.5459e-009    
  0.11            -1.4425e-009    1.4587e-009    
  0.12            -8.576e-010     -2.3552e-009   
  0.13            1.585e-009      -1.3647e-009   
  0.14            1.0873e-009     2.388e-009     
  0.15            -1.437e-009     1.595e-009     
  0.16            -9.363e-010     -2.1567e-009   
  0.17            1.5971e-009     -1.498e-009    
  0.18            1.1821e-009     2.1846e-009    
  0.19            -1.4363e-009    1.7202e-009    
  0.2             -1.0474e-009    -1.9761e-009   
  0.21            1.5865e-009     -1.6268e-009   
  0.22            1.313e-009      2.05e-009      
  0.23            -1.3842e-009    1.8599e-009    
  0.24            -7.244e-010     -2.5121e-009   
  0.25            1.5152e-009     -1.7924e-009   
  0.26            9.617e-010      2.5973e-009    
  0.27            -1.4647e-009    1.3609e-009    
  0.28            -8.021e-010     -2.4575e-009   
  0.29            1.6003e-009     -1.2677e-009   
  0.3             1.0351e-009     2.5102e-009    
  0.31            -1.436e-009     1.4995e-009    
  0.32            -8.766e-010     -2.3046e-009   
  0.33            1.5913e-009     -1.4094e-009   
  0.34            1.1127e-009     2.3362e-009    
  0.35            -1.4353e-009    1.6285e-009    
  0.36            -9.654e-010     -2.0981e-009   
  0.37            1.5996e-009     -1.5366e-009   
  0.38            1.2214e-009     2.1379e-009    
  0.39            -1.4245e-009    1.7602e-009    
  0.4             -1.0901e-009    -1.9412e-009   
  0.41            -1.05e-009      -1.9698e-009   
  0.42            1.585e-009      -1.6269e-009   
  0.43            1.3204e-009     2.0536e-009    
  0.44            -1.3815e-009    1.8659e-009    
  0.45            -7.236e-010     -2.4972e-009   
  0.46            1.5138e-009     -1.8027e-009   
  0.47            9.617e-010      2.5907e-009    
  0.48            -1.4607e-009    1.3613e-009    
  0.49            -8.045e-010     -2.4489e-009   
  0.5             1.6006e-009     -1.2757e-009   
  0.51            1.0418e-009     2.501e-009     
  0.52            -1.435e-009     1.5007e-009    
  0.53            -8.798e-010     -2.2975e-009   
  0.54            1.5886e-009     -1.4091e-009   
  0.55            1.1195e-009     2.331e-009     
  0.56            -1.4307e-009    1.6375e-009    
  0.57            -9.668e-010     -2.0966e-009   
  0.58            1.5956e-009     -1.5378e-009   
  0.59            1.2222e-009     2.139e-009     
  0.6             -1.4177e-009    1.758e-009     
END_DB

