! VERSION = 6.00
BEGIN_HEADER
 ICCAP_INPUTS
  VU1        V  E GROUND SMU3 0.1 CON        0
  VU2        V  S GROUND SMU1 0.1 CON        0
  VN         V  B GROUND SMU2 0.015 CON        0
  VP         V  C GROUND SMU4 0.015 LIN        1    -0.6       0.6        121  0.01      
 ICCAP_OUTPUTS
  IP         I  C GROUND SMU4 B
  IN         I  B GROUND SMU2 B
END_HEADER

BEGIN_DB
 ICCAP_VAR VU1        0              
 ICCAP_VAR VU2        0              
 ICCAP_VAR VN         0              

 #VP              IP              IN             
  -0.6            -5.7777e-005    3.805e-005     
  -0.59           -4.715e-005     3.0853e-005    
  -0.58           -3.7813e-005    2.4739e-005    
  -0.57           -2.9692e-005    1.9348e-005    
  -0.56           -2.2895e-005    1.4901e-005    
  -0.55           -1.7264e-005    1.122e-005     
  -0.54           -1.2833e-005    8.3231e-006    
  -0.53           -9.3426e-006    6.0399e-006    
  -0.52           -6.6711e-006    4.3167e-006    
  -0.51           -4.715e-006     3.0343e-006    
  -0.5            -3.3036e-006    2.1224e-006    
  -0.49           -2.3063e-006    1.4747e-006    
  -0.48           -1.586e-006     1.0191e-006    
  -0.47           -1.0853e-006    6.9881e-007    
  -0.46           -7.4474e-007    4.811e-007     
  -0.45           -5.1222e-007    3.2671e-007    
  -0.44           -3.4791e-007    2.2372e-007    
  -0.43           -2.3843e-007    1.4952e-007    
  -0.42           -1.623e-007     1.0357e-007    
  -0.41           -1.1094e-007    7.0829e-008    
  -0.4            -7.5669e-008    4.8241e-008    
  -0.39           -4.9526e-008    3.3602e-008    
  -0.38           -3.5065e-008    1.9877e-008    
  -0.37           -2.4542e-008    1.5156e-008    
  -0.36           -1.4137e-008    1.1676e-008    
  -0.35           -1.07e-008      1.0085e-008    
  -0.34           -7.4874e-009    6.6422e-009    
  -0.33           -5.2119e-009    4.7762e-009    
  -0.32           -3.6584e-009    3.7476e-009    
  -0.31           -2.6166e-009    3.0342e-009    
  -0.3            -1.9142e-009    2.5374e-009    
  -0.29           -2.2304e-009    2.1924e-009    
  -0.28           -1.9218e-009    5.049e-010     
  -0.27           -1.7293e-009    2.831e-010     
  -0.26           -1.6131e-009    9.85e-011      
  -0.25           -1.5549e-009    -4.74e-011     
  -0.24           -9.952e-010     -2.3947e-009   
  -0.23           1.4926e-009     -1.2135e-009   
  -0.22           9.396e-010      2.5579e-009    
  -0.21           -1.5279e-009    1.5204e-009    
  -0.2            -9.484e-010     -2.3167e-009   
  -0.19           1.5558e-009     -1.4088e-009   
  -0.18           1.0696e-009     2.341e-009     
  -0.17           -1.4864e-009    1.6276e-009    
  -0.16           -1.0094e-009    -2.1294e-009   
  -0.15           1.5797e-009     -1.551e-009    
  -0.14           1.186e-009      2.1391e-009    
  -0.13           -1.4654e-009    1.7512e-009    
  -0.12           -1.1254e-009    -1.9663e-009   
  -0.11           -1.0876e-009    -2.0005e-009   
  -0.1            1.5677e-009     -1.6455e-009   
  -0.09           1.2892e-009     2.0463e-009    
  -0.08           -1.4213e-009    1.8485e-009    
  -0.07           -7.611e-010     -2.5197e-009   
  -0.06           1.4927e-009     -1.8173e-009   
  -0.05           9.431e-010      2.5927e-009    
  -0.04           -1.5104e-009    1.3695e-009    
  -0.03           -8.446e-010     -2.4656e-009   
  -0.02           1.5957e-009     -1.2952e-009   
  -0.01           1.0186e-009     2.4969e-009    
  0               -1.5049e-009    1.9362e-009    
  0.01            -8.421e-010     -2.4656e-009   
  0.02            1.5957e-009     -1.2961e-009   
  0.03            1.0208e-009     2.5076e-009    
  0.04            -1.4737e-009    1.5071e-009    
  0.05            -9.214e-010     -2.3259e-009   
  0.06            1.5807e-009     -1.4349e-009   
  0.07            1.0997e-009     2.3229e-009    
  0.08            -1.4758e-009    1.6374e-009    
  0.09            -1.0109e-009    -2.1164e-009   
  0.1             1.5866e-009     -1.5679e-009   
  0.11            1.204e-009      2.1221e-009    
  0.12            -1.4579e-009    1.7635e-009    
  0.13            -1.1406e-009    -1.9628e-009   
  0.14            -1.0962e-009    -1.9861e-009   
  0.15            1.5684e-009     -1.6611e-009   
  0.16            1.3118e-009     2.0408e-009    
  0.17            -1.4144e-009    1.8665e-009    
  0.18            -7.671e-010     -2.5272e-009   
  0.19            1.4934e-009     -1.8395e-009   
  0.2             9.546e-010      2.5952e-009    
  0.21            -1.4985e-009    1.3758e-009    
  0.22            -8.5e-010       -2.4626e-009   
  0.23            1.587e-009      -1.3079e-009   
  0.24            1.0302e-009     2.4856e-009    
  0.25            -1.4704e-009    1.5157e-009    
  0.26            -9.292e-010     -2.2972e-009   
  0.27            1.5811e-009     -1.4531e-009   
  0.28            1.1128e-009     2.3022e-009    
  0.29            -1.4692e-009    1.6469e-009    
  0.3             -1.0213e-009    -2.1008e-009   
  0.31            1.5813e-009     -1.5859e-009   
  0.32            1.2245e-009     2.1077e-009    
  0.33            -1.4479e-009    1.7814e-009    
  0.34            -1.1534e-009    -1.9536e-009   
  0.35            -1.1105e-009    -1.9754e-009   
  0.36            -1.0711e-009    -2.0187e-009   
  0.37            1.576e-009      -1.6415e-009   
  0.38            1.2794e-009     2.0542e-009    
  0.39            -1.4219e-009    1.8379e-009    
  0.4             -7.472e-010     -2.5237e-009   
  0.41            1.509e-009      -1.8019e-009   
  0.42            9.394e-010      2.5903e-009    
  0.43            -1.4885e-009    2.0334e-009    
  0.44            -8.719e-010     -2.4159e-009   
  0.45            1.5908e-009     -1.3562e-009   
  0.46            1.0537e-009     2.4324e-009    
  0.47            -1.4714e-009    1.5564e-009    
  0.48            -9.534e-010     -2.2408e-009   
  0.49            1.5838e-009     -1.4923e-009   
  0.5             1.1446e-009     2.2389e-009    
  0.51            -1.4655e-009    1.6842e-009    
  0.52            -1.0559e-009    -2.0494e-009   
  0.53            1.5777e-009     -1.626e-009    
  0.54            1.2675e-009     2.0702e-009    
  0.55            -1.4302e-009    1.8206e-009    
  0.56            -7.365e-010     -2.5206e-009   
  0.57            1.5211e-009     -1.7799e-009   
  0.58            9.34e-010       2.5956e-009    
  0.59            -1.4892e-009    2.0097e-009    
  0.6             -8.622e-010     -2.4339e-009   
END_DB

