! VERSION = 6.00
BEGIN_HEADER
 ICCAP_INPUTS
  VU1        V  E GROUND SMU3 0.1 CON        0
  VU2        V  S GROUND SMU1 0.1 CON        0
  VN         V  B GROUND SMU2 0.015 CON        0
  VP         V  C GROUND SMU4 0.015 LIN        1    -0.6       0.6        121  0.01      
 ICCAP_OUTPUTS
  IP         I  C GROUND SMU4 B
  IN         I  B GROUND SMU2 B
END_HEADER

BEGIN_DB
 ICCAP_VAR VU1        0              
 ICCAP_VAR VU2        0              
 ICCAP_VAR VN         0              

 #VP              IP              IN             
  -0.6            -2.939e-005     2.6451e-009    
  -0.59           -2.4582e-005    2.5254e-009    
  -0.58           -2.0105e-005    -1.7014e-009   
  -0.57           -1.6187e-005    6.371e-010     
  -0.56           -1.2766e-005    2.2343e-009    
  -0.55           -9.8371e-006    -2.7248e-009   
  -0.54           -7.4729e-006    -2.6529e-009   
  -0.53           -5.5363e-006    -2.5749e-009   
  -0.52           -4.0294e-006    9.638e-010     
  -0.51           -2.8762e-006    2.1491e-009    
  -0.5            -2.0299e-006    -2.4934e-009   
  -0.49           -1.4306e-006    9.169e-010     
  -0.48           -9.8746e-007    2.2101e-009    
  -0.47           -6.8507e-007    8.62e-010      
  -0.46           -4.685e-007     2.7169e-009    
  -0.45           -3.214e-007     -9.995e-010    
  -0.44           -2.2017e-007    -2.1916e-009   
  -0.43           -1.5018e-007    2.299e-009     
  -0.42           -1.04042e-007   2.2654e-009    
  -0.41           -7.0335e-008    1.9387e-009    
  -0.4            -4.6298e-008    -1.215e-010    
  -0.39           -3.2783e-008    -1.963e-009    
  -0.38           -2.352e-008     9.463e-010     
  -0.37           -1.4312e-008    2.4982e-009    
  -0.36           -9.212e-009     -1.5712e-009   
  -0.35           -7.9397e-009    -2.5399e-009   
  -0.34           -4.3757e-009    -1.5723e-009   
  -0.33           -2.8133e-009    -1.5397e-009   
  -0.32           -1.7318e-009    -1.5008e-009   
  -0.31           -9.885e-010     -1.4581e-009   
  -0.3            -4.777e-010     -1.4175e-009   
  -0.29           3.57e-010       -1.3755e-009   
  -0.28           -1.6134e-009    1.4394e-009    
  -0.27           -1.4928e-009    -1.6e-011      
  -0.26           -1.0768e-009    -2.4024e-009   
  -0.25           1.4379e-009     -1.4415e-009   
  -0.24           9.971e-010      2.3072e-009    
  -0.23           -1.4949e-009    1.529e-009     
  -0.22           -9.816e-010     -2.212e-009    
  -0.21           1.5536e-009     -1.572e-009    
  -0.2            1.1644e-009     2.1142e-009    
  -0.19           -1.4379e-009    1.6577e-009    
  -0.18           -1.0533e-009    -2.033e-009    
  -0.17           1.5682e-009     -1.6956e-009   
  -0.16           1.3135e-009     1.9674e-009    
  -0.15           -1.3759e-009    1.7961e-009    
  -0.14           -7.277e-010     -2.5483e-009   
  -0.13           1.5068e-009     -1.8594e-009   
  -0.12           9.674e-010      2.4982e-009    
  -0.11           -1.4641e-009    1.2997e-009    
  -0.1            -8.009e-010     -2.4941e-009   
  -0.09           1.5995e-009     -1.3383e-009   
  -0.08           1.0392e-009     2.4177e-009    
  -0.07           -1.4266e-009    1.4333e-009    
  -0.06           -8.77e-010      -2.3495e-009   
  -0.05           1.5809e-009     -1.4762e-009   
  -0.04           1.1196e-009     2.2471e-009    
  -0.03           -1.424e-009     1.566e-009     
  -0.02           -9.673e-010     -2.1477e-009   
  -0.01           1.5864e-009     -1.6092e-009   
  0               -1.4254e-009    1.5417e-009    
  0.01            -9.405e-010     -2.1996e-009   
  0.02            1.5935e-009     -1.5779e-009   
  0.03            1.1957e-009     2.1018e-009    
  0.04            -1.4141e-009    1.6666e-009    
  0.05            -1.0582e-009    -2.0182e-009   
  0.06            1.5757e-009     -1.7102e-009   
  0.07            1.335e-009      1.9625e-009    
  0.08            -1.4768e-009    1.8117e-009    
  0.09            -7.735e-010     -2.5266e-009   
  0.1             1.4401e-009     -1.2875e-009   
  0.11            1.0199e-009     2.4708e-009    
  0.12            -1.4336e-009    1.3872e-009    
  0.13            -8.524e-010     -2.4197e-009   
  0.14            1.5868e-009     -1.4351e-009   
  0.15            1.0954e-009     2.3228e-009    
  0.16            -1.4182e-009    1.529e-009     
  0.17            -9.329e-010     -2.2252e-009   
  0.18            1.5913e-009     -1.5687e-009   
  0.19            1.1839e-009     2.1249e-009    
  0.2             -1.4143e-009    1.6524e-009    
  0.21            -1.0402e-009    -2.0386e-009   
  0.22            1.5782e-009     -1.6932e-009   
  0.23            1.3204e-009     1.9689e-009    
  0.24            -1.3661e-009    1.7963e-009    
  0.25            -7.206e-010     -2.5417e-009   
  0.26            1.5137e-009     -1.8643e-009   
  0.27            9.701e-010      2.5062e-009    
  0.28            -1.4579e-009    1.3007e-009    
  0.29            -8.003e-010     -2.4902e-009   
  0.3             1.6072e-009     -1.3456e-009   
  0.31            1.0494e-009     2.4179e-009    
  0.32            -1.4248e-009    1.4434e-009    
  0.33            -8.773e-010     -2.3447e-009   
  0.34            1.5931e-009     -1.4846e-009   
  0.35            1.1255e-009     2.2492e-009    
  0.36            -1.4221e-009    1.5736e-009    
  0.37            -9.659e-010     -2.152e-009    
  0.38            1.5924e-009     -1.6115e-009   
  0.39            1.2311e-009     2.0534e-009    
  0.4             -1.4032e-009    1.7005e-009    
  0.41            -1.0864e-009    -1.9895e-009   
  0.42            -1.044e-009     -2.0205e-009   
  0.43            1.5855e-009     -1.7065e-009   
  0.44            1.3261e-009     1.9641e-009    
  0.45            -1.4821e-009    1.802e-009     
  0.46            -7.676e-010     -2.5375e-009   
  0.47            1.456e-009      -1.2775e-009   
  0.48            1.0143e-009     2.4782e-009    
  0.49            -1.4315e-009    1.3815e-009    
  0.5             -8.439e-010     -2.4351e-009   
  0.51            1.5956e-009     -1.4224e-009   
  0.52            1.0925e-009     2.338e-009     
  0.53            -1.4245e-009    1.5202e-009    
  0.54            -9.198e-010     -2.2404e-009   
  0.55            1.5995e-009     -1.5546e-009   
  0.56            1.1764e-009     2.1267e-009    
  0.57            -1.4216e-009    1.6446e-009    
  0.58            -1.0232e-009    -2.0469e-009   
  0.59            1.5959e-009     -1.6841e-009   
  0.6             1.2994e-009     1.9679e-009    
END_DB

