! VERSION = 6.00
BEGIN_HEADER
 ICCAP_INPUTS
  VU1        V  E GROUND SMU3 0.1 CON        0
  VU2        V  S GROUND SMU1 0.1 CON        0
  VN         V  B GROUND SMU2 0.015 CON        0
  VP         V  C GROUND SMU4 0.015 LIN        1    -0.6       0.6        121  0.01      
 ICCAP_OUTPUTS
  IP         I  C GROUND SMU4 B
  IN         I  B GROUND SMU2 B
END_HEADER

BEGIN_DB
 ICCAP_VAR VU1        0              
 ICCAP_VAR VU2        0              
 ICCAP_VAR VN         0              

 #VP              IP              IN             
  -0.6            -4.8409e-005    3.0451e-005    
  -0.59           -3.9899e-005    2.522e-005     
  -0.58           -3.2407e-005    2.053e-005     
  -0.57           -2.5871e-005    1.6235e-005    
  -0.56           -2.0189e-005    1.2699e-005    
  -0.55           -1.5478e-005    9.6753e-006    
  -0.54           -1.1636e-005    7.257e-006     
  -0.53           -8.5914e-006    5.344e-006     
  -0.52           -6.2006e-006    3.8598e-006    
  -0.51           -4.4177e-006    2.738e-006     
  -0.5            -3.1416e-006    1.9258e-006    
  -0.49           -2.1926e-006    1.3475e-006    
  -0.48           -1.5153e-006    9.2911e-007    
  -0.47           -1.0429e-006    6.4155e-007    
  -0.46           -7.1138e-007    4.4409e-007    
  -0.45           -4.9287e-007    2.996e-007     
  -0.44           -3.3286e-007    2.08e-007      
  -0.43           -2.3051e-007    1.4031e-007    
  -0.42           -1.5504e-007    9.5437e-008    
  -0.41           -1.0723e-007    6.3295e-008    
  -0.4            -7.1871e-008    4.4584e-008    
  -0.39           -5.0065e-008    3.0479e-008    
  -0.38           -3.1966e-008    2.1789e-008    
  -0.37           -2.1672e-008    1.2629e-008    
  -0.36           -1.3338e-008    1.2472e-008    
  -0.35           -1.1347e-008    7.5796e-009    
  -0.34           -6.269e-009     4.9474e-009    
  -0.33           -5.0256e-009    4.5231e-009    
  -0.32           -3.5163e-009    3.5689e-009    
  -0.31           -2.5136e-009    2.9134e-009    
  -0.3            -1.8386e-009    2.4436e-009    
  -0.29           -2.1839e-009    2.1279e-009    
  -0.28           -1.8786e-009    4.802e-010     
  -0.27           -1.6845e-009    2.856e-010     
  -0.26           -1.5675e-009    1.249e-010     
  -0.25           -1.4956e-009    -7.1e-012      
  -0.24           -1.4597e-009    -1.154e-010    
  -0.23           -9.061e-010     -2.407e-009    
  -0.22           1.5384e-009     -1.2049e-009   
  -0.21           9.885e-010      2.5585e-009    
  -0.2            -1.4785e-009    1.5288e-009    
  -0.19           -9.178e-010     -2.2921e-009   
  -0.18           1.5796e-009     -1.4081e-009   
  -0.17           1.1171e-009     2.3242e-009    
  -0.16           -1.4504e-009    1.6712e-009    
  -0.15           -1.0086e-009    -2.0557e-009   
  -0.14           1.5934e-009     -1.5692e-009   
  -0.13           1.2548e-009     2.0936e-009    
  -0.12           -1.417e-009     1.8226e-009    
  -0.11           -7.046e-010     -2.4913e-009   
  -0.1            1.5405e-009     -1.7523e-009   
  -0.09           1.448e-009      2.0163e-009    
  -0.08           1.3997e-009     2.0165e-009    
  -0.07           1.3541e-009     2.0257e-009    
  -0.06           -1.4908e-009    1.9246e-009    
  -0.05           -8.057e-010     -2.4542e-009   
  -0.04           1.4114e-009     -1.2473e-009   
  -0.03           1.0402e-009     2.5235e-009    
  -0.02           -1.4424e-009    1.5177e-009    
  -0.01           -8.998e-010     -2.2922e-009   
  0               1.597e-009      -6.708e-010    
  0.01            1.1303e-009     2.313e-009     
  0.02            -1.4376e-009    1.6688e-009    
  0.03            -1.0071e-009    -2.063e-009    
  0.04            1.5951e-009     -1.582e-009    
  0.05            1.2669e-009     2.095e-009     
  0.06            -1.4072e-009    1.8283e-009    
  0.07            -7.048e-010     -2.4907e-009   
  0.08            1.5417e-009     -1.764e-009    
  0.09            1.4597e-009     2.0134e-009    
  0.1             1.4171e-009     2.0178e-009    
  0.11            1.3651e-009     2.0238e-009    
  0.12            -1.4849e-009    1.937e-009     
  0.13            -8.079e-010     -2.4574e-009   
  0.14            1.4062e-009     -1.2592e-009   
  0.15            1.047e-009      2.5143e-009    
  0.16            -1.4383e-009    1.5215e-009    
  0.17            -9.032e-010     -2.2916e-009   
  0.18            1.5992e-009     -1.4357e-009   
  0.19            1.1387e-009     2.294e-009     
  0.2             -1.4422e-009    1.6771e-009    
  0.21            -1.0121e-009    -2.041e-009    
  0.22            1.6092e-009     -1.5969e-009   
  0.23            1.2732e-009     2.0786e-009    
  0.24            -1.4135e-009    1.8362e-009    
  0.25            -7.137e-010     -2.518e-009    
  0.26            1.5403e-009     -1.7746e-009   
  0.27            1.4728e-009     2.0124e-009    
  0.28            1.4203e-009     2.0132e-009    
  0.29            1.375e-009      2.0195e-009    
  0.3             -1.4738e-009    1.9404e-009    
  0.31            -8.134e-010     -2.4687e-009   
  0.32            1.4033e-009     -1.2759e-009   
  0.33            1.054e-009      2.523e-009     
  0.34            -1.4434e-009    1.5314e-009    
  0.35            -9.08e-010      -2.2856e-009   
  0.36            1.6073e-009     -1.4419e-009   
  0.37            1.1452e-009     2.2877e-009    
  0.38            -1.4493e-009    1.6862e-009    
  0.39            -1.0105e-009    -2.0398e-009   
  0.4             1.6144e-009     -1.5987e-009   
  0.41            1.2738e-009     2.0729e-009    
  0.42            -1.4182e-009    1.8352e-009    
  0.43            -7.093e-010     -2.5185e-009   
  0.44            1.5453e-009     -1.7695e-009   
  0.45            1.4635e-009     2.0153e-009    
  0.46            1.4227e-009     2.0157e-009    
  0.47            1.3756e-009     2.0155e-009    
  0.48            -1.4758e-009    1.938e-009     
  0.49            -8.104e-010     -2.4697e-009   
  0.5             1.4073e-009     -1.2741e-009   
  0.51            1.0554e-009     2.5229e-009    
  0.52            -1.4415e-009    1.5331e-009    
  0.53            -9.031e-010     -2.2972e-009   
  0.54            1.6077e-009     -1.441e-009    
  0.55            1.1447e-009     2.3003e-009    
  0.56            -1.4362e-009    1.6791e-009    
  0.57            -1.0107e-009    -2.0605e-009   
  0.58            1.6027e-009     -1.6003e-009   
  0.59            1.2784e-009     2.0858e-009    
  0.6             -1.4054e-009    1.8367e-009    
END_DB

