! VERSION = 6.00
BEGIN_HEADER
 ICCAP_INPUTS
  SVH        I  E GROUND SMU1 2 CON        0
  SVL        I  S GROUND SMU3 2 CON        0
  FVL        V  B GROUND SMU4 0.015 CON        0
  FVH        V  C GROUND SMU2 0.015 LIN        1    -1         1          201  0.01      
 ICCAP_OUTPUTS
  IVH        I  C GROUND SMU2 B
  IVL        I  B GROUND SMU4 B
  VVH        V  E GROUND SMU1 B
  VVL        V  S GROUND SMU3 B
END_HEADER

BEGIN_DB
 ICCAP_VAR SVH        0              
 ICCAP_VAR SVL        0              
 ICCAP_VAR FVL        0              

 #FVH             IVH             IVL             VVH             VVL            
  -1              -4.3757e-005    4.3767e-005     -0.06594        -0.9781        
  -0.99           -4.3316e-005    4.3334e-005     -0.06522        -0.96826       
  -0.98           -4.2878e-005    4.2895e-005     -0.0646         -0.95848       
  -0.97           -4.2437e-005    4.2455e-005     -0.06394        -0.94866       
  -0.96           -4.2006e-005    4.2022e-005     -0.06328        -0.93896       
  -0.95           -4.1565e-005    4.1584e-005     -0.06266        -0.92914       
  -0.94           -4.1123e-005    4.1143e-005     -0.06192        -0.91934       
  -0.93           -4.0688e-005    4.0703e-005     -0.06128        -0.90954       
  -0.92           -4.0254e-005    4.0271e-005     -0.06064        -0.89984       
  -0.91           -3.9812e-005    3.983e-005      -0.06           -0.89006       
  -0.9            -3.9374e-005    3.939e-005      -0.05932        -0.88024       
  -0.89           -3.8939e-005    3.8956e-005     -0.05866        -0.87046       
  -0.88           -3.85e-005      3.852e-005      -0.058          -0.86074       
  -0.87           -3.8062e-005    3.8078e-005     -0.05734        -0.85096       
  -0.86           -3.7626e-005    3.7643e-005     -0.05672        -0.84118       
  -0.85           -3.7188e-005    3.7206e-005     -0.05602        -0.83142       
  -0.84           -3.6748e-005    3.6765e-005     -0.05536        -0.8216        
  -0.83           -3.6314e-005    3.6332e-005     -0.05472        -0.81186       
  -0.82           -3.5876e-005    3.5894e-005     -0.05408        -0.80206       
  -0.81           -3.5435e-005    3.5451e-005     -0.0534         -0.79228       
  -0.8            -3.4997e-005    3.5015e-005     -0.05276        -0.7825        
  -0.79           -3.4561e-005    3.4577e-005     -0.05208        -0.77266       
  -0.78           -3.4118e-005    3.4136e-005     -0.05142        -0.76286       
  -0.77           -3.3681e-005    3.3699e-005     -0.05078        -0.75308       
  -0.76           -3.3248e-005    3.3267e-005     -0.05008        -0.74338       
  -0.75           -3.2808e-005    3.2827e-005     -0.04946        -0.73358       
  -0.74           -3.2368e-005    3.2387e-005     -0.04876        -0.7238        
  -0.73           -3.1934e-005    3.195e-005      -0.04818        -0.714         
  -0.72           -3.1496e-005    3.1511e-005     -0.04748        -0.70422       
  -0.71           -3.106e-005     3.1076e-005     -0.04682        -0.69446       
  -0.7            -3.0622e-005    3.064e-005      -0.0462         -0.68468       
  -0.69           -3.0185e-005    3.0203e-005     -0.0455         -0.6749        
  -0.68           -2.9744e-005    2.9763e-005     -0.04484        -0.66512       
  -0.67           -2.9309e-005    2.9325e-005     -0.0442         -0.65534       
  -0.66           -2.8872e-005    2.8889e-005     -0.04354        -0.64556       
  -0.65           -2.8433e-005    2.8449e-005     -0.04286        -0.63578       
  -0.64           -2.7993e-005    2.8009e-005     -0.04222        -0.626         
  -0.63           -2.7559e-005    2.758e-005      -0.04158        -0.61628       
  -0.62           -2.7121e-005    2.7141e-005     -0.04094        -0.60644       
  -0.61           -2.6683e-005    2.6701e-005     -0.04026        -0.5967        
  -0.6            -2.6245e-005    2.6262e-005     -0.03956        -0.58688       
  -0.59           -2.5809e-005    2.5827e-005     -0.03892        -0.5772        
  -0.58           -2.5369e-005    2.5388e-005     -0.03826        -0.56738       
  -0.57           -2.4932e-005    2.4949e-005     -0.03762        -0.55756       
  -0.56           -2.4494e-005    2.4512e-005     -0.03696        -0.54776       
  -0.55           -2.4053e-005    2.4073e-005     -0.0363         -0.53796       
  -0.54           -2.3621e-005    2.3639e-005     -0.03566        -0.52824       
  -0.53           -2.3182e-005    2.3201e-005     -0.03496        -0.51846       
  -0.52           -2.2741e-005    2.276e-005      -0.03434        -0.50866       
  -0.51           -2.2304e-005    2.2319e-005     -0.0337         -0.49886       
  -0.5            -2.187e-005     2.1888e-005     -0.03302        -0.48914       
  -0.49           -2.1433e-005    2.1449e-005     -0.03234        -0.47938       
  -0.48           -2.0993e-005    2.1007e-005     -0.03168        -0.46952       
  -0.47           -2.0554e-005    2.0573e-005     -0.03104        -0.45976       
  -0.46           -2.012e-005     2.014e-005      -0.0304         -0.45004       
  -0.45           -1.968e-005     1.9696e-005     -0.02972        -0.44024       
  -0.44           -1.9242e-005    1.9262e-005     -0.02908        -0.43042       
  -0.43           -1.8805e-005    1.8823e-005     -0.02842        -0.42058       
  -0.42           -1.837e-005     1.8387e-005     -0.02776        -0.41092       
  -0.41           -1.793e-005     1.7949e-005     -0.0271         -0.40112       
  -0.4            -1.7492e-005    1.751e-005      -0.02642        -0.39128       
  -0.39           -1.7052e-005    1.707e-005      -0.0258         -0.38152       
  -0.38           -1.6615e-005    1.6633e-005     -0.02508        -0.37174       
  -0.37           -1.6181e-005    1.62e-005       -0.02446        -0.36202       
  -0.36           -1.5742e-005    1.5757e-005     -0.0238         -0.3522        
  -0.35           -1.5303e-005    1.532e-005      -0.02316        -0.3424        
  -0.34           -1.4864e-005    1.4884e-005     -0.0225         -0.3326        
  -0.33           -1.443e-005     1.4448e-005     -0.02184        -0.32284       
  -0.32           -1.399e-005     1.4008e-005     -0.02118        -0.31306       
  -0.31           -1.3554e-005    1.3571e-005     -0.02052        -0.30324       
  -0.3            -1.3116e-005    1.3134e-005     -0.01984        -0.29346       
  -0.29           -1.268e-005     1.2697e-005     -0.0192         -0.28374       
  -0.28           -1.224e-005     1.2257e-005     -0.01854        -0.27396       
  -0.27           -1.1806e-005    1.182e-005      -0.0179         -0.26418       
  -0.26           -1.1363e-005    1.1383e-005     -0.01722        -0.25442       
  -0.25           -1.0929e-005    1.0948e-005     -0.01656        -0.24468       
  -0.24           -1.0494e-005    1.051e-005      -0.01592        -0.23486       
  -0.23           -1.0052e-005    1.007e-005      -0.01528        -0.22506       
  -0.22           -9.6243e-006    9.6261e-006     -0.01462        -0.2153        
  -0.21           -9.1863e-006    9.1874e-006     -0.01392        -0.20548       
  -0.2            -8.7501e-006    8.7516e-006     -0.01332        -0.19582       
  -0.19           -8.3115e-006    8.3133e-006     -0.01264        -0.18596       
  -0.18           -7.8747e-006    7.877e-006      -0.01194        -0.17618       
  -0.17           -7.4367e-006    7.4379e-006     -0.01132        -0.16638       
  -0.16           -7.0006e-006    7.0022e-006     -0.01066        -0.15668       
  -0.15           -6.5624e-006    6.5647e-006     -0.01           -0.1469        
  -0.14           -6.1251e-006    6.1267e-006     -0.00934        -0.13712       
  -0.13           -5.6865e-006    5.6879e-006     -0.00866        -0.12728       
  -0.12           -5.2514e-006    5.2534e-006     -0.00802        -0.11758       
  -0.11           -4.8141e-006    4.8163e-006     -0.00736        -0.10778       
  -0.1            -4.3765e-006    4.3777e-006     -0.0067         -0.098         
  -0.09           -3.9371e-006    3.9382e-006     -0.00604        -0.08818       
  -0.08           -3.4991e-006    3.5011e-006     -0.0054         -0.07836       
  -0.07           -3.0653e-006    3.0669e-006     -0.00472        -0.0687        
  -0.06           -2.6273e-006    2.6283e-006     -0.00408        -0.0589        
  -0.05           -2.1884e-006    2.1904e-006     -0.00342        -0.0491        
  -0.04           -1.7502e-006    1.7532e-006     -0.00274        -0.0393        
  -0.03           -1.3168e-006    1.3179e-006     -0.00214        -0.02958       
  -0.02           -8.7765e-007    8.7847e-007     -0.0015         -0.0198        
  -0.01           -4.4007e-007    4.3967e-007     -0.00078        -0.01014       
  0               -9.7461e-010    1.0074e-009     -0.00014        -0.00034       
  0.01            4.3231e-007     -4.3165e-007    0.0005          0.00954        
  0.02            8.6969e-007     -8.7026e-007    0.0012          0.01916        
  0.03            1.3105e-006     -1.3078e-006    0.00184         0.02912        
  0.04            1.7482e-006     -1.7465e-006    0.00248         0.0389         
  0.05            2.1835e-006     -2.1805e-006    0.00312         0.04864        
  0.06            2.6213e-006     -2.6186e-006    0.00384         0.05844        
  0.07            3.0589e-006     -3.0581e-006    0.00448         0.06822        
  0.08            3.4971e-006     -3.4954e-006    0.0051          0.07804        
  0.09            3.9329e-006     -3.9296e-006    0.0058          0.08774        
  0.1             4.3697e-006     -4.3682e-006    0.00642         0.0976         
  0.11            4.8078e-006     -4.8067e-006    0.00708         0.10734        
  0.12            5.2473e-006     -5.244e-006     0.00772         0.11716        
  0.13            5.6816e-006     -5.6788e-006    0.00844         0.1269         
  0.14            6.1188e-006     -6.1173e-006    0.00908         0.13666        
  0.15            6.5578e-006     -6.5557e-006    0.0097          0.14644        
  0.16            6.9965e-006     -6.9926e-006    0.01038         0.1563         
  0.17            7.4302e-006     -7.4288e-006    0.0111          0.166          
  0.18            7.8685e-006     -7.8669e-006    0.01164         0.17578        
  0.19            8.3071e-006     -8.3039e-006    0.01236         0.18556        
  0.2             8.7455e-006     -8.7425e-006    0.01302         0.19536        
  0.21            9.1816e-006     -9.1809e-006    0.01368         0.20516        
  0.22            9.6174e-006     -9.6158e-006    0.01432         0.21488        
  0.23            1.00569e-005    -1.00529e-005   0.01498         0.2247         
  0.24            1.04938e-005    -1.04911e-005   0.01562         0.2345         
  0.25            1.09308e-005    -1.09301e-005   0.01628         0.24426        
  0.26            1.1366e-005     -1.13637e-005   0.01696         0.25402        
  0.27            1.1813e-005     -1.1793e-005    0.01758         0.26378        
  0.28            1.225e-005      -1.2234e-005    0.01824         0.27362        
  0.29            1.2689e-005     -1.2672e-005    0.01892         0.28338        
  0.3             1.3124e-005     -1.3105e-005    0.01954         0.29314        
  0.31            1.3563e-005     -1.3546e-005    0.0202          0.30292        
  0.32            1.3997e-005     -1.3982e-005    0.02088         0.31274        
  0.33            1.4437e-005     -1.4418e-005    0.02154         0.32252        
  0.34            1.4872e-005     -1.4854e-005    0.02222         0.33224        
  0.35            1.5308e-005     -1.5291e-005    0.02284         0.34204        
  0.36            1.5748e-005     -1.5728e-005    0.0235          0.3518         
  0.37            1.6185e-005     -1.6167e-005    0.02414         0.36162        
  0.38            1.662e-005      -1.6602e-005    0.0248          0.3713         
  0.39            1.7057e-005     -1.7037e-005    0.02548         0.38112        
  0.4             1.7496e-005     -1.7476e-005    0.02614         0.39092        
  0.41            1.7933e-005     -1.7916e-005    0.0268          0.40068        
  0.42            1.8367e-005     -1.8348e-005    0.02742         0.41042        
  0.43            1.8805e-005     -1.8787e-005    0.02808         0.42022        
  0.44            1.9244e-005     -1.9227e-005    0.02876         0.43002        
  0.45            1.9679e-005     -1.9664e-005    0.02942         0.4398         
  0.46            2.0119e-005     -2.0101e-005    0.0301          0.4496         
  0.47            2.0556e-005     -2.0538e-005    0.03074         0.45928        
  0.48            2.0988e-005     -2.0973e-005    0.03142         0.4691         
  0.49            2.1429e-005     -2.141e-005     0.03206         0.47894        
  0.5             2.1869e-005     -2.185e-005     0.0327          0.48868        
  0.51            2.23e-005       -2.2282e-005    0.03336         0.49844        
  0.52            2.2738e-005     -2.2718e-005    0.03398         0.5082         
  0.53            2.3178e-005     -2.3158e-005    0.03466         0.518          
  0.54            2.3616e-005     -2.3597e-005    0.03534         0.52778        
  0.55            2.4047e-005     -2.403e-005     0.03598         0.53754        
  0.56            2.4487e-005     -2.4467e-005    0.03664         0.5473         
  0.57            2.4923e-005     -2.4907e-005    0.03732         0.55708        
  0.58            2.5359e-005     -2.5344e-005    0.03794         0.5669         
  0.59            2.5796e-005     -2.5776e-005    0.03858         0.57662        
  0.6             2.6234e-005     -2.6216e-005    0.03926         0.58642        
  0.61            2.667e-005      -2.6652e-005    0.03994         0.59618        
  0.62            2.7109e-005     -2.7089e-005    0.0406          0.60602        
  0.63            2.7544e-005     -2.7525e-005    0.04122         0.6157         
  0.64            2.7981e-005     -2.7966e-005    0.04188         0.62554        
  0.65            2.842e-005      -2.8399e-005    0.04252         0.63528        
  0.66            2.8858e-005     -2.8837e-005    0.04324         0.6451         
  0.67            2.9294e-005     -2.9278e-005    0.04384         0.65492        
  0.68            2.9729e-005     -2.971e-005     0.04454         0.66462        
  0.69            3.0168e-005     -3.0146e-005    0.04514         0.67438        
  0.7             3.0609e-005     -3.0588e-005    0.04584         0.68424        
  0.71            3.1042e-005     -3.1022e-005    0.04648         0.69398        
  0.72            3.1476e-005     -3.1457e-005    0.04716         0.70374        
  0.73            3.1916e-005     -3.1896e-005    0.0478          0.71352        
  0.74            3.2351e-005     -3.2334e-005    0.04848         0.72334        
  0.75            3.279e-005      -3.2769e-005    0.04912         0.73308        
  0.76            3.3227e-005     -3.3206e-005    0.04976         0.74286        
  0.77            3.3661e-005     -3.3643e-005    0.05044         0.75266        
  0.78            3.4098e-005     -3.4082e-005    0.0511          0.7624         
  0.79            3.4539e-005     -3.4517e-005    0.05174         0.77224        
  0.8             3.4973e-005     -3.4954e-005    0.05238         0.78198        
  0.81            3.5409e-005     -3.5388e-005    0.05306         0.79174        
  0.82            3.5851e-005     -3.5827e-005    0.05372         0.80156        
  0.83            3.6285e-005     -3.6269e-005    0.05436         0.81134        
  0.84            3.6721e-005     -3.6705e-005    0.055           0.82114        
  0.85            3.7157e-005     -3.7137e-005    0.0557          0.83086        
  0.86            3.7595e-005     -3.7578e-005    0.05638         0.84068        
  0.87            3.803e-005      -3.8015e-005    0.057           0.85046        
  0.88            3.8468e-005     -3.845e-005     0.05764         0.86024        
  0.89            3.8907e-005     -3.8886e-005    0.0583          0.86996        
  0.9             3.9341e-005     -3.9326e-005    0.059           0.87978        
  0.91            3.978e-005      -3.9758e-005    0.0596          0.8895         
  0.92            4.0218e-005     -4.0198e-005    0.06026         0.89934        
  0.93            4.0654e-005     -4.0635e-005    0.06094         0.9091         
  0.94            4.1087e-005     -4.107e-005     0.06158         0.9189         
  0.95            4.1527e-005     -4.1506e-005    0.06226         0.92864        
  0.96            4.1966e-005     -4.1949e-005    0.06292         0.93846        
  0.97            4.2401e-005     -4.2383e-005    0.06354         0.94826        
  0.98            4.2837e-005     -4.2815e-005    0.06422         0.95796        
  0.99            4.3274e-005     -4.3256e-005    0.0649          0.96778        
  1               4.3709e-005     -4.3694e-005    0.06552         0.97758        
END_DB

