! VERSION = 6.00
BEGIN_HEADER
 ICCAP_INPUTS
  VU1        V  E GROUND SMU4 0.1 CON        0
  VU2        V  S GROUND SMU3 0.1 CON        0
  VN         V  B GROUND SMU2 0.015 CON        0
  VP         V  C GROUND SMU1 0.015 LIN        1    -1         1          201  0.01      
 ICCAP_OUTPUTS
  IP         I  C GROUND SMU1 B
  IN         I  B GROUND SMU2 B
END_HEADER

BEGIN_DB
 ICCAP_VAR VU1        0              
 ICCAP_VAR VU2        0              
 ICCAP_VAR VN         0              

 #VP              IP              IN             
  -1              -0.00033665     0.00033204     
  -0.99           -0.00033325     0.00032871     
  -0.98           -0.00032993     0.00032541     
  -0.97           -0.00032655     0.0003221      
  -0.96           -0.00032319     0.00031879     
  -0.95           -0.00031983     0.00031546     
  -0.94           -0.00031646     0.00031216     
  -0.93           -0.00031308     0.00030881     
  -0.92           -0.00030972     0.00030552     
  -0.91           -0.00030634     0.00030219     
  -0.9            -0.00030301     0.0002989      
  -0.89           -0.00029965     0.00029557     
  -0.88           -0.00029627     0.00029226     
  -0.87           -0.00029292     0.00028896     
  -0.86           -0.00028953     0.00028564     
  -0.85           -0.00028617     0.00028231     
  -0.84           -0.00028283     0.00027902     
  -0.83           -0.00027945     0.00027569     
  -0.82           -0.00027609     0.00027235     
  -0.81           -0.00027273     0.00026907     
  -0.8            -0.00026935     0.00026572     
  -0.79           -0.00026598     0.00026239     
  -0.78           -0.00026259     0.00025907     
  -0.77           -0.00025926     0.00025577     
  -0.76           -0.00025588     0.00025245     
  -0.75           -0.00025249     0.00024911     
  -0.74           -0.00024916     0.00024583     
  -0.73           -0.00024579     0.00024251     
  -0.72           -0.00024241     0.00023916     
  -0.71           -0.00023904     0.00023586     
  -0.7            -0.00023568     0.00023256     
  -0.69           -0.0002323      0.00022921     
  -0.68           -0.00022897     0.00022592     
  -0.67           -0.00022559     0.00022259     
  -0.66           -0.00022219     0.00021926     
  -0.65           -0.00021886     0.00021596     
  -0.64           -0.00021548     0.00021264     
  -0.63           -0.00021212     0.00020933     
  -0.62           -0.00020875     0.00020599     
  -0.61           -0.00020538     0.00020268     
  -0.6            -0.00020202     0.00019936     
  -0.59           -0.00019866     0.00019606     
  -0.58           -0.00019529     0.00019272     
  -0.57           -0.00019193     0.00018942     
  -0.56           -0.00018857     0.00018611     
  -0.55           -0.00018519     0.00018279     
  -0.54           -0.00018181     0.00017945     
  -0.53           -0.00017846     0.00017615     
  -0.52           -0.00017509     0.00017283     
  -0.51           -0.00017171     0.00016949     
  -0.5            -0.00016836     0.00016621     
  -0.49           -0.00016499     0.00016286     
  -0.48           -0.00016161     0.00015955     
  -0.47           -0.00015827     0.00015623     
  -0.46           -0.00015488     0.00015293     
  -0.45           -0.00015155     0.00014963     
  -0.44           -0.00014816     0.00014629     
  -0.43           -0.0001448      0.00014295     
  -0.42           -0.00014144     0.00013963     
  -0.41           -0.00013808     0.00013634     
  -0.4            -0.00013469     0.00013302     
  -0.39           -0.00013134     0.0001297      
  -0.38           -0.00012798     0.00012638     
  -0.37           -0.0001246      0.00012306     
  -0.36           -0.00012125     0.00011975     
  -0.35           -0.00011787     0.00011643     
  -0.34           -0.00011449     0.0001131      
  -0.33           -0.00011112     0.00010981     
  -0.32           -0.00010776     0.00010645     
  -0.31           -0.00010439     0.00010314     
  -0.3            -0.00010103     9.9748e-005    
  -0.29           -9.7728e-005    9.6404e-005    
  -0.28           -9.4354e-005    9.3071e-005    
  -0.27           -9.1001e-005    8.9776e-005    
  -0.26           -8.7623e-005    8.6441e-005    
  -0.25           -8.4248e-005    8.3121e-005    
  -0.24           -8.0897e-005    7.9822e-005    
  -0.23           -7.7521e-005    7.6484e-005    
  -0.22           -7.4142e-005    7.3158e-005    
  -0.21           -7.0795e-005    6.9844e-005    
  -0.2            -6.7419e-005    6.6506e-005    
  -0.19           -6.4042e-005    6.318e-005     
  -0.18           -6.0691e-005    5.9883e-005    
  -0.17           -5.7316e-005    5.6553e-005    
  -0.16           -5.3964e-005    5.3254e-005    
  -0.15           -5.0587e-005    4.9925e-005    
  -0.14           -4.7215e-005    4.6606e-005    
  -0.13           -4.3857e-005    4.3299e-005    
  -0.12           -4.0486e-005    3.9976e-005    
  -0.11           -3.7106e-005    3.6646e-005    
  -0.1            -3.3754e-005    3.3347e-005    
  -0.09           -3.0379e-005    3.002e-005     
  -0.08           -2.7003e-005    2.6698e-005    
  -0.07           -2.365e-005     2.3392e-005    
  -0.06           -2.0272e-005    2.0065e-005    
  -0.05           -1.6894e-005    1.6732e-005    
  -0.04           -1.3545e-005    1.3434e-005    
  -0.03           -1.0166e-005    1.0108e-005    
  -0.02           -6.7963e-006    6.7743e-006    
  -0.01           -3.4415e-006    3.4668e-006    
  0               -6.4719e-008    1.0841e-007    
  0.01            3.2849e-006     -3.1621e-006   
  0.02            6.6611e-006     -6.4901e-006   
  0.03            1.00393e-005    -9.8197e-006   
  0.04            1.3398e-005     -1.3095e-005   
  0.05            1.6774e-005     -1.6434e-005   
  0.06            2.0145e-005     -1.976e-005    
  0.07            2.3528e-005     -2.3088e-005   
  0.08            2.6874e-005     -2.6388e-005   
  0.09            3.025e-005      -2.9714e-005   
  0.1             3.3628e-005     -3.3044e-005   
  0.11            3.6972e-005     -3.6342e-005   
  0.12            4.035e-005      -3.967e-005    
  0.13            4.3724e-005     -4.299e-005    
  0.14            4.7077e-005     -4.6299e-005   
  0.15            5.045e-005      -4.9625e-005   
  0.16            5.3826e-005     -5.2945e-005   
  0.17            5.7177e-005     -5.6248e-005   
  0.18            6.0552e-005     -5.9574e-005   
  0.19            6.3928e-005     -6.2901e-005   
  0.2             6.7276e-005     -6.62e-005     
  0.21            7.065e-005      -6.9522e-005   
  0.22            7.4027e-005     -7.2879e-005   
  0.23            7.7379e-005     -7.6175e-005   
  0.24            8.0749e-005     -7.9492e-005   
  0.25            8.4124e-005     -8.2823e-005   
  0.26            8.7473e-005     -8.6123e-005   
  0.27            9.0852e-005     -8.9449e-005   
  0.28            9.4226e-005     -9.2771e-005   
  0.29            9.7574e-005     -9.6073e-005   
  0.3             0.000100948     -9.9398e-005   
  0.31            0.000104323     -0.000102729   
  0.32            0.000107699     -0.000106057   
  0.33            0.000111048     -0.000109348   
  0.34            0.00011454      -0.000112701   
  0.35            0.00011792      -0.00011596    
  0.36            0.00012127      -0.00011928    
  0.37            0.00012464      -0.00012258    
  0.38            0.00012802      -0.00012592    
  0.39            0.00013136      -0.00012923    
  0.4             0.00013476      -0.00013254    
  0.41            0.00013813      -0.00013588    
  0.42            0.00014149      -0.00013919    
  0.43            0.00014485      -0.00014252    
  0.44            0.00014823      -0.00014584    
  0.45            0.00015157      -0.00014917    
  0.46            0.00015496      -0.00015247    
  0.47            0.00015834      -0.00015582    
  0.48            0.00016168      -0.00015911    
  0.49            0.00016506      -0.00016241    
  0.5             0.00016844      -0.00016576    
  0.51            0.00017179      -0.00016908    
  0.52            0.00017515      -0.00017238    
  0.53            0.00017856      -0.0001757     
  0.54            0.00018187      -0.00017903    
  0.55            0.00018527      -0.00018235    
  0.56            0.00018867      -0.00018567    
  0.57            0.00019202      -0.000189      
  0.58            0.00019536      -0.00019229    
  0.59            0.00019873      -0.00019563    
  0.6             0.00020212      -0.00019895    
  0.61            0.00020546      -0.00020227    
  0.62            0.00020884      -0.0002056     
  0.63            0.00021221      -0.00020891    
  0.64            0.00021557      -0.00021221    
  0.65            0.00021894      -0.00021554    
  0.66            0.00022231      -0.00021886    
  0.67            0.00022569      -0.00022213    
  0.68            0.00022904      -0.00022547    
  0.69            0.00023241      -0.00022882    
  0.7             0.00023578      -0.00023212    
  0.71            0.00023913      -0.00023545    
  0.72            0.00024251      -0.00023875    
  0.73            0.00024585      -0.00024205    
  0.74            0.00024923      -0.00024539    
  0.75            0.0002526       -0.0002487     
  0.76            0.00025594      -0.00025201    
  0.77            0.00025932      -0.00025534    
  0.78            0.0002627       -0.00025866    
  0.79            0.00026603      -0.00026196    
  0.8             0.0002694       -0.00026526    
  0.81            0.0002728       -0.0002686     
  0.82            0.00027613      -0.00027189    
  0.83            0.00027951      -0.00027523    
  0.84            0.00028289      -0.00027856    
  0.85            0.00028622      -0.00028183    
  0.86            0.0002896       -0.00028515    
  0.87            0.00029297      -0.00028849    
  0.88            0.00029631      -0.00029179    
  0.89            0.00029968      -0.00029511    
  0.9             0.00030305      -0.00029843    
  0.91            0.00030639      -0.0003017     
  0.92            0.00030977      -0.00030504    
  0.93            0.00031314      -0.00030838    
  0.94            0.00031647      -0.00031167    
  0.95            0.00031987      -0.00031501    
  0.96            0.00032324      -0.00031832    
  0.97            0.00032656      -0.00032161    
  0.98            0.00032992      -0.00032494    
  0.99            0.00033332      -0.00032827    
  1               0.00033664      -0.00033154    
END_DB

