! VERSION = 6.00
BEGIN_HEADER
 ICCAP_INPUTS
  VU1        V  E GROUND SMU3 0.1 CON        0
  VU2        V  S GROUND SMU4 0.1 CON        0
  VN         V  B GROUND SMU2 0.015 CON        0
  VP         V  C GROUND SMU1 0.015 LIN        1    -1         1          201  0.01      
 ICCAP_OUTPUTS
  IP         I  C GROUND SMU1 B
  IN         I  B GROUND SMU2 B
END_HEADER

BEGIN_DB
 ICCAP_VAR VU1        0              
 ICCAP_VAR VU2        0              
 ICCAP_VAR VN         0              

 #VP              IP              IN             
  -1              -0.00020053     0.00019769     
  -0.99           -0.00019853     0.00019573     
  -0.98           -0.00019654     0.00019375     
  -0.97           -0.00019456     0.00019179     
  -0.96           -0.00019255     0.00018981     
  -0.95           -0.00019052     0.00018783     
  -0.94           -0.0001885      0.00018586     
  -0.93           -0.00018651     0.00018387     
  -0.92           -0.00018451     0.00018192     
  -0.91           -0.00018249     0.00017995     
  -0.9            -0.00018051     0.00017799     
  -0.89           -0.00017851     0.00017598     
  -0.88           -0.00017649     0.000174       
  -0.87           -0.00017448     0.00017205     
  -0.86           -0.00017247     0.00017008     
  -0.85           -0.00017046     0.00016808     
  -0.84           -0.00016845     0.00016613     
  -0.83           -0.00016645     0.00016415     
  -0.82           -0.00016445     0.00016216     
  -0.81           -0.00016246     0.0001602      
  -0.8            -0.00016044     0.0001582      
  -0.79           -0.00015842     0.00015623     
  -0.78           -0.00015641     0.00015423     
  -0.77           -0.00015442     0.00015227     
  -0.76           -0.00015241     0.00015029     
  -0.75           -0.00015042     0.00014832     
  -0.74           -0.00014841     0.00014636     
  -0.73           -0.0001464      0.00014437     
  -0.72           -0.00014438     0.00014239     
  -0.71           -0.00014238     0.00014042     
  -0.7            -0.00014037     0.00013846     
  -0.69           -0.00013836     0.00013647     
  -0.68           -0.00013638     0.00013451     
  -0.67           -0.00013436     0.00013253     
  -0.66           -0.00013235     0.00013055     
  -0.65           -0.00013035     0.0001286      
  -0.64           -0.00012835     0.00012661     
  -0.63           -0.00012633     0.00012463     
  -0.62           -0.00012432     0.00012267     
  -0.61           -0.00012232     0.00012069     
  -0.6            -0.0001203      0.0001187      
  -0.59           -0.0001183      0.00011674     
  -0.58           -0.00011631     0.00011476     
  -0.57           -0.00011427     0.00011276     
  -0.56           -0.0001123      0.00011082     
  -0.55           -0.00011028     0.00010882     
  -0.54           -0.00010827     0.00010684     
  -0.53           -0.00010627     0.00010491     
  -0.52           -0.00010427     0.0001029      
  -0.51           -0.00010227     0.00010093     
  -0.5            -0.00010025     9.8863e-005    
  -0.49           -9.8334e-005    9.6874e-005    
  -0.48           -9.6323e-005    9.49e-005      
  -0.47           -9.4329e-005    9.2932e-005    
  -0.46           -9.232e-005     9.0962e-005    
  -0.45           -9.0326e-005    8.8998e-005    
  -0.44           -8.8316e-005    8.7015e-005    
  -0.43           -8.6306e-005    8.5033e-005    
  -0.42           -8.431e-005     8.3078e-005    
  -0.41           -8.2299e-005    8.1096e-005    
  -0.4            -8.0287e-005    7.9112e-005    
  -0.39           -7.8293e-005    7.7146e-005    
  -0.38           -7.6281e-005    7.5171e-005    
  -0.37           -7.4273e-005    7.3189e-005    
  -0.36           -7.2276e-005    7.1224e-005    
  -0.35           -7.0262e-005    6.9244e-005    
  -0.34           -6.8253e-005    6.7266e-005    
  -0.33           -6.6256e-005    6.5282e-005    
  -0.32           -6.4248e-005    6.3304e-005    
  -0.31           -6.2236e-005    6.1321e-005    
  -0.3            -6.0241e-005    5.9361e-005    
  -0.29           -5.823e-005     5.7383e-005    
  -0.28           -5.6214e-005    5.5398e-005    
  -0.27           -5.422e-005     5.3435e-005    
  -0.26           -5.2206e-005    5.1455e-005    
  -0.25           -5.0192e-005    4.9474e-005    
  -0.24           -4.82e-005      4.7506e-005    
  -0.23           -4.6187e-005    4.5528e-005    
  -0.22           -4.4175e-005    4.3552e-005    
  -0.21           -4.2178e-005    4.1584e-005    
  -0.2            -4.0166e-005    3.9606e-005    
  -0.19           -3.8156e-005    3.762e-005     
  -0.18           -3.6159e-005    3.566e-005     
  -0.17           -3.4147e-005    3.3676e-005    
  -0.16           -3.2149e-005    3.1709e-005    
  -0.15           -3.0139e-005    2.9731e-005    
  -0.14           -2.8125e-005    2.775e-005     
  -0.13           -2.613e-005     2.5786e-005    
  -0.12           -2.4118e-005    2.3808e-005    
  -0.11           -2.2105e-005    2.1826e-005    
  -0.1            -2.0112e-005    1.986e-005     
  -0.09           -1.8096e-005    1.7878e-005    
  -0.08           -1.6081e-005    1.5898e-005    
  -0.07           -1.4089e-005    1.3933e-005    
  -0.06           -1.2076e-005    1.1954e-005    
  -0.05           -1.0062e-005    9.9613e-006    
  -0.04           -8.0745e-006    7.9949e-006    
  -0.03           -6.0626e-006    6.0154e-006    
  -0.02           -4.0518e-006    4.0363e-006    
  -0.01           -2.0526e-006    2.0675e-006    
  0               -4.1375e-008    8.348e-008     
  0.01            1.9549e-006     -1.8765e-006   
  0.02            3.965e-006      -3.8562e-006   
  0.03            5.9779e-006     -5.8378e-006   
  0.04            7.9727e-006     -7.8009e-006   
  0.05            9.9829e-006     -9.7816e-006   
  0.06            1.2006e-005     -1.1749e-005   
  0.07            1.4015e-005     -1.3733e-005   
  0.08            1.6011e-005     -1.5698e-005   
  0.09            1.8023e-005     -1.7677e-005   
  0.1             2.0035e-005     -1.9656e-005   
  0.11            2.203e-005      -2.1621e-005   
  0.12            2.4042e-005     -2.36e-005     
  0.13            2.6053e-005     -2.558e-005    
  0.14            2.8047e-005     -2.7545e-005   
  0.15            3.006e-005      -2.9525e-005   
  0.16            3.2066e-005     -3.1501e-005   
  0.17            3.4061e-005     -3.3468e-005   
  0.18            3.6076e-005     -3.5448e-005   
  0.19            3.8084e-005     -3.7428e-005   
  0.2             4.0082e-005     -3.9391e-005   
  0.21            4.2093e-005     -4.1375e-005   
  0.22            4.4103e-005     -4.3353e-005   
  0.23            4.61e-005       -4.532e-005    
  0.24            4.811e-005      -4.7296e-005   
  0.25            5.0123e-005     -4.9277e-005   
  0.26            5.2119e-005     -5.1242e-005   
  0.27            5.4128e-005     -5.3224e-005   
  0.28            5.6137e-005     -5.52e-005     
  0.29            5.8136e-005     -5.7168e-005   
  0.3             6.0149e-005     -5.9149e-005   
  0.31            6.2158e-005     -6.1127e-005   
  0.32            6.4171e-005     -6.3108e-005   
  0.33            6.6165e-005     -6.5073e-005   
  0.34            6.818e-005      -6.7054e-005   
  0.35            7.0194e-005     -6.9032e-005   
  0.36            7.2185e-005     -7.1009e-005   
  0.37            7.4197e-005     -7.299e-005    
  0.38            7.621e-005      -7.4974e-005   
  0.39            7.8209e-005     -7.6942e-005   
  0.4             8.0217e-005     -7.8915e-005   
  0.41            8.223e-005      -8.0898e-005   
  0.42            8.4224e-005     -8.2866e-005   
  0.43            8.6243e-005     -8.4851e-005   
  0.44            8.825e-005      -8.6824e-005   
  0.45            9.0246e-005     -8.8788e-005   
  0.46            9.2253e-005     -9.077e-005    
  0.47            9.4267e-005     -9.2751e-005   
  0.48            9.6263e-005     -9.4718e-005   
  0.49            9.8273e-005     -9.6696e-005   
  0.5             0.000100288     -9.8678e-005   
  0.51            0.000102284     -0.000100647   
  0.52            0.000104292     -0.00010262    
  0.53            0.000106308     -0.000104608   
  0.54            0.000108302     -0.000106567   
  0.55            0.000110312     -0.000108551   
  0.56            0.000112323     -0.000110529   
  0.57            0.00011445      -0.000112526   
  0.58            0.00011646      -0.00011441    
  0.59            0.00011845      -0.0001164     
  0.6             0.00012047      -0.00011839    
  0.61            0.00012247      -0.00012032    
  0.62            0.00012446      -0.0001223     
  0.63            0.00012648      -0.0001243     
  0.64            0.00012847      -0.00012627    
  0.65            0.00013048      -0.00012823    
  0.66            0.00013249      -0.00013022    
  0.67            0.00013449      -0.00013219    
  0.68            0.00013649      -0.00013417    
  0.69            0.00013851      -0.00013614    
  0.7             0.0001405       -0.00013811    
  0.71            0.00014251      -0.0001401     
  0.72            0.00014452      -0.00014207    
  0.73            0.00014653      -0.00014406    
  0.74            0.00014851      -0.000146      
  0.75            0.00015052      -0.00014801    
  0.76            0.00015255      -0.00014995    
  0.77            0.00015455      -0.00015194    
  0.78            0.00015655      -0.00015393    
  0.79            0.00015855      -0.0001559     
  0.8             0.00016057      -0.00015786    
  0.81            0.00016259      -0.00015984    
  0.82            0.00016457      -0.0001618     
  0.83            0.00016656      -0.00016379    
  0.84            0.00016858      -0.00016575    
  0.85            0.00017058      -0.00016773    
  0.86            0.00017259      -0.00016971    
  0.87            0.00017461      -0.00017168    
  0.88            0.00017659      -0.00017364    
  0.89            0.00017859      -0.00017561    
  0.9             0.00018062      -0.00017761    
  0.91            0.0001826       -0.00017956    
  0.92            0.0001846       -0.00018153    
  0.93            0.00018663      -0.00018351    
  0.94            0.00018862      -0.00018549    
  0.95            0.00019062      -0.00018747    
  0.96            0.00019265      -0.00018943    
  0.97            0.00019464      -0.00019141    
  0.98            0.00019664      -0.0001934     
  0.99            0.00019863      -0.00019535    
  1               0.00020065      -0.00019731    
END_DB

