! VERSION = 6.00
BEGIN_HEADER
 ICCAP_INPUTS
  SVH        I  E GROUND SMU3 2 CON        0
  SVL        I  S GROUND SMU2 2 CON        0
  FVL        V  B GROUND SMU4 0.015 CON        0
  FVH        V  C GROUND SMU1 0.015 LIN        1    -1         1          201  0.01      
 ICCAP_OUTPUTS
  IVH        I  C GROUND SMU1 B
  IVL        I  B GROUND SMU4 B
  VVH        V  E GROUND SMU3 B
  VVL        V  S GROUND SMU2 B
END_HEADER

BEGIN_DB
 ICCAP_VAR SVH        0              
 ICCAP_VAR SVL        0              
 ICCAP_VAR FVL        0              

 #FVH             IVH             IVL             VVH             VVL            
  -1              -0.00027181     0.00027207      -0.38366        -0.364         
  -0.99           -0.00026908     0.00026917      -0.37982        -0.36018       
  -0.98           -0.00026627     0.00026647      -0.37592        -0.35656       
  -0.97           -0.00026366     0.00026383      -0.37214        -0.35298       
  -0.96           -0.00026088     0.00026109      -0.36818        -0.34934       
  -0.95           -0.00025818     0.00025842      -0.36442        -0.34564       
  -0.94           -0.00025542     0.00025564      -0.36052        -0.34206       
  -0.93           -0.00025277     0.00025291      -0.35672        -0.33838       
  -0.92           -0.00024995     0.00025016      -0.35294        -0.33472       
  -0.91           -0.0002474      0.00024753      -0.34904        -0.33116       
  -0.9            -0.00024462     0.00024477      -0.3453         -0.3276        
  -0.89           -0.00024189     0.00024206      -0.3414         -0.32404       
  -0.88           -0.00023921     0.00023939      -0.33754        -0.32028       
  -0.87           -0.00023648     0.00023666      -0.33372        -0.31666       
  -0.86           -0.00023374     0.00023394      -0.32998        -0.31296       
  -0.85           -0.00023097     0.00023119      -0.32606        -0.3093        
  -0.84           -0.00022829     0.00022844      -0.32224        -0.30572       
  -0.83           -0.00022557     0.00022586      -0.31848        -0.30208       
  -0.82           -0.00022277     0.000223        -0.31454        -0.29832       
  -0.81           -0.00022015     0.00022028      -0.31074        -0.29486       
  -0.8            -0.00021741     0.0002176       -0.30684        -0.29116       
  -0.79           -0.00021467     0.0002149       -0.30306        -0.2875        
  -0.78           -0.00021194     0.00021213      -0.29916        -0.28374       
  -0.77           -0.00020927     0.00020942      -0.29538        -0.2802        
  -0.76           -0.00020655     0.00020672      -0.29156        -0.2765        
  -0.75           -0.00020373     0.00020398      -0.28772        -0.27282       
  -0.74           -0.00020109     0.00020124      -0.28386        -0.2693        
  -0.73           -0.00019836     0.00019847      -0.28002        -0.26558       
  -0.72           -0.0001956      0.0001958       -0.27624        -0.26208       
  -0.71           -0.00019293     0.00019318      -0.27238        -0.2585        
  -0.7            -0.00019013     0.00019039      -0.26852        -0.25472       
  -0.69           -0.00018736     0.00018763      -0.26468        -0.25108       
  -0.68           -0.00018474     0.00018503      -0.26088        -0.2475        
  -0.67           -0.00018202     0.00018225      -0.257          -0.24386       
  -0.66           -0.00017933     0.00017947      -0.25328        -0.24014       
  -0.65           -0.00017662     0.00017681      -0.24942        -0.23654       
  -0.64           -0.00017382     0.0001741       -0.24546        -0.23282       
  -0.63           -0.00017114     0.00017143      -0.2416         -0.22926       
  -0.62           -0.0001685      0.00016869      -0.23796        -0.22568       
  -0.61           -0.00016578     0.00016599      -0.23404        -0.222         
  -0.6            -0.00016304     0.00016324      -0.23028        -0.21836       
  -0.59           -0.00016031     0.00016051      -0.2264         -0.21472       
  -0.58           -0.00015755     0.0001578       -0.2226         -0.21116       
  -0.57           -0.00015481     0.00015507      -0.21874        -0.2074        
  -0.56           -0.00015219     0.00015243      -0.2148         -0.2039        
  -0.55           -0.00014947     0.00014966      -0.21108        -0.20026       
  -0.54           -0.00014675     0.00014689      -0.20724        -0.19656       
  -0.53           -0.00014398     0.0001442       -0.20332        -0.1929        
  -0.52           -0.00014126     0.00014144      -0.19948        -0.18928       
  -0.51           -0.00013854     0.00013872      -0.19564        -0.18558       
  -0.5            -0.00013586     0.00013601      -0.19194        -0.18194       
  -0.49           -0.00013311     0.00013327      -0.18802        -0.17836       
  -0.48           -0.00013039     0.00013056      -0.18418        -0.1747        
  -0.47           -0.00012771     0.00012794      -0.18038        -0.17112       
  -0.46           -0.00012499     0.00012512      -0.17654        -0.16744       
  -0.45           -0.00012227     0.00012242      -0.17272        -0.16376       
  -0.44           -0.00011952     0.00011969      -0.16886        -0.16018       
  -0.43           -0.00011683     0.00011696      -0.16504        -0.15658       
  -0.42           -0.00011407     0.0001143       -0.16118        -0.15288       
  -0.41           -0.00011139     0.00011154      -0.15742        -0.14928       
  -0.4            -0.00010868     0.00010882      -0.15352        -0.14564       
  -0.39           -0.00010597     0.0001061       -0.1497         -0.14198       
  -0.38           -0.00010319     0.0001034       -0.14584        -0.13834       
  -0.37           -0.00010049     0.00010069      -0.14202        -0.13468       
  -0.36           -9.7876e-005    9.7895e-005     -0.13822        -0.13116       
  -0.35           -9.5179e-005    9.5142e-005     -0.1344         -0.12742       
  -0.34           -9.2414e-005    9.2428e-005     -0.13052        -0.12382       
  -0.33           -8.9716e-005    8.9725e-005     -0.1267         -0.12016       
  -0.32           -8.6992e-005    8.6999e-005     -0.12284        -0.11648       
  -0.31           -8.4269e-005    8.4282e-005     -0.11902        -0.1129        
  -0.3            -8.1564e-005    8.1605e-005     -0.11518        -0.10926       
  -0.29           -7.8854e-005    7.8862e-005     -0.11138        -0.10568       
  -0.28           -7.6109e-005    7.6138e-005     -0.10754        -0.10196       
  -0.27           -7.3435e-005    7.3457e-005     -0.10372        -0.0984        
  -0.26           -7.0689e-005    7.0714e-005     -0.09986        -0.09468       
  -0.25           -6.7977e-005    6.8011e-005     -0.09608        -0.09108       
  -0.24           -6.5279e-005    6.5294e-005     -0.09224        -0.08744       
  -0.23           -6.255e-005     6.2567e-005     -0.0884         -0.0838        
  -0.22           -5.9822e-005    5.9839e-005     -0.08454        -0.08012       
  -0.21           -5.7113e-005    5.713e-005      -0.08074        -0.07652       
  -0.2            -5.4406e-005    5.4415e-005     -0.07682        -0.07292       
  -0.19           -5.1676e-005    5.1697e-005     -0.07306        -0.06924       
  -0.18           -4.8985e-005    4.9002e-005     -0.0692         -0.06566       
  -0.17           -4.6241e-005    4.6254e-005     -0.0654         -0.06198       
  -0.16           -4.3549e-005    4.3552e-005     -0.06156        -0.0584        
  -0.15           -4.0828e-005    4.0825e-005     -0.0577         -0.05474       
  -0.14           -3.8088e-005    3.8121e-005     -0.05386        -0.05106       
  -0.13           -3.5389e-005    3.5401e-005     -0.05002        -0.04742       
  -0.12           -3.2674e-005    3.268e-005      -0.04622        -0.04384       
  -0.11           -2.994e-005     2.9964e-005     -0.04236        -0.04016       
  -0.1            -2.7251e-005    2.7262e-005     -0.03854        -0.03656       
  -0.09           -2.4526e-005    2.4534e-005     -0.03472        -0.0329        
  -0.08           -2.1786e-005    2.1805e-005     -0.03086        -0.02926       
  -0.07           -1.9094e-005    1.9105e-005     -0.02708        -0.02566       
  -0.06           -1.6361e-005    1.6382e-005     -0.02318        -0.02196       
  -0.05           -1.3638e-005    1.3653e-005     -0.01938        -0.01834       
  -0.04           -1.0931e-005    1.0951e-005     -0.01558        -0.01472       
  -0.03           -8.2161e-006    8.218e-006      -0.0117         -0.01112       
  -0.02           -5.4923e-006    5.4934e-006     -0.00792        -0.00744       
  -0.01           -2.7862e-006    2.7886e-006     -0.00406        -0.0038        
  0               -6.189e-008     6.1242e-008     -0.0002         -0.00014       
  0.01            2.6399e-006     -2.6365e-006    0.0036          0.00344        
  0.02            5.3632e-006     -5.3639e-006    0.00738         0.0071         
  0.03            8.0894e-006     -8.0856e-006    0.01126         0.01072        
  0.04            1.07845e-005    -1.07817e-005   0.0151          0.01434        
  0.05            1.3516e-005     -1.3504e-005    0.01894         0.01798        
  0.06            1.624e-005      -1.6222e-005    0.02276         0.02162        
  0.07            1.8971e-005     -1.8947e-005    0.02662         0.02532        
  0.08            2.1662e-005     -2.1643e-005    0.03046         0.02894        
  0.09            2.4377e-005     -2.4365e-005    0.03428         0.03256        
  0.1             2.7105e-005     -2.7089e-005    0.03814         0.0362         
  0.11            2.9817e-005     -2.9799e-005    0.04194         0.03986        
  0.12            3.2534e-005     -3.2506e-005    0.04578         0.04348        
  0.13            3.5252e-005     -3.5231e-005    0.04962         0.04712        
  0.14            3.7955e-005     -3.7948e-005    0.05342         0.05074        
  0.15            4.0676e-005     -4.0671e-005    0.05728         0.05438        
  0.16            4.3417e-005     -4.3401e-005    0.06112         0.05802        
  0.17            4.6106e-005     -4.6092e-005    0.0649          0.06166        
  0.18            4.8834e-005     -4.8817e-005    0.06876         0.06528        
  0.19            5.1564e-005     -5.1552e-005    0.07264         0.06898        
  0.2             5.4274e-005     -5.4247e-005    0.07646         0.07256        
  0.21            5.6987e-005     -5.6951e-005    0.08032         0.07622        
  0.22            5.9706e-005     -5.968e-005     0.08412         0.07984        
  0.23            6.2387e-005     -6.2352e-005    0.08792         0.08348        
  0.24            6.5127e-005     -6.5108e-005    0.09178         0.0871         
  0.25            6.786e-005      -6.7819e-005    0.0956          0.09078        
  0.26            7.0536e-005     -7.0536e-005    0.0994          0.09434        
  0.27            7.3266e-005     -7.3233e-005    0.10324         0.09802        
  0.28            7.5992e-005     -7.5977e-005    0.10708         0.10168        
  0.29            7.8683e-005     -7.8644e-005    0.11088         0.10524        
  0.3             8.1418e-005     -8.1396e-005    0.1148          0.10894        
  0.31            8.4144e-005     -8.4125e-005    0.11862         0.11262        
  0.32            8.6863e-005     -8.6848e-005    0.12248         0.1162         
  0.33            8.9558e-005     -8.9535e-005    0.1263          0.11986        
  0.34            9.2278e-005     -9.2272e-005    0.13012         0.1235         
  0.35            9.5025e-005     -9.5019e-005    0.134           0.12714        
  0.36            9.7721e-005     -9.7727e-005    0.1378          0.13076        
  0.37            0.000100434     -0.000100435    0.14164         0.13436        
  0.38            0.000103164     -0.000103138    0.1455          0.13804        
  0.39            0.000105892     -0.000105867    0.14932         0.14172        
  0.4             0.000108604     -0.000108551    0.1531          0.14534        
  0.41            0.000111331     -0.000111318    0.15698         0.149          
  0.42            0.00011413      -0.00011397     0.16084         0.1527         
  0.43            0.00011685      -0.00011668     0.16468         0.1563         
  0.44            0.00011956      -0.00011939     0.16852         0.15996        
  0.45            0.00012228      -0.00012212     0.17232         0.1635         
  0.46            0.00012502      -0.00012483     0.17614         0.1672         
  0.47            0.0001277       -0.00012754     0.18008         0.17086        
  0.48            0.00013042      -0.00013024     0.18384         0.17448        
  0.49            0.00013316      -0.00013299     0.18772         0.17814        
  0.5             0.00013587      -0.0001357      0.19156         0.1817         
  0.51            0.00013855      -0.00013836     0.19534         0.1854         
  0.52            0.00014127      -0.00014108     0.19914         0.189          
  0.53            0.00014397      -0.00014385     0.20296         0.1927         
  0.54            0.00014672      -0.00014657     0.20684         0.1963         
  0.55            0.00014945      -0.0001493      0.21068         0.19998        
  0.56            0.00015216      -0.00015196     0.21456         0.20356        
  0.57            0.0001549       -0.00015475     0.2184          0.20726        
  0.58            0.00015765      -0.00015739     0.22228         0.21086        
  0.59            0.00016029      -0.00016016     0.22612         0.21458        
  0.6             0.00016309      -0.00016287     0.22994         0.21818        
  0.61            0.00016581      -0.00016554     0.23368         0.22182        
  0.62            0.00016845      -0.0001683      0.23756         0.2254         
  0.63            0.00017118      -0.00017098     0.24144         0.2291         
  0.64            0.00017388      -0.00017371     0.24522         0.23272        
  0.65            0.00017657      -0.00017643     0.24914         0.2363         
  0.66            0.00017935      -0.0001792      0.2529          0.2401         
  0.67            0.00018208      -0.00018187     0.25678         0.2437         
  0.68            0.00018483      -0.0001845      0.26062         0.2472         
  0.69            0.00018753      -0.0001873      0.26444         0.25096        
  0.7             0.00019024      -0.00019003     0.2683          0.25462        
  0.71            0.00019299      -0.0001928      0.27224         0.25834        
  0.72            0.00019574      -0.0001956      0.2761          0.26184        
  0.73            0.00019844      -0.00019817     0.27984         0.26554        
  0.74            0.00020105      -0.00020094     0.28364         0.26918        
  0.75            0.00020388      -0.00020366     0.2875          0.2729         
  0.76            0.00020651      -0.00020642     0.29134         0.27652        
  0.77            0.00020926      -0.00020916     0.29524         0.28026        
  0.78            0.00021201      -0.0002118      0.29908         0.28376        
  0.79            0.00021465      -0.00021456     0.30288         0.28746        
  0.8             0.0002175       -0.00021731     0.30682         0.29118        
  0.81            0.00022016      -0.00022005     0.31054         0.29474        
  0.82            0.00022279      -0.00022269     0.31442         0.29828        
  0.83            0.0002256       -0.00022543     0.31828         0.30204        
  0.84            0.00022825      -0.00022819     0.32216         0.3057         
  0.85            0.00023108      -0.00023093     0.32594         0.3094         
  0.86            0.00023379      -0.00023358     0.32978         0.31298        
  0.87            0.0002365       -0.0002363      0.3337          0.31662        
  0.88            0.00023922      -0.00023899     0.3375          0.3202         
  0.89            0.00024193      -0.00024179     0.3413          0.32396        
  0.9             0.00024471      -0.00024447     0.34502         0.32766        
  0.91            0.00024735      -0.00024721     0.34896         0.33116        
  0.92            0.00025005      -0.00024984     0.35288         0.33484        
  0.93            0.00025281      -0.00025266     0.3567          0.33846        
  0.94            0.00025548      -0.0002553      0.36054         0.3422         
  0.95            0.00025824      -0.000258       0.36436         0.34582        
  0.96            0.00026091      -0.0002608      0.36826         0.3494         
  0.97            0.00026368      -0.00026349     0.37196         0.35308        
  0.98            0.00026632      -0.0002662      0.37596         0.35664        
  0.99            0.00026906      -0.00026894     0.37972         0.36038        
  1               0.00027179      -0.00027159     0.38352         0.364          
END_DB

