! VERSION = 6.00
BEGIN_HEADER
 ICCAP_INPUTS
  VU1        V  E GROUND SMU1 0.1 CON        0
  VU2        V  S GROUND SMU3 0.1 CON        0
  VN         V  B GROUND SMU2 0.015 CON        0
  VP         V  C GROUND SMU4 0.015 LIN        1    -1         1          201  0.01      
 ICCAP_OUTPUTS
  IP         I  C GROUND SMU4 B
  IN         I  B GROUND SMU2 B
END_HEADER

BEGIN_DB
 ICCAP_VAR VU1        0              
 ICCAP_VAR VU2        0              
 ICCAP_VAR VN         0              

 #VP              IP              IN             
  -1              -0.00091608     0.00090082     
  -0.99           -0.00090711     0.00089196     
  -0.98           -0.00089804     0.00088304     
  -0.97           -0.00088898     0.00087416     
  -0.96           -0.00087994     0.00086521     
  -0.95           -0.00087093     0.00085641     
  -0.94           -0.00086183     0.0008475      
  -0.93           -0.00085273     0.00083855     
  -0.92           -0.00084368     0.00082963     
  -0.91           -0.00083471     0.00082079     
  -0.9            -0.00082561     0.00081186     
  -0.89           -0.0008165      0.00080294     
  -0.88           -0.0008074      0.00079397     
  -0.87           -0.00079837     0.00078512     
  -0.86           -0.00078927     0.00077613     
  -0.85           -0.00078018     0.00076722     
  -0.84           -0.00077108     0.00075827     
  -0.83           -0.00076198     0.0007493      
  -0.82           -0.00075293     0.00074041     
  -0.81           -0.00074379     0.00073147     
  -0.8            -0.00073469     0.00072247     
  -0.79           -0.00072563     0.0007136      
  -0.78           -0.00071651     0.00070467     
  -0.77           -0.0007074      0.00069566     
  -0.76           -0.00069826     0.00068667     
  -0.75           -0.0006892      0.00067777     
  -0.74           -0.00068005     0.00066879     
  -0.73           -0.00067088     0.00065982     
  -0.72           -0.0006618      0.00065085     
  -0.71           -0.0006527      0.00064193     
  -0.7            -0.00064353     0.00063292     
  -0.69           -0.00063441     0.00062391     
  -0.68           -0.00062526     0.00061494     
  -0.67           -0.00061612     0.00060597     
  -0.66           -0.00060697     0.000597       
  -0.65           -0.00059785     0.00058799     
  -0.64           -0.00058867     0.000579       
  -0.63           -0.00057953     0.00056998     
  -0.62           -0.00057042     0.00056104     
  -0.61           -0.00056122     0.00055205     
  -0.6            -0.0005521      0.00054304     
  -0.59           -0.0005429      0.00053401     
  -0.58           -0.00053382     0.00052504     
  -0.57           -0.00052461     0.00051602     
  -0.56           -0.00051543     0.00050701     
  -0.55           -0.00050624     0.00049798     
  -0.54           -0.00049715     0.00048904     
  -0.53           -0.00048794     0.00048001     
  -0.52           -0.00047879     0.00047095     
  -0.51           -0.00046957     0.00046192     
  -0.5            -0.00046045     0.00045297     
  -0.49           -0.00045123     0.00044393     
  -0.48           -0.00044206     0.00043486     
  -0.47           -0.00043285     0.00042584     
  -0.46           -0.00042365     0.0004168      
  -0.45           -0.00041451     0.00040782     
  -0.44           -0.00040532     0.00039879     
  -0.43           -0.00039612     0.00038972     
  -0.42           -0.00038691     0.00038065     
  -0.41           -0.00037776     0.00037167     
  -0.4            -0.00036856     0.00036262     
  -0.39           -0.00035932     0.00035358     
  -0.38           -0.00035014     0.00034454     
  -0.37           -0.00034099     0.00033556     
  -0.36           -0.00033177     0.00032649     
  -0.35           -0.00032256     0.00031739     
  -0.34           -0.00031333     0.00030838     
  -0.33           -0.00030416     0.00029937     
  -0.32           -0.00029495     0.00029031     
  -0.31           -0.00028572     0.00028123     
  -0.3            -0.00027651     0.00027215     
  -0.29           -0.00026734     0.00026317     
  -0.28           -0.0002581      0.00025409     
  -0.27           -0.00024887     0.00024503     
  -0.26           -0.00023966     0.00023596     
  -0.25           -0.00023042     0.00022687     
  -0.24           -0.00022128     0.00021785     
  -0.23           -0.00021202     0.00020879     
  -0.22           -0.00020281     0.00019972     
  -0.21           -0.00019358     0.00019066     
  -0.2            -0.0001844      0.00018162     
  -0.19           -0.00017517     0.00017256     
  -0.18           -0.00016591     0.00016346     
  -0.17           -0.00015669     0.0001544      
  -0.16           -0.00014753     0.00014539     
  -0.15           -0.00013829     0.00013631     
  -0.14           -0.00012904     0.00012721     
  -0.13           -0.00011983     0.00011813     
  -0.12           -0.00011063     0.00010909     
  -0.11           -0.00010139     0.00010002     
  -0.1            -9.2237e-005    9.0838e-005    
  -0.09           -8.2991e-005    8.1771e-005    
  -0.08           -7.375e-005     7.269e-005     
  -0.07           -6.4583e-005    6.3862e-005    
  -0.06           -5.5338e-005    5.4573e-005    
  -0.05           -4.6096e-005    4.5433e-005    
  -0.04           -3.6846e-005    3.634e-005     
  -0.03           -2.7678e-005    2.7335e-005    
  -0.02           -1.843e-005     1.8267e-005    
  -0.01           -9.1995e-006    9.2224e-006    
  0               -5.2186e-007    9.7678e-008    
  0.01            9.2863e-006     -8.9182e-006   
  0.02            1.8546e-005     -1.7925e-005   
  0.03            2.7713e-005     -2.7039e-005   
  0.04            3.6958e-005     -3.6135e-005   
  0.05            4.6199e-005     -4.5205e-005   
  0.06            5.5447e-005     -5.4282e-005   
  0.07            6.4629e-005     -6.3318e-005   
  0.08            7.3859e-005     -7.2387e-005   
  0.09            8.31e-005       -8.1476e-005   
  0.1             9.2336e-005     -9.0555e-005   
  0.11            0.00010168      -9.9627e-005   
  0.12            0.00011087      -0.00010858    
  0.13            0.00012011      -0.00011766    
  0.14            0.00012934      -0.00012674    
  0.15            0.0001386       -0.00013582    
  0.16            0.00014774      -0.00014484    
  0.17            0.00015698      -0.00015393    
  0.18            0.00016622      -0.00016298    
  0.19            0.00017546      -0.00017207    
  0.2             0.00018464      -0.00018109    
  0.21            0.00019385      -0.00019016    
  0.22            0.00020312      -0.00019924    
  0.23            0.00021235      -0.00020832    
  0.24            0.00022156      -0.0002174     
  0.25            0.00023073      -0.00022639    
  0.26            0.00023996      -0.00023547    
  0.27            0.0002492       -0.00024452    
  0.28            0.00025841      -0.0002536     
  0.29            0.00026757      -0.00026263    
  0.3             0.00027682      -0.00027169    
  0.31            0.00028605      -0.00028074    
  0.32            0.00029525      -0.00028982    
  0.33            0.00030448      -0.00029889    
  0.34            0.00031363      -0.00030788    
  0.35            0.00032287      -0.00031697    
  0.36            0.00033207      -0.00032602    
  0.37            0.0003413       -0.00033507    
  0.38            0.00035046      -0.00034407    
  0.39            0.00035966      -0.0003531     
  0.4             0.00036886      -0.0003622     
  0.41            0.00037808      -0.00037121    
  0.42            0.00038723      -0.0003802     
  0.43            0.00039642      -0.00038926    
  0.44            0.00040566      -0.00039833    
  0.45            0.00041485      -0.00040741    
  0.46            0.00042406      -0.00041642    
  0.47            0.00043317      -0.00042536    
  0.48            0.00044237      -0.00043442    
  0.49            0.00045158      -0.00044347    
  0.5             0.00046077      -0.00045249    
  0.51            0.0004699       -0.00046148    
  0.52            0.00047909      -0.00047053    
  0.53            0.00048829      -0.00047956    
  0.54            0.00049747      -0.0004886     
  0.55            0.00050662      -0.00049754    
  0.56            0.00051577      -0.00050657    
  0.57            0.00052496      -0.00051561    
  0.58            0.00053414      -0.00052462    
  0.59            0.00054331      -0.00053367    
  0.6             0.00055242      -0.00054259    
  0.61            0.00056159      -0.00055161    
  0.62            0.00057077      -0.00056062    
  0.63            0.00057994      -0.00056965    
  0.64            0.00058904      -0.00057859    
  0.65            0.00059821      -0.00058756    
  0.66            0.00060734      -0.00059657    
  0.67            0.00061652      -0.00060561    
  0.68            0.00062558      -0.0006145     
  0.69            0.00063474      -0.00062354    
  0.7             0.00064391      -0.0006325     
  0.71            0.00065305      -0.00064148    
  0.72            0.00066221      -0.00065048    
  0.73            0.00067126      -0.00065939    
  0.74            0.00068041      -0.00066838    
  0.75            0.00068953      -0.00067737    
  0.76            0.00069871      -0.00068636    
  0.77            0.00070774      -0.00069525    
  0.78            0.00071688      -0.00070421    
  0.79            0.00072598      -0.00071322    
  0.8             0.00073511      -0.00072217    
  0.81            0.00074423      -0.00073109    
  0.82            0.00075327      -0.00073998    
  0.83            0.00076243      -0.00074899    
  0.84            0.00077149      -0.00075794    
  0.85            0.0007806       -0.00076689    
  0.86            0.00078965      -0.00077578    
  0.87            0.00079874      -0.00078468    
  0.88            0.00080783      -0.00079363    
  0.89            0.00081694      -0.00080257    
  0.9             0.00082593      -0.00081143    
  0.91            0.000835        -0.00082037    
  0.92            0.00084412      -0.00082932    
  0.93            0.00085321      -0.00083823    
  0.94            0.00086222      -0.0008471     
  0.95            0.0008713       -0.00085598    
  0.96            0.00088035      -0.00086492    
  0.97            0.00088942      -0.00087383    
  0.98            0.0008984       -0.00088267    
  0.99            0.00090749      -0.00089157    
  1               0.00091654      -0.00090047    
END_DB

