! VERSION = 6.00
BEGIN_HEADER
 ICCAP_INPUTS
  VU1        V  E GROUND SMU3 0.1 CON        0
  VU2        V  S GROUND SMU4 0.1 CON        0
  VN         V  B GROUND SMU1 0.015 CON        0
  VP         V  C GROUND SMU2 0.015 LIN        1    -1         1          201  0.01      
 ICCAP_OUTPUTS
  IP         I  C GROUND SMU2 B
  IN         I  B GROUND SMU1 B
END_HEADER

BEGIN_DB
 ICCAP_VAR VU1        0              
 ICCAP_VAR VU2        0              
 ICCAP_VAR VN         0              

 #VP              IP              IN             
  -1              -0.0015527      0.0012562      
  -0.99           -0.0015377      0.001243       
  -0.98           -0.0015225      0.0012313      
  -0.97           -0.0015064      0.0012195      
  -0.96           -0.0014914      0.001207       
  -0.95           -0.0014758      0.0011941      
  -0.94           -0.0014607      0.0011824      
  -0.93           -0.0014449      0.0011695      
  -0.92           -0.0014294      0.0011568      
  -0.91           -0.0014143      0.001144       
  -0.9            -0.001398       0.001132       
  -0.89           -0.0013823      0.0011185      
  -0.88           -0.0013673      0.0011061      
  -0.87           -0.0013521      0.0010931      
  -0.86           -0.0013358      0.0010811      
  -0.85           -0.0013204      0.0010687      
  -0.84           -0.0013048      0.0010556      
  -0.83           -0.0012893      0.0010431      
  -0.82           -0.0012736      0.0010305      
  -0.81           -0.001258       0.0010181      
  -0.8            -0.0012427      0.0010055      
  -0.79           -0.0012272      0.0009915      
  -0.78           -0.0012117      0.00097901     
  -0.77           -0.0011955      0.0009668      
  -0.76           -0.0011804      0.00095429     
  -0.75           -0.0011648      0.00094197     
  -0.74           -0.0011488      0.00092773     
  -0.73           -0.0011336      0.00091566     
  -0.72           -0.0011176      0.00090424     
  -0.71           -0.0011029      0.00089166     
  -0.7            -0.0010869      0.00087856     
  -0.69           -0.0010714      0.00086672     
  -0.68           -0.0010559      0.00085316     
  -0.67           -0.0010405      0.00084153     
  -0.66           -0.0010247      0.00082922     
  -0.65           -0.0010096      0.00081613     
  -0.64           -0.00099482     0.00080359     
  -0.63           -0.00097926     0.00079132     
  -0.62           -0.00096386     0.00077868     
  -0.61           -0.00094823     0.00076633     
  -0.6            -0.00093266     0.00075399     
  -0.59           -0.00091698     0.00074066     
  -0.58           -0.00090163     0.00072858     
  -0.57           -0.00088609     0.00071595     
  -0.56           -0.00087045     0.0007036      
  -0.55           -0.00085496     0.00069039     
  -0.54           -0.00083924     0.00067842     
  -0.53           -0.00082354     0.00066504     
  -0.52           -0.00080807     0.00065258     
  -0.51           -0.00079257     0.00064015     
  -0.5            -0.00077718     0.0006282      
  -0.49           -0.0007614      0.00061494     
  -0.48           -0.00074581     0.00060213     
  -0.47           -0.00073032     0.00058973     
  -0.46           -0.00071465     0.00057701     
  -0.45           -0.00069929     0.0005648      
  -0.44           -0.00068369     0.00055223     
  -0.43           -0.00066821     0.00053937     
  -0.42           -0.00065278     0.0005274      
  -0.41           -0.00063733     0.00051503     
  -0.4            -0.00062165     0.00050225     
  -0.39           -0.000606       0.00048938     
  -0.38           -0.00059029     0.00047679     
  -0.37           -0.0005749      0.00046441     
  -0.36           -0.00055957     0.0004521      
  -0.35           -0.00054376     0.00043945     
  -0.34           -0.0005282      0.00042665     
  -0.33           -0.00051285     0.00041401     
  -0.32           -0.00049731     0.00040163     
  -0.31           -0.00048151     0.00038895     
  -0.3            -0.000466       0.00037615     
  -0.29           -0.00045054     0.00036382     
  -0.28           -0.00043505     0.0003513      
  -0.27           -0.00041945     0.00033874     
  -0.26           -0.0004039      0.00032601     
  -0.25           -0.00038843     0.00031365     
  -0.24           -0.00037278     0.00030107     
  -0.23           -0.00035739     0.00028848     
  -0.22           -0.00034183     0.00027616     
  -0.21           -0.00032625     0.00026349     
  -0.2            -0.00031074     0.00025101     
  -0.19           -0.00029521     0.00023843     
  -0.18           -0.00027964     0.00022589     
  -0.17           -0.000264       0.00021312     
  -0.16           -0.00024853     0.00020069     
  -0.15           -0.00023291     0.00018805     
  -0.14           -0.00021735     0.00017554     
  -0.13           -0.00020174     0.00016278     
  -0.12           -0.00018628     0.00015038     
  -0.11           -0.00017073     0.00013776     
  -0.1            -0.00015518     0.00012522     
  -0.09           -0.0001396      0.00011264     
  -0.08           -0.00012402     0.00010005     
  -0.07           -0.00010852     8.738e-005     
  -0.06           -9.3025e-005    7.4806e-005    
  -0.05           -7.7461e-005    6.2231e-005    
  -0.04           -6.1913e-005    4.9694e-005    
  -0.03           -4.6444e-005    3.7174e-005    
  -0.02           -3.089e-005     2.4622e-005    
  -0.01           -1.5321e-005    1.2045e-005    
  0               -6.3737e-007    -2.0465e-007   
  0.01            1.57e-005       -1.299e-005    
  0.02            3.1285e-005     -2.5562e-005   
  0.03            4.6819e-005     -3.8127e-005   
  0.04            6.2386e-005     -5.0691e-005   
  0.05            7.783e-005      -6.3112e-005   
  0.06            9.3394e-005     -7.5699e-005   
  0.07            0.00010913      -8.8278e-005   
  0.08            0.00012471      -0.00010095    
  0.09            0.00014017      -0.0001134     
  0.1             0.00015575      -0.00012601    
  0.11            0.00017136      -0.0001386     
  0.12            0.00018694      -0.00015128    
  0.13            0.00020244      -0.00016377    
  0.14            0.00021791      -0.00017623    
  0.15            0.00023351      -0.00018889    
  0.16            0.00024912      -0.00020137    
  0.17            0.00026458      -0.00021395    
  0.18            0.00028007      -0.00022641    
  0.19            0.00029568      -0.00023897    
  0.2             0.0003113       -0.00025166    
  0.21            0.00032688      -0.0002642     
  0.22            0.00034226      -0.00027657    
  0.23            0.00035788      -0.00028931    
  0.24            0.00037343      -0.00030174    
  0.25            0.00038904      -0.00031432    
  0.26            0.00040445      -0.00032699    
  0.27            0.00042007      -0.00033941    
  0.28            0.00043558      -0.00035181    
  0.29            0.0004513       -0.0003648     
  0.3             0.00046673      -0.00037732    
  0.31            0.00048243      -0.00038975    
  0.32            0.00049808      -0.00040269    
  0.33            0.00051344      -0.00041495    
  0.34            0.00052906      -0.00042751    
  0.35            0.00054448      -0.00044011    
  0.36            0.00055996      -0.00045257    
  0.37            0.00057553      -0.00046522    
  0.38            0.00059128      -0.00047791    
  0.39            0.00060698      -0.00049099    
  0.4             0.00062254      -0.00050339    
  0.41            0.00063819      -0.00051626    
  0.42            0.00065363      -0.00052911    
  0.43            0.00066914      -0.00054119    
  0.44            0.0006844       -0.00055372    
  0.45            0.00070012      -0.0005663     
  0.46            0.00071582      -0.00057886    
  0.47            0.00073139      -0.0005911     
  0.48            0.00074677      -0.00060404    
  0.49            0.00076254      -0.00061678    
  0.5             0.00077784      -0.00062883    
  0.51            0.00079306      -0.00064092    
  0.52            0.0008086       -0.00065379    
  0.53            0.00082446      -0.00066707    
  0.54            0.0008401       -0.00067958    
  0.55            0.00085555      -0.00069187    
  0.56            0.00087097      -0.0007046     
  0.57            0.0008863       -0.00071713    
  0.58            0.00090229      -0.00072904    
  0.59            0.00091775      -0.00074256    
  0.6             0.00093312      -0.00075476    
  0.61            0.00094885      -0.00076741    
  0.62            0.00096493      -0.00078019    
  0.63            0.00098028      -0.00079348    
  0.64            0.00099594      -0.00080576    
  0.65            0.00101148      -0.00081842    
  0.66            0.00102725      -0.00083129    
  0.67            0.00104255      -0.000844      
  0.68            0.00105825      -0.00085642    
  0.69            0.0010736       -0.00086811    
  0.7             0.00108962      -0.00088157    
  0.71            0.00110495      -0.00089435    
  0.72            0.00112088      -0.00090751    
  0.73            0.00113672      -0.00092054    
  0.74            0.0011532       -0.00093282    
  0.75            0.0011686       -0.00094593    
  0.76            0.0011852       -0.00096022    
  0.77            0.0012002       -0.00097199    
  0.78            0.001216        -0.00098379    
  0.79            0.0012315       -0.00099721    
  0.8             0.0012471       -0.0010094     
  0.81            0.001263        -0.00102234    
  0.82            0.0012788       -0.00103595    
  0.83            0.0012947       -0.00105002    
  0.84            0.0013096       -0.00106137    
  0.85            0.0013252       -0.00107329    
  0.86            0.0013405       -0.00108619    
  0.87            0.0013563       -0.00109902    
  0.88            0.0013714       -0.00111065    
  0.89            0.0013876       -0.001123      
  0.9             0.0014028       -0.00113658    
  0.91            0.001418        -0.0011484     
  0.92            0.0014339       -0.00116       
  0.93            0.0014494       -0.0011737     
  0.94            0.0014656       -0.0011867     
  0.95            0.0014818       -0.0011999     
  0.96            0.0014974       -0.0012146     
  0.97            0.0015133       -0.0012261     
  0.98            0.0015296       -0.0012418     
  0.99            0.0015455       -0.0012543     
  1               0.0015611       -0.0012677     
END_DB

