! VERSION = 6.00
BEGIN_HEADER
 ICCAP_INPUTS
  SVH        I  E GROUND SMU1 2 CON        0
  SVL        I  S GROUND SMU4 2 CON        0
  FVL        V  B GROUND SMU3 0.015 CON        0
  FVH        V  C GROUND SMU2 0.015 LIN        1    -1         1          201  0.01      
 ICCAP_OUTPUTS
  IVH        I  C GROUND SMU2 B
  IVL        I  B GROUND SMU3 B
  VVH        V  E GROUND SMU1 B
  VVL        V  S GROUND SMU4 B
END_HEADER

BEGIN_DB
 ICCAP_VAR SVH        0              
 ICCAP_VAR SVL        0              
 ICCAP_VAR FVL        0              

 #FVH             IVH             IVL             VVH             VVL            
  -1              -3.7474e-005    3.7492e-005     -0.0701         -0.51508       
  -0.99           -3.7097e-005    3.7114e-005     -0.06954        -0.50988       
  -0.98           -3.6725e-005    3.6741e-005     -0.06992        -0.50478       
  -0.97           -3.6347e-005    3.6363e-005     -0.06612        -0.49958       
  -0.96           -3.5972e-005    3.599e-005      -0.0669         -0.49446       
  -0.95           -3.5594e-005    3.5616e-005     -0.0689         -0.48932       
  -0.94           -3.5224e-005    3.5237e-005     -0.0651         -0.48414       
  -0.93           -3.4845e-005    3.4863e-005     -0.06324        -0.47896       
  -0.92           -3.447e-005     3.4491e-005     -0.06652        -0.47386       
  -0.91           -3.4099e-005    3.4113e-005     -0.0634         -0.46874       
  -0.9            -3.3725e-005    3.3737e-005     -0.0605         -0.46352       
  -0.89           -3.3345e-005    3.3365e-005     -0.0624         -0.45838       
  -0.88           -3.2974e-005    3.2992e-005     -0.06268        -0.45328       
  -0.87           -3.2601e-005    3.2613e-005     -0.0575         -0.44812       
  -0.86           -3.2222e-005    3.2239e-005     -0.06016        -0.44294       
  -0.85           -3.1847e-005    3.1865e-005     -0.06152        -0.4378        
  -0.84           -3.1474e-005    3.1488e-005     -0.05774        -0.43266       
  -0.83           -3.1099e-005    3.1115e-005     -0.05726        -0.42754       
  -0.82           -3.0721e-005    3.0742e-005     -0.06018        -0.4224        
  -0.81           -3.0347e-005    3.0365e-005     -0.05598        -0.41724       
  -0.8            -2.9974e-005    2.999e-005      -0.05412        -0.41206       
  -0.79           -2.9597e-005    2.9616e-005     -0.05718        -0.40688       
  -0.78           -2.9222e-005    2.9239e-005     -0.05444        -0.40176       
  -0.77           -2.8847e-005    2.8861e-005     -0.05102        -0.3966        
  -0.76           -2.8473e-005    2.849e-005      -0.05352        -0.39144       
  -0.75           -2.8096e-005    2.8117e-005     -0.05396        -0.3863        
  -0.74           -2.7722e-005    2.7738e-005     -0.04928        -0.38116       
  -0.73           -2.7346e-005    2.7363e-005     -0.05096        -0.376         
  -0.72           -2.6969e-005    2.699e-005      -0.05268        -0.37084       
  -0.71           -2.6597e-005    2.6613e-005     -0.0491         -0.36572       
  -0.7            -2.6224e-005    2.6238e-005     -0.04734        -0.36062       
  -0.69           -2.5846e-005    2.5864e-005     -0.0506         -0.35544       
  -0.68           -2.547e-005     2.549e-005      -0.04744        -0.35026       
  -0.67           -2.51e-005      2.5113e-005     -0.04452        -0.3451        
  -0.66           -2.4722e-005    2.4741e-005     -0.04646        -0.33998       
  -0.65           -2.4346e-005    2.4365e-005     -0.04678        -0.33486       
  -0.64           -2.3974e-005    2.3987e-005     -0.0419         -0.32964       
  -0.63           -2.3599e-005    2.3615e-005     -0.0441         -0.32454       
  -0.62           -2.3222e-005    2.3243e-005     -0.04562        -0.31936       
  -0.61           -2.2848e-005    2.2863e-005     -0.04214        -0.31426       
  -0.6            -2.2471e-005    2.2487e-005     -0.04064        -0.3091        
  -0.59           -2.2098e-005    2.2116e-005     -0.04444        -0.30394       
  -0.58           -2.1723e-005    2.1741e-005     -0.04032        -0.2988        
  -0.57           -2.1349e-005    2.1364e-005     -0.03742        -0.29366       
  -0.56           -2.0971e-005    2.0989e-005     -0.04           -0.28846       
  -0.55           -2.0596e-005    2.0614e-005     -0.03914        -0.2833        
  -0.54           -2.0225e-005    2.024e-005      -0.03452        -0.27822       
  -0.53           -1.9849e-005    1.9867e-005     -0.03762        -0.27308       
  -0.52           -1.9472e-005    1.9491e-005     -0.03854        -0.26788       
  -0.51           -1.9099e-005    1.9115e-005     -0.03472        -0.26276       
  -0.5            -1.8725e-005    1.8742e-005     -0.03478        -0.25762       
  -0.49           -1.835e-005     1.8364e-005     -0.03746        -0.25246       
  -0.48           -1.7975e-005    1.7991e-005     -0.03308        -0.2473        
  -0.47           -1.7597e-005    1.7613e-005     -0.03126        -0.24214       
  -0.46           -1.7225e-005    1.7245e-005     -0.03414        -0.23704       
  -0.45           -1.6848e-005    1.6867e-005     -0.0316         -0.23188       
  -0.44           -1.6472e-005    1.649e-005      -0.02802        -0.22674       
  -0.43           -1.6097e-005    1.6114e-005     -0.03068        -0.22154       
  -0.42           -1.5724e-005    1.5744e-005     -0.03108        -0.2164        
  -0.41           -1.535e-005     1.5364e-005     -0.0266         -0.21124       
  -0.4            -1.4975e-005    1.4992e-005     -0.0281         -0.2061        
  -0.39           -1.4599e-005    1.4616e-005     -0.02992        -0.20094       
  -0.38           -1.4224e-005    1.424e-005      -0.02628        -0.1958        
  -0.37           -1.385e-005     1.3869e-005     -0.02442        -0.19068       
  -0.36           -1.3474e-005    1.3495e-005     -0.02756        -0.18552       
  -0.35           -1.31e-005      1.3118e-005     -0.02458        -0.18036       
  -0.34           -1.2724e-005    1.2741e-005     -0.02146        -0.1752        
  -0.33           -1.2351e-005    1.2369e-005     -0.0237         -0.1701        
  -0.32           -1.1974e-005    1.1994e-005     -0.02412        -0.16492       
  -0.31           -1.16e-005      1.1616e-005     -0.01942        -0.15974       
  -0.3            -1.1226e-005    1.1241e-005     -0.02118        -0.15462       
  -0.29           -1.0853e-005    1.0872e-005     -0.02288        -0.1495        
  -0.28           -1.0478e-005    1.0493e-005     -0.01936        -0.14438       
  -0.27           -1.01e-005      1.0119e-005     -0.01746        -0.1392        
  -0.26           -9.7332e-006    9.7342e-006     -0.0159         -0.13404       
  -0.25           -9.3614e-006    9.3615e-006     -0.01454        -0.12894       
  -0.24           -8.9858e-006    8.9872e-006     -0.01704        -0.12376       
  -0.23           -8.6094e-006    8.6125e-006     -0.01904        -0.11862       
  -0.22           -8.2345e-006    8.2365e-006     -0.0151         -0.11342       
  -0.21           -7.8604e-006    7.8606e-006     -0.01244        -0.10832       
  -0.2            -7.4867e-006    7.4894e-006     -0.01472        -0.1032        
  -0.19           -7.111e-006     7.1128e-006     -0.0152         -0.09802       
  -0.18           -6.7364e-006    6.7372e-006     -0.011          -0.09288       
  -0.17           -6.3612e-006    6.3617e-006     -0.01156        -0.08772       
  -0.16           -5.987e-006     5.9911e-006     -0.01462        -0.08258       
  -0.15           -5.6133e-006    5.6149e-006     -0.0107         -0.07744       
  -0.14           -5.2375e-006    5.2391e-006     -0.00734        -0.07228       
  -0.13           -4.8624e-006    4.8642e-006     -0.00996        -0.06712       
  -0.12           -4.4887e-006    4.4922e-006     -0.01116        -0.06202       
  -0.11           -4.1148e-006    4.1157e-006     -0.0076         -0.05688       
  -0.1            -3.7406e-006    3.742e-006      -0.00568        -0.05172       
  -0.09           -3.364e-006     3.3662e-006     -0.00866        -0.0466        
  -0.08           -2.9878e-006    2.9904e-006     -0.00646        -0.04142       
  -0.07           -2.6168e-006    2.6173e-006     -0.00192        -0.03628       
  -0.06           -2.241e-006     2.2431e-006     -0.00452        -0.03116       
  -0.05           -1.8655e-006    1.8679e-006     -0.00654        -0.026         
  -0.04           -1.49e-006      1.4919e-006     -0.00258        -0.02086       
  -0.03           -1.1184e-006    1.119e-006      -2e-005         -0.01574       
  -0.02           -7.461e-007     7.4544e-007     -0.0016         -0.01054       
  -0.01           -3.6868e-007    3.7579e-007     -0.00424        -0.0054        
  0               3.9766e-009     -2.8559e-009    -0.00084        -0.00044       
  0.01            3.8031e-007     -3.7989e-007    -0.00012        0.00482        
  0.02            7.5579e-007     -7.4923e-007    0.00044         0.00996        
  0.03            1.13295e-006    -1.12637e-006   -0.0005         0.01508        
  0.04            1.5075e-006     -1.5041e-006    0.00202         0.0203         
  0.05            1.8795e-006     -1.8776e-006    0.00426         0.02542        
  0.06            2.2539e-006     -2.2526e-006    0.00456         0.0306         
  0.07            2.6304e-006     -2.6272e-006    0.00144         0.03574        
  0.08            3.0059e-006     -3.0037e-006    0.00522         0.0409         
  0.09            3.3776e-006     -3.3757e-006    0.0086          0.04604        
  0.1             3.7528e-006     -3.7504e-006    0.006           0.05118        
  0.11            4.1291e-006     -4.127e-006     0.00512         0.0563         
  0.12            4.5039e-006     -4.5025e-006    0.00838         0.06144        
  0.13            4.8755e-006     -4.8737e-006    0.01016         0.06658        
  0.14            5.2517e-006     -5.2495e-006    0.0068          0.07174        
  0.15            5.6276e-006     -5.6254e-006    0.00998         0.07688        
  0.16            6.0027e-006     -6.0011e-006    0.014           0.08206        
  0.17            6.3747e-006     -6.372e-006     0.01116         0.08716        
  0.18            6.7505e-006     -6.7487e-006    0.00964         0.09236        
  0.19            7.1258e-006     -7.1242e-006    0.01322         0.09746        
  0.2             7.5001e-006     -7.498e-006     0.01524         0.1026         
  0.21            7.8753e-006     -7.8734e-006    0.01308         0.10778        
  0.22            8.2497e-006     -8.2469e-006    0.01368         0.11286        
  0.23            8.6241e-006     -8.6224e-006    0.01862         0.11804        
  0.24            8.9977e-006     -8.9959e-006    0.0162          0.12316        
  0.25            9.3736e-006     -9.372e-006     0.0139          0.12834        
  0.26            9.7468e-006     -9.7448e-006    0.01816         0.13344        
  0.27            1.01211e-005    -1.01195e-005   0.02088         0.13862        
  0.28            1.04963e-005    -1.04944e-005   0.01868         0.14378        
  0.29            1.08724e-005    -1.08712e-005   0.01806         0.14892        
  0.3             1.12448e-005    -1.12431e-005   0.02174         0.15404        
  0.31            1.1627e-005     -1.1612e-005    0.02114         0.15918        
  0.32            1.2003e-005     -1.1987e-005    0.02176         0.16432        
  0.33            1.2377e-005     -1.2358e-005    0.0254          0.1695         
  0.34            1.2748e-005     -1.2732e-005    0.02264         0.1746         
  0.35            1.3127e-005     -1.3108e-005    0.02226         0.17974        
  0.36            1.3502e-005     -1.3484e-005    0.02688         0.1849         
  0.37            1.3873e-005     -1.3858e-005    0.02524         0.19006        
  0.38            1.4247e-005     -1.4231e-005    0.02346         0.19516        
  0.39            1.4623e-005     -1.4605e-005    0.02704         0.2003         
  0.4             1.4997e-005     -1.498e-005     0.02894         0.20546        
  0.41            1.5371e-005     -1.5354e-005    0.02542         0.21064        
  0.42            1.5743e-005     -1.5727e-005    0.02876         0.21572        
  0.43            1.6118e-005     -1.6102e-005    0.0318          0.22084        
  0.44            1.6493e-005     -1.6477e-005    0.02962         0.226          
  0.45            1.6869e-005     -1.6853e-005    0.02924         0.23116        
  0.46            1.7245e-005     -1.7227e-005    0.0347          0.23632        
  0.47            1.7615e-005     -1.7599e-005    0.032           0.24144        
  0.48            1.7992e-005     -1.7976e-005    0.03032         0.24656        
  0.49            1.8368e-005     -1.835e-005     0.0341          0.25172        
  0.5             1.874e-005      -1.8723e-005    0.03486         0.2569         
  0.51            1.9115e-005     -1.9098e-005    0.03148         0.262          
  0.52            1.9489e-005     -1.9473e-005    0.03618         0.26714        
  0.53            1.9865e-005     -1.9847e-005    0.03818         0.2723         
  0.54            2.0238e-005     -2.0222e-005    0.03506         0.27742        
  0.55            2.0612e-005     -2.0597e-005    0.03764         0.28252        
  0.56            2.0987e-005     -2.0967e-005    0.04124         0.28772        
  0.57            2.1358e-005     -2.1342e-005    0.03856         0.29284        
  0.58            2.1736e-005     -2.172e-005     0.03804         0.29798        
  0.59            2.211e-005      -2.2089e-005    0.04304         0.30308        
  0.6             2.2482e-005     -2.2463e-005    0.0411          0.30824        
  0.61            2.2856e-005     -2.2842e-005    0.03944         0.31342        
  0.62            2.3234e-005     -2.3214e-005    0.04288         0.31858        
  0.63            2.3606e-005     -2.3585e-005    0.04482         0.32368        
  0.64            2.398e-005      -2.3963e-005    0.0413          0.32884        
  0.65            2.4356e-005     -2.434e-005     0.04464         0.33398        
  0.66            2.4731e-005     -2.4713e-005    0.04778         0.33908        
  0.67            2.5105e-005     -2.5085e-005    0.04546         0.34426        
  0.68            2.5479e-005     -2.5462e-005    0.04522         0.34938        
  0.69            2.5853e-005     -2.5837e-005    0.0508          0.35454        
  0.7             2.6227e-005     -2.621e-005     0.04758         0.3597         
  0.71            2.6601e-005     -2.6586e-005    0.04672         0.36484        
  0.72            2.6975e-005     -2.6956e-005    0.05106         0.36994        
  0.73            2.7348e-005     -2.733e-005     0.05022         0.3751         
  0.74            2.7724e-005     -2.7706e-005    0.04786         0.38026        
  0.75            2.8103e-005     -2.8082e-005    0.05196         0.38536        
  0.76            2.8471e-005     -2.8451e-005    0.0539          0.3905         
  0.77            2.8846e-005     -2.883e-005     0.05038         0.39564        
  0.78            2.9222e-005     -2.9204e-005    0.05364         0.40076        
  0.79            2.9596e-005     -2.9576e-005    0.05666         0.40596        
  0.8             2.9968e-005     -2.9952e-005    0.05448         0.4111         
  0.81            3.0344e-005     -3.0327e-005    0.05448         0.41622        
  0.82            3.0723e-005     -3.0699e-005    0.05974         0.42138        
  0.83            3.1092e-005     -3.1075e-005    0.05684         0.42652        
  0.84            3.1469e-005     -3.1452e-005    0.0553          0.43164        
  0.85            3.1842e-005     -3.1823e-005    0.05878         0.4368         
  0.86            3.2213e-005     -3.2196e-005    0.05998         0.44192        
  0.87            3.2587e-005     -3.2573e-005    0.05654         0.44706        
  0.88            3.2968e-005     -3.295e-005     0.061           0.4522         
  0.89            3.3337e-005     -3.3319e-005    0.06316         0.45732        
  0.9             3.371e-005      -3.3693e-005    0.06064         0.46248        
  0.91            3.409e-005      -3.4069e-005    0.06236         0.46764        
  0.92            3.4463e-005     -3.4441e-005    0.0662          0.47278        
  0.93            3.4832e-005     -3.4814e-005    0.06348         0.4779         
  0.94            3.521e-005      -3.5191e-005    0.06306         0.48302        
  0.95            3.5586e-005     -3.5565e-005    0.0677          0.48816        
  0.96            3.5955e-005     -3.5941e-005    0.06604         0.49332        
  0.97            3.6333e-005     -3.6315e-005    0.06434         0.4985         
  0.98            3.6704e-005     -3.6689e-005    0.0678          0.50356        
  0.99            3.7078e-005     -3.706e-005     0.06948         0.50872        
  1               3.7451e-005     -3.7437e-005    0.06558         0.51386        
END_DB

