! VERSION = 6.00
BEGIN_HEADER
 ICCAP_INPUTS
  VU1        V  E GROUND SMU1 0.1 CON        0
  VU2        V  S GROUND SMU3 0.1 CON        0
  VN         V  B GROUND SMU4 0.015 CON        0
  VP         V  C GROUND SMU2 0.015 LIN        1    -1         1          201  0.01      
 ICCAP_OUTPUTS
  IP         I  C GROUND SMU2 B
  IN         I  B GROUND SMU4 B
END_HEADER

BEGIN_DB
 ICCAP_VAR VU1        0              
 ICCAP_VAR VU2        0              
 ICCAP_VAR VN         0              

 #VP              IP              IN             
  -1              -0.0013942      0.0013234      
  -0.99           -0.0013805      0.0013103      
  -0.98           -0.0013668      0.0012973      
  -0.97           -0.0013531      0.0012843      
  -0.96           -0.0013394      0.0012714      
  -0.95           -0.0013255      0.0012583      
  -0.94           -0.0013118      0.0012454      
  -0.93           -0.0012979      0.0012322      
  -0.92           -0.0012844      0.0012189      
  -0.91           -0.0012704      0.0012061      
  -0.9            -0.0012566      0.0011932      
  -0.89           -0.0012429      0.0011799      
  -0.88           -0.0012293      0.0011671      
  -0.87           -0.0012156      0.001154       
  -0.86           -0.0012015      0.0011408      
  -0.85           -0.0011878      0.0011277      
  -0.84           -0.0011738      0.0011144      
  -0.83           -0.0011603      0.0011017      
  -0.82           -0.0011464      0.0010887      
  -0.81           -0.0011326      0.0010752      
  -0.8            -0.0011186      0.001062       
  -0.79           -0.0011047      0.0010491      
  -0.78           -0.001091       0.001036       
  -0.77           -0.001077       0.0010228      
  -0.76           -0.0010632      0.0010097      
  -0.75           -0.0010493      0.00099568     
  -0.74           -0.0010353      0.00098253     
  -0.73           -0.0010215      0.00096928     
  -0.72           -0.0010076      0.00095614     
  -0.71           -0.00099477     0.00094318     
  -0.7            -0.00098078     0.00092984     
  -0.69           -0.0009669      0.00091666     
  -0.68           -0.00095294     0.00090357     
  -0.67           -0.00093912     0.00089041     
  -0.66           -0.00092523     0.00087726     
  -0.65           -0.00091128     0.00086404     
  -0.64           -0.00089733     0.00085079     
  -0.63           -0.00088349     0.00083769     
  -0.62           -0.0008695      0.00082444     
  -0.61           -0.00085557     0.00081125     
  -0.6            -0.0008416      0.00079802     
  -0.59           -0.00082773     0.00078482     
  -0.58           -0.00081376     0.00077159     
  -0.57           -0.00079974     0.00075828     
  -0.56           -0.00078582     0.00074506     
  -0.55           -0.00077177     0.00073175     
  -0.54           -0.00075789     0.0007186      
  -0.53           -0.00074393     0.00070538     
  -0.52           -0.00072991     0.0006921      
  -0.51           -0.00071592     0.00067891     
  -0.5            -0.00070207     0.00066569     
  -0.49           -0.00068801     0.00065243     
  -0.48           -0.00067403     0.00063914     
  -0.47           -0.00065997     0.0006259      
  -0.46           -0.0006461      0.0006127      
  -0.45           -0.00063208     0.00059944     
  -0.44           -0.00061805     0.00058616     
  -0.43           -0.00060405     0.0005729      
  -0.42           -0.00059007     0.00055967     
  -0.41           -0.00057605     0.00054637     
  -0.4            -0.00056203     0.00053308     
  -0.39           -0.00054796     0.00051969     
  -0.38           -0.00053394     0.00050651     
  -0.37           -0.00052002     0.00049326     
  -0.36           -0.00050596     0.00048        
  -0.35           -0.00049189     0.00046664     
  -0.34           -0.00047784     0.00045332     
  -0.33           -0.0004639      0.00044009     
  -0.32           -0.00044985     0.0004268      
  -0.31           -0.00043578     0.00041346     
  -0.3            -0.00042175     0.00040012     
  -0.29           -0.00040772     0.00038685     
  -0.28           -0.00039368     0.00037359     
  -0.27           -0.0003796      0.00036023     
  -0.26           -0.00036556     0.00034693     
  -0.25           -0.00035161     0.00033372     
  -0.24           -0.00033751     0.00032035     
  -0.23           -0.00032347     0.00030705     
  -0.22           -0.00030939     0.00029371     
  -0.21           -0.00029529     0.00028035     
  -0.2            -0.00028133     0.00026715     
  -0.19           -0.00026722     0.00025378     
  -0.18           -0.00025316     0.00024042     
  -0.17           -0.00023909     0.00022709     
  -0.16           -0.0002251      0.00021385     
  -0.15           -0.00021103     0.00020051     
  -0.14           -0.00019695     0.00018717     
  -0.13           -0.00018286     0.0001738      
  -0.12           -0.00016887     0.00016056     
  -0.11           -0.00015478     0.00014721     
  -0.1            -0.00014069     0.00013385     
  -0.09           -0.00012659     0.00012049     
  -0.08           -0.0001125      0.00010713     
  -0.07           -9.8586e-005    9.378e-005     
  -0.06           -8.4513e-005    8.0465e-005    
  -0.05           -7.0422e-005    6.7105e-005    
  -0.04           -5.6327e-005    5.3769e-005    
  -0.03           -4.2329e-005    4.0504e-005    
  -0.02           -2.8236e-005    2.7133e-005    
  -0.01           -1.4135e-005    1.387e-005     
  0               -3.4856e-008    2.1304e-007    
  0.01            1.395e-005      -1.2841e-005   
  0.02            2.8049e-005     -2.619e-005    
  0.03            4.2147e-005     -3.955e-005    
  0.04            5.6241e-005     -5.2907e-005   
  0.05            7.0225e-005     -6.6146e-005   
  0.06            8.4332e-005     -7.9512e-005   
  0.07            9.8407e-005     -9.287e-005    
  0.08            0.000112504     -0.000106223   
  0.09            0.00012661      -0.00011942    
  0.1             0.00014071      -0.00013277    
  0.11            0.0001548       -0.00014612    
  0.12            0.00016889      -0.00015947    
  0.13            0.00018286      -0.00017271    
  0.14            0.00019698      -0.0001861     
  0.15            0.00021107      -0.00019944    
  0.16            0.00022517      -0.0002128     
  0.17            0.00023914      -0.00022602    
  0.18            0.00025322      -0.00023935    
  0.19            0.00026728      -0.00025271    
  0.2             0.00028139      -0.00026602    
  0.21            0.00029547      -0.00027941    
  0.22            0.00030947      -0.00029265    
  0.23            0.00032355      -0.000306      
  0.24            0.00033761      -0.00031934    
  0.25            0.00035169      -0.00033267    
  0.26            0.00036567      -0.00034593    
  0.27            0.00037975      -0.00035924    
  0.28            0.00039381      -0.0003726     
  0.29            0.00040788      -0.00038592    
  0.3             0.00042186      -0.00039913    
  0.31            0.00043593      -0.00041251    
  0.32            0.00044998      -0.00042581    
  0.33            0.00046405      -0.00043915    
  0.34            0.00047801      -0.00045243    
  0.35            0.00049208      -0.00046575    
  0.36            0.00050613      -0.00047905    
  0.37            0.00052014      -0.00049234    
  0.38            0.00053413      -0.00050552    
  0.39            0.00054811      -0.00051884    
  0.4             0.00056214      -0.00053212    
  0.41            0.00057617      -0.00054542    
  0.42            0.00059012      -0.00055863    
  0.43            0.00060413      -0.00057191    
  0.44            0.00061817      -0.00058516    
  0.45            0.00063217      -0.00059847    
  0.46            0.00064624      -0.00061173    
  0.47            0.00066012      -0.00062489    
  0.48            0.00067414      -0.00063816    
  0.49            0.00068812      -0.0006515     
  0.5             0.0007021       -0.00066474    
  0.51            0.00071604      -0.00067795    
  0.52            0.00073004      -0.00069122    
  0.53            0.00074407      -0.00070448    
  0.54            0.00075805      -0.00071778    
  0.55            0.0007719       -0.00073088    
  0.56            0.00078593      -0.00074418    
  0.57            0.00079989      -0.00075739    
  0.58            0.00081388      -0.00077061    
  0.59            0.00082773      -0.00078375    
  0.6             0.00084165      -0.00079693    
  0.61            0.00085563      -0.0008102     
  0.62            0.00086957      -0.00082344    
  0.63            0.00088344      -0.00083655    
  0.64            0.0008974       -0.0008498     
  0.65            0.00091132      -0.00086296    
  0.66            0.00092532      -0.00087619    
  0.67            0.0009392       -0.00088943    
  0.68            0.00095307      -0.00090261    
  0.69            0.00096703      -0.00091582    
  0.7             0.00098093      -0.00092902    
  0.71            0.00099484      -0.0009422     
  0.72            0.00100862      -0.0009552     
  0.73            0.00102256      -0.00096836    
  0.74            0.00103647      -0.00098162    
  0.75            0.00105031      -0.00099475    
  0.76            0.00106416      -0.00100777    
  0.77            0.00107805      -0.00102104    
  0.78            0.00109194      -0.00103416    
  0.79            0.00110583      -0.00104741    
  0.8             0.00111959      -0.00106043    
  0.81            0.00113345      -0.00107344    
  0.82            0.0011482       -0.00108667    
  0.83            0.0011621       -0.0010998     
  0.84            0.0011759       -0.00111305    
  0.85            0.0011897       -0.00112605    
  0.86            0.0012037       -0.00113895    
  0.87            0.0012174       -0.0011513     
  0.88            0.0012312       -0.0011642     
  0.89            0.0012448       -0.0011774     
  0.9             0.0012586       -0.0011906     
  0.91            0.0012723       -0.0012036     
  0.92            0.0012863       -0.0012166     
  0.93            0.0013          -0.0012296     
  0.94            0.0013138       -0.0012429     
  0.95            0.0013273       -0.0012557     
  0.96            0.0013413       -0.0012688     
  0.97            0.0013548       -0.0012818     
  0.98            0.0013686       -0.0012946     
  0.99            0.0013824       -0.0013078     
  1               0.0013961       -0.0013207     
END_DB

