! VERSION = 6.00
BEGIN_HEADER
 ICCAP_INPUTS
  VU1        V  E GROUND SMU3 0.1 CON        0
  VU2        V  S GROUND SMU4 0.1 CON        0
  VN         V  B GROUND SMU1 0.015 CON        0
  VP         V  C GROUND SMU2 0.015 LIN        1    -1         1          201  0.01      
 ICCAP_OUTPUTS
  IP         I  C GROUND SMU2 B
  IN         I  B GROUND SMU1 B
END_HEADER

BEGIN_DB
 ICCAP_VAR VU1        0              
 ICCAP_VAR VU2        0              
 ICCAP_VAR VN         0              

 #VP              IP              IN             
  -1              -0.0002155      0.00020467     
  -0.99           -0.00021332     0.00020261     
  -0.98           -0.00021119     0.0002006      
  -0.97           -0.000209       0.00019855     
  -0.96           -0.0002069      0.00019651     
  -0.95           -0.00020471     0.00019446     
  -0.94           -0.00020255     0.00019241     
  -0.93           -0.00020039     0.00019036     
  -0.92           -0.00019827     0.00018831     
  -0.91           -0.00019611     0.00018627     
  -0.9            -0.00019395     0.00018423     
  -0.89           -0.00019181     0.00018221     
  -0.88           -0.00018967     0.00018018     
  -0.87           -0.00018749     0.00017811     
  -0.86           -0.00018533     0.00017604     
  -0.85           -0.00018318     0.00017403     
  -0.84           -0.00018101     0.00017196     
  -0.83           -0.00017886     0.00016992     
  -0.82           -0.00017672     0.00016786     
  -0.81           -0.00017454     0.00016582     
  -0.8            -0.0001724      0.0001638      
  -0.79           -0.00017024     0.00016173     
  -0.78           -0.00016807     0.00015966     
  -0.77           -0.00016591     0.00015762     
  -0.76           -0.00016378     0.00015558     
  -0.75           -0.00016163     0.00015352     
  -0.74           -0.00015945     0.00015147     
  -0.73           -0.00015729     0.00014943     
  -0.72           -0.00015513     0.00014738     
  -0.71           -0.00015299     0.00014535     
  -0.7            -0.00015084     0.0001433      
  -0.69           -0.00014868     0.00014127     
  -0.68           -0.00014654     0.00013921     
  -0.67           -0.00014439     0.00013719     
  -0.66           -0.00014223     0.00013513     
  -0.65           -0.00014008     0.00013307     
  -0.64           -0.00013791     0.00013102     
  -0.63           -0.00013576     0.00012901     
  -0.62           -0.0001336      0.00012696     
  -0.61           -0.00013143     0.0001249      
  -0.6            -0.00012927     0.00012284     
  -0.59           -0.00012712     0.00012082     
  -0.58           -0.00012496     0.00011876     
  -0.57           -0.00012282     0.00011672     
  -0.56           -0.00012067     0.00011467     
  -0.55           -0.00011849     0.00011261     
  -0.54           -0.00011635     0.00011058     
  -0.53           -0.00011419     0.00010852     
  -0.52           -0.00011203     0.00010648     
  -0.51           -0.00010987     0.00010443     
  -0.5            -0.0001077      0.00010241     
  -0.49           -0.00010556     0.00010034     
  -0.48           -0.00010338     9.8175e-005    
  -0.47           -0.00010125     9.6125e-005    
  -0.46           -9.9163e-005    9.4096e-005    
  -0.45           -9.7004e-005    9.2041e-005    
  -0.44           -9.4845e-005    8.9985e-005    
  -0.43           -9.2681e-005    8.7941e-005    
  -0.42           -9.0536e-005    8.5903e-005    
  -0.41           -8.8377e-005    8.385e-005     
  -0.4            -8.6213e-005    8.1805e-005    
  -0.39           -8.4059e-005    7.975e-005     
  -0.38           -8.1897e-005    7.7708e-005    
  -0.37           -7.9754e-005    7.5674e-005    
  -0.36           -7.7599e-005    7.363e-005     
  -0.35           -7.5435e-005    7.157e-005     
  -0.34           -7.3273e-005    6.9518e-005    
  -0.33           -7.1126e-005    6.7482e-005    
  -0.32           -6.8967e-005    6.5436e-005    
  -0.31           -6.6802e-005    6.3382e-005    
  -0.3            -6.4645e-005    6.1331e-005    
  -0.29           -6.2504e-005    5.9304e-005    
  -0.28           -6.034e-005     5.724e-005     
  -0.27           -5.8183e-005    5.5197e-005    
  -0.26           -5.6022e-005    5.3143e-005    
  -0.25           -5.3877e-005    5.1108e-005    
  -0.24           -5.1718e-005    4.906e-005     
  -0.23           -4.9556e-005    4.7008e-005    
  -0.22           -4.7396e-005    4.4954e-005    
  -0.21           -4.5238e-005    4.2907e-005    
  -0.2            -4.309e-005     4.0871e-005    
  -0.19           -4.0932e-005    3.882e-005     
  -0.18           -3.8771e-005    3.6773e-005    
  -0.17           -3.6614e-005    3.4718e-005    
  -0.16           -3.4467e-005    3.2684e-005    
  -0.15           -3.2307e-005    3.0634e-005    
  -0.14           -3.0147e-005    2.8582e-005    
  -0.13           -2.7982e-005    2.6527e-005    
  -0.12           -2.5844e-005    2.45e-005      
  -0.11           -2.3681e-005    2.2444e-005    
  -0.1            -2.1522e-005    2.0394e-005    
  -0.09           -1.936e-005     1.8343e-005    
  -0.08           -1.72e-005      1.6292e-005    
  -0.07           -1.5058e-005    1.4261e-005    
  -0.06           -1.2899e-005    1.2211e-005    
  -0.05           -1.0737e-005    1.016e-005     
  -0.04           -8.5852e-006    8.0976e-006    
  -0.03           -6.442e-006     6.0634e-006    
  -0.02           -4.2825e-006    4.0138e-006    
  -0.01           -2.1207e-006    1.9634e-006    
  0               3.8407e-008     -8.8116e-008   
  0.01            2.1853e-006     -2.1303e-006   
  0.02            4.3472e-006     -4.1762e-006   
  0.03            6.5073e-006     -6.2297e-006   
  0.04            8.6683e-006     -8.2799e-006   
  0.05            1.08096e-005    -1.03131e-005  
  0.06            1.2982e-005     -1.2358e-005   
  0.07            1.5142e-005     -1.4408e-005   
  0.08            1.7303e-005     -1.6455e-005   
  0.09            1.9447e-005     -1.8495e-005   
  0.1             2.1607e-005     -2.0546e-005   
  0.11            2.3767e-005     -2.2599e-005   
  0.12            2.5928e-005     -2.4647e-005   
  0.13            2.8074e-005     -2.6681e-005   
  0.14            3.0235e-005     -2.8733e-005   
  0.15            3.2394e-005     -3.0782e-005   
  0.16            3.4553e-005     -3.2828e-005   
  0.17            3.6697e-005     -3.4865e-005   
  0.18            3.8859e-005     -3.6919e-005   
  0.19            4.102e-005      -3.8971e-005   
  0.2             4.318e-005      -4.1016e-005   
  0.21            4.5342e-005     -4.3072e-005   
  0.22            4.7487e-005     -4.511e-005    
  0.23            4.9647e-005     -4.7156e-005   
  0.24            5.1803e-005     -4.9204e-005   
  0.25            5.3967e-005     -5.1254e-005   
  0.26            5.6113e-005     -5.3297e-005   
  0.27            5.8273e-005     -5.5351e-005   
  0.28            6.0429e-005     -5.7395e-005   
  0.29            6.2592e-005     -5.9446e-005   
  0.3             6.474e-005      -6.1481e-005   
  0.31            6.6898e-005     -6.353e-005    
  0.32            6.9055e-005     -6.558e-005    
  0.33            7.1214e-005     -6.7626e-005   
  0.34            7.3357e-005     -6.9658e-005   
  0.35            7.5519e-005     -7.1704e-005   
  0.36            7.7676e-005     -7.3755e-005   
  0.37            7.9836e-005     -7.5807e-005   
  0.38            8.1979e-005     -7.7841e-005   
  0.39            8.4139e-005     -7.9895e-005   
  0.4             8.6297e-005     -8.1939e-005   
  0.41            8.846e-005      -8.3993e-005   
  0.42            9.0599e-005     -8.6028e-005   
  0.43            9.2752e-005     -8.8071e-005   
  0.44            9.4913e-005     -9.0108e-005   
  0.45            9.7077e-005     -9.2165e-005   
  0.46            9.9239e-005     -9.4213e-005   
  0.47            0.00010147      -9.625e-005    
  0.48            0.0001036       -9.8296e-005   
  0.49            0.00010579      -0.000100344   
  0.5             0.00010794      -0.000102397   
  0.51            0.00011007      -0.000104431   
  0.52            0.00011225      -0.000106483   
  0.53            0.00011441      -0.000108517   
  0.54            0.00011655      -0.000110576   
  0.55            0.00011869      -0.000112603   
  0.56            0.00012088      -0.0001146     
  0.57            0.00012303      -0.00011664    
  0.58            0.00012518      -0.00011869    
  0.59            0.00012733      -0.0001207     
  0.6             0.00012951      -0.00012277    
  0.61            0.00013165      -0.00012481    
  0.62            0.0001338       -0.00012686    
  0.63            0.00013594      -0.0001289     
  0.64            0.00013808      -0.00013093    
  0.65            0.00014025      -0.000133      
  0.66            0.00014242      -0.00013505    
  0.67            0.00014457      -0.00013707    
  0.68            0.00014671      -0.00013912    
  0.69            0.00014888      -0.00014119    
  0.7             0.00015102      -0.00014324    
  0.71            0.0001532       -0.00014526    
  0.72            0.00015536      -0.00014735    
  0.73            0.00015752      -0.00014933    
  0.74            0.00015968      -0.00015143    
  0.75            0.00016183      -0.00015347    
  0.76            0.00016396      -0.00015547    
  0.77            0.00016612      -0.00015754    
  0.78            0.00016827      -0.00015959    
  0.79            0.00017044      -0.00016164    
  0.8             0.00017259      -0.00016367    
  0.81            0.00017475      -0.00016572    
  0.82            0.00017689      -0.00016775    
  0.83            0.00017907      -0.00016983    
  0.84            0.00018122      -0.00017185    
  0.85            0.00018338      -0.00017388    
  0.86            0.00018552      -0.00017595    
  0.87            0.00018767      -0.00017798    
  0.88            0.00018981      -0.00018005    
  0.89            0.00019195      -0.00018206    
  0.9             0.00019413      -0.00018414    
  0.91            0.00019632      -0.00018619    
  0.92            0.00019848      -0.00018827    
  0.93            0.00020058      -0.00019031    
  0.94            0.00020272      -0.00019226    
  0.95            0.00020487      -0.00019433    
  0.96            0.00020705      -0.00019642    
  0.97            0.00020924      -0.00019846    
  0.98            0.00021137      -0.0002005     
  0.99            0.00021351      -0.00020255    
  1               0.00021567      -0.00020456    
END_DB

