! VERSION = 6.00
BEGIN_HEADER
 ICCAP_INPUTS
  SVH        I  E GROUND SMU2 2 CON        0
  SVL        I  S GROUND SMU3 2 CON        0
  FVL        V  B GROUND SMU1 0.015 CON        0
  FVH        V  C GROUND SMU4 0.015 LIN        1    -1         1          201  0.01      
  SUB        V  D GROUND VSU1 0.015 CON        0
 ICCAP_OUTPUTS
  IVH        I  C GROUND SMU4 B
  IVL        I  B GROUND SMU1 B
  VVH        V  E GROUND SMU2 B
  VVL        V  S GROUND SMU3 B
END_HEADER

BEGIN_DB
 ICCAP_VAR SVH        0              
 ICCAP_VAR SVL        0              
 ICCAP_VAR FVL        0              
 ICCAP_VAR SUB        0              

 #FVH             IVH             IVL             VVH             VVL            
  -1              -6.2129e-005    6.2144e-005     -0.4997         0.0002         
  -0.99           -6.151e-005     6.1527e-005     -0.4946         0.00022        
  -0.98           -6.0887e-005    6.0908e-005     -0.48968        0.00024        
  -0.97           -6.0265e-005    6.028e-005      -0.4846         0.00024        
  -0.96           -5.9643e-005    5.9657e-005     -0.4796         0.00018        
  -0.95           -5.9023e-005    5.9043e-005     -0.4747         0.0002         
  -0.94           -5.8399e-005    5.8418e-005     -0.4697         0.0002         
  -0.93           -5.7782e-005    5.7793e-005     -0.46462        0.00024        
  -0.92           -5.7158e-005    5.7176e-005     -0.45966        0.00024        
  -0.91           -5.6535e-005    5.6554e-005     -0.4547         0.00026        
  -0.9            -5.5918e-005    5.593e-005      -0.44958        0.0002         
  -0.89           -5.5297e-005    5.5311e-005     -0.44466        0.00022        
  -0.88           -5.4669e-005    5.469e-005      -0.43972        0.00024        
  -0.87           -5.405e-005     5.4063e-005     -0.43462        0.00028        
  -0.86           -5.3432e-005    5.3448e-005     -0.4297         0.00024        
  -0.85           -5.2807e-005    5.2829e-005     -0.42472        0.00026        
  -0.84           -5.2185e-005    5.22e-005       -0.41966        0.00028        
  -0.83           -5.1565e-005    5.1577e-005     -0.41468        0.00018        
  -0.82           -5.0944e-005    5.0967e-005     -0.40972        0.00022        
  -0.81           -5.032e-005     5.0337e-005     -0.40472        0.00022        
  -0.8            -4.97e-005      4.9715e-005     -0.39968        0.00022        
  -0.79           -4.9085e-005    4.9101e-005     -0.39472        0.00026        
  -0.78           -4.8455e-005    4.8475e-005     -0.38978        0.00024        
  -0.77           -4.7834e-005    4.785e-005      -0.3847         0.00022        
  -0.76           -4.7215e-005    4.7232e-005     -0.37976        0.0002         
  -0.75           -4.6589e-005    4.6609e-005     -0.3748         0.00024        
  -0.74           -4.5973e-005    4.5989e-005     -0.3698         0.00024        
  -0.73           -4.535e-005     4.5366e-005     -0.36474        0.00022        
  -0.72           -4.4725e-005    4.4745e-005     -0.35984        0.00028        
  -0.71           -4.4102e-005    4.4116e-005     -0.35478        0.00026        
  -0.7            -4.3489e-005    4.3504e-005     -0.34976        0.00024        
  -0.69           -4.2866e-005    4.2882e-005     -0.34482        0.00022        
  -0.68           -4.224e-005     4.2256e-005     -0.3398         0.00024        
  -0.67           -4.1621e-005    4.1634e-005     -0.33474        0.00024        
  -0.66           -4.1001e-005    4.1021e-005     -0.32986        0.00022        
  -0.65           -4.0374e-005    4.0393e-005     -0.32488        0.00024        
  -0.64           -3.9757e-005    3.9768e-005     -0.3198         0.00026        
  -0.63           -3.9135e-005    3.9152e-005     -0.31486        0.00024        
  -0.62           -3.8513e-005    3.8532e-005     -0.30986        0.00028        
  -0.61           -3.7893e-005    3.7906e-005     -0.30482        0.00024        
  -0.6            -3.7274e-005    3.7286e-005     -0.29986        0.00018        
  -0.59           -3.6647e-005    3.6665e-005     -0.29488        0.00022        
  -0.58           -3.6029e-005    3.6045e-005     -0.28986        0.0003         
  -0.57           -3.5411e-005    3.5425e-005     -0.28484        0.0002         
  -0.56           -3.4783e-005    3.4802e-005     -0.27992        0.00024        
  -0.55           -3.416e-005     3.4178e-005     -0.27488        0.00026        
  -0.54           -3.3545e-005    3.356e-005      -0.26992        0.00022        
  -0.53           -3.2924e-005    3.2941e-005     -0.26494        0.00018        
  -0.52           -3.2297e-005    3.2318e-005     -0.25996        0.00022        
  -0.51           -3.1678e-005    3.1689e-005     -0.25488        0.00024        
  -0.5            -3.1056e-005    3.1068e-005     -0.24988        0.00024        
  -0.49           -3.0434e-005    3.0453e-005     -0.24496        0.00022        
  -0.48           -2.9813e-005    2.9829e-005     -0.23994        0.00028        
  -0.47           -2.9195e-005    2.921e-005      -0.23494        0.00022        
  -0.46           -2.857e-005     2.8586e-005     -0.22996        0.00024        
  -0.45           -2.795e-005     2.7963e-005     -0.22496        0.00026        
  -0.44           -2.733e-005     2.7344e-005     -0.21992        0.00024        
  -0.43           -2.6705e-005    2.6723e-005     -0.215          0.0002         
  -0.42           -2.6081e-005    2.6097e-005     -0.20998        0.00026        
  -0.41           -2.5467e-005    2.5479e-005     -0.20494        0.00022        
  -0.4            -2.4844e-005    2.4861e-005     -0.19998        0.0002         
  -0.39           -2.4218e-005    2.4234e-005     -0.19498        0.00028        
  -0.38           -2.3595e-005    2.3613e-005     -0.18992        0.00026        
  -0.37           -2.2981e-005    2.2995e-005     -0.185          0.00024        
  -0.36           -2.2358e-005    2.2374e-005     -0.18002        0.00026        
  -0.35           -2.1734e-005    2.1747e-005     -0.17496        0.00024        
  -0.34           -2.1113e-005    2.1127e-005     -0.17           0.0002         
  -0.33           -2.0493e-005    2.0511e-005     -0.16506        0.00022        
  -0.32           -1.9871e-005    1.9886e-005     -0.15998        0.00024        
  -0.31           -1.9249e-005    1.9263e-005     -0.15502        0.00026        
  -0.3            -1.8628e-005    1.8645e-005     -0.15002        0.00022        
  -0.29           -1.8001e-005    1.8019e-005     -0.14504        0.00024        
  -0.28           -1.7384e-005    1.7399e-005     -0.14002        0.00028        
  -0.27           -1.6764e-005    1.6777e-005     -0.13506        0.00026        
  -0.26           -1.6138e-005    1.6158e-005     -0.13004        0.0002         
  -0.25           -1.5516e-005    1.553e-005      -0.12506        0.00024        
  -0.24           -1.4902e-005    1.4912e-005     -0.12008        0.0002         
  -0.23           -1.4275e-005    1.4294e-005     -0.11512        0.00024        
  -0.22           -1.3653e-005    1.3666e-005     -0.11006        0.00024        
  -0.21           -1.3034e-005    1.3045e-005     -0.10504        0.00024        
  -0.2            -1.2413e-005    1.2432e-005     -0.10012        0.00018        
  -0.19           -1.179e-005     1.1804e-005     -0.09512        0.00024        
  -0.18           -1.1168e-005    1.1183e-005     -0.09004        0.00024        
  -0.17           -1.0547e-005    1.0564e-005     -0.08506        0.0002         
  -0.16           -9.9326e-006    9.9361e-006     -0.08014        0.00024        
  -0.15           -9.3137e-006    9.3133e-006     -0.07508        0.00024        
  -0.14           -8.6882e-006    8.6929e-006     -0.0701         0.00026        
  -0.13           -8.0635e-006    8.0672e-006     -0.06512        0.00024        
  -0.12           -7.448e-006     7.447e-006      -0.06012        0.00026        
  -0.11           -6.8281e-006    6.8276e-006     -0.05512        0.00024        
  -0.1            -6.2014e-006    6.2061e-006     -0.0502         0.00024        
  -0.09           -5.5789e-006    5.5781e-006     -0.04512        0.0002         
  -0.08           -4.9597e-006    4.9581e-006     -0.04006        0.00024        
  -0.07           -4.3401e-006    4.3432e-006     -0.03516        0.00024        
  -0.06           -3.7138e-006    3.718e-006      -0.03018        0.00028        
  -0.05           -3.0944e-006    3.0936e-006     -0.02512        0.00026        
  -0.04           -2.4724e-006    2.4737e-006     -0.02012        0.00022        
  -0.03           -1.8517e-006    1.8567e-006     -0.0152         0.00026        
  -0.02           -1.2279e-006    1.2298e-006     -0.01018        0.00026        
  -0.01           -6.0509e-007    6.0882e-007     -0.00524        0.0002         
  0               1.137e-008      -1.0859e-008    -0.00022        0.00022        
  0.01            6.3297e-007     -6.3224e-007    0.00486         0.00022        
  0.02            1.255e-006      -1.249e-006     0.00976         0.00024        
  0.03            1.8755e-006     -1.8754e-006    0.01478         0.00028        
  0.04            2.4955e-006     -2.496e-006     0.01978         0.00024        
  0.05            3.1203e-006     -3.1159e-006    0.02476         0.00024        
  0.06            3.7401e-006     -3.7369e-006    0.02972         0.0003         
  0.07            4.3599e-006     -4.3616e-006    0.0348          0.00026        
  0.08            4.9802e-006     -4.981e-006     0.03976         0.00022        
  0.09            5.6059e-006     -5.602e-006     0.04474         0.00028        
  0.1             6.2298e-006     -6.2303e-006    0.0498          0.00024        
  0.11            6.8447e-006     -6.8452e-006    0.05474         0.00024        
  0.12            7.4693e-006     -7.4652e-006    0.0597          0.00022        
  0.13            8.0954e-006     -8.0912e-006    0.06474         0.00026        
  0.14            8.7145e-006     -8.7164e-006    0.0698          0.00028        
  0.15            9.3305e-006     -9.3313e-006    0.07474         0.00026        
  0.16            9.9569e-006     -9.9522e-006    0.07968         0.00026        
  0.17            1.05796e-005    -1.05799e-005   0.08474         0.0003         
  0.18            1.11981e-005    -1.12006e-005   0.08976         0.00022        
  0.19            1.1823e-005     -1.1811e-005    0.09464         0.00026        
  0.2             1.2451e-005     -1.2436e-005    0.0997          0.00024        
  0.21            1.3071e-005     -1.3061e-005    0.10478         0.00022        
  0.22            1.369e-005      -1.3678e-005    0.10972         0.00022        
  0.23            1.4318e-005     -1.4302e-005    0.11468         0.00024        
  0.24            1.4935e-005     -1.4923e-005    0.1197          0.00024        
  0.25            1.5556e-005     -1.5544e-005    0.12474         0.00022        
  0.26            1.618e-005      -1.6165e-005    0.12968         0.0002         
  0.27            1.6806e-005     -1.679e-005     0.1347          0.00022        
  0.28            1.7421e-005     -1.7408e-005    0.1397          0.00016        
  0.29            1.8043e-005     -1.803e-005     0.14464         0.00024        
  0.3             1.8671e-005     -1.8655e-005    0.14968         0.00026        
  0.31            1.9289e-005     -1.9279e-005    0.1547          0.00022        
  0.32            1.9907e-005     -1.9893e-005    0.15968         0.00024        
  0.33            2.0534e-005     -2.0517e-005    0.16462         0.00022        
  0.34            2.1154e-005     -2.1144e-005    0.16966         0.00024        
  0.35            2.1776e-005     -2.1762e-005    0.1747          0.0002         
  0.36            2.24e-005       -2.2383e-005    0.17966         0.00022        
  0.37            2.302e-005      -2.3006e-005    0.18464         0.00026        
  0.38            2.3639e-005     -2.3627e-005    0.1897          0.0002         
  0.39            2.4266e-005     -2.4249e-005    0.19464         0.0002         
  0.4             2.489e-005      -2.4877e-005    0.19962         0.00022        
  0.41            2.5506e-005     -2.5494e-005    0.20464         0.00022        
  0.42            2.6128e-005     -2.6113e-005    0.20962         0.0002         
  0.43            2.6755e-005     -2.6739e-005    0.21464         0.00022        
  0.44            2.7374e-005     -2.7362e-005    0.21966         0.00022        
  0.45            2.7991e-005     -2.7978e-005    0.22464         0.0002         
  0.46            2.8617e-005     -2.8601e-005    0.22956         0.00022        
  0.47            2.9241e-005     -2.9229e-005    0.2346          0.00022        
  0.48            2.986e-005      -2.985e-005     0.23962         0.00022        
  0.49            3.0485e-005     -3.0471e-005    0.24462         0.0002         
  0.5             3.1106e-005     -3.1091e-005    0.2496          0.00018        
  0.51            3.1723e-005     -3.1715e-005    0.25466         0.00022        
  0.52            3.235e-005      -3.2334e-005    0.25962         0.00016        
  0.53            3.2977e-005     -3.296e-005     0.2646          0.00026        
  0.54            3.3592e-005     -3.3578e-005    0.26964         0.00022        
  0.55            3.4212e-005     -3.4197e-005    0.27458         0.0002         
  0.56            3.4842e-005     -3.4825e-005    0.27954         0.00022        
  0.57            3.5458e-005     -3.545e-005     0.28462         0.00024        
  0.58            3.6075e-005     -3.6066e-005    0.28956         0.0002         
  0.59            3.6702e-005     -3.6688e-005    0.29454         0.00024        
  0.6             3.7327e-005     -3.7314e-005    0.2996          0.00028        
  0.61            3.7944e-005     -3.7937e-005    0.30464         0.00022        
  0.62            3.8575e-005     -3.8554e-005    0.30958         0.0002         
  0.63            3.9194e-005     -3.9182e-005    0.31458         0.0002         
  0.64            3.9813e-005     -3.9802e-005    0.3196          0.00022        
  0.65            4.0439e-005     -4.0423e-005    0.32454         0.00022        
  0.66            4.1064e-005     -4.105e-005     0.32958         0.00026        
  0.67            4.1681e-005     -4.1667e-005    0.33462         0.00022        
  0.68            4.2301e-005     -4.2288e-005    0.33956         0.00018        
  0.69            4.2928e-005     -4.2913e-005    0.34454         0.00022        
  0.7             4.3551e-005     -4.3537e-005    0.3496          0.00024        
  0.71            4.4168e-005     -4.4156e-005    0.35458         0.0002         
  0.72            4.4792e-005     -4.4776e-005    0.35952         0.00022        
  0.73            4.5413e-005     -4.5404e-005    0.36454         0.00024        
  0.74            4.6035e-005     -4.6025e-005    0.36956         0.0002         
  0.75            4.6662e-005     -4.6646e-005    0.37454         0.00018        
  0.76            4.7282e-005     -4.7269e-005    0.3795          0.00026        
  0.77            4.7901e-005     -4.7892e-005    0.38456         0.0002         
  0.78            4.8527e-005     -4.8511e-005    0.38954         0.00024        
  0.79            4.9152e-005     -4.9138e-005    0.3945          0.00024        
  0.8             4.9765e-005     -4.9756e-005    0.39954         0.00022        
  0.81            5.0391e-005     -5.0375e-005    0.40456         0.00016        
  0.82            5.1015e-005     -5.1001e-005    0.40946         0.0002         
  0.83            5.1638e-005     -5.1625e-005    0.41456         0.00022        
  0.84            5.2252e-005     -5.2242e-005    0.41948         0.00018        
  0.85            5.2881e-005     -5.2865e-005    0.42448         0.00022        
  0.86            5.3501e-005     -5.349e-005     0.42952         0.00026        
  0.87            5.4121e-005     -5.4114e-005    0.43452         0.0002         
  0.88            5.4747e-005     -5.4733e-005    0.43952         0.00022        
  0.89            5.5371e-005     -5.5357e-005    0.44448         0.00026        
  0.9             5.5989e-005     -5.5979e-005    0.44952         0.0002         
  0.91            5.6615e-005     -5.6601e-005    0.4545          0.00018        
  0.92            5.7242e-005     -5.7228e-005    0.45952         0.00022        
  0.93            5.7859e-005     -5.7846e-005    0.46452         0.00024        
  0.94            5.8479e-005     -5.8466e-005    0.46948         0.0002         
  0.95            5.9108e-005     -5.9092e-005    0.47446         0.00024        
  0.96            5.9727e-005     -5.9715e-005    0.47956         0.0002         
  0.97            6.0345e-005     -6.0335e-005    0.48448         0.00022        
  0.98            6.0972e-005     -6.0959e-005    0.48946         0.00024        
  0.99            6.1592e-005     -6.1585e-005    0.4945          0.00024        
  1               6.2215e-005     -6.2204e-005    0.49952         0.0002         
END_DB

