! VERSION = 6.00
BEGIN_HEADER
 ICCAP_INPUTS
  VU1        V  E GROUND SMU3 0.1 CON        0
  VU2        V  S GROUND SMU1 0.1 CON        0
  VN         V  B GROUND SMU4 0.015 CON        0
  VP         V  C GROUND SMU2 0.015 LIN        1    -1         1          201  0.01      
 ICCAP_OUTPUTS
  IP         I  C GROUND SMU2 B
  IN         I  B GROUND SMU4 B
END_HEADER

BEGIN_DB
 ICCAP_VAR VU1        0              
 ICCAP_VAR VU2        0              
 ICCAP_VAR VN         0              

 #VP              IP              IN             
  -1              -0.0029735      0.0027181      
  -0.99           -0.0029443      0.0026918      
  -0.98           -0.002915       0.0026649      
  -0.97           -0.0028857      0.0026383      
  -0.96           -0.002857       0.0026121      
  -0.95           -0.0028275      0.0025855      
  -0.94           -0.0027989      0.002559       
  -0.93           -0.0027697      0.0025324      
  -0.92           -0.0027404      0.0025053      
  -0.91           -0.0027112      0.0024787      
  -0.9            -0.0026816      0.0024521      
  -0.89           -0.0026527      0.002425       
  -0.88           -0.0026237      0.0023988      
  -0.87           -0.0025942      0.0023718      
  -0.86           -0.002565       0.0023449      
  -0.85           -0.0025353      0.002318       
  -0.84           -0.0025065      0.0022911      
  -0.83           -0.0024771      0.002265       
  -0.82           -0.0024476      0.002238       
  -0.81           -0.0024183      0.0022109      
  -0.8            -0.0023883      0.0021841      
  -0.79           -0.0023591      0.0021571      
  -0.78           -0.0023297      0.0021304      
  -0.77           -0.0023001      0.0021028      
  -0.76           -0.0022712      0.0020766      
  -0.75           -0.002241       0.0020495      
  -0.74           -0.0022118      0.0020224      
  -0.73           -0.0021823      0.0019956      
  -0.72           -0.0021527      0.0019685      
  -0.71           -0.0021234      0.0019419      
  -0.7            -0.0020936      0.0019146      
  -0.69           -0.0020641      0.0018874      
  -0.68           -0.0020344      0.0018607      
  -0.67           -0.0020047      0.0018334      
  -0.66           -0.0019754      0.0018065      
  -0.65           -0.0019458      0.0017796      
  -0.64           -0.001916       0.0017524      
  -0.63           -0.0018865      0.0017256      
  -0.62           -0.0018565      0.0016982      
  -0.61           -0.0018272      0.0016714      
  -0.6            -0.001797       0.0016442      
  -0.59           -0.0017675      0.0016168      
  -0.58           -0.0017378      0.0015899      
  -0.57           -0.0017079      0.0015628      
  -0.56           -0.0016783      0.0015355      
  -0.55           -0.0016485      0.0015083      
  -0.54           -0.0016189      0.001481       
  -0.53           -0.0015892      0.0014539      
  -0.52           -0.0015589      0.0014267      
  -0.51           -0.0015297      0.0013993      
  -0.5            -0.0014997      0.0013727      
  -0.49           -0.00147        0.0013454      
  -0.48           -0.0014402      0.0013179      
  -0.47           -0.0014101      0.0012904      
  -0.46           -0.0013805      0.0012633      
  -0.45           -0.0013505      0.0012361      
  -0.44           -0.0013204      0.0012085      
  -0.43           -0.0012903      0.0011813      
  -0.42           -0.0012606      0.001154       
  -0.41           -0.0012307      0.0011268      
  -0.4            -0.0012007      0.0010994      
  -0.39           -0.0011708      0.0010721      
  -0.38           -0.0011409      0.0010447      
  -0.37           -0.0011112      0.0010173      
  -0.36           -0.0010809      0.00098901     
  -0.35           -0.001051       0.00096158     
  -0.34           -0.0010211      0.00093407     
  -0.33           -0.00099203     0.00090682     
  -0.32           -0.00096202     0.00087956     
  -0.31           -0.00093183     0.00085197     
  -0.3            -0.00090186     0.00082446     
  -0.29           -0.00087199     0.00079733     
  -0.28           -0.00084204     0.00076994     
  -0.27           -0.00081196     0.00074255     
  -0.26           -0.00078185     0.000715       
  -0.25           -0.00075206     0.0006877      
  -0.24           -0.00072194     0.00066032     
  -0.23           -0.00069183     0.00063278     
  -0.22           -0.00066179     0.00060538     
  -0.21           -0.00063167     0.0005779      
  -0.2            -0.00060186     0.00055064     
  -0.19           -0.0005717      0.00052312     
  -0.18           -0.00054157     0.00049559     
  -0.17           -0.00051149     0.00046816     
  -0.16           -0.00048159     0.00044087     
  -0.15           -0.0004515      0.00041331     
  -0.14           -0.00042133     0.00038585     
  -0.13           -0.00039118     0.00035826     
  -0.12           -0.00036132     0.00033101     
  -0.11           -0.00033119     0.00030352     
  -0.1            -0.00030102     0.00027593     
  -0.09           -0.00027087     0.00024841     
  -0.08           -0.00024071     0.00022086     
  -0.07           -0.00021085     0.00019355     
  -0.06           -0.00018067     0.00016605     
  -0.05           -0.00015052     0.00013848     
  -0.04           -0.00012038     0.00011095     
  -0.03           -9.0519e-005    8.3515e-005    
  -0.02           -6.0408e-005    5.5986e-005    
  -0.01           -3.015e-005     2.9365e-005    
  0               -5.6842e-008    2.7085e-007    
  0.01            2.9848e-005     -2.6446e-005   
  0.02            6.0012e-005     -5.3984e-005   
  0.03            9.0139e-005     -8.1499e-005   
  0.04            0.00012042      -0.0001091     
  0.05            0.00015032      -0.00013635    
  0.06            0.00018053      -0.00016389    
  0.07            0.00021071      -0.00019146    
  0.08            0.00024084      -0.00021901    
  0.09            0.00027075      -0.00024629    
  0.1             0.00030095      -0.00027389    
  0.11            0.00033107      -0.00030139    
  0.12            0.00036119      -0.000329      
  0.13            0.0003911       -0.00035629    
  0.14            0.00042125      -0.00038388    
  0.15            0.00045146      -0.00041147    
  0.16            0.00048158      -0.00043897    
  0.17            0.00051151      -0.00046629    
  0.18            0.00054168      -0.00049381    
  0.19            0.00057166      -0.00052126    
  0.2             0.00060179      -0.00054881    
  0.21            0.00063186      -0.0005762     
  0.22            0.00066173      -0.00060349    
  0.23            0.00069185      -0.00063111    
  0.24            0.00072186      -0.00065849    
  0.25            0.000752        -0.00068607    
  0.26            0.00078194      -0.00071334    
  0.27            0.00081198      -0.00074078    
  0.28            0.0008421       -0.00076838    
  0.29            0.00087205      -0.00079577    
  0.3             0.00090203      -0.00082304    
  0.31            0.00093205      -0.00085057    
  0.32            0.00096203      -0.00087794    
  0.33            0.00099213      -0.00090546    
  0.34            0.00102182      -0.00093268    
  0.35            0.00105193      -0.00096007    
  0.36            0.00108195      -0.00098757    
  0.37            0.00111189      -0.00101485    
  0.38            0.0011424       -0.00104213    
  0.39            0.0011725       -0.00106948    
  0.4             0.0012024       -0.00109668    
  0.41            0.0012323       -0.00112418    
  0.42            0.0012622       -0.0011504     
  0.43            0.0012921       -0.001178      
  0.44            0.0013223       -0.001206      
  0.45            0.0013519       -0.001233      
  0.46            0.001382        -0.0012605     
  0.47            0.0014118       -0.0012877     
  0.48            0.0014415       -0.0013149     
  0.49            0.0014715       -0.0013423     
  0.5             0.0015014       -0.0013696     
  0.51            0.0015312       -0.001397      
  0.52            0.0015611       -0.0014242     
  0.53            0.0015909       -0.0014513     
  0.54            0.001621        -0.0014791     
  0.55            0.0016504       -0.001506      
  0.56            0.0016802       -0.001533      
  0.57            0.0017102       -0.0015601     
  0.58            0.0017399       -0.0015875     
  0.59            0.0017694       -0.0016143     
  0.6             0.0017991       -0.0016417     
  0.61            0.001829        -0.0016684     
  0.62            0.0018587       -0.0016961     
  0.63            0.0018883       -0.0017229     
  0.64            0.0019179       -0.0017501     
  0.65            0.0019475       -0.0017774     
  0.66            0.0019772       -0.0018041     
  0.67            0.0020067       -0.0018312     
  0.68            0.0020359       -0.0018584     
  0.69            0.0020658       -0.0018855     
  0.7             0.0020954       -0.0019125     
  0.71            0.0021249       -0.0019393     
  0.72            0.0021543       -0.0019664     
  0.73            0.0021839       -0.0019934     
  0.74            0.0022134       -0.0020204     
  0.75            0.0022432       -0.0020476     
  0.76            0.0022723       -0.0020743     
  0.77            0.0023018       -0.0021011     
  0.78            0.0023313       -0.0021281     
  0.79            0.0023609       -0.0021551     
  0.8             0.0023901       -0.0021821     
  0.81            0.0024197       -0.0022088     
  0.82            0.0024495       -0.0022362     
  0.83            0.0024789       -0.0022632     
  0.84            0.0025085       -0.00229       
  0.85            0.0025376       -0.0023167     
  0.86            0.0025666       -0.0023433     
  0.87            0.002596        -0.0023702     
  0.88            0.0026253       -0.0023969     
  0.89            0.0026543       -0.0024235     
  0.9             0.0026838       -0.0024504     
  0.91            0.002713        -0.0024769     
  0.92            0.0027423       -0.0025041     
  0.93            0.0027711       -0.0025303     
  0.94            0.0028005       -0.002557      
  0.95            0.0028297       -0.002584      
  0.96            0.0028589       -0.0026104     
  0.97            0.0028883       -0.002637      
  0.98            0.0029173       -0.0026638     
  0.99            0.0029458       -0.00269       
  1               0.0029755       -0.0027167     
END_DB

