! VERSION = 6.00
BEGIN_HEADER
 ICCAP_INPUTS
  VU1        V  E GROUND SMU4 0.1 CON        0
  VU2        V  S GROUND SMU1 0.1 CON        0
  VN         V  B GROUND SMU2 0.015 CON        0
  VP         V  C GROUND SMU3 0.015 LIN        1    -1         1          201  0.01      
 ICCAP_OUTPUTS
  IP         I  C GROUND SMU3 B
  IN         I  B GROUND SMU2 B
END_HEADER

BEGIN_DB
 ICCAP_VAR VU1        0              
 ICCAP_VAR VU2        0              
 ICCAP_VAR VN         0              

 #VP              IP              IN             
  -1              -0.00089628     0.00087957     
  -0.99           -0.00088733     0.00087073     
  -0.98           -0.00087837     0.00086204     
  -0.97           -0.0008695      0.00085328     
  -0.96           -0.00086061     0.00084456     
  -0.95           -0.00085169     0.00083577     
  -0.94           -0.00084271     0.00082701     
  -0.93           -0.00083387     0.00081832     
  -0.92           -0.0008249      0.00080951     
  -0.91           -0.00081606     0.00080088     
  -0.9            -0.00080712     0.00079206     
  -0.89           -0.0007982      0.00078337     
  -0.88           -0.0007893      0.00077456     
  -0.87           -0.00078039     0.00076585     
  -0.86           -0.00077147     0.00075711     
  -0.85           -0.00076251     0.0007483      
  -0.84           -0.00075357     0.00073956     
  -0.83           -0.00074464     0.00073077     
  -0.82           -0.00073582     0.00072206     
  -0.81           -0.00072681     0.00071328     
  -0.8            -0.0007179      0.00070456     
  -0.79           -0.00070894     0.00069573     
  -0.78           -0.0007         0.000687       
  -0.77           -0.00069106     0.00067819     
  -0.76           -0.00068213     0.00066945     
  -0.75           -0.00067322     0.0006607      
  -0.74           -0.00066425     0.0006519      
  -0.73           -0.00065533     0.0006431      
  -0.72           -0.0006463      0.00063428     
  -0.71           -0.00063743     0.0006256      
  -0.7            -0.00062845     0.00061679     
  -0.69           -0.00061954     0.00060806     
  -0.68           -0.00061057     0.00059919     
  -0.67           -0.00060164     0.00059048     
  -0.66           -0.00059271     0.00058168     
  -0.65           -0.00058373     0.00057289     
  -0.64           -0.00057478     0.00056411     
  -0.63           -0.00056579     0.00055529     
  -0.62           -0.0005569      0.00054657     
  -0.61           -0.0005479      0.00053776     
  -0.6            -0.00053897     0.00052897     
  -0.59           -0.00052997     0.00052014     
  -0.58           -0.00052102     0.00051137     
  -0.57           -0.00051211     0.00050261     
  -0.56           -0.00050309     0.00049382     
  -0.55           -0.00049415     0.00048497     
  -0.54           -0.00048516     0.0004762      
  -0.53           -0.00047619     0.00046739     
  -0.52           -0.00046726     0.00045862     
  -0.51           -0.00045832     0.00044984     
  -0.5            -0.00044931     0.00044102     
  -0.49           -0.00044033     0.0004322      
  -0.48           -0.00043134     0.00042337     
  -0.47           -0.00042243     0.00041464     
  -0.46           -0.00041345     0.00040583     
  -0.45           -0.00040447     0.00039702     
  -0.44           -0.00039549     0.0003882      
  -0.43           -0.00038654     0.00037943     
  -0.42           -0.00037757     0.00037061     
  -0.41           -0.00036856     0.00036178     
  -0.4            -0.0003596      0.00035297     
  -0.39           -0.00035059     0.00034413     
  -0.38           -0.00034168     0.00033541     
  -0.37           -0.00033267     0.00032656     
  -0.36           -0.00032366     0.00031774     
  -0.35           -0.00031469     0.0003089      
  -0.34           -0.00030568     0.00030013     
  -0.33           -0.00029679     0.00029133     
  -0.32           -0.00028777     0.00028251     
  -0.31           -0.00027875     0.0002737      
  -0.3            -0.00026974     0.00026485     
  -0.29           -0.00026079     0.00025602     
  -0.28           -0.00025182     0.00024726     
  -0.27           -0.00024283     0.00023841     
  -0.26           -0.00023382     0.00022959     
  -0.25           -0.00022482     0.00022077     
  -0.24           -0.00021589     0.00021199     
  -0.23           -0.00020689     0.00020318     
  -0.22           -0.0001979      0.00019433     
  -0.21           -0.00018887     0.00018547     
  -0.2            -0.00017985     0.00017666     
  -0.19           -0.00017094     0.00016788     
  -0.18           -0.00016196     0.00015905     
  -0.17           -0.00015295     0.00015021     
  -0.16           -0.00014393     0.00014138     
  -0.15           -0.00013492     0.00013255     
  -0.14           -0.00012598     0.00012379     
  -0.13           -0.00011698     0.00011492     
  -0.12           -0.00010795     0.00010609     
  -0.11           -9.9111e-005    9.7194e-005    
  -0.1            -9.0091e-005    8.835e-005     
  -0.09           -8.1151e-005    7.9588e-005    
  -0.08           -7.2129e-005    7.074e-005     
  -0.07           -6.3131e-005    6.191e-005     
  -0.06           -5.4144e-005    5.3073e-005    
  -0.05           -4.5175e-005    4.43e-005      
  -0.04           -3.6171e-005    3.5467e-005    
  -0.03           -2.7153e-005    2.6614e-005    
  -0.02           -1.8129e-005    1.7767e-005    
  -0.01           -9.1303e-006    8.9162e-006    
  0               -1.3059e-007    9.0625e-008    
  0.01            8.8286e-006     -8.6958e-006   
  0.02            1.7845e-005     -1.7542e-005   
  0.03            2.6855e-005     -2.6373e-005   
  0.04            3.5804e-005     -3.5156e-005   
  0.05            4.4806e-005     -4.3995e-005   
  0.06            5.3844e-005     -5.2839e-005   
  0.07            6.285e-005      -6.1697e-005   
  0.08            7.1848e-005     -7.0537e-005   
  0.09            8.0796e-005     -7.9302e-005   
  0.1             8.9819e-005     -8.814e-005    
  0.11            9.8827e-005     -9.6985e-005   
  0.12            0.00010788      -0.0001057     
  0.13            0.00011689      -0.00011454    
  0.14            0.0001258       -0.00012331    
  0.15            0.00013483      -0.00013214    
  0.16            0.0001438       -0.00014096    
  0.17            0.00015283      -0.00014979    
  0.18            0.00016183      -0.00015861    
  0.19            0.00017077      -0.00016743    
  0.2             0.00017977      -0.00017621    
  0.21            0.00018877      -0.00018506    
  0.22            0.00019776      -0.00019392    
  0.23            0.00020677      -0.00020273    
  0.24            0.0002157       -0.00021148    
  0.25            0.0002247       -0.00022034    
  0.26            0.00023372      -0.00022916    
  0.27            0.0002427       -0.00023799    
  0.28            0.00025171      -0.00024682    
  0.29            0.00026061      -0.00025559    
  0.3             0.00026963      -0.00026443    
  0.31            0.00027862      -0.00027325    
  0.32            0.00028767      -0.00028205    
  0.33            0.00029657      -0.00029083    
  0.34            0.00030558      -0.00029967    
  0.35            0.00031455      -0.0003085     
  0.36            0.00032356      -0.00031731    
  0.37            0.00033256      -0.00032615    
  0.38            0.00034148      -0.00033489    
  0.39            0.00035047      -0.00034373    
  0.4             0.00035944      -0.00035254    
  0.41            0.00036845      -0.00036139    
  0.42            0.00037744      -0.00037017    
  0.43            0.00038637      -0.00037893    
  0.44            0.00039536      -0.00038776    
  0.45            0.00040435      -0.00039658    
  0.46            0.00041334      -0.0004054     
  0.47            0.00042228      -0.00041421    
  0.48            0.00043123      -0.00042294    
  0.49            0.0004402       -0.00043179    
  0.5             0.00044919      -0.0004406     
  0.51            0.00045816      -0.00044937    
  0.52            0.00046718      -0.00045821    
  0.53            0.00047609      -0.00046698    
  0.54            0.00048504      -0.00047575    
  0.55            0.000494        -0.00048456    
  0.56            0.00050298      -0.00049337    
  0.57            0.00051198      -0.00050217    
  0.58            0.00052088      -0.00051094    
  0.59            0.00052988      -0.00051973    
  0.6             0.00053882      -0.00052853    
  0.61            0.0005478       -0.00053737    
  0.62            0.00055679      -0.00054614    
  0.63            0.00056569      -0.00055491    
  0.64            0.00057463      -0.0005637     
  0.65            0.00058362      -0.00057248    
  0.66            0.00059259      -0.0005813     
  0.67            0.00060154      -0.00059008    
  0.68            0.00061047      -0.0005988     
  0.69            0.00061937      -0.00060759    
  0.7             0.00062838      -0.00061638    
  0.71            0.0006373       -0.00062516    
  0.72            0.00064625      -0.00063396    
  0.73            0.00065512      -0.00064265    
  0.74            0.00066408      -0.00065148    
  0.75            0.000673        -0.00066024    
  0.76            0.00068197      -0.00066903    
  0.77            0.00069092      -0.0006778     
  0.78            0.0006998       -0.0006865     
  0.79            0.00070873      -0.00069525    
  0.8             0.00071766      -0.00070403    
  0.81            0.00072668      -0.00071285    
  0.82            0.0007355       -0.00072152    
  0.83            0.00074445      -0.00073033    
  0.84            0.00075337      -0.00073905    
  0.85            0.00076234      -0.00074788    
  0.86            0.00077127      -0.00075661    
  0.87            0.00078009      -0.00076534    
  0.88            0.00078905      -0.0007741     
  0.89            0.00079797      -0.00078283    
  0.9             0.00080694      -0.00079156    
  0.91            0.00081582      -0.00080034    
  0.92            0.0008247       -0.00080905    
  0.93            0.00083363      -0.00081779    
  0.94            0.00084254      -0.00082659    
  0.95            0.00085141      -0.00083524    
  0.96            0.00086032      -0.00084399    
  0.97            0.00086923      -0.00085275    
  0.98            0.00087815      -0.00086152    
  0.99            0.00088706      -0.00087023    
  1               0.00089592      -0.00087894    
END_DB

