! VERSION = 6.00
BEGIN_HEADER
 ICCAP_INPUTS
  SVH        I  E GROUND SMU1 2 CON        0
  SVL        I  S GROUND SMU4 2 CON        0
  FVL        V  B GROUND SMU3 0.015 CON        0
  FVH        V  C GROUND SMU2 0.015 LIN        1    -1         1          201  0.01      
 ICCAP_OUTPUTS
  IVH        I  C GROUND SMU2 B
  IVL        I  B GROUND SMU3 B
  VVH        V  E GROUND SMU1 B
  VVL        V  S GROUND SMU4 B
END_HEADER

BEGIN_DB
 ICCAP_VAR SVH        0              
 ICCAP_VAR SVL        0              
 ICCAP_VAR FVL        0              

 #FVH             IVH             IVL             VVH             VVL            
  -1              -4.3738e-005    4.3754e-005     -0.06678        -0.49644       
  -0.99           -4.33e-005      4.3315e-005     -0.0656         -0.49148       
  -0.98           -4.286e-005     4.2881e-005     -0.06866        -0.4865        
  -0.97           -4.2425e-005    4.2441e-005     -0.06364        -0.48152       
  -0.96           -4.1987e-005    4.2004e-005     -0.06124        -0.4766        
  -0.95           -4.1548e-005    4.1569e-005     -0.0667         -0.47156       
  -0.94           -4.1109e-005    4.113e-005      -0.06218        -0.4666        
  -0.93           -4.0672e-005    4.0686e-005     -0.05812        -0.46164       
  -0.92           -4.0235e-005    4.0255e-005     -0.0616         -0.45672       
  -0.91           -3.9797e-005    3.9817e-005     -0.06244        -0.45178       
  -0.9            -3.9359e-005    3.9374e-005     -0.05462        -0.4468        
  -0.89           -3.8918e-005    3.8937e-005     -0.05944        -0.44178       
  -0.88           -3.8485e-005    3.8504e-005     -0.0618         -0.4369        
  -0.87           -3.8051e-005    3.8065e-005     -0.05662        -0.43192       
  -0.86           -3.7609e-005    3.7626e-005     -0.05604        -0.4269        
  -0.85           -3.7172e-005    3.7192e-005     -0.06136        -0.42196       
  -0.84           -3.6734e-005    3.6752e-005     -0.05496        -0.41698       
  -0.83           -3.6299e-005    3.6316e-005     -0.05238        -0.41212       
  -0.82           -3.5859e-005    3.5878e-005     -0.05738        -0.4071        
  -0.81           -3.5422e-005    3.5441e-005     -0.0538         -0.40214       
  -0.8            -3.4985e-005    3.4999e-005     -0.0489         -0.39714       
  -0.79           -3.4543e-005    3.4564e-005     -0.05318        -0.39214       
  -0.78           -3.4105e-005    3.4127e-005     -0.05412        -0.38722       
  -0.77           -3.3669e-005    3.3683e-005     -0.04774        -0.38224       
  -0.76           -3.3232e-005    3.3252e-005     -0.05044        -0.37732       
  -0.75           -3.2796e-005    3.2814e-005     -0.05346        -0.37232       
  -0.74           -3.2359e-005    3.2373e-005     -0.04852        -0.36734       
  -0.73           -3.1918e-005    3.1935e-005     -0.04606        -0.36236       
  -0.72           -3.148e-005     3.15e-005       -0.05198        -0.35744       
  -0.71           -3.1046e-005    3.1063e-005     -0.04704        -0.35254       
  -0.7            -3.0607e-005    3.0622e-005     -0.04284        -0.34754       
  -0.69           -3.0168e-005    3.0188e-005     -0.04644        -0.34256       
  -0.68           -2.973e-005     2.9748e-005     -0.04716        -0.33758       
  -0.67           -2.9298e-005    2.9312e-005     -0.03986        -0.33262       
  -0.66           -2.8855e-005    2.8874e-005     -0.04394        -0.32768       
  -0.65           -2.8418e-005    2.8438e-005     -0.04698        -0.32272       
  -0.64           -2.7982e-005    2.7997e-005     -0.0418         -0.31776       
  -0.63           -2.7545e-005    2.7564e-005     -0.0402         -0.3128        
  -0.62           -2.7104e-005    2.7132e-005     -0.04616        -0.30784       
  -0.61           -2.6671e-005    2.6688e-005     -0.0401         -0.3029        
  -0.6            -2.6233e-005    2.6246e-005     -0.03626        -0.29792       
  -0.59           -2.5793e-005    2.5813e-005     -0.0399         -0.29298       
  -0.58           -2.5356e-005    2.5376e-005     -0.03994        -0.28798       
  -0.57           -2.492e-005     2.4935e-005     -0.0331         -0.283         
  -0.56           -2.4478e-005    2.4498e-005     -0.0379         -0.27806       
  -0.55           -2.404e-005     2.406e-005      -0.03986        -0.2731        
  -0.54           -2.3607e-005    2.3625e-005     -0.03414        -0.26814       
  -0.53           -2.3166e-005    2.3185e-005     -0.03484        -0.26318       
  -0.52           -2.2728e-005    2.2749e-005     -0.03942        -0.25824       
  -0.51           -2.2291e-005    2.2309e-005     -0.03316        -0.25324       
  -0.5            -2.1857e-005    2.1871e-005     -0.03064        -0.2483        
  -0.49           -2.1417e-005    2.1435e-005     -0.0353         -0.24334       
  -0.48           -2.0978e-005    2.0997e-005     -0.03212        -0.23838       
  -0.47           -2.0541e-005    2.0556e-005     -0.02684        -0.23338       
  -0.46           -2.0106e-005    2.0123e-005     -0.03138        -0.22848       
  -0.45           -1.9667e-005    1.9686e-005     -0.03244        -0.22348       
  -0.44           -1.9228e-005    1.9246e-005     -0.02604        -0.21854       
  -0.43           -1.879e-005     1.8809e-005     -0.0286         -0.21354       
  -0.42           -1.8354e-005    1.8375e-005     -0.03192        -0.20858       
  -0.41           -1.7918e-005    1.7936e-005     -0.02668        -0.20362       
  -0.4            -1.7479e-005    1.7497e-005     -0.02424        -0.19866       
  -0.39           -1.704e-005     1.7059e-005     -0.02932        -0.1937        
  -0.38           -1.6602e-005    1.6619e-005     -0.02534        -0.18872       
  -0.37           -1.6167e-005    1.6182e-005     -0.02088        -0.18378       
  -0.36           -1.5727e-005    1.5747e-005     -0.02472        -0.17882       
  -0.35           -1.5289e-005    1.5306e-005     -0.02586        -0.17384       
  -0.34           -1.4851e-005    1.4868e-005     -0.01922        -0.1689        
  -0.33           -1.4416e-005    1.4433e-005     -0.02206        -0.16392       
  -0.32           -1.3977e-005    1.3996e-005     -0.02514        -0.15896       
  -0.31           -1.3539e-005    1.3555e-005     -0.02022        -0.15402       
  -0.3            -1.3104e-005    1.312e-005      -0.01774        -0.14904       
  -0.29           -1.2667e-005    1.2687e-005     -0.02292        -0.14412       
  -0.28           -1.2229e-005    1.2246e-005     -0.01868        -0.13916       
  -0.27           -1.1791e-005    1.1807e-005     -0.0146         -0.13416       
  -0.26           -1.1353e-005    1.1371e-005     -0.01812        -0.12918       
  -0.25           -1.0916e-005    1.0935e-005     -0.01922        -0.12428       
  -0.24           -1.0479e-005    1.0497e-005     -0.01234        -0.11932       
  -0.23           -1.0042e-005    1.0057e-005     -0.0155         -0.11434       
  -0.22           -9.6113e-006    9.6133e-006     -0.01274        -0.10938       
  -0.21           -9.1739e-006    9.1744e-006     -0.01046        -0.1044        
  -0.2            -8.7386e-006    8.7412e-006     -0.01414        -0.0995        
  -0.19           -8.2995e-006    8.3026e-006     -0.01532        -0.09448       
  -0.18           -7.8628e-006    7.8638e-006     -0.0104         -0.0895        
  -0.17           -7.4249e-006    7.4254e-006     -0.0099         -0.08456       
  -0.16           -6.989e-006     6.9926e-006     -0.01518        -0.07964       
  -0.15           -6.5511e-006    6.5528e-006     -0.01018        -0.07466       
  -0.14           -6.1132e-006    6.1145e-006     -0.00516        -0.06972       
  -0.13           -5.6751e-006    5.6773e-006     -0.00952        -0.06472       
  -0.12           -5.2399e-006    5.2428e-006     -0.012          -0.05976       
  -0.11           -4.8023e-006    4.8032e-006     -0.00706        -0.05484       
  -0.1            -4.365e-006     4.3663e-006     -0.00442        -0.04986       
  -0.09           -3.926e-006     3.9286e-006     -0.00808        -0.0449        
  -0.08           -3.4868e-006    3.4897e-006     -0.00724        -0.03996       
  -0.07           -3.0537e-006    3.0548e-006     -0.00086        -0.03498       
  -0.06           -2.6155e-006    2.6176e-006     -0.00436        -0.03006       
  -0.05           -2.177e-006     2.1804e-006     -0.0081         -0.02508       
  -0.04           -1.7392e-006    1.7408e-006     -0.00242        -0.0201        
  -0.03           -1.3053e-006    1.3064e-006     0.00148         -0.0152        
  -0.02           -8.7077e-007    8.7006e-007     -0.00156        -0.01016       
  -0.01           -4.3047e-007    4.4274e-007     -0.00274        -0.00524       
  0               4.4018e-009     -3.214e-009     0.00404         -0.00048       
  0.01            4.4452e-007     -4.4405e-007    -0.00044        0.00462        
  0.02            8.8341e-007     -8.7115e-007    0.00088         0.0096         
  0.03            1.3206e-006     -1.3196e-006    0.00522         0.01456        
  0.04            1.7592e-006     -1.7562e-006    -0.00252        0.01956        
  0.05            2.194e-006      -2.1917e-006    0.0032          0.02448        
  0.06            2.6316e-006     -2.6299e-006    0.00718         0.02944        
  0.07            3.0699e-006     -3.0672e-006    0.00364         0.03444        
  0.08            3.5084e-006     -3.5057e-006    0.00232         0.03942        
  0.09            3.9423e-006     -3.9404e-006    0.00694         0.04434        
  0.1             4.3798e-006     -4.3791e-006    0.00806         0.04934        
  0.11            4.8187e-006     -4.8164e-006    0.00298         0.05426        
  0.12            5.2574e-006     -5.2555e-006    0.0076          0.05924        
  0.13            5.6915e-006     -5.69e-006      0.01266         0.06416        
  0.14            6.1292e-006     -6.1271e-006    0.00812         0.06918        
  0.15            6.5683e-006     -6.5663e-006    0.00594         0.07408        
  0.16            7.0061e-006     -7.0045e-006    0.01082         0.07904        
  0.17            7.4397e-006     -7.4369e-006    0.0132          0.084          
  0.18            7.8777e-006     -7.8766e-006    0.00848         0.08896        
  0.19            8.3174e-006     -8.3146e-006    0.01146         0.09394        
  0.2             8.7548e-006     -8.7537e-006    0.0176          0.0989         
  0.21            9.1917e-006     -9.19e-006      0.0135          0.10386        
  0.22            9.6274e-006     -9.6255e-006    0.01018         0.10876        
  0.23            1.00667e-005    -1.00643e-005   0.01556         0.11376        
  0.24            1.05031e-005    -1.05007e-005   0.01866         0.11874        
  0.25            1.0941e-005     -1.09391e-005   0.0155          0.12368        
  0.26            1.13774e-005    -1.13758e-005   0.01446         0.1286         
  0.27            1.1821e-005     -1.1805e-005    0.01318         0.13362        
  0.28            1.226e-005      -1.2241e-005    0.01312         0.13856        
  0.29            1.2699e-005     -1.2681e-005    0.01952         0.1435         
  0.3             1.3132e-005     -1.3116e-005    0.022           0.14844        
  0.31            1.3568e-005     -1.3551e-005    0.0171          0.15344        
  0.32            1.4008e-005     -1.3992e-005    0.02068         0.15838        
  0.33            1.4447e-005     -1.4427e-005    0.02526         0.16336        
  0.34            1.4879e-005     -1.4863e-005    0.0214          0.16826        
  0.35            1.5321e-005     -1.5302e-005    0.0204          0.17326        
  0.36            1.5756e-005     -1.5739e-005    0.02744         0.17824        
  0.37            1.6193e-005     -1.6175e-005    0.02394         0.1832         
  0.38            1.6628e-005     -1.6613e-005    0.0211          0.18808        
  0.39            1.7067e-005     -1.7049e-005    0.02588         0.19304        
  0.4             1.7503e-005     -1.7485e-005    0.02804         0.198          
  0.41            1.7944e-005     -1.7924e-005    0.02248         0.20294        
  0.42            1.8378e-005     -1.8358e-005    0.02736         0.20792        
  0.43            1.8815e-005     -1.8796e-005    0.03158         0.21286        
  0.44            1.9249e-005     -1.9233e-005    0.02798         0.21782        
  0.45            1.9692e-005     -1.9672e-005    0.02724         0.22282        
  0.46            2.0128e-005     -2.0106e-005    0.03448         0.22778        
  0.47            2.056e-005      -2.0541e-005    0.03034         0.23268        
  0.48            2.0998e-005     -2.0982e-005    0.02752         0.23766        
  0.49            2.1436e-005     -2.142e-005     0.0328          0.2426         
  0.5             2.1873e-005     -2.1855e-005    0.03366         0.2476         
  0.51            2.2308e-005     -2.229e-005     0.02842         0.25256        
  0.52            2.2747e-005     -2.2726e-005    0.03464         0.25748        
  0.53            2.3183e-005     -2.3164e-005    0.03702         0.2624         
  0.54            2.3621e-005     -2.3603e-005    0.03206         0.2674         
  0.55            2.4056e-005     -2.4038e-005    0.0358          0.2723         
  0.56            2.4496e-005     -2.4474e-005    0.04048         0.2773         
  0.57            2.4929e-005     -2.4913e-005    0.0365          0.28222        
  0.58            2.5369e-005     -2.5354e-005    0.0354          0.28722        
  0.59            2.5805e-005     -2.5786e-005    0.04194         0.29214        
  0.6             2.624e-005      -2.6221e-005    0.03906         0.29714        
  0.61            2.6676e-005     -2.6661e-005    0.03632         0.30204        
  0.62            2.7117e-005     -2.7098e-005    0.041           0.307          
  0.63            2.7548e-005     -2.753e-005     0.04334         0.31194        
  0.64            2.7987e-005     -2.797e-005     0.03762         0.31688        
  0.65            2.8426e-005     -2.841e-005     0.04248         0.32188        
  0.66            2.8864e-005     -2.8845e-005    0.04688         0.32684        
  0.67            2.93e-005       -2.9285e-005    0.04302         0.33182        
  0.68            2.9739e-005     -2.9721e-005    0.04264         0.3367         
  0.69            3.0177e-005     -3.0153e-005    0.05014         0.34172        
  0.7             3.061e-005      -3.0593e-005    0.0452          0.34668        
  0.71            3.105e-005      -3.1033e-005    0.0428          0.35158        
  0.72            3.1484e-005     -3.1465e-005    0.04814         0.35652        
  0.73            3.1921e-005     -3.1902e-005    0.04814         0.36152        
  0.74            3.2358e-005     -3.2343e-005    0.04332         0.36648        
  0.75            3.2799e-005     -3.2778e-005    0.04978         0.3714         
  0.76            3.323e-005      -3.3209e-005    0.05226         0.37638        
  0.77            3.3667e-005     -3.3651e-005    0.04676         0.38134        
  0.78            3.4106e-005     -3.4087e-005    0.05108         0.3863         
  0.79            3.4544e-005     -3.4525e-005    0.05526         0.39126        
  0.8             3.4977e-005     -3.4958e-005    0.05158         0.39622        
  0.81            3.5418e-005     -3.54e-005      0.05094         0.40116        
  0.82            3.5854e-005     -3.5834e-005    0.05856         0.4061         
  0.83            3.6288e-005     -3.6271e-005    0.05376         0.41108        
  0.84            3.6729e-005     -3.6712e-005    0.05146         0.41604        
  0.85            3.7163e-005     -3.7145e-005    0.05754         0.42094        
  0.86            3.7598e-005     -3.7582e-005    0.05668         0.42592        
  0.87            3.8037e-005     -3.802e-005     0.0518          0.43086        
  0.88            3.8478e-005     -3.8456e-005    0.05842         0.43582        
  0.89            3.8909e-005     -3.8889e-005    0.06074         0.44078        
  0.9             3.9346e-005     -3.9328e-005    0.05604         0.44572        
  0.91            3.9786e-005     -3.9769e-005    0.05946         0.4507         
  0.92            4.0224e-005     -4.0202e-005    0.06446         0.45568        
  0.93            4.0654e-005     -4.0639e-005    0.06014         0.4606         
  0.94            4.1095e-005     -4.1077e-005    0.05918         0.46554        
  0.95            4.1533e-005     -4.1512e-005    0.06588         0.4705         
  0.96            4.1968e-005     -4.1949e-005    0.0627          0.47552        
  0.97            4.2406e-005     -4.239e-005     0.05988         0.48042        
  0.98            4.2843e-005     -4.2823e-005    0.0647          0.48532        
  0.99            4.3276e-005     -4.3256e-005    0.06678         0.4903         
  1               4.3712e-005     -4.3698e-005    0.06076         0.49526        
END_DB

