! VERSION = 6.00
BEGIN_HEADER
 ICCAP_INPUTS
  SVH        I  E GROUND SMU2 2 CON        0
  SVL        I  S GROUND SMU4 2 CON        0
  FVL        V  B GROUND SMU1 0.015 CON        0
  FVH        V  C GROUND SMU3 0.015 LIN        1    -0.5       0.5        101  0.01      
 ICCAP_OUTPUTS
  IVH        I  C GROUND SMU3 B
  IVL        I  B GROUND SMU1 B
  VVH        V  E GROUND SMU2 B
  VVL        V  S GROUND SMU4 B
END_HEADER

BEGIN_DB
 ICCAP_VAR SVH        0              
 ICCAP_VAR SVL        0              
 ICCAP_VAR FVL        0              

 #FVH             IVH             IVL             VVH             VVL            
  -0.5            -7.5992e-006    7.5985e-006     -0.27768        -0.00056       
  -0.49           -7.4492e-006    7.4476e-006     -0.28932        -0.0006        
  -0.48           -7.295e-006     7.2969e-006     -0.30264        -0.0006        
  -0.47           -7.1426e-006    7.1428e-006     -0.30358        -0.00056       
  -0.46           -6.9923e-006    6.9905e-006     -0.30596        -0.00056       
  -0.45           -6.8412e-006    6.8405e-006     -0.31864        -0.00054       
  -0.44           -6.6881e-006    6.6885e-006     -0.32424        -0.00052       
  -0.43           -6.5364e-006    6.5353e-006     -0.32034        -0.0005        
  -0.42           -6.3844e-006    6.3842e-006     -0.3265         -0.00048       
  -0.41           -6.2325e-006    6.2336e-006     -0.33638        -0.00046       
  -0.4            -6.0806e-006    6.0812e-006     -0.3337         -0.0005        
  -0.39           -5.9298e-006    5.9284e-006     -0.3317         -0.00048       
  -0.38           -5.7779e-006    5.7771e-006     -0.34066        -0.0005        
  -0.37           -5.6242e-006    5.6256e-006     -0.34318        -0.00046       
  -0.36           -5.4738e-006    5.4732e-006     -0.33582        -0.00046       
  -0.35           -5.3223e-006    5.322e-006      -0.33866        -0.00046       
  -0.34           -5.1697e-006    5.1713e-006     -0.3455         -0.00044       
  -0.33           -5.0169e-006    5.0177e-006     -0.33986        -0.00044       
  -0.32           -4.8661e-006    4.8647e-006     -0.33512        -0.0004        
  -0.31           -4.7153e-006    4.7145e-006     -0.34146        -0.00038       
  -0.3            -4.562e-006     4.5632e-006     -0.34136        -0.0004        
  -0.29           -4.41e-006      4.4096e-006     -0.33148        -0.0004        
  -0.28           -4.2577e-006    4.2581e-006     -0.33202        -0.00036       
  -0.27           -4.105e-006     4.1067e-006     -0.33658        -0.00036       
  -0.26           -3.9542e-006    3.9547e-006     -0.32864        -0.00034       
  -0.25           -3.8033e-006    3.8018e-006     -0.32174        -0.00032       
  -0.24           -3.6507e-006    3.6498e-006     -0.32604        -0.00032       
  -0.23           -3.4977e-006    3.4988e-006     -0.32404        -0.00034       
  -0.22           -3.3467e-006    3.346e-006      -0.31228        -0.00034       
  -0.21           -3.1939e-006    3.1944e-006     -0.3106         -0.0003        
  -0.2            -3.0418e-006    3.0428e-006     -0.31362        -0.0003        
  -0.19           -2.8891e-006    2.8903e-006     -0.3041         -0.00028       
  -0.18           -2.7379e-006    2.7368e-006     -0.29518        -0.0003        
  -0.17           -2.5864e-006    2.586e-006      -0.29722        -0.0003        
  -0.16           -2.4334e-006    2.4348e-006     -0.29432        -0.00026       
  -0.15           -2.2817e-006    2.2806e-006     -0.28094        -0.00024       
  -0.14           -2.129e-006     2.129e-006      -0.27668        -0.00024       
  -0.13           -1.9766e-006    1.9776e-006     -0.27892        -0.0002        
  -0.12           -1.8241e-006    1.8262e-006     -0.2691         -0.0002        
  -0.11           -1.6735e-006    1.6727e-006     -0.25804        -0.0002        
  -0.1            -1.521e-006     1.5208e-006     -0.2586         -0.0002        
  -0.09           -1.3683e-006    1.3692e-006     -0.2547         -0.0002        
  -0.08           -1.2165e-006    1.2167e-006     -0.24024        -0.00016       
  -0.07           -1.0645e-006    1.0647e-006     -0.23408        -0.00018       
  -0.06           -9.1276e-007    9.1195e-007     -0.21956        -0.0002        
  -0.05           -7.5971e-007    7.6057e-007     -0.218          -0.0002        
  -0.04           -6.0748e-007    6.0806e-007     -0.20448        -0.00016       
  -0.03           -4.565e-007     4.5623e-007     -0.19624        -0.00016       
  -0.02           -3.04e-007      3.0476e-007     -0.19802        -0.00016       
  -0.01           -1.5202e-007    1.5236e-007     -0.18892        -0.00012       
  0               7.4227e-010     -7.725e-010     -0.12608        -0.00016       
  0.01            1.5303e-007     -1.5333e-007    -0.07146        -0.00012       
  0.02            3.0545e-007     -3.0488e-007    -0.0747         -8e-005        
  0.03            4.5625e-007     -4.5557e-007    -0.06564        -4e-005        
  0.04            6.0848e-007     -6.0907e-007    -0.0576         -6e-005        
  0.05            7.6066e-007     -7.6099e-007    -0.06084        0              
  0.06            9.1262e-007     -9.1261e-007    -0.05774        2e-005         
  0.07            1.06512e-006    -1.06539e-006   -0.0448         2e-005         
  0.08            1.2162e-006     -1.2157e-006    -0.00442        -2e-005        
  0.09            1.3687e-006     -1.369e-006     -0.00026        0              
  0.1             1.5214e-006     -1.5205e-006    -0.00446        -2e-005        
  0.11            1.6721e-006     -1.6724e-006    0.00238         0              
  0.12            1.8236e-006     -1.8238e-006    0.0135          2e-005         
  0.13            1.9764e-006     -1.9766e-006    0.01302         2e-005         
  0.14            2.1287e-006     -2.1274e-006    0.01336         2e-005         
  0.15            2.2805e-006     -2.2795e-006    0.0252          2e-005         
  0.16            2.4328e-006     -2.433e-006     0.03274         8e-005         
  0.17            2.5839e-006     -2.5822e-006    0.0302          4e-005         
  0.18            2.7348e-006     -2.7348e-006    0.03656         8e-005         
  0.19            2.8877e-006     -2.8874e-006    0.05032         0.00012        
  0.2             3.0397e-006     -3.0401e-006    0.05308         0.00014        
  0.21            3.1924e-006     -3.192e-006     0.05314         0.0001         
  0.22            3.3428e-006     -3.3421e-006    0.06508         0.00014        
  0.23            3.4954e-006     -3.4954e-006    0.07548         0.00014        
  0.24            3.6476e-006     -3.6484e-006    0.07516         0.00014        
  0.25            3.7987e-006     -3.7986e-006    0.08054         0.00014        
  0.26            3.9511e-006     -3.9515e-006    0.09578         0.00014        
  0.27            4.1035e-006     -4.1026e-006    0.10182         0.00014        
  0.28            4.255e-006      -4.2541e-006    0.1015          0.00014        
  0.29            4.4066e-006     -4.4054e-006    0.11286         0.00018        
  0.3             4.558e-006      -4.5581e-006    0.12608         0.00018        
  0.31            4.7099e-006     -4.7097e-006    0.1268          0.00018        
  0.32            4.861e-006      -4.8606e-006    0.13212         0.00018        
  0.33            5.0131e-006     -5.0126e-006    0.14774         0.00022        
  0.34            5.1662e-006     -5.1651e-006    0.15574         0.00026        
  0.35            5.3179e-006     -5.3177e-006    0.15556         0.00026        
  0.36            5.4669e-006     -5.4668e-006    0.16664         0.00026        
  0.37            5.6201e-006     -5.619e-006     0.18134         0.00028        
  0.38            5.7728e-006     -5.7728e-006    0.18414         0.00028        
  0.39            5.9241e-006     -5.9233e-006    0.18812         0.00024        
  0.4             6.0751e-006     -6.074e-006     0.20374         0.00028        
  0.41            6.2274e-006     -6.2268e-006    0.2135          0.0003         
  0.42            6.3788e-006     -6.3776e-006    0.21378         0.00032        
  0.43            6.5297e-006     -6.5289e-006    0.22392         0.00032        
  0.44            6.6817e-006     -6.6815e-006    0.24002         0.00032        
  0.45            6.834e-006      -6.8349e-006    0.24402         0.00034        
  0.46            6.9857e-006     -6.9853e-006    0.24758         0.00038        
  0.47            7.1362e-006     -7.1351e-006    0.26292         0.00038        
  0.48            7.2888e-006     -7.2888e-006    0.2739          0.00034        
  0.49            7.4413e-006     -7.4403e-006    0.2749          0.0004         
  0.5             7.5916e-006     -7.5918e-006    0.28472         0.00042        
END_DB

