! VERSION = 6.00
BEGIN_HEADER
 ICCAP_INPUTS
  VU1        V  E GROUND SMU4 0.1 CON        0
  VU2        V  S GROUND SMU2 0.1 CON        0
  VN         V  B GROUND SMU1 0.015 CON        0
  VP         V  C GROUND SMU3 0.015 LIN        1    -0.5       0.5        101  0.01      
 ICCAP_OUTPUTS
  IP         I  C GROUND SMU3 B
  IN         I  B GROUND SMU1 B
END_HEADER

BEGIN_DB
 ICCAP_VAR VU1        0              
 ICCAP_VAR VU2        0              
 ICCAP_VAR VN         0              

 #VP              IP              IN             
  -0.5            -9.7052e-005    9.7062e-005    
  -0.49           -9.51e-005      9.5122e-005    
  -0.48           -9.3158e-005    9.3173e-005    
  -0.47           -9.1227e-005    9.1244e-005    
  -0.46           -8.9286e-005    8.9308e-005    
  -0.45           -8.7345e-005    8.736e-005     
  -0.44           -8.5401e-005    8.5418e-005    
  -0.43           -8.3472e-005    8.3491e-005    
  -0.42           -8.153e-005     8.1549e-005    
  -0.41           -7.9587e-005    7.9601e-005    
  -0.4            -7.764e-005     7.7659e-005    
  -0.39           -7.5698e-005    7.5718e-005    
  -0.38           -7.3773e-005    7.3786e-005    
  -0.37           -7.1827e-005    7.1846e-005    
  -0.36           -6.9885e-005    6.9901e-005    
  -0.35           -6.7941e-005    6.7958e-005    
  -0.34           -6.5994e-005    6.6014e-005    
  -0.33           -6.4067e-005    6.4086e-005    
  -0.32           -6.2127e-005    6.214e-005     
  -0.31           -6.0179e-005    6.0196e-005    
  -0.3            -5.8234e-005    5.8254e-005    
  -0.29           -5.6289e-005    5.6309e-005    
  -0.28           -5.4361e-005    5.4382e-005    
  -0.27           -5.2417e-005    5.2434e-005    
  -0.26           -5.0473e-005    5.0492e-005    
  -0.25           -4.8529e-005    4.8544e-005    
  -0.24           -4.6597e-005    4.6619e-005    
  -0.23           -4.4655e-005    4.4674e-005    
  -0.22           -4.2717e-005    4.2727e-005    
  -0.21           -4.0766e-005    4.0784e-005    
  -0.2            -3.8821e-005    3.8838e-005    
  -0.19           -3.6893e-005    3.6911e-005    
  -0.18           -3.4948e-005    3.4966e-005    
  -0.17           -3.3e-005       3.3022e-005    
  -0.16           -3.1058e-005    3.1073e-005    
  -0.15           -2.9115e-005    2.9133e-005    
  -0.14           -2.7181e-005    2.7204e-005    
  -0.13           -2.524e-005     2.5255e-005    
  -0.12           -2.3292e-005    2.3311e-005    
  -0.11           -2.1349e-005    2.1365e-005    
  -0.1            -1.9403e-005    1.9422e-005    
  -0.09           -1.7475e-005    1.7485e-005    
  -0.08           -1.5526e-005    1.5545e-005    
  -0.07           -1.3583e-005    1.3601e-005    
  -0.06           -1.1641e-005    1.1655e-005    
  -0.05           -9.7128e-006    9.72e-006      
  -0.04           -7.7678e-006    7.7693e-006    
  -0.03           -5.8213e-006    5.8251e-006    
  -0.02           -3.8748e-006    3.8779e-006    
  -0.01           -1.9303e-006    1.9312e-006    
  0               9.987e-011      -6.033e-011    
  0.01            1.9468e-006     -1.9431e-006   
  0.02            3.8888e-006     -3.8896e-006   
  0.03            5.8368e-006     -5.8323e-006   
  0.04            7.7655e-006     -7.7669e-006   
  0.05            9.7116e-006     -9.7102e-006   
  0.06            1.1665e-005     -1.1648e-005   
  0.07            1.361e-005      -1.3594e-005   
  0.08            1.5555e-005     -1.5539e-005   
  0.09            1.7486e-005     -1.7471e-005   
  0.1             1.9434e-005     -1.9415e-005   
  0.11            2.138e-005      -2.1359e-005   
  0.12            2.3325e-005     -2.3307e-005   
  0.13            2.5271e-005     -2.5258e-005   
  0.14            2.7204e-005     -2.7187e-005   
  0.15            2.9152e-005     -2.9133e-005   
  0.16            3.109e-005      -3.1077e-005   
  0.17            3.3039e-005     -3.302e-005    
  0.18            3.4985e-005     -3.4968e-005   
  0.19            3.6913e-005     -3.69e-005     
  0.2             3.8862e-005     -3.8844e-005   
  0.21            4.081e-005      -4.0793e-005   
  0.22            4.2756e-005     -4.2739e-005   
  0.23            4.4701e-005     -4.4686e-005   
  0.24            4.6638e-005     -4.6616e-005   
  0.25            4.8577e-005     -4.8566e-005   
  0.26            5.0528e-005     -5.0511e-005   
  0.27            5.2477e-005     -5.2455e-005   
  0.28            5.4421e-005     -5.4404e-005   
  0.29            5.6352e-005     -5.6337e-005   
  0.3             5.8299e-005     -5.8283e-005   
  0.31            6.0247e-005     -6.0233e-005   
  0.32            6.2189e-005     -6.218e-005    
  0.33            6.4126e-005     -6.4109e-005   
  0.34            6.607e-005      -6.6057e-005   
  0.35            6.8018e-005     -6.8006e-005   
  0.36            6.9966e-005     -6.9952e-005   
  0.37            7.1915e-005     -7.1897e-005   
  0.38            7.3848e-005     -7.3832e-005   
  0.39            7.5795e-005     -7.5776e-005   
  0.4             7.7745e-005     -7.7727e-005   
  0.41            7.9689e-005     -7.9675e-005   
  0.42            8.1639e-005     -8.1625e-005   
  0.43            8.3573e-005     -8.3551e-005   
  0.44            8.5519e-005     -8.5506e-005   
  0.45            8.747e-005      -8.7452e-005   
  0.46            8.942e-005      -8.9404e-005   
  0.47            9.1368e-005     -9.1346e-005   
  0.48            9.3303e-005     -9.3283e-005   
  0.49            9.5254e-005     -9.5228e-005   
  0.5             9.7206e-005     -9.7178e-005   
END_DB

