! VERSION = 6.00
BEGIN_HEADER
 ICCAP_INPUTS
  VU1        V  E GROUND SMU1 0.1 CON        0
  VU2        V  S GROUND SMU3 0.1 CON        0
  VN         V  B GROUND SMU2 0.025 CON        0
  VP         V  C GROUND SMU4 0.025 LIN        1    -0.6       0.6        121  0.01      
 ICCAP_OUTPUTS
  IP         I  C GROUND SMU4 B
  IN         I  B GROUND SMU2 B
END_HEADER

BEGIN_DB
 ICCAP_VAR VU1        0              
 ICCAP_VAR VU2        0              
 ICCAP_VAR VN         0              

 #VP              IP              IN             
  -0.6            6.071e-011      3.5176e-010    
  -0.59           -2.2628e-010    2.0673e-010    
  -0.58           -1.812e-010     -2.5011e-010   
  -0.57           -1.1637e-010    -3.6941e-010   
  -0.56           -5.832e-011     -3.6452e-010   
  -0.55           2.1975e-010     -2.1821e-010   
  -0.54           -3.5548e-010    8.101e-011     
  -0.53           -6.914e-011     -3.7969e-010   
  -0.52           3.2418e-010     -2.4778e-010   
  -0.51           1.2145e-010     3.6037e-010    
  -0.5            6.267e-011      3.6871e-010    
  -0.49           -3.3514e-010    2.3125e-010    
  -0.48           -1.1619e-010    -3.7188e-010   
  -0.47           -5.86e-011      -3.6379e-010   
  -0.46           2.1975e-010     -2.1781e-010   
  -0.45           -3.5493e-010    8.111e-011     
  -0.44           -6.888e-011     -3.7979e-010   
  -0.43           3.2528e-010     -2.4657e-010   
  -0.42           1.2088e-010     3.6087e-010    
  -0.41           6.295e-011      3.6934e-010    
  -0.4            -3.3543e-010    2.3018e-010    
  -0.39           -1.1583e-010    -3.72e-010     
  -0.38           -5.832e-011     -3.6337e-010   
  -0.37           2.2042e-010     -2.1685e-010   
  -0.36           -3.5516e-010    8.132e-011     
  -0.35           -6.828e-011     -3.7813e-010   
  -0.34           3.2598e-010     -2.4503e-010   
  -0.33           1.1985e-010     3.627e-010     
  -0.32           6.211e-011      3.679e-010     
  -0.31           -3.3696e-010    2.2697e-010    
  -0.3            -1.1508e-010    -3.7283e-010   
  -0.29           -5.762e-011     -3.6227e-010   
  -0.28           2.2158e-010     -2.1593e-010   
  -0.27           -3.5447e-010    7.93e-011      
  -0.26           -6.771e-011     -3.7732e-010   
  -0.25           3.2803e-010     -2.4159e-010   
  -0.24           1.1927e-010     3.642e-010     
  -0.23           6.113e-011      3.6689e-010    
  -0.22           -3.384e-010     2.2442e-010    
  -0.21           -1.137e-010     -3.7439e-010   
  -0.2            -5.7e-011       -3.6088e-010   
  -0.19           2.2239e-010     -2.1339e-010   
  -0.18           -3.4841e-010    7.02e-011      
  -0.17           -5.921e-011     -3.6437e-010   
  -0.16           3.425e-010      -2.1989e-010   
  -0.15           1.1137e-010     3.7851e-010    
  -0.14           5.398e-011      3.5143e-010    
  -0.13           -2.2684e-010    2.0635e-010    
  -0.12           -1.7967e-010    -2.5293e-010   
  -0.11           -1.1563e-010    -3.7134e-010   
  -0.1            -5.818e-011     -3.6326e-010   
  -0.09           2.2014e-010     -2.1633e-010   
  -0.08           -3.545e-010     8.014e-011     
  -0.07           -6.82e-011      -3.791e-010    
  -0.06           3.2734e-010     -2.4398e-010   
  -0.05           1.1949e-010     3.6275e-010    
  -0.04           6.169e-011      3.6772e-010    
  -0.03           -3.367e-010     2.2679e-010    
  -0.02           -1.1395e-010    -3.7328e-010   
  -0.01           -5.687e-011     -3.6063e-010   
  0               -3.3287e-010    1.2835e-010    
  0.01            -1.0957e-010    -3.8119e-010   
  0.02            -5.275e-011     -3.5226e-010   
  0.03            2.2798e-010     -2.0318e-010   
  0.04            -3.5051e-010    7.313e-011     
  0.05            -6.156e-011     -3.6953e-010   
  0.06            2.1568e-010     -2.2553e-010   
  0.07            -3.5653e-010    8.461e-011     
  0.08            -7.174e-011     -3.8223e-010   
  0.09            -1.252e-011     -2.5215e-010   
  0.1             2.9901e-010     -1.4892e-010   
  0.11            1.3178e-010     3.3326e-010    
  0.12            7.49e-011       3.8269e-010    
  0.13            2.01e-011       2.6086e-010    
  0.14            -2.9083e-010    1.5399e-010    
  0.15            -1.3422e-010    -3.2548e-010   
  0.16            -7.962e-011     -3.888e-010    
  0.17            -2.33e-011      -2.7386e-010   
  0.18            2.8363e-010     -1.5721e-010   
  0.19            1.3835e-010     3.1525e-010    
  0.2             8.419e-011      3.8829e-010    
  0.21            3.231e-011      2.8213e-010    
  0.22            -2.7208e-010    1.6053e-010    
  0.23            -1.3736e-010    -3.0728e-010   
  0.24            -8.229e-011     -3.9227e-010   
  0.25            -2.603e-011     -2.9681e-010   
  0.26            2.7772e-010     -1.6695e-010   
  0.27            1.6189e-010     2.9522e-010    
  0.28            1.1517e-010     3.8751e-010    
  0.29            7.348e-011      2.9988e-010    
  0.3             -1.293e-011     1.6573e-010    
  0.31            -2.8153e-010    1.048e-010     
  0.32            2.9813e-010     -4.0289e-010   
  0.33            1.082e-011      9.509e-011     
  0.34            -4.82e-012      2.536e-011     
  0.35            2.9775e-010     -3.0127e-010   
  0.36            1.9566e-010     3.0317e-010    
  0.37            6.534e-010      -1.0704e-010   
  0.38            9.189e-010      1.013e-011     
  0.39            1.1652e-009     -2.9484e-010   
  0.4             1.9032e-009     -4.3709e-010   
  0.41            3.0157e-009     -6.0896e-010   
  0.42            4.5825e-009     -8.4347e-010   
  0.43            7.0209e-009     -9.786e-010    
  0.44            1.02938e-008    -1.3552e-009   
  0.45            1.4788e-008     -2.0889e-009   
  0.46            2.2583e-008     -2.5796e-009   
  0.47            3.2199e-008     -3.6568e-009   
  0.48            4.7416e-008     -5.5798e-009   
  0.49            6.9879e-008     -8.8379e-009   
  0.5             1.0306e-007     -1.2218e-008   
  0.51            1.5136e-007     -1.8683e-008   
  0.52            2.2166e-007     -2.7372e-008   
  0.53            3.2792e-007     -4.0226e-008   
  0.54            4.803e-007      -5.9221e-008   
  0.55            7.0385e-007     -8.7732e-008   
  0.56            1.03648e-006    -1.2913e-007   
  0.57            1.5294e-006     -1.9074e-007   
  0.58            2.2518e-006     -2.7961e-007   
  0.59            3.3118e-006     -4.126e-007    
  0.6             4.8584e-006     -6.0431e-007   
END_DB

