! VERSION = 6.00
BEGIN_HEADER
 ICCAP_INPUTS
  VU1        V  E GROUND SMU4 0.1 CON        0
  VU2        V  S GROUND SMU1 0.1 CON        0
  VN         V  B GROUND SMU2 0.015 CON        0
  VP         V  C GROUND SMU3 0.015 LIN        1    -0.6       0.6        121  0.01      
 ICCAP_OUTPUTS
  IP         I  C GROUND SMU3 B
  IN         I  B GROUND SMU2 B
END_HEADER

BEGIN_DB
 ICCAP_VAR VU1        0              
 ICCAP_VAR VU2        0              
 ICCAP_VAR VN         0              

 #VP              IP              IN             
  -0.6            -9.2985e-006    9.2324e-006    
  -0.59           -6.3683e-006    6.3256e-006    
  -0.58           -4.357e-006     4.3255e-006    
  -0.57           -3.0086e-006    2.9567e-006    
  -0.56           -2.0363e-006    2.0141e-006    
  -0.55           -1.4238e-006    1.3704e-006    
  -0.54           -9.8102e-007    9.3303e-007    
  -0.53           -6.7903e-007    6.3827e-007    
  -0.52           -4.6452e-007    4.3306e-007    
  -0.51           -3.4701e-007    2.9523e-007    
  -0.5            -2.2282e-007    2.0069e-007    
  -0.49           -1.8739e-007    1.3556e-007    
  -0.48           -1.1576e-007    9.009e-008     
  -0.47           -9.585e-008     6.5137e-008    
  -0.46           -8.6222e-008    4.278e-008     
  -0.45           -4.6031e-008    2.9244e-008    
  -0.44           -6.2722e-008    1.9413e-008    
  -0.43           -2.9977e-008    1.409e-008     
  -0.42           -5.0144e-008    1.0824e-008    
  -0.41           -2.7901e-008    4.0224e-009    
  -0.4            -1.3933e-008    6.2285e-009    
  -0.39           -3.4794e-008    7.099e-010     
  -0.38           -1.0258e-008    3.8594e-009    
  -0.37           -2.5653e-008    2.5492e-009    
  -0.36           -1.4907e-008    -1.2816e-009   
  -0.35           -1.3709e-008    -1.4968e-009   
  -0.34           -1.4016e-008    -1.7945e-009   
  -0.33           -1.7459e-008    -1.8195e-009   
  -0.32           -1.4592e-008    -1.9464e-009   
  -0.31           -1.4546e-008    -2.0008e-009   
  -0.3            -1.3511e-008    -1.1924e-009   
  -0.29           -1.1184e-008    -1.3927e-009   
  -0.28           -4.219e-009     1.7902e-009    
  -0.27           -6.797e-009     -8.98e-010     
  -0.26           -5.1787e-009    -1.2461e-009   
  -0.25           -3.3647e-009    -1.808e-009    
  -0.24           3.146e-010      -2.0071e-009   
  -0.23           1.0934e-009     -1.9023e-009   
  -0.22           1.6562e-009     -1.9148e-009   
  -0.21           1.5611e-009     -1.6587e-009   
  -0.2            1.9645e-009     -1.8414e-009   
  -0.19           1.8564e-009     -1.9095e-009   
  -0.18           1.7393e-009     -1.9148e-009   
  -0.17           1.5999e-009     -1.7457e-009   
  -0.16           1.9644e-009     -1.8852e-009   
  -0.15           1.8429e-009     -1.9127e-009   
  -0.14           1.7079e-009     -1.6321e-009   
  -0.13           2.0539e-009     -1.8279e-009   
  -0.12           1.9203e-009     -1.903e-009    
  -0.11           1.7927e-009     -1.9099e-009   
  -0.1            1.6487e-009     -1.7228e-009   
  -0.09           1.996e-009      -1.8739e-009   
  -0.08           1.8711e-009     -1.9093e-009   
  -0.07           1.7343e-009     -1.6066e-009   
  -0.06           2.077e-009      -1.813e-009    
  -0.05           1.944e-009      -1.8979e-009   
  -0.04           1.8124e-009     -1.9077e-009   
  -0.03           1.6695e-009     -1.7037e-009   
  -0.02           2.0144e-009     -1.8634e-009   
  -0.01           1.8851e-009     -1.9065e-009   
  0               3.067e-010      -1.8183e-009   
  0.01            1.9346e-009     -1.9035e-009   
  0.02            1.8041e-009     -1.9067e-009   
  0.03            1.6582e-009     -1.7281e-009   
  0.04            2.0037e-009     -1.8676e-009   
  0.05            1.8767e-009     -1.9076e-009   
  0.06            1.7406e-009     -1.6047e-009   
  0.07            2.0928e-009     -1.8085e-009   
  0.08            1.9516e-009     -1.8968e-009   
  0.09            1.8201e-009     -1.9084e-009   
  0.1             1.6759e-009     -1.7009e-009   
  0.11            2.0193e-009     -1.8636e-009   
  0.12            1.8917e-009     -1.9083e-009   
  0.13            1.7565e-009     -1.5822e-009   
  0.14            2.1068e-009     -1.7936e-009   
  0.15            1.9651e-009     -1.8963e-009   
  0.16            1.8326e-009     -1.907e-009    
  0.17            1.6846e-009     -1.682e-009    
  0.18            2.0323e-009     -1.8499e-009   
  0.19            1.9028e-009     -1.9057e-009   
  0.2             1.7671e-009     -1.5624e-009   
  0.21            2.1207e-009     -1.7688e-009   
  0.22            1.9718e-009     -1.8914e-009   
  0.23            1.8468e-009     -1.9052e-009   
  0.24            1.701e-009      -1.6585e-009   
  0.25            2.0506e-009     -1.8436e-009   
  0.26            1.9193e-009     -1.9027e-009   
  0.27            1.7808e-009     -1.5459e-009   
  0.28            2.1428e-009     -1.7536e-009   
  0.29            1.9878e-009     -1.8862e-009   
  0.3             1.8582e-009     -1.9061e-009   
  0.31            1.72e-009       -1.6382e-009   
  0.32            2.0693e-009     -1.8333e-009   
  0.33            1.9314e-009     -1.9035e-009   
  0.34            1.7981e-009     -1.9113e-009   
  0.35            1.6498e-009     -1.7394e-009   
  0.36            2.0015e-009     -1.8786e-009   
  0.37            1.8787e-009     -1.9091e-009   
  0.38            1.7411e-009     -1.6224e-009   
  0.39            2.0806e-009     -1.8204e-009   
  0.4             1.9478e-009     -1.9054e-009   
  0.41            1.8168e-009     -1.9132e-009   
  0.42            1.67e-009       -1.7208e-009   
  0.43            2.0211e-009     -1.8771e-009   
  0.44            1.8915e-009     -1.9097e-009   
  0.45            1.7526e-009     -1.6019e-009   
  0.46            2.0942e-009     -1.8074e-009   
  0.47            1.959e-009      -1.9038e-009   
  0.48            1.8272e-009     -1.9113e-009   
  0.49            1.6879e-009     -1.7046e-009   
  0.5             2.0305e-009     -1.8668e-009   
  0.51            1.9019e-009     -1.9138e-009   
  0.52            1.7639e-009     -1.5858e-009   
  0.53            2.1153e-009     -1.7968e-009   
  0.54            1.9712e-009     -1.8977e-009   
  0.55            1.8439e-009     -1.9064e-009   
  0.56            1.7015e-009     -1.6892e-009   
  0.57            2.043e-009      -1.8596e-009   
  0.58            1.9139e-009     -1.9054e-009   
  0.59            1.7775e-009     -1.5695e-009   
  0.6             2.1293e-009     -1.7804e-009   
END_DB

