! VERSION = 6.00
BEGIN_HEADER
 ICCAP_INPUTS
  VU1        V  E GROUND SMU1 0.1 CON        0
  VU2        V  S GROUND SMU3 0.1 CON        0
  VN         V  B GROUND SMU2 0.025 CON        0
  VP         V  C GROUND SMU4 0.025 LIN        1    -0.6       0.6        121  0.01      
 ICCAP_OUTPUTS
  IP         I  C GROUND SMU4 B
  IN         I  B GROUND SMU2 B
END_HEADER

BEGIN_DB
 ICCAP_VAR VU1        0              
 ICCAP_VAR VU2        0              
 ICCAP_VAR VN         0              

 #VP              IP              IN             
  -0.6            -1.2219e-010    -3.6911e-010   
  -0.59           -5.829e-011     -3.6478e-010   
  -0.58           2.2026e-010     -2.1631e-010   
  -0.57           -3.5654e-010    8.119e-011     
  -0.56           -6.895e-011     -3.8048e-010   
  -0.55           3.2582e-010     -2.4426e-010   
  -0.54           1.1978e-010     3.6202e-010    
  -0.53           6.221e-011      3.696e-010     
  -0.52           -3.3622e-010    2.2957e-010    
  -0.51           -1.1517e-010    -3.7324e-010   
  -0.5            -5.793e-011     -3.6378e-010   
  -0.49           2.2051e-010     -2.1562e-010   
  -0.48           -3.5613e-010    8.026e-011     
  -0.47           -6.859e-011     -3.7975e-010   
  -0.46           3.2614e-010     -2.4282e-010   
  -0.45           1.1935e-010     3.631e-010     
  -0.44           6.103e-011      3.679e-010     
  -0.43           -3.376e-010     2.2641e-010    
  -0.42           -1.1435e-010    -3.734e-010    
  -0.41           -5.683e-011     -3.6288e-010   
  -0.4            2.2159e-010     -2.1342e-010   
  -0.39           -3.5477e-010    7.962e-011     
  -0.38           -6.745e-011     -3.7848e-010   
  -0.37           3.2836e-010     -2.4125e-010   
  -0.36           1.1863e-010     3.6382e-010    
  -0.35           6.102e-011      3.6624e-010    
  -0.34           -3.3839e-010    2.2444e-010    
  -0.33           -1.1383e-010    -3.7444e-010   
  -0.32           -5.611e-011     -3.6167e-010   
  -0.31           2.2266e-010     -2.1291e-010   
  -0.3            -3.5603e-010    7.936e-011     
  -0.29           -6.702e-011     -3.7849e-010   
  -0.28           3.2933e-010     -2.4022e-010   
  -0.27           1.1846e-010     3.6468e-010    
  -0.26           6.049e-011      3.6522e-010    
  -0.25           -3.3898e-010    2.2366e-010    
  -0.24           -1.1306e-010    -3.7548e-010   
  -0.23           -5.615e-011     -3.6065e-010   
  -0.22           2.2292e-010     -2.116e-010    
  -0.21           -3.5481e-010    7.837e-011     
  -0.2            -6.683e-011     -3.7788e-010   
  -0.19           3.2936e-010     -2.3824e-010   
  -0.18           1.178e-010      3.6552e-010    
  -0.17           6.017e-011      3.6431e-010    
  -0.16           -3.3955e-010    2.229e-010     
  -0.15           -1.1275e-010    -3.7543e-010   
  -0.14           -5.651e-011     -3.5969e-010   
  -0.13           2.2351e-010     -2.1106e-010   
  -0.12           -3.4894e-010    6.99e-011      
  -0.11           -5.92e-011      -3.6567e-010   
  -0.1            2.1888e-010     -2.1955e-010   
  -0.09           -3.5702e-010    8.183e-011     
  -0.08           -6.956e-011     -3.8189e-010   
  -0.07           3.2311e-010     -2.4802e-010   
  -0.06           1.2142e-010     3.5914e-010    
  -0.05           6.399e-011      3.695e-010     
  -0.04           -3.3339e-010    2.3178e-010    
  -0.03           -1.1591e-010    -3.6962e-010   
  -0.02           -5.942e-011     -3.6545e-010   
  -0.01           2.1928e-010     -2.1851e-010   
  0               1.6272e-010     2.6515e-010    
  0.01            1.065e-010      3.8336e-010    
  0.02            5.012e-011      3.3954e-010    
  0.03            -2.3437e-010    1.9531e-010    
  0.04            -1.7173e-010    -2.6034e-010   
  0.05            -1.1157e-010    -3.7784e-010   
  0.06            -5.523e-011     -3.5596e-010   
  0.07            2.2493e-010     -2.0663e-010   
  0.08            -3.4602e-010    6.824e-011     
  0.09            -2.0425e-010    -2.3466e-010   
  0.1             -1.2586e-010    -3.4627e-010   
  0.11            -7.007e-011     -3.8293e-010   
  0.12            3.2372e-010     -2.4742e-010   
  0.13            1.2157e-010     3.5911e-010    
  0.14            6.422e-011      3.6909e-010    
  0.15            -3.3307e-010    2.3235e-010    
  0.16            -1.1559e-010    -3.6981e-010   
  0.17            -5.867e-011     -3.6629e-010   
  0.18            2.1973e-010     -2.1934e-010   
  0.19            -3.5115e-010    7.352e-011     
  0.2             -6.133e-011     -3.7212e-010   
  0.21            3.3831e-010     -2.2857e-010   
  0.22            1.1713e-010     3.7164e-010    
  0.23            6.137e-011      3.5633e-010    
  0.24            -3.3951e-010    2.1187e-010    
  0.25            -1.0167e-010    -3.8295e-010   
  0.26            -4.138e-011     -3.5331e-010   
  0.27            2.4613e-010     -2.048e-010    
  0.28            -3.2641e-010    7.086e-011     
  0.29            -2.692e-011     -3.769e-010    
  0.3             2.6742e-010     -2.3633e-010   
  0.31            -2.8165e-010    7.636e-011     
  0.32            3.2402e-010     -4.0125e-010   
  0.33            -1.701e-011     6.601e-011     
  0.34            -1.407e-011     -2.4614e-010   
  0.35            3.2612e-010     -3.5371e-010   
  0.36            1.5587e-010     2.1938e-010    
  0.37            7.112e-010      -8.794e-011    
  0.38            9.746e-010      -1.195e-011    
  0.39            1.2018e-009     -3.1326e-010   
  0.4             1.9128e-009     -4.8666e-010   
  0.41            3.0176e-009     -7.1351e-010   
  0.42            4.6302e-009     -1.00278e-009  
  0.43            6.9133e-009     -1.044e-009    
  0.44            1.0202e-008     -1.5969e-009   
  0.45            1.5315e-008     -2.3267e-009   
  0.46            2.2181e-008     -3.5237e-009   
  0.47            3.3093e-008     -5.1331e-009   
  0.48            4.7791e-008     -7.6015e-009   
  0.49            7.1085e-008     -1.12577e-008  
  0.5             1.0547e-007     -1.7229e-008   
  0.51            1.5365e-007     -2.5134e-008   
  0.52            2.2753e-007     -3.727e-008    
  0.53            3.3298e-007     -5.485e-008    
  0.54            4.8916e-007     -8.0595e-008   
  0.55            7.1807e-007     -1.1839e-007   
  0.56            1.05836e-006    -1.7441e-007   
  0.57            1.5636e-006     -2.5754e-007   
  0.58            2.2962e-006     -3.7955e-007   
  0.59            3.3785e-006     -5.5822e-007   
  0.6             4.9538e-006     -8.1943e-007   
END_DB

