! VERSION = 6.00
BEGIN_HEADER
 ICCAP_INPUTS
  VU1        V  E GROUND SMU1 0.1 CON        0
  VU2        V  S GROUND SMU3 0.1 CON        0
  VN         V  B GROUND SMU2 0.025 CON        0
  VP         V  C GROUND SMU4 0.025 LIN        1    -0.6       0.6        121  0.01      
 ICCAP_OUTPUTS
  IP         I  C GROUND SMU4 B
  IN         I  B GROUND SMU2 B
END_HEADER

BEGIN_DB
 ICCAP_VAR VU1        0              
 ICCAP_VAR VU2        0              
 ICCAP_VAR VN         0              

 #VP              IP              IN             
  -0.6            -3.617e-011     -2.823e-010    
  -0.59           2.7811e-010     -1.6074e-010   
  -0.58           1.3869e-010     3.1037e-010    
  -0.57           8.404e-011      3.8646e-010    
  -0.56           3.101e-011      2.8558e-010    
  -0.55           -2.73e-010      1.6293e-010    
  -0.54           -1.4441e-010    -3.059e-010    
  -0.53           -9.019e-011     -3.9245e-010   
  -0.52           -3.565e-011     -3.0143e-010   
  -0.51           2.6267e-010     -1.694e-010    
  -0.5            1.4632e-010     2.9351e-010    
  -0.49           9.208e-011      3.8764e-010    
  -0.48           3.89e-011       3.0607e-010    
  -0.47           -2.5828e-010    1.7314e-010    
  -0.46           -1.5274e-010    -2.8997e-010   
  -0.45           -9.813e-011     -3.9212e-010   
  -0.44           -4.227e-011     -3.2366e-010   
  -0.43           2.4861e-010     -1.8074e-010   
  -0.42           1.5461e-010     2.7736e-010    
  -0.41           9.998e-011      3.8566e-010    
  -0.4            4.474e-011      3.2482e-010    
  -0.39           -2.4495e-010    1.843e-010     
  -0.38           -1.6272e-010    -2.7431e-010   
  -0.37           -1.0531e-010    -3.869e-010    
  -0.36           -4.944e-011     -3.4078e-010   
  -0.35           2.3646e-010     -1.9269e-010   
  -0.34           1.7662e-010     2.6237e-010    
  -0.33           1.0634e-010     3.8135e-010    
  -0.32           4.979e-011      3.408e-010     
  -0.31           -2.3456e-010    1.9517e-010    
  -0.3            -1.7284e-010    -2.6251e-010   
  -0.29           -1.1176e-010    -3.7834e-010   
  -0.28           -5.437e-011     -3.5494e-010   
  -0.27           2.2643e-010     -2.0542e-010   
  -0.26           -3.5134e-010    7.325e-011     
  -0.25           -6.376e-011     -3.7157e-010   
  -0.24           3.3724e-010     -2.2829e-010   
  -0.23           1.1267e-010     3.726e-010     
  -0.22           5.484e-011      3.5518e-010    
  -0.21           -2.2574e-010    2.096e-010     
  -0.2            -1.8453e-010    -2.5041e-010   
  -0.19           -1.1859e-010    -3.6812e-010   
  -0.18           -6.067e-011     -3.6733e-010   
  -0.17           2.1843e-010     -2.2087e-010   
  -0.16           -3.5161e-010    7.3e-011       
  -0.15           -6.231e-011     -3.7037e-010   
  -0.14           2.1536e-010     -2.2704e-010   
  -0.13           -3.5749e-010    8.38e-011      
  -0.12           -7.18e-011      -3.8287e-010   
  -0.11           -1.256e-011     -2.5263e-010   
  -0.1            2.9918e-010     -1.5018e-010   
  -0.09           1.2932e-010     3.3442e-010    
  -0.08           7.366e-011      3.8047e-010    
  -0.07           1.824e-011      2.5944e-010    
  -0.06           -2.9377e-010    1.517e-010     
  -0.05           -1.349e-010     -3.2769e-010   
  -0.04           -7.949e-011     -3.8845e-010   
  -0.03           -2.378e-011     -2.7352e-010   
  -0.02           2.8336e-010     -1.5791e-010   
  -0.01           1.3619e-010     3.1563e-010    
  0               -3.3359e-010    1.3419e-010    
  0.01            -1.1724e-010    -3.7107e-010   
  0.02            -5.922e-011     -3.658e-010    
  0.03            2.1907e-010     -2.1846e-010   
  0.04            -3.5598e-010    8.099e-011     
  0.05            -6.889e-011     -3.7987e-010   
  0.06            3.262e-010      -2.4411e-010   
  0.07            1.1928e-010     3.6094e-010    
  0.08            6.048e-011      3.6473e-010    
  0.09            -3.3867e-010    2.2376e-010    
  0.1             -1.1455e-010    -3.7529e-010   
  0.11            -5.68e-011      -3.612e-010    
  0.12            2.213e-010      -2.1224e-010   
  0.13            -3.484e-010     6.899e-011     
  0.14            -2.0787e-010    -2.3483e-010   
  0.15            -1.274e-010     -3.4526e-010   
  0.16            -7.036e-011     -3.8303e-010   
  0.17            3.2238e-010     -2.5031e-010   
  0.18            1.2113e-010     3.5744e-010    
  0.19            6.324e-011      3.6834e-010    
  0.2             -3.3294e-010    2.2994e-010    
  0.21            -1.1431e-010    -3.7126e-010   
  0.22            -5.672e-011     -3.6426e-010   
  0.23            2.2338e-010     -2.1749e-010   
  0.24            -3.4432e-010    6.982e-011     
  0.25            -5.288e-011     -3.687e-010    
  0.26            2.2837e-010     -2.2231e-010   
  0.27            -3.3478e-010    7.217e-011     
  0.28            -3.886e-011     -3.7381e-010   
  0.29            2.5012e-010     -2.3096e-010   
  0.3             -3.0103e-010    6.936e-011     
  0.31            2.9933e-010     -3.8295e-010   
  0.32            -2.4261e-010    6.025e-011     
  0.33            -6.024e-011     -2.48e-010     
  0.34            2.3574e-010     -3.6106e-010   
  0.35            3.745e-010      2.3684e-010    
  0.36            4.1075e-010     9.444e-011     
  0.37            5.4597e-010     5.76e-012      
  0.38            1.1321e-009     4.085e-011     
  0.39            1.5822e-009     1.2217e-010    
  0.4             2.0361e-009     -2.3616e-010   
  0.41            3.0259e-009     -4.1436e-010   
  0.42            4.4613e-009     -6.955e-010    
  0.43            6.9984e-009     -1.2049e-009   
  0.44            1.00298e-008    -1.4089e-009   
  0.45            1.5149e-008     -1.9415e-009   
  0.46            2.1873e-008     -3.073e-009    
  0.47            3.2501e-008     -4.3729e-009   
  0.48            4.7904e-008     -7.0978e-009   
  0.49            7.02e-008       -9.8244e-009   
  0.5             1.04096e-007    -1.4721e-008   
  0.51            1.5168e-007     -2.1475e-008   
  0.52            2.2512e-007     -3.201e-008    
  0.53            3.3087e-007     -4.7702e-008   
  0.54            4.8347e-007     -7.0013e-008   
  0.55            7.096e-007      -1.02144e-007  
  0.56            1.04594e-006    -1.5079e-007   
  0.57            1.541e-006      -2.2288e-007   
  0.58            2.2724e-006     -3.2798e-007   
  0.59            3.3389e-006     -4.8284e-007   
  0.6             4.8987e-006     -7.0814e-007   
END_DB

