! VERSION = 6.00
BEGIN_HEADER
 ICCAP_INPUTS
  VU1        V  E GROUND SMU1 0.1 CON        0
  VU2        V  S GROUND SMU3 0.1 CON        0
  VN         V  B GROUND SMU2 0.025 CON        0
  VP         V  C GROUND SMU4 0.025 LIN        1    -0.6       0.6        121  0.01      
 ICCAP_OUTPUTS
  IP         I  C GROUND SMU4 B
  IN         I  B GROUND SMU2 B
END_HEADER

BEGIN_DB
 ICCAP_VAR VU1        0              
 ICCAP_VAR VU2        0              
 ICCAP_VAR VN         0              

 #VP              IP              IN             
  -0.6            9.631e-011      3.8736e-010    
  -0.59           3.654e-011      2.9862e-010    
  -0.58           -2.6422e-010    1.6855e-010    
  -0.57           -1.4999e-010    -2.9356e-010   
  -0.56           -9.542e-011     -3.9233e-010   
  -0.55           -4.135e-011     -3.1839e-010   
  -0.54           2.5111e-010     -1.7755e-010   
  -0.53           1.5284e-010     2.8058e-010    
  -0.52           9.842e-011      3.8662e-010    
  -0.51           4.439e-011      3.2442e-010    
  -0.5            -2.4699e-010    1.8252e-010    
  -0.49           -1.6215e-010    -2.7465e-010   
  -0.48           -1.0525e-010    -3.8695e-010   
  -0.47           -4.897e-011     -3.4048e-010   
  -0.46           2.3583e-010     -1.9296e-010   
  -0.45           1.6629e-010     2.6211e-010    
  -0.44           1.0848e-010     3.7855e-010    
  -0.43           5.252e-011      3.4471e-010    
  -0.42           -2.3095e-010    1.9986e-010    
  -0.41           -1.7758e-010    -2.5676e-010   
  -0.4            -1.1427e-010    -3.7456e-010   
  -0.39           -5.69e-011      -3.6096e-010   
  -0.38           2.2207e-010     -2.1451e-010   
  -0.37           -3.5448e-010    7.767e-011     
  -0.36           -6.726e-011     -3.7714e-010   
  -0.35           3.2776e-010     -2.4105e-010   
  -0.34           1.1875e-010     3.6368e-010    
  -0.33           5.999e-011      3.6373e-010    
  -0.32           -2.1745e-010    2.2323e-010    
  -0.31           -1.9723e-010    -2.4204e-010   
  -0.3            -1.2372e-010    -3.5552e-010   
  -0.29           -6.634e-011     -3.7811e-010   
  -0.28           3.2907e-010     -2.3996e-010   
  -0.27           1.1757e-010     3.6456e-010    
  -0.26           5.973e-011      3.6332e-010    
  -0.25           -2.1836e-010    2.2274e-010    
  -0.24           -1.9588e-010    -2.4124e-010   
  -0.23           -1.2327e-010    -3.5654e-010   
  -0.22           -6.613e-011     -3.7682e-010   
  -0.21           3.3006e-010     -2.3899e-010   
  -0.2            1.167e-010      3.6597e-010    
  -0.19           5.912e-011      3.6299e-010    
  -0.18           -2.1864e-010    2.2179e-010    
  -0.17           -1.9511e-010    -2.4201e-010   
  -0.16           -1.2294e-010    -3.5691e-010   
  -0.15           -6.565e-011     -3.7668e-010   
  -0.14           3.3111e-010     -2.3715e-010   
  -0.13           1.173e-010      3.6633e-010    
  -0.12           5.896e-011      3.6264e-010    
  -0.11           -2.1884e-010    2.1991e-010    
  -0.1            -1.9473e-010    -2.4289e-010   
  -0.09           -1.2304e-010    -3.5938e-010   
  -0.08           -6.452e-011     -3.756e-010    
  -0.07           3.3241e-010     -2.3575e-010   
  -0.06           1.1583e-010     3.6737e-010    
  -0.05           5.855e-011      3.6171e-010    
  -0.04           -2.1959e-010    2.1914e-010    
  -0.03           -1.9289e-010    -2.4305e-010   
  -0.02           -1.2249e-010    -3.5963e-010   
  -0.01           -6.467e-011     -3.7487e-010   
  0               -3.1758e-010    1.3586e-010    
  0.01            -1.1929e-010    -3.6772e-010   
  0.02            -6.118e-011     -3.704e-010    
  0.03            2.1548e-010     -2.2605e-010   
  0.04            -3.5756e-010    8.368e-011     
  0.05            -7.225e-011     -3.8414e-010   
  0.06            -1.459e-011     -2.5617e-010   
  0.07            2.9539e-010     -1.5146e-010   
  0.08            1.3079e-010     3.2851e-010    
  0.09            7.656e-011      3.8386e-010    
  0.1             2.123e-011      2.658e-010     
  0.11            -2.8737e-010    1.5437e-010    
  0.12            -1.3772e-010    -3.2146e-010   
  0.13            -8.322e-011     -3.9047e-010   
  0.14            -2.752e-011     -2.8358e-010   
  0.15            2.743e-010      -1.6146e-010   
  0.16            1.4029e-010     3.056e-010     
  0.17            8.69e-011       3.8793e-010    
  0.18            3.464e-011      2.9365e-010    
  0.19            -2.6646e-010    1.6651e-010    
  0.2             -1.4614e-010    -2.985e-010    
  0.21            -9.122e-011     -3.928e-010    
  0.22            -3.669e-011     -3.1288e-010   
  0.23            2.5786e-010     -1.7628e-010   
  0.24            1.5607e-010     2.8293e-010    
  0.25            1.0497e-010     3.8739e-010    
  0.26            5.541e-011      3.1907e-010    
  0.27            -2.3121e-010    1.796e-010     
  0.28            -1.3541e-010    -2.7893e-010   
  0.29            -6.797e-011     -3.8992e-010   
  0.3             3.06e-010       -3.4309e-010   
  0.31            -2.4419e-010    4.483e-011     
  0.32            -6.195e-011     -2.709e-010    
  0.33            3.2624e-010     -3.9507e-010   
  0.34            1.0767e-010     1.0667e-010    
  0.35            1.2093e-010     3.21e-011      
  0.36            2.91e-010       -2.872e-010    
  0.37            5.751e-010      3.0114e-010    
  0.38            1.1552e-009     -3.4254e-010   
  0.39            1.6834e-009     -2.4699e-010   
  0.4             2.4278e-009     -2.8088e-010   
  0.41            3.4987e-009     -1.1145e-010   
  0.42            4.9117e-009     -2.1934e-010   
  0.43            6.933e-009      -4.9668e-010   
  0.44            1.02981e-008    -1.1531e-009   
  0.45            1.5215e-008     -1.248e-009    
  0.46            2.1809e-008     -2.558e-009    
  0.47            3.2208e-008     -3.477e-009    
  0.48            4.6891e-008     -4.8931e-009   
  0.49            6.9138e-008     -7.7284e-009   
  0.5             1.01261e-007    -1.14838e-008  
  0.51            1.484e-007      -1.6617e-008   
  0.52            2.1839e-007     -2.5214e-008   
  0.53            3.2136e-007     -3.6702e-008   
  0.54            4.7333e-007     -5.4337e-008   
  0.55            6.9363e-007     -8.0258e-008   
  0.56            1.0252e-006     -1.1809e-007   
  0.57            1.5007e-006     -1.7396e-007   
  0.58            2.2105e-006     -2.5658e-007   
  0.59            3.2381e-006     -3.7728e-007   
  0.6             4.7349e-006     -5.5447e-007   
END_DB

