! VERSION = 6.00
BEGIN_HEADER
 ICCAP_INPUTS
  VU1        V  E GROUND SMU4 0.1 CON        0
  VU2        V  S GROUND SMU1 0.1 CON        0
  VN         V  B GROUND SMU2 0.015 CON        0
  VP         V  C GROUND SMU3 0.015 LIN        1    -0.6       0.6        121  0.01      
 ICCAP_OUTPUTS
  IP         I  C GROUND SMU3 B
  IN         I  B GROUND SMU2 B
END_HEADER

BEGIN_DB
 ICCAP_VAR VU1        0              
 ICCAP_VAR VU2        0              
 ICCAP_VAR VN         0              

 #VP              IP              IN             
  -0.6            -9.0389e-006    9.0285e-006    
  -0.59           -6.1969e-006    6.1856e-006    
  -0.58           -4.2524e-006    4.2262e-006    
  -0.57           -2.916e-006     2.8947e-006    
  -0.56           -2.0095e-006    1.9707e-006    
  -0.55           -1.3524e-006    1.3409e-006    
  -0.54           -9.267e-007     9.1662e-007    
  -0.53           -6.4214e-007    6.1977e-007    
  -0.52           -4.5669e-007    4.2535e-007    
  -0.51           -2.98e-007      2.891e-007     
  -0.5            -2.3546e-007    1.9495e-007    
  -0.49           -1.4462e-007    1.3284e-007    
  -0.48           -1.2833e-007    9.1517e-008    
  -0.47           -8.8406e-008    6.182e-008     
  -0.46           -5.6432e-008    4.1983e-008    
  -0.45           -6.5338e-008    2.8547e-008    
  -0.44           -2.7334e-008    1.9762e-008    
  -0.43           -4.4323e-008    1.2472e-008    
  -0.42           -1.2895e-008    9.903e-009     
  -0.41           -3.8113e-008    6.5654e-009    
  -0.4            -1.6424e-008    3.6572e-009    
  -0.39           -2.2233e-008    3.2048e-009    
  -0.38           -1.591e-008     4.198e-010     
  -0.37           -1.3283e-008    2.6428e-009    
  -0.36           -1.7094e-008    -7.402e-010    
  -0.35           -1.7063e-008    -7.61e-010     
  -0.34           -2.0209e-008    -1.7397e-009   
  -0.33           -1.4495e-008    -1.7601e-009   
  -0.32           -1.6139e-008    -1.9821e-009   
  -0.31           -1.3503e-008    -1.9193e-009   
  -0.3            -1.5493e-008    -1.2547e-009   
  -0.29           -1.0059e-008    -1.5094e-009   
  -0.28           -1.1039e-008    -7.343e-010    
  -0.27           -9.554e-009     -1.3939e-009   
  -0.26           1.1268e-009     -1.5914e-009   
  -0.25           1.6975e-009     -1.8189e-009   
  -0.24           1.6802e-009     -1.9652e-009   
  -0.23           1.6441e-009     -1.9656e-009   
  -0.22           1.5445e-009     -1.6477e-009   
  -0.21           1.9308e-009     -1.8731e-009   
  -0.2            1.8557e-009     -1.9625e-009   
  -0.19           1.757e-009      -1.9325e-009   
  -0.18           1.6076e-009     -1.7162e-009   
  -0.17           1.9628e-009     -1.9091e-009   
  -0.16           1.8683e-009     -1.9522e-009   
  -0.15           1.7399e-009     -1.5647e-009   
  -0.14           2.0613e-009     -1.789e-009    
  -0.13           1.9471e-009     -1.9366e-009   
  -0.12           1.8363e-009     -1.9421e-009   
  -0.11           1.6977e-009     -1.6336e-009   
  -0.1            2.0231e-009     -1.8528e-009   
  -0.09           1.9196e-009     -1.9533e-009   
  -0.08           1.8001e-009     -1.9267e-009   
  -0.07           1.6434e-009     -1.7076e-009   
  -0.06           1.9858e-009     -1.9028e-009   
  -0.05           1.8859e-009     -1.9581e-009   
  -0.04           1.7591e-009     -1.5605e-009   
  -0.03           2.0723e-009     -1.779e-009    
  -0.02           1.9544e-009     -1.9352e-009   
  -0.01           1.8502e-009     -1.945e-009    
  0               2.172e-010      -1.8765e-009   
  0.01            1.8987e-009     -1.9581e-009   
  0.02            1.7776e-009     -1.5342e-009   
  0.03            2.0929e-009     -1.7499e-009   
  0.04            1.9628e-009     -1.9266e-009   
  0.05            1.868e-009      -1.9517e-009   
  0.06            1.7297e-009     -1.598e-009    
  0.07            2.043e-009      -1.826e-009    
  0.08            1.9399e-009     -1.9525e-009   
  0.09            1.8262e-009     -1.9383e-009   
  0.1             1.6755e-009     -1.6746e-009   
  0.11            2.0009e-009     -1.8824e-009   
  0.12            1.9047e-009     -1.9597e-009   
  0.13            1.7794e-009     -1.5365e-009   
  0.14            2.0963e-009     -1.7565e-009   
  0.15            1.9687e-009     -1.9289e-009   
  0.16            1.8717e-009     -1.9561e-009   
  0.17            1.7288e-009     -1.598e-009    
  0.18            2.0388e-009     -1.8263e-009   
  0.19            1.938e-009      -1.9533e-009   
  0.2             1.8313e-009     -1.9407e-009   
  0.21            1.6823e-009     -1.6747e-009   
  0.22            1.999e-009      -1.8802e-009   
  0.23            1.9088e-009     -1.9589e-009   
  0.24            1.7884e-009     -1.5322e-009   
  0.25            2.107e-009      -1.7483e-009   
  0.26            1.9779e-009     -1.9199e-009   
  0.27            1.8748e-009     -1.9546e-009   
  0.28            1.7423e-009     -1.5938e-009   
  0.29            2.0546e-009     -1.8165e-009   
  0.3             1.9452e-009     -1.9482e-009   
  0.31            1.8397e-009     -1.9391e-009   
  0.32            1.6939e-009     -1.6595e-009   
  0.33            2.0162e-009     -1.8759e-009   
  0.34            1.9144e-009     -1.9575e-009   
  0.35            1.7941e-009     -1.933e-009    
  0.36            1.6348e-009     -1.7426e-009   
  0.37            1.9799e-009     -1.918e-009    
  0.38            1.8821e-009     -1.9559e-009   
  0.39            1.7489e-009     -1.5907e-009   
  0.4             2.0608e-009     -1.8083e-009   
  0.41            1.9519e-009     -1.948e-009    
  0.42            1.8438e-009     -1.9414e-009   
  0.43            1.7022e-009     -1.6574e-009   
  0.44            2.0218e-009     -1.8756e-009   
  0.45            1.9218e-009     -1.9614e-009   
  0.46            1.8023e-009     -1.9283e-009   
  0.47            1.6434e-009     -1.7365e-009   
  0.48            1.9833e-009     -1.9155e-009   
  0.49            1.8931e-009     -1.9573e-009   
  0.5             1.7592e-009     -1.583e-009    
  0.51            2.0718e-009     -1.8058e-009   
  0.52            1.9583e-009     -1.9444e-009   
  0.53            1.8539e-009     -1.9472e-009   
  0.54            1.7086e-009     -1.6547e-009   
  0.55            2.0304e-009     -1.8648e-009   
  0.56            1.9275e-009     -1.9546e-009   
  0.57            1.8114e-009     -1.929e-009    
  0.58            1.6552e-009     -1.7248e-009   
  0.59            1.9908e-009     -1.9077e-009   
  0.6             1.8945e-009     -1.9552e-009   
END_DB

