! VERSION = 6.00
BEGIN_HEADER
 ICCAP_INPUTS
  VU1        V  E GROUND SMU4 0.1 CON        0
  VU2        V  S GROUND SMU2 0.1 CON        0
  VN         V  B GROUND SMU3 0.025 CON        0
  VP         V  C GROUND SMU1 0.025 LIN        1    -0.5       0.5        101  0.01      
 ICCAP_OUTPUTS
  IP         I  C GROUND SMU1 B
  IN         I  B GROUND SMU3 B
END_HEADER

BEGIN_DB
 ICCAP_VAR VU1        0              
 ICCAP_VAR VU2        0              
 ICCAP_VAR VN         0              

 #VP              IP              IN             
  -0.5            -1.3376e-005    1.3393e-005    
  -0.49           -1.3107e-005    1.3123e-005    
  -0.48           -1.2838e-005    1.2858e-005    
  -0.47           -1.2573e-005    1.259e-005     
  -0.46           -1.2304e-005    1.232e-005     
  -0.45           -1.2037e-005    1.2055e-005    
  -0.44           -1.1771e-005    1.1787e-005    
  -0.43           -1.1501e-005    1.1517e-005    
  -0.42           -1.1235e-005    1.1252e-005    
  -0.41           -1.0966e-005    1.0984e-005    
  -0.4            -1.07e-005      1.0715e-005    
  -0.39           -1.0431e-005    1.0449e-005    
  -0.38           -1.0164e-005    1.0181e-005    
  -0.37           -9.9025e-006    9.9048e-006    
  -0.36           -9.6361e-006    9.639e-006     
  -0.35           -9.3679e-006    9.3693e-006    
  -0.34           -9.0986e-006    9.1015e-006    
  -0.33           -8.8334e-006    8.8351e-006    
  -0.32           -8.5648e-006    8.5666e-006    
  -0.31           -8.2965e-006    8.2989e-006    
  -0.3            -8.0297e-006    8.0323e-006    
  -0.29           -7.7618e-006    7.7637e-006    
  -0.28           -7.4934e-006    7.4948e-006    
  -0.27           -7.2275e-006    7.2283e-006    
  -0.26           -6.9585e-006    6.9604e-006    
  -0.25           -6.6901e-006    6.6919e-006    
  -0.24           -6.4237e-006    6.4256e-006    
  -0.23           -6.155e-006     6.1578e-006    
  -0.22           -5.8879e-006    5.8891e-006    
  -0.21           -5.6201e-006    5.6225e-006    
  -0.2            -5.3526e-006    5.3541e-006    
  -0.19           -5.0843e-006    5.0856e-006    
  -0.18           -4.8173e-006    4.8198e-006    
  -0.17           -4.5489e-006    4.5507e-006    
  -0.16           -4.2824e-006    4.2852e-006    
  -0.15           -4.014e-006     4.016e-006     
  -0.14           -3.7466e-006    3.7481e-006    
  -0.13           -3.4794e-006    3.4811e-006    
  -0.12           -3.2118e-006    3.2136e-006    
  -0.11           -2.9431e-006    2.9446e-006    
  -0.1            -2.6767e-006    2.6792e-006    
  -0.09           -2.4087e-006    2.4098e-006    
  -0.08           -2.1395e-006    2.1423e-006    
  -0.07           -1.8738e-006    1.8757e-006    
  -0.06           -1.6053e-006    1.6065e-006    
  -0.05           -1.3365e-006    1.3389e-006    
  -0.04           -1.0703e-006    1.0723e-006    
  -0.03           -8.0291e-007    8.0438e-007    
  -0.02           -5.3472e-007    5.3575e-007    
  -0.01           -2.6805e-007    2.6944e-007    
  0               2.3976e-010     -1.487e-010    
  0.01            2.6674e-007     -2.673e-007    
  0.02            5.3501e-007     -5.3348e-007   
  0.03            8.0307e-007     -8.0182e-007   
  0.04            1.0705e-006     -1.06808e-006  
  0.05            1.3389e-006     -1.3367e-006   
  0.06            1.6067e-006     -1.6047e-006   
  0.07            1.8751e-006     -1.8734e-006   
  0.08            2.1412e-006     -2.1391e-006   
  0.09            2.4089e-006     -2.4078e-006   
  0.1             2.678e-006      -2.6753e-006   
  0.11            2.9437e-006     -2.942e-006    
  0.12            3.2122e-006     -3.2097e-006   
  0.13            3.4805e-006     -3.4782e-006   
  0.14            3.7462e-006     -3.7452e-006   
  0.15            4.0147e-006     -4.0129e-006   
  0.16            4.2827e-006     -4.2806e-006   
  0.17            4.549e-006      -4.5468e-006   
  0.18            4.8173e-006     -4.8154e-006   
  0.19            5.0858e-006     -5.0835e-006   
  0.2             5.3519e-006     -5.3498e-006   
  0.21            5.62e-006       -5.6174e-006   
  0.22            5.888e-006      -5.8868e-006   
  0.23            6.1548e-006     -6.1523e-006   
  0.24            6.4224e-006     -6.4208e-006   
  0.25            6.6912e-006     -6.6886e-006   
  0.26            6.9575e-006     -6.9549e-006   
  0.27            7.2257e-006     -7.2235e-006   
  0.28            7.4938e-006     -7.4914e-006   
  0.29            7.7595e-006     -7.7575e-006   
  0.3             8.0281e-006     -8.0258e-006   
  0.31            8.2962e-006     -8.2947e-006   
  0.32            8.5648e-006     -8.5628e-006   
  0.33            8.8311e-006     -8.8298e-006   
  0.34            9.1002e-006     -9.0974e-006   
  0.35            9.3676e-006     -9.3667e-006   
  0.36            9.6348e-006     -9.6322e-006   
  0.37            9.9025e-006     -9.9007e-006   
  0.38            1.01713e-005    -1.01686e-005  
  0.39            1.04378e-005    -1.0435e-005   
  0.4             1.07059e-005    -1.07033e-005  
  0.41            1.09741e-005    -1.0972e-005   
  0.42            1.12401e-005    -1.12383e-005  
  0.43            1.1517e-005     -1.1502e-005   
  0.44            1.1785e-005     -1.1769e-005   
  0.45            1.2052e-005     -1.2033e-005   
  0.46            1.232e-005      -1.2301e-005   
  0.47            1.2588e-005     -1.2572e-005   
  0.48            1.2855e-005     -1.2838e-005   
  0.49            1.3122e-005     -1.3107e-005   
  0.5             1.3392e-005     -1.3375e-005   
END_DB

