! VERSION = 6.00
BEGIN_HEADER
 ICCAP_INPUTS
  VU1        V  E GROUND SMU1 0.1 CON        0
  VU2        V  S GROUND SMU2 0.1 CON        0
  VN         V  B GROUND SMU3 0.025 CON        0
  VP         V  C GROUND SMU4 0.025 LIN        1    -0.3       0.3        61   0.01      
 ICCAP_OUTPUTS
  IP         I  C GROUND SMU4 B
  IN         I  B GROUND SMU3 B
END_HEADER

BEGIN_DB
 ICCAP_VAR VU1        0              
 ICCAP_VAR VU2        0              
 ICCAP_VAR VN         0              

 #VP              IP              IN             
  -0.3            -0.013726       0.01375        
  -0.29           -0.013356       0.013383       
  -0.28           -0.012983       0.013004       
  -0.27           -0.0126         0.012622       
  -0.26           -0.012204       0.012226       
  -0.25           -0.011811       0.011833       
  -0.24           -0.011409       0.01143        
  -0.23           -0.011004       0.011024       
  -0.22           -0.010586       0.010608       
  -0.21           -0.010169       0.010186       
  -0.2            -0.0097516      0.009755       
  -0.19           -0.0093151      0.0093162      
  -0.18           -0.0088724      0.0088763      
  -0.17           -0.0084286      0.0084291      
  -0.16           -0.0079762      0.0079771      
  -0.15           -0.0075143      0.0075142      
  -0.14           -0.0070466      0.007048       
  -0.13           -0.0065716      0.0065738      
  -0.12           -0.0060973      0.0060984      
  -0.11           -0.0056107      0.0056125      
  -0.1            -0.0051194      0.0051209      
  -0.09           -0.0046223      0.0046238      
  -0.08           -0.004119       0.0041214      
  -0.07           -0.003618       0.0036195      
  -0.06           -0.0031065      0.0031087      
  -0.05           -0.0025922      0.0025944      
  -0.04           -0.0020744      0.0020752      
  -0.03           -0.0015571      0.0015594      
  -0.02           -0.0010345      0.0010366      
  -0.01           -0.00051174     0.00051229     
  0               9.3171e-006     3.1299e-005    
  0.01            0.00053853      -0.00053792    
  0.02            0.00106159      -0.00106126    
  0.03            0.0015807       -0.001579      
  0.04            0.0021021       -0.0021        
  0.05            0.0026198       -0.0026183     
  0.06            0.0031351       -0.0031326     
  0.07            0.0036441       -0.003641      
  0.08            0.0041514       -0.0041499     
  0.09            0.0046563       -0.0046535     
  0.1             0.005155        -0.0051536     
  0.11            0.00565         -0.0056481     
  0.12            0.0061373       -0.0061352     
  0.13            0.0066239       -0.0066228     
  0.14            0.0071059       -0.0071049     
  0.15            0.0075837       -0.0075798     
  0.16            0.0080488       -0.0080476     
  0.17            0.008516        -0.0085111     
  0.18            0.0089793       -0.0089754     
  0.19            0.0094344       -0.0094312     
  0.2             0.0098879       -0.0098831     
  0.21            0.010343        -0.0103306     
  0.22            0.010782        -0.010762      
  0.23            0.011214        -0.011194      
  0.24            0.011649        -0.011626      
  0.25            0.012074        -0.01205       
  0.26            0.012517        -0.012487      
  0.27            0.012947        -0.01292       
  0.28            0.013378        -0.013349      
  0.29            0.013793        -0.013772      
  0.3             0.01418         -0.014163      
END_DB

