! VERSION = 6.00
BEGIN_HEADER
 ICCAP_INPUTS
  VU1        V  E GROUND SMU4 0.1 CON        0
  VU2        V  S GROUND SMU1 0.1 CON        0
  VN         V  B GROUND SMU3 0.015 CON        0
  VP         V  C GROUND SMU2 0.015 LIN        1    -0.5       0.5        101  0.01      
 ICCAP_OUTPUTS
  IP         I  C GROUND SMU2 B
  IN         I  B GROUND SMU3 B
END_HEADER

BEGIN_DB
 ICCAP_VAR VU1        0              
 ICCAP_VAR VU2        0              
 ICCAP_VAR VN         0              

 #VP              IP              IN             
  -0.5            -1.3754e-005    1.3775e-005    
  -0.49           -1.3484e-005    1.3501e-005    
  -0.48           -1.3208e-005    1.3228e-005    
  -0.47           -1.2935e-005    1.2955e-005    
  -0.46           -1.2666e-005    1.2684e-005    
  -0.45           -1.2389e-005    1.2413e-005    
  -0.44           -1.2117e-005    1.2137e-005    
  -0.43           -1.1842e-005    1.1862e-005    
  -0.42           -1.1573e-005    1.1593e-005    
  -0.41           -1.1298e-005    1.1318e-005    
  -0.4            -1.1024e-005    1.1042e-005    
  -0.39           -1.0749e-005    1.0769e-005    
  -0.38           -1.0476e-005    1.0495e-005    
  -0.37           -1.0205e-005    1.0223e-005    
  -0.36           -9.9373e-006    9.9397e-006    
  -0.35           -9.6628e-006    9.6649e-006    
  -0.34           -9.3887e-006    9.3915e-006    
  -0.33           -9.1151e-006    9.1173e-006    
  -0.32           -8.8414e-006    8.8433e-006    
  -0.31           -8.5644e-006    8.5675e-006    
  -0.3            -8.2921e-006    8.2931e-006    
  -0.29           -8.0162e-006    8.0185e-006    
  -0.28           -7.7431e-006    7.7447e-006    
  -0.27           -7.4663e-006    7.4688e-006    
  -0.26           -7.1919e-006    7.1929e-006    
  -0.25           -6.9172e-006    6.9195e-006    
  -0.24           -6.6422e-006    6.6435e-006    
  -0.23           -6.3658e-006    6.3679e-006    
  -0.22           -6.0899e-006    6.0916e-006    
  -0.21           -5.8133e-006    5.8162e-006    
  -0.2            -5.5387e-006    5.5415e-006    
  -0.19           -5.2634e-006    5.2648e-006    
  -0.18           -4.9855e-006    4.9879e-006    
  -0.17           -4.7104e-006    4.7118e-006    
  -0.16           -4.4343e-006    4.4371e-006    
  -0.15           -4.158e-006     4.1604e-006    
  -0.14           -3.8799e-006    3.8825e-006    
  -0.13           -3.6036e-006    3.6056e-006    
  -0.12           -3.3286e-006    3.3299e-006    
  -0.11           -3.0513e-006    3.0528e-006    
  -0.1            -2.7732e-006    2.7752e-006    
  -0.09           -2.4951e-006    2.4971e-006    
  -0.08           -2.2169e-006    2.2191e-006    
  -0.07           -1.9408e-006    1.9439e-006    
  -0.06           -1.6639e-006    1.6649e-006    
  -0.05           -1.384e-006     1.3869e-006    
  -0.04           -1.1066e-006    1.1083e-006    
  -0.03           -8.3249e-007    8.3244e-007    
  -0.02           -5.5328e-007    5.5427e-007    
  -0.01           -2.7296e-007    2.7528e-007    
  0               3.7277e-009     -2.9812e-009   
  0.01            2.8335e-007     -2.8319e-007   
  0.02            5.6318e-007     -5.6173e-007   
  0.03            8.4255e-007     -8.4093e-007   
  0.04            1.1227e-006     -1.12148e-006  
  0.05            1.4007e-006     -1.3975e-006   
  0.06            1.6808e-006     -1.6784e-006   
  0.07            1.9605e-006     -1.9582e-006   
  0.08            2.2408e-006     -2.2387e-006   
  0.09            2.5186e-006     -2.5164e-006   
  0.1             2.7986e-006     -2.7976e-006   
  0.11            3.0802e-006     -3.0773e-006   
  0.12            3.3605e-006     -3.359e-006    
  0.13            3.6397e-006     -3.6371e-006   
  0.14            3.9213e-006     -3.9184e-006   
  0.15            4.2023e-006     -4.2006e-006   
  0.16            4.4838e-006     -4.4814e-006   
  0.17            4.7627e-006     -4.7611e-006   
  0.18            5.0447e-006     -5.0423e-006   
  0.19            5.3269e-006     -5.325e-006    
  0.2             5.6087e-006     -5.6067e-006   
  0.21            5.8915e-006     -5.8898e-006   
  0.22            6.1715e-006     -6.1684e-006   
  0.23            6.4539e-006     -6.453e-006    
  0.24            6.7366e-006     -6.7341e-006   
  0.25            7.0192e-006     -7.0178e-006   
  0.26            7.3002e-006     -7.2979e-006   
  0.27            7.5844e-006     -7.5812e-006   
  0.28            7.8671e-006     -7.8654e-006   
  0.29            8.1508e-006     -8.1483e-006   
  0.3             8.4319e-006     -8.4305e-006   
  0.31            8.7158e-006     -8.7138e-006   
  0.32            8.9999e-006     -8.9989e-006   
  0.33            9.2839e-006     -9.2817e-006   
  0.34            9.5667e-006     -9.5653e-006   
  0.35            9.8508e-006     -9.8482e-006   
  0.36            1.01357e-005    -1.01346e-005  
  0.37            1.04206e-005    -1.04174e-005  
  0.38            1.07037e-005    -1.07019e-005  
  0.39            1.09884e-005    -1.09856e-005  
  0.4             1.12748e-005    -1.12719e-005  
  0.41            1.1567e-005     -1.1547e-005   
  0.42            1.1852e-005     -1.1831e-005   
  0.43            1.2139e-005     -1.2118e-005   
  0.44            1.2425e-005     -1.2405e-005   
  0.45            1.2714e-005     -1.2693e-005   
  0.46            1.3e-005        -1.2979e-005   
  0.47            1.3285e-005     -1.3262e-005   
  0.48            1.3575e-005     -1.3551e-005   
  0.49            1.3864e-005     -1.3836e-005   
  0.5             1.4154e-005     -1.4125e-005   
END_DB

