! VERSION = 6.00
BEGIN_HEADER
 ICCAP_INPUTS
  VU1        V  E GROUND SMU4 0.1 CON        0
  VU2        V  S GROUND SMU1 0.1 CON        0
  VN         V  B GROUND SMU3 0.015 CON        0
  VP         V  C GROUND SMU2 0.015 LIN        1    -0.5       0.5        101  0.01      
 ICCAP_OUTPUTS
  IP         I  C GROUND SMU2 B
  IN         I  B GROUND SMU3 B
END_HEADER

BEGIN_DB
 ICCAP_VAR VU1        0              
 ICCAP_VAR VU2        0              
 ICCAP_VAR VN         0              

 #VP              IP              IN             
  -0.5            -6.8993e-006    6.9014e-006    
  -0.49           -6.7622e-006    6.7641e-006    
  -0.48           -6.6256e-006    6.6275e-006    
  -0.47           -6.4888e-006    6.4901e-006    
  -0.46           -6.3526e-006    6.3551e-006    
  -0.45           -6.2158e-006    6.2173e-006    
  -0.44           -6.0784e-006    6.0806e-006    
  -0.43           -5.9417e-006    5.9429e-006    
  -0.42           -5.8041e-006    5.8075e-006    
  -0.41           -5.6688e-006    5.67e-006      
  -0.4            -5.5303e-006    5.5323e-006    
  -0.39           -5.3931e-006    5.3951e-006    
  -0.38           -5.2552e-006    5.2574e-006    
  -0.37           -5.1197e-006    5.1216e-006    
  -0.36           -4.9814e-006    4.9833e-006    
  -0.35           -4.844e-006     4.846e-006     
  -0.34           -4.7063e-006    4.7081e-006    
  -0.33           -4.5694e-006    4.5719e-006    
  -0.32           -4.432e-006     4.4338e-006    
  -0.31           -4.2936e-006    4.296e-006     
  -0.3            -4.1567e-006    4.1579e-006    
  -0.29           -4.0184e-006    4.0215e-006    
  -0.28           -3.8817e-006    3.8827e-006    
  -0.27           -3.7429e-006    3.7448e-006    
  -0.26           -3.6053e-006    3.6066e-006    
  -0.25           -3.4676e-006    3.4693e-006    
  -0.24           -3.3293e-006    3.3316e-006    
  -0.23           -3.1912e-006    3.1931e-006    
  -0.22           -3.0527e-006    3.0547e-006    
  -0.21           -2.9137e-006    2.916e-006     
  -0.2            -2.7767e-006    2.7791e-006    
  -0.19           -2.6381e-006    2.6398e-006    
  -0.18           -2.4995e-006    2.5022e-006    
  -0.17           -2.3612e-006    2.3624e-006    
  -0.16           -2.2227e-006    2.2255e-006    
  -0.15           -2.0848e-006    2.0857e-006    
  -0.14           -1.9455e-006    1.9472e-006    
  -0.13           -1.8063e-006    1.8085e-006    
  -0.12           -1.6681e-006    1.6699e-006    
  -0.11           -1.5293e-006    1.5313e-006    
  -0.1            -1.39e-006      1.3923e-006    
  -0.09           -1.2505e-006    1.2526e-006    
  -0.08           -1.1111e-006    1.1128e-006    
  -0.07           -9.7507e-007    9.7476e-007    
  -0.06           -8.3503e-007    8.3512e-007    
  -0.05           -6.9564e-007    6.9555e-007    
  -0.04           -5.557e-007     5.5562e-007    
  -0.03           -4.1694e-007    4.1714e-007    
  -0.02           -2.7709e-007    2.7686e-007    
  -0.01           -1.37e-007      1.3738e-007    
  0               2.0516e-009     -2.0874e-009   
  0.01            1.4213e-007     -1.4193e-007   
  0.02            2.823e-007      -2.8229e-007   
  0.03            4.2258e-007     -4.2208e-007   
  0.04            5.6275e-007     -5.6276e-007   
  0.05            7.0238e-007     -7.0135e-007   
  0.06            8.4193e-007     -8.4243e-007   
  0.07            9.8337e-007     -9.8258e-007   
  0.08            1.1238e-006     -1.12342e-006  
  0.09            1.2635e-006     -1.2618e-006   
  0.1             1.4039e-006     -1.4023e-006   
  0.11            1.5449e-006     -1.5425e-006   
  0.12            1.6861e-006     -1.6832e-006   
  0.13            1.8258e-006     -1.8236e-006   
  0.14            1.9666e-006     -1.9642e-006   
  0.15            2.1075e-006     -2.1055e-006   
  0.16            2.2488e-006     -2.2465e-006   
  0.17            2.3884e-006     -2.387e-006    
  0.18            2.5306e-006     -2.5277e-006   
  0.19            2.6709e-006     -2.6695e-006   
  0.2             2.8132e-006     -2.8107e-006   
  0.21            2.9542e-006     -2.9521e-006   
  0.22            3.095e-006      -3.0933e-006   
  0.23            3.2366e-006     -3.235e-006    
  0.24            3.3784e-006     -3.3765e-006   
  0.25            3.5203e-006     -3.5177e-006   
  0.26            3.6616e-006     -3.6593e-006   
  0.27            3.8034e-006     -3.8009e-006   
  0.28            3.9455e-006     -3.9433e-006   
  0.29            4.088e-006      -4.0852e-006   
  0.3             4.2287e-006     -4.2274e-006   
  0.31            4.372e-006      -4.3692e-006   
  0.32            4.5132e-006     -4.5118e-006   
  0.33            4.6566e-006     -4.6541e-006   
  0.34            4.7982e-006     -4.7955e-006   
  0.35            4.9409e-006     -4.9387e-006   
  0.36            5.0836e-006     -5.0815e-006   
  0.37            5.2265e-006     -5.2247e-006   
  0.38            5.3683e-006     -5.3658e-006   
  0.39            5.5118e-006     -5.5097e-006   
  0.4             5.655e-006      -5.6522e-006   
  0.41            5.7986e-006     -5.7956e-006   
  0.42            5.9414e-006     -5.9379e-006   
  0.43            6.085e-006      -6.0823e-006   
  0.44            6.2302e-006     -6.225e-006    
  0.45            6.3745e-006     -6.3692e-006   
  0.46            6.5209e-006     -6.5126e-006   
  0.47            6.6664e-006     -6.6558e-006   
  0.48            6.8145e-006     -6.8002e-006   
  0.49            6.9645e-006     -6.9437e-006   
  0.5             7.117e-006      -7.0889e-006   
END_DB

