! VERSION = 6.00
BEGIN_HEADER
 ICCAP_INPUTS
  VU1        V  E GROUND SMU1 0.1 CON        0
  VU2        V  S GROUND SMU4 0.1 CON        0
  VN         V  B GROUND SMU2 0.015 CON        0
  VP         V  C GROUND SMU3 0.015 LIN        1    3          -1         401  -0.01     
 ICCAP_OUTPUTS
  IP         I  C GROUND SMU3 B
  IN         I  B GROUND SMU2 B
END_HEADER

BEGIN_DB
 ICCAP_VAR VU1        0              
 ICCAP_VAR VU2        0              
 ICCAP_VAR VN         0              

 #VP              IP              IN             
  3               2.692e-010      -1.5213e-008   
  2.99            2.6817e-009     -1.5729e-008   
  2.98            2.7711e-009     -1.5571e-008   
  2.97            2.8837e-009     -1.5224e-008   
  2.96            3.0011e-009     -1.462e-008    
  2.95            3.1317e-009     -1.069e-008    
  2.94            3.362e-009      -1.5724e-008   
  2.93            2.7985e-009     -1.5533e-008   
  2.92            2.9103e-009     -1.5136e-008   
  2.91            3.0385e-009     -1.1618e-008   
  2.9             3.405e-009      -1.5578e-008   
  2.89            2.7278e-009     -1.5718e-008   
  2.88            2.8267e-009     -1.5518e-008   
  2.87            2.9412e-009     -1.4908e-008   
  2.86            3.0741e-009     -1.1287e-008   
  2.85            3.3876e-009     -1.5694e-008   
  2.84            2.7485e-009     -1.5648e-008   
  2.83            2.8505e-009     -1.5481e-008   
  2.82            2.9656e-009     -1.4732e-008   
  2.81            3.1085e-009     -1.0933e-008   
  2.8             3.3734e-009     -1.5709e-008   
  2.79            2.7836e-009     -1.5669e-008   
  2.78            2.8833e-009     -1.5208e-008   
  2.77            3.0052e-009     -1.4612e-008   
  2.76            3.1365e-009     -1.0484e-008   
  2.75            3.3568e-009     -1.5753e-008   
  2.74            2.8086e-009     -1.5538e-008   
  2.73            2.9136e-009     -1.5093e-008   
  2.72            3.0476e-009     -1.1521e-008   
  2.71            3.3952e-009     -1.5659e-008   
  2.7             2.7307e-009     -1.5706e-008   
  2.69            2.8257e-009     -1.5364e-008   
  2.68            2.9494e-009     -1.4761e-008   
  2.67            3.0799e-009     -1.1029e-008   
  2.66            3.3793e-009     -1.5697e-008   
  2.65            2.7555e-009     -1.5619e-008   
  2.64            2.8581e-009     -1.5356e-008   
  2.63            2.9769e-009     -1.4617e-008   
  2.62            3.1131e-009     -1.0724e-008   
  2.61            3.3566e-009     -1.5701e-008   
  2.6             2.783e-009      -1.5546e-008   
  2.59            2.89e-009       -1.5145e-008   
  2.58            3.0175e-009     -1.1764e-008   
  2.57            3.4029e-009     -1.5581e-008   
  2.56            2.7153e-009     -1.5738e-008   
  2.55            2.8095e-009     -1.5384e-008   
  2.54            2.9252e-009     -1.4876e-008   
  2.53            3.0487e-009     -1.1441e-008   
  2.52            3.3805e-009     -1.5769e-008   
  2.51            2.7451e-009     -1.5476e-008   
  2.5             2.8435e-009     -1.5298e-008   
  2.49            2.9614e-009     -1.4696e-008   
  2.48            3.0892e-009     -1.0994e-008   
  2.47            3.3618e-009     -1.5755e-008   
  2.46            2.767e-009      -1.5535e-008   
  2.45            2.873e-009      -1.5239e-008   
  2.44            2.9956e-009     -1.454e-008    
  2.43            3.132e-009      -1.0646e-008   
  2.42            3.3442e-009     -1.5815e-008   
  2.41            2.7925e-009     -1.5514e-008   
  2.4             2.9021e-009     -1.5027e-008   
  2.39            3.0295e-009     -1.167e-008    
  2.38            3.3847e-009     -1.5718e-008   
  2.37            2.7259e-009     -1.6831e-008   
  2.36            2.3513e-009     -1.5061e-008   
  2.35            3.0279e-009     -1.163e-008    
  2.34            3.3905e-009     -1.5743e-008   
  2.33            2.7161e-009     -1.5712e-008   
  2.32            2.8187e-009     -1.532e-008    
  2.31            2.9356e-009     -1.4777e-008   
  2.3             3.0634e-009     -1.1177e-008   
  2.29            3.3676e-009     -1.5689e-008   
  2.28            2.7431e-009     -1.5603e-008   
  2.27            2.8442e-009     -1.5235e-008   
  2.26            2.9662e-009     -1.4612e-008   
  2.25            3.1061e-009     -1.0746e-008   
  2.24            3.3544e-009     -1.571e-008    
  2.23            2.7756e-009     -1.5531e-008   
  2.22            2.8781e-009     -1.5108e-008   
  2.21            3.0097e-009     -1.1716e-008   
  2.2             3.3897e-009     -1.5571e-008   
  2.19            2.7049e-009     -1.5673e-008   
  2.18            2.7994e-009     -1.5382e-008   
  2.17            2.9128e-009     -1.4852e-008   
  2.16            3.0487e-009     -1.1326e-008   
  2.15            3.3679e-009     -1.5705e-008   
  2.14            2.7213e-009     -1.5645e-008   
  2.13            2.8357e-009     -1.5198e-008   
  2.12            2.9529e-009     -1.4612e-008   
  2.11            3.0877e-009     -1.0903e-008   
  2.1             3.3473e-009     -1.57e-008     
  2.09            2.7597e-009     -1.546e-008    
  2.08            2.8737e-009     -1.5186e-008   
  2.07            2.991e-009      -1.1882e-008   
  2.06            3.3922e-009     -1.5551e-008   
  2.05            2.6935e-009     -1.568e-008    
  2.04            2.7937e-009     -1.5403e-008   
  2.03            2.9115e-009     -1.4991e-008   
  2.02            3.0381e-009     -1.1415e-008   
  2.01            3.3665e-009     -1.5732e-008   
  2               2.7282e-009     -1.6686e-008   
  1.99            2.3569e-009     -1.5e-008      
  1.98            3.0356e-009     -1.1368e-008   
  1.97            3.3607e-009     -1.5581e-008   
  1.96            2.7201e-009     -1.5695e-008   
  1.95            2.8317e-009     -1.5392e-008   
  1.94            2.9461e-009     -1.4651e-008   
  1.93            3.0815e-009     -1.0932e-008   
  1.92            3.3377e-009     -1.5838e-008   
  1.91            2.7544e-009     -1.5649e-008   
  1.9             2.8659e-009     -1.5267e-008   
  1.89            2.9873e-009     -1.1891e-008   
  1.88            3.3772e-009     -1.5508e-008   
  1.87            2.6904e-009     -1.588e-008    
  1.86            2.7868e-009     -1.5566e-008   
  1.85            2.8989e-009     -1.4991e-008   
  1.84            3.0276e-009     -1.1446e-008   
  1.83            3.3545e-009     -1.5797e-008   
  1.82            2.7235e-009     -1.6603e-008   
  1.81            2.3457e-009     -1.4986e-008   
  1.8             3.0257e-009     -1.1396e-008   
  1.79            3.3501e-009     -1.5808e-008   
  1.78            2.7176e-009     -1.5823e-008   
  1.77            2.8251e-009     -1.5481e-008   
  1.76            2.9428e-009     -1.4677e-008   
  1.75            3.0739e-009     -1.0938e-008   
  1.74            3.3261e-009     -1.5806e-008   
  1.73            2.7532e-009     -1.58e-008     
  1.72            2.8586e-009     -1.5311e-008   
  1.71            2.9779e-009     -1.1859e-008   
  1.7             3.3696e-009     -1.5518e-008   
  1.69            2.6843e-009     -1.5937e-008   
  1.68            2.7869e-009     -1.564e-008    
  1.67            2.8971e-009     -1.5016e-008   
  1.66            3.0269e-009     -1.1367e-008   
  1.65            3.3471e-009     -1.5799e-008   
  1.64            2.7144e-009     -1.5795e-008   
  1.63            2.8099e-009     -1.5502e-008   
  1.62            2.9332e-009     -1.4611e-008   
  1.61            3.0655e-009     -1.0936e-008   
  1.6             3.3158e-009     -1.5844e-008   
  1.59            2.738e-009      -1.5744e-008   
  1.58            2.8478e-009     -1.5262e-008   
  1.57            2.9697e-009     -1.451e-008    
  1.56            3.112e-009      -1.0385e-008   
  1.55            3.3039e-009     -1.5897e-008   
  1.54            2.7799e-009     -1.5684e-008   
  1.53            2.886e-009      -1.494e-008    
  1.52            3.0157e-009     -1.1266e-008   
  1.51            3.338e-009      -1.572e-008    
  1.5             2.7111e-009     -1.5873e-008   
  1.49            2.8076e-009     -1.5505e-008   
  1.48            2.9254e-009     -1.4682e-008   
  1.47            3.0591e-009     -1.0914e-008   
  1.46            3.324e-009      -1.5773e-008   
  1.45            2.7421e-009     -1.5796e-008   
  1.44            2.8435e-009     -1.5297e-008   
  1.43            2.9661e-009     -1.4549e-008   
  1.42            3.105e-009      -1.0397e-008   
  1.41            3.3013e-009     -1.5921e-008   
  1.4             2.7683e-009     -1.5586e-008   
  1.39            2.8864e-009     -1.504e-008    
  1.38            3.011e-009      -1.1332e-008   
  1.37            3.3415e-009     -1.5706e-008   
  1.36            2.7019e-009     -1.5805e-008   
  1.35            2.8044e-009     -1.5454e-008   
  1.34            2.9211e-009     -1.4641e-008   
  1.33            3.0545e-009     -1.1029e-008   
  1.32            3.3237e-009     -1.5748e-008   
  1.31            2.7322e-009     -1.5636e-008   
  1.3             2.8404e-009     -1.5326e-008   
  1.29            2.9617e-009     -1.4527e-008   
  1.28            3.1029e-009     -1.0533e-008   
  1.27            3.3051e-009     -1.5774e-008   
  1.26            2.7684e-009     -1.5603e-008   
  1.25            2.8764e-009     -1.5085e-008   
  1.24            3.004e-009      -1.147e-008    
  1.23            3.3443e-009     -1.5614e-008   
  1.22            2.6928e-009     -1.5839e-008   
  1.21            2.7952e-009     -1.5457e-008   
  1.2             2.9202e-009     -1.4681e-008   
  1.19            3.0516e-009     -1.0884e-008   
  1.18            3.3183e-009     -1.5767e-008   
  1.17            2.7193e-009     -1.5673e-008   
  1.16            2.837e-009      -1.5255e-008   
  1.15            2.9542e-009     -1.4474e-008   
  1.14            3.0903e-009     -1.044e-008    
  1.13            3.2924e-009     -1.5724e-008   
  1.12            2.7598e-009     -1.5619e-008   
  1.11            2.868e-009      -1.5027e-008   
  1.1             3.0042e-009     -1.1489e-008   
  1.09            3.3399e-009     -1.5622e-008   
  1.08            2.6892e-009     -1.5754e-008   
  1.07            2.7935e-009     -1.5401e-008   
  1.06            2.9116e-009     -1.4765e-008   
  1.05            3.0338e-009     -1.0939e-008   
  1.04            3.3123e-009     -1.5699e-008   
  1.03            2.7198e-009     -1.6241e-008   
  1.02            2.3408e-009     -1.4696e-008   
  1.01            3.0394e-009     -1.0989e-008   
  1               3.3163e-009     -1.5758e-008   
  0.99            2.7138e-009     -1.5688e-008   
  0.98            2.8254e-009     -1.5266e-008   
  0.97            2.9426e-009     -1.4499e-008   
  0.96            3.079e-009      -1.0452e-008   
  0.95            3.287e-009      -1.5875e-008   
  0.94            2.751e-009      -1.5656e-008   
  0.93            2.8632e-009     -1.5066e-008   
  0.92            2.9837e-009     -1.1434e-008   
  0.91            3.3272e-009     -1.5656e-008   
  0.9             2.6829e-009     -1.6634e-008   
  0.89            2.3081e-009     -1.5069e-008   
  0.88            2.9864e-009     -1.1391e-008   
  0.87            3.3237e-009     -1.5753e-008   
  0.86            2.6814e-009     -1.5905e-008   
  0.85            2.7836e-009     -1.5578e-008   
  0.84            2.9004e-009     -1.4657e-008   
  0.83            3.0302e-009     -1.0985e-008   
  0.82            3.3069e-009     -1.5818e-008   
  0.81            2.7202e-009     -1.6148e-008   
  0.8             2.3331e-009     -1.4647e-008   
  0.79            3.0254e-009     -1.0996e-008   
  0.78            3.3034e-009     -1.5863e-008   
  0.77            2.713e-009      -1.5837e-008   
  0.76            2.815e-009      -1.5287e-008   
  0.75            2.9339e-009     -1.448e-008    
  0.74            3.0695e-009     -1.0478e-008   
  0.73            3.2847e-009     -1.5891e-008   
  0.72            2.7417e-009     -1.5603e-008   
  0.71            2.8502e-009     -1.4939e-008   
  0.7             2.9813e-009     -1.15e-008     
  0.69            3.3158e-009     -1.5754e-008   
  0.68            2.6782e-009     -1.5805e-008   
  0.67            2.7755e-009     -1.5451e-008   
  0.66            2.8956e-009     -1.4552e-008   
  0.65            3.0229e-009     -1.0971e-008   
  0.64            3.2952e-009     -1.5788e-008   
  0.63            2.7109e-009     -1.5767e-008   
  0.62            2.8063e-009     -1.525e-008    
  0.61            2.9332e-009     -1.4489e-008   
  0.6             3.0726e-009     -1.0503e-008   
  0.59            3.274e-009      -1.5821e-008   
  0.58            2.7319e-009     -1.5585e-008   
  0.57            2.8447e-009     -1.4948e-008   
  0.56            2.9734e-009     -1.1371e-008   
  0.55            3.3244e-009     -1.5646e-008   
  0.54            2.6628e-009     -1.5755e-008   
  0.53            2.7723e-009     -1.5354e-008   
  0.52            2.8863e-009     -1.4667e-008   
  0.51            3.0237e-009     -1.1091e-008   
  0.5             3.2991e-009     -1.5693e-008   
  0.49            2.7005e-009     -1.5542e-008   
  0.48            2.8051e-009     -1.522e-008    
  0.47            2.9265e-009     -1.4515e-008   
  0.46            3.0594e-009     -1.0536e-008   
  0.45            3.2733e-009     -1.5711e-008   
  0.44            2.7311e-009     -1.5466e-008   
  0.43            2.8426e-009     -1.4946e-008   
  0.42            2.9715e-009     -1.1384e-008   
  0.41            3.3188e-009     -1.5656e-008   
  0.4             2.666e-009      -1.5538e-008   
  0.39            2.7642e-009     -1.5303e-008   
  0.38            2.8837e-009     -1.4651e-008   
  0.37            3.0201e-009     -1.1014e-008   
  0.36            3.2967e-009     -1.568e-008    
  0.35            2.6941e-009     -1.543e-008    
  0.34            2.8005e-009     -1.5082e-008   
  0.33            2.9256e-009     -1.4396e-008   
  0.32            3.0588e-009     -1.042e-008    
  0.31            3.2747e-009     -1.5719e-008   
  0.3             2.7312e-009     -1.5387e-008   
  0.29            2.8434e-009     -1.4906e-008   
  0.28            2.9756e-009     -1.1409e-008   
  0.27            3.3091e-009     -1.5666e-008   
  0.26            2.6677e-009     -1.5602e-008   
  0.25            2.7641e-009     -1.5278e-008   
  0.24            2.8908e-009     -1.4643e-008   
  0.23            3.0151e-009     -1.0852e-008   
  0.22            3.2845e-009     -1.5671e-008   
  0.21            2.6962e-009     -1.5571e-008   
  0.2             2.8002e-009     -1.5118e-008   
  0.19            2.931e-009      -1.1714e-008   
  0.18            3.3202e-009     -1.5465e-008   
  0.17            2.6256e-009     -1.5804e-008   
  0.16            2.7309e-009     -1.5353e-008   
  0.15            2.8439e-009     -1.4794e-008   
  0.14            2.9781e-009     -1.127e-008    
  0.13            3.2998e-009     -1.5724e-008   
  0.12            2.658e-009      -1.5479e-008   
  0.11            2.7644e-009     -1.5152e-008   
  0.1             2.8853e-009     -1.4548e-008   
  0.09            3.0188e-009     -1.0784e-008   
  0.08            3.2729e-009     -1.5607e-008   
  0.07            2.6907e-009     -1.5402e-008   
  0.06            2.7978e-009     -1.5056e-008   
  0.05            2.9324e-009     -1.1712e-008   
  0.04            3.312e-009      -1.5619e-008   
  0.03            2.6315e-009     -1.5544e-008   
  0.02            2.7308e-009     -1.5421e-008   
  0.01            2.8382e-009     -1.4713e-008   
  0               2.9753e-009     -1.1326e-008   
  -0.01           2.4544e-009     -1.3736e-008   
  -0.02           3.2223e-009     -1.5675e-008   
  -0.03           2.6877e-009     -1.5372e-008   
  -0.04           2.8042e-009     -1.4943e-008   
  -0.05           2.9339e-009     -1.1633e-008   
  -0.06           3.2997e-009     -1.554e-008    
  -0.07           2.6229e-009     -1.5715e-008   
  -0.08           2.719e-009      -1.5285e-008   
  -0.09           2.8363e-009     -1.4756e-008   
  -0.1            2.9741e-009     -1.1057e-008   
  -0.11           3.2749e-009     -1.5645e-008   
  -0.12           2.6494e-009     -1.5465e-008   
  -0.13           2.7591e-009     -1.5153e-008   
  -0.14           2.881e-009      -1.4522e-008   
  -0.15           3.0064e-009     -1.0712e-008   
  -0.16           3.236e-009      -1.5802e-008   
  -0.17           2.6764e-009     -1.5482e-008   
  -0.18           2.7801e-009     -1.4899e-008   
  -0.19           2.8907e-009     -1.1481e-008   
  -0.2            3.2294e-009     -1.5548e-008   
  -0.21           2.5412e-009     -1.6556e-008   
  -0.22           2.134e-009      -1.4796e-008   
  -0.23           2.7505e-009     -1.1251e-008   
  -0.24           3.017e-009      -1.5346e-008   
  -0.25           2.2351e-009     -1.626e-008    
  -0.26           1.6904e-009     -1.4361e-008   
  -0.27           2.0807e-009     -1.0594e-008   
  -0.28           2.0388e-009     -1.5778e-008   
  -0.29           -1.747e-009     -4.594e-009    
  -0.3            -2.0824e-009    -1.4517e-008   
  -0.31           -1.6573e-009    -1.2719e-008   
  -0.32           -3.4586e-009    1.8492e-008    
  -0.33           -8.381e-009     1.8124e-008    
  -0.34           -1.0184e-008    5.03e-009      
  -0.35           -1.7109e-008    2.3286e-008    
  -0.36           -2.3896e-008    1.7084e-008    
  -0.37           -3.7557e-008    4.4662e-008    
  -0.38           -5.3217e-008    4.6785e-008    
  -0.39           -7.845e-008     8.3388e-008    
  -0.4            -1.1649e-007    1.2214e-007    
  -0.41           -1.6838e-007    1.5284e-007    
  -0.42           -2.4534e-007    2.6059e-007    
  -0.43           -3.5643e-007    3.4118e-007    
  -0.44           -5.081e-007     5.1913e-007    
  -0.45           -7.4884e-007    7.418e-007     
  -0.46           -1.06831e-006   1.0796e-006    
  -0.47           -1.5746e-006    1.5753e-006    
  -0.48           -2.2536e-006    2.2566e-006    
  -0.49           -3.2143e-006    3.2173e-006    
  -0.5            -4.7217e-006    4.7192e-006    
  -0.51           -6.6974e-006    6.7059e-006    
  -0.52           -9.7292e-006    9.7186e-006    
  -0.53           -1.362e-005     1.3648e-005    
  -0.54           -1.8946e-005    1.8956e-005    
  -0.55           -2.666e-005     2.6668e-005    
  -0.56           -3.6058e-005    3.6067e-005    
  -0.57           -4.9111e-005    4.916e-005     
  -0.58           -6.427e-005     6.4321e-005    
  -0.59           -8.2999e-005    8.302e-005     
  -0.6            -0.000106934    0.00010698     
  -0.61           -0.00013293     0.00013302     
  -0.62           -0.00016537     0.00016569     
  -0.63           -0.00019977     0.00020003     
  -0.64           -0.00024162     0.00024166     
  -0.65           -0.00028463     0.00028486     
  -0.66           -0.00033193     0.00033238     
  -0.67           -0.00038772     0.00038803     
  -0.68           -0.0004441      0.00044417     
  -0.69           -0.00050997     0.00051048     
  -0.7            -0.00057572     0.00057613     
  -0.71           -0.00064649     0.0006467      
  -0.72           -0.00072732     0.00072752     
  -0.73           -0.00080761     0.00080807     
  -0.74           -0.00089917     0.00089894     
  -0.75           -0.00098914     0.00098905     
  -0.76           -0.00108305     0.00108371     
  -0.77           -0.001189       0.0011905      
  -0.78           -0.0012925      0.0012945      
  -0.79           -0.0014089      0.0014116      
  -0.8            -0.0015229      0.001524       
  -0.81           -0.0016403      0.0016425      
  -0.82           -0.0017732      0.0017747      
  -0.83           -0.0018995      0.0019014      
  -0.84           -0.0020391      0.0020403      
  -0.85           -0.0021712      0.0021714      
  -0.86           -0.0023059      0.0023075      
  -0.87           -0.0024591      0.0024612      
  -0.88           -0.0026012      0.002604       
