! VERSION = 6.00
BEGIN_HEADER
 ICCAP_INPUTS
  VU1        V  E GROUND SMU1 0.1 CON        0
  VU2        V  S GROUND SMU4 0.1 CON        0
  VN         V  B GROUND SMU2 0.015 CON        0
  VP         V  C GROUND SMU3 0.015 LIN        1    -3         1          401  0.01      
 ICCAP_OUTPUTS
  IP         I  C GROUND SMU3 B
  IN         I  B GROUND SMU2 B
END_HEADER

BEGIN_DB
 ICCAP_VAR VU1        0              
 ICCAP_VAR VU2        0              
 ICCAP_VAR VN         0              

 #VP              IP              IN             
  -3              -9.778e-010     -3.933e-009    
  -2.99           -1.7983e-009    -3.492e-009    
  -2.98           -1.843e-009     -3.299e-009    
  -2.97           -1.8915e-009    -3.291e-009    
  -2.96           -1.9308e-009    -3.231e-009    
  -2.95           -1.9707e-009    -3.358e-009    
  -2.94           -1.9437e-009    -3.28e-009     
  -2.93           -1.9773e-009    -3.303e-009    
  -2.92           -1.9507e-009    -3.336e-009    
  -2.91           -1.9883e-009    -3.25e-009     
  -2.9            -1.9605e-009    -3.287e-009    
  -2.89           -1.9936e-009    -3.298e-009    
  -2.88           -1.9711e-009    -3.332e-009    
  -2.87           -1.9372e-009    -3.318e-009    
  -2.86           -1.9765e-009    -3.335e-009    
  -2.85           -1.9479e-009    -3.32e-009     
  -2.84           -1.9864e-009    -3.23e-009     
  -2.83           -1.9566e-009    -3.316e-009    
  -2.82           -1.9957e-009    -3.378e-009    
  -2.81           -1.9676e-009    -3.247e-009    
  -2.8            -1.934e-009     -3.254e-009    
  -2.79           -1.975e-009     -3.301e-009    
  -2.78           -2.0055e-009    -3.24e-009     
  -2.77           -1.9764e-009    -3.29e-009     
  -2.76           -1.9515e-009    -3.384e-009    
  -2.75           -1.9875e-009    -3.325e-009    
  -2.74           -1.9599e-009    -3.335e-009    
  -2.73           -1.9939e-009    -3.373e-009    
  -2.72           -1.9686e-009    -3.333e-009    
  -2.71           -1.9997e-009    -3.277e-009    
  -2.7            -1.9775e-009    -3.231e-009    
  -2.69           -1.9458e-009    -3.306e-009    
  -2.68           -1.988e-009     -3.367e-009    
  -2.67           -1.9531e-009    -3.344e-009    
  -2.66           -1.9921e-009    -3.291e-009    
  -2.65           -1.9592e-009    -3.342e-009    
  -2.64           -2.0037e-009    -3.382e-009    
  -2.63           -1.9674e-009    -3.229e-009    
  -2.62           -1.942e-009     -3.33e-009     
  -2.61           -1.98e-009      -3.328e-009    
  -2.6            -1.9498e-009    -3.301e-009    
  -2.59           -1.9854e-009    -3.25e-009     
  -2.58           -1.9598e-009    -3.156e-009    
  -2.57           -1.9949e-009    -3.325e-009    
  -2.56           -1.9685e-009    -3.268e-009    
  -2.55           -2.0026e-009    -3.339e-009    
  -2.54           -1.9718e-009    -3.358e-009    
  -2.53           -2.0078e-009    -3.349e-009    
  -2.52           -1.9823e-009    -3.407e-009    
  -2.51           -1.9509e-009    -3.32e-009     
  -2.5            -1.9898e-009    -3.252e-009    
  -2.49           -1.9536e-009    -3.295e-009    
  -2.48           -1.9963e-009    -3.352e-009    
  -2.47           -1.9625e-009    -3.306e-009    
  -2.46           -2.0004e-009    -3.387e-009    
  -2.45           -1.969e-009     -3.304e-009    
  -2.44           -2.0123e-009    -3.162e-009    
  -2.43           -1.9761e-009    -3.27e-009     
  -2.42           -1.95e-009      -3.328e-009    
  -2.41           -1.9866e-009    -3.281e-009    
  -2.4            -1.9544e-009    -3.32e-009     
  -2.39           -1.9935e-009    -3.236e-009    
  -2.38           -1.9615e-009    -3.28e-009     
  -2.37           -1.9979e-009    -3.271e-009    
  -2.36           -1.9686e-009    -3.291e-009    
  -2.35           -2.0109e-009    -3.297e-009    
  -2.34           -1.9791e-009    -3.236e-009    
  -2.33           -1.9442e-009    -3.274e-009    
  -2.32           -1.9837e-009    -3.313e-009    
  -2.31           -1.9499e-009    -3.315e-009    
  -2.3            -1.9927e-009    -3.215e-009    
  -2.29           -1.9599e-009    -3.278e-009    
  -2.28           -2.002e-009     -3.256e-009    
  -2.27           -1.9643e-009    -3.273e-009    
  -2.26           -2.0046e-009    -3.226e-009    
  -2.25           -1.9746e-009    -3.273e-009    
  -2.24           -1.946e-009     -3.26e-009     
  -2.23           -1.983e-009     -3.222e-009    
  -2.22           -1.9525e-009    -3.232e-009    
  -2.21           -1.9915e-009    -3.289e-009    
  -2.2            -1.9603e-009    -3.216e-009    
  -2.19           -1.9999e-009    -3.313e-009    
  -2.18           -1.9676e-009    -3.254e-009    
  -2.17           -2.0062e-009    -3.214e-009    
  -2.16           -1.9761e-009    -3.288e-009    
  -2.15           -1.9399e-009    -3.279e-009    
  -2.14           -1.9859e-009    -3.176e-009    
  -2.13           -1.9505e-009    -3.234e-009    
  -2.12           -1.993e-009     -3.248e-009    
  -2.11           -1.9612e-009    -3.305e-009    
  -2.1            -2.0021e-009    -3.223e-009    
  -2.09           -1.9699e-009    -3.233e-009    
  -2.08           -1.9398e-009    -3.298e-009    
  -2.07           -1.9806e-009    -3.254e-009    
  -2.06           -2.0174e-009    -3.271e-009    
  -2.05           -1.9866e-009    -3.244e-009    
  -2.04           -1.9544e-009    -3.281e-009    
  -2.03           -1.9964e-009    -3.285e-009    
  -2.02           -1.9644e-009    -3.286e-009    
  -2.01           -2.0013e-009    -3.2e-009      
  -2              -1.9746e-009    -3.266e-009    
  -1.99           -1.9381e-009    -3.356e-009    
  -1.98           -1.9786e-009    -3.229e-009    
  -1.97           -1.9445e-009    -3.263e-009    
  -1.96           -1.9877e-009    -3.277e-009    
  -1.95           -1.956e-009     -3.254e-009    
  -1.94           -1.9913e-009    -3.344e-009    
  -1.93           -1.9573e-009    -3.297e-009    
  -1.92           -1.9994e-009    -3.231e-009    
  -1.91           -1.966e-009     -3.299e-009    
  -1.9            -2.0045e-009    -3.253e-009    
  -1.89           -1.9729e-009    -3.199e-009    
  -1.88           -1.9405e-009    -3.287e-009    
  -1.87           -1.9789e-009    -3.232e-009    
  -1.86           -1.9501e-009    -3.224e-009    
  -1.85           -1.988e-009     -3.291e-009    
  -1.84           -1.955e-009     -3.212e-009    
  -1.83           -1.9926e-009    -3.251e-009    
  -1.82           -1.9617e-009    -3.288e-009    
  -1.81           -1.999e-009     -3.266e-009    
  -1.8            -1.9715e-009    -3.195e-009    
  -1.79           -2.0051e-009    -3.288e-009    
  -1.78           -1.9777e-009    -3.322e-009    
  -1.77           -2.0119e-009    -3.169e-009    
  -1.76           -1.9792e-009    -3.282e-009    
  -1.75           -1.9478e-009    -3.295e-009    
  -1.74           -1.9855e-009    -3.187e-009    
  -1.73           -1.9524e-009    -3.267e-009    
  -1.72           -1.9941e-009    -3.29e-009     
  -1.71           -1.9593e-009    -3.207e-009    
  -1.7            -1.9964e-009    -3.232e-009    
  -1.69           -1.9624e-009    -3.299e-009    
  -1.68           -2.0063e-009    -3.217e-009    
  -1.67           -1.9714e-009    -3.286e-009    
  -1.66           -2.0132e-009    -3.361e-009    
  -1.65           -1.9781e-009    -3.098e-009    
  -1.64           -1.9475e-009    -3.311e-009    
  -1.63           -1.9908e-009    -3.279e-009    
  -1.62           -1.9544e-009    -3.261e-009    
  -1.61           -1.9918e-009    -3.26e-009     
  -1.6            -1.96e-009      -3.321e-009    
  -1.59           -2.002e-009     -3.447e-009    
  -1.58           -1.97e-009      -3.148e-009    
  -1.57           -2.0081e-009    -3.18e-009     
  -1.56           -1.9795e-009    -3.137e-009    
  -1.55           -1.9447e-009    -3.229e-009    
  -1.54           -1.9846e-009    -3.109e-009    
  -1.53           -1.9482e-009    -3.315e-009    
  -1.52           -1.9955e-009    -3.214e-009    
  -1.51           -2.0303e-009    -3.262e-009    
  -1.5            -1.9988e-009    -3.246e-009    
  -1.49           -1.9681e-009    -3.277e-009    
  -1.48           -2.0063e-009    -3.228e-009    
  -1.47           -1.9729e-009    -3.235e-009    
  -1.46           -1.9452e-009    -3.303e-009    
  -1.45           -1.9809e-009    -3.216e-009    
  -1.44           -1.9514e-009    -3.282e-009    
  -1.43           -1.9871e-009    -3.186e-009    
  -1.42           -1.9577e-009    -3.313e-009    
  -1.41           -1.9955e-009    -3.273e-009    
  -1.4            -1.9664e-009    -3.278e-009    
  -1.39           -2.0018e-009    -3.19e-009     
  -1.38           -1.9698e-009    -3.279e-009    
  -1.37           -2.0082e-009    -3.215e-009    
  -1.36           -1.9775e-009    -3.256e-009    
  -1.35           -1.9437e-009    -3.275e-009    
  -1.34           -1.9821e-009    -3.139e-009    
  -1.33           -1.9519e-009    -3.258e-009    
  -1.32           -1.9934e-009    -3.287e-009    
  -1.31           -1.9613e-009    -3.213e-009    
  -1.3            -2.0019e-009    -3.291e-009    
  -1.29           -1.9684e-009    -3.282e-009    
  -1.28           -2.0066e-009    -3.224e-009    
  -1.27           -1.9746e-009    -3.199e-009    
  -1.26           -1.9411e-009    -3.308e-009    
  -1.25           -1.9778e-009    -3.301e-009    
  -1.24           -1.9473e-009    -3.302e-009    
  -1.23           -1.9849e-009    -3.246e-009    
  -1.22           -1.9576e-009    -3.246e-009    
  -1.21           -1.9946e-009    -3.196e-009    
  -1.2            -1.9647e-009    -3.285e-009    
  -1.19           -1.9999e-009    -3.235e-009    
  -1.18           -1.9729e-009    -3.32e-009     
  -1.17           -2.0099e-009    -3.273e-009    
  -1.16           -1.979e-009     -3.232e-009    
  -1.15           -1.9424e-009    -3.299e-009    
  -1.14           -1.9844e-009    -3.289e-009    
  -1.13           -1.9546e-009    -3.256e-009    
  -1.12           -1.9949e-009    -3.21e-009     
  -1.11           -1.9619e-009    -3.207e-009    
  -1.1            -2.0005e-009    -3.206e-009    
  -1.09           -1.9645e-009    -3.327e-009    
  -1.08           -2.0084e-009    -3.299e-009    
  -1.07           -1.9759e-009    -3.18e-009     
  -1.06           -1.9436e-009    -3.332e-009    
  -1.05           -1.9823e-009    -3.226e-009    
  -1.04           -1.9496e-009    -3.304e-009    
  -1.03           -1.9868e-009    -3.25e-009     
  -1.02           -1.9588e-009    -3.295e-009    
  -1.01           -1.9962e-009    -3.176e-009    
  -1              -1.9607e-009    -3.183e-009    
  -0.99           -1.9296e-009    -3.308e-009    
  -0.98           -1.9688e-009    -3.264e-009    
  -0.97           -1.9343e-009    -3.23e-009     
  -0.96           -1.9736e-009    -3.235e-009    
  -0.95           -1.9462e-009    -3.243e-009    
  -0.94           -1.9835e-009    -3.183e-009    
  -0.93           -1.9494e-009    -3.287e-009    
  -0.92           -1.9916e-009    -3.298e-009    
  -0.91           -1.9588e-009    -3.309e-009    
  -0.9            -1.9988e-009    -3.167e-009    
  -0.89           -1.9647e-009    -3.266e-009    
  -0.88           -1.9345e-009    -3.247e-009    
  -0.87           -1.9732e-009    -3.342e-009    
  -0.86           -2.0123e-009    -3.284e-009    
  -0.85           -1.9812e-009    -3.301e-009    
  -0.84           -1.944e-009     -3.287e-009    
  -0.83           -1.9877e-009    -3.313e-009    
  -0.82           -1.9546e-009    -3.227e-009    
  -0.81           -1.9966e-009    -3.274e-009    
  -0.8            -1.9584e-009    -3.327e-009    
  -0.79           -1.9964e-009    -3.24e-009     
  -0.78           -1.9652e-009    -3.308e-009    
  -0.77           -2.0047e-009    -3.296e-009    
  -0.76           -1.9749e-009    -3.242e-009    
  -0.75           -2.0101e-009    -3.287e-009    
  -0.74           -1.9805e-009    -3.308e-009    
  -0.73           -1.9536e-009    -3.333e-009    
  -0.72           -1.991e-009     -3.355e-009    
  -0.71           -1.9564e-009    -3.367e-009    
  -0.7            -1.9928e-009    -3.234e-009    
  -0.69           -1.9667e-009    -3.282e-009    
  -0.68           -2.0016e-009    -3.279e-009    
  -0.67           -1.9712e-009    -3.254e-009    
  -0.66           -2.0102e-009    -3.334e-009    
  -0.65           -1.9791e-009    -3.268e-009    
  -0.64           -1.9432e-009    -3.236e-009    
  -0.63           -1.9841e-009    -3.258e-009    
  -0.62           -1.9501e-009    -3.326e-009    
  -0.61           -1.994e-009     -3.224e-009    
  -0.6            -1.9558e-009    -3.286e-009    
  -0.59           -1.9979e-009    -3.281e-009    
  -0.58           -1.9651e-009    -3.261e-009    
  -0.57           -2.0071e-009    -3.314e-009    
  -0.56           -1.9726e-009    -3.327e-009    
  -0.55           -2.0132e-009    -3.284e-009    
  -0.54           -1.9797e-009    -3.244e-009    
  -0.53           -1.9505e-009    -3.317e-009    
  -0.52           -1.9902e-009    -3.321e-009    
  -0.51           -1.9578e-009    -3.327e-009    
  -0.5            -1.9964e-009    -3.27e-009     
  -0.49           -1.9635e-009    -3.278e-009    
  -0.48           -2.0032e-009    -3.346e-009    
  -0.47           -1.967e-009     -3.361e-009    
  -0.46           -2.0077e-009    -3.309e-009    
  -0.45           -1.9787e-009    -3.233e-009    
  -0.44           -1.9471e-009    -3.287e-009    
  -0.43           -1.9864e-009    -3.333e-009    
  -0.42           -1.956e-009     -3.296e-009    
  -0.41           -1.9949e-009    -3.348e-009    
  -0.4            -1.9606e-009    -3.316e-009    
  -0.39           -1.9981e-009    -3.334e-009    
  -0.38           -1.9674e-009    -3.281e-009    
  -0.37           -1.9354e-009    -3.338e-009    
  -0.36           -1.9796e-009    -3.318e-009    
  -0.35           -2.0164e-009    -3.298e-009    
  -0.34           -1.9837e-009    -3.279e-009    
  -0.33           -1.9487e-009    -3.339e-009    
  -0.32           -1.9915e-009    -3.342e-009    
  -0.31           -1.9571e-009    -3.364e-009    
  -0.3            -2.0015e-009    -3.286e-009    
  -0.29           -1.9685e-009    -3.317e-009    
  -0.28           -1.9311e-009    -3.263e-009    
  -0.27           -1.9718e-009    -3.321e-009    
  -0.26           -2.0136e-009    -3.299e-009    
  -0.25           -1.9789e-009    -3.377e-009    
  -0.24           -1.9491e-009    -3.278e-009    
  -0.23           -1.9865e-009    -3.327e-009    
  -0.22           -1.9557e-009    -3.353e-009    
  -0.21           -1.9949e-009    -3.302e-009    
  -0.2            -1.9656e-009    -3.261e-009    
  -0.19           -1.9994e-009    -3.358e-009    
  -0.18           -1.9706e-009    -3.363e-009    
  -0.17           -2.0046e-009    -3.34e-009     
  -0.16           -1.9765e-009    -3.283e-009    
  -0.15           -1.9421e-009    -3.295e-009    
  -0.14           -1.9843e-009    -3.253e-009    
  -0.13           -1.9551e-009    -3.369e-009    
  -0.12           -1.9942e-009    -3.32e-009     
  -0.11           -1.9661e-009    -3.412e-009    
  -0.1            -2.0034e-009    -3.402e-009    
  -0.09           -1.9719e-009    -3.34e-009     
  -0.08           -1.9403e-009    -3.32e-009     
  -0.07           -1.9756e-009    -3.4e-009      
  -0.06           -2.0169e-009    -3.373e-009    
  -0.05           -1.9854e-009    -3.393e-009    
  -0.04           -1.9536e-009    -3.429e-009    
  -0.03           -1.9899e-009    -3.357e-009    
  -0.02           -1.9561e-009    -3.286e-009    
  -0.01           -1.9946e-009    -3.365e-009    
  0               -2.8502e-009    -3.335e-009    
  0.01            -1.9907e-009    -3.365e-009    
  0.02            -1.9597e-009    -3.361e-009    
  0.03            -2.0011e-009    -3.352e-009    
  0.04            -1.965e-009     -3.303e-009    
  0.05            -2.0047e-009    -3.406e-009    
  0.06            -1.9761e-009    -3.367e-009    
  0.07            -1.9456e-009    -3.336e-009    
  0.08            -1.9777e-009    -3.333e-009    
  0.09            -1.9491e-009    -3.339e-009    
  0.1             -1.9835e-009    -3.329e-009    
  0.11            -1.9567e-009    -3.323e-009    
  0.12            -1.9286e-009    -3.303e-009    
  0.13            -1.9648e-009    -3.367e-009    
  0.14            -1.9324e-009    -3.4e-009      
  0.15            -1.9688e-009    -3.31e-009     
  0.16            -1.9339e-009    -3.342e-009    
  0.17            -1.9727e-009    -3.366e-009    
  0.18            -1.9394e-009    -3.418e-009    
  0.19            -1.9718e-009    -3.3e-009      
  0.2             -1.9349e-009    -3.361e-009    
  0.21            -1.9644e-009    -3.337e-009    
  0.22            -1.9222e-009    -3.377e-009    
  0.23            -1.8784e-009    -3.392e-009    
  0.24            -1.8939e-009    -3.429e-009    
  0.25            -1.8352e-009    -3.467e-009    
  0.26            -1.8274e-009    -3.489e-009    
  0.27            -2.558e-009     -3.572e-009    
  0.28            -2.4292e-009    -3.644e-009    
  0.29            4.346e-010      -4.598e-009    
  0.3             7.68e-010       -6.143e-009    
  0.31            1.1651e-009     -7.533e-009    
  0.32            1.6235e-009     -9.513e-009    
  0.33            2.2245e-009     -1.2157e-008   
  0.34            3.1052e-009     -1.4513e-008   
  0.35            4.7946e-009     -1.5907e-008   
  0.36            6.524e-009      -1.7235e-008   
  0.37            8.7735e-009     -1.5897e-008   
  0.38            1.1773e-008     -1.5069e-008   
  0.39            1.2917e-008     -8.74e-009     
  0.4             2.0176e-008     -2.4099e-008   
  0.41            2.7646e-008     -2.3038e-008   
  0.42            4.1852e-008     -4.7168e-008   
  0.43            5.7522e-008     -5.1661e-008   
  0.44            8.7077e-008     -9.2747e-008   
  0.45            1.238e-007      -1.2258e-007   
  0.46            1.7779e-007     -1.8418e-007   
  0.47            2.6447e-007     -2.5717e-007   
  0.48            3.7014e-007     -3.8108e-007   
  0.49            5.5472e-007     -5.3867e-007   
  0.5             7.8988e-007     -8.0543e-007   
  0.51            1.1629e-006     -1.1686e-006   
  0.52            1.6813e-006     -1.6692e-006   
  0.53            2.4055e-006     -2.4156e-006   
  0.54            3.5581e-006     -3.5394e-006   
  0.55            5.0976e-006     -5.1133e-006   
  0.56            7.5468e-006     -7.5294e-006   
  0.57            1.07588e-005    -1.07791e-005  
  0.58            1.5754e-005     -1.573e-005    
  0.59            2.2255e-005     -2.2237e-005   
  0.6             3.1178e-005     -3.1181e-005   
  0.61            4.4401e-005     -4.4346e-005   
  0.62            6.0735e-005     -6.0747e-005   
  0.63            8.3762e-005     -8.3797e-005   
  0.64            0.00011111      -0.0001108     
  0.65            0.00014481      -0.00014481    
  0.66            0.00018981      -0.00018965    
  0.67            0.00023997      -0.00023959    
  0.68            0.0003043       -0.00030407    
  0.69            0.00037435      -0.00037419    
  0.7             0.00045604      -0.00045552    
  0.71            0.00055751      -0.00055714    
  0.72            0.00066505      -0.00066506    
  0.73            0.00079782      -0.00079783    
  0.74            0.00093794      -0.00093738    
  0.75            0.00109547      -0.0010954     
  0.76            0.0012859       -0.0012833     
  0.77            0.0014821       -0.0014808     
  0.78            0.0017186       -0.0017167     
  0.79            0.00196         -0.0019582     
  0.8             0.0022254       -0.0022234     
  0.81            0.0025348       -0.0025339     
  0.82            0.0028479       -0.0028464     
  0.83            0.0032092       -0.0032068     
  0.84            0.0035689       -0.0035675     
  0.85            0.0039513       -0.0039486     
  0.86            0.0043834       -0.0043816     
  0.87            0.0048074       -0.0048056     
  0.88            0.0052821       -0.0052819     
