! VERSION = 6.00
BEGIN_HEADER
 ICCAP_INPUTS
  VU1        V  E GROUND SMU1 0.1 CON        0
  VU2        V  S GROUND SMU4 0.1 CON        0
  VN         V  B GROUND SMU2 0.015 CON        0
  VP         V  C GROUND SMU3 0.015 LIN        1    -3         1          401  0.01      
 ICCAP_OUTPUTS
  IP         I  C GROUND SMU3 B
  IN         I  B GROUND SMU2 B
END_HEADER

BEGIN_DB
 ICCAP_VAR VU1        0              
 ICCAP_VAR VU2        0              
 ICCAP_VAR VN         0              

 #VP              IP              IN             
  -3              -1.68e-008      1.9417e-009    
  -2.99           -1.7547e-008    3.3826e-009    
  -2.98           -1.7226e-008    3.3087e-009    
  -2.97           -1.6786e-008    3.1774e-009    
  -2.96           -1.6394e-008    3.0054e-009    
  -2.95           2.265e-009      3.38e-009      
  -2.94           -9.839e-009     5.2233e-009    
  -2.93           -1.5301e-008    2.5874e-009    
  -2.92           -1.7481e-008    3.4182e-009    
  -2.91           -1.742e-008     3.3536e-009    
  -2.9            -1.7076e-008    3.2398e-009    
  -2.89           -1.666e-008     3.1124e-009    
  -2.88           2.033e-009      3.2576e-009    
  -2.87           -9.375e-009     5.3194e-009    
  -2.86           -1.5707e-008    2.7232e-009    
  -2.85           -1.7476e-008    3.4841e-009    
  -2.84           -1.7535e-008    3.4223e-009    
  -2.83           -1.7271e-008    3.3251e-009    
  -2.82           -1.6853e-008    3.203e-009     
  -2.81           -1.6465e-008    3.0593e-009    
  -2.8            2.327e-009      3.3327e-009    
  -2.79           -9.69e-009      5.2651e-009    
  -2.78           -1.5405e-008    2.6373e-009    
  -2.77           -1.7541e-008    3.4645e-009    
  -2.76           -1.7387e-008    3.3834e-009    
  -2.75           -1.7119e-008    3.2906e-009    
  -2.74           -1.6694e-008    3.1725e-009    
  -2.73           -1.6198e-008    2.9979e-009    
  -2.72           2.46e-009       3.447e-009     
  -2.71           -1.0024e-008    5.1732e-009    
  -2.7            -1.5056e-008    2.5627e-009    
  -2.69           -1.752e-008     3.4357e-009    
  -2.68           -1.7341e-008    3.376e-009     
  -2.67           -1.6963e-008    3.2458e-009    
  -2.66           -1.6496e-008    3.1154e-009    
  -2.65           2.192e-009      3.2612e-009    
  -2.64           -9.611e-009     5.3049e-009    
  -2.63           -1.553e-008     2.711e-009     
  -2.62           -1.7488e-008    3.4867e-009    
  -2.61           -1.7502e-008    3.4064e-009    
  -2.6            -1.7195e-008    3.3142e-009    
  -2.59           -1.6774e-008    3.2021e-009    
  -2.58           -1.6316e-008    3.0605e-009    
  -2.57           2.307e-009      3.3609e-009    
  -2.56           -9.867e-009     5.2347e-009    
  -2.55           -1.5377e-008    2.6115e-009    
  -2.54           -1.7476e-008    3.4977e-009    
  -2.53           -1.7425e-008    3.3866e-009    
  -2.52           -1.7114e-008    3.2643e-009    
  -2.51           -1.6599e-008    3.1543e-009    
  -2.5            1.984e-009      3.1823e-009    
  -2.49           -9.45e-009      5.3549e-009    
  -2.48           -1.558e-008     2.7797e-009    
  -2.47           -1.7357e-008    3.4787e-009    
  -2.46           -1.7401e-008    3.4367e-009    
  -2.45           -1.732e-008     3.337e-009     
  -2.44           -1.6855e-008    3.2289e-009    
  -2.43           -1.6369e-008    3.0847e-009    
  -2.42           2.168e-009      3.2454e-009    
  -2.41           -9.651e-009     5.305e-009     
  -2.4            -1.535e-008     2.6629e-009    
  -2.39           -1.7423e-008    3.444e-009     
  -2.38           -1.7301e-008    3.3842e-009    
  -2.37           -1.7149e-008    3.2806e-009    
  -2.36           -1.6779e-008    3.1895e-009    
  -2.35           -1.6172e-008    3.0169e-009    
  -2.34           2.347e-009      3.2886e-009    
  -2.33           -9.865e-009     5.2177e-009    
  -2.32           -1.5194e-008    2.5947e-009    
  -2.31           -1.7484e-008    3.441e-009     
  -2.3            -1.7235e-008    3.3734e-009    
  -2.29           -1.6891e-008    3.2455e-009    
  -2.28           -1.6507e-008    3.1074e-009    
  -2.27           2.062e-009      3.1629e-009    
  -2.26           -9.541e-009     5.3374e-009    
  -2.25           -1.5506e-008    2.7371e-009    
  -2.24           -1.7425e-008    3.4839e-009    
  -2.23           -1.743e-008     3.4178e-009    
  -2.22           -1.7226e-008    3.321e-009     
  -2.21           -1.6738e-008    3.2118e-009    
  -2.2            -1.6313e-008    3.0619e-009    
  -2.19           2.287e-009      3.2296e-009    
  -2.18           -9.754e-009     5.2648e-009    
  -2.17           -1.5366e-008    2.6412e-009    
  -2.16           -1.7408e-008    3.446e-009     
  -2.15           -1.7381e-008    3.3746e-009    
  -2.14           -1.7132e-008    3.2874e-009    
  -2.13           -1.669e-008     3.1732e-009    
  -2.12           -1.6077e-008    2.9896e-009    
  -2.11           2.464e-009      3.2842e-009    
  -2.1            -9.922e-009     5.1943e-009    
  -2.09           -1.5036e-008    2.5446e-009    
  -2.08           -1.7935e-008    3.3816e-009    
  -2.07           -1.7235e-008    3.3459e-009    
  -2.06           -1.6898e-008    3.2585e-009    
  -2.05           -1.6396e-008    3.1076e-009    
  -2.04           2.071e-009      3.1248e-009    
  -2.03           -9.621e-009     5.3508e-009    
  -2.02           -1.5385e-008    2.683e-009     
  -2.01           -1.742e-008     3.4596e-009    
  -2              -1.7335e-008    3.3923e-009    
  -1.99           -1.7125e-008    3.2943e-009    
  -1.98           -1.6707e-008    3.1919e-009    
  -1.97           -1.6246e-008    3.0465e-009    
  -1.96           2.322e-009      3.1947e-009    
  -1.95           -1.0068e-008    5.2602e-009    
  -1.94           -1.5238e-008    2.5531e-009    
  -1.93           -1.7401e-008    3.4277e-009    
  -1.92           -1.7159e-008    3.3668e-009    
  -1.91           -1.6954e-008    3.2592e-009    
  -1.9            -1.6475e-008    3.1296e-009    
  -1.89           -1.5904e-008    2.9205e-009    
  -1.88           2.539e-009      3.2529e-009    
  -1.87           -9.953e-009     5.1943e-009    
  -1.86           -1.508e-008     2.5179e-009    
  -1.85           -1.7349e-008    3.4354e-009    
  -1.84           -1.7181e-008    3.3245e-009    
  -1.83           -1.6972e-008    3.2233e-009    
  -1.82           -1.6357e-008    3.0745e-009    
  -1.81           2.275e-009      3.0936e-009    
  -1.8            -9.642e-009     5.314e-009     
  -1.79           -1.5369e-008    2.631e-009     
  -1.78           -1.7404e-008    3.4479e-009    
  -1.77           -1.7485e-008    3.3577e-009    
  -1.76           -1.6909e-008    3.2871e-009    
  -1.75           -1.6625e-008    3.1591e-009    
  -1.74           -1.6055e-008    3.0688e-009    
  -1.73           2.448e-009      3.1732e-009    
  -1.72           -9.802e-009     5.2396e-009    
  -1.71           -1.5185e-008    2.5455e-009    
  -1.7            -1.7474e-008    3.4225e-009    
  -1.69           -1.713e-008     3.3748e-009    
  -1.68           -1.6876e-008    3.2585e-009    
  -1.67           -1.6441e-008    3.1088e-009    
  -1.66           2.216e-009      3.0007e-009    
  -1.65           -9.628e-009     5.356e-009     
  -1.64           -1.5561e-008    2.6727e-009    
  -1.63           -1.7263e-008    3.4469e-009    
  -1.62           -1.7276e-008    3.3959e-009    
  -1.61           -1.7027e-008    3.3415e-009    
  -1.6            -1.6575e-008    3.2026e-009    
  -1.59           -1.6158e-008    3.0446e-009    
  -1.58           2.354e-009      3.0939e-009    
  -1.57           -9.785e-009     5.2839e-009    
  -1.56           -1.513e-008     2.5947e-009    
  -1.55           -1.7353e-008    3.4173e-009    
  -1.54           -1.7078e-008    3.3747e-009    
  -1.53           -1.6835e-008    3.2825e-009    
  -1.52           -1.6405e-008    3.1403e-009    
  -1.51           -1.5973e-008    2.9668e-009    
  -1.5            2.511e-009      3.1601e-009    
  -1.49           -9.963e-009     5.214e-009     
  -1.48           -1.4952e-008    2.5325e-009    
  -1.47           -1.7269e-008    3.4214e-009    
  -1.46           -1.7077e-008    3.391e-009     
  -1.45           -1.6746e-008    3.2346e-009    
  -1.44           -1.6271e-008    3.0945e-009    
  -1.43           2.244e-009      2.9773e-009    
  -1.42           -9.467e-009     5.3599e-009    
  -1.41           -1.5308e-008    2.6363e-009    
  -1.4            -1.7185e-008    3.4737e-009    
  -1.39           -1.7185e-008    3.3938e-009    
  -1.38           -1.6953e-008    3.283e-009     
  -1.37           -1.643e-008     3.1948e-009    
  -1.36           -1.597e-008     3.0018e-009    
  -1.35           2.506e-009      3.0132e-009    
  -1.34           -9.936e-009     5.2753e-009    
  -1.33           -1.5041e-008    2.5492e-009    
  -1.32           -1.7266e-008    3.453e-009     
  -1.31           -1.7367e-008    3.3888e-009    
  -1.3            -1.668e-008     3.2795e-009    
  -1.29           -1.6211e-008    3.1279e-009    
  -1.28           2.196e-009      2.8645e-009    
  -1.27           -9.623e-009     5.4073e-009    
  -1.26           -1.5243e-008    2.6825e-009    
  -1.25           -1.718e-008     3.5122e-009    
  -1.24           -1.7319e-008    3.4456e-009    
  -1.23           -1.6832e-008    3.3562e-009    
  -1.22           -1.6533e-008    3.2812e-009    
  -1.21           -1.6041e-008    3.0643e-009    
  -1.2            2.405e-009      2.9221e-009    
  -1.19           -9.948e-009     5.3364e-009    
  -1.18           -1.5021e-008    2.5571e-009    
  -1.17           -1.7258e-008    3.4996e-009    
  -1.16           -1.707e-008     3.3957e-009    
  -1.15           -1.6787e-008    3.3182e-009    
  -1.14           -1.6269e-008    3.1621e-009    
  -1.13           -1.5775e-008    2.9422e-009    
  -1.12           2.572e-009      3.0078e-009    
  -1.11           -1.0106e-008    5.2412e-009    
  -1.1            -1.4848e-008    2.2945e-009    
  -1.09           -1.6968e-008    3.3593e-009    
  -1.08           -1.6835e-008    3.2759e-009    
  -1.07           -1.6589e-008    3.1048e-009    
  -1.06           -1.6133e-008    2.9057e-009    
  -1.05           2.315e-009      2.8154e-009    
  -1.04           -9.526e-009     5.39e-009      
  -1.03           -1.5188e-008    2.1785e-009    
  -1.02           -1.6628e-008    3.2185e-009    
  -1.01           -1.6699e-008    4.2818e-009    
  -1              -1.5815e-008    3.9895e-009    
  -0.99           8.68e-010       2.5901e-009    
  -0.98           -7.821e-009     5.7044e-009    
  -0.97           -1.6219e-008    4.2714e-009    
  -0.96           -1.5783e-008    3.9775e-009    
  -0.95           7.26e-010       2.5675e-009    
  -0.94           -7.797e-009     5.7449e-009    
  -0.93           -1.582e-008     4.2897e-009    
  -0.92           -1.5631e-008    3.9616e-009    
  -0.91           6.72e-010       2.5158e-009    
  -0.9            -7.646e-009     5.7835e-009    
  -0.89           -1.5417e-008    4.3182e-009    
  -0.88           -1.5265e-008    3.9216e-009    
  -0.87           5.99e-010       2.4601e-009    
  -0.86           -7.489e-009     5.8353e-009    
  -0.85           -1.4707e-008    4.3206e-009    
  -0.84           -1.444e-008     1.6604e-009    
  -0.83           -1.4409e-008    1.3692e-009    
  -0.82           -1.4269e-008    3.6219e-009    
  -0.81           -1.4097e-008    4.3181e-009    
  -0.8            3.434e-009      3.2639e-009    
  -0.79           -9.612e-009     4.7621e-009    
  -0.78           2.527e-009      2.8283e-009    
  -0.77           -8.983e-009     5.159e-009     
  -0.76           -1.3171e-008    -5.791e-010    
  -0.75           -1.3357e-008    1.6625e-009    
  -0.74           -1.3258e-008    1.2265e-009    
  -0.73           -1.3391e-008    8.258e-010     
  -0.72           -1.2795e-008    2.455e-010     
  -0.71           -1.2716e-008    -1.978e-010    
  -0.7            2.731e-009      2.8734e-009    
  -0.69           -8.635e-009     4.9855e-009    
  -0.68           -1.2403e-008    1.2298e-009    
  -0.67           -1.2294e-008    7.879e-010     
  -0.66           -1.2357e-008    3.961e-010     
  -0.65           -1.1823e-008    -2.938e-010    
  -0.64           -1.1763e-008    -8.679e-010    
  -0.63           2.419e-009      2.6673e-009    
  -0.62           -7.84e-009      5.0054e-009    
  -0.61           -1.1037e-008    -2.4926e-009   
  -0.6            -1.1133e-008    3.015e-010     
  -0.59           -1.1739e-008    1.9353e-009    
  -0.58           -1.1473e-008    1.5535e-009    
  -0.57           -1.0955e-008    1.1618e-009    
  -0.56           -1.0532e-008    7.67e-010      
  -0.55           3.039e-009      3.0263e-009    
  -0.54           -7.072e-009     4.3518e-009    
  -0.53           -1.0555e-008    5.2745e-009    
  -0.52           -1.0514e-008    9.898e-010     
  -0.51           7.888e-010      -1.6907e-009   
  -0.5            7.1007e-009     3.5668e-009    
  -0.49           9.461e-010      6.0341e-009    
  -0.48           -5.5848e-009    6.9466e-009    
  -0.47           -8.5773e-009    6.2352e-009    
  -0.46           -9.1317e-009    1.3108e-009    
  -0.45           -5.5508e-009    -6.134e-009    
  -0.44           2.0478e-009     -9.247e-010    
  -0.43           7.1986e-009     4.0543e-009    
  -0.42           -4.401e-010     6.9458e-009    
  -0.41           -5.6883e-009    6.3188e-009    
  -0.4            -8.3279e-009    1.1702e-009    
  -0.39           -5.4903e-009    -6.7334e-009   
  -0.38           1.6329e-009     -2.0075e-009   
  -0.37           7.4562e-009     3.8799e-009    
  -0.36           1.914e-010      6.6213e-009    
  -0.35           -4.929e-009     6.4382e-009    
  -0.34           -7.7088e-009    1.2008e-009    
  -0.33           -5.4619e-009    -6.6541e-009   
  -0.32           1.2085e-009     -7.0939e-009   
  -0.31           2.9031e-009     -8.873e-010    
  -0.3            6.4169e-009     4.2985e-009    
  -0.29           -8.672e-010     7.0753e-009    
  -0.28           -4.928e-009     5.5999e-009    
  -0.27           -7.1164e-009    -7.059e-010    
  -0.26           -3.9944e-009    -7.9658e-009   
  -0.25           2.438e-009      -2.0033e-009   
  -0.24           6.995e-009      4.1003e-009    
  -0.23           -2.24e-010      7.0265e-009    
  -0.22           -4.2708e-009    5.8413e-009    
  -0.21           -6.8088e-009    -5.166e-010    
  -0.2            -4.0557e-009    -8.5245e-009   
  -0.19           2.0132e-009     -7.4438e-009   
  -0.18           3.8034e-009     -4.846e-010    
  -0.17           5.6003e-009     4.5525e-009    
  -0.16           -1.0472e-009    6.9328e-009    
  -0.15           -4.3287e-009    4.4895e-009    
  -0.14           -5.887e-009     -2.53e-009     
  -0.13           -5.3293e-009    -4.7028e-009   
  -0.12           -1.1821e-009    -7.0173e-009   
  -0.11           5.3947e-009     4.063e-010     
  -0.1            7.3851e-009     3.4445e-009    
  -0.09           6.9223e-009     4.1501e-009    
  -0.08           3.64e-011       7.0041e-009    
  -0.07           -3.4676e-009    5.3947e-009    
  -0.06           -5.8058e-009    -1.7464e-009   
  -0.05           -3.2267e-009    -9.4416e-009   
  -0.04           2.279e-009      -8.2314e-009   
  -0.03           4.1782e-009     -9.982e-010    
  -0.02           5.5484e-009     4.5848e-009    
  -0.01           -6.23e-010      6.8589e-009    
  0               -1.0864e-009    6.9239e-009    
  0.01            -3.9475e-009    3.1164e-009    
  0.02            -4.7815e-009    -4.7305e-009   
  0.03            -1.4491e-009    -8.3142e-009   
  0.04            4.7195e-009     -9.121e-010    
  0.05            5.1162e-009     4.7045e-009    
  0.06            -5.979e-010     6.8539e-009    
  0.07            -3.4839e-009    6.5732e-009    
  0.08            -4.2901e-009    7.016e-010     
  0.09            -3.9303e-009    -7.0211e-009   
  0.1             1.22e-011       -7.2226e-009   
  0.11            6.404e-009      9.884e-010     
  0.12            7.8026e-009     3.5659e-009    
  0.13            6.4e-009        4.2951e-009    
  0.14            1.927e-010      6.8204e-009    
  0.15            -2.7497e-009    6.7893e-009    
  0.16            -3.4009e-009    2.379e-009     
  0.17            -4.0809e-009    -5.6976e-009   
  0.18            -8.961e-010     -8.8067e-009   
  0.19            5.1205e-009     -1.3154e-009   
  0.2             5.136e-009      4.6846e-009    
  0.21            -1.367e-010     6.725e-009     
  0.22            -2.8949e-009    2.6709e-009    
  0.23            -3.8578e-009    -5.488e-009    
  0.24            -8.66e-010      -9.4875e-009   
  0.25            4.781e-009      -2.1964e-009   
  0.26            6.1291e-009     -1.3397e-008   
  0.27            3.6602e-009     -1.2591e-008   
  0.28            4.2367e-009     -1.1679e-008   
  0.29            7.6825e-009     -1.2174e-008   
  0.3             5.9704e-009     -1.4921e-008   
  0.31            4.9644e-009     -1.0625e-008   
  0.32            8.2696e-009     -1.6233e-008   
  0.33            8.7333e-009     -1.421e-008    
  0.34            1.0854e-008     -1.639e-008    
  0.35            1.2073e-008     -1.6322e-008   
  0.36            1.7426e-008     -1.6514e-008   
  0.37            2.8518e-008     -2.7771e-008   
  0.38            3.6894e-008     -3.8532e-008   
  0.39            5.9058e-008     -5.6605e-008   
  0.4             7.9021e-008     -8.1942e-008   
  0.41            1.185e-007      -1.1941e-007   
  0.42            1.7492e-007     -1.6851e-007   
  0.43            2.371e-007      -2.441e-007    
  0.44            3.5355e-007     -3.4411e-007   
  0.45            4.8447e-007     -5.0097e-007   
  0.46            6.9951e-007     -6.8809e-007   
  0.47            9.5725e-007     -9.7495e-007   
  0.48            1.3065e-006     -1.3099e-006   
  0.49            1.8062e-006     -1.8171e-006   
  0.5             2.4348e-006     -2.4212e-006   
  0.51            3.2805e-006     -3.2839e-006   
  0.52            4.3334e-006     -4.3255e-006   
  0.53            5.6663e-006     -5.6755e-006   
  0.54            7.5676e-006     -7.5587e-006   
  0.55            9.8421e-006     -9.8663e-006   
  0.56            1.3118e-005     -1.309e-005    
  0.57            1.6985e-005     -1.6977e-005   
  0.58            2.2307e-005     -2.2298e-005   
  0.59            2.8578e-005     -2.8552e-005   
  0.6             3.6207e-005     -3.6228e-005   
  0.61            4.631e-005      -4.6301e-005   
  0.62            5.7366e-005     -5.7328e-005   
  0.63            7.1155e-005     -7.1177e-005   
  0.64            8.5827e-005     -8.5803e-005   
  0.65            0.00010218      -0.00010194    
  0.66            0.00012153      -0.00012139    
  0.67            0.00014115      -0.00014114    
  0.68            0.00016399      -0.0001639     
  0.69            0.00018671      -0.00018652    
  0.7             0.00021074      -0.00021016    
  0.71            0.0002381       -0.00023741    
  0.72            0.00026451      -0.00026406    
  0.73            0.00029465      -0.00029502    
  0.74            0.00032349      -0.00032355    
  0.75            0.00035323      -0.00035267    
  0.76            0.00038575      -0.00038681    
  0.77            0.00041866      -0.00041886    
  0.78            0.00045417      -0.00045388    
  0.79            0.00048677      -0.00048712    
  0.8             0.00052053      -0.00052109    
  0.81            0.00055817      -0.00055819    
  0.82            0.00059495      -0.00059525    
  0.83            0.00063576      -0.00063392    
  0.84            0.000672        -0.00067175    
  0.85            0.00070966      -0.00070808    
  0.86            0.00075135      -0.00075051    
  0.87            0.00079097      -0.00079352    
  0.88            0.00083856      -0.00083886    
