! VERSION = 6.00
BEGIN_HEADER
 ICCAP_INPUTS
  VU1        V  E GROUND SMU1 0.1 CON        0
  VU2        V  S GROUND SMU4 0.1 CON        0
  VN         V  B GROUND SMU2 0.015 CON        0
  VP         V  C GROUND SMU3 0.015 LIN        1    3          -1         401  -0.01     
 ICCAP_OUTPUTS
  IP         I  C GROUND SMU3 B
  IN         I  B GROUND SMU2 B
END_HEADER

BEGIN_DB
 ICCAP_VAR VU1        0              
 ICCAP_VAR VU2        0              
 ICCAP_VAR VN         0              

 #VP              IP              IN             
  3               -2.489e-010     -1.1502e-008   
  2.99            3.3801e-009     -1.5509e-008   
  2.98            2.7042e-009     -1.583e-008    
  2.97            2.813e-009      -1.5473e-008   
  2.96            2.9213e-009     -1.4899e-008   
  2.95            3.0421e-009     -1.1389e-008   
  2.94            3.3749e-009     -1.5635e-008   
  2.93            2.7292e-009     -1.5572e-008   
  2.92            2.8232e-009     -1.5496e-008   
  2.91            2.9331e-009     -1.4739e-008   
  2.9             3.0608e-009     -1.1222e-008   
  2.89            3.3631e-009     -1.5667e-008   
  2.88            2.7462e-009     -1.574e-008    
  2.87            2.847e-009      -1.5341e-008   
  2.86            2.9573e-009     -1.4705e-008   
  2.85            3.0942e-009     -1.0882e-008   
  2.84            3.3509e-009     -1.573e-008    
  2.83            2.7599e-009     -1.5603e-008   
  2.82            2.8551e-009     -1.5223e-008   
  2.81            2.9781e-009     -1.451e-008    
  2.8             3.1124e-009     -1.0726e-008   
  2.79            3.3355e-009     -1.5696e-008   
  2.78            2.7748e-009     -1.5611e-008   
  2.77            2.8813e-009     -1.5201e-008   
  2.76            2.9998e-009     -1.175e-008    
  2.75            3.3892e-009     -1.544e-008    
  2.74            2.6954e-009     -1.5756e-008   
  2.73            2.7927e-009     -1.5542e-008   
  2.72            2.8969e-009     -1.4996e-008   
  2.71            3.0212e-009     -1.1615e-008   
  2.7             3.3805e-009     -1.5535e-008   
  2.69            2.7117e-009     -1.6994e-008   
  2.68            2.3313e-009     -1.5141e-008   
  2.67            3.0012e-009     -1.1792e-008   
  2.66            3.3868e-009     -1.5475e-008   
  2.65            2.6962e-009     -1.577e-008    
  2.64            2.7937e-009     -1.5443e-008   
  2.63            2.902e-009      -1.4918e-008   
  2.62            3.0306e-009     -1.1481e-008   
  2.61            3.3717e-009     -1.5597e-008   
  2.6             2.7093e-009     -1.5661e-008   
  2.59            2.8099e-009     -1.5393e-008   
  2.58            2.9192e-009     -1.4854e-008   
  2.57            3.0532e-009     -1.1233e-008   
  2.56            3.3604e-009     -1.5631e-008   
  2.55            2.724e-009      -1.6729e-008   
  2.54            2.35e-009       -1.4878e-008   
  2.53            3.0332e-009     -1.1417e-008   
  2.52            3.3647e-009     -1.5635e-008   
  2.51            2.7103e-009     -1.5643e-008   
  2.5             2.8076e-009     -1.5301e-008   
  2.49            2.9292e-009     -1.4763e-008   
  2.48            3.0563e-009     -1.1236e-008   
  2.47            3.3532e-009     -1.5667e-008   
  2.46            2.7272e-009     -1.5512e-008   
  2.45            2.8352e-009     -1.5236e-008   
  2.44            2.9493e-009     -1.4625e-008   
  2.43            3.0759e-009     -1.0964e-008   
  2.42            3.3454e-009     -1.5611e-008   
  2.41            2.745e-009      -1.5544e-008   
  2.4             2.8532e-009     -1.5133e-008   
  2.39            2.9675e-009     -1.4554e-008   
  2.38            3.097e-009      -1.0725e-008   
  2.37            3.3345e-009     -1.5656e-008   
  2.36            2.7604e-009     -1.543e-008    
  2.35            2.8674e-009     -1.5085e-008   
  2.34            2.9944e-009     -1.188e-008    
  2.33            3.3795e-009     -1.545e-008    
  2.32            2.6816e-009     -1.5591e-008   
  2.31            2.7825e-009     -1.5419e-008   
  2.3             2.8886e-009     -1.4976e-008   
  2.29            3.0154e-009     -1.1511e-008   
  2.28            3.3678e-009     -1.5599e-008   
  2.27            2.7027e-009     -1.5575e-008   
  2.26            2.7986e-009     -1.5335e-008   
  2.25            2.9098e-009     -1.4815e-008   
  2.24            3.0414e-009     -1.1256e-008   
  2.23            3.3572e-009     -1.5659e-008   
  2.22            2.717e-009      -1.6618e-008   
  2.21            2.3426e-009     -1.4872e-008   
  2.2             3.0217e-009     -1.1352e-008   
  2.19            3.3643e-009     -1.5739e-008   
  2.18            2.7042e-009     -1.5661e-008   
  2.17            2.8e-009        -1.5319e-008   
  2.16            2.9178e-009     -1.4756e-008   
  2.15            3.0483e-009     -1.1154e-008   
  2.14            3.3544e-009     -1.5776e-008   
  2.13            2.7165e-009     -1.558e-008    
  2.12            2.814e-009      -1.5231e-008   
  2.11            2.9339e-009     -1.4594e-008   
  2.1             3.0712e-009     -1.0948e-008   
  2.09            3.3367e-009     -1.5691e-008   
  2.08            2.7321e-009     -1.5454e-008   
  2.07            2.8373e-009     -1.521e-008    
  2.06            2.9588e-009     -1.4578e-008   
  2.05            3.0887e-009     -1.0705e-008   
  2.04            3.3308e-009     -1.5624e-008   
  2.03            2.7559e-009     -1.5555e-008   
  2.02            2.8639e-009     -1.5096e-008   
  2.01            2.9774e-009     -1.1878e-008   
  2               3.3746e-009     -1.5426e-008   
  1.99            2.6758e-009     -1.561e-008    
  1.98            2.7749e-009     -1.5489e-008   
  1.97            2.8792e-009     -1.4961e-008   
  1.96            3.001e-009      -1.1487e-008   
  1.95            3.3625e-009     -1.5671e-008   
  1.94            2.6954e-009     -1.5757e-008   
  1.93            2.796e-009      -1.5397e-008   
  1.92            2.9019e-009     -1.4837e-008   
  1.91            3.0283e-009     -1.1251e-008   
  1.9             3.3504e-009     -1.5708e-008   
  1.89            2.7101e-009     -1.5549e-008   
  1.88            2.8106e-009     -1.5412e-008   
  1.87            2.9297e-009     -1.4675e-008   
  1.86            3.0563e-009     -1.1084e-008   
  1.85            3.3341e-009     -1.5702e-008   
  1.84            2.7294e-009     -1.5522e-008   
  1.83            2.8332e-009     -1.5224e-008   
  1.82            2.9498e-009     -1.4585e-008   
  1.81            3.0885e-009     -1.0752e-008   
  1.8             3.3259e-009     -1.5643e-008   
  1.79            2.7476e-009     -1.5565e-008   
  1.78            2.8546e-009     -1.5173e-008   
  1.77            2.9792e-009     -1.1784e-008   
  1.76            3.3651e-009     -1.5511e-008   
  1.75            2.6627e-009     -1.5767e-008   
  1.74            2.7624e-009     -1.5451e-008   
  1.73            2.8704e-009     -1.4968e-008   
  1.72            3.0011e-009     -1.1396e-008   
  1.71            3.3546e-009     -1.5622e-008   
  1.7             2.6883e-009     -1.5611e-008   
  1.69            2.7859e-009     -1.5435e-008   
  1.68            2.8884e-009     -1.4823e-008   
  1.67            3.0156e-009     -1.1292e-008   
  1.66            3.3406e-009     -1.5638e-008   
  1.65            2.701e-009      -1.5519e-008   
  1.64            2.8008e-009     -1.5225e-008   
  1.63            2.9161e-009     -1.4703e-008   
  1.62            3.0463e-009     -1.1159e-008   
  1.61            3.3293e-009     -1.5676e-008   
  1.6             2.7148e-009     -1.5543e-008   
  1.59            2.8155e-009     -1.5161e-008   
  1.58            2.9348e-009     -1.4631e-008   
  1.57            3.067e-009      -1.0786e-008   
  1.56            3.3162e-009     -1.5623e-008   
  1.55            2.7316e-009     -1.5476e-008   
  1.54            2.8394e-009     -1.5154e-008   
  1.53            2.9631e-009     -1.1899e-008   
  1.52            3.3717e-009     -1.5405e-008   
  1.51            2.6507e-009     -1.5683e-008   
  1.5             2.7506e-009     -1.5421e-008   
  1.49            2.8569e-009     -1.5061e-008   
  1.48            2.9753e-009     -1.1635e-008   
  1.47            3.3521e-009     -1.5596e-008   
  1.46            2.6657e-009     -1.5618e-008   
  1.45            2.7711e-009     -1.5764e-008   
  1.44            2.384e-009      -1.443e-008    
  1.43            3.0979e-009     -1.0423e-008   
  1.42            3.2913e-009     -1.5673e-008   
  1.41            2.7563e-009     -1.5449e-008   
  1.4             2.8578e-009     -1.4956e-008   
  1.39            2.9905e-009     -1.1567e-008   
  1.38            3.3471e-009     -1.5562e-008   
  1.37            2.6722e-009     -1.5618e-008   
  1.36            2.7684e-009     -1.5411e-008   
  1.35            2.8858e-009     -1.4768e-008   
  1.34            3.0082e-009     -1.137e-008    
  1.33            3.3344e-009     -1.5641e-008   
  1.32            2.6872e-009     -1.6679e-008   
  1.31            2.3075e-009     -1.4913e-008   
  1.3             2.9868e-009     -1.1487e-008   
  1.29            3.3378e-009     -1.5547e-008   
  1.28            2.6731e-009     -1.6798e-008   
  1.27            2.2946e-009     -1.5043e-008   
  1.26            2.9667e-009     -1.1608e-008   
  1.25            3.3454e-009     -1.5505e-008   
  1.24            2.6578e-009     -1.5681e-008   
  1.23            2.7524e-009     -1.5498e-008   
  1.22            2.8704e-009     -1.4827e-008   
  1.21            2.9942e-009     -1.1391e-008   
  1.2             3.329e-009      -1.5611e-008   
  1.19            2.675e-009      -1.5625e-008   
  1.18            2.7727e-009     -1.5384e-008   
  1.17            2.8906e-009     -1.4749e-008   
  1.16            3.0124e-009     -1.1141e-008   
  1.15            3.3153e-009     -1.5744e-008   
  1.14            2.6899e-009     -1.6522e-008   
  1.13            2.3114e-009     -1.4905e-008   
  1.12            3.0005e-009     -1.1307e-008   
  1.11            3.3335e-009     -1.5667e-008   
  1.1             2.6753e-009     -1.6661e-008   
  1.09            2.2991e-009     -1.494e-008    
  1.08            2.9815e-009     -1.1487e-008   
  1.07            3.3342e-009     -1.5496e-008   
  1.06            2.6647e-009     -1.5721e-008   
  1.05            2.7607e-009     -1.5392e-008   
  1.04            2.8736e-009     -1.4832e-008   
  1.03            2.9976e-009     -1.119e-008    
  1.02            3.3208e-009     -1.5694e-008   
  1.01            2.6808e-009     -1.6591e-008   
  1               2.3003e-009     -1.4867e-008   
  0.99            2.9803e-009     -1.1497e-008   
  0.98            3.3244e-009     -1.5616e-008   
  0.97            2.6646e-009     -1.5711e-008   
  0.96            2.7594e-009     -1.5337e-008   
  0.95            2.8772e-009     -1.4746e-008   
  0.94            3.012e-009      -1.1235e-008   
  0.93            3.3098e-009     -1.5744e-008   
  0.92            2.6776e-009     -1.5573e-008   
  0.91            2.785e-009      -1.5228e-008   
  0.9             2.8969e-009     -1.4637e-008   
  0.89            3.0283e-009     -1.1003e-008   
  0.88            3.301e-009      -1.5707e-008   
  0.87            2.6997e-009     -1.6364e-008   
  0.86            2.3129e-009     -1.4774e-008   
  0.85            3.0059e-009     -1.1168e-008   
  0.84            3.3058e-009     -1.5725e-008   
  0.83            2.6826e-009     -1.6464e-008   
  0.82            2.3045e-009     -1.4804e-008   
  0.81            2.9906e-009     -1.1333e-008   
  0.8             3.3184e-009     -1.5713e-008   
  0.79            2.6633e-009     -1.567e-008    
  0.78            2.7642e-009     -1.528e-008    
  0.77            2.882e-009      -1.472e-008    
  0.76            3.0076e-009     -1.1121e-008   
  0.75            3.3028e-009     -1.5716e-008   
  0.74            2.68e-009       -1.6423e-008   
  0.73            2.307e-009      -1.4813e-008   
  0.72            2.9931e-009     -1.1274e-008   
  0.71            3.3086e-009     -1.5666e-008   
  0.7             2.6632e-009     -1.6479e-008   
  0.69            2.2909e-009     -1.4833e-008   
  0.68            2.9705e-009     -1.1457e-008   
  0.67            3.3202e-009     -1.5712e-008   
  0.66            2.6504e-009     -1.5645e-008   
  0.65            2.7473e-009     -1.528e-008    
  0.64            2.8594e-009     -1.4732e-008   
  0.63            2.9906e-009     -1.1255e-008   
  0.62            3.2978e-009     -1.568e-008    
  0.61            2.6688e-009     -1.5575e-008   
  0.6             2.7698e-009     -1.5246e-008   
  0.59            2.8825e-009     -1.4574e-008   
  0.58            3.0164e-009     -1.0976e-008   
  0.57            3.2861e-009     -1.5723e-008   
  0.56            2.6774e-009     -1.5502e-008   
  0.55            2.7864e-009     -1.5163e-008   
  0.54            2.9077e-009     -1.4465e-008   
  0.53            3.037e-009      -1.0706e-008   
  0.52            3.272e-009      -1.5505e-008   
  0.51            2.6962e-009     -1.5957e-008   
  0.5             2.3168e-009     -1.4617e-008   
  0.49            3.0167e-009     -1.094e-008    
  0.48            3.2809e-009     -1.5635e-008   
  0.47            2.6826e-009     -1.5496e-008   
  0.46            2.7914e-009     -1.5093e-008   
  0.45            2.9051e-009     -1.4433e-008   
  0.44            3.0402e-009     -1.0651e-008   
  0.43            3.2648e-009     -1.5679e-008   
  0.42            2.7001e-009     -1.5433e-008   
  0.41            2.8013e-009     -1.5006e-008   
  0.4             2.9283e-009     -1.172e-008    
  0.39            3.3118e-009     -1.5422e-008   
  0.38            2.6176e-009     -1.5607e-008   
  0.37            2.7109e-009     -1.5407e-008   
  0.36            2.8234e-009     -1.4922e-008   
  0.35            2.952e-009      -1.1448e-008   
  0.34            3.3027e-009     -1.5571e-008   
  0.33            2.6309e-009     -1.5627e-008   
  0.32            2.7271e-009     -1.5264e-008   
  0.31            2.8365e-009     -1.4799e-008   
  0.3             2.964e-009      -1.1305e-008   
  0.29            3.2932e-009     -1.5637e-008   
  0.28            2.6461e-009     -1.5505e-008   
  0.27            2.7446e-009     -1.5313e-008   
  0.26            2.8586e-009     -1.4697e-008   
  0.25            2.9838e-009     -1.1007e-008   
  0.24            3.2761e-009     -1.5566e-008   
  0.23            2.6624e-009     -1.6297e-008   
  0.22            2.2812e-009     -1.4735e-008   
  0.21            2.9659e-009     -1.1209e-008   
  0.2             3.2801e-009     -1.5609e-008   
  0.19            2.6453e-009     -1.5559e-008   
  0.18            2.7435e-009     -1.528e-008    
  0.17            2.8679e-009     -1.4625e-008   
  0.16            2.9959e-009     -1.0969e-008   
  0.15            3.273e-009      -1.5638e-008   
  0.14            2.6571e-009     -1.6254e-008   
  0.13            2.2805e-009     -1.4799e-008   
  0.12            2.9667e-009     -1.1152e-008   
  0.11            3.2722e-009     -1.5604e-008   
  0.1             2.6414e-009     -1.5463e-008   
  0.09            2.7434e-009     -1.5166e-008   
  0.08            2.8624e-009     -1.459e-008    
  0.07            2.99e-009       -1.0964e-008   
  0.06            3.264e-009      -1.5725e-008   
  0.05            2.6568e-009     -1.616e-008    
  0.04            2.2741e-009     -1.4725e-008   
  0.03            2.9663e-009     -1.1076e-008   
  0.02            3.2711e-009     -1.5737e-008   
  0.01            2.6376e-009     -1.5512e-008   
  0               2.7416e-009     -1.5279e-008   
  -0.01           1.8094e-009     -1.4958e-008   
  -0.02           2.3664e-009     -1.431e-008    
  -0.03           3.1051e-009     -1.5404e-008   
  -0.04           2.5903e-009     -1.5667e-008   
  -0.05           2.6781e-009     -1.5465e-008   
  -0.06           2.7881e-009     -1.4917e-008   
  -0.07           2.9115e-009     -1.1627e-008   
  -0.08           3.2852e-009     -1.5501e-008   
  -0.09           2.6023e-009     -1.5698e-008   
  -0.1            2.6941e-009     -1.5388e-008   
  -0.11           2.8018e-009     -1.4862e-008   
  -0.12           2.9256e-009     -1.1422e-008   
  -0.13           3.2701e-009     -1.5609e-008   
  -0.14           2.6091e-009     -1.5643e-008   
  -0.15           2.704e-009      -1.5223e-008   
  -0.16           2.8091e-009     -1.4656e-008   
  -0.17           2.9269e-009     -1.1192e-008   
  -0.18           3.2282e-009     -1.564e-008    
  -0.19           2.5861e-009     -1.6364e-008   
  -0.2            2.1865e-009     -1.4756e-008   
  -0.21           2.8402e-009     -1.123e-008    
  -0.22           3.141e-009      -1.5562e-008   
  -0.23           2.4278e-009     -1.5411e-008   
  -0.24           2.4465e-009     -1.4988e-008   
  -0.25           2.4289e-009     -1.4318e-008   
  -0.26           2.3727e-009     -1.0509e-008   
  -0.27           2.3796e-009     -1.4857e-008   
  -0.28           1.3864e-009     -1.5098e-008   
  -0.29           4.539e-010      -1.3404e-008   
  -0.3            -1.9353e-009    -1.2863e-008   
  -0.31           -2.6047e-009    -1.1327e-008   
  -0.32           -3.7333e-009    -1.1068e-008   
  -0.33           -6.2388e-009    1.4486e-008    
  -0.34           -1.0582e-008    1.6201e-008    
  -0.35           -1.6312e-008    1.1466e-008    
  -0.36           -2.5307e-008    3.105e-008     
  -0.37           -3.6742e-008    3.0247e-008    
  -0.38           -5.4799e-008    6.1941e-008    
  -0.39           -7.7911e-008    7.1162e-008    
  -0.4            -1.1501e-007    1.1152e-007    
  -0.41           -1.6846e-007    1.7525e-007    
  -0.42           -2.4765e-007    2.4849e-007    
  -0.43           -3.5819e-007    3.5429e-007    
  -0.44           -5.0774e-007    5.1441e-007    
  -0.45           -7.5292e-007    7.4536e-007    
  -0.46           -1.06749e-006   1.0885e-006    
  -0.47           -1.5793e-006    1.5659e-006    
  -0.48           -2.257e-006     2.2731e-006    
  -0.49           -3.2311e-006    3.2139e-006    
  -0.5            -4.7356e-006    4.7513e-006    
  -0.51           -6.735e-006     6.7322e-006    
  -0.52           -9.8091e-006    9.812e-006     
  -0.53           -1.3797e-005    1.3796e-005    
  -0.54           -1.9247e-005    1.9267e-005    
  -0.55           -2.7218e-005    2.7237e-005    
  -0.56           -3.7072e-005    3.7074e-005    
  -0.57           -5.0881e-005    5.0936e-005    
  -0.58           -6.7227e-005    6.7225e-005    
  -0.59           -8.7643e-005    8.7637e-005    
  -0.6            -0.000114206    0.00011441     
  -0.61           -0.00014352     0.00014378     
  -0.62           -0.00018101     0.00018122     
  -0.63           -0.0002213      0.00022137     
  -0.64           -0.00027139     0.00027163     
  -0.65           -0.00032403     0.00032426     
  -0.66           -0.00038352     0.00038351     
  -0.67           -0.00045499     0.00045504     
  -0.68           -0.00052884     0.00052925     
  -0.69           -0.0006183      0.00061853     
  -0.7            -0.00070966     0.00070982     
  -0.71           -0.00081029     0.00081073     
  -0.72           -0.00092953     0.00093        
  -0.73           -0.00105238     0.00105237     
  -0.74           -0.0011961      0.0011978      
  -0.75           -0.0013427      0.0013443      
  -0.76           -0.0015026      0.0015047      
  -0.77           -0.0016907      0.0016922      
  -0.78           -0.0018804      0.001882       
  -0.79           -0.0021028      0.0021048      
  -0.8            -0.0023253      0.0023273      
  -0.81           -0.0025659      0.0025685      
  -0.82           -0.0028433      0.0028454      
  -0.83           -0.003121       0.0031228      
  -0.84           -0.0034368      0.0034389      
  -0.85           -0.0037495      0.0037517      
  -0.86           -0.0040792      0.0040809      
  -0.87           -0.0044523      0.004454       
  -0.88           -0.0048183      0.0048214      
