! VERSION = 6.00
BEGIN_HEADER
 ICCAP_INPUTS
  VU1        V  E GROUND SMU1 0.1 CON        0
  VU2        V  S GROUND SMU4 0.1 CON        0
  VN         V  B GROUND SMU2 0.015 CON        0
  VP         V  C GROUND SMU3 0.015 LIN        1    3          -1         401  -0.01     
 ICCAP_OUTPUTS
  IP         I  C GROUND SMU3 B
  IN         I  B GROUND SMU2 B
END_HEADER

BEGIN_DB
 ICCAP_VAR VU1        0              
 ICCAP_VAR VU2        0              
 ICCAP_VAR VN         0              

 #VP              IP              IN             
  3               -1.2984e-009    -1.5103e-008   
  2.99            8.797e-010      -1.5981e-008   
  2.98            9.656e-010      -1.4805e-008   
  2.97            1.0451e-009     -1.3837e-008   
  2.96            1.1261e-009     -1.2952e-008   
  2.95            1.8455e-009     -1.3954e-008   
  2.94            1.3314e-009     -1.4291e-008   
  2.93            1.4226e-009     -1.469e-008    
  2.92            1.0467e-009     -1.3821e-008   
  2.91            1.128e-009      -1.2951e-008   
  2.9             1.8529e-009     -1.3844e-008   
  2.89            1.3427e-009     -1.4276e-008   
  2.88            1.429e-009      -1.4692e-008   
  2.87            1.0518e-009     -1.3781e-008   
  2.86            1.1348e-009     -1.2861e-008   
  2.85            1.8538e-009     -1.3959e-008   
  2.84            1.3412e-009     -1.4249e-008   
  2.83            1.4323e-009     -1.4561e-008   
  2.82            1.0547e-009     -1.3016e-008   
  2.81            1.743e-009      -1.2854e-008   
  2.8             1.8572e-009     -1.4024e-008   
  2.79            1.3425e-009     -1.4263e-008   
  2.78            1.4387e-009     -1.4479e-008   
  2.77            1.0557e-009     -1.3105e-008   
  2.76            1.7493e-009     -1.2919e-008   
  2.75            1.8662e-009     -1.4083e-008   
  2.74            1.3501e-009     -1.4163e-008   
  2.73            1.4425e-009     -1.4424e-008   
  2.72            1.066e-009      -1.3032e-008   
  2.71            1.7529e-009     -1.3329e-008   
  2.7             1.2757e-009     -1.539e-008    
  2.69            9.026e-010      -1.5662e-008   
  2.68            9.878e-010      -1.4485e-008   
  2.67            1.069e-009      -1.3027e-008   
  2.66            1.7625e-009     -1.3396e-008   
  2.65            1.2798e-009     -1.539e-008    
  2.64            9.088e-010      -1.553e-008    
  2.63            9.909e-010      -1.4332e-008   
  2.62            1.0688e-009     -1.3038e-008   
  2.61            1.7639e-009     -1.3348e-008   
  2.6             1.2868e-009     -1.4187e-008   
  2.59            1.3633e-009     -1.5489e-008   
  2.58            9.934e-010      -1.4282e-008   
  2.57            1.0764e-009     -1.2991e-008   
  2.56            1.7746e-009     -1.3424e-008   
  2.55            1.2901e-009     -1.4242e-008   
  2.54            1.3699e-009     -1.5381e-008   
  2.53            1.0025e-009     -1.4273e-008   
  2.52            1.0792e-009     -1.2912e-008   
  2.51            1.7819e-009     -1.3428e-008   
  2.5             1.2923e-009     -1.4173e-008   
  2.49            1.3748e-009     -1.5241e-008   
  2.48            1.003e-009      -1.4191e-008   
  2.47            1.0888e-009     -1.3019e-008   
  2.46            1.7892e-009     -1.343e-008    
  2.45            1.3e-009        -1.5797e-008   
  2.44            9.282e-010      -1.5231e-008   
  2.43            1.0119e-009     -1.4115e-008   
  2.42            1.0903e-009     -1.3051e-008   
  2.41            1.8024e-009     -1.3522e-008   
  2.4             1.3012e-009     -1.4315e-008   
  2.39            1.3871e-009     -1.5128e-008   
  2.38            1.0152e-009     -1.4095e-008   
  2.37            1.0939e-009     -1.289e-008    
  2.36            1.8072e-009     -1.3639e-008   
  2.35            1.3069e-009     -1.424e-008    
  2.34            1.3931e-009     -1.5027e-008   
  2.33            1.0175e-009     -1.3928e-008   
  2.32            1.0993e-009     -1.3072e-008   
  2.31            1.8165e-009     -1.3551e-008   
  2.3             1.3152e-009     -1.4158e-008   
  2.29            1.3962e-009     -1.5029e-008   
  2.28            1.0276e-009     -1.3992e-008   
  2.27            1.1041e-009     -1.2935e-008   
  2.26            1.8258e-009     -1.3715e-008   
  2.25            1.3174e-009     -1.4095e-008   
  2.24            1.4062e-009     -1.4941e-008   
  2.23            1.0306e-009     -1.3813e-008   
  2.22            1.1097e-009     -1.2871e-008   
  2.21            1.8388e-009     -1.3861e-008   
  2.2             1.3228e-009     -1.4204e-008   
  2.19            1.4149e-009     -1.4706e-008   
  2.18            1.0362e-009     -1.3187e-008   
  2.17            1.7155e-009     -1.2826e-008   
  2.16            1.8445e-009     -1.3908e-008   
  2.15            1.3351e-009     -1.4359e-008   
  2.14            1.4198e-009     -1.4371e-008   
  2.13            1.0404e-009     -1.3362e-008   
  2.12            1.127e-009      -1.2817e-008   
  2.11            1.8527e-009     -1.4127e-008   
  2.1             1.3377e-009     -1.4514e-008   
  2.09            1.426e-009      -1.4131e-008   
  2.08            1.0491e-009     -1.3204e-008   
  2.07            1.1287e-009     -1.2752e-008   
  2.06            1.8663e-009     -1.5383e-008   
  2.05            8.962e-010      -1.5312e-008   
  2.04            9.706e-010      -1.3976e-008   
  2.03            1.0534e-009     -1.2927e-008   
  2.02            1.7415e-009     -1.3332e-008   
  2.01            1.2682e-009     -1.5393e-008   
  2               9.023e-010      -1.5231e-008   
  1.99            9.782e-010      -1.3886e-008   
  1.98            1.0568e-009     -1.2949e-008   
  1.97            1.7543e-009     -1.3408e-008   
  1.96            1.2745e-009     -1.5381e-008   
  1.95            9.061e-010      -1.519e-008    
  1.94            9.85e-010       -1.3837e-008   
  1.93            1.0691e-009     -1.2847e-008   
  1.92            1.7597e-009     -1.3541e-008   
  1.91            1.2754e-009     -1.5525e-008   
  1.9             9.091e-010      -1.515e-008    
  1.89            9.972e-010      -1.3842e-008   
  1.88            1.0689e-009     -1.2891e-008   
  1.87            1.7644e-009     -1.3518e-008   
  1.86            1.2787e-009     -1.4454e-008   
  1.85            1.351e-009      -1.5038e-008   
  1.84            9.952e-010      -1.3733e-008   
  1.83            1.0729e-009     -1.2834e-008   
  1.82            1.7661e-009     -1.3535e-008   
  1.81            1.2817e-009     -1.5651e-008   
  1.8             9.154e-010      -1.4958e-008   
  1.79            9.941e-010      -1.3646e-008   
  1.78            1.0771e-009     -1.2803e-008   
  1.77            1.7704e-009     -1.3286e-008   
  1.76            1.2874e-009     -1.4818e-008   
  1.75            1.3694e-009     -1.5014e-008   
  1.74            9.975e-010      -1.3696e-008   
  1.73            1.0802e-009     -1.2835e-008   
  1.72            1.7841e-009     -1.3699e-008   
  1.71            1.2891e-009     -1.4443e-008   
  1.7             1.372e-009      -1.4815e-008   
  1.69            1.0038e-009     -1.3719e-008   
  1.68            1.0797e-009     -1.2937e-008   
  1.67            1.7911e-009     -1.3659e-008   
  1.66            1.2953e-009     -1.4512e-008   
  1.65            1.3741e-009     -1.482e-008    
  1.64            1.0047e-009     -1.3688e-008   
  1.63            1.0861e-009     -1.2866e-008   
  1.62            1.7927e-009     -1.3806e-008   
  1.61            1.2976e-009     -1.451e-008    
  1.6             1.3797e-009     -1.4694e-008   
  1.59            1.0077e-009     -1.3594e-008   
  1.58            1.0903e-009     -1.2864e-008   
  1.57            1.8025e-009     -1.3854e-008   
  1.56            1.3009e-009     -1.4474e-008   
  1.55            1.3859e-009     -1.4667e-008   
  1.54            1.012e-009      -1.3607e-008   
  1.53            1.0989e-009     -1.2873e-008   
  1.52            1.8091e-009     -1.3747e-008   
  1.51            1.3069e-009     -1.4392e-008   
  1.5             1.3884e-009     -1.4571e-008   
  1.49            1.0185e-009     -1.3635e-008   
  1.48            1.0972e-009     -1.2829e-008   
  1.47            1.8181e-009     -1.3988e-008   
  1.46            1.3062e-009     -1.4496e-008   
  1.45            1.3959e-009     -1.4505e-008   
  1.44            1.0193e-009     -1.348e-008    
  1.43            1.0995e-009     -1.275e-008    
  1.42            1.8176e-009     -1.3832e-008   
  1.41            1.3127e-009     -1.4447e-008   
  1.4             1.3971e-009     -1.4469e-008   
  1.39            1.0242e-009     -1.3564e-008   
  1.38            1.1035e-009     -1.2848e-008   
  1.37            1.8245e-009     -1.373e-008    
  1.36            1.3112e-009     -1.4362e-008   
  1.35            1.3986e-009     -1.4857e-008   
  1.34            1.0212e-009     -1.3695e-008   
  1.33            1.1004e-009     -1.2871e-008   
  1.32            1.8231e-009     -1.3596e-008   
  1.31            1.3154e-009     -1.4181e-008   
  1.3             1.3985e-009     -1.4972e-008   
  1.29            1.0224e-009     -1.317e-008    
  1.28            1.6965e-009     -1.2842e-008   
  1.27            1.8232e-009     -1.3751e-008   
  1.26            1.3138e-009     -1.4203e-008   
  1.25            1.4052e-009     -1.4927e-008   
  1.24            1.0243e-009     -1.3173e-008   
  1.23            1.7035e-009     -1.2817e-008   
  1.22            1.8314e-009     -1.3795e-008   
  1.21            1.3217e-009     -1.4184e-008   
  1.2             1.4092e-009     -1.4738e-008   
  1.19            1.0314e-009     -1.3128e-008   
  1.18            1.708e-009      -1.2828e-008   
  1.17            1.8322e-009     -1.3685e-008   
  1.16            1.3233e-009     -1.4163e-008   
  1.15            1.4071e-009     -1.4736e-008   
  1.14            1.0284e-009     -1.3688e-008   
  1.13            1.1099e-009     -1.2888e-008   
  1.12            1.8368e-009     -1.5429e-008   
  1.11            8.829e-010      -1.4157e-008   
  1.1             1.4807e-009     -1.3906e-008   
  1.09            1.0876e-009     -1.2963e-008   
  1.08            1.8083e-009     -1.3521e-008   
  1.07            1.2999e-009     -1.4251e-008   
  1.06            1.3896e-009     -1.5152e-008   
  1.05            1.0137e-009     -1.391e-008    
  1.04            1.0925e-009     -1.2979e-008   
  1.03            1.8099e-009     -1.3466e-008   
  1.02            1.3087e-009     -1.4217e-008   
  1.01            1.3873e-009     -1.5054e-008   
  1               1.012e-009      -1.3828e-008   
  0.99            1.0946e-009     -1.2848e-008   
  0.98            1.8102e-009     -1.3574e-008   
  0.97            1.3097e-009     -1.4194e-008   
  0.96            1.3937e-009     -1.4967e-008   
  0.95            1.0137e-009     -1.3758e-008   
  0.94            1.0945e-009     -1.2898e-008   
  0.93            1.8178e-009     -1.3617e-008   
  0.92            1.3116e-009     -1.4106e-008   
  0.91            1.3927e-009     -1.497e-008    
  0.9             1.0188e-009     -1.3256e-008   
  0.89            1.6943e-009     -1.2901e-008   
  0.88            1.82e-009       -1.368e-008    
  0.87            1.3109e-009     -1.4122e-008   
  0.86            1.402e-009      -1.4915e-008   
  0.85            1.0214e-009     -1.3776e-008   
  0.84            1.1025e-009     -1.2924e-008   
  0.83            1.8275e-009     -1.3747e-008   
  0.82            1.3128e-009     -1.4241e-008   
  0.81            1.4027e-009     -1.4886e-008   
  0.8             1.0235e-009     -1.3662e-008   
  0.79            1.1084e-009     -1.2908e-008   
  0.78            1.8277e-009     -1.3729e-008   
  0.77            1.318e-009      -1.4189e-008   
  0.76            1.4065e-009     -1.4834e-008   
  0.75            1.0291e-009     -1.3771e-008   
  0.74            1.1095e-009     -1.2853e-008   
  0.73            1.8305e-009     -1.3758e-008   
  0.72            1.3198e-009     -1.4231e-008   
  0.71            1.4068e-009     -1.4763e-008   
  0.7             1.027e-009      -1.369e-008    
  0.69            1.1121e-009     -1.2848e-008   
  0.68            1.8323e-009     -1.3875e-008   
  0.67            1.3252e-009     -1.4134e-008   
  0.66            1.4103e-009     -1.4754e-008   
  0.65            1.0332e-009     -1.3115e-008   
  0.64            1.7206e-009     -1.2912e-008   
  0.63            1.84e-009       -1.3833e-008   
  0.62            1.3258e-009     -1.6109e-008   
  0.61            9.556e-010      -1.4616e-008   
  0.6             1.0331e-009     -1.3099e-008   
  0.59            1.7223e-009     -1.2916e-008   
  0.58            1.8464e-009     -1.3822e-008   
  0.57            1.3276e-009     -1.6003e-008   
  0.56            9.577e-010      -1.4716e-008   
  0.55            1.0366e-009     -1.3049e-008   
  0.54            1.7276e-009     -1.2979e-008   
  0.53            1.2491e-009     -1.5554e-008   
  0.52            8.851e-010      -1.4071e-008   
  0.51            1.4905e-009     -1.3792e-008   
  0.5             1.0914e-009     -1.2958e-008   
  0.49            1.8136e-009     -1.3692e-008   
  0.48            1.3076e-009     -1.4103e-008   
  0.47            1.3959e-009     -1.4831e-008   
  0.46            1.0184e-009     -1.3815e-008   
  0.45            1.096e-009      -1.2856e-008   
  0.44            1.8173e-009     -1.366e-008    
  0.43            1.3089e-009     -1.4061e-008   
  0.42            1.3942e-009     -1.4925e-008   
  0.41            1.0186e-009     -1.3817e-008   
  0.4             1.0959e-009     -1.2944e-008   
  0.39            1.8205e-009     -1.3642e-008   
  0.38            1.3116e-009     -1.4147e-008   
  0.37            1.3981e-009     -1.4844e-008   
  0.36            1.0227e-009     -1.3203e-008   
  0.35            1.7014e-009     -1.289e-008    
  0.34            1.8246e-009     -1.3704e-008   
  0.33            1.3152e-009     -1.4134e-008   
  0.32            1.4009e-009     -1.4779e-008   
  0.31            1.0222e-009     -1.3745e-008   
  0.3             1.1076e-009     -1.2978e-008   
  0.29            1.8297e-009     -1.3794e-008   
  0.28            1.3187e-009     -1.4158e-008   
  0.27            1.4053e-009     -1.4746e-008   
  0.26            1.0242e-009     -1.3129e-008   
  0.25            1.7102e-009     -1.2941e-008   
  0.24            1.8322e-009     -1.3835e-008   
  0.23            1.3205e-009     -1.4196e-008   
  0.22            1.4063e-009     -1.4713e-008   
  0.21            1.031e-009      -1.3152e-008   
  0.2             1.7141e-009     -1.2931e-008   
  0.19            1.8346e-009     -1.3909e-008   
  0.18            1.3227e-009     -1.4252e-008   
  0.17            1.412e-009      -1.4595e-008   
  0.16            1.0278e-009     -1.3098e-008   
  0.15            1.7166e-009     -1.2908e-008   
  0.14            1.838e-009      -1.3906e-008   
  0.13            1.3201e-009     -1.4256e-008   
  0.12            1.4152e-009     -1.4674e-008   
  0.11            1.034e-009      -1.3073e-008   
  0.1             1.72e-009       -1.2769e-008   
  0.09            1.8411e-009     -1.5433e-008   
  0.08            8.777e-010      -1.4022e-008   
  0.07            1.4849e-009     -1.3857e-008   
  0.06            1.0892e-009     -1.2862e-008   
  0.05            1.8096e-009     -1.3705e-008   
  0.04            1.3034e-009     -1.4125e-008   
  0.03            1.3919e-009     -1.4911e-008   
  0.02            1.013e-009      -1.3884e-008   
  0.01            1.0936e-009     -1.2888e-008   
  0               1.8134e-009     -1.3658e-008   
  -0.01           -1.6719e-009    1.362e-008     
  -0.02           -9.967e-010     1.3865e-008    
  -0.03           -1.0893e-009    1.4179e-008    
  -0.04           -7.086e-010     1.2947e-008    
  -0.05           -1.3939e-009    1.2987e-008    
  -0.06           -9.14e-010      1.4955e-008    
  -0.07           -5.513e-010     1.5056e-008    
  -0.08           -6.32e-010      1.4142e-008    
  -0.09           -7.142e-010     1.2979e-008    
  -0.1            -1.4036e-009    1.3044e-008    
  -0.11           -9.203e-010     1.4917e-008    
  -0.12           -5.549e-010     1.5104e-008    
  -0.13           -6.354e-010     1.4086e-008    
  -0.14           -7.155e-010     1.2918e-008    
  -0.15           -1.4041e-009    1.2944e-008    
  -0.16           -9.269e-010     1.4947e-008    
  -0.17           -5.618e-010     1.5061e-008    
  -0.18           -6.471e-010     1.4082e-008    
  -0.19           -7.329e-010     1.2965e-008    
  -0.2            -1.4234e-009    1.3004e-008    
  -0.21           -9.518e-010     1.503e-008     
  -0.22           -5.971e-010     1.5097e-008    
  -0.23           -6.847e-010     1.4071e-008    
  -0.24           -7.836e-010     1.2928e-008    
  -0.25           -1.4963e-009    1.3109e-008    
  -0.26           -1.0526e-009    1.3893e-008    
  -0.27           -1.1886e-009    1.418e-008     
  -0.28           -1.3475e-009    1.44e-008      
  -0.29           -1.067e-009     1.3245e-008    
  -0.3            -1.8902e-009    1.3485e-008    
  -0.31           -1.6108e-009    1.4392e-008    
  -0.32           -1.9841e-009    1.4933e-008    
  -0.33           -2.466e-009     1.5103e-008    
  -0.34           -3.1241e-009    1.5315e-008    
  -0.35           -4.1027e-009    1.2956e-008    
  -0.36           -5.5573e-009    1.2759e-008    
  -0.37           -7.2722e-009    1.6701e-008    
  -0.38           -9.798e-009     1.8213e-008    
  -0.39           -9.38e-009      1.5475e-008    
  -0.4            -1.8883e-008    1.5447e-008    
  -0.41           -2.1984e-008    2.6167e-008    
  -0.42           -3.8228e-008    3.3521e-008    
  -0.43           -4.9513e-008    5.4525e-008    
  -0.44           -7.6505e-008    7.0966e-008    
  -0.45           -1.12404e-007   1.2283e-007    
  -0.46           -1.5868e-007    1.595e-007     
  -0.47           -2.3856e-007    2.3521e-007    
  -0.48           -3.3977e-007    3.4555e-007    
  -0.49           -4.9567e-007    4.8824e-007    
  -0.5            -7.317e-007     7.4812e-007    
  -0.51           -1.06027e-006   1.0485e-006    
  -0.52           -1.5769e-006    1.5936e-006    
  -0.53           -2.284e-006     2.2665e-006    
  -0.54           -3.2921e-006    3.3037e-006    
  -0.55           -4.8771e-006    4.8687e-006    
  -0.56           -7.0089e-006    7.0094e-006    
  -0.57           -1.03112e-005   1.03165e-005   
  -0.58           -1.4669e-005    1.4685e-005    
  -0.59           -2.0802e-005    2.0823e-005    
  -0.6            -2.9898e-005    2.9878e-005    
  -0.61           -4.1278e-005    4.1324e-005    
  -0.62           -5.7556e-005    5.7531e-005    
  -0.63           -7.6786e-005    7.6788e-005    
  -0.64           -0.000102615    0.00010268     
  -0.65           -0.00013129     0.00013133     
  -0.66           -0.00016457     0.00016471     
  -0.67           -0.0002054      0.00020572     
  -0.68           -0.00024773     0.00024786     
  -0.69           -0.00029761     0.00029774     
  -0.7            -0.00034695     0.00034732     
  -0.71           -0.00039959     0.00039978     
  -0.72           -0.00045906     0.000459       
  -0.73           -0.00051665     0.00051679     
  -0.74           -0.00058074     0.00058101     
  -0.75           -0.00064214     0.00064228     
  -0.76           -0.0007052      0.0007054      
  -0.77           -0.00077464     0.00077486     
  -0.78           -0.00084055     0.0008409      
  -0.79           -0.00091321     0.00091323     
  -0.8            -0.00098137     0.00098142     
  -0.81           -0.00105058     0.00105113     
  -0.82           -0.00112641     0.00112675     
  -0.83           -0.0011973      0.0011992      
  -0.84           -0.0012752      0.0012766      
  -0.85           -0.001348       0.0013492      
  -0.86           -0.0014213      0.001423       
  -0.87           -0.0015006      0.0015029      
  -0.88           -0.0015763      0.001578       
