! VERSION = 6.00
BEGIN_HEADER
 ICCAP_INPUTS
  VU1        V  E GROUND SMU1 0.1 CON        0
  VN         V  B GROUND SMU3 0.04 CON        0
  VU2        V  S GROUND SMU4 0.1 CON        0
  VP         V  C GROUND SMU2 0.04 LIN        1    -3         0.9        391  0.01      
 ICCAP_OUTPUTS
  IP         I  C GROUND SMU2 B
  IN         I  B GROUND SMU3 B
END_HEADER

BEGIN_DB
 ICCAP_VAR VU1        0              
 ICCAP_VAR VN         0              
 ICCAP_VAR VU2        0              

 #VP              IP              IN             
  -3              -1.153e-010     -1.2094e-009   
  -2.99           2.1249e-009     4.2917e-009    
  -2.98           2.4286e-009     -3.305e-010    
  -2.97           2.6488e-009     -4.343e-009    
  -2.96           2.7968e-009     -4.2913e-009   
  -2.95           2.3562e-009     -4.1995e-009   
  -2.94           4.99e-011       -4.3956e-009   
  -2.93           -2.1675e-009    -3.2729e-009   
  -2.92           -2.5156e-009    3.272e-010     
  -2.91           -2.7271e-009    3.7164e-009    
  -2.9            -2.8753e-009    3.2751e-009    
  -2.89           -2.4414e-009    2.9124e-009    
  -2.88           -9.26e-011      3.9195e-009    
  -2.87           2.1368e-009     4.2541e-009    
  -2.86           2.4188e-009     -3.426e-010    
  -2.85           2.6351e-009     -4.329e-009    
  -2.84           2.8056e-009     -4.2849e-009   
  -2.83           2.349e-009      -4.2038e-009   
  -2.82           3.61e-011       -4.4001e-009   
  -2.81           -2.1844e-009    -3.2646e-009   
  -2.8            -2.4956e-009    3.622e-010     
  -2.79           -2.524e-010     3.7273e-009    
  -2.78           2.0107e-009     4.3783e-009    
  -2.77           2.4955e-009     2.14e-011      
  -2.76           2.7063e-009     -4.322e-009    
  -2.75           2.2333e-009     -4.2686e-009   
  -2.74           -2.478e-010     -4.6124e-009   
  -2.73           -2.4473e-009    -3.0385e-009   
  -2.72           -2.3868e-009    7.922e-010     
  -2.71           3.61e-011       4.0851e-009    
  -2.7            2.231e-009      4.1958e-009    
  -2.69           2.3736e-009     -6.436e-010    
  -2.68           1.014e-010      -4.4026e-009   
  -2.67           -2.1289e-009    -3.3129e-009   
  -2.66           -2.5278e-009    2.507e-010     
  -2.65           -2.7371e-009    3.6535e-009    
  -2.64           -2.275e-009     3.2343e-009    
  -2.63           3.204e-010      4.4688e-009    
  -2.62           2.4922e-009     4.0087e-009    
  -2.61           2.2526e-009     -1.3661e-009   
  -2.6            -1.878e-010     -4.5701e-009   
  -2.59           -2.3877e-009    -3.1004e-009   
  -2.58           -2.4108e-009    6.767e-010     
  -2.57           -3.5e-011       3.9831e-009    
  -2.56           2.1798e-009     4.228e-009     
  -2.55           2.399e-009      -4.841e-010    
  -2.54           2.6134e-009     -4.3733e-009   
  -2.53           2.7884e-009     -4.2834e-009   
  -2.52           2.3414e-009     -4.2018e-009   
  -2.51           -4.2e-012       -4.4489e-009   
  -2.5            -2.2204e-009    -3.2288e-009   
  -2.49           -2.4953e-009    4.225e-010     
  -2.48           -2.18e-010      3.7719e-009    
  -2.47           2.05e-009       4.346e-009     
  -2.46           2.4844e-009     -8.88e-011     
  -2.45           2.6909e-009     -4.3441e-009   
  -2.44           2.2203e-009     -4.2683e-009   
  -2.43           -2.808e-010     -4.6251e-009   
  -2.42           -2.4877e-009    -3.0229e-009   
  -2.41           -2.3756e-009    8.484e-010     
  -2.4            7.06e-011       4.1238e-009    
  -2.39           2.2703e-009     4.1784e-009    
  -2.38           2.3628e-009     -7.371e-010    
  -2.37           6.76e-011       -4.4029e-009   
  -2.36           -2.1637e-009    -3.2976e-009   
  -2.35           -2.5188e-009    3.137e-010     
  -2.34           -2.7305e-009    3.6902e-009    
  -2.33           -2.2528e-009    3.2553e-009    
  -2.32           3.548e-010      4.5314e-009    
  -2.31           2.5289e-009     3.9698e-009    
  -2.3            3.159e-009      -1.4387e-009   
  -2.29           2.849e-009      -3.1322e-009   
  -2.28           2.4228e-009     -4.1544e-009   
  -2.27           2.6241e-009     -4.3352e-009   
  -2.26           2.7966e-009     -4.3067e-009   
  -2.25           2.3358e-009     -4.2204e-009   
  -2.24           -1.11e-011      -4.4687e-009   
  -2.23           -2.2293e-009    -3.2281e-009   
  -2.22           -2.4859e-009    4.04e-010      
  -2.21           -2.124e-010     3.7753e-009    
  -2.2            2.0437e-009     4.3901e-009    
  -2.19           2.4798e-009     -6.73e-011     
  -2.18           2.6954e-009     -4.3213e-009   
  -2.17           2.2146e-009     -4.2839e-009   
  -2.16           -2.793e-010     -4.5983e-009   
  -2.15           -2.4811e-009    -3.0078e-009   
  -2.14           -2.3717e-009    8.44e-010      
  -2.13           7.39e-011       4.1427e-009    
  -2.12           2.2662e-009     4.2079e-009    
  -2.11           2.3681e-009     -7.113e-010    
  -2.1            6.31e-011       -4.4086e-009   
  -2.09           -2.1621e-009    -3.2935e-009   
  -2.08           -2.5248e-009    2.992e-010     
  -2.07           -2.7315e-009    3.6926e-009    
  -2.06           -2.2503e-009    3.2679e-009    
  -2.05           3.625e-010      4.5117e-009    
  -2.04           2.5194e-009     3.9692e-009    
  -2.03           2.2455e-009     -1.4332e-009   
  -2.02           -2.101e-010     -4.5612e-009   
  -2.01           -2.4173e-009    -3.0722e-009   
  -2              -2.4062e-009    7.32e-010      
  -1.99           -1.7e-012       4.0429e-009    
  -1.98           2.2117e-009     4.2209e-009    
  -1.97           2.3961e-009     -5.633e-010    
  -1.96           1.281e-010      -4.4003e-009   
  -1.95           -2.1004e-009    -3.3484e-009   
  -1.94           -2.5521e-009    1.977e-010     
  -1.93           -2.7568e-009    3.6225e-009    
  -1.92           -2.2848e-009    3.2036e-009    
  -1.91           2.932e-010      4.4214e-009    
  -1.9            2.4608e-009     4.0307e-009    
  -1.89           2.2722e-009     -1.2822e-009   
  -1.88           -1.437e-010     -4.5326e-009   
  -1.87           -2.3399e-009    -3.1357e-009   
  -1.86           -2.4374e-009    6.232e-010     
  -1.85           -7.52e-011      3.9245e-009    
  -1.84           2.1533e-009     4.2582e-009    
  -1.83           2.4245e-009     -3.996e-010    
  -1.82           2.6377e-009     -4.3626e-009   
  -1.81           2.7957e-009     -4.2965e-009   
  -1.8            2.3546e-009     -4.2325e-009   
  -1.79           2.11e-011       -4.4434e-009   
  -1.78           -2.1897e-009    -3.2547e-009   
  -1.77           -2.507e-009     3.544e-010     
  -1.76           -2.422e-010     3.7321e-009    
  -1.75           2.0319e-009     4.3723e-009    
  -1.74           2.5016e-009     1.5e-012       
  -1.73           2.7038e-009     -4.3124e-009   
  -1.72           2.2381e-009     -4.2948e-009   
  -1.71           -2.505e-010     -4.6014e-009   
  -1.7            -2.4404e-009    -3.0384e-009   
  -1.69           -2.3856e-009    7.906e-010     
  -1.68           4.05e-011       4.0715e-009    
  -1.67           2.2406e-009     4.1934e-009    
  -1.66           2.3813e-009     -6.705e-010    
  -1.65           1.028e-010      -4.4076e-009   
  -1.64           -2.1259e-009    -3.3133e-009   
  -1.63           -2.5375e-009    2.457e-010     
  -1.62           -2.7395e-009    3.6439e-009    
  -1.61           -2.273e-009     3.212e-009     
  -1.6            3.16e-010       4.4495e-009    
  -1.59           2.4934e-009     4.002e-009     
  -1.58           2.2639e-009     -1.3363e-009   
  -1.57           -1.727e-010     -4.5407e-009   
  -1.56           -2.3779e-009    -3.104e-009    
  -1.55           -2.4246e-009    6.775e-010     
  -1.54           -4.81e-011      3.9661e-009    
  -1.53           2.1732e-009     4.2385e-009    
  -1.52           2.4141e-009     -4.754e-010    
  -1.51           2.6209e-009     -4.392e-009    
  -1.5            2.7899e-009     -4.3076e-009   
  -1.49           2.347e-009      -4.239e-009    
  -1.48           1.2e-011        -4.4444e-009   
  -1.47           -2.2067e-009    -3.2447e-009   
  -1.46           -2.4923e-009    4.082e-010     
  -1.45           -2.204e-010     3.7552e-009    
  -1.44           2.0441e-009     4.3604e-009    
  -1.43           2.4936e-009     -5.06e-011     
  -1.42           2.6981e-009     -4.2983e-009   
  -1.41           2.2246e-009     -4.2737e-009   
  -1.4            -2.612e-010     -4.6199e-009   
  -1.39           -2.4704e-009    -3.0294e-009   
  -1.38           -2.3772e-009    8.238e-010     
  -1.37           6.69e-011       4.1099e-009    
  -1.36           2.259e-009      4.1874e-009    
  -1.35           2.3718e-009     -7.147e-010    
  -1.34           8.08e-011       -4.4239e-009   
  -1.33           -2.1471e-009    -3.3051e-009   
  -1.32           -2.5273e-009    2.914e-010     
  -1.31           -2.733e-009     3.6839e-009    
  -1.3            -2.2538e-009    3.2529e-009    
  -1.29           3.416e-010      4.5e-009       
  -1.28           2.5171e-009     3.9833e-009    
  -1.27           2.2464e-009     -1.4184e-009   
  -1.26           -1.971e-010     -4.5812e-009   
  -1.25           -2.3974e-009    -3.0811e-009   
  -1.24           -2.4049e-009    7.181e-010     
  -1.23           -1.58e-011      4.0095e-009    
  -1.22           2.2076e-009     4.233e-009     
  -1.21           2.403e-009      -5.325e-010    
  -1.2            1.486e-010      -4.3973e-009   
  -1.19           -2.085e-009     -3.3537e-009   
  -1.18           -2.5547e-009    1.812e-010     
  -1.17           -2.7602e-009    3.6016e-009    
  -1.16           -2.2914e-009    3.1963e-009    
  -1.15           2.775e-010      4.41e-009      
  -1.14           2.46e-009       4.0468e-009    
  -1.13           2.2814e-009     -1.2458e-009   
  -1.12           -1.228e-010     -4.5266e-009   
  -1.11           -2.3389e-009    -3.142e-009    
  -1.1            -2.4391e-009    6.031e-010     
  -1.09           -8.59e-011      3.9332e-009    
  -1.08           2.1418e-009     4.278e-009     
  -1.07           2.4289e-009     -3.814e-010    
  -1.06           2.6387e-009     -4.3712e-009   
  -1.05           2.8011e-009     -4.3021e-009   
  -1.04           2.364e-009      -4.2245e-009   
  -1.03           5.65e-011       -4.4392e-009   
  -1.02           -2.1764e-009    -3.2752e-009   
  -1.01           -2.5113e-009    3.438e-010     
  -1              -2.7167e-009    3.7152e-009    
  -0.99           -2.8752e-009    3.275e-009     
  -0.98           -2.4424e-009    2.925e-009     
  -0.97           -7.93e-011      3.9311e-009    
  -0.96           2.1533e-009     4.2738e-009    
  -0.95           2.4268e-009     -3.752e-010    
  -0.94           2.6344e-009     -4.3516e-009   
  -0.93           2.8006e-009     -4.3204e-009   
  -0.92           2.3641e-009     -4.2197e-009   
  -0.91           4.27e-011       -4.4436e-009   
  -0.9            -2.1816e-009    -3.2709e-009   
  -0.89           -2.5032e-009    3.429e-010     
  -0.88           -2.489e-010     3.7383e-009    
  -0.87           2.0212e-009     4.3845e-009    
  -0.86           2.5023e-009     2.26e-011      
  -0.85           2.7023e-009     -4.3272e-009   
  -0.84           2.2449e-009     -4.2856e-009   
  -0.83           -2.276e-010     -4.6192e-009   
  -0.82           -2.4473e-009    -3.0582e-009   
  -0.81           -2.3889e-009    7.817e-010     
  -0.8            3.27e-011       4.0836e-009    
  -0.79           2.2415e-009     4.2088e-009    
  -0.78           2.3842e-009     -6.535e-010    
  -0.77           1.142e-010      -4.3976e-009   
  -0.76           -2.1287e-009    -3.3115e-009   
  -0.75           -2.5367e-009    2.372e-010     
  -0.74           -2.7403e-009    3.6375e-009    
  -0.73           -2.2699e-009    3.2271e-009    
  -0.72           3.15e-010       4.4514e-009    
  -0.71           2.4925e-009     4.011e-009     
  -0.7            2.2667e-009     -1.3615e-009   
  -0.69           -1.604e-010     -4.5402e-009   
  -0.68           -2.3799e-009    -3.1021e-009   
  -0.67           -2.4178e-009    6.606e-010     
  -0.66           -4.13e-011      3.9915e-009    
  -0.65           2.179e-009      4.2476e-009    
  -0.64           2.4125e-009     -4.701e-010    
  -0.63           2.6208e-009     -4.3845e-009   
  -0.62           2.7841e-009     -4.3114e-009   
  -0.61           2.3443e-009     -4.2283e-009   
  -0.6            7e-013          -4.477e-009    
  -0.59           -2.2243e-009    -3.2357e-009   
  -0.58           -2.4897e-009    3.97e-010      
  -0.57           -2.207e-010     3.7762e-009    
  -0.56           2.0579e-009     4.3508e-009    
  -0.55           2.4802e-009     -8.52e-011     
  -0.54           2.6823e-009     -4.3444e-009   
  -0.53           2.2231e-009     -4.2705e-009   
  -0.52           -2.733e-010     -4.651e-009    
  -0.51           -2.4828e-009    -3.0096e-009   
  -0.5            -2.3631e-009    8.498e-010     
  -0.49           8.65e-011       4.145e-009     
  -0.48           2.2845e-009     4.1685e-009    
  -0.47           2.3646e-009     -7.632e-010    
  -0.46           6.2e-011        -4.4211e-009   
  -0.45           -2.1599e-009    -3.2905e-009   
  -0.44           -2.5121e-009    3.216e-010     
  -0.43           -2.7209e-009    3.7042e-009    
  -0.42           -2.8717e-009    3.2657e-009    
  -0.41           -2.4428e-009    2.8992e-009    
  -0.4            -9.09e-011      3.9136e-009    
  -0.39           2.1365e-009     4.2733e-009    
  -0.38           2.4302e-009     -3.472e-010    
  -0.37           2.6354e-009     -4.3785e-009   
  -0.36           2.7966e-009     -4.2934e-009   
  -0.35           2.3642e-009     -4.2223e-009   
  -0.34           4.84e-011       -4.432e-009    
  -0.33           -2.1749e-009    -3.2653e-009   
  -0.32           -2.5067e-009    3.497e-010     
  -0.31           -2.576e-010     3.7183e-009    
  -0.3            2.0186e-009     4.3741e-009    
  -0.29           2.5009e-009     1.42e-011      
  -0.28           2.6966e-009     -4.3324e-009   
  -0.27           2.2435e-009     -4.2655e-009   
  -0.26           -2.318e-010     -4.6123e-009   
  -0.25           -2.4377e-009    -3.0443e-009   
  -0.24           -2.3833e-009    7.83e-010      
  -0.23           4.4e-011        4.0736e-009    
  -0.22           2.234e-009      4.1977e-009    
  -0.21           2.3815e-009     -6.416e-010    
  -0.2            1.093e-010      -4.4208e-009   
  -0.19           -2.1281e-009    -3.3071e-009   
  -0.18           -2.5276e-009    2.537e-010     
  -0.17           -2.7316e-009    3.6286e-009    
  -0.16           -2.2601e-009    3.2221e-009    
  -0.15           3.417e-010      4.4704e-009    
  -0.14           2.5058e-009     3.9925e-009    
  -0.13           2.2553e-009     -1.3724e-009   
  -0.12           -1.758e-010     -4.5625e-009   
  -0.11           -2.378e-009     -3.0842e-009   
  -0.1            -2.4076e-009    7.067e-010     
  -0.09           -1.53e-011      4.0244e-009    
  -0.08           2.1941e-009     4.2237e-009    
  -0.07           2.3996e-009     -5.325e-010    
  -0.06           2.6037e-009     -4.4024e-009   
  -0.05           2.7703e-009     -4.3117e-009   
  -0.04           2.3328e-009     -4.2703e-009   
  -0.03           -2.7e-011       -4.4867e-009   
  -0.02           -2.2362e-009    -3.2209e-009   
  -0.01           -2.4679e-009    4.619e-010     
  0               -3.2073e-009    1.2762e-009    
  0.01            -2.8385e-009    2.1236e-009    
  0.02            -2.4057e-009    2.9784e-009    
  0.03            1.82e-011       4.0485e-009    
  0.04            2.2228e-009     4.2144e-009    
  0.05            2.391e-009      -6.139e-010    
  0.06            1.315e-010      -4.4008e-009   
  0.07            -2.1112e-009    -3.3325e-009   
  0.08            -2.536e-009     2.327e-010     
  0.09            -2.7422e-009    3.6431e-009    
  0.1             -2.2693e-009    3.2097e-009    
  0.11            3.197e-010      4.4469e-009    
  0.12            2.4888e-009     3.9998e-009    
  0.13            2.265e-009      -1.3555e-009   
  0.14            -1.58e-010      -4.5603e-009   
  0.15            -2.3671e-009    -3.1013e-009   
  0.16            -2.4032e-009    6.731e-010     
  0.17            -1.48e-011      3.9771e-009    
  0.18            2.206e-009      4.2219e-009    
  0.19            2.4166e-009     -5.14e-010     
  0.2             2.6232e-009     -4.4234e-009   
  0.21            2.7962e-009     -4.3898e-009   
  0.22            2.35e-009       -4.2543e-009   
  0.23            2.7e-011        -4.5548e-009   
  0.24            -2.1594e-009    -3.2575e-009   
  0.25            -2.3689e-009    3.967e-010     
  0.26            -4.83e-011      3.7038e-009    
  0.27            2.249e-009      4.1665e-009    
  0.28            2.7017e-009     -4.378e-010    
  0.29            2.2617e-009     -5.1052e-009   
  0.3             -1.467e-010     -5.6834e-009   
  0.31            -2.251e-009     -3.0277e-009   
  0.32            -2.3031e-009    8.464e-010     
  0.33            -1.9541e-009    1.4161e-009    
  0.34            -7.67e-011      8.229e-010     
  0.35            3.083e-009      3.7794e-009    
  0.36            2.9336e-009     -7.845e-009    
  0.37            3.2645e-009     -1.9653e-008   
  0.38            4.9744e-009     -2.0682e-008   
  0.39            6.4696e-009     -2.0908e-008   
  0.4             1.1282e-008     -6.668e-009    
  0.41            1.5317e-008     -1.4212e-008   
  0.42            2.3514e-008     -2.548e-008    
  0.43            3.0367e-008     -2.8048e-008   
  0.44            4.3145e-008     -4.614e-008    
  0.45            5.5848e-008     -5.2828e-008   
  0.46            7.625e-008      -7.8783e-008   
  0.47            9.5344e-008     -9.2089e-008   
  0.48            1.2505e-007     -1.1849e-007   
  0.49            1.5601e-007     -1.693e-007    
  0.5             1.9545e-007     -1.8056e-007   
  0.51            2.3175e-007     -2.4614e-007   
  0.52            2.7937e-007     -2.6268e-007   
  0.53            3.2611e-007     -3.3862e-007   
  0.54            3.8267e-007     -3.7381e-007   
  0.55            4.293e-007      -4.3732e-007   
  0.56            4.8346e-007     -4.8462e-007   
  0.57            5.3958e-007     -5.316e-007    
  0.58            5.9812e-007     -6.0405e-007   
  0.59            6.6908e-007     -6.6179e-007   
  0.6             7.2889e-007     -7.4487e-007   
  0.61            8.0607e-007     -7.8918e-007   
  0.62            8.6943e-007     -8.8284e-007   
  0.63            9.3976e-007     -9.3482e-007   
  0.64            1.01494e-006    -1.02168e-006  
  0.65            1.1013e-006     -1.08857e-006  
  0.66            1.1602e-006     -1.1689e-006   
  0.67            1.2405e-006     -1.2315e-006   
  0.68            1.2923e-006     -1.2753e-006   
  0.69            1.3462e-006     -1.3428e-006   
  0.7             1.4226e-006     -1.4057e-006   
  0.71            1.5015e-006     -1.5004e-006   
  0.72            1.5734e-006     -1.5597e-006   
  0.73            1.6414e-006     -1.661e-006    
  0.74            1.745e-006      -1.7166e-006   
  0.75            1.835e-006      -1.8501e-006   
  0.76            1.9491e-006     -1.8846e-006   
  0.77            1.9701e-006     -2.0095e-006   
  0.78            2.1178e-006     -2.0526e-006   
  0.79            2.0113e-006     -2.029e-006    
  0.8             2.1463e-006     -2.0613e-006   
  0.81            2.2102e-006     -2.1774e-006   
  0.82            2.2942e-006     -2.389e-006    
  0.83            2.4557e-006     -2.4049e-006   
  0.84            2.4605e-006     -2.4459e-006   
  0.85            2.5359e-006     -2.5649e-006   
  0.86            2.6817e-006     -2.6442e-006   
  0.87            2.7365e-006     -2.7153e-006   
  0.88            2.8266e-006     -2.8447e-006   
