! VERSION = 6.00
BEGIN_HEADER
 ICCAP_INPUTS
  VU1        V  E GROUND SMU1 0.1 CON        0
  VU2        V  S GROUND SMU4 0.1 CON        0
  VN         V  B GROUND SMU3 0.015 CON        0
  VP         V  C GROUND SMU2 0.015 LIN        1    -3         1          401  0.01      
 ICCAP_OUTPUTS
  IP         I  C GROUND SMU2 B
  IN         I  B GROUND SMU3 B
END_HEADER

BEGIN_DB
 ICCAP_VAR VU1        0              
 ICCAP_VAR VU2        0              
 ICCAP_VAR VN         0              

 #VP              IP              IN             
  -3              -4.925e-010     8.209e-010     
  -2.99           -1.004e-009     -3.5712e-009   
  -2.98           -1.5223e-009    -2.8679e-009   
  -2.97           -2.626e-009     1.2e-012       
  -2.96           -2.1951e-009    2.7268e-009    
  -2.95           2.75e-011       3.4665e-009    
  -2.94           2.0519e-009     3.2731e-009    
  -2.93           2.1935e-009     -8.816e-010    
  -2.92           2.3952e-009     -4.3937e-009   
  -2.91           2.5624e-009     -4.32e-009     
  -2.9            2.1075e-009     -4.2977e-009   
  -2.89           -1.658e-010     -4.4509e-009   
  -2.88           -8.148e-010     -3.7897e-009   
  -2.87           -1.3158e-009    -3.1088e-009   
  -2.86           -2.7397e-009    -2.262e-010    
  -2.85           -2.3748e-009    2.4779e-009    
  -2.84           -2.5573e-009    3.1265e-009    
  -2.83           -2.0862e-009    2.8458e-009    
  -2.82           2.59e-010       3.7146e-009    
  -2.81           2.265e-009      3.1204e-009    
  -2.8            2.0894e-009     -1.439e-009    
  -2.79           -1.909e-010     -4.4408e-009   
  -2.78           -8.221e-010     -3.7749e-009   
  -2.77           -1.3338e-009    -3.0916e-009   
  -2.76           -2.73e-009      -2.124e-010    
  -2.75           -2.3577e-009    2.4969e-009    
  -2.74           -2.5516e-009    3.1439e-009    
  -2.73           -2.682e-009     2.864e-009     
  -2.72           -2.2663e-009    2.6306e-009    
  -2.71           -2.4586e-009    3.323e-009     
  -2.7            -2.6177e-009    3.0003e-009    
  -2.69           -2.1714e-009    2.7508e-009    
  -2.68           8.96e-011       3.5366e-009    
  -2.67           2.1013e-009     3.2375e-009    
  -2.66           2.1713e-009     -9.949e-010    
  -2.65           0               -4.4105e-009   
  -2.64           -7.398e-010     -3.8752e-009   
  -2.63           -1.2424e-009    -3.2099e-009   
  -2.62           -2.7883e-009    -3.733e-010    
  -2.61           -2.4475e-009    2.3829e-009    
  -2.6            -2.6113e-009    3.0077e-009    
  -2.59           -2.163e-009     2.7589e-009    
  -2.58           1.045e-010      3.5551e-009    
  -2.57           2.1246e-009     3.2307e-009    
  -2.56           2.1632e-009     -1.0541e-009   
  -2.55           -2.44e-011      -4.4161e-009   
  -2.54           -7.549e-010     -3.8591e-009   
  -2.53           -1.2544e-009    -3.1889e-009   
  -2.52           -2.7887e-009    -3.383e-010    
  -2.51           -2.4346e-009    2.3881e-009    
  -2.5            -2.591e-009     3.0262e-009    
  -2.49           -2.1466e-009    2.7813e-009    
  -2.48           1.283e-010      3.574e-009     
  -2.47           2.1415e-009     3.2126e-009    
  -2.46           2.1565e-009     -1.1196e-009   
  -2.45           -5.11e-011      -4.4216e-009   
  -2.44           -7.61e-010      -3.8561e-009   
  -2.43           -1.2659e-009    -3.1674e-009   
  -2.42           -2.7708e-009    -3.206e-010    
  -2.41           -2.4233e-009    2.4229e-009    
  -2.4            -2.5846e-009    3.0524e-009    
  -2.39           -2.1396e-009    2.7946e-009    
  -2.38           1.604e-010      3.6017e-009    
  -2.37           2.1745e-009     3.1955e-009    
  -2.36           2.1436e-009     -1.1827e-009   
  -2.35           -9.19e-011      -4.4244e-009   
  -2.34           -7.799e-010     -3.8294e-009   
  -2.33           -1.2886e-009    -3.1572e-009   
  -2.32           -2.7635e-009    -2.939e-010    
  -2.31           -2.4034e-009    2.4277e-009    
  -2.3            -2.5759e-009    3.0717e-009    
  -2.29           -2.1204e-009    2.8073e-009    
  -2.28           1.948e-010      3.643e-009     
  -2.27           2.2054e-009     3.1744e-009    
  -2.26           2.1248e-009     -1.275e-009    
  -2.25           -1.153e-010     -4.4068e-009   
  -2.24           -7.943e-010     -3.8138e-009   
  -2.23           -1.2968e-009    -3.1251e-009   
  -2.22           -2.7545e-009    -2.615e-010    
  -2.21           -2.3875e-009    2.462e-009     
  -2.2            -2.5553e-009    3.0964e-009    
  -2.19           -2.0997e-009    2.8296e-009    
  -2.18           2.258e-010      3.6796e-009    
  -2.17           2.2327e-009     3.1507e-009    
  -2.16           2.1111e-009     -1.3604e-009   
  -2.15           -1.489e-010     -4.4256e-009   
  -2.14           -8.034e-010     -3.8007e-009   
  -2.13           -1.3221e-009    -3.1098e-009   
  -2.12           -2.7345e-009    -2.428e-010    
  -2.11           -2.3688e-009    2.4765e-009    
  -2.1            -2.5473e-009    3.1145e-009    
  -2.09           -2.092e-009     2.8451e-009    
  -2.08           2.601e-010      3.7081e-009    
  -2.07           2.2709e-009     3.1285e-009    
  -2.06           2.8783e-009     -1.4267e-009   
  -2.05           2.6477e-009     -3.1329e-009   
  -2.04           2.2503e-009     -4.1843e-009   
  -2.03           2.4412e-009     -4.3879e-009   
  -2.02           2.58e-009       -4.333e-009    
  -2.01           2.1598e-009     -4.2954e-009   
  -2              -5.25e-011      -4.4511e-009   
  -1.99           -7.667e-010     -3.8475e-009   
  -1.98           -1.2685e-009    -3.1566e-009   
  -1.97           -2.7735e-009    -3.057e-010    
  -1.96           -2.4135e-009    2.4128e-009    
  -1.95           -2.5741e-009    3.0527e-009    
  -1.94           -2.1262e-009    2.7976e-009    
  -1.93           1.726e-010      3.6179e-009    
  -1.92           2.1857e-009     3.1901e-009    
  -1.91           2.1384e-009     -1.225e-009    
  -1.9            -9.47e-011      -4.4317e-009   
  -1.89           -7.823e-010     -3.8178e-009   
  -1.88           -1.2819e-009    -3.1484e-009   
  -1.87           -2.7542e-009    -2.826e-010    
  -1.86           -2.3979e-009    2.437e-009     
  -1.85           -2.5676e-009    3.073e-009     
  -1.84           -2.1186e-009    2.812e-009     
  -1.83           1.991e-010      3.6569e-009    
  -1.82           2.214e-009      3.1625e-009    
  -1.81           2.1229e-009     -1.3025e-009   
  -1.8            -1.247e-010     -4.4368e-009   
  -1.79           -7.965e-010     -3.8e-009      
  -1.78           -1.2993e-009    -3.1285e-009   
  -1.77           -2.7434e-009    -2.6e-010      
  -1.76           -2.3791e-009    2.4643e-009    
  -1.75           -2.5562e-009    3.1075e-009    
  -1.74           -2.0938e-009    2.8322e-009    
  -1.73           2.348e-010      3.6926e-009    
  -1.72           2.2504e-009     3.1369e-009    
  -1.71           2.1056e-009     -1.3946e-009   
  -1.7            -1.596e-010     -4.4139e-009   
  -1.69           -8.091e-010     -3.7857e-009   
  -1.68           -1.3299e-009    -3.0933e-009   
  -1.67           -2.7391e-009    -2.134e-010    
  -1.66           -2.3543e-009    2.4877e-009    
  -1.65           -2.5327e-009    3.1317e-009    
  -1.64           -2.6722e-009    2.8579e-009    
  -1.63           -2.2644e-009    2.6238e-009    
  -1.62           -2.4469e-009    3.3251e-009    
  -1.61           -2.6083e-009    3.0008e-009    
  -1.6            -2.1655e-009    2.7433e-009    
  -1.59           9.56e-011       3.5378e-009    
  -1.58           2.1146e-009     3.2316e-009    
  -1.57           2.1709e-009     -1.0307e-009   
  -1.56           -1.67e-011      -4.4129e-009   
  -1.55           -7.476e-010     -3.8656e-009   
  -1.54           -1.2515e-009    -3.1887e-009   
  -1.53           -2.7858e-009    -3.405e-010    
  -1.52           -2.4274e-009    2.3961e-009    
  -1.51           -2.5823e-009    3.0347e-009    
  -1.5            -2.1415e-009    2.7782e-009    
  -1.49           1.393e-010      3.5834e-009    
  -1.48           2.1522e-009     3.2033e-009    
  -1.47           2.1497e-009     -1.1503e-009   
  -1.46           -6.87e-011      -4.4417e-009   
  -1.45           -7.694e-010     -3.85e-009     
  -1.44           -1.2744e-009    -3.161e-009    
  -1.43           -2.7555e-009    -3.072e-010    
  -1.42           -2.4039e-009    2.4255e-009    
  -1.41           -2.5713e-009    3.0625e-009    
  -1.4            -2.1191e-009    2.7938e-009    
  -1.39           1.856e-010      3.6304e-009    
  -1.38           2.2022e-009     3.1781e-009    
  -1.37           2.1245e-009     -1.263e-009    
  -1.36           -1.183e-010     -4.4604e-009   
  -1.35           -7.868e-010     -3.8094e-009   
  -1.34           -1.294e-009     -3.1353e-009   
  -1.33           -2.7485e-009    -2.578e-010    
  -1.32           -2.3833e-009    2.4515e-009    
  -1.31           -2.5502e-009    3.0876e-009    
  -1.3            -2.1018e-009    2.8287e-009    
  -1.29           2.368e-010      3.6842e-009    
  -1.28           2.2421e-009     3.1397e-009    
  -1.27           2.11e-009       -1.3714e-009   
  -1.26           -1.54e-010      -4.4265e-009   
  -1.25           -8.114e-010     -3.783e-009    
  -1.24           -1.3146e-009    -3.0939e-009   
  -1.23           -2.7359e-009    -2.244e-010    
  -1.22           -2.3564e-009    2.4824e-009    
  -1.21           -2.5374e-009    3.1341e-009    
  -1.2            -2.6668e-009    2.8563e-009    
  -1.19           -2.2612e-009    2.6213e-009    
  -1.18           -2.4495e-009    3.326e-009     
  -1.17           -2.6043e-009    3.0001e-009    
  -1.16           -2.1629e-009    2.7476e-009    
  -1.15           9.35e-011       3.534e-009     
  -1.14           2.1169e-009     3.2392e-009    
  -1.13           2.1687e-009     -1.0326e-009   
  -1.12           -1.83e-011      -4.4228e-009   
  -1.11           -7.487e-010     -3.8758e-009   
  -1.1            -1.2467e-009    -3.1987e-009   
  -1.09           -2.7863e-009    -3.59e-010     
  -1.08           -2.4349e-009    2.3922e-009    
  -1.07           -2.5871e-009    3.0225e-009    
  -1.06           -2.1456e-009    2.7748e-009    
  -1.05           1.333e-010      3.5765e-009    
  -1.04           2.1475e-009     3.2203e-009    
  -1.03           2.1616e-009     -1.1233e-009   
  -1.02           -4.75e-011      -4.4389e-009   
  -1.01           -7.613e-010     -3.8535e-009   
  -1              -1.2602e-009    -3.176e-009    
  -0.99           -2.7759e-009    -3.254e-010    
  -0.98           -2.4182e-009    2.4143e-009    
  -0.97           -2.5705e-009    3.0551e-009    
  -0.96           -2.1377e-009    2.7859e-009    
  -0.95           1.661e-010      3.6071e-009    
  -0.94           2.1861e-009     3.1952e-009    
  -0.93           2.1442e-009     -1.2116e-009   
  -0.92           -9.19e-011      -4.4388e-009   
  -0.91           -7.838e-010     -3.8368e-009   
  -0.9            -1.2838e-009    -3.1386e-009   
  -0.89           -2.7524e-009    -2.757e-010    
  -0.88           -2.3925e-009    2.455e-009     
  -0.87           -2.5546e-009    3.0895e-009    
  -0.86           -2.1124e-009    2.8175e-009    
  -0.85           2.19e-010       3.6709e-009    
  -0.84           2.2347e-009     3.1592e-009    
  -0.83           2.1167e-009     -1.3404e-009   
  -0.82           -1.44e-010      -4.4062e-009   
  -0.81           -8.053e-010     -3.8079e-009   
  -0.8            -1.311e-009     -3.0941e-009   
  -0.79           -2.732e-009     -2.308e-010    
  -0.78           -2.3635e-009    2.4856e-009    
  -0.77           -2.5309e-009    3.1327e-009    
  -0.76           -2.6616e-009    2.8584e-009    
  -0.75           -2.2697e-009    2.6196e-009    
  -0.74           -2.4517e-009    3.3141e-009    
  -0.73           -2.5997e-009    2.9991e-009    
  -0.72           -2.1723e-009    2.744e-009     
  -0.71           9.12e-011       3.5345e-009    
  -0.7            2.1148e-009     3.244e-009     
  -0.69           2.1844e-009     -1.0206e-009   
  -0.68           -1.8e-012       -4.4291e-009   
  -0.67           -7.421e-010     -3.8781e-009   
  -0.66           -1.2496e-009    -3.2057e-009   
  -0.65           -2.7824e-009    -3.515e-010    
  -0.64           -2.4246e-009    2.3937e-009    
  -0.63           -2.5793e-009    3.0258e-009    
  -0.62           -2.149e-009     2.7753e-009    
  -0.61           1.324e-010      3.5925e-009    
  -0.6            2.1584e-009     3.2084e-009    
  -0.59           2.1603e-009     -1.1574e-009   
  -0.58           -6.59e-011      -4.4285e-009   
  -0.57           -7.678e-010     -3.8504e-009   
  -0.56           -1.2737e-009    -3.1573e-009   
  -0.55           -2.7587e-009    -3.107e-010    
  -0.54           -2.4055e-009    2.4296e-009    
  -0.53           -2.5626e-009    3.0715e-009    
  -0.52           -2.124e-009     2.8085e-009    
  -0.51           1.902e-010      3.6446e-009    
  -0.5            2.208e-009      3.1823e-009    
  -0.49           2.1355e-009     -1.2691e-009   
  -0.48           -1.157e-010     -4.4673e-009   
  -0.47           -7.918e-010     -3.8189e-009   
  -0.46           -1.2972e-009    -3.1207e-009   
  -0.45           -2.7372e-009    -2.598e-010    
  -0.44           -2.3815e-009    2.46e-009      
  -0.43           -2.5438e-009    3.1159e-009    
  -0.42           -2.0966e-009    2.8326e-009    
  -0.41           2.445e-010      3.6969e-009    
  -0.4            2.2525e-009     3.1423e-009    
  -0.39           2.1112e-009     -1.3934e-009   
  -0.38           -1.687e-010     -4.446e-009    
  -0.37           -8.157e-010     -3.7961e-009   
  -0.36           -1.3237e-009    -3.081e-009    
  -0.35           -2.7218e-009    -2.158e-010    
  -0.34           -2.3508e-009    2.4932e-009    
  -0.33           -2.5255e-009    3.1509e-009    
  -0.32           -2.6532e-009    2.8697e-009    
  -0.31           -2.2555e-009    2.6345e-009    
  -0.3            -2.4403e-009    3.3373e-009    
  -0.29           -2.5867e-009    3.0031e-009    
  -0.28           -2.1609e-009    2.7627e-009    
  -0.27           1.094e-010      3.5559e-009    
  -0.26           2.1323e-009     3.2284e-009    
  -0.25           2.1741e-009     -1.0662e-009   
  -0.24           -2.43e-011      -4.4518e-009   
  -0.23           -7.497e-010     -3.8592e-009   
  -0.22           -1.2544e-009    -3.1807e-009   
  -0.21           -2.7756e-009    -3.406e-010    
  -0.2            -2.4199e-009    2.414e-009     
  -0.19           -2.5727e-009    3.0505e-009    
  -0.18           -2.1331e-009    2.7934e-009    
  -0.17           1.666e-010      3.617e-009     
  -0.16           2.1879e-009     3.1866e-009    
  -0.15           2.1422e-009     -1.2051e-009   
  -0.14           -9.17e-011      -4.4355e-009   
  -0.13           -7.778e-010     -3.822e-009    
  -0.12           -1.2881e-009    -3.1289e-009   
  -0.11           -2.75e-009      -2.751e-010    
  -0.1            -2.3878e-009    2.4499e-009    
  -0.09           -2.5562e-009    3.0877e-009    
  -0.08           -2.1009e-009    2.8267e-009    
  -0.07           2.207e-010      3.6768e-009    
  -0.06           2.2311e-009     3.1444e-009    
  -0.05           2.1152e-009     -1.3657e-009   
  -0.04           -1.498e-010     -4.4504e-009   
  -0.03           -8.027e-010     -3.793e-009    
  -0.02           -1.3088e-009    -3.1056e-009   
  -0.01           -2.7345e-009    -2.388e-010    
  0               -2.5596e-009    8.27e-011      
  0.01            -2.1092e-009    2.8158e-009    
  0.02            2.126e-010      3.6559e-009    
  0.03            2.2115e-009     3.1562e-009    
  0.04            2.122e-009      -1.3129e-009   
  0.05            -1.302e-010     -4.4457e-009   
  0.06            -7.943e-010     -3.8035e-009   
  0.07            -1.3003e-009    -3.113e-009    
  0.08            -2.7376e-009    -2.491e-010    
  0.09            -2.3691e-009    2.4634e-009    
  0.1             -2.5442e-009    3.1112e-009    
  0.11            -2.0842e-009    2.8434e-009    
  0.12            2.553e-010      3.7051e-009    
  0.13            2.2599e-009     3.1251e-009    
  0.14            2.1048e-009     -1.4222e-009   
  0.15            -1.721e-010     -4.4436e-009   
  0.16            -8.119e-010     -3.7798e-009   
  0.17            -1.3172e-009    -3.0844e-009   
  0.18            -2.7128e-009    -2.23e-010     
  0.19            -2.3355e-009    2.4899e-009    
  0.2             -2.5098e-009    3.1399e-009    
  0.21            -2.6358e-009    2.8608e-009    
  0.22            -2.2137e-009    2.6035e-009    
  0.23            -5.55e-011      3.3071e-009    
  0.24            2.019e-009      3.2988e-009    
  0.25            2.3313e-009     -6.744e-010    
  0.26            2.5524e-009     -4.602e-009    
  0.27            2.7344e-009     -4.5894e-009   
  0.28            2.3659e-009     -4.5783e-009   
  0.29            2.6216e-009     -4.9821e-009   
  0.3             2.214e-009      -5.0777e-009   
  0.31            2.5865e-009     -5.3392e-009   
  0.32            2.1612e-009     -6.105e-009    
  0.33            2.6897e-009     -5.1507e-009   
  0.34            2.3131e-009     -7.2758e-009   
  0.35            2.3122e-009     -5.0536e-009   
  0.36            2.1546e-009     -4.5184e-009   
  0.37            3.6059e-009     -7.535e-009    
  0.38            3.9273e-009     -1.9193e-008   
  0.39            4.9988e-009     -2.027e-008    
  0.4             1.0873e-008     -1.0983e-008   
  0.41            1.0368e-008     -2.1545e-008   
  0.42            2.1049e-008     -1.1852e-008   
  0.43            2.3289e-008     -3.1003e-008   
  0.44            3.9153e-008     -3.1281e-008   
  0.45            4.9383e-008     -5.7683e-008   
  0.46            7.6312e-008     -6.7457e-008   
  0.47            1.00896e-007    -1.10693e-007  
  0.48            1.5017e-007     -1.635e-007    
  0.49            2.1793e-007     -2.0401e-007   
  0.5             3.1182e-007     -3.1993e-007   
  0.51            4.5286e-007     -4.4365e-007   
  0.52            6.4114e-007     -6.4239e-007   
  0.53            9.4994e-007     -9.4775e-007   
  0.54            1.357e-006      -1.3589e-006   
  0.55            1.9976e-006     -1.9817e-006   
  0.56            2.8521e-006     -2.8659e-006   
  0.57            4.0741e-006     -4.0596e-006   
  0.58            5.9416e-006     -5.9565e-006   
  0.59            8.3609e-006     -8.3517e-006   
  0.6             1.1941e-005     -1.1932e-005   
  0.61            1.6396e-005     -1.6405e-005   
  0.62            2.2178e-005     -2.2141e-005   
  0.63            3.0024e-005     -3.0018e-005   
  0.64            3.8955e-005     -3.8957e-005   
  0.65            5.046e-005      -5.0498e-005   
  0.66            6.2659e-005     -6.2765e-005   
  0.67            7.6589e-005     -7.6617e-005   
  0.68            9.3192e-005     -9.3182e-005   
  0.69            0.00010974      -0.000109809   
  0.7             0.00012899      -0.00012901    
  0.71            0.00014802      -0.00014785    
  0.72            0.00016789      -0.00016776    
  0.73            0.00018985      -0.00019037    
  0.74            0.00021178      -0.00021167    
  0.75            0.00023524      -0.00023573    
  0.76            0.00025812      -0.00025843    
  0.77            0.00028178      -0.00028113    
  0.78            0.00030764      -0.00030798    
  0.79            0.00033121      -0.00033134    
  0.8             0.00035858      -0.00035846    
  0.81            0.00038421      -0.00038489    
  0.82            0.00041112      -0.00040936    
  0.83            0.00043866      -0.00043944    
  0.84            0.00046735      -0.00046689    
  0.85            0.00049654      -0.00049722    
  0.86            0.00052449      -0.00052419    
  0.87            0.00055076      -0.00055053    
  0.88            0.00058216      -0.00057902    
