! VERSION = 6.00
BEGIN_HEADER
 ICCAP_INPUTS
  VU1        V  E GROUND SMU1 0.1 CON        0
  VN         V  B GROUND SMU3 0.04 CON        0
  VU2        V  S GROUND SMU4 0.1 CON        0
  VP         V  C GROUND SMU2 0.04 LIN        1    -3         0.9        391  0.01      
 ICCAP_OUTPUTS
  IP         I  C GROUND SMU2 B
  IN         I  B GROUND SMU3 B
END_HEADER

BEGIN_DB
 ICCAP_VAR VU1        0              
 ICCAP_VAR VN         0              
 ICCAP_VAR VU2        0              

 #VP              IP              IN             
  -3              -1.165e-010     1.6887e-009    
  -2.99           -2.2954e-009    -3.2311e-009   
  -2.98           -2.3636e-009    5.599e-010     
  -2.97           -7.58e-011      3.9344e-009    
  -2.96           2.1066e-009     4.2722e-009    
  -2.95           2.391e-009      -3.592e-010    
  -2.94           2.5783e-009     -4.2056e-009   
  -2.93           2.7532e-009     -4.1435e-009   
  -2.92           2.323e-009      -4.0508e-009   
  -2.91           6.15e-011       -4.2978e-009   
  -2.9            -2.1338e-009    -3.3718e-009   
  -2.89           -2.4304e-009    2.616e-010     
  -2.88           -2.6167e-009    3.6899e-009    
  -2.87           -2.7813e-009    3.2419e-009    
  -2.86           -2.3728e-009    2.886e-009     
  -2.85           -9.21e-011      3.8993e-009    
  -2.84           2.1018e-009     4.2778e-009    
  -2.83           2.3851e-009     -3.113e-010    
  -2.82           2.5825e-009     -4.2039e-009   
  -2.81           2.7488e-009     -4.1358e-009   
  -2.8            2.3265e-009     -4.059e-009    
  -2.79           7.48e-011       -4.3181e-009   
  -2.78           -2.1256e-009    -3.3733e-009   
  -2.77           -2.4354e-009    2.446e-010     
  -2.76           -2.6247e-009    3.6821e-009    
  -2.75           -2.7842e-009    3.2294e-009    
  -2.74           -2.3751e-009    2.8638e-009    
  -2.73           -9.59e-011      3.8864e-009    
  -2.72           2.0908e-009     4.2771e-009    
  -2.71           2.3935e-009     -3.057e-010    
  -2.7            2.5839e-009     -4.215e-009    
  -2.69           2.7552e-009     -4.137e-009    
  -2.68           2.3305e-009     -4.0895e-009   
  -2.67           8.36e-011       -4.2662e-009   
  -2.66           -2.1084e-009    -3.3847e-009   
  -2.65           -2.4377e-009    2.109e-010     
  -2.64           -2.6237e-009    3.6561e-009    
  -2.63           -2.7844e-009    3.2236e-009    
  -2.62           -2.3791e-009    2.86e-009      
  -2.61           -1.087e-010     3.875e-009     
  -2.6            2.0825e-009     4.2903e-009    
  -2.59           2.3951e-009     -2.433e-010    
  -2.58           2.5899e-009     -4.1875e-009   
  -2.57           2.7616e-009     -4.1339e-009   
  -2.56           2.3373e-009     -4.0875e-009   
  -2.55           9.75e-011       -4.2704e-009   
  -2.54           -2.1011e-009    -3.3888e-009   
  -2.53           -2.439e-009     2.175e-010     
  -2.52           -2.6313e-009    3.6521e-009    
  -2.51           -2.7837e-009    3.2087e-009    
  -2.5            -2.3819e-009    2.8465e-009    
  -2.49           -1.213e-010     3.8681e-009    
  -2.48           2.0753e-009     4.2885e-009    
  -2.47           2.3974e-009     -2.511e-010    
  -2.46           2.6015e-009     -4.1994e-009   
  -2.45           2.7747e-009     -4.1266e-009   
  -2.44           2.3374e-009     -4.0599e-009   
  -2.43           9.89e-011       -4.2719e-009   
  -2.42           -2.099e-009     -3.3876e-009   
  -2.41           -2.4406e-009    1.957e-010     
  -2.4            -2.6237e-009    3.6636e-009    
  -2.39           -2.7792e-009    3.2215e-009    
  -2.38           -2.3926e-009    2.8525e-009    
  -2.37           -1.184e-010     3.8594e-009    
  -2.36           2.0809e-009     4.2781e-009    
  -2.35           2.3948e-009     -2.31e-010     
  -2.34           2.5909e-009     -4.2015e-009   
  -2.33           2.7668e-009     -4.1124e-009   
  -2.32           2.3311e-009     -4.0465e-009   
  -2.31           9.57e-011       -4.2324e-009   
  -2.3            -2.0969e-009    -3.3901e-009   
  -2.29           -2.4392e-009    2.092e-010     
  -2.28           -2.6262e-009    3.6643e-009    
  -2.27           -2.785e-009     3.2245e-009    
  -2.26           -2.3804e-009    2.8496e-009    
  -2.25           -1.157e-010     3.859e-009     
  -2.24           2.0809e-009     4.2829e-009    
  -2.23           2.3906e-009     -2.43e-010     
  -2.22           2.5865e-009     -4.2144e-009   
  -2.21           2.7568e-009     -4.099e-009    
  -2.2            2.3454e-009     -4.0512e-009   
  -2.19           1.054e-010      -4.265e-009    
  -2.18           -2.1067e-009    -3.3815e-009   
  -2.17           -2.4353e-009    2.182e-010     
  -2.16           -2.6267e-009    3.6643e-009    
  -2.15           -2.7823e-009    3.2185e-009    
  -2.14           -2.3752e-009    2.8652e-009    
  -2.13           -1.13e-010      3.8699e-009    
  -2.12           2.0801e-009     4.2824e-009    
  -2.11           2.3905e-009     -2.601e-010    
  -2.1            2.5933e-009     -4.1994e-009   
  -2.09           2.7581e-009     -4.1141e-009   
  -2.08           2.3294e-009     -4.0809e-009   
  -2.07           8.56e-011       -4.2815e-009   
  -2.06           -2.1079e-009    -3.3758e-009   
  -2.05           -2.438e-009     2.167e-010     
  -2.04           -2.6227e-009    3.671e-009     
  -2.03           -2.7823e-009    3.227e-009     
  -2.02           -2.3736e-009    2.8553e-009    
  -2.01           -1.012e-010     3.8835e-009    
  -2              2.0851e-009     4.2748e-009    
  -1.99           2.3899e-009     -2.762e-010    
  -1.98           2.5872e-009     -4.2181e-009   
  -1.97           2.7524e-009     -4.0989e-009   
  -1.96           2.3307e-009     -4.0856e-009   
  -1.95           7.71e-011       -4.2723e-009   
  -1.94           -2.1221e-009    -3.3748e-009   
  -1.93           -2.4377e-009    2.394e-010     
  -1.92           -2.6204e-009    3.6873e-009    
  -1.91           -2.7801e-009    3.244e-009     
  -1.9            -2.374e-009     2.8738e-009    
  -1.89           -8.93e-011      3.912e-009     
  -1.88           2.0989e-009     4.2748e-009    
  -1.87           2.387e-009      -3.085e-010    
  -1.86           2.5796e-009     -4.2273e-009   
  -1.85           2.7417e-009     -4.1057e-009   
  -1.84           2.3209e-009     -4.0824e-009   
  -1.83           6.72e-011       -4.2918e-009   
  -1.82           -2.1322e-009    -3.3708e-009   
  -1.81           -2.4283e-009    2.546e-010     
  -1.8            -2.6173e-009    3.6953e-009    
  -1.79           -2.7766e-009    3.252e-009     
  -1.78           -2.3685e-009    2.8857e-009    
  -1.77           -7.45e-011      3.9135e-009    
  -1.76           2.1083e-009     4.2677e-009    
  -1.75           2.3815e-009     -3.396e-010    
  -1.74           2.5838e-009     -4.2421e-009   
  -1.73           2.7489e-009     -4.1284e-009   
  -1.72           2.3193e-009     -4.0867e-009   
  -1.71           5.9e-011        -4.3101e-009   
  -1.7            -2.1361e-009    -3.358e-009    
  -1.69           -2.4236e-009    2.718e-010     
  -1.68           -2.6138e-009    3.7099e-009    
  -1.67           -2.7671e-009    3.2507e-009    
  -1.66           -2.3592e-009    2.8971e-009    
  -1.65           -6.27e-011      3.9249e-009    
  -1.64           2.1251e-009     4.256e-009     
  -1.63           2.3763e-009     -3.608e-010    
  -1.62           2.5702e-009     -4.2252e-009   
  -1.61           2.734e-009      -4.153e-009    
  -1.6            2.3135e-009     -4.0888e-009   
  -1.59           4.29e-011       -4.3135e-009   
  -1.58           -2.1546e-009    -3.3488e-009   
  -1.57           -2.4151e-009    3.027e-010     
  -1.56           -2.291e-010     3.7173e-009    
  -1.55           1.9997e-009     4.3619e-009    
  -1.54           2.4468e-009     1.53e-011      
  -1.53           2.6301e-009     -4.1841e-009   
  -1.52           2.2015e-009     -4.1082e-009   
  -1.51           -2.253e-010     -4.5621e-009   
  -1.5            -2.3905e-009    -3.1361e-009   
  -1.49           -2.3203e-009    7.373e-010     
  -1.48           5.52e-011       4.0838e-009    
  -1.47           2.2169e-009     4.1857e-009    
  -1.46           2.3292e-009     -6.419e-010    
  -1.45           1.056e-010      -4.2737e-009   
  -1.44           -2.0949e-009    -3.384e-009    
  -1.43           -2.4468e-009    1.96e-010      
  -1.42           -2.6281e-009    3.6653e-009    
  -1.41           -2.1992e-009    3.2109e-009    
  -1.4            3.398e-010      4.4731e-009    
  -1.39           2.4685e-009     3.9979e-009    
  -1.38           2.2233e-009     -1.3411e-009   
  -1.37           -1.576e-010     -4.492e-009    
  -1.36           -2.339e-009     -3.1891e-009   
  -1.35           -2.3428e-009    6.427e-010     
  -1.34           -2.02e-011      3.9989e-009    
  -1.33           2.1567e-009     4.2238e-009    
  -1.32           2.3625e-009     -4.928e-010    
  -1.31           2.5551e-009     -4.2455e-009   
  -1.3            2.7293e-009     -4.1461e-009   
  -1.29           2.2967e-009     -4.1159e-009   
  -1.28           -6.1e-012       -4.3339e-009   
  -1.27           -2.193e-009     -3.3043e-009   
  -1.26           -2.3993e-009    3.845e-010     
  -1.25           -1.803e-010     3.794e-009     
  -1.24           2.0344e-009     4.3244e-009    
  -1.23           2.422e-009      -8.03e-011     
  -1.22           2.6162e-009     -4.1573e-009   
  -1.21           2.1877e-009     -4.1377e-009   
  -1.2            -2.779e-010     -4.5967e-009   
  -1.19           -2.4468e-009    -3.1049e-009   
  -1.18           -2.2971e-009    8.075e-010     
  -1.17           1.025e-010      4.1641e-009    
  -1.16           2.2559e-009     4.1708e-009    
  -1.15           2.3131e-009     -7.797e-010    
  -1.14           5.82e-011       -4.2968e-009   
  -1.13           -2.1379e-009    -3.3607e-009   
  -1.12           -2.434e-009     2.674e-010     
  -1.11           -2.6095e-009    3.7057e-009    
  -1.1            -2.7633e-009    3.2472e-009    
  -1.09           -2.3632e-009    2.9019e-009    
  -1.08           -7.72e-011      3.9444e-009    
  -1.07           2.1098e-009     4.2585e-009    
  -1.06           2.38e-009       -3.423e-010    
  -1.05           2.5735e-009     -4.2023e-009   
  -1.04           2.735e-009      -4.1588e-009   
  -1.03           2.3158e-009     -4.0819e-009   
  -1.02           5.92e-011       -4.2883e-009   
  -1.01           -2.1365e-009    -3.3466e-009   
  -1              -2.4197e-009    3.003e-010     
  -0.99           -2.6071e-009    3.711e-009     
  -0.98           -2.7683e-009    3.2576e-009    
  -0.97           -2.359e-009     2.9055e-009    
  -0.96           -5.29e-011      3.9293e-009    
  -0.95           2.1189e-009     4.2498e-009    
  -0.94           2.3754e-009     -3.898e-010    
  -0.93           2.5719e-009     -4.2281e-009   
  -0.92           2.7341e-009     -4.1574e-009   
  -0.91           2.3194e-009     -4.0569e-009   
  -0.9            3.98e-011       -4.2774e-009   
  -0.89           -2.155e-009     -3.3433e-009   
  -0.88           -2.4243e-009    3.204e-010     
  -0.87           -2.223e-010     3.7505e-009    
  -0.86           1.9973e-009     4.3556e-009    
  -0.85           2.4398e-009     -6.7e-012      
  -0.84           2.6363e-009     -4.1806e-009   
  -0.83           2.2011e-009     -4.1637e-009   
  -0.82           -2.413e-010     -4.5678e-009   
  -0.81           -2.4057e-009    -3.1444e-009   
  -0.8            -2.3041e-009    7.722e-010     
  -0.79           7.17e-011       4.1131e-009    
  -0.78           2.2147e-009     4.1739e-009    
  -0.77           2.3277e-009     -6.921e-010    
  -0.76           1.003e-010      -4.2959e-009   
  -0.75           -2.1096e-009    -3.3843e-009   
  -0.74           -2.4385e-009    2.225e-010     
  -0.73           -2.6268e-009    3.6748e-009    
  -0.72           -2.7754e-009    3.2189e-009    
  -0.71           -2.3786e-009    2.8584e-009    
  -0.7            -1.045e-010     3.8708e-009    
  -0.69           2.0876e-009     4.2837e-009    
  -0.68           2.3989e-009     -2.995e-010    
  -0.67           2.5905e-009     -4.204e-009    
  -0.66           2.7439e-009     -4.1523e-009   
  -0.65           2.3303e-009     -4.1095e-009   
  -0.64           7.59e-011       -4.2886e-009   
  -0.63           -2.1202e-009    -3.3685e-009   
  -0.62           -2.4416e-009    2.695e-010     
  -0.61           -2.6185e-009    3.6857e-009    
  -0.6            -2.7718e-009    3.2412e-009    
  -0.59           -2.3786e-009    2.874e-009     
  -0.58           -7.78e-011      3.9007e-009    
  -0.57           2.1034e-009     4.2738e-009    
  -0.56           2.3849e-009     -3.171e-010    
  -0.55           2.5814e-009     -4.2288e-009   
  -0.54           2.7434e-009     -4.136e-009    
  -0.53           2.3214e-009     -4.0728e-009   
  -0.52           6.29e-011       -4.3083e-009   
  -0.51           -2.1234e-009    -3.3694e-009   
  -0.5            -2.4363e-009    2.803e-010     
  -0.49           -2.6139e-009    3.7096e-009    
  -0.48           -2.7665e-009    3.2587e-009    
  -0.47           -2.3748e-009    2.8844e-009    
  -0.46           -6.87e-011      3.9277e-009    
  -0.45           2.1155e-009     4.2849e-009    
  -0.44           2.3864e-009     -3.709e-010    
  -0.43           2.5767e-009     -4.1935e-009   
  -0.42           2.7313e-009     -4.1394e-009   
  -0.41           2.3236e-009     -4.0542e-009   
  -0.4            5e-011          -4.293e-009    
  -0.39           -2.1429e-009    -3.3535e-009   
  -0.38           -2.4242e-009    3.004e-010     
  -0.37           -2.329e-010     3.7217e-009    
  -0.36           1.9817e-009     4.3719e-009    
  -0.35           2.4567e-009     2.56e-011      
  -0.34           2.6378e-009     -4.1425e-009   
  -0.33           2.2034e-009     -4.1149e-009   
  -0.32           -2.215e-010     -4.5281e-009   
  -0.31           -2.3913e-009    -3.1404e-009   
  -0.3            -2.3151e-009    7.276e-010     
  -0.29           5.07e-011       4.0729e-009    
  -0.28           2.1963e-009     4.2156e-009    
  -0.27           2.3445e-009     -6.208e-010    
  -0.26           1.131e-010      -4.242e-009    
  -0.25           -2.0834e-009    -3.4065e-009   
  -0.24           -2.4551e-009    1.808e-010     
  -0.23           -2.6453e-009    3.6401e-009    
  -0.22           -2.2049e-009    3.2011e-009    
  -0.21           3.325e-010      4.4696e-009    
  -0.2            2.4469e-009     4.0089e-009    
  -0.19           2.2306e-009     -1.3228e-009   
  -0.18           -1.502e-010     -4.477e-009    
  -0.17           -2.316e-009     -3.1945e-009   
  -0.16           -2.3532e-009    6.103e-010     
  -0.15           -4e-011         3.9656e-009    
  -0.14           2.1444e-009     4.2539e-009    
  -0.13           2.3743e-009     -4.628e-010    
  -0.12           2.5722e-009     -4.2281e-009   
  -0.11           2.7268e-009     -4.1167e-009   
  -0.1            2.3159e-009     -4.0669e-009   
  -0.09           2.24e-011       -4.3284e-009   
  -0.08           -2.1736e-009    -3.3262e-009   
  -0.07           -2.4114e-009    3.334e-010     
  -0.06           -2.033e-010     3.7465e-009    
  -0.05           2.0155e-009     4.3459e-009    
  -0.04           2.437e-009      -6.01e-011     
  -0.03           2.6258e-009     -4.1526e-009   
  -0.02           2.1923e-009     -4.1623e-009   
  -0.01           -2.563e-010     -4.5691e-009   
  0               -6.332e-010     -5.0441e-009   
  0.01            -1.1379e-009    -4.7547e-009   
  0.02            -1.7314e-009    -3.8217e-009   
  0.03            -2.6615e-009    -4.001e-010    
  0.04            -2.2326e-009    3.1485e-009    
  0.05            2.688e-010      4.3816e-009    
  0.06            2.3838e-009     4.0584e-009    
  0.07            2.2611e-009     -1.164e-009    
  0.08            -8.33e-011      -4.4263e-009   
  0.09            -2.2687e-009    -3.2444e-009   
  0.1             -2.3699e-009    5.023e-010     
  0.11            -1.053e-010     3.8916e-009    
  0.12            2.0934e-009     4.2817e-009    
  0.13            2.3913e-009     -2.896e-010    
  0.14            2.5946e-009     -4.203e-009    
  0.15            2.7521e-009     -4.1348e-009   
  0.16            2.3448e-009     -4.1079e-009   
  0.17            8.15e-011       -4.2877e-009   
  0.18            -2.1089e-009    -3.3893e-009   
  0.19            -2.4338e-009    2.427e-010     
  0.2             -2.6189e-009    3.6686e-009    
  0.21            -2.769e-009     3.2295e-009    
  0.22            -2.3549e-009    2.8596e-009    
  0.23            -6.28e-011      3.8897e-009    
  0.24            2.1297e-009     4.2547e-009    
  0.25            2.4408e-009     -3.779e-010    
  0.26            2.6742e-009     -4.4032e-009   
  0.27            2.2489e-009     -4.4306e-009   
  0.28            -1.874e-010     -4.985e-009    
  0.29            -2.289e-009     -3.1784e-009   
  0.3             -2.8513e-009    7.544e-010     
  0.31            -2.3991e-009    1.6696e-009    
  0.32            -2.215e-010     2.4306e-009    
  0.33            2.2714e-009     4.4202e-009    
  0.34            4.0753e-009     3.099e-010     
  0.35            2.6653e-009     -7.1351e-009   
  0.36            2.5369e-009     -6.5e-009      
  0.37            2.5709e-009     -1.8633e-008   
  0.38            4.0913e-009     -2.1269e-008   
  0.39            5.4808e-009     -1.9692e-008   
  0.4             1.1577e-008     -1.2895e-008   
  0.41            1.3294e-008     -1.3744e-008   
  0.42            2.3794e-008     -2.3693e-008   
  0.43            3.0628e-008     -3.0252e-008   
  0.44            4.7179e-008     -4.8799e-008   
  0.45            6.695e-008      -6.4936e-008   
  0.46            9.8624e-008     -1.0137e-007   
  0.47            1.4173e-007     -1.4748e-007   
  0.48            2.0896e-007     -1.9737e-007   
  0.49            3.0153e-007     -3.1613e-007   
  0.5             4.4895e-007     -4.3519e-007   
  0.51            6.4957e-007     -6.6128e-007   
  0.52            9.4583e-007     -9.2799e-007   
  0.53            1.4036e-006     -1.389e-006    
  0.54            2.033e-006      -2.0291e-006   
  0.55            3.0328e-006     -3.0395e-006   
  0.56            4.4032e-006     -4.3916e-006   
  0.57            6.3789e-006     -6.3871e-006   
  0.58            9.5027e-006     -9.4901e-006   
  0.59            1.3699e-005     -1.3684e-005   
  0.6             2.0214e-005     -2.0231e-005   
  0.61            2.884e-005      -2.8812e-005   
  0.62            4.0757e-005     -4.0748e-005   
  0.63            5.8325e-005     -5.833e-005    
  0.64            8.0304e-005     -8.0235e-005   
  0.65            0.00011104      -0.000110971   
  0.66            0.00014706      -0.00014697    
  0.67            0.00019079      -0.00019063    
  0.68            0.00024689      -0.00024699    
  0.69            0.00030711      -0.00030698    
  0.7             0.00038099      -0.00038064    
  0.71            0.00045685      -0.00045668    
  0.72            0.00053997      -0.00053986    
  0.73            0.00063759      -0.00063731    
  0.74            0.00073474      -0.00073493    
  0.75            0.00084699      -0.00084699    
  0.76            0.0009571       -0.00095723    
  0.77            0.00107269      -0.00107241    
  0.78            0.0012031       -0.0012024     
  0.79            0.0013304       -0.0013299     
  0.8             0.0014727       -0.001471      
  0.81            0.0016086       -0.0016071     
  0.82            0.0017482       -0.0017472     
  0.83            0.0019047       -0.0019036     
  0.84            0.0020533       -0.0020533     
  0.85            0.0022194       -0.0022194     
  0.86            0.0023765       -0.0023758     
  0.87            0.0025375       -0.0025351     
  0.88            0.0027135       -0.002712      
