! VERSION = 6.00
BEGIN_HEADER
 ICCAP_INPUTS
  VU1        V  E GROUND SMU1 0.1 CON        0
  VU2        V  S GROUND SMU4 0.1 CON        0
  VN         V  B GROUND SMU2 0.015 CON        0
  VP         V  C GROUND SMU3 0.015 LIN        1    3          -1         401  -0.01     
 ICCAP_OUTPUTS
  IP         I  C GROUND SMU3 B
  IN         I  B GROUND SMU2 B
END_HEADER

BEGIN_DB
 ICCAP_VAR VU1        0              
 ICCAP_VAR VU2        0              
 ICCAP_VAR VN         0              

 #VP              IP              IN             
  3               1.4568e-009     1.4369e-008    
  2.99            -7.887e-010     1.3292e-008    
  2.98            -1.4719e-009    1.2971e-008    
  2.97            -1.5858e-009    1.4876e-008    
  2.96            -6.169e-010     1.409e-008     
  2.95            -1.2214e-009    1.3848e-008    
  2.94            -8.32e-010      1.3036e-008    
  2.93            -1.5334e-009    1.3328e-008    
  2.92            -1.0332e-009    1.4158e-008    
  2.91            -1.1142e-009    1.5081e-008    
  2.9             -7.357e-010     1.3995e-008    
  2.89            -8.158e-010     1.3098e-008    
  2.88            -1.5172e-009    1.3249e-008    
  2.87            -1.0174e-009    1.5239e-008    
  2.86            -6.414e-010     1.5212e-008    
  2.85            -7.227e-010     1.4157e-008    
  2.84            -8.032e-010     1.3158e-008    
  2.83            -1.4917e-009    1.3094e-008    
  2.82            -1.0062e-009    1.4993e-008    
  2.81            -6.252e-010     1.4169e-008    
  2.8             -1.238e-009     1.3735e-008    
  2.79            -1.3517e-009    1.3207e-008    
  2.78            -1.4679e-009    1.3129e-008    
  2.77            -1.5839e-009    1.3774e-008    
  2.76            -1.0654e-009    1.4225e-008    
  2.75            -1.1511e-009    1.4601e-008    
  2.74            -7.697e-010     1.3359e-008    
  2.73            -1.4457e-009    1.3181e-008    
  2.72            -1.5638e-009    1.3558e-008    
  2.71            -1.0531e-009    1.4336e-008    
  2.7             -1.1328e-009    1.4827e-008    
  2.69            -7.585e-010     1.3874e-008    
  2.68            -8.388e-010     1.3126e-008    
  2.67            -1.5411e-009    1.3424e-008    
  2.66            -1.0388e-009    1.4242e-008    
  2.65            -1.117e-009     1.4979e-008    
  2.64            -7.465e-010     1.3627e-008    
  2.63            -1.3991e-009    1.3108e-008    
  2.62            -1.5222e-009    1.3295e-008    
  2.61            -1.0232e-009    1.4186e-008    
  2.6             -1.1054e-009    1.5128e-008    
  2.59            -7.3e-010       1.3625e-008    
  2.58            -1.3808e-009    1.3111e-008    
  2.57            -1.5015e-009    1.3134e-008    
  2.56            -1.0084e-009    1.5115e-008    
  2.55            -6.315e-010     1.5242e-008    
  2.54            -7.178e-010     1.4322e-008    
  2.53            -7.962e-010     1.3263e-008    
  2.52            -1.48e-009      1.2916e-008    
  2.51            -1.0024e-009    1.3829e-008    
  2.5             -1.0747e-009    1.4264e-008    
  2.49            -1.1631e-009    1.4075e-008    
  2.48            -1.2582e-009    1.3605e-008    
  2.47            -8.578e-010     1.3138e-008    
  2.46            -1.5832e-009    1.3652e-008    
  2.45            -1.0605e-009    1.4321e-008    
  2.44            -1.1467e-009    1.4563e-008    
  2.43            -7.687e-010     1.3452e-008    
  2.42            -1.4407e-009    1.31e-008      
  2.41            -1.5596e-009    1.3488e-008    
  2.4             -1.0542e-009    1.4246e-008    
  2.39            -1.133e-009     1.4822e-008    
  2.38            -7.618e-010     1.3884e-008    
  2.37            -8.381e-010     1.3162e-008    
  2.36            -1.5449e-009    1.344e-008     
  2.35            -1.04e-009      1.4219e-008    
  2.34            -1.122e-009     1.4252e-008    
  2.33            -1.2087e-009    1.4009e-008    
  2.32            -8.209e-010     1.3213e-008    
  2.31            -1.529e-009     1.33e-008      
  2.3             -1.027e-009     1.4146e-008    
  2.29            -1.1035e-009    1.4213e-008    
  2.28            -1.2004e-009    1.4132e-008    
  2.27            -8.108e-010     1.3191e-008    
  2.26            -1.5078e-009    1.3176e-008    
  2.25            -1.0155e-009    1.5156e-008    
  2.24            -6.434e-010     1.5316e-008    
  2.23            -7.213e-010     1.4246e-008    
  2.22            -8e-010         1.3226e-008    
  2.21            -1.4924e-009    1.3157e-008    
  2.2             -1.0051e-009    1.5101e-008    
  2.19            -6.322e-010     1.5461e-008    
  2.18            -7.127e-010     1.3892e-008    
  2.17            -1.3487e-009    1.3313e-008    
  2.16            -1.4712e-009    1.3048e-008    
  2.15            -9.956e-010     1.4687e-008    
  2.14            -6.258e-010     1.5551e-008    
  2.13            -7.002e-010     1.3923e-008    
  2.12            -1.3304e-009    1.3436e-008    
  2.11            -1.4572e-009    1.3144e-008    
  2.1             -1.5753e-009    1.3558e-008    
  2.09            -1.0605e-009    1.4305e-008    
  2.08            -1.1444e-009    1.4708e-008    
  2.07            -7.655e-010     1.3479e-008    
  2.06            -1.4321e-009    1.3173e-008    
  2.05            -1.5579e-009    1.3508e-008    
  2.04            -1.0485e-009    1.4271e-008    
  2.03            -1.1327e-009    1.4946e-008    
  2.02            -7.591e-010     1.3901e-008    
  2.01            -8.28e-010      1.3117e-008    
  2               -1.5348e-009    1.3377e-008    
  1.99            -1.0336e-009    1.4164e-008    
  1.98            -1.1148e-009    1.5173e-008    
  1.97            -7.408e-010     1.4095e-008    
  1.96            -8.238e-010     1.3123e-008    
  1.95            -1.519e-009     1.3337e-008    
  1.94            -1.0231e-009    1.4028e-008    
  1.93            -1.1059e-009    1.5234e-008    
  1.92            -7.358e-010     1.4196e-008    
  1.91            -8.086e-010     1.318e-008     
  1.9             -1.5026e-009    1.3138e-008    
  1.89            -1.014e-009     1.5126e-008    
  1.88            -6.413e-010     1.5348e-008    
  1.87            -7.23e-010      1.4385e-008    
  1.86            -8.02e-010      1.328e-008     
  1.85            -1.4875e-009    1.3061e-008    
  1.84            -1.0009e-009    1.4953e-008    
  1.83            -6.312e-010     1.412e-008     
  1.82            -1.239e-009     1.3776e-008    
  1.81            -8.412e-010     1.3128e-008    
  1.8             -1.5599e-009    1.3387e-008    
  1.79            -1.0449e-009    1.4153e-008    
  1.78            -1.126e-009     1.4928e-008    
  1.77            -7.577e-010     1.3608e-008    
  1.76            -1.4174e-009    1.3078e-008    
  1.75            -1.5406e-009    1.3299e-008    
  1.74            -1.0342e-009    1.422e-008     
  1.73            -1.1197e-009    1.5096e-008    
  1.72            -7.443e-010     1.3764e-008    
  1.71            -1.3969e-009    1.3173e-008    
  1.7             -1.518e-009     1.3212e-008    
  1.69            -1.0243e-009    1.4054e-008    
  1.68            -1.1074e-009    1.5223e-008    
  1.67            -7.373e-010     1.3799e-008    
  1.66            -1.3795e-009    1.3163e-008    
  1.65            -1.5053e-009    1.3103e-008    
  1.64            -1.013e-009     1.3892e-008    
  1.63            -1.0896e-009    1.4229e-008    
  1.62            -1.183e-009     1.436e-008     
  1.61            -8.025e-010     1.3218e-008    
  1.6             -1.4855e-009    1.3039e-008    
  1.59            -1.0011e-009    1.387e-008     
  1.58            -1.0805e-009    1.42e-008      
  1.57            -1.1672e-009    1.4508e-008    
  1.56            -7.856e-010     1.3255e-008    
  1.55            -1.4719e-009    1.2891e-008    
  1.54            -9.919e-010     1.4703e-008    
  1.53            -6.195e-010     1.4161e-008    
  1.52            -1.2247e-009    1.3869e-008    
  1.51            -1.3265e-009    1.3471e-008    
  1.5             -1.4553e-009    1.3079e-008    
  1.49            -1.5731e-009    1.3383e-008    
  1.48            -1.0542e-009    1.4191e-008    
  1.47            -1.1377e-009    1.4867e-008    
  1.46            -7.598e-010     1.3757e-008    
  1.45            -8.4e-010       1.3034e-008    
  1.44            -1.5575e-009    1.3363e-008    
  1.43            -1.0515e-009    1.419e-008     
  1.42            -1.132e-009     1.5064e-008    
  1.41            -7.547e-010     1.365e-008     
  1.4             -1.4158e-009    1.3097e-008    
  1.39            -1.5421e-009    1.3201e-008    
  1.38            -1.0354e-009    1.5702e-008    
  1.37            -6.658e-010     1.5081e-008    
  1.36            -7.457e-010     1.4056e-008    
  1.35            -8.208e-010     1.313e-008     
  1.34            -1.5239e-009    1.3096e-008    
  1.33            -1.0265e-009    1.5461e-008    
  1.32            -6.535e-010     1.5301e-008    
  1.31            -7.29e-010      1.3742e-008    
  1.3             -1.3852e-009    1.3241e-008    
  1.29            -1.5081e-009    1.3077e-008    
  1.28            -1.0111e-009    1.5226e-008    
  1.27            -6.36e-010      1.412e-008     
  1.26            -1.2572e-009    1.3606e-008    
  1.25            -8.555e-010     1.3214e-008    
  1.24            -1.5736e-009    1.3586e-008    
  1.23            -1.0612e-009    1.4326e-008    
  1.22            -1.144e-009     1.4794e-008    
  1.21            -7.688e-010     1.3837e-008    
  1.2             -8.472e-010     1.304e-008     
  1.19            -1.5606e-009    1.3411e-008    
  1.18            -1.0549e-009    1.4224e-008    
  1.17            -1.1327e-009    1.483e-008     
  1.16            -7.619e-010     1.3851e-008    
  1.15            -8.37e-010      1.3049e-008    
  1.14            -1.5427e-009    1.332e-008     
  1.13            -1.0377e-009    1.4235e-008    
  1.12            -1.1154e-009    1.5018e-008    
  1.11            -7.434e-010     1.407e-008     
  1.1             -8.215e-010     1.3172e-008    
  1.09            -1.5297e-009    1.3293e-008    
  1.08            -1.0313e-009    1.416e-008     
  1.07            -1.1092e-009    1.5155e-008    
  1.06            -7.375e-010     1.4199e-008    
  1.05            -8.167e-010     1.3143e-008    
  1.04            -1.5152e-009    1.3219e-008    
  1.03            -1.0196e-009    1.3995e-008    
  1.02            -1.0994e-009    1.4245e-008    
  1.01            -1.1905e-009    1.4273e-008    
  1               -8.072e-010     1.3247e-008    
  0.99            -1.4931e-009    1.3111e-008    
  0.98            -1.0112e-009    1.4984e-008    
  0.97            -6.39e-010      1.5402e-008    
  0.96            -7.184e-010     1.3859e-008    
  0.95            -1.3564e-009    1.3315e-008    
  0.94            -1.4802e-009    1.3141e-008    
  0.93            -9.998e-010     1.4908e-008    
  0.92            -6.26e-010      1.5421e-008    
  0.91            -7.04e-010      1.4468e-008    
  0.9             -7.866e-010     1.323e-008     
  0.89            -1.4661e-009    1.3157e-008    
  0.88            -1.5827e-009    1.3669e-008    
  0.87            -1.0703e-009    1.4225e-008    
  0.86            -1.1521e-009    1.4633e-008    
  0.85            -7.789e-010     1.3408e-008    
  0.84            -1.4515e-009    1.3117e-008    
  0.83            -1.5751e-009    1.3507e-008    
  0.82            -1.0599e-009    1.4224e-008    
  0.81            -1.1399e-009    1.4804e-008    
  0.8             -7.635e-010     1.3488e-008    
  0.79            -1.4354e-009    1.305e-008     
  0.78            -1.5531e-009    1.3539e-008    
  0.77            -1.0506e-009    1.4257e-008    
  0.76            -1.1333e-009    1.4906e-008    
  0.75            -7.571e-010     1.3546e-008    
  0.74            -1.4222e-009    1.3068e-008    
  0.73            -1.5434e-009    1.3313e-008    
  0.72            -1.0433e-009    1.4272e-008    
  0.71            -1.1183e-009    1.5069e-008    
  0.7             -7.47e-010      1.4042e-008    
  0.69            -8.232e-010     1.3056e-008    
  0.68            -1.5275e-009    1.3342e-008    
  0.67            -1.0309e-009    1.4207e-008    
  0.66            -1.1132e-009    1.5177e-008    
  0.65            -7.364e-010     1.4125e-008    
  0.64            -8.157e-010     1.3108e-008    
  0.63            -1.5085e-009    1.3137e-008    
  0.62            -1.0213e-009    1.4054e-008    
  0.61            -1.1026e-009    1.528e-008     
  0.6             -7.275e-010     1.4264e-008    
  0.59            -8.107e-010     1.3135e-008    
  0.58            -1.4938e-009    1.3117e-008    
  0.57            -1.0123e-009    1.5033e-008    
  0.56            -6.347e-010     1.4139e-008    
  0.55            -1.2491e-009    1.3699e-008    
  0.54            -8.519e-010     1.3109e-008    
  0.53            -1.5675e-009    1.3586e-008    
  0.52            -1.0589e-009    1.4236e-008    
  0.51            -1.1409e-009    1.4778e-008    
  0.5             -7.59e-010      1.3888e-008    
  0.49            -8.374e-010     1.3106e-008    
  0.48            -1.5547e-009    1.3504e-008    
  0.47            -1.0505e-009    1.4287e-008    
  0.46            -1.128e-009     1.4988e-008    
  0.45            -7.572e-010     1.3943e-008    
  0.44            -8.328e-010     1.3061e-008    
  0.43            -1.5394e-009    1.3439e-008    
  0.42            -1.0387e-009    1.4188e-008    
  0.41            -1.1166e-009    1.4997e-008    
  0.4             -7.464e-010     1.4182e-008    
  0.39            -8.204e-010     1.3117e-008    
  0.38            -1.527e-009     1.3194e-008    
  0.37            -1.0276e-009    1.4151e-008    
  0.36            -1.1127e-009    1.5198e-008    
  0.35            -7.322e-010     1.4175e-008    
  0.34            -8.127e-010     1.315e-008     
  0.33            -1.5064e-009    1.3216e-008    
  0.32            -1.0203e-009    1.4055e-008    
  0.31            -1.1004e-009    1.4249e-008    
  0.3             -1.1848e-009    1.4226e-008    
  0.29            -8.032e-010     1.3103e-008    
  0.28            -1.4931e-009    1.306e-008     
  0.27            -1.008e-009     1.3955e-008    
  0.26            -1.0851e-009    1.4342e-008    
  0.25            -1.177e-009     1.4389e-008    
  0.24            -7.937e-010     1.3288e-008    
  0.23            -1.4773e-009    1.3126e-008    
  0.22            -1.6001e-009    1.3773e-008    
  0.21            -1.0809e-009    1.4289e-008    
  0.2             -1.1666e-009    1.4528e-008    
  0.19            -7.85e-010      1.3401e-008    
  0.18            -1.4638e-009    1.3228e-008    
  0.17            -1.5864e-009    1.3615e-008    
  0.16            -1.0716e-009    1.4272e-008    
  0.15            -1.1531e-009    1.4741e-008    
  0.14            -7.784e-010     1.3434e-008    
  0.13            -1.4459e-009    1.3181e-008    
  0.12            -1.5738e-009    1.3545e-008    
  0.11            -1.0609e-009    1.4243e-008    
  0.1             -1.1474e-009    1.4717e-008    
  0.09            -7.691e-010     1.3463e-008    
  0.08            -1.4339e-009    1.3083e-008    
  0.07            -1.5625e-009    1.3448e-008    
  0.06            -1.0584e-009    1.4257e-008    
  0.05            -1.1403e-009    1.4855e-008    
  0.04            -7.615e-010     1.3499e-008    
  0.03            -1.426e-009     1.3117e-008    
  0.02            -1.5499e-009    1.3387e-008    
  0.01            -1.0472e-009    1.42e-008      
  0               -1.1281e-009    1.4975e-008    
  -0.01           1.8857e-009     -1.4828e-008   
  -0.02           9.38e-010       -1.3825e-008   
  -0.03           1.0191e-009     -1.3027e-008   
  -0.04           1.7386e-009     -1.387e-008    
  -0.05           1.2239e-009     -1.4437e-008   
  -0.06           1.3118e-009     -1.5012e-008   
  -0.07           9.286e-010      -1.3921e-008   
  -0.08           1.0062e-009     -1.3025e-008   
  -0.09           1.7339e-009     -1.3708e-008   
  -0.1            1.2231e-009     -1.4457e-008   
  -0.11           1.3005e-009     -1.5111e-008   
  -0.12           9.228e-010      -1.404e-008    
  -0.13           9.954e-010      -1.306e-008    
  -0.14           1.7149e-009     -1.3625e-008   
  -0.15           1.2097e-009     -1.452e-008    
  -0.16           1.288e-009      -1.5344e-008   
  -0.17           9.027e-010      -1.4142e-008   
  -0.18           9.863e-010      -1.2952e-008   
  -0.19           1.6965e-009     -1.3513e-008   
  -0.2            1.1877e-009     -1.4341e-008   
  -0.21           1.2704e-009     -1.5346e-008   
  -0.22           8.837e-010      -1.4109e-008   
  -0.23           9.561e-010      -1.3065e-008   
  -0.24           1.6544e-009     -1.3456e-008   
  -0.25           1.1459e-009     -1.4293e-008   
  -0.26           1.2064e-009     -1.5387e-008   
  -0.27           7.955e-010      -1.4216e-008   
  -0.28           8.429e-010      -1.2899e-008   
  -0.29           1.4823e-009     -1.3244e-008   
  -0.3            9.121e-010      -1.5167e-008   
  -0.31           4.197e-010      -1.5216e-008   
  -0.32           -1.8096e-009    -5.605e-009    
  -0.33           -2.0772e-009    -4.723e-009    
  -0.34           -1.88e-009      -1.4818e-008   
  -0.35           -1.8674e-009    -8.02e-009     
  -0.36           -1.7055e-009    -1.0911e-008   
  -0.37           -2.2328e-009    -1.1768e-008   
  -0.38           -4.0596e-009    1.2662e-008    
  -0.39           -8.5993e-009    1.7425e-008    
  -0.4            -1.0502e-008    1.5607e-008    
  -0.41           -1.4315e-008    9.464e-009     
  -0.42           -2.239e-008     2.7963e-008    
  -0.43           -3.0928e-008    2.4486e-008    
  -0.44           -4.5983e-008    5.3003e-008    
  -0.45           -6.6837e-008    5.9764e-008    
  -0.46           -9.7697e-008    1.03931e-007   
  -0.47           -1.4553e-007    1.4963e-007    
  -0.48           -2.0742e-007    2.0138e-007    
  -0.49           -3.0053e-007    3.0015e-007    
  -0.5            -4.44e-007      4.4909e-007    
  -0.51           -6.4661e-007    6.4086e-007    
  -0.52           -9.5187e-007    9.6627e-007    
  -0.53           -1.3788e-006    1.3892e-006    
  -0.54           -1.9951e-006    1.9961e-006    
  -0.55           -2.9681e-006    2.971e-006     
  -0.56           -4.2753e-006    4.2787e-006    
  -0.57           -6.3435e-006    6.3462e-006    
  -0.58           -9.1139e-006    9.1288e-006    
  -0.59           -1.3137e-005    1.3148e-005    
  -0.6            -1.9304e-005    1.9328e-005    
  -0.61           -2.7424e-005    2.7438e-005    
  -0.62           -3.9759e-005    3.9752e-005    
  -0.63           -5.5428e-005    5.5463e-005    
  -0.64           -7.832e-005     7.8421e-005    
  -0.65           -0.000106061    0.00010618     
  -0.66           -0.00014098     0.00014119     
  -0.67           -0.00018749     0.00018767     
  -0.68           -0.00023912     0.00023934     
  -0.69           -0.00030421     0.00030444     
  -0.7            -0.00037268     0.00037297     
  -0.71           -0.00044938     0.00044925     
  -0.72           -0.00053995     0.00054026     
  -0.73           -0.00063252     0.00063288     
  -0.74           -0.00074045     0.00074074     
  -0.75           -0.00084843     0.00084853     
  -0.76           -0.00096411     0.00096461     
  -0.77           -0.00109754     0.00109783     
  -0.78           -0.0012289      0.0012309      
  -0.79           -0.0013812      0.0013825      
  -0.8            -0.0015305      0.0015327      
  -0.81           -0.0016891      0.0016907      
  -0.82           -0.001868       0.0018697      
  -0.83           -0.0020443      0.0020461      
  -0.84           -0.0022424      0.0022446      
  -0.85           -0.002436       0.0024368      
  -0.86           -0.0026362      0.0026377      
  -0.87           -0.0028609      0.0028635      
  -0.88           -0.0030798      0.0030818      
