! VERSION = 6.00
BEGIN_HEADER
 ICCAP_INPUTS
  VU1        V  E GROUND SMU1 0.1 CON        0
  VU2        V  S GROUND SMU4 0.1 CON        0
  VN         V  B GROUND SMU2 0.015 CON        0
  VP         V  C GROUND SMU3 0.015 LIN        1    3          -1         401  -0.01     
 ICCAP_OUTPUTS
  IP         I  C GROUND SMU3 B
  IN         I  B GROUND SMU2 B
END_HEADER

BEGIN_DB
 ICCAP_VAR VU1        0              
 ICCAP_VAR VU2        0              
 ICCAP_VAR VN         0              

 #VP              IP              IN             
  3               -8.444e-010     -1.4335e-008   
  2.99            8.639e-010      -1.3297e-008   
  2.98            9.479e-010      -1.2718e-008   
  2.97            1.6651e-009     -1.418e-008    
  2.96            1.166e-009      -1.4929e-008   
  2.95            7.914e-010      -1.402e-008    
  2.94            8.788e-010      -1.3206e-008   
  2.93            9.672e-010      -1.2802e-008   
  2.92            1.6942e-009     -1.4311e-008   
  2.91            1.1791e-009     -1.4813e-008   
  2.9             1.2672e-009     -1.3813e-008   
  2.89            8.968e-010      -1.3189e-008   
  2.88            9.878e-010      -1.2799e-008   
  2.87            1.7223e-009     -1.4623e-008   
  2.86            1.1982e-009     -1.4736e-008   
  2.85            8.28e-010       -1.3547e-008   
  2.84            9.145e-010      -1.2785e-008   
  2.83            1.6097e-009     -1.3803e-008   
  2.82            1.1324e-009     -1.4835e-008   
  2.81            1.2141e-009     -1.4756e-008   
  2.8             1.3025e-009     -1.3405e-008   
  2.79            9.346e-010      -1.2688e-008   
  2.78            1.6377e-009     -1.4102e-008   
  2.77            1.1522e-009     -1.4863e-008   
  2.76            1.2249e-009     -1.4278e-008   
  2.75            8.615e-010      -1.3292e-008   
  2.74            9.463e-010      -1.2634e-008   
  2.73            1.6648e-009     -1.4197e-008   
  2.72            1.1622e-009     -1.4798e-008   
  2.71            7.921e-010      -1.3912e-008   
  2.7             8.783e-010      -1.3176e-008   
  2.69            9.689e-010      -1.2831e-008   
  2.68            1.6899e-009     -1.4423e-008   
  2.67            1.1812e-009     -1.4787e-008   
  2.66            1.2673e-009     -1.376e-008    
  2.65            9e-010          -1.3225e-008   
  2.64            9.877e-010      -1.2758e-008   
  2.63            1.7217e-009     -1.4675e-008   
  2.62            1.1949e-009     -1.4786e-008   
  2.61            1.2855e-009     -1.3543e-008   
  2.6             9.153e-010      -1.274e-008    
  2.59            1.6112e-009     -1.3846e-008   
  2.58            1.1293e-009     -1.477e-008    
  2.57            1.2164e-009     -1.4444e-008   
  2.56            8.461e-010      -1.3441e-008   
  2.55            9.269e-010      -1.276e-008    
  2.54            1.6412e-009     -1.4046e-008   
  2.53            1.1493e-009     -1.4815e-008   
  2.52            1.2325e-009     -1.4154e-008   
  2.51            8.657e-010      -1.3202e-008   
  2.5             1.5249e-009     -1.2709e-008   
  2.49            1.6685e-009     -1.4285e-008   
  2.48            1.1615e-009     -1.4844e-008   
  2.47            1.2465e-009     -1.393e-008    
  2.46            8.804e-010      -1.3332e-008   
  2.45            9.661e-010      -1.2791e-008   
  2.44            1.6952e-009     -1.4337e-008   
  2.43            1.1789e-009     -1.4674e-008   
  2.42            1.2652e-009     -1.3733e-008   
  2.41            8.988e-010      -1.3298e-008   
  2.4             9.87e-010       -1.2862e-008   
  2.39            1.7253e-009     -1.4694e-008   
  2.38            1.1962e-009     -1.4747e-008   
  2.37            1.2848e-009     -1.3604e-008   
  2.36            9.175e-010      -1.2775e-008   
  2.35            1.615e-009      -1.3841e-008   
  2.34            1.1348e-009     -1.4713e-008   
  2.33            7.655e-010      -1.4589e-008   
  2.32            8.488e-010      -1.3563e-008   
  2.31            9.33e-010       -1.28e-008     
  2.3             1.6392e-009     -1.3881e-008   
  2.29            1.1471e-009     -1.4748e-008   
  2.28            1.2328e-009     -1.4434e-008   
  2.27            8.613e-010      -1.3484e-008   
  2.26            9.503e-010      -1.2855e-008   
  2.25            1.6702e-009     -1.4038e-008   
  2.24            1.1656e-009     -1.4666e-008   
  2.23            1.2549e-009     -1.4305e-008   
  2.22            8.791e-010      -1.3196e-008   
  2.21            1.5629e-009     -1.2912e-008   
  2.2             1.6964e-009     -1.4162e-008   
  2.19            1.1836e-009     -1.4555e-008   
  2.18            1.2727e-009     -1.4116e-008   
  2.17            9.026e-010      -1.3008e-008   
  2.16            1.5939e-009     -1.2872e-008   
  2.15            1.7242e-009     -1.4317e-008   
  2.14            1.2044e-009     -1.5047e-008   
  2.13            8.414e-010      -1.3925e-008   
  2.12            9.217e-010      -1.2913e-008   
  2.11            1.6213e-009     -1.3617e-008   
  2.1             1.1374e-009     -1.4949e-008   
  2.09            7.72e-010       -1.4837e-008   
  2.08            8.545e-010      -1.3458e-008   
  2.07            1.5145e-009     -1.2862e-008   
  2.06            1.6518e-009     -1.3814e-008   
  2.05            1.1526e-009     -1.5193e-008   
  2.04            7.871e-010      -1.4597e-008   
  2.03            8.736e-010      -1.3679e-008   
  2.02            9.56e-010       -1.2895e-008   
  2.01            1.6801e-009     -1.4068e-008   
  2               1.1763e-009     -1.4559e-008   
  1.99            1.2628e-009     -1.4363e-008   
  1.98            8.946e-010      -1.3021e-008   
  1.97            1.5782e-009     -1.2863e-008   
  1.96            1.7079e-009     -1.4298e-008   
  1.95            1.1932e-009     -1.4478e-008   
  1.94            1.2811e-009     -1.3968e-008   
  1.93            9.097e-010      -1.3521e-008   
  1.92            9.961e-010      -1.2854e-008   
  1.91            1.7399e-009     -1.4517e-008   
  1.9             1.2122e-009     -1.4985e-008   
  1.89            8.451e-010      -1.3858e-008   
  1.88            9.317e-010      -1.2851e-008   
  1.87            1.6401e-009     -1.3759e-008   
  1.86            1.147e-009      -1.4661e-008   
  1.85            1.2373e-009     -1.4686e-008   
  1.84            8.633e-010      -1.3726e-008   
  1.83            9.505e-010      -1.2795e-008   
  1.82            1.6657e-009     -1.39e-008     
  1.81            1.1666e-009     -1.463e-008    
  1.8             1.2479e-009     -1.4423e-008   
  1.79            8.82e-010       -1.3589e-008   
  1.78            9.661e-010      -1.2891e-008   
  1.77            1.6951e-009     -1.4129e-008   
  1.76            1.1811e-009     -1.4532e-008   
  1.75            1.2713e-009     -1.4109e-008   
  1.74            8.972e-010      -1.354e-008    
  1.73            9.831e-010      -1.288e-008    
  1.72            1.7198e-009     -1.4262e-008   
  1.71            1.2014e-009     -1.5068e-008   
  1.7             8.336e-010      -1.3945e-008   
  1.69            9.16e-010       -1.2892e-008   
  1.68            1.6123e-009     -1.3622e-008   
  1.67            1.1381e-009     -1.4585e-008   
  1.66            1.2204e-009     -1.4927e-008   
  1.65            8.482e-010      -1.3755e-008   
  1.64            9.333e-010      -1.282e-008    
  1.63            1.6449e-009     -1.3837e-008   
  1.62            1.1505e-009     -1.4608e-008   
  1.61            1.2385e-009     -1.456e-008    
  1.6             8.697e-010      -1.3695e-008   
  1.59            9.543e-010      -1.2784e-008   
  1.58            1.6772e-009     -1.409e-008    
  1.57            1.1735e-009     -1.4636e-008   
  1.56            1.2531e-009     -1.4325e-008   
  1.55            8.876e-010      -1.3606e-008   
  1.54            9.746e-010      -1.2944e-008   
  1.53            1.7056e-009     -1.4235e-008   
  1.52            1.1909e-009     -1.4443e-008   
  1.51            1.2812e-009     -1.4066e-008   
  1.5             9.068e-010      -1.3e-008      
  1.49            1.6022e-009     -1.2857e-008   
  1.48            1.7325e-009     -1.4319e-008   
  1.47            1.21e-009       -1.5012e-008   
  1.46            8.434e-010      -1.3914e-008   
  1.45            9.296e-010      -1.2878e-008   
  1.44            1.638e-009      -1.3718e-008   
  1.43            1.1457e-009     -1.4557e-008   
  1.42            1.2319e-009     -1.4641e-008   
  1.41            8.645e-010      -1.3813e-008   
  1.4             9.52e-010       -1.2952e-008   
  1.39            1.6734e-009     -1.3909e-008   
  1.38            1.1692e-009     -1.445e-008    
  1.37            1.2593e-009     -1.4308e-008   
  1.36            8.859e-010      -1.3129e-008   
  1.35            1.5691e-009     -1.2847e-008   
  1.34            1.7135e-009     -1.4212e-008   
  1.33            1.1922e-009     -1.5069e-008   
  1.32            8.286e-010      -1.3963e-008   
  1.31            9.143e-010      -1.2983e-008   
  1.3             1.6105e-009     -1.366e-008    
  1.29            1.1325e-009     -1.4367e-008   
  1.28            1.2158e-009     -1.4865e-008   
  1.27            8.507e-010      -1.3702e-008   
  1.26            9.307e-010      -1.2882e-008   
  1.25            1.6526e-009     -1.3743e-008   
  1.24            1.1516e-009     -1.4973e-008   
  1.23            7.847e-010      -1.4506e-008   
  1.22            8.726e-010      -1.3609e-008   
  1.21            9.583e-010      -1.2919e-008   
  1.2             1.6812e-009     -1.4119e-008   
  1.19            1.1722e-009     -1.4606e-008   
  1.18            1.2634e-009     -1.4226e-008   
  1.17            8.935e-010      -1.3461e-008   
  1.16            9.801e-010      -1.2932e-008   
  1.15            1.7196e-009     -1.4385e-008   
  1.14            1.1971e-009     -1.4532e-008   
  1.13            1.2878e-009     -1.3835e-008   
  1.12            9.173e-010      -1.2872e-008   
  1.11            1.6226e-009     -1.3675e-008   
  1.1             1.1374e-009     -1.4914e-008   
  1.09            7.62e-010       -1.4717e-008   
  1.08            8.578e-010      -1.3718e-008   
  1.07            9.368e-010      -1.2858e-008   
  1.06            1.6553e-009     -1.3828e-008   
  1.05            1.1593e-009     -1.4601e-008   
  1.04            1.2432e-009     -1.4423e-008   
  1.03            8.766e-010      -1.3575e-008   
  1.02            9.671e-010      -1.3017e-008   
  1.01            1.6898e-009     -1.4059e-008   
  1               1.1807e-009     -1.4433e-008   
  0.99            1.2693e-009     -1.4138e-008   
  0.98            9.02e-010       -1.2978e-008   
  0.97            1.5911e-009     -1.2886e-008   
  0.96            1.7251e-009     -1.4753e-008   
  0.95            7.488e-010      -1.4809e-008   
  0.94            8.386e-010      -1.3769e-008   
  0.93            9.26e-010       -1.2839e-008   
  0.92            1.6326e-009     -1.3671e-008   
  0.91            1.1412e-009     -1.4575e-008   
  0.9             1.2306e-009     -1.4666e-008   
  0.89            8.638e-010      -1.3585e-008   
  0.88            9.486e-010      -1.288e-008    
  0.87            1.6679e-009     -1.3917e-008   
  0.86            1.1647e-009     -1.456e-008    
  0.85            1.2555e-009     -1.4189e-008   
  0.84            8.9e-010        -1.3475e-008   
  0.83            9.71e-010       -1.2903e-008   
  0.82            1.711e-009      -1.4139e-008   
  0.81            1.186e-009      -1.4561e-008   
  0.8             1.2788e-009     -1.3934e-008   
  0.79            9.065e-010      -1.2973e-008   
  0.78            1.6078e-009     -1.3471e-008   
  0.77            1.1292e-009     -1.4489e-008   
  0.76            1.2166e-009     -1.4777e-008   
  0.75            8.466e-010      -1.3651e-008   
  0.74            9.353e-010      -1.2831e-008   
  0.73            1.6494e-009     -1.3889e-008   
  0.72            1.1528e-009     -1.4621e-008   
  0.71            1.2397e-009     -1.4405e-008   
  0.7             8.732e-010      -1.3579e-008   
  0.69            9.596e-010      -1.2923e-008   
  0.68            1.6847e-009     -1.4164e-008   
  0.67            1.1798e-009     -1.4559e-008   
  0.66            1.2694e-009     -1.4091e-008   
  0.65            8.957e-010      -1.2946e-008   
  0.64            1.5922e-009     -1.2854e-008   
  0.63            1.7235e-009     -1.436e-008    
  0.62            1.2022e-009     -1.4526e-008   
  0.61            1.2915e-009     -1.3823e-008   
  0.6             9.202e-010      -1.2878e-008   
  0.59            1.6292e-009     -1.3694e-008   
  0.58            1.14e-009       -1.5014e-008   
  0.57            7.799e-010      -1.4631e-008   
  0.56            8.567e-010      -1.3685e-008   
  0.55            9.466e-010      -1.2825e-008   
  0.54            1.6648e-009     -1.3884e-008   
  0.53            1.1633e-009     -1.4665e-008   
  0.52            1.2509e-009     -1.4278e-008   
  0.51            8.806e-010      -1.3574e-008   
  0.5             9.721e-010      -1.2896e-008   
  0.49            1.7064e-009     -1.4166e-008   
  0.48            1.1887e-009     -1.448e-008    
  0.47            1.2815e-009     -1.3985e-008   
  0.46            9.086e-010      -1.2901e-008   
  0.45            1.6089e-009     -1.3679e-008   
  0.44            1.1272e-009     -1.4821e-008   
  0.43            7.596e-010      -1.4821e-008   
  0.42            8.427e-010      -1.3666e-008   
  0.41            9.31e-010       -1.2902e-008   
  0.4             1.6465e-009     -1.3688e-008   
  0.39            1.1507e-009     -1.4617e-008   
  0.38            1.2364e-009     -1.4486e-008   
  0.37            8.685e-010      -1.357e-008    
  0.36            9.552e-010      -1.2862e-008   
  0.35            1.6778e-009     -1.3988e-008   
  0.34            1.1732e-009     -1.4643e-008   
  0.33            1.2621e-009     -1.4112e-008   
  0.32            8.921e-010      -1.2992e-008   
  0.31            1.579e-009      -1.29e-008     
  0.3             1.7156e-009     -1.4434e-008   
  0.29            1.1945e-009     -1.5015e-008   
  0.28            8.294e-010      -1.3885e-008   
  0.27            9.162e-010      -1.2888e-008   
  0.26            1.6207e-009     -1.3559e-008   
  0.25            1.128e-009      -1.4488e-008   
  0.24            1.2228e-009     -1.4727e-008   
  0.23            8.48e-010       -1.3663e-008   
  0.22            9.359e-010      -1.2888e-008   
  0.21            1.6538e-009     -1.3897e-008   
  0.2             1.1554e-009     -1.506e-008    
  0.19            7.858e-010      -1.4374e-008   
  0.18            8.75e-010       -1.3493e-008   
  0.17            9.562e-010      -1.2981e-008   
  0.16            1.6846e-009     -1.4036e-008   
  0.15            1.1792e-009     -1.4547e-008   
  0.14            1.2626e-009     -1.4102e-008   
  0.13            8.944e-010      -1.302e-008    
  0.12            1.5851e-009     -1.2838e-008   
  0.11            1.7214e-009     -1.4333e-008   
  0.1             1.1978e-009     -1.4609e-008   
  0.09            1.2928e-009     -1.3898e-008   
  0.08            9.18e-010       -1.2875e-008   
  0.07            1.6198e-009     -1.3609e-008   
  0.06            1.1346e-009     -1.4973e-008   
  0.05            7.634e-010      -1.4677e-008   
  0.04            8.515e-010      -1.3596e-008   
  0.03            9.394e-010      -1.2839e-008   
  0.02            1.6549e-009     -1.3951e-008   
  0.01            1.1582e-009     -1.4619e-008   
  0               1.2418e-009     -1.4404e-008   
  -0.01           -1.7321e-009    1.3841e-008    
  -0.02           -8.463e-010     1.3127e-008    
  -0.03           -1.5387e-009    1.3454e-008    
  -0.04           -1.0605e-009    1.4447e-008    
  -0.05           -1.1412e-009    1.4538e-008    
  -0.06           -1.239e-009     1.3981e-008    
  -0.07           -1.3507e-009    1.3367e-008    
  -0.08           -1.4805e-009    1.3094e-008    
  -0.09           -1.6164e-009    1.4022e-008    
  -0.1            -1.1091e-009    1.459e-008     
  -0.11           -1.2015e-009    1.385e-008     
  -0.12           -8.32e-010      1.3112e-008    
  -0.13           -1.5172e-009    1.3114e-008    
  -0.14           -1.6508e-009    1.4361e-008    
  -0.15           -1.1344e-009    1.4584e-008    
  -0.16           -1.2278e-009    1.3659e-008    
  -0.17           -8.608e-010     1.3027e-008    
  -0.18           -1.5547e-009    1.369e-008     
  -0.19           -1.0739e-009    1.4859e-008    
  -0.2            -7.078e-010     1.4277e-008    
  -0.21           -7.998e-010     1.3404e-008    
  -0.22           -8.832e-010     1.2977e-008    
  -0.23           -1.601e-009     1.3813e-008    
  -0.24           -1.1073e-009    1.466e-008     
  -0.25           -1.1986e-009    1.4081e-008    
  -0.26           -8.376e-010     1.331e-008     
  -0.27           -9.38e-010      1.3135e-008    
  -0.28           -1.681e-009     1.4311e-008    
  -0.29           -1.1895e-009    1.4596e-008    
  -0.3            -1.3223e-009    1.3911e-008    
  -0.31           -1.0029e-009    1.3224e-008    
  -0.32           -1.7701e-009    9.885e-009     
  -0.33           -2.1216e-009    1.504e-008     
  -0.34           -1.7198e-009    1.4266e-008    
  -0.35           -1.6151e-009    1.3882e-008    
  -0.36           -2.6402e-009    1.079e-008     
  -0.37           -3.4328e-009    1.6236e-008    
  -0.38           -3.6595e-009    1.6721e-008    
  -0.39           -4.8721e-009    1.7235e-008    
  -0.4            -6.7635e-009    1.6146e-008    
  -0.41           -9.506e-009     1.7179e-008    
  -0.42           -9.696e-009     2.0343e-008    
  -0.43           -1.8746e-008    1.3457e-008    
  -0.44           -2.2742e-008    2.838e-008     
  -0.45           -3.901e-008     3.3061e-008    
  -0.46           -5.206e-008     5.8143e-008    
  -0.47           -8.3308e-008    7.7076e-008    
  -0.48           -1.1855e-007    1.1805e-007    
  -0.49           -1.6972e-007    1.7414e-007    
  -0.5            -2.6059e-007    2.5458e-007    
  -0.51           -3.743e-007     3.8399e-007    
  -0.52           -5.6577e-007    5.5044e-007    
  -0.53           -8.1681e-007    8.3472e-007    
  -0.54           -1.1929e-006    1.1956e-006    
  -0.55           -1.7876e-006    1.7887e-006    
  -0.56           -2.5906e-006    2.5978e-006    
  -0.57           -3.8699e-006    3.8685e-006    
  -0.58           -5.5981e-006    5.6043e-006    
  -0.59           -8.1108e-006    8.1148e-006    
  -0.6            -1.198e-005     1.2009e-005    
  -0.61           -1.7125e-005    1.7154e-005    
  -0.62           -2.4977e-005    2.4998e-005    
  -0.63           -3.504e-005     3.5105e-005    
  -0.64           -4.9939e-005    4.9921e-005    
  -0.65           -6.8041e-005    6.8105e-005    
  -0.66           -9.1205e-005    9.1303e-005    
  -0.67           -0.00012215     0.00012225     
  -0.68           -0.00015684     0.00015701     
  -0.69           -0.00020099     0.00020116     
  -0.7            -0.00024767     0.00024778     
  -0.71           -0.00029968     0.00029989     
  -0.72           -0.00036119     0.00036138     
  -0.73           -0.00042325     0.00042367     
  -0.74           -0.00049528     0.00049529     
  -0.75           -0.0005662      0.00056659     
  -0.76           -0.0006419      0.00064193     
  -0.77           -0.00072679     0.00072705     
  -0.78           -0.00081        0.00081033     
  -0.79           -0.00090419     0.00090465     
  -0.8            -0.00099547     0.00099644     
  -0.81           -0.00109042     0.00109138     
  -0.82           -0.0011964      0.0011975      
  -0.83           -0.0012987      0.001299       
  -0.84           -0.0014124      0.0014138      
  -0.85           -0.0015217      0.0015239      
  -0.86           -0.0016336      0.0016345      
  -0.87           -0.0017571      0.0017594      
  -0.88           -0.0018787      0.001881       
