! VERSION = 6.00
BEGIN_HEADER
 ICCAP_INPUTS
  VU1        V  E GROUND SMU1 0.1 CON        0
  VU2        V  S GROUND SMU4 0.1 CON        0
  VP         V  C GROUND SMU3 0.04 CON        0
  VN         V  B GROUND SMU2 0.04 LIN        1    3          -0.9       391  -0.01     
 ICCAP_OUTPUTS
  IP         I  C GROUND SMU3 B
  IN         I  B GROUND SMU2 B
END_HEADER

BEGIN_DB
 ICCAP_VAR VU1        0              
 ICCAP_VAR VU2        0              
 ICCAP_VAR VP         0              

 #VN              IP              IN             
  3               1.5898e-008     8.745e-010     
  2.99            -1.5135e-008    -1.0725e-009   
  2.98            -1.2574e-008    -1.9575e-009   
  2.97            -1.3601e-008    -1.3422e-009   
  2.96            -1.3791e-008    -1.4524e-009   
  2.95            -1.5845e-008    -1.0083e-009   
  2.94            -1.2619e-008    -1.8527e-009   
  2.93            -1.2692e-008    -2.0265e-009   
  2.92            -1.3782e-008    -1.3864e-009   
  2.91            -1.3673e-008    -1.4989e-009   
  2.9             -1.5481e-008    -1.0479e-009   
  2.89            -1.2556e-008    -1.9133e-009   
  2.88            -1.3687e-008    -1.3144e-009   
  2.87            -1.3745e-008    -1.4219e-009   
  2.86            -1.334e-008     -1.5431e-009   
  2.85            -1.5091e-008    -1.0841e-009   
  2.84            -1.2638e-008    -1.9842e-009   
  2.83            -1.361e-008     -1.3534e-009   
  2.82            -1.381e-008     -1.4622e-009   
  2.81            -1.3136e-008    -1.5927e-009   
  2.8             -1.272e-008     -1.747e-009    
  2.79            -1.2563e-008    -1.9203e-009   
  2.78            -1.3546e-008    -1.318e-009    
  2.77            -1.3728e-008    -1.4254e-009   
  2.76            -1.3371e-008    -1.5511e-009   
  2.75            -1.5067e-008    -1.0879e-009   
  2.74            -1.2617e-008    -1.9811e-009   
  2.73            -1.365e-008     -1.3518e-009   
  2.72            -1.3845e-008    -1.4657e-009   
  2.71            -1.5789e-008    -1.0181e-009   
  2.7             -1.2586e-008    -1.87e-009     
  2.69            -1.3712e-008    -1.2869e-009   
  2.68            -1.3582e-008    -1.3954e-009   
  2.67            -1.3676e-008    -1.5135e-009   
  2.66            -1.5318e-008    -1.0483e-009   
  2.65            -1.2567e-008    -1.9274e-009   
  2.64            -1.3561e-008    -1.3238e-009   
  2.63            -1.3818e-008    -1.4369e-009   
  2.62            -1.6074e-008    -9.903e-010    
  2.61            -1.2708e-008    -1.821e-009    
  2.6             -1.2627e-008    -1.9996e-009   
  2.59            -1.362e-008     -1.3623e-009   
  2.58            -1.3765e-008    -1.4809e-009   
  2.57            -1.5562e-008    -1.025e-009    
  2.56            -1.2607e-008    -1.888e-009    
  2.55            -1.3619e-008    -1.2955e-009   
  2.54            -1.5412e-008    -8.603e-010    
  2.53            -1.3103e-008    -1.6187e-009   
  2.52            -1.2743e-008    -1.7664e-009   
  2.51            -1.2528e-008    -1.9493e-009   
  2.5             -1.3525e-008    -1.3299e-009   
  2.49            -1.3803e-008    -1.4433e-009   
  2.48            -1.3434e-008    -1.5688e-009   
  2.47            -1.2816e-008    -1.7106e-009   
  2.46            -1.2645e-008    -1.8872e-009   
  2.45            -1.3525e-008    -1.3e-009      
  2.44            -1.3763e-008    -1.4062e-009   
  2.43            -1.365e-008     -1.5245e-009   
  2.42            -1.2885e-008    -1.6677e-009   
  2.41            -1.2668e-008    -1.8366e-009   
  2.4             -1.269e-008     -2.0042e-009   
  2.39            -1.3567e-008    -1.3693e-009   
  2.38            -1.3799e-008    -1.4904e-009   
  2.37            -1.5472e-008    -1.0364e-009   
  2.36            -1.2535e-008    -1.8956e-009   
  2.35            -1.3618e-008    -1.3023e-009   
  2.34            -1.374e-008     -1.4072e-009   
  2.33            -1.3554e-008    -1.5362e-009   
  2.32            -1.2896e-008    -1.678e-009    
  2.31            -1.264e-008     -1.8485e-009   
  2.3             -1.2704e-008    -2.0154e-009   
  2.29            -1.3617e-008    -1.3739e-009   
  2.28            -1.3795e-008    -1.4918e-009   
  2.27            -1.5383e-008    -1.0441e-009   
  2.26            -1.2597e-008    -1.9098e-009   
  2.25            -1.3583e-008    -1.3084e-009   
  2.24            -1.3802e-008    -1.4152e-009   
  2.23            -1.3553e-008    -1.5352e-009   
  2.22            -1.5203e-008    -1.0746e-009   
  2.21            -1.2629e-008    -1.9642e-009   
  2.2             -1.3562e-008    -1.3428e-009   
  2.19            -1.3774e-008    -1.457e-009    
  2.18            -1.3241e-008    -1.5852e-009   
  2.17            -1.2811e-008    -1.7421e-009   
  2.16            -1.2576e-008    -1.9141e-009   
  2.15            -1.3594e-008    -1.3099e-009   
  2.14            -1.3725e-008    -1.4233e-009   
  2.13            -1.3427e-008    -1.5424e-009   
  2.12            -1.2839e-008    -1.6937e-009   
  2.11            -1.261e-008     -1.8578e-009   
  2.1             -1.2675e-008    -2.0305e-009   
  2.09            -1.5164e-008    -8.443e-010    
  2.08            -1.3221e-008    -1.5906e-009   
  2.07            -1.2757e-008    -1.7486e-009   
  2.06            -1.2576e-008    -1.9224e-009   
  2.05            -1.3516e-008    -1.3151e-009   
  2.04            -1.3755e-008    -1.4301e-009   
  2.03            -1.6016e-008    -9.784e-010    
  2.02            -1.2674e-008    -1.8096e-009   
  2.01            -1.2608e-008    -1.9851e-009   
  2               -1.3566e-008    -1.3606e-009   
  1.99            -1.3808e-008    -1.4724e-009   
  1.98            -1.3169e-008    -1.5977e-009   
  1.97            -1.2714e-008    -1.7487e-009   
  1.96            -1.2599e-008    -1.929e-009    
  1.95            -1.3571e-008    -1.3233e-009   
  1.94            -1.3749e-008    -1.4272e-009   
  1.93            -1.3405e-008    -1.5551e-009   
  1.92            -1.2805e-008    -1.7007e-009   
  1.91            -1.2609e-008    -1.8818e-009   
  1.9             -1.2617e-008    -2.0414e-009   
  1.89            -1.5316e-008    -8.573e-010    
  1.88            -1.3102e-008    -1.6062e-009   
  1.87            -1.2758e-008    -1.7677e-009   
  1.86            -1.2556e-008    -1.9324e-009   
  1.85            -1.3505e-008    -1.3227e-009   
  1.84            -1.3723e-008    -1.4323e-009   
  1.83            -1.3326e-008    -1.5581e-009   
  1.82            -1.4979e-008    -1.0914e-009   
  1.81            -1.2669e-008    -1.9929e-009   
  1.8             -1.3642e-008    -1.3623e-009   
  1.79            -1.3778e-008    -1.4784e-009   
  1.78            -1.3043e-008    -1.6088e-009   
  1.77            -1.2697e-008    -1.7633e-009   
  1.76            -1.2582e-008    -1.943e-009    
  1.75            -1.3604e-008    -1.3307e-009   
  1.74            -1.3741e-008    -1.4382e-009   
  1.73            -1.6001e-008    -9.976e-010    
  1.72            -1.264e-008     -1.8308e-009   
  1.71            -1.256e-008     -2.0026e-009   
  1.7             -1.3664e-008    -1.366e-009    
  1.69            -1.3702e-008    -1.4787e-009   
  1.68            -1.5652e-008    -1.0308e-009   
  1.67            -1.252e-008     -1.891e-009    
  1.66            -1.362e-008     -1.2952e-009   
  1.65            -1.3655e-008    -1.4058e-009   
  1.64            -1.356e-008     -1.5211e-009   
  1.63            -1.2812e-008    -1.6685e-009   
  1.62            -1.2653e-008    -1.8323e-009   
  1.61            -1.2621e-008    -2.0085e-009   
  1.6             -1.3652e-008    -1.3672e-009   
  1.59            -1.3681e-008    -1.4866e-009   
  1.58            -1.5636e-008    -1.0355e-009   
  1.57            -1.2554e-008    -1.8916e-009   
  1.56            -1.3694e-008    -1.3078e-009   
  1.55            -1.3803e-008    -1.4067e-009   
  1.54            -1.3398e-008    -1.5355e-009   
  1.53            -1.5252e-008    -1.0746e-009   
  1.52            -1.257e-008     -1.9513e-009   
  1.51            -1.367e-008     -1.3395e-009   
  1.5             -1.3734e-008    -1.4439e-009   
  1.49            -1.3246e-008    -1.5737e-009   
  1.48            -1.2768e-008    -1.7281e-009   
  1.47            -1.2587e-008    -1.8985e-009   
  1.46            -1.3637e-008    -1.3044e-009   
  1.45            -1.3752e-008    -1.4092e-009   
  1.44            -1.3523e-008    -1.5287e-009   
  1.43            -1.2803e-008    -1.6712e-009   
  1.42            -1.265e-008     -1.8411e-009   
  1.41            -1.2733e-008    -2.0202e-009   
  1.4             -1.3595e-008    -1.3749e-009   
  1.39            -1.3705e-008    -1.4935e-009   
  1.38            -1.2996e-008    -1.6243e-009   
  1.37            -1.2668e-008    -1.7884e-009   
  1.36            -1.2556e-008    -1.9679e-009   
  1.35            -1.3648e-008    -1.3422e-009   
  1.34            -1.3771e-008    -1.4507e-009   
  1.33            -1.314e-008     -1.5807e-009   
  1.32            -1.276e-008     -1.7388e-009   
  1.31            -1.2554e-008    -1.9068e-009   
  1.3             -1.3648e-008    -1.3042e-009   
  1.29            -1.3686e-008    -1.4175e-009   
  1.28            -1.3416e-008    -1.5393e-009   
  1.27            -1.2833e-008    -1.6809e-009   
  1.26            -1.2626e-008    -1.8494e-009   
  1.25            -1.2709e-008    -2.0243e-009   
  1.24            -1.3652e-008    -1.3797e-009   
  1.23            -1.3678e-008    -1.4917e-009   
  1.22            -8.976e-009     -5.178e-010    
  1.21            -1.405e-008     -1.2146e-009   
  1.2             -1.3658e-008    -1.3113e-009   
  1.19            -1.3782e-008    -1.4191e-009   
  1.18            -1.3454e-008    -1.5354e-009   
  1.17            -1.5265e-008    -1.0772e-009   
  1.16            -1.2624e-008    -1.9673e-009   
  1.15            -1.3626e-008    -1.3471e-009   
  1.14            -1.3741e-008    -1.4545e-009   
  1.13            -1.5889e-008    -1.01e-009     
  1.12            -1.2586e-008    -1.8441e-009   
  1.11            -1.2691e-008    -2.0303e-009   
  1.1             -1.3624e-008    -1.379e-009    
  1.09            -1.362e-008     -1.4971e-009   
  1.08            -1.5539e-008    -1.0439e-009   
  1.07            -1.2543e-008    -1.9097e-009   
  1.06            -1.3698e-008    -1.309e-009    
  1.05            -1.3742e-008    -1.4178e-009   
  1.04            -1.3416e-008    -1.5457e-009   
  1.03            -1.5213e-008    -1.0737e-009   
  1.02            -1.2662e-008    -1.9695e-009   
  1.01            -1.3734e-008    -1.3455e-009   
  1               -1.374e-008     -1.4539e-009   
  0.99            -1.5827e-008    -1.0122e-009   
  0.98            -1.2562e-008    -1.8547e-009   
  0.97            -1.2646e-008    -2.0228e-009   
  0.96            -1.3656e-008    -1.3817e-009   
  0.95            -1.3647e-008    -1.4925e-009   
  0.94            -1.5533e-008    -1.0413e-009   
  0.93            -1.2594e-008    -1.9076e-009   
  0.92            -1.3698e-008    -1.308e-009    
  0.91            -1.5514e-008    -8.763e-010    
  0.9             -1.6174e-008    -9.731e-010    
  0.89            -1.272e-008     -1.7927e-009   
  0.88            -1.2633e-008    -1.962e-009    
  0.87            -1.365e-008     -1.3364e-009   
  0.86            -1.3793e-008    -1.4546e-009   
  0.85            -1.3225e-008    -1.5782e-009   
  0.84            -1.2784e-008    -1.7342e-009   
  0.83            -1.2601e-008    -1.9041e-009   
  0.82            -1.368e-008     -1.31e-009     
  0.81            -1.3797e-008    -1.4107e-009   
  0.8             -1.3503e-008    -1.5361e-009   
  0.79            -1.2849e-008    -1.6792e-009   
  0.78            -1.2611e-008    -1.85e-009     
  0.77            -1.2745e-008    -2.02e-009     
  0.76            -1.363e-008     -1.378e-009    
  0.75            -1.3669e-008    -1.4868e-009   
  0.74            -1.5559e-008    -1.0367e-009   
  0.73            -1.2555e-008    -1.9041e-009   
  0.72            -1.3615e-008    -1.303e-009    
  0.71            -1.3743e-008    -1.408e-009    
  0.7             -1.3455e-008    -1.5359e-009   
  0.69            -1.2821e-008    -1.6797e-009   
  0.68            -1.2612e-008    -1.8435e-009   
  0.67            -1.2628e-008    -2.0209e-009   
  0.66            -1.3662e-008    -1.3714e-009   
  0.65            -1.3584e-008    -1.4936e-009   
  0.64            -1.5495e-008    -1.041e-009    
  0.63            -1.2595e-008    -1.91e-009     
  0.62            -1.3687e-008    -1.3078e-009   
  0.61            -1.3729e-008    -1.4117e-009   
  0.6             -1.3501e-008    -1.5279e-009   
  0.59            -1.518e-008     -1.076e-009    
  0.58            -1.2623e-008    -1.9615e-009   
  0.57            -1.355e-008     -1.3363e-009   
  0.56            -1.3734e-008    -1.4481e-009   
  0.55            -1.3287e-008    -1.581e-009    
  0.54            -1.2788e-008    -1.7303e-009   
  0.53            -1.2563e-008    -1.8983e-009   
  0.52            -1.3539e-008    -1.3088e-009   
  0.51            -1.3722e-008    -1.4141e-009   
  0.5             -1.3447e-008    -1.5304e-009   
  0.49            -1.5205e-008    -1.0747e-009   
  0.48            -1.2504e-008    -1.9629e-009   
  0.47            -1.3605e-008    -1.3347e-009   
  0.46            -1.3749e-008    -1.453e-009    
  0.45            -1.5999e-008    -1.0057e-009   
  0.44            -1.2594e-008    -1.8492e-009   
  0.43            -1.2745e-008    -2.0125e-009   
  0.42            -1.3718e-008    -1.3756e-009   
  0.41            -1.3655e-008    -1.4873e-009   
  0.4             -1.5528e-008    -1.0386e-009   
  0.39            -1.2573e-008    -1.9017e-009   
  0.38            -1.3611e-008    -1.3034e-009   
  0.37            -1.5484e-008    -8.682e-010    
  0.36            -1.2992e-008    -1.6227e-009   
  0.35            -1.2681e-008    -1.7816e-009   
  0.34            -1.2582e-008    -1.9527e-009   
  0.33            -1.3478e-008    -1.3353e-009   
  0.32            -1.3786e-008    -1.4484e-009   
  0.31            -1.6017e-008    -9.991e-010    
  0.3             -1.266e-008     -1.8433e-009   
  0.29            -1.2751e-008    -2.0141e-009   
  0.28            -1.3619e-008    -1.3672e-009   
  0.27            -1.368e-008     -1.4815e-009   
  0.26            -1.3002e-008    -1.6202e-009   
  0.25            -1.2725e-008    -1.7846e-009   
  0.24            -1.2571e-008    -1.9539e-009   
  0.23            -1.3614e-008    -1.3346e-009   
  0.22            -1.379e-008     -1.4446e-009   
  0.21            -1.589e-008     -9.995e-010    
  0.2             -1.2616e-008    -1.8331e-009   
  0.19            -1.275e-008     -2.0115e-009   
  0.18            -1.3575e-008    -1.3696e-009   
  0.17            -1.3714e-008    -1.4811e-009   
  0.16            -1.2971e-008    -1.6122e-009   
  0.15            -1.2651e-008    -1.7729e-009   
  0.14            -1.2541e-008    -1.9488e-009   
  0.13            -1.3549e-008    -1.3259e-009   
  0.12            -1.3786e-008    -1.4426e-009   
  0.11            -1.3352e-008    -1.567e-009    
  0.1             -1.2799e-008    -1.7201e-009   
  0.09            -1.2617e-008    -1.8801e-009   
  0.08            -1.3575e-008    -1.2983e-009   
  0.07            -1.3728e-008    -1.4032e-009   
  0.06            -1.3542e-008    -1.5234e-009   
  0.05            -1.2897e-008    -1.6589e-009   
  0.04            -1.2577e-008    -1.8217e-009   
  0.03            -1.2696e-008    -1.999e-009    
  0.02            -1.3514e-008    -1.3635e-009   
  0.01            -1.3759e-008    -1.4738e-009   
  0               -1.5679e-008    -1.0219e-009   
  -0.01           -1.3696e-008    -1.3924e-009   
  -0.02           -1.359e-008     -1.5219e-009   
  -0.03           -1.2883e-008    -1.6571e-009   
  -0.04           -1.266e-008     -1.8222e-009   
  -0.05           -1.2563e-008    -1.9981e-009   
  -0.06           -1.3565e-008    -1.3608e-009   
  -0.07           -1.376e-008     -1.4719e-009   
  -0.08           -1.5671e-008    -1.0191e-009   
  -0.09           -1.2546e-008    -1.8756e-009   
  -0.1            -1.2731e-008    -2.0457e-009   
  -0.11           -1.3681e-008    -1.3924e-009   
  -0.12           -1.3594e-008    -1.5187e-009   
  -0.13           -1.5421e-008    -1.0567e-009   
  -0.14           -1.2595e-008    -1.9231e-009   
  -0.15           -1.3661e-008    -1.3235e-009   
  -0.16           -1.3786e-008    -1.4326e-009   
  -0.17           -1.3366e-008    -1.5527e-009   
  -0.18           -1.2837e-008    -1.7015e-009   
  -0.19           -1.2612e-008    -1.8728e-009   
  -0.2            -1.2708e-008    -2.0455e-009   
  -0.21           -1.3639e-008    -1.4007e-009   
  -0.22           -1.3662e-008    -1.5218e-009   
  -0.23           -1.5481e-008    -1.072e-009    
  -0.24           -1.2563e-008    -1.9505e-009   
  -0.25           -1.3548e-008    -1.3604e-009   
  -0.26           -1.3719e-008    -1.479e-009    
  -0.27           -1.3368e-008    -1.6255e-009   
  -0.28           -1.5074e-008    -1.2001e-009   
  -0.29           -1.2283e-008    -2.1439e-009   
  -0.3            -1.336e-008     -1.584e-009    
  -0.31           -1.3392e-008    -1.8087e-009   
  -0.32           -1.5401e-008    -1.5052e-009   
  -0.33           -1.4324e-008    -1.8232e-009   
  -0.34           -1.1746e-008    -3.0155e-009   
  -0.35           -1.3571e-008    -2.289e-009    
  -0.36           -1.4232e-008    -3.0497e-009   
  -0.37           -5.822e-009     -3.5231e-009   
  -0.38           1.5818e-008     -2.0045e-009   
  -0.39           1.7867e-008     -3.9504e-009   
  -0.4            1.9191e-008     -6.7881e-009   
  -0.41           1.985e-008      -1.3968e-008   
  -0.42           3.3048e-008     -1.8359e-008   
  -0.43           1.467e-008      -2.8991e-008   
  -0.44           5.4556e-008     -3.9986e-008   
  -0.45           4.5087e-008     -5.9287e-008   
  -0.46           1.00277e-007    -8.6561e-008   
  -0.47           1.2683e-007     -1.2574e-007   
  -0.48           1.7264e-007     -1.8784e-007   
  -0.49           2.8336e-007     -2.6992e-007   
  -0.5            3.7838e-007     -3.9163e-007   
  -0.51           5.9062e-007     -5.7809e-007   
  -0.52           8.3475e-007     -8.4422e-007   
  -0.53           1.2555e-006     -1.2476e-006   
  -0.54           1.7926e-006     -1.8052e-006   
  -0.55           2.6251e-006     -2.6096e-006   
  -0.56           3.872e-006      -3.886e-006    
  -0.57           5.6175e-006     -5.5996e-006   
  -0.58           8.3486e-006     -8.3554e-006   
  -0.59           1.2028e-005     -1.204e-005    
  -0.6            1.7298e-005     -1.7301e-005   
  -0.61           2.5366e-005     -2.5415e-005   
  -0.62           3.5965e-005     -3.5977e-005   
  -0.63           5.1979e-005     -5.1999e-005   
  -0.64           7.2353e-005     -7.2352e-005   
  -0.65           9.9098e-005     -9.9282e-005   
  -0.66           0.00013657      -0.00013644    
  -0.67           0.00018064      -0.00018064    
  -0.68           0.00023847      -0.0002384     
  -0.69           0.0003024       -0.00030198    
  -0.7            0.00037534      -0.00037539    
  -0.71           0.00046461      -0.00046464    
  -0.72           0.00055629      -0.00055623    
  -0.73           0.00066494      -0.00066459    
  -0.74           0.00077389      -0.00077389    
  -0.75           0.00089091      -0.00089109    
  -0.76           0.00102554      -0.00102511    
  -0.77           0.0011581       -0.0011573     
  -0.78           0.0013092       -0.0013085     
  -0.79           0.0014579       -0.0014568     
  -0.8            0.0016134       -0.0016123     
  -0.81           0.0017885       -0.0017879     
  -0.82           0.0019595       -0.0019586     
  -0.83           0.0021512       -0.00215       
  -0.84           0.0023372       -0.0023361     
  -0.85           0.0025299       -0.0025291     
  -0.86           0.0027464       -0.0027457     
  -0.87           0.0029547       -0.0029537     
  -0.88           0.0031854       -0.0031849     
