! VERSION = 6.00
BEGIN_HEADER
 ICCAP_INPUTS
  VU1        V  E GROUND SMU1 0.1 CON        0
  VU2        V  S GROUND SMU4 0.1 CON        0
  VP         V  C GROUND SMU3 0.04 CON        0
  VN         V  B GROUND SMU2 0.04 LIN        1    3          -0.9       391  -0.01     
 ICCAP_OUTPUTS
  IP         I  C GROUND SMU3 B
  IN         I  B GROUND SMU2 B
END_HEADER

BEGIN_DB
 ICCAP_VAR VU1        0              
 ICCAP_VAR VU2        0              
 ICCAP_VAR VP         0              

 #VN              IP              IN             
  3               1.3278e-008     -4.995e-010    
  2.99            -1.402e-008     -1.2009e-009   
  2.98            -1.3769e-008    -1.3018e-009   
  2.97            -1.5108e-008    -8.654e-010    
  2.96            -1.5722e-008    -9.721e-010    
  2.95            -1.2747e-008    -1.7981e-009   
  2.94            -1.2636e-008    -1.9772e-009   
  2.93            -1.384e-008     -1.3558e-009   
  2.92            -1.3922e-008    -1.4761e-009   
  2.91            -1.5151e-008    -1.0275e-009   
  2.9             -1.2615e-008    -1.8833e-009   
  2.89            -1.3807e-008    -1.3033e-009   
  2.88            -1.384e-008     -1.4123e-009   
  2.87            -1.3575e-008    -1.5387e-009   
  2.86            -1.292e-008     -1.6825e-009   
  2.85            -1.2615e-008    -1.8661e-009   
  2.84            -1.3802e-008    -1.2913e-009   
  2.83            -1.3859e-008    -1.3976e-009   
  2.82            -1.3542e-008    -1.5114e-009   
  2.81            -1.303e-008     -1.662e-009    
  2.8             -1.2597e-008    -1.8325e-009   
  2.79            -1.2709e-008    -2.0178e-009   
  2.78            -1.3878e-008    -1.382e-009    
  2.77            -1.3818e-008    -1.5019e-009   
  2.76            -1.4941e-008    -1.0477e-009   
  2.75            -1.2504e-008    -1.9308e-009   
  2.74            -1.3775e-008    -1.3222e-009   
  2.73            -1.3804e-008    -1.4369e-009   
  2.72            -1.3438e-008    -1.5678e-009   
  2.71            -1.2804e-008    -1.7213e-009   
  2.7             -1.2489e-008    -1.9071e-009   
  2.69            -1.3753e-008    -1.3153e-009   
  2.68            -1.3902e-008    -1.4189e-009   
  2.67            -1.3421e-008    -1.5475e-009   
  2.66            -1.291e-008     -1.6962e-009   
  2.65            -1.2601e-008    -1.876e-009    
  2.64            -1.3597e-008    -1.3e-009      
  2.63            -1.3931e-008    -1.4058e-009   
  2.62            -1.3621e-008    -1.5238e-009   
  2.61            -1.2909e-008    -1.6818e-009   
  2.6             -1.2644e-008    -1.8443e-009   
  2.59            -1.2617e-008    -2.0215e-009   
  2.58            -1.37e-008      -1.3892e-009   
  2.57            -1.3786e-008    -1.5101e-009   
  2.56            -1.2986e-008    -1.6505e-009   
  2.55            -1.2644e-008    -1.8295e-009   
  2.54            -1.2634e-008    -2.0103e-009   
  2.53            -1.3742e-008    -1.375e-009    
  2.52            -1.369e-008     -1.4973e-009   
  2.51            -1.4988e-008    -1.0484e-009   
  2.5             -1.2503e-008    -1.9154e-009   
  2.49            -1.3683e-008    -1.326e-009    
  2.48            -1.396e-008     -1.4322e-009   
  2.47            -1.5465e-008    -1.0022e-009   
  2.46            -1.2628e-008    -1.8323e-009   
  2.45            -1.2637e-008    -2.0104e-009   
  2.44            -1.3808e-008    -1.3775e-009   
  2.43            -1.3839e-008    -1.5007e-009   
  2.42            -1.4974e-008    -1.0542e-009   
  2.41            -1.2558e-008    -1.9248e-009   
  2.4             -1.3803e-008    -1.326e-009    
  2.39            -1.3963e-008    -1.434e-009    
  2.38            -1.5437e-008    -9.994e-010    
  2.37            -1.2605e-008    -1.8389e-009   
  2.36            -1.2605e-008    -2.0183e-009   
  2.35            -1.3769e-008    -1.3799e-009   
  2.34            -1.3771e-008    -1.5068e-009   
  2.33            -1.4975e-008    -1.055e-009    
  2.32            -1.2533e-008    -1.9308e-009   
  2.31            -1.371e-008     -1.3336e-009   
  2.3             -1.5579e-008    -8.975e-010    
  2.29            -1.5432e-008    -1.0074e-009   
  2.28            -1.2644e-008    -1.8436e-009   
  2.27            -1.2656e-008    -2.0272e-009   
  2.26            -1.3755e-008    -1.3878e-009   
  2.25            -1.3795e-008    -1.5141e-009   
  2.24            -1.4896e-008    -1.0615e-009   
  2.23            -1.2555e-008    -1.9464e-009   
  2.22            -1.375e-008     -1.3386e-009   
  2.21            -1.3956e-008    -1.4538e-009   
  2.2             -1.3172e-008    -1.5803e-009   
  2.19            -1.2694e-008    -1.7457e-009   
  2.18            -1.2555e-008    -1.9284e-009   
  2.17            -1.3699e-008    -1.3302e-009   
  2.16            -1.397e-008     -1.4359e-009   
  2.15            -1.5405e-008    -1.0008e-009   
  2.14            -1.2622e-008    -1.8365e-009   
  2.13            -1.2583e-008    -2.0233e-009   
  2.12            -1.3809e-008    -1.3831e-009   
  2.11            -1.38e-008      -1.5082e-009   
  2.1             -1.4934e-008    -1.0584e-009   
  2.09            -1.2498e-008    -1.939e-009    
  2.08            -1.3781e-008    -1.3325e-009   
  2.07            -1.3917e-008    -1.4456e-009   
  2.06            -1.5337e-008    -1.0041e-009   
  2.05            -1.2627e-008    -1.8547e-009   
  2.04            -1.2709e-008    -2.0308e-009   
  2.03            -1.3912e-008    -1.3955e-009   
  2.02            -1.3695e-008    -1.5113e-009   
  2.01            -1.4877e-008    -1.0626e-009   
  2               -1.2543e-008    -1.9456e-009   
  1.99            -1.3699e-008    -1.3412e-009   
  1.98            -1.391e-008     -1.4544e-009   
  1.97            -1.3139e-008    -1.5825e-009   
  1.96            -1.2695e-008    -1.7442e-009   
  1.95            -1.2499e-008    -1.9338e-009   
  1.94            -1.3751e-008    -1.3319e-009   
  1.93            -1.3927e-008    -1.4433e-009   
  1.92            -1.3299e-008    -1.5642e-009   
  1.91            -1.2751e-008    -1.7302e-009   
  1.9             -1.248e-008     -1.9057e-009   
  1.89            -1.3782e-008    -1.3186e-009   
  1.88            -1.3886e-008    -1.4256e-009   
  1.87            -1.3442e-008    -1.5519e-009   
  1.86            -1.2794e-008    -1.7089e-009   
  1.85            -1.255e-008     -1.8851e-009   
  1.84            -1.3752e-008    -1.3001e-009   
  1.83            -1.3862e-008    -1.4181e-009   
  1.82            -1.345e-008     -1.5355e-009   
  1.81            -1.2831e-008    -1.6872e-009   
  1.8             -1.2542e-008    -1.8657e-009   
  1.79            -1.2712e-008    -2.0469e-009   
  1.78            -1.5025e-008    -8.604e-010    
  1.77            -1.3057e-008    -1.6184e-009   
  1.76            -1.2664e-008    -1.7826e-009   
  1.75            -1.2586e-008    -1.961e-009    
  1.74            -1.3724e-008    -1.3496e-009   
  1.73            -1.3931e-008    -1.4594e-009   
  1.72            -1.5176e-008    -1.0238e-009   
  1.71            -1.256e-008     -1.8742e-009   
  1.7             -1.3711e-008    -1.2989e-009   
  1.69            -1.5139e-008    -8.685e-010    
  1.68            -1.5767e-008    -9.721e-010    
  1.67            -1.4726e-008    -1.0765e-009   
  1.66            -1.2572e-008    -1.9679e-009   
  1.65            -1.3824e-008    -1.3517e-009   
  1.64            -1.3922e-008    -1.4705e-009   
  1.63            -1.3102e-008    -1.6058e-009   
  1.62            -1.2731e-008    -1.7655e-009   
  1.61            -1.2495e-008    -1.949e-009    
  1.6             -1.381e-008     -1.3428e-009   
  1.59            -1.3879e-008    -1.4523e-009   
  1.58            -1.5283e-008    -1.012e-009    
  1.57            -1.2575e-008    -1.8601e-009   
  1.56            -1.2644e-008    -2.0366e-009   
  1.55            -1.3899e-008    -1.3996e-009   
  1.54            -1.3657e-008    -1.5223e-009   
  1.53            -1.291e-008     -1.6679e-009   
  1.52            -1.2554e-008    -1.8401e-009   
  1.51            -1.2643e-008    -2.0248e-009   
  1.5             -1.3818e-008    -1.3885e-009   
  1.49            -1.375e-008     -1.4998e-009   
  1.48            -1.2948e-008    -1.6533e-009   
  1.47            -1.2528e-008    -1.8158e-009   
  1.46            -1.2581e-008    -2.0004e-009   
  1.45            -1.3815e-008    -1.3763e-009   
  1.44            -1.3894e-008    -1.4889e-009   
  1.43            -1.2947e-008    -1.6299e-009   
  1.42            -1.2687e-008    -1.8038e-009   
  1.41            -1.256e-008     -1.9856e-009   
  1.4             -1.3794e-008    -1.3637e-009   
  1.39            -1.3943e-008    -1.4777e-009   
  1.38            -1.5138e-008    -1.0345e-009   
  1.37            -1.2546e-008    -1.8968e-009   
  1.36            -1.3668e-008    -1.306e-009    
  1.35            -1.5294e-008    -8.705e-010    
  1.34            -1.5709e-008    -9.832e-010    
  1.33            -1.2636e-008    -1.8084e-009   
  1.32            -1.2637e-008    -1.9941e-009   
  1.31            -1.3719e-008    -1.3648e-009   
  1.3             -1.3882e-008    -1.4753e-009   
  1.29            -1.5113e-008    -1.0379e-009   
  1.28            -1.2546e-008    -1.9017e-009   
  1.27            -1.3737e-008    -1.3162e-009   
  1.26            -1.3874e-008    -1.4209e-009   
  1.25            -1.3394e-008    -1.548e-009    
  1.24            -1.2833e-008    -1.707e-009    
  1.23            -1.2595e-008    -1.8816e-009   
  1.22            -1.3722e-008    -1.2997e-009   
  1.21            -1.3887e-008    -1.4096e-009   
  1.2             -1.3501e-008    -1.5367e-009   
  1.19            -1.4664e-008    -1.082e-009    
  1.18            -1.2532e-008    -1.9836e-009   
  1.17            -1.379e-008     -1.3576e-009   
  1.16            -1.3885e-008    -1.4819e-009   
  1.15            -1.5149e-008    -1.0325e-009   
  1.14            -1.2522e-008    -1.8923e-009   
  1.13            -1.3729e-008    -1.3076e-009   
  1.12            -1.3856e-008    -1.4211e-009   
  1.11            -1.3506e-008    -1.5431e-009   
  1.1             -1.4693e-008    -1.0904e-009   
  1.09            -1.2543e-008    -1.993e-009    
  1.08            -1.3798e-008    -1.3679e-009   
  1.07            -1.3826e-008    -1.486e-009    
  1.06            -1.5089e-008    -1.0392e-009   
  1.05            -1.2492e-008    -1.9011e-009   
  1.04            -1.3721e-008    -1.314e-009    
  1.03            -1.3809e-008    -1.4292e-009   
  1.02            -1.3471e-008    -1.5501e-009   
  1.01            -1.2917e-008    -1.7111e-009   
  1               -1.2588e-008    -1.8899e-009   
  0.99            -1.3659e-008    -1.3016e-009   
  0.98            -1.3859e-008    -1.4194e-009   
  0.97            -1.3504e-008    -1.5443e-009   
  0.96            -1.4757e-008    -1.084e-009    
  0.95            -1.2636e-008    -1.9854e-009   
  0.94            -1.3878e-008    -1.3616e-009   
  0.93            -1.3774e-008    -1.4791e-009   
  0.92            -1.5077e-008    -1.0395e-009   
  0.91            -1.2497e-008    -1.9007e-009   
  0.9             -1.3768e-008    -1.3118e-009   
  0.89            -1.3845e-008    -1.4254e-009   
  0.88            -1.3408e-008    -1.5538e-009   
  0.87            -1.4622e-008    -1.1004e-009   
  0.86            -1.2599e-008    -1.9993e-009   
  0.85            -1.4846e-008    -8.321e-010    
  0.84            -1.3307e-008    -1.5764e-009   
  0.83            -1.2827e-008    -1.7386e-009   
  0.82            -1.2482e-008    -1.9186e-009   
  0.81            -1.3793e-008    -1.3244e-009   
  0.8             -1.3977e-008    -1.4365e-009   
  0.79            -1.3367e-008    -1.5593e-009   
  0.78            -1.284e-008     -1.7183e-009   
  0.77            -1.2461e-008    -1.8998e-009   
  0.76            -1.3752e-008    -1.3121e-009   
  0.75            -1.3887e-008    -1.4202e-009   
  0.74            -1.3454e-008    -1.5506e-009   
  0.73            -1.474e-008     -1.0928e-009   
  0.72            -1.2546e-008    -1.9964e-009   
  0.71            -1.3757e-008    -1.3715e-009   
  0.7             -1.3804e-008    -1.4873e-009   
  0.69            -1.3123e-008    -1.6255e-009   
  0.68            -1.2633e-008    -1.8004e-009   
  0.67            -1.2623e-008    -1.9833e-009   
  0.66            -1.3788e-008    -1.3592e-009   
  0.65            -1.3889e-008    -1.4763e-009   
  0.64            -1.3133e-008    -1.6145e-009   
  0.63            -1.2668e-008    -1.7818e-009   
  0.62            -1.2551e-008    -1.9699e-009   
  0.61            -1.3759e-008    -1.3501e-009   
  0.6             -1.3923e-008    -1.4612e-009   
  0.59            -1.3256e-008    -1.5969e-009   
  0.58            -1.2758e-008    -1.7635e-009   
  0.57            -1.2528e-008    -1.9471e-009   
  0.56            -1.3778e-008    -1.3357e-009   
  0.55            -1.3999e-008    -1.4476e-009   
  0.54            -1.3245e-008    -1.5827e-009   
  0.53            -1.2779e-008    -1.7409e-009   
  0.52            -1.2475e-008    -1.927e-009    
  0.51            -1.3699e-008    -1.328e-009    
  0.5             -1.3969e-008    -1.4405e-009   
  0.49            -1.5463e-008    -9.983e-010    
  0.48            -1.2621e-008    -1.8407e-009   
  0.47            -1.2537e-008    -2.0178e-009   
  0.46            -1.379e-008     -1.3875e-009   
  0.45            -1.3749e-008    -1.5047e-009   
  0.44            -1.4875e-008    -1.0658e-009   
  0.43            -1.2477e-008    -1.9323e-009   
  0.42            -1.3752e-008    -1.3378e-009   
  0.41            -1.3977e-008    -1.4459e-009   
  0.4             -1.5424e-008    -1.0119e-009   
  0.39            -1.2621e-008    -1.8499e-009   
  0.38            -1.2684e-008    -2.0299e-009   
  0.37            -1.3844e-008    -1.3916e-009   
  0.36            -1.3759e-008    -1.5168e-009   
  0.35            -1.492e-008     -1.0627e-009   
  0.34            -1.2537e-008    -1.9538e-009   
  0.33            -1.3736e-008    -1.3363e-009   
  0.32            -1.3882e-008    -1.4502e-009   
  0.31            -1.3221e-008    -1.5901e-009   
  0.3             -1.283e-008     -1.7479e-009   
  0.29            -1.259e-008     -1.9268e-009   
  0.28            -1.3673e-008    -1.3263e-009   
  0.27            -1.3852e-008    -1.4329e-009   
  0.26            -1.5661e-008    -9.951e-010    
  0.25            -1.2578e-008    -1.8375e-009   
  0.24            -1.2701e-008    -2.0157e-009   
  0.23            -1.3621e-008    -1.3816e-009   
  0.22            -1.3643e-008    -1.508e-009    
  0.21            -1.5204e-008    -1.0512e-009   
  0.2             -1.2565e-008    -1.9297e-009   
  0.19            -1.3562e-008    -1.3279e-009   
  0.18            -1.3693e-008    -1.4419e-009   
  0.17            -1.3145e-008    -1.5711e-009   
  0.16            -1.2744e-008    -1.7293e-009   
  0.15            -1.2522e-008    -1.9062e-009   
  0.14            -1.369e-008     -1.3158e-009   
  0.13            -1.366e-008     -1.4227e-009   
  0.12            -1.333e-008     -1.5538e-009   
  0.11            -1.2741e-008    -1.7085e-009   
  0.1             -1.251e-008     -1.8841e-009   
  0.09            -1.3717e-008    -1.2958e-009   
  0.08            -1.5119e-008    -8.715e-010    
  0.07            -1.2879e-008    -1.6279e-009   
  0.06            -1.2567e-008    -1.8007e-009   
  0.05            -1.259e-008     -1.98e-009     
  0.04            -1.3669e-008    -1.3595e-009   
  0.03            -1.3703e-008    -1.4755e-009   
  0.02            -1.5546e-008    -1.0299e-009   
  0.01            -1.2555e-008    -1.8914e-009   
  0               -1.3714e-008    -1.3022e-009   
  -0.01           -1.2592e-008    -1.7937e-009   
  -0.02           -1.2612e-008    -1.9743e-009   
  -0.03           -1.3727e-008    -1.3496e-009   
  -0.04           -1.3721e-008    -1.471e-009    
  -0.05           -1.5618e-008    -1.0279e-009   
  -0.06           -1.2553e-008    -1.8827e-009   
  -0.07           -1.3687e-008    -1.2999e-009   
  -0.08           -1.3817e-008    -1.4129e-009   
  -0.09           -1.3362e-008    -1.5391e-009   
  -0.1            -1.5226e-008    -1.0779e-009   
  -0.11           -1.2529e-008    -1.9805e-009   
  -0.12           -1.3688e-008    -1.3598e-009   
  -0.13           -1.3657e-008    -1.477e-009    
  -0.14           -1.2937e-008    -1.6156e-009   
  -0.15           -1.2614e-008    -1.7794e-009   
  -0.16           -1.2471e-008    -1.9586e-009   
  -0.17           -1.3757e-008    -1.3458e-009   
  -0.18           -1.3768e-008    -1.4617e-009   
  -0.19           -1.3015e-008    -1.596e-009    
  -0.2            -1.265e-008     -1.7636e-009   
  -0.21           -1.2514e-008    -1.9415e-009   
  -0.22           -1.3693e-008    -1.3334e-009   
  -0.23           -1.3742e-008    -1.4541e-009   
  -0.24           -1.3085e-008    -1.5955e-009   
  -0.25           -1.2661e-008    -1.7502e-009   
  -0.26           -1.2446e-008    -1.9351e-009   
  -0.27           -1.3641e-008    -1.3489e-009   
  -0.28           -1.3741e-008    -1.4744e-009   
  -0.29           -1.3124e-008    -1.6294e-009   
  -0.3            -1.2607e-008    -1.8112e-009   
  -0.31           -1.2391e-008    -2.0396e-009   
  -0.32           -1.3513e-008    -1.5138e-009   
  -0.33           -1.3431e-008    -1.73e-009     
  -0.34           -1.2914e-008    -1.9941e-009   
  -0.35           -1.4504e-008    -1.7479e-009   
  -0.36           -1.1567e-008    -2.9646e-009   
  -0.37           -1.2251e-008    -2.8059e-009   
  -0.38           -1.1631e-008    -3.6398e-009   
  -0.39           -5.633e-009     -3.682e-009    
  -0.4            1.5963e-008     -2.2096e-009   
  -0.41           1.8488e-008     -4.5629e-009   
  -0.42           1.4008e-008     -1.1895e-008   
  -0.43           1.3208e-008     -1.3159e-008   
  -0.44           2.3986e-008     -2.3223e-008   
  -0.45           2.9227e-008     -3.0643e-008   
  -0.46           5.0951e-008     -4.8899e-008   
  -0.47           6.6156e-008     -6.8625e-008   
  -0.48           1.0354e-007     -1.0218e-007   
  -0.49           1.526e-007      -1.5314e-007   
  -0.5            2.0859e-007     -2.2378e-007   
  -0.51           3.4689e-007     -3.3412e-007   
  -0.52           4.7606e-007     -4.8892e-007   
  -0.53           7.3916e-007     -7.284e-007    
  -0.54           1.0592e-006     -1.0646e-006   
  -0.55           1.5643e-006     -1.5478e-006   
  -0.56           2.3349e-006     -2.3279e-006   
  -0.57           3.3842e-006     -3.3819e-006   
  -0.58           5.0964e-006     -5.0841e-006   
  -0.59           7.3842e-006     -7.3899e-006   
  -0.6            1.07146e-005    -1.07195e-005  
  -0.61           1.5946e-005     -1.591e-005    
  -0.62           2.2878e-005     -2.285e-005    
  -0.63           3.3661e-005     -3.3657e-005   
  -0.64           4.781e-005      -4.7809e-005   
  -0.65           6.7239e-005     -6.7239e-005   
  -0.66           9.5518e-005     -9.5676e-005   
  -0.67           0.00013037      -0.00013024    
  -0.68           0.00017845      -0.00017829    
  -0.69           0.00023382      -0.00023371    
  -0.7            0.0003002       -0.00030017    
  -0.71           0.00038355      -0.00038354    
  -0.72           0.0004716       -0.00047176    
  -0.73           0.00057858      -0.0005781     
  -0.74           0.00068794      -0.00068776    
  -0.75           0.00080696      -0.00080682    
  -0.76           0.00094521      -0.00094535    
  -0.77           0.00108333      -0.00108336    
  -0.78           0.0012438       -0.0012432     
  -0.79           0.0014022       -0.0014016     
  -0.8            0.0015701       -0.0015693     
  -0.81           0.0017616       -0.0017606     
  -0.82           0.0019499       -0.0019484     
  -0.83           0.0021635       -0.0021624     
  -0.84           0.0023725       -0.0023723     
  -0.85           0.0025922       -0.0025915     
  -0.86           0.0028397       -0.002839      
  -0.87           0.0030804       -0.0030798     
  -0.88           0.0033502       -0.0033498     
