! VERSION = 6.00
BEGIN_HEADER
 ICCAP_INPUTS
  VU1        V  E GROUND SMU1 0.1 CON        0
  VU2        V  S GROUND SMU4 0.1 CON        0
  VN         V  B GROUND SMU2 0.015 CON        0
  VP         V  C GROUND SMU3 0.015 LIN        1    3          -1         401  -0.01     
 ICCAP_OUTPUTS
  IP         I  C GROUND SMU3 B
  IN         I  B GROUND SMU2 B
END_HEADER

BEGIN_DB
 ICCAP_VAR VU1        0              
 ICCAP_VAR VU2        0              
 ICCAP_VAR VN         0              

 #VP              IP              IN             
  3               6.527e-010      4.042e-009     
  2.99            1.7531e-009     3.694e-009     
  2.98            1.7858e-009     3.597e-009     
  2.97            1.8169e-009     3.531e-009     
  2.96            1.8487e-009     3.665e-009     
  2.95            1.8811e-009     3.67e-009      
  2.94            1.9099e-009     3.686e-009     
  2.93            1.9403e-009     -1.0334e-008   
  2.92            2.115e-009      -1.4729e-008   
  2.91            1.4454e-009     -1.4657e-008   
  2.9             1.536e-009      -1.3992e-008   
  2.89            1.1584e-009     -1.306e-008    
  2.88            1.8701e-009     -1.3946e-008   
  2.87            1.373e-009      -1.4781e-008   
  2.86            1.4611e-009     -1.5067e-008   
  2.85            1.0837e-009     -1.3739e-008   
  2.84            1.166e-009      -1.3011e-008   
  2.83            1.8853e-009     -1.385e-008    
  2.82            1.3883e-009     -1.4916e-008   
  2.81            1.4721e-009     -1.4984e-008   
  2.8             1.0889e-009     -1.3733e-008   
  2.79            1.1721e-009     -1.3126e-008   
  2.78            1.8927e-009     -1.3915e-008   
  2.77            1.3958e-009     -1.4859e-008   
  2.76            1.4862e-009     -1.4916e-008   
  2.75            1.1008e-009     -1.3494e-008   
  2.74            1.7837e-009     -1.3114e-008   
  2.73            1.9178e-009     -1.4131e-008   
  2.72            1.411e-009      -1.4904e-008   
  2.71            1.4949e-009     -1.4554e-008   
  2.7             1.1133e-009     -1.3422e-008   
  2.69            1.2004e-009     -1.3001e-008   
  2.68            1.9308e-009     -1.4399e-008   
  2.67            1.4218e-009     -1.4882e-008   
  2.66            1.5078e-009     -1.4339e-008   
  2.65            1.1271e-009     -1.3172e-008   
  2.64            1.8211e-009     -1.3042e-008   
  2.63            1.9463e-009     -1.4601e-008   
  2.62            1.4273e-009     -1.4882e-008   
  2.61            1.5199e-009     -1.4186e-008   
  2.6             1.1363e-009     -1.3218e-008   
  2.59            1.8416e-009     -1.3645e-008   
  2.58            1.3575e-009     -1.4681e-008   
  2.57            1.4418e-009     -1.5688e-008   
  2.56            1.0649e-009     -1.4198e-008   
  2.55            1.1482e-009     -1.3137e-008   
  2.54            1.8562e-009     -1.3664e-008   
  2.53            1.3692e-009     -1.4778e-008   
  2.52            1.4551e-009     -1.5326e-008   
  2.51            1.0752e-009     -1.4075e-008   
  2.5             1.1604e-009     -1.3111e-008   
  2.49            1.878e-009      -1.3786e-008   
  2.48            1.3785e-009     -1.4723e-008   
  2.47            1.4651e-009     -1.524e-008    
  2.46            1.0885e-009     -1.4011e-008   
  2.45            1.1639e-009     -1.3175e-008   
  2.44            1.8883e-009     -1.3804e-008   
  2.43            1.3923e-009     -1.473e-008    
  2.42            1.4736e-009     -1.5178e-008   
  2.41            1.0954e-009     -1.4051e-008   
  2.4             1.1827e-009     -1.3193e-008   
  2.39            1.9059e-009     -1.4012e-008   
  2.38            1.4022e-009     -1.4686e-008   
  2.37            1.4913e-009     -1.5043e-008   
  2.36            1.1026e-009     -1.3517e-008   
  2.35            1.7967e-009     -1.3206e-008   
  2.34            1.9245e-009     -1.4176e-008   
  2.33            1.4092e-009     -1.4599e-008   
  2.32            1.5014e-009     -1.485e-008    
  2.31            1.1164e-009     -1.3366e-008   
  2.3             1.8125e-009     -9.809e-009    
  2.29            2.0959e-009     -1.6039e-008   
  2.28            1.0236e-009     -1.4999e-008   
  2.27            1.1075e-009     -1.3542e-008   
  2.26            1.7905e-009     -9.949e-009    
  2.25            2.109e-009      -1.4567e-008   
  2.24            1.4659e-009     -1.5284e-008   
  2.23            1.0917e-009     -1.414e-008    
  2.22            1.1722e-009     -1.317e-008    
  2.21            1.9022e-009     -1.3931e-008   
  2.2             1.3923e-009     -1.4573e-008   
  2.19            1.4778e-009     -1.5009e-008   
  2.18            1.1022e-009     -1.4095e-008   
  2.17            1.1853e-009     -1.314e-008    
  2.16            1.9148e-009     -1.417e-008    
  2.15            1.4071e-009     -1.4566e-008   
  2.14            1.4959e-009     -1.4949e-008   
  2.13            1.1161e-009     -1.3319e-008   
  2.12            1.8121e-009     -1.3027e-008   
  2.11            1.9381e-009     -1.4245e-008   
  2.1             1.4203e-009     -1.4673e-008   
  2.09            1.511e-009      -1.4326e-008   
  2.08            1.621e-009      -1.3875e-008   
  2.07            1.7395e-009     -1.3145e-008   
  2.06            1.8709e-009     -1.3734e-008   
  2.05            1.3757e-009     -1.4626e-008   
  2.04            1.4636e-009     -1.5453e-008   
  2.03            1.0855e-009     -1.4054e-008   
  2.02            1.1629e-009     -1.3175e-008   
  2.01            1.8921e-009     -1.388e-008    
  2               1.3887e-009     -1.4745e-008   
  1.99            1.4727e-009     -1.4934e-008   
  1.98            1.0922e-009     -1.3471e-008   
  1.97            1.7801e-009     -1.3074e-008   
  1.96            1.9128e-009     -1.4118e-008   
  1.95            1.3994e-009     -1.4798e-008   
  1.94            1.4909e-009     -1.4597e-008   
  1.93            1.1057e-009     -1.3269e-008   
  1.92            1.7968e-009     -1.2946e-008   
  1.91            1.9279e-009     -1.4409e-008   
  1.9             1.4115e-009     -1.4766e-008   
  1.89            1.5003e-009     -1.427e-008    
  1.88            1.122e-009      -1.316e-008    
  1.87            1.8157e-009     -1.3056e-008   
  1.86            1.9412e-009     -1.4653e-008   
  1.85            1.4234e-009     -1.4846e-008   
  1.84            1.5093e-009     -1.4194e-008   
  1.83            1.1308e-009     -1.3094e-008   
  1.82            1.8364e-009     -1.3702e-008   
  1.81            1.3515e-009     -1.5652e-008   
  1.8             9.738e-010      -1.5335e-008   
  1.79            1.0608e-009     -1.393e-008    
  1.78            1.1421e-009     -1.304e-008    
  1.77            1.8531e-009     -1.3768e-008   
  1.76            1.3619e-009     -1.4808e-008   
  1.75            1.4446e-009     -1.5185e-008   
  1.74            1.0654e-009     -1.3861e-008   
  1.73            1.1525e-009     -1.306e-008    
  1.72            1.8631e-009     -1.3915e-008   
  1.71            1.3694e-009     -1.4854e-008   
  1.7             1.4554e-009     -1.4561e-008   
  1.69            1.5544e-009     -1.3789e-008   
  1.68            1.1631e-009     -1.3061e-008   
  1.67            1.8837e-009     -1.4043e-008   
  1.66            1.3826e-009     -1.4822e-008   
  1.65            1.4664e-009     -1.4751e-008   
  1.64            1.0884e-009     -1.3685e-008   
  1.63            1.1727e-009     -1.3024e-008   
  1.62            1.8944e-009     -1.4254e-008   
  1.61            1.3883e-009     -1.4835e-008   
  1.6             1.4776e-009     -1.4688e-008   
  1.59            1.1035e-009     -1.3302e-008   
  1.58            1.7843e-009     -1.2953e-008   
  1.57            1.9156e-009     -1.4284e-008   
  1.56            1.4051e-009     -1.48e-008     
  1.55            1.4926e-009     -1.4386e-008   
  1.54            1.1084e-009     -1.317e-008    
  1.53            1.799e-009      -1.2872e-008   
  1.52            1.9314e-009     -1.4485e-008   
  1.51            1.4104e-009     -1.4857e-008   
  1.5             1.501e-009      -1.4172e-008   
  1.49            1.1196e-009     -1.3156e-008   
  1.48            1.8185e-009     -1.3606e-008   
  1.47            1.3411e-009     -1.4544e-008   
  1.46            1.4224e-009     -1.555e-008    
  1.45            1.0475e-009     -1.4107e-008   
  1.44            1.1319e-009     -1.3075e-008   
  1.43            1.8374e-009     -1.373e-008    
  1.42            1.3492e-009     -1.468e-008    
  1.41            1.4299e-009     -1.5334e-008   
  1.4             1.0593e-009     -1.3743e-008   
  1.39            1.7156e-009     -1.3e-008      
  1.38            1.8512e-009     -1.3749e-008   
  1.37            1.3567e-009     -1.5789e-008   
  1.36            9.857e-010      -1.5208e-008   
  1.35            1.0648e-009     -1.4004e-008   
  1.34            1.1483e-009     -1.3072e-008   
  1.33            1.865e-009      -1.3914e-008   
  1.32            1.3693e-009     -1.4817e-008   
  1.31            1.4509e-009     -1.4551e-008   
  1.3             1.5501e-009     -1.3901e-008   
  1.29            1.161e-009      -1.3006e-008   
  1.28            1.8819e-009     -1.3849e-008   
  1.27            1.3771e-009     -1.4828e-008   
  1.26            1.4605e-009     -1.4819e-008   
  1.25            1.084e-009      -1.3761e-008   
  1.24            1.168e-009      -1.3089e-008   
  1.23            1.8893e-009     -1.4205e-008   
  1.22            1.3873e-009     -1.4839e-008   
  1.21            1.4733e-009     -1.4754e-008   
  1.2             1.0946e-009     -1.3685e-008   
  1.19            1.1783e-009     -1.3015e-008   
  1.18            1.9067e-009     -1.4218e-008   
  1.17            1.3921e-009     -1.4747e-008   
  1.16            1.4847e-009     -1.4574e-008   
  1.15            1.1006e-009     -1.3207e-008   
  1.14            1.7955e-009     -9.814e-009    
  1.13            2.0839e-009     -1.4774e-008   
  1.12            1.4684e-009     -1.49e-008     
  1.11            1.0856e-009     -1.3779e-008   
  1.1             1.1714e-009     -1.3096e-008   
  1.09            1.9009e-009     -1.4146e-008   
  1.08            1.3895e-009     -1.4824e-008   
  1.07            1.4754e-009     -1.4792e-008   
  1.06            1.0966e-009     -1.3462e-008   
  1.05            1.7788e-009     -9.9e-009      
  1.04            2.0905e-009     -1.4591e-008   
  1.03            1.4602e-009     -1.5373e-008   
  1.02            1.0831e-009     -1.4116e-008   
  1.01            1.1609e-009     -1.3179e-008   
  1               1.8837e-009     -1.3747e-008   
  0.99            1.3794e-009     -1.4487e-008   
  0.98            1.4624e-009     -1.5118e-008   
  0.97            1.0806e-009     -1.4162e-008   
  0.96            1.1714e-009     -1.3183e-008   
  0.95            1.8939e-009     -1.3911e-008   
  0.94            1.3868e-009     -1.4527e-008   
  0.93            1.4785e-009     -1.5175e-008   
  0.92            1.0989e-009     -1.4127e-008   
  0.91            1.1791e-009     -1.313e-008    
  0.9             1.9065e-009     -1.4077e-008   
  0.89            1.3935e-009     -1.4529e-008   
  0.88            1.4848e-009     -1.4896e-008   
  0.87            1.1061e-009     -1.3432e-008   
  0.86            1.7945e-009     -1.3065e-008   
  0.85            1.9243e-009     -1.417e-008    
  0.84            1.407e-009      -1.5973e-008   
  0.83            1.03e-009       -1.4897e-008   
  0.82            1.1153e-009     -1.3376e-008   
  0.81            1.8096e-009     -1.3213e-008   
  0.8             1.9346e-009     -1.4283e-008   
  0.79            1.4147e-009     -1.469e-008    
  0.78            1.5052e-009     -1.4601e-008   
  0.77            1.1203e-009     -1.3329e-008   
  0.76            1.8161e-009     -1.3539e-008   
  0.75            1.3394e-009     -1.5647e-008   
  0.74            9.685e-010      -1.5869e-008   
  0.73            1.0434e-009     -1.4582e-008   
  0.72            1.1314e-009     -1.3218e-008   
  0.71            1.8328e-009     -1.3542e-008   
  0.7             1.3469e-009     -1.4457e-008   
  0.69            1.432e-009      -1.5756e-008   
  0.68            1.0561e-009     -1.4536e-008   
  0.67            1.1402e-009     -1.3262e-008   
  0.66            1.8557e-009     -1.3724e-008   
  0.65            1.3555e-009     -1.5859e-008   
  0.64            9.812e-010      -1.5503e-008   
  0.63            1.0674e-009     -1.383e-008    
  0.62            1.735e-009      -1.3183e-008   
  0.61            1.8656e-009     -1.3676e-008   
  0.6             1.3666e-009     -1.4591e-008   
  0.59            1.4511e-009     -1.5384e-008   
  0.58            1.0783e-009     -1.4281e-008   
  0.57            1.1607e-009     -1.3146e-008   
  0.56            1.8823e-009     -1.3925e-008   
  0.55            1.3711e-009     -1.4533e-008   
  0.54            1.4626e-009     -1.5166e-008   
  0.53            1.081e-009      -1.3613e-008   
  0.52            1.7585e-009     -1.3145e-008   
  0.51            1.8893e-009     -1.3938e-008   
  0.5             1.3833e-009     -1.46e-008     
  0.49            1.4713e-009     -1.5117e-008   
  0.48            1.0909e-009     -1.4166e-008   
  0.47            1.1693e-009     -1.317e-008    
  0.46            1.907e-009      -1.4054e-008   
  0.45            1.3941e-009     -1.4638e-008   
  0.44            1.4827e-009     -1.437e-008    
  0.43            1.5834e-009     -1.3988e-008   
  0.42            1.702e-009      -1.3223e-008   
  0.41            1.8263e-009     -1.3618e-008   
  0.4             1.3439e-009     -1.4456e-008   
  0.39            1.4253e-009     -1.5795e-008   
  0.38            1.0467e-009     -1.4466e-008   
  0.37            1.1328e-009     -1.311e-008    
  0.36            1.8419e-009     -1.3675e-008   
  0.35            1.3494e-009     -1.5795e-008   
  0.34            9.758e-010      -1.5466e-008   
  0.33            1.0616e-009     -1.4409e-008   
  0.32            1.1451e-009     -1.3179e-008   
  0.31            1.8541e-009     -1.3774e-008   
  0.3             1.3603e-009     -1.4614e-008   
  0.29            1.4426e-009     -1.5444e-008   
  0.28            1.0684e-009     -1.4322e-008   
  0.27            1.1487e-009     -1.3204e-008   
  0.26            1.8705e-009     -1.3632e-008   
  0.25            1.3699e-009     -1.4617e-008   
  0.24            1.4556e-009     -1.4458e-008   
  0.23            1.5501e-009     -1.414e-008    
  0.22            1.1596e-009     -1.3135e-008   
  0.21            1.8849e-009     -1.3842e-008   
  0.2             1.3727e-009     -1.4586e-008   
  0.19            1.4659e-009     -1.5036e-008   
  0.18            1.0817e-009     -1.3892e-008   
  0.17            1.1679e-009     -1.3124e-008   
  0.16            1.8979e-009     -1.3946e-008   
  0.15            1.3895e-009     -1.4751e-008   
  0.14            1.4786e-009     -1.4763e-008   
  0.13            1.0903e-009     -1.3703e-008   
  0.12            1.1789e-009     -1.2945e-008   
  0.11            1.9089e-009     -1.4263e-008   
  0.1             1.394e-009      -1.4792e-008   
  0.09            1.487e-009      -1.4426e-008   
  0.08            1.104e-009      -1.3179e-008   
  0.07            1.7984e-009     -1.3028e-008   
  0.06            1.925e-009      -1.4434e-008   
  0.05            1.4049e-009     -1.4761e-008   
  0.04            1.4894e-009     -1.4253e-008   
  0.03            1.1078e-009     -1.3121e-008   
  0.02            1.807e-009      -1.3626e-008   
  0.01            1.3279e-009     -1.4679e-008   
  0               1.4068e-009     -1.5518e-008   
  -0.01           -1.5483e-009    1.4438e-008    
  -0.02           -6.079e-010     1.3342e-008    
  -0.03           -6.947e-010     1.2734e-008    
  -0.04           -1.4054e-009    1.3331e-008    
  -0.05           -9.128e-010     1.4265e-008    
  -0.06           -9.901e-010     1.4288e-008    
  -0.07           -6.191e-010     1.3314e-008    
  -0.08           -7.009e-010     1.2816e-008    
  -0.09           -1.4182e-009    1.3486e-008    
  -0.1            -9.189e-010     1.4283e-008    
  -0.11           -9.979e-010     1.4151e-008    
  -0.12           -6.274e-010     1.3201e-008    
  -0.13           -7.111e-010     1.2829e-008    
  -0.14           -1.4374e-009    1.3621e-008    
  -0.15           -9.238e-010     1.4297e-008    
  -0.16           -1.0137e-009    1.413e-008     
  -0.17           -6.419e-010     1.2987e-008    
  -0.18           -1.3304e-009    1.2758e-008    
  -0.19           -1.4555e-009    1.3738e-008    
  -0.2            -9.52e-010      1.4301e-008    
  -0.21           -1.0467e-009    1.3997e-008    
  -0.22           -6.81e-010      1.3142e-008    
  -0.23           -7.826e-010     1.2797e-008    
  -0.24           -1.5259e-009    1.4995e-008    
  -0.25           -5.836e-010     1.4219e-008    
  -0.26           -1.2301e-009    1.3397e-008    
  -0.27           -8.967e-010     1.3017e-008    
  -0.28           -1.6841e-009    1.3733e-008    
  -0.29           -1.2711e-009    1.4513e-008    
  -0.3            -1.4986e-009    1.4615e-008    
  -0.31           -1.3283e-009    1.3723e-008    
  -0.32           -2.2908e-009    1.0714e-008    
  -0.33           -2.9376e-009    1.5606e-008    
  -0.34           -2.9241e-009    1.6141e-008    
  -0.35           -3.8954e-009    1.6487e-008    
  -0.36           -5.1632e-009    1.4671e-008    
  -0.37           -7.3502e-009    1.5352e-008    
  -0.38           -9.7128e-009    1.6385e-008    
  -0.39           -9.745e-009     2.3658e-008    
  -0.4            -1.8583e-008    1.626e-008     
  -0.41           -2.271e-008     2.5616e-008    
  -0.42           -3.8369e-008    3.5303e-008    
  -0.43           -5.0108e-008    5.3759e-008    
  -0.44           -7.7858e-008    7.3407e-008    
  -0.45           -1.13984e-007   1.2328e-007    
  -0.46           -1.6091e-007    1.6285e-007    
  -0.47           -2.4312e-007    2.3822e-007    
  -0.48           -3.4558e-007    3.5215e-007    
  -0.49           -5.0478e-007    4.9458e-007    
  -0.5            -7.4601e-007    7.6405e-007    
  -0.51           -1.08026e-006   1.0693e-006    
  -0.52           -1.6078e-006    1.6269e-006    
  -0.53           -2.3318e-006    2.3193e-006    
  -0.54           -3.3767e-006    3.3842e-006    
  -0.55           -5.0131e-006    5.0088e-006    
  -0.56           -7.2453e-006    7.2475e-006    
  -0.57           -1.07188e-005   1.07293e-005   
  -0.58           -1.5384e-005    1.5394e-005    
  -0.59           -2.2088e-005    2.211e-005     
  -0.6            -3.2266e-005    3.2269e-005    
  -0.61           -4.5514e-005    4.5529e-005    
  -0.62           -6.5122e-005    6.5166e-005    
  -0.63           -8.9631e-005    8.9653e-005    
  -0.64           -0.00012414     0.00012425     
  -0.65           -0.00016487     0.00016496     
  -0.66           -0.00021452     0.00021472     
  -0.67           -0.00027838     0.00027865     
  -0.68           -0.00034713     0.00034737     
  -0.69           -0.00043165     0.00043191     
  -0.7            -0.00051848     0.00051857     
  -0.71           -0.00061291     0.000613       
  -0.72           -0.00072249     0.00072275     
  -0.73           -0.0008318      0.000832       
  -0.74           -0.00095622     0.00095629     
  -0.75           -0.00107791     0.001078       
  -0.76           -0.0012048      0.0012063      
  -0.77           -0.0013477      0.0013498      
  -0.78           -0.0014862      0.0014883      
  -0.79           -0.0016421      0.0016439      
  -0.8            -0.001792       0.0017932      
  -0.81           -0.0019462      0.0019483      
  -0.82           -0.0021186      0.0021206      
  -0.83           -0.0022842      0.0022863      
  -0.84           -0.0024672      0.002469       
  -0.85           -0.0026424      0.0026444      
  -0.86           -0.0028223      0.0028238      
  -0.87           -0.0030211      0.0030219      
  -0.88           -0.0032109      0.0032134      
