! VERSION = 6.00
BEGIN_HEADER
 ICCAP_INPUTS
  VU1        V  E GROUND SMU1 0.1 CON        0
  VU2        V  S GROUND SMU4 0.1 CON        0
  VN         V  B GROUND SMU2 0.015 CON        0
  VP         V  C GROUND SMU3 0.015 LIN        1    3          -1         401  -0.01     
 ICCAP_OUTPUTS
  IP         I  C GROUND SMU3 B
  IN         I  B GROUND SMU2 B
END_HEADER

BEGIN_DB
 ICCAP_VAR VU1        0              
 ICCAP_VAR VU2        0              
 ICCAP_VAR VN         0              

 #VP              IP              IN             
  3               3.7459e-009     -1.3869e-008   
  2.99            6.6045e-009     -1.2435e-008   
  2.98            6.5693e-009     -1.4939e-008   
  2.97            6.7222e-009     -1.4466e-008   
  2.96            6.7435e-009     -1.519e-008    
  2.95            6.7121e-009     -1.4637e-008   
  2.94            6.6379e-009     -1.3473e-008   
  2.93            6.596e-009      -1.9153e-008   
  2.92            6.0691e-009     -1.4524e-008   
  2.91            6.7366e-009     -1.5271e-008   
  2.9             6.7041e-009     -1.4688e-008   
  2.89            6.6364e-009     -1.3471e-008   
  2.88            6.5786e-009     -1.9265e-008   
  2.87            6.0767e-009     -1.443e-008    
  2.86            6.738e-009      -1.5247e-008   
  2.85            6.6895e-009     -1.4657e-008   
  2.84            6.6281e-009     -1.3323e-008   
  2.83            6.5836e-009     -1.9206e-008   
  2.82            6.0606e-009     -1.4467e-008   
  2.81            6.7115e-009     -1.5346e-008   
  2.8             6.6907e-009     -1.4637e-008   
  2.79            6.6307e-009     -1.3319e-008   
  2.78            6.5738e-009     -1.9111e-008   
  2.77            6.0677e-009     -1.4566e-008   
  2.76            6.7176e-009     -1.5183e-008   
  2.75            6.6894e-009     -1.4647e-008   
  2.74            6.6324e-009     -1.3478e-008   
  2.73            6.5786e-009     -1.9168e-008   
  2.72            6.0625e-009     -1.4435e-008   
  2.71            6.72e-009       -1.5223e-008   
  2.7             6.6915e-009     -1.4574e-008   
  2.69            6.6212e-009     -1.3412e-008   
  2.68            6.5724e-009     -1.914e-008    
  2.67            6.0624e-009     -1.4596e-008   
  2.66            6.7076e-009     -1.5272e-008   
  2.65            6.6846e-009     -1.4618e-008   
  2.64            6.6244e-009     -1.3139e-008   
  2.63            6.5653e-009     -1.5558e-008   
  2.62            6.6847e-009     -1.4576e-008   
  2.61            6.7162e-009     -1.4748e-008   
  2.6             6.7088e-009     -1.5248e-008   
  2.59            6.6706e-009     -1.4101e-008   
  2.58            6.5805e-009     -1.2698e-008   
  2.57            6.5439e-009     -1.9002e-008   
  2.56            6.1023e-009     -1.4737e-008   
  2.55            6.7034e-009     -1.5196e-008   
  2.54            6.6716e-009     -1.4195e-008   
  2.53            6.5908e-009     -1.2798e-008   
  2.52            6.5533e-009     -1.8886e-008   
  2.51            6.1149e-009     -1.4878e-008   
  2.5             6.6992e-009     -1.5205e-008   
  2.49            6.6539e-009     -1.4084e-008   
  2.48            6.5922e-009     -1.2668e-008   
  2.47            6.5382e-009     -1.5159e-008   
  2.46            6.6837e-009     -1.4308e-008   
  2.45            6.7058e-009     -1.4992e-008   
  2.44            6.6851e-009     -1.4994e-008   
  2.43            6.6354e-009     -1.3715e-008   
  2.42            6.5711e-009     -1.8942e-008   
  2.41            6.0212e-009     -1.4411e-008   
  2.4             6.7062e-009     -1.5135e-008   
  2.39            6.6875e-009     -1.4768e-008   
  2.38            6.6278e-009     -1.3742e-008   
  2.37            6.5725e-009     -1.886e-008    
  2.36            6.0266e-009     -1.4445e-008   
  2.35            6.7064e-009     -1.5117e-008   
  2.34            6.6794e-009     -1.4851e-008   
  2.33            6.6086e-009     -1.3776e-008   
  2.32            6.5592e-009     -1.89e-008     
  2.31            6.0169e-009     -1.4466e-008   
  2.3             6.6994e-009     -1.5232e-008   
  2.29            6.6863e-009     -1.4665e-008   
  2.28            6.6e-009        -1.3466e-008   
  2.27            6.5542e-009     -1.8872e-008   
  2.26            6.0269e-009     -1.4418e-008   
  2.25            6.7038e-009     -1.5158e-008   
  2.24            6.6742e-009     -1.4665e-008   
  2.23            6.6111e-009     -1.3509e-008   
  2.22            6.5434e-009     -1.8932e-008   
  2.21            6.0425e-009     -1.4407e-008   
  2.2             6.6887e-009     -1.5176e-008   
  2.19            6.666e-009      -1.4679e-008   
  2.18            6.5875e-009     -1.3434e-008   
  2.17            6.5453e-009     -1.5574e-008   
  2.16            6.649e-009      -1.4599e-008   
  2.15            6.6872e-009     -1.4661e-008   
  2.14            6.6847e-009     -1.5239e-008   
  2.13            6.6244e-009     -1.4385e-008   
  2.12            6.5757e-009     -1.2868e-008   
  2.11            6.5296e-009     -1.8907e-008   
  2.1             6.0577e-009     -1.4675e-008   
  2.09            6.684e-009      -1.529e-008    
  2.08            6.6392e-009     -1.4138e-008   
  2.07            6.5761e-009     -1.3029e-008   
  2.06            6.5137e-009     -1.5231e-008   
  2.05            6.6496e-009     -1.4375e-008   
  2.04            6.6911e-009     -1.4868e-008   
  2.03            6.6536e-009     -1.5059e-008   
  2.02            6.6228e-009     -1.393e-008    
  2.01            6.5581e-009     -1.8851e-008   
  2               5.9849e-009     -1.8795e-008   
  1.99            6.0855e-009     -1.4931e-008   
  1.98            6.6618e-009     -1.4974e-008   
  1.97            6.6089e-009     -1.3869e-008   
  1.96            6.5531e-009     -1.888e-008    
  1.95            5.9777e-009     -1.8857e-008   
  1.94            6.0776e-009     -1.5059e-008   
  1.93            6.6704e-009     -1.4881e-008   
  1.92            6.6121e-009     -1.3763e-008   
  1.91            6.5457e-009     -1.2376e-008   
  1.9             6.4984e-009     -1.486e-008    
  1.89            6.6636e-009     -1.441e-008    
  1.88            6.6811e-009     -1.5182e-008   
  1.87            6.6419e-009     -1.473e-008    
  1.86            6.5774e-009     -1.3463e-008   
  1.85            6.5346e-009     -1.8773e-008   
  1.84            6.0139e-009     -1.4423e-008   
  1.83            6.6694e-009     -1.5235e-008   
  1.82            6.6365e-009     -1.4744e-008   
  1.81            6.5847e-009     -1.343e-008    
  1.8             6.5277e-009     -1.8747e-008   
  1.79            6.0016e-009     -1.4413e-008   
  1.78            6.6675e-009     -1.5201e-008   
  1.77            6.6444e-009     -1.4755e-008   
  1.76            6.5746e-009     -1.3413e-008   
  1.75            6.5275e-009     -1.8844e-008   
  1.74            6.0062e-009     -1.4507e-008   
  1.73            6.6519e-009     -1.5284e-008   
  1.72            6.6405e-009     -1.4636e-008   
  1.71            6.5827e-009     -1.348e-008    
  1.7             6.5251e-009     -1.8708e-008   
  1.69            6.0073e-009     -1.4521e-008   
  1.68            6.6592e-009     -1.5217e-008   
  1.67            6.6329e-009     -1.465e-008    
  1.66            6.5833e-009     -1.3327e-008   
  1.65            6.5199e-009     -1.8747e-008   
  1.64            5.9928e-009     -1.4455e-008   
  1.63            6.6464e-009     -1.5201e-008   
  1.62            6.6306e-009     -1.4614e-008   
  1.61            6.5731e-009     -1.3449e-008   
  1.6             6.5125e-009     -1.8726e-008   
  1.59            5.9839e-009     -1.4429e-008   
  1.58            6.6555e-009     -1.5317e-008   
  1.57            6.6084e-009     -1.4611e-008   
  1.56            6.5671e-009     -1.3395e-008   
  1.55            6.5031e-009     -1.8609e-008   
  1.54            5.9928e-009     -1.444e-008    
  1.53            6.6609e-009     -1.5204e-008   
  1.52            6.6251e-009     -1.4664e-008   
  1.51            6.5573e-009     -1.3348e-008   
  1.5             6.5216e-009     -1.8806e-008   
  1.49            5.9827e-009     -1.4455e-008   
  1.48            6.6502e-009     -1.5341e-008   
  1.47            6.6103e-009     -1.4646e-008   
  1.46            6.5585e-009     -1.3346e-008   
  1.45            6.4986e-009     -1.87e-008     
  1.44            5.9778e-009     -1.4439e-008   
  1.43            6.6456e-009     -1.5188e-008   
  1.42            6.6049e-009     -1.4769e-008   
  1.41            6.5544e-009     -1.3361e-008   
  1.4             6.4954e-009     -1.8682e-008   
  1.39            5.9716e-009     -1.4422e-008   
  1.38            6.6366e-009     -1.5285e-008   
  1.37            6.6024e-009     -1.4717e-008   
  1.36            6.5486e-009     -1.3367e-008   
  1.35            6.4926e-009     -1.8811e-008   
  1.34            5.9661e-009     -1.4382e-008   
  1.33            6.6395e-009     -1.5263e-008   
  1.32            6.6022e-009     -1.4652e-008   
  1.31            6.5389e-009     -1.3337e-008   
  1.3             6.485e-009      -1.8749e-008   
  1.29            5.9708e-009     -1.446e-008    
  1.28            6.6314e-009     -1.5133e-008   
  1.27            6.5988e-009     -1.464e-008    
  1.26            6.5313e-009     -1.3477e-008   
  1.25            6.4837e-009     -1.8711e-008   
  1.24            5.9645e-009     -1.4458e-008   
  1.23            6.6119e-009     -1.5221e-008   
  1.22            6.6104e-009     -1.461e-008    
  1.21            6.535e-009      -1.3289e-008   
  1.2             6.4931e-009     -1.8754e-008   
  1.19            5.955e-009      -1.4452e-008   
  1.18            6.6073e-009     -1.5339e-008   
  1.17            6.5972e-009     -1.4625e-008   
  1.16            6.5318e-009     -1.3482e-008   
  1.15            6.471e-009      -1.869e-008    
  1.14            5.9541e-009     -1.8485e-008   
  1.13            6.0523e-009     -1.5097e-008   
  1.12            6.584e-009      -1.477e-008    
  1.11            6.5269e-009     -1.3507e-008   
  1.1             6.4712e-009     -1.8699e-008   
  1.09            5.947e-009      -1.4399e-008   
  1.08            6.606e-009      -1.5164e-008   
  1.07            6.5978e-009     -1.467e-008    
  1.06            6.5129e-009     -1.3501e-008   
  1.05            6.4779e-009     -1.8776e-008   
  1.04            5.9401e-009     -1.8473e-008   
  1.03            6.0462e-009     -1.5049e-008   
  1.02            6.5893e-009     -1.4699e-008   
  1.01            6.5203e-009     -1.3406e-008   
  1               6.4615e-009     -1.8701e-008   
  0.99            5.9173e-009     -1.4366e-008   
  0.98            6.5945e-009     -1.5124e-008   
  0.97            6.5772e-009     -1.4705e-008   
  0.96            6.5197e-009     -1.3412e-008   
  0.95            6.462e-009      -1.8644e-008   
  0.94            5.9184e-009     -1.8469e-008   
  0.93            6.0367e-009     -1.5228e-008   
  0.92            6.5682e-009     -1.4847e-008   
  0.91            6.5266e-009     -1.3367e-008   
  0.9             6.4524e-009     -1.8711e-008   
  0.89            5.9254e-009     -1.4412e-008   
  0.88            6.5869e-009     -1.5216e-008   
  0.87            6.5577e-009     -1.4777e-008   
  0.86            6.5191e-009     -1.3442e-008   
  0.85            6.4397e-009     -1.8703e-008   
  0.84            5.914e-009      -1.432e-008    
  0.83            6.5844e-009     -1.5074e-008   
  0.82            6.5545e-009     -1.4776e-008   
  0.81            6.5081e-009     -1.3613e-008   
  0.8             6.4502e-009     -1.8603e-008   
  0.79            5.9009e-009     -1.4284e-008   
  0.78            6.5876e-009     -1.5087e-008   
  0.77            6.5494e-009     -1.4722e-008   
  0.76            6.4918e-009     -1.3517e-008   
  0.75            6.4401e-009     -1.8693e-008   
  0.74            5.9026e-009     -1.8525e-008   
  0.73            5.9931e-009     -1.5019e-008   
  0.72            6.5599e-009     -1.4631e-008   
  0.71            6.5073e-009     -1.357e-008    
  0.7             6.432e-009      -1.8705e-008   
  0.69            5.87e-009       -1.8475e-008   
  0.68            6.0025e-009     -1.5103e-008   
  0.67            6.5442e-009     -1.4748e-008   
  0.66            6.4875e-009     -1.3492e-008   
  0.65            6.4323e-009     -1.8545e-008   
  0.64            5.8888e-009     -1.4366e-008   
  0.63            6.5555e-009     -1.5114e-008   
  0.62            6.5425e-009     -1.478e-008    
  0.61            6.494e-009      -1.3508e-008   
  0.6             6.4272e-009     -1.8755e-008   
  0.59            5.8828e-009     -1.8592e-008   
  0.58            5.9867e-009     -1.52e-008     
  0.57            6.5305e-009     -1.4718e-008   
  0.56            6.47e-009       -1.3375e-008   
  0.55            6.422e-009      -1.8746e-008   
  0.54            5.8757e-009     -1.4322e-008   
  0.53            6.5538e-009     -1.4972e-008   
  0.52            6.5274e-009     -1.4849e-008   
  0.51            6.4758e-009     -1.3566e-008   
  0.5             6.4187e-009     -1.8658e-008   
  0.49            5.8726e-009     -1.4354e-008   
  0.48            6.544e-009      -1.4978e-008   
  0.47            6.5289e-009     -1.4715e-008   
  0.46            6.4819e-009     -1.3445e-008   
  0.45            6.4061e-009     -1.868e-008    
  0.44            5.8644e-009     -1.8536e-008   
  0.43            5.9657e-009     -1.4943e-008   
  0.42            6.5185e-009     -1.4786e-008   
  0.41            6.4743e-009     -1.3479e-008   
  0.4             6.4038e-009     -1.861e-008    
  0.39            5.8682e-009     -1.421e-008    
  0.38            6.5349e-009     -1.4915e-008   
  0.37            6.5068e-009     -1.4787e-008   
  0.36            6.4624e-009     -1.3537e-008   
  0.35            6.3933e-009     -1.8718e-008   
  0.34            5.8507e-009     -1.8572e-008   
  0.33            5.953e-009      -1.5111e-008   
  0.32            6.4992e-009     -1.4655e-008   
  0.31            6.4557e-009     -1.3537e-008   
  0.3             6.4016e-009     -1.8686e-008   
  0.29            5.8506e-009     -1.4281e-008   
  0.28            6.529e-009      -1.5022e-008   
  0.27            6.5081e-009     -1.4698e-008   
  0.26            6.44e-009       -1.3526e-008   
  0.25            6.397e-009      -1.8708e-008   
  0.24            5.8325e-009     -1.8496e-008   
  0.23            5.9403e-009     -1.4922e-008   
  0.22            6.4999e-009     -1.4685e-008   
  0.21            6.4518e-009     -1.3534e-008   
  0.2             6.3879e-009     -1.862e-008    
  0.19            5.8187e-009     -1.8544e-008   
  0.18            5.9364e-009     -1.4838e-008   
  0.17            6.4876e-009     -1.4738e-008   
  0.16            6.4336e-009     -1.3506e-008   
  0.15            6.3771e-009     -1.8741e-008   
  0.14            5.826e-009      -1.8544e-008   
  0.13            5.917e-009      -1.4799e-008   
  0.12            6.4774e-009     -1.4873e-008   
  0.11            6.4291e-009     -1.3561e-008   
  0.1             6.3631e-009     -1.8665e-008   
  0.09            5.8259e-009     -1.859e-008    
  0.08            5.9155e-009     -1.5114e-008   
  0.07            6.4729e-009     -1.4816e-008   
  0.06            6.4107e-009     -1.3523e-008   
  0.05            6.3544e-009     -1.8822e-008   
  0.04            5.8125e-009     -1.867e-008    
  0.03            5.9036e-009     -1.4934e-008   
  0.02            6.4549e-009     -1.4648e-008   
  0.01            6.4029e-009     -1.3531e-008   
  0               6.3373e-009     -1.8837e-008   
  -0.01           4.7272e-009     -1.7134e-008   
  -0.02           6.2533e-009     -1.2244e-008   
  -0.03           6.292e-009      -1.8637e-008   
  -0.04           5.8742e-009     -1.8223e-008   
  -0.05           5.9882e-009     -1.4868e-008   
  -0.06           6.3966e-009     -1.3728e-008   
  -0.07           6.3377e-009     -1.237e-008    
  -0.08           6.2885e-009     -1.8536e-008   
  -0.09           5.8553e-009     -1.4888e-008   
  -0.1            6.4446e-009     -1.4944e-008   
  -0.11           6.392e-009      -1.3819e-008   
  -0.12           6.3222e-009     -1.2387e-008   
  -0.13           6.2548e-009     -1.8648e-008   
  -0.14           5.8412e-009     -1.4593e-008   
  -0.15           6.4126e-009     -1.4785e-008   
  -0.16           6.3389e-009     -1.366e-008    
  -0.17           6.2646e-009     -1.2237e-008   
  -0.18           6.1727e-009     -1.8372e-008   
  -0.19           5.6975e-009     -1.8006e-008   
  -0.2            5.7419e-009     -1.4689e-008   
  -0.21           6.0652e-009     -1.3455e-008   
  -0.22           5.853e-009      -1.8254e-008   
  -0.23           5.0591e-009     -1.788e-008    
  -0.24           4.8534e-009     -1.7035e-008   
  -0.25           4.4753e-009     -1.3432e-008   
  -0.26           4.202e-009      -1.1496e-008   
  -0.27           3.0895e-009     -1.5652e-008   
  -0.28           1.123e-009      -1.4274e-008   
  -0.29           -2.3256e-009    -1.1087e-008   
  -0.3            -4.7918e-009    1.422e-009     
  -0.31           -1.0446e-008    1.3423e-008    
  -0.32           -1.8712e-008    1.7501e-008    
  -0.33           -2.5288e-008    2.6442e-008    
  -0.34           -4.0835e-008    3.9366e-008    
  -0.35           -5.969e-008     6.1902e-008    
  -0.36           -9.1168e-008    8.865e-008     
  -0.37           -1.3551e-007    1.3689e-007    
  -0.38           -1.9303e-007    1.9567e-007    
  -0.39           -2.827e-007     2.7767e-007    
  -0.4            -4.1371e-007    4.2079e-007    
  -0.41           -6.001e-007     5.8848e-007    
  -0.42           -8.7802e-007    8.9814e-007    
  -0.43           -1.2632e-006    1.2676e-006    
  -0.44           -1.8075e-006    1.8111e-006    
  -0.45           -2.6623e-006    2.6624e-006    
  -0.46           -3.7883e-006    3.7956e-006    
  -0.47           -5.5313e-006    5.5258e-006    
  -0.48           -7.8063e-006    7.8137e-006    
  -0.49           -1.0964e-005    1.09472e-005   
  -0.5            -1.5679e-005    1.5695e-005    
  -0.51           -2.1578e-005    2.1559e-005    
  -0.52           -2.9953e-005    3.0012e-005    
  -0.53           -3.9999e-005    4.0021e-005    
  -0.54           -5.257e-005     5.2562e-005    
  -0.55           -6.8916e-005    6.8958e-005    
  -0.56           -8.7041e-005    8.713e-005     
  -0.57           -0.000109746    0.00010974     
  -0.58           -0.00013368     0.0001339      
  -0.59           -0.00016091     0.00016114     
  -0.6            -0.00019353     0.00019368     
  -0.61           -0.00022703     0.00022732     
  -0.62           -0.00026714     0.00026737     
  -0.63           -0.00030852     0.00030864     
  -0.64           -0.00035798     0.00035821     
  -0.65           -0.00040919     0.00040949     
  -0.66           -0.00046612     0.00046639     
  -0.67           -0.00053468     0.0005349      
  -0.68           -0.00060564     0.00060583     
  -0.69           -0.00069137     0.00069147     
  -0.7            -0.00077888     0.00077912     
  -0.71           -0.00087501     0.00087502     
  -0.72           -0.0009878      0.00098822     
  -0.73           -0.00110201     0.00110203     
  -0.74           -0.001234       0.0012356      
  -0.75           -0.0013653      0.0013669      
  -0.76           -0.0015053      0.0015069      
  -0.77           -0.0016649      0.0016668      
  -0.78           -0.001822       0.0018237      
  -0.79           -0.0020014      0.0020027      
  -0.8            -0.0021752      0.0021764      
  -0.81           -0.0023573      0.0023601      
  -0.82           -0.0025629      0.0025648      
  -0.83           -0.0027625      0.0027639      
  -0.84           -0.0029853      0.002987       
  -0.85           -0.0032005      0.0032025      
  -0.86           -0.003424       0.0034251      
  -0.87           -0.0036716      0.0036733      
  -0.88           -0.0039117      0.0039139      
