! VERSION = 6.00
BEGIN_HEADER
 ICCAP_INPUTS
  VU1        V  E GROUND SMU1 0.1 CON        0
  VU2        V  S GROUND SMU4 0.1 CON        0
  VP         V  C GROUND SMU2 0.04 CON        0
  VN         V  B GROUND SMU3 0.04 LIN        1    3          -0.9       391  -0.01     
 ICCAP_OUTPUTS
  IP         I  C GROUND SMU2 B
  IN         I  B GROUND SMU3 B
END_HEADER

BEGIN_DB
 ICCAP_VAR VU1        0              
 ICCAP_VAR VU2        0              
 ICCAP_VAR VP         0              

 #VN              IP              IN             
  3               4.01e-009       6.371e-010     
  2.99            3.89e-009       1.8709e-009    
  2.98            3.758e-009      1.8967e-009    
  2.97            3.777e-009      1.9261e-009    
  2.96            3.805e-009      1.9514e-009    
  2.95            3.958e-009      1.9772e-009    
  2.94            3.946e-009      2.0015e-009    
  2.93            -1.32e-008      2.0254e-009    
  2.92            -1.4323e-008    2.02e-009      
  2.91            -1.4458e-008    1.4803e-009    
  2.9             -1.3598e-008    1.5709e-009    
  2.89            -1.3282e-008    1.6782e-009    
  2.88            -1.3079e-008    1.8095e-009    
  2.87            -1.4326e-008    1.9485e-009    
  2.86            -1.4497e-008    1.4373e-009    
  2.85            -1.4086e-008    1.5295e-009    
  2.84            -1.5994e-008    1.6242e-009    
  2.83            -1.3118e-008    1.2356e-009    
  2.82            -1.434e-008     1.9701e-009    
  2.81            -1.4394e-008    1.4531e-009    
  2.8             -1.3985e-008    1.5457e-009    
  2.79            -1.3481e-008    1.6461e-009    
  2.78            -1.3141e-008    1.7685e-009    
  2.77            -1.3314e-008    1.9045e-009    
  2.76            -1.4289e-008    2.0419e-009    
  2.75            -1.4393e-008    1.5026e-009    
  2.74            -1.3618e-008    1.5969e-009    
  2.73            -1.327e-008     1.7054e-009    
  2.72            -1.3113e-008    1.8392e-009    
  2.71            -1.4252e-008    1.973e-009     
  2.7             -1.4436e-008    1.4522e-009    
  2.69            -1.3936e-008    1.5429e-009    
  2.68            -1.3435e-008    1.645e-009     
  2.67            -1.3147e-008    1.7657e-009    
  2.66            -1.3212e-008    1.9066e-009    
  2.65            -1.4312e-008    2.0469e-009    
  2.64            -1.4413e-008    1.4956e-009    
  2.63            -1.3588e-008    1.5977e-009    
  2.62            -1.323e-008     1.7006e-009    
  2.61            -1.317e-008     1.8372e-009    
  2.6             -1.4347e-008    1.9737e-009    
  2.59            -1.4436e-008    1.4549e-009    
  2.58            -1.3877e-008    1.5426e-009    
  2.57            -1.342e-008     1.6433e-009    
  2.56            -1.3118e-008    1.7697e-009    
  2.55            -1.3258e-008    1.9072e-009    
  2.54            -1.4251e-008    2.0452e-009    
  2.53            -1.4351e-008    1.4987e-009    
  2.52            -1.3687e-008    1.5937e-009    
  2.51            -1.3316e-008    1.7104e-009    
  2.5             -1.3062e-008    1.8443e-009    
  2.49            -1.4252e-008    1.9871e-009    
  2.48            -1.4524e-008    1.4635e-009    
  2.47            -1.4146e-008    1.5538e-009    
  2.46            -1.3517e-008    1.6541e-009    
  2.45            -1.3215e-008    1.781e-009     
  2.44            -1.3155e-008    1.9246e-009    
  2.43            -1.451e-008     2.0565e-009    
  2.42            -1.4529e-008    1.5056e-009    
  2.41            -1.3701e-008    1.6063e-009    
  2.4             -1.3283e-008    1.7192e-009    
  2.39            -1.3008e-008    1.8537e-009    
  2.38            -1.4622e-008    1.9945e-009    
  2.37            -1.4739e-008    1.4687e-009    
  2.36            -1.3943e-008    1.5569e-009    
  2.35            -1.3343e-008    1.6651e-009    
  2.34            -1.2956e-008    1.7922e-009    
  2.33            -1.4637e-008    1.9368e-009    
  2.32            -1.4657e-008    1.4302e-009    
  2.31            -1.4463e-008    1.5152e-009    
  2.3             -1.3573e-008    1.6146e-009    
  2.29            -1.3172e-008    1.7274e-009    
  2.28            -1.3024e-008    1.8668e-009    
  2.27            -1.4665e-008    2.0087e-009    
  2.26            -1.4694e-008    1.4678e-009    
  2.25            -1.6009e-008    1.5662e-009    
  2.24            -1.3105e-008    1.1873e-009    
  2.23            -1.3221e-008    1.8964e-009    
  2.22            -1.4634e-008    2.0311e-009    
  2.21            -1.4728e-008    1.4864e-009    
  2.2             -1.3736e-008    1.5839e-009    
  2.19            -1.3258e-008    1.6929e-009    
  2.18            -1.3028e-008    1.8272e-009    
  2.17            -1.4559e-008    1.9702e-009    
  2.16            -1.4787e-008    1.4486e-009    
  2.15            -1.4195e-008    1.536e-009     
  2.14            -1.3541e-008    1.6379e-009    
  2.13            -1.3052e-008    1.7634e-009    
  2.12            -1.3194e-008    1.8981e-009    
  2.11            -1.4663e-008    2.0346e-009    
  2.1             -1.4643e-008    1.494e-009     
  2.09            -1.5729e-008    1.5886e-009    
  2.08            -1.2985e-008    1.2056e-009    
  2.07            -1.4626e-008    1.9299e-009    
  2.06            -1.5521e-008    1.4289e-009    
  2.05            -1.3774e-008    1.0504e-009    
  2.04            -1.3273e-008    1.6829e-009    
  2.03            -1.3011e-008    1.8187e-009    
  2.02            -1.464e-008     1.9629e-009    
  2.01            -1.4828e-008    1.4435e-009    
  2               -1.4197e-008    1.5308e-009    
  1.99            -1.3505e-008    1.6283e-009    
  1.98            -1.3116e-008    1.7545e-009    
  1.97            -1.3144e-008    1.8868e-009    
  1.96            -1.4671e-008    2.0283e-009    
  1.95            -1.469e-008     1.4866e-009    
  1.94            -1.5814e-008    1.5764e-009    
  1.93            -1.2942e-008    1.202e-009     
  1.92            -1.3145e-008    1.9174e-009    
  1.91            -1.5257e-008    2.0513e-009    
  1.9             -1.3858e-008    1.0439e-009    
  1.89            -1.3274e-008    1.6749e-009    
  1.88            -1.3001e-008    1.8e-009       
  1.87            -1.4595e-008    1.944e-009     
  1.86            -1.5687e-008    1.4344e-009    
  1.85            -1.3679e-008    1.0584e-009    
  1.84            -1.3207e-008    1.697e-009     
  1.83            -1.2999e-008    1.8301e-009    
  1.82            -1.459e-008     1.9695e-009    
  1.81            -1.4842e-008    1.4485e-009    
  1.8             -1.4122e-008    1.5338e-009    
  1.79            -1.3424e-008    1.637e-009     
  1.78            -1.3026e-008    1.7651e-009    
  1.77            -1.3153e-008    1.899e-009     
  1.76            -1.4731e-008    2.0402e-009    
  1.75            -1.4648e-008    1.4939e-009    
  1.74            -1.5767e-008    1.5897e-009    
  1.73            -1.3012e-008    1.2068e-009    
  1.72            -1.4664e-008    1.9312e-009    
  1.71            -1.4738e-008    1.4266e-009    
  1.7             -1.4475e-008    1.5078e-009    
  1.69            -1.35e-008      1.6051e-009    
  1.68            -1.3145e-008    1.7255e-009    
  1.67            -1.3116e-008    1.8589e-009    
  1.66            -1.4651e-008    1.9995e-009    
  1.65            -1.4765e-008    1.4656e-009    
  1.64            -1.3956e-008    1.5538e-009    
  1.63            -1.3262e-008    1.6634e-009    
  1.62            -1.2976e-008    1.7949e-009    
  1.61            -1.4605e-008    1.934e-009     
  1.6             -1.4782e-008    1.4244e-009    
  1.59            -1.4391e-008    1.5107e-009    
  1.58            -1.5679e-008    1.609e-009     
  1.57            -1.2994e-008    1.2203e-009    
  1.56            -1.4716e-008    1.9562e-009    
  1.55            -1.4768e-008    1.4389e-009    
  1.54            -1.4217e-008    1.5287e-009    
  1.53            -1.3452e-008    1.6312e-009    
  1.52            -1.3062e-008    1.7527e-009    
  1.51            -1.3216e-008    1.8857e-009    
  1.5             -1.4758e-008    2.0272e-009    
  1.49            -1.4655e-008    1.4814e-009    
  1.48            -1.5804e-008    1.5765e-009    
  1.47            -1.3058e-008    1.1949e-009    
  1.46            -1.3149e-008    1.9119e-009    
  1.45            -1.4662e-008    2.0463e-009    
  1.44            -1.4529e-008    1.4971e-009    
  1.43            -1.5751e-008    1.5954e-009    
  1.42            -1.2959e-008    1.2077e-009    
  1.41            -1.4674e-008    1.9403e-009    
  1.4             -1.4728e-008    1.4296e-009    
  1.39            -1.4374e-008    1.5148e-009    
  1.38            -1.5607e-008    1.6082e-009    
  1.37            -1.2972e-008    1.2258e-009    
  1.36            -1.4661e-008    1.9645e-009    
  1.35            -1.4818e-008    1.4442e-009    
  1.34            -1.4155e-008    1.5333e-009    
  1.33            -1.3438e-008    1.6325e-009    
  1.32            -1.3036e-008    1.7532e-009    
  1.31            -1.3288e-008    1.8931e-009    
  1.3             -1.4714e-008    2.0297e-009    
  1.29            -1.4727e-008    1.485e-009     
  1.28            -1.5818e-008    1.5766e-009    
  1.27            -1.3006e-008    1.2008e-009    
  1.26            -1.4674e-008    1.9197e-009    
  1.25            -1.5328e-008    1.4136e-009    
  1.24            -1.3787e-008    1.0439e-009    
  1.23            -1.3262e-008    1.6713e-009    
  1.22            -1.2976e-008    1.8031e-009    
  1.21            -1.4599e-008    1.9426e-009    
  1.2             -1.4851e-008    1.4293e-009    
  1.19            -1.4395e-008    1.5148e-009    
  1.18            -1.3585e-008    1.6201e-009    
  1.17            -1.305e-008     1.7334e-009    
  1.16            -1.3164e-008    1.8679e-009    
  1.15            -1.4661e-008    2.0079e-009    
  1.14            -1.4836e-008    1.4682e-009    
  1.13            -1.3928e-008    1.5597e-009    
  1.12            -1.3301e-008    1.6705e-009    
  1.11            -1.2943e-008    1.7952e-009    
  1.1             -1.4735e-008    1.9342e-009    
  1.09            -1.4776e-008    1.4236e-009    
  1.08            -1.4494e-008    1.5116e-009    
  1.07            -1.3587e-008    1.6086e-009    
  1.06            -1.3123e-008    1.7243e-009    
  1.05            -1.3037e-008    1.8577e-009    
  1.04            -1.4629e-008    1.9954e-009    
  1.03            -1.4812e-008    1.464e-009     
  1.02            -1.4052e-008    1.551e-009     
  1.01            -1.3432e-008    1.6587e-009    
  1               -1.3023e-008    1.779e-009     
  0.99            -1.3169e-008    1.9184e-009    
  0.98            -1.5485e-008    2.0535e-009    
  0.97            -1.3815e-008    1.0405e-009    
  0.96            -1.3372e-008    1.6698e-009    
  0.95            -1.2945e-008    1.7944e-009    
  0.94            -1.467e-008     1.9346e-009    
  0.93            -1.4802e-008    1.43e-009      
  0.92            -1.4442e-008    1.5154e-009    
  0.91            -1.3651e-008    1.6109e-009    
  0.9             -1.31e-008      1.7259e-009    
  0.89            -1.3054e-008    1.8605e-009    
  0.88            -1.4667e-008    1.9979e-009    
  0.87            -1.4825e-008    1.46e-009      
  0.86            -1.6115e-008    1.5503e-009    
  0.85            -1.3016e-008    1.1758e-009    
  0.84            -1.3149e-008    1.8758e-009    
  0.83            -1.4688e-008    2.0141e-009    
  0.82            -1.4836e-008    1.4712e-009    
  0.81            -1.3871e-008    1.5662e-009    
  0.8             -1.3315e-008    1.6714e-009    
  0.79            -1.2979e-008    1.8014e-009    
  0.78            -1.4576e-008    1.9422e-009    
  0.77            -1.4807e-008    1.4274e-009    
  0.76            -1.444e-008     1.5147e-009    
  0.75            -1.3557e-008    1.6182e-009    
  0.74            -1.3084e-008    1.7264e-009    
  0.73            -1.3073e-008    1.8636e-009    
  0.72            -1.4655e-008    2.001e-009     
  0.71            -1.4797e-008    1.4625e-009    
  0.7             -1.5959e-008    1.5472e-009    
  0.69            -1.3024e-008    1.1745e-009    
  0.68            -1.3157e-008    1.8812e-009    
  0.67            -1.4597e-008    2.016e-009     
  0.66            -1.4745e-008    1.4737e-009    
  0.65            -1.5901e-008    1.5687e-009    
  0.64            -1.3045e-008    1.1807e-009    
  0.63            -1.3146e-008    1.9031e-009    
  0.62            -1.4695e-008    2.0423e-009    
  0.61            -1.4654e-008    1.4886e-009    
  0.6             -1.3717e-008    1.585e-009     
  0.59            -1.3223e-008    1.6977e-009    
  0.58            -1.304e-008     1.8244e-009    
  0.57            -1.4513e-008    1.9626e-009    
  0.56            -1.4751e-008    1.4435e-009    
  0.55            -1.4183e-008    1.5283e-009    
  0.54            -1.3429e-008    1.6307e-009    
  0.53            -1.308e-008     1.7555e-009    
  0.52            -1.3209e-008    1.8895e-009    
  0.51            -1.4653e-008    2.0276e-009    
  0.5             -1.4695e-008    1.4824e-009    
  0.49            -1.5754e-008    1.571e-009     
  0.48            -1.3077e-008    1.1903e-009    
  0.47            -1.3155e-008    1.9059e-009    
  0.46            -1.4777e-008    2.044e-009     
  0.45            -1.4562e-008    1.495e-009     
  0.44            -1.3734e-008    1.5886e-009    
  0.43            -1.3183e-008    1.7043e-009    
  0.42            -1.308e-008     1.8336e-009    
  0.41            -1.4528e-008    1.9766e-009    
  0.4             -1.4802e-008    1.4486e-009    
  0.39            -1.4181e-008    1.5304e-009    
  0.38            -1.3469e-008    1.6394e-009    
  0.37            -1.3045e-008    1.763e-009     
  0.36            -1.3184e-008    1.8918e-009    
  0.35            -1.459e-008     2.0252e-009    
  0.34            -1.4663e-008    1.4854e-009    
  0.33            -1.5804e-008    1.579e-009     
  0.32            -1.2995e-008    1.1928e-009    
  0.31            -1.4496e-008    1.9199e-009    
  0.3             -1.4709e-008    1.4173e-009    
  0.29            -1.4533e-008    1.4985e-009    
  0.28            -1.5639e-008    1.5913e-009    
  0.27            -1.3024e-008    1.2059e-009    
  0.26            -1.4541e-008    1.9359e-009    
  0.25            -1.4703e-008    1.4298e-009    
  0.24            -1.4313e-008    1.5093e-009    
  0.23            -1.5557e-008    1.6122e-009    
  0.22            -1.3018e-008    1.2193e-009    
  0.21            -1.4552e-008    1.9583e-009    
  0.2             -1.4695e-008    1.4394e-009    
  0.19            -1.4211e-008    1.5292e-009    
  0.18            -1.354e-008     1.6278e-009    
  0.17            -1.3143e-008    1.7465e-009    
  0.16            -1.3134e-008    1.8833e-009    
  0.15            -1.4543e-008    2.0234e-009    
  0.14            -1.4632e-008    1.483e-009     
  0.13            -1.5957e-008    1.5746e-009    
  0.12            -1.3077e-008    1.19e-009      
  0.11            -1.3285e-008    1.9077e-009    
  0.1             -1.4636e-008    2.0431e-009    
  0.09            -1.4606e-008    1.4932e-009    
  0.08            -1.5799e-008    1.5842e-009    
  0.07            -1.3056e-008    1.1973e-009    
  0.06            -1.432e-008     1.9243e-009    
  0.05            -1.4655e-008    1.4207e-009    
  0.04            -1.4433e-008    1.4988e-009    
  0.03            -1.5686e-008    1.6033e-009    
  0.02            -1.3082e-008    1.2104e-009    
  0.01            -1.4444e-008    1.9425e-009    
  0               -1.4709e-008    1.4301e-009    
  -0.01           -1.3033e-008    3.834e-010     
  -0.02           -1.4571e-008    1.9816e-009    
  -0.03           -1.4738e-008    1.451e-009     
  -0.04           -1.4049e-008    1.5373e-009    
  -0.05           -1.3441e-008    1.6412e-009    
  -0.06           -1.3019e-008    1.7687e-009    
  -0.07           -1.3177e-008    1.9009e-009    
  -0.08           -1.4638e-008    2.0365e-009    
  -0.09           -1.4566e-008    1.4892e-009    
  -0.1            -1.5795e-008    1.5851e-009    
  -0.11           -1.3073e-008    1.1939e-009    
  -0.12           -1.4354e-008    1.922e-009     
  -0.13           -1.4619e-008    1.4118e-009    
  -0.14           -1.4521e-008    1.4935e-009    
  -0.15           -1.5661e-008    1.5879e-009    
  -0.16           -1.3049e-008    1.2006e-009    
  -0.17           -1.4347e-008    1.9252e-009    
  -0.18           -1.4628e-008    1.4073e-009    
  -0.19           -1.421e-008     1.4814e-009    
  -0.2            -1.5631e-008    1.565e-009     
  -0.21           -1.3137e-008    1.1437e-009    
  -0.22           -1.4163e-008    1.8568e-009    
  -0.23           -1.4323e-008    1.2801e-009    
  -0.24           -1.3787e-008    1.2987e-009    
  -0.25           -1.3113e-008    1.2894e-009    
  -0.26           -1.2634e-008    1.2533e-009    
  -0.27           -1.253e-008     1.1475e-009    
  -0.28           -1.3283e-008    9.561e-010     
  -0.29           -1.3478e-008    -2.2571e-009   
  -0.3            -6.705e-009     -2.3629e-009   
  -0.31           -1.1848e-008    -2.4915e-009   
  -0.32           2.59e-010       -3.4855e-009   
  -0.33           1.6439e-008     -6.5095e-009   
  -0.34           1.728e-008      -1.0101e-008   
  -0.35           9.112e-009      -1.4241e-008   
  -0.36           2.6395e-008     -2.161e-008    
  -0.37           2.5858e-008     -3.0851e-008   
  -0.38           5.1564e-008     -4.584e-008    
  -0.39           5.8448e-008     -6.4645e-008   
  -0.4            1.04041e-007    -9.7591e-008   
  -0.41           1.4914e-007     -1.4145e-007   
  -0.42           2.014e-007      -2.0671e-007   
  -0.43           3.0164e-007     -2.9889e-007   
  -0.44           4.3247e-007     -4.2934e-007   
  -0.45           6.361e-007      -6.4116e-007   
  -0.46           9.2722e-007     -9.1576e-007   
  -0.47           1.3796e-006     -1.3649e-006   
  -0.48           1.9498e-006     -1.9658e-006   
  -0.49           2.832e-006      -2.8164e-006   
  -0.5            4.1463e-006     -4.157e-006    
  -0.51           5.9456e-006     -5.9394e-006   
  -0.52           8.6539e-006     -8.6546e-006   
  -0.53           1.2192e-005     -1.2187e-005   
  -0.54           1.7069e-005     -1.7047e-005   
  -0.55           2.4126e-005     -2.4134e-005   
  -0.56           3.2869e-005     -3.2827e-005   
  -0.57           4.5046e-005     -4.5022e-005   
  -0.58           5.9412e-005     -5.9399e-005   
  -0.59           7.7242e-005     -7.7188e-005   
  -0.6            0.000100341     -0.000100301   
  -0.61           0.00012565      -0.00012566    
  -0.62           0.00015794      -0.00015785    
  -0.63           0.0001924       -0.00019228    
  -0.64           0.00023499      -0.00023484    
  -0.65           0.00027947      -0.00027948    
  -0.66           0.00032941      -0.00032929    
  -0.67           0.00038932      -0.00038913    
  -0.68           0.00045071      -0.00045068    
  -0.69           0.00052446      -0.00052437    
  -0.7            0.00059926      -0.0005992     
  -0.71           0.00068089      -0.00068086    
  -0.72           0.00077636      -0.00077656    
  -0.73           0.000873        -0.00087294    
  -0.74           0.00098532      -0.00098516    
  -0.75           0.00109737      -0.00109703    
  -0.76           0.0012172       -0.0012169     
  -0.77           0.001355        -0.0013541     
  -0.78           0.0014894       -0.0014892     
  -0.79           0.0016452       -0.0016443     
  -0.8            0.0017965       -0.001795      
  -0.81           0.0019559       -0.0019537     
  -0.82           0.002133        -0.0021327     
  -0.83           0.0023084       -0.0023075     
  -0.84           0.0025019       -0.0025011     
  -0.85           0.0026891       -0.0026884     
  -0.86           0.0028803       -0.0028793     
  -0.87           0.0030947       -0.0030928     
  -0.88           0.0032988       -0.0032985     
