! VERSION = 6.00
BEGIN_HEADER
 ICCAP_INPUTS
  VU1        V  E GROUND SMU1 0.1 CON        0
  VU2        V  S GROUND SMU4 0.1 CON        0
  VP         V  C GROUND SMU3 0.04 CON        0
  VN         V  B GROUND SMU2 0.04 LIN        1    3          -0.9       391  -0.01     
 ICCAP_OUTPUTS
  IP         I  C GROUND SMU3 B
  IN         I  B GROUND SMU2 B
END_HEADER

BEGIN_DB
 ICCAP_VAR VU1        0              
 ICCAP_VAR VU2        0              
 ICCAP_VAR VP         0              

 #VN              IP              IN             
  3               -5.301e-009     -9.843e-010    
  2.99            5.103e-009      1.1005e-009    
  2.98            1.4113e-008     1.819e-009     
  2.97            1.1943e-008     2.6924e-009    
  2.96            1.3129e-008     2.0942e-009    
  2.95            1.3546e-008     2.2025e-009    
  2.94            1.2987e-008     2.3166e-009    
  2.93            8.582e-009      1.3516e-009    
  2.92            1.3027e-008     2.029e-009     
  2.91            1.3318e-008     2.1288e-009    
  2.9             1.343e-008      2.2387e-009    
  2.89            1.4325e-008     1.7944e-009    
  2.88            1.1982e-008     2.6449e-009    
  2.87            1.3038e-008     2.0596e-009    
  2.86            1.4292e-008     1.6206e-009    
  2.85            1.2649e-008     2.3722e-009    
  2.84            1.2108e-008     2.5233e-009    
  2.83            1.1979e-008     2.7092e-009    
  2.82            1.3203e-008     2.1016e-009    
  2.81            1.3558e-008     2.2031e-009    
  2.8             1.4547e-008     1.7582e-009    
  2.79            1.3787e-008     1.8598e-009    
  2.78            1.2034e-008     2.7738e-009    
  2.77            1.3407e-008     2.1323e-009    
  2.76            1.3476e-008     2.244e-009     
  2.75            7.574e-009      1.2898e-009    
  2.74            1.3177e-008     1.9683e-009    
  2.73            1.3099e-008     2.0706e-009    
  2.72            1.3504e-008     2.1739e-009    
  2.71            1.3047e-008     2.2919e-009    
  2.7             8.331e-009      1.33e-009      
  2.69            1.31e-008       2.0106e-009    
  2.68            1.3322e-008     2.1036e-009    
  2.67            1.3438e-008     2.2156e-009    
  2.66            1.4418e-008     1.7678e-009    
  2.65            1.1927e-008     2.6075e-009    
  2.64            1.3056e-008     2.0462e-009    
  2.63            1.3987e-008     1.6003e-009    
  2.62            1.2808e-008     2.3443e-009    
  2.61            1.2196e-008     2.4946e-009    
  2.6             1.1829e-008     2.6721e-009    
  2.59            1.3206e-008     2.0747e-009    
  2.58            1.3573e-008     2.1828e-009    
  2.57            1.3034e-008     2.3099e-009    
  2.56            1.383e-008      1.8482e-009    
  2.55            1.2007e-008     2.7409e-009    
  2.54            1.3362e-008     2.1182e-009    
  2.53            1.3457e-008     2.229e-009     
  2.52            1.4247e-008     1.7794e-009    
  2.51            1.1923e-008     2.6295e-009    
  2.5             1.3142e-008     2.0542e-009    
  2.49            1.426e-008      1.6107e-009    
  2.48            1.2693e-008     2.3605e-009    
  2.47            1.2124e-008     2.5166e-009    
  2.46            1.1889e-008     2.6942e-009    
  2.45            1.3281e-008     2.0922e-009    
  2.44            1.3541e-008     2.1999e-009    
  2.43            1.436e-008      1.7543e-009    
  2.42            1.1912e-008     2.5769e-009    
  2.41            1.2035e-008     2.7621e-009    
  2.4             1.3466e-008     2.1278e-009    
  2.39            1.3471e-008     2.2322e-009    
  2.38            1.4202e-008     1.7879e-009    
  2.37            1.1844e-008     2.6443e-009    
  2.36            1.3215e-008     2.0653e-009    
  2.35            1.3601e-008     2.161e-009     
  2.34            1.3237e-008     2.2803e-009    
  2.33            1.3856e-008     1.8245e-009    
  2.32            1.1896e-008     2.7099e-009    
  2.31            1.343e-008      2.0974e-009    
  2.3             1.3653e-008     2.2047e-009    
  2.29            1.4371e-008     1.7631e-009    
  2.28            1.1925e-008     2.5931e-009    
  2.27            1.3224e-008     2.0361e-009    
  2.26            1.4012e-008     1.5875e-009    
  2.25            1.2844e-008     2.333e-009     
  2.24            1.3686e-008     1.8649e-009    
  2.23            1.2046e-008     2.7789e-009    
  2.22            1.3962e-008     1.5914e-009    
  2.21            1.2838e-008     2.3387e-009    
  2.2             1.2243e-008     2.4923e-009    
  2.19            1.1849e-008     2.6717e-009    
  2.18            1.3279e-008     2.0752e-009    
  2.17            1.3664e-008     2.176e-009     
  2.16            1.4595e-008     1.736e-009     
  2.15            1.3751e-008     1.8345e-009    
  2.14            1.2008e-008     2.7325e-009    
  2.13            1.3445e-008     2.1102e-009    
  2.12            1.3564e-008     2.2147e-009    
  2.11            1.4238e-008     1.7748e-009    
  2.1             1.1938e-008     2.6177e-009    
  2.09            1.3179e-008     2.0458e-009    
  2.08            1.4196e-008     1.6022e-009    
  2.07            1.2718e-008     2.3471e-009    
  2.06            1.2177e-008     2.508e-009     
  2.05            1.1866e-008     2.6803e-009    
  2.04            1.3387e-008     2.0801e-009    
  2.03            1.3571e-008     2.1873e-009    
  2.02            1.4491e-008     1.7363e-009    
  2.01            1.2035e-008     2.5696e-009    
  2               1.1917e-008     2.7424e-009    
  1.99            1.3514e-008     2.1195e-009    
  1.98            1.3473e-008     2.2237e-009    
  1.97            1.418e-008      1.7754e-009    
  1.96            1.1866e-008     2.6336e-009    
  1.95            1.3376e-008     2.0492e-009    
  1.94            1.4139e-008     1.6111e-009    
  1.93            1.4607e-008     1.7156e-009    
  1.92            1.2127e-008     2.5188e-009    
  1.91            1.1935e-008     2.6987e-009    
  1.9             1.3391e-008     2.0893e-009    
  1.89            1.3602e-008     2.1942e-009    
  1.88            1.4304e-008     1.7524e-009    
  1.87            1.1945e-008     2.588e-009     
  1.86            1.2068e-008     2.7686e-009    
  1.85            1.3876e-008     1.5867e-009    
  1.84            1.2886e-008     2.3194e-009    
  1.83            1.2232e-008     2.4773e-009    
  1.82            1.1853e-008     2.654e-009     
  1.81            1.3418e-008     2.0591e-009    
  1.8             1.369e-008      2.1635e-009    
  1.79            1.3132e-008     2.2871e-009    
  1.78            1.2363e-008     2.4272e-009    
  1.77            1.183e-008      2.6059e-009    
  1.76            1.3361e-008     2.0349e-009    
  1.75            1.3809e-008     1.5918e-009    
  1.74            1.2785e-008     2.3413e-009    
  1.73            1.3667e-008     1.8684e-009    
  1.72            1.1971e-008     2.7868e-009    
  1.71            1.3866e-008     1.5944e-009    
  1.7             1.2751e-008     2.3432e-009    
  1.69            1.2121e-008     2.5e-009       
  1.68            1.1817e-008     2.6744e-009    
  1.67            1.351e-008      2.0758e-009    
  1.66            1.3735e-008     2.1757e-009    
  1.65            1.4262e-008     1.7367e-009    
  1.64            1.1913e-008     2.5621e-009    
  1.63            1.2006e-008     2.7437e-009    
  1.62            1.3562e-008     2.1136e-009    
  1.61            1.3606e-008     2.2164e-009    
  1.6             1.4021e-008     1.7762e-009    
  1.59            1.1839e-008     2.6323e-009    
  1.58            1.3351e-008     2.0512e-009    
  1.57            1.4124e-008     1.6093e-009    
  1.56            1.4519e-008     1.7135e-009    
  1.55            1.2021e-008     2.5194e-009    
  1.54            1.1856e-008     2.6996e-009    
  1.53            1.3471e-008     2.0832e-009    
  1.52            1.373e-008      2.1949e-009    
  1.51            1.4156e-008     1.7435e-009    
  1.5             1.1901e-008     2.5805e-009    
  1.49            1.3319e-008     2.0218e-009    
  1.48            1.3725e-008     1.581e-009     
  1.47            1.2907e-008     2.3258e-009    
  1.46            1.2121e-008     2.4785e-009    
  1.45            1.1871e-008     2.6585e-009    
  1.44            1.3369e-008     2.0633e-009    
  1.43            1.43e-008       1.6176e-009    
  1.42            1.4366e-008     1.7188e-009    
  1.41            1.1975e-008     2.5476e-009    
  1.4             1.188e-008      2.7211e-009    
  1.39            1.3549e-008     2.0992e-009    
  1.38            1.3622e-008     2.2066e-009    
  1.37            1.4039e-008     1.7639e-009    
  1.36            1.1946e-008     2.6125e-009    
  1.35            1.3314e-008     2.0364e-009    
  1.34            1.3939e-008     1.5948e-009    
  1.33            1.2789e-008     2.3402e-009    
  1.32            1.1999e-008     2.5009e-009    
  1.31            1.192e-008      2.6792e-009    
  1.3             1.3477e-008     2.071e-009     
  1.29            1.387e-008      2.1759e-009    
  1.28            1.4244e-008     1.735e-009     
  1.27            1.1924e-008     2.5686e-009    
  1.26            1.2029e-008     2.7454e-009    
  1.25            1.3645e-008     1.5699e-009    
  1.24            1.2925e-008     2.3075e-009    
  1.23            1.222e-008      2.4639e-009    
  1.22            1.1914e-008     2.6343e-009    
  1.21            1.3463e-008     2.05e-009      
  1.2             1.4122e-008     1.5981e-009    
  1.19            1.2582e-008     2.359e-009     
  1.18            1.1986e-008     2.5207e-009    
  1.17            1.1827e-008     2.7015e-009    
  1.16            1.3602e-008     2.0793e-009    
  1.15            1.3641e-008     2.1899e-009    
  1.14            1.4125e-008     1.7466e-009    
  1.13            1.1928e-008     2.5879e-009    
  1.12            1.336e-008      2.022e-009     
  1.11            1.386e-008      1.584e-009     
  1.1             1.2816e-008     2.3202e-009    
  1.09            1.2021e-008     2.482e-009     
  1.08            1.1786e-008     2.662e-009     
  1.07            1.3439e-008     2.0538e-009    
  1.06            1.3754e-008     2.162e-009     
  1.05            1.3034e-008     2.2855e-009    
  1.04            1.2213e-008     2.4361e-009    
  1.03            1.1966e-008     2.6028e-009    
  1.02            1.3441e-008     2.0296e-009    
  1.01            1.3722e-008     2.1334e-009    
  1               1.3288e-008     2.2483e-009    
  0.99            1.2309e-008     2.3924e-009    
  0.98            1.189e-008      2.5589e-009    
  0.97            1.2044e-008     2.7325e-009    
  0.96            1.3596e-008     1.5645e-009    
  0.95            1.2904e-008     2.2966e-009    
  0.94            1.2205e-008     2.4509e-009    
  0.93            1.1835e-008     2.6263e-009    
  0.92            1.3419e-008     2.0414e-009    
  0.91            1.3741e-008     2.138e-009     
  0.9             1.3137e-008     2.2641e-009    
  0.89            1.3879e-008     1.8062e-009    
  0.88            1.2021e-008     2.693e-009     
  0.87            1.3625e-008     2.0722e-009    
  0.86            1.3636e-008     2.1836e-009    
  0.85            1.4159e-008     1.7399e-009    
  0.84            1.1909e-008     2.5837e-009    
  0.83            1.2056e-008     2.7629e-009    
  0.82            1.3645e-008     1.5748e-009    
  0.81            1.2785e-008     2.3184e-009    
  0.8             1.2146e-008     2.4693e-009    
  0.79            1.1859e-008     2.6556e-009    
  0.78            1.3465e-008     2.0466e-009    
  0.77            1.3701e-008     2.1519e-009    
  0.76            1.4367e-008     1.7101e-009    
  0.75            1.3962e-008     1.8223e-009    
  0.74            1.1971e-008     2.7196e-009    
  0.73            1.3667e-008     2.0874e-009    
  0.72            1.359e-008      2.1899e-009    
  0.71            1.411e-008      1.7538e-009    
  0.7             1.1827e-008     2.5948e-009    
  0.69            1.3457e-008     2.0218e-009    
  0.68            1.3811e-008     1.5806e-009    
  0.67            1.2664e-008     2.3275e-009    
  0.66            1.199e-008      2.488e-009     
  0.65            1.188e-008      2.6702e-009    
  0.64            1.3523e-008     2.0545e-009    
  0.63            1.3701e-008     2.1654e-009    
  0.62            1.2889e-008     2.2877e-009    
  0.61            1.2108e-008     2.4355e-009    
  0.6             1.1857e-008     2.6145e-009    
  0.59            1.3521e-008     2.03e-009      
  0.58            1.4069e-008     1.5827e-009    
  0.57            1.2565e-008     2.3377e-009    
  0.56            1.2058e-008     2.4981e-009    
  0.55            1.1828e-008     2.6784e-009    
  0.54            1.3572e-008     2.0668e-009    
  0.53            1.3676e-008     2.1689e-009    
  0.52            1.4312e-008     1.7333e-009    
  0.51            1.1916e-008     2.5664e-009    
  0.5             1.2007e-008     2.7394e-009    
  0.49            1.3683e-008     1.5605e-009    
  0.48            1.2731e-008     2.302e-009     
  0.47            1.2113e-008     2.4564e-009    
  0.46            1.1894e-008     2.6244e-009    
  0.45            1.3546e-008     2.039e-009     
  0.44            1.4245e-008     1.5942e-009    
  0.43            1.2484e-008     2.3522e-009    
  0.42            1.1968e-008     2.5174e-009    
  0.41            1.1878e-008     2.6939e-009    
  0.4             1.3569e-008     2.071e-009     
  0.39            1.3676e-008     2.1834e-009    
  0.38            1.4178e-008     1.7372e-009    
  0.37            1.189e-008      2.582e-009     
  0.36            1.36e-008       2.0096e-009    
  0.35            1.3862e-008     1.5619e-009    
  0.34            1.2666e-008     2.3138e-009    
  0.33            1.2207e-008     2.4708e-009    
  0.32            1.18e-008       2.6508e-009    
  0.31            1.3573e-008     2.0412e-009    
  0.3             1.3694e-008     2.1471e-009    
  0.29            1.3027e-008     2.2747e-009    
  0.28            1.2323e-008     2.4175e-009    
  0.27            1.1888e-008     2.5873e-009    
  0.26            1.3453e-008     2.0113e-009    
  0.25            1.3733e-008     2.1145e-009    
  0.24            1.3347e-008     2.2287e-009    
  0.23            8.276e-009      1.2746e-009    
  0.22            1.3434e-008     1.9503e-009    
  0.21            1.3492e-008     2.0442e-009    
  0.2             1.3692e-008     2.1537e-009    
  0.19            1.4294e-008     1.709e-009     
  0.18            1.1964e-008     2.542e-009     
  0.17            1.2074e-008     2.7282e-009    
  0.16            1.3631e-008     2.085e-009     
  0.15            1.3528e-008     2.1978e-009    
  0.14            7.914e-009      1.2455e-009    
  0.13            1.3578e-008     1.9286e-009    
  0.12            1.3413e-008     2.0261e-009    
  0.11            1.3798e-008     2.1213e-009    
  0.1             1.3189e-008     2.2424e-009    
  0.09            1.3897e-008     1.7938e-009    
  0.08            1.1974e-008     2.6805e-009    
  0.07            1.3574e-008     2.0584e-009    
  0.06            1.369e-008      2.1707e-009    
  0.05            1.4158e-008     1.7235e-009    
  0.04            1.1938e-008     2.5654e-009    
  0.03            1.3458e-008     1.9955e-009    
  0.02            1.3781e-008     1.5554e-009    
  0.01            1.2846e-008     2.3005e-009    
  0               1.2189e-008     2.4568e-009    
  -0.01           1.3613e-008     1.8679e-009    
  -0.02           1.2023e-008     2.8009e-009    
  -0.03           1.4331e-008     1.5911e-009    
  -0.04           1.43e-008       1.6981e-009    
  -0.05           1.3804e-008     1.799e-009     
  -0.06           1.1964e-008     2.6969e-009    
  -0.07           1.3518e-008     1.5337e-009    
  -0.08           1.3062e-008     2.2649e-009    
  -0.09           1.3822e-008     1.7978e-009    
  -0.1            1.2086e-008     2.7002e-009    
  -0.11           1.3621e-008     1.5315e-009    
  -0.12           1.3002e-008     2.2637e-009    
  -0.13           1.3749e-008     1.791e-009     
  -0.14           1.2065e-008     2.6887e-009    
  -0.15           1.3752e-008     2.0471e-009    
  -0.16           1.3599e-008     2.1456e-009    
  -0.17           1.4045e-008     1.6771e-009    
  -0.18           1.1994e-008     2.5037e-009    
  -0.19           1.3647e-008     1.8753e-009    
  -0.2            1.3953e-008     1.917e-009     
  -0.21           1.3551e-008     1.9388e-009    
  -0.22           1.2916e-008     1.9514e-009    
  -0.23           1.258e-008      1.9039e-009    
  -0.24           1.3043e-008     1.7979e-009    
  -0.25           1.508e-008      7.534e-010     
  -0.26           1.558e-008      2.066e-010     
  -0.27           1.5494e-008     -2.5127e-009   
  -0.28           1.7137e-008     -1.9611e-009   
  -0.29           1.7327e-008     -3.1571e-009   
  -0.3            1.9229e-008     -5.943e-009    
  -0.31           1.3212e-008     -1.3261e-008   
  -0.32           3.0768e-008     -1.6995e-008   
  -0.33           1.4493e-008     -2.8455e-008   
  -0.34           5.1796e-008     -3.7614e-008   
  -0.35           4.4258e-008     -5.831e-008    
  -0.36           9.5381e-008     -8.1628e-008   
  -0.37           1.0505e-007     -1.1782e-007   
  -0.38           1.7147e-007     -1.8016e-007   
  -0.39           2.5857e-007     -2.5361e-007   
  -0.4            3.7017e-007     -3.7019e-007   
  -0.41           5.3961e-007     -5.4305e-007   
  -0.42           7.8421e-007     -7.8489e-007   
  -0.43           1.1329e-006     -1.1463e-006   
  -0.44           1.6568e-006     -1.6443e-006   
  -0.45           2.336e-006      -2.3499e-006   
  -0.46           3.4684e-006     -3.457e-006    
  -0.47           4.9138e-006     -4.924e-006    
  -0.48           7.2219e-006     -7.2081e-006   
  -0.49           1.02085e-005    -1.02162e-005  
  -0.5            1.4397e-005     -1.4394e-005   
  -0.51           2.0685e-005     -2.0661e-005   
  -0.52           2.8596e-005     -2.8587e-005   
  -0.53           4.0042e-005     -4.001e-005    
  -0.54           5.3902e-005     -5.39e-005     
  -0.55           7.148e-005      -7.1405e-005   
  -0.56           9.4739e-005     -9.4816e-005   
  -0.57           0.00012076      -0.00012067    
  -0.58           0.00015422      -0.00015402    
  -0.59           0.00018965      -0.00018951    
  -0.6            0.00022994      -0.00022988    
  -0.61           0.00027837      -0.0002783     
  -0.62           0.00032811      -0.000328      
  -0.63           0.00038762      -0.00038764    
  -0.64           0.00044837      -0.00044847    
  -0.65           0.00051502      -0.00051474    
  -0.66           0.00059317      -0.00059288    
  -0.67           0.00067302      -0.00067307    
  -0.68           0.00076701      -0.0007669     
  -0.69           0.00086268      -0.00086249    
  -0.7            0.00096719      -0.00096712    
  -0.71           0.00109086      -0.00109096    
  -0.72           0.0012169       -0.0012166     
  -0.73           0.0013662       -0.0013656     
  -0.74           0.001519        -0.0015175     
  -0.75           0.0016848       -0.0016836     
  -0.76           0.00188         -0.0018798     
  -0.77           0.0020788       -0.0020787     
  -0.78           0.0023135       -0.0023126     
  -0.79           0.002551        -0.0025499     
  -0.8            0.0028068       -0.002806      
  -0.81           0.0031054       -0.0031044     
  -0.82           0.0034039       -0.0034021     
  -0.83           0.0037468       -0.0037471     
  -0.84           0.0040917       -0.0040906     
  -0.85           0.0044556       -0.0044544     
  -0.86           0.0048732       -0.0048725     
  -0.87           0.0052836       -0.0052826     
  -0.88           0.00575         -0.0057492     
