! VERSION = 6.00
BEGIN_HEADER
 ICCAP_INPUTS
  VU1        V  E GROUND SMU1 0.1 CON        0
  VU2        V  S GROUND SMU4 0.1 CON        0
  VN         V  B GROUND SMU3 0.015 CON        0
  VP         V  C GROUND SMU2 0.015 LIN        1    -3         0.9        391  0.01      
 ICCAP_OUTPUTS
  IP         I  C GROUND SMU2 B
  IN         I  B GROUND SMU3 B
END_HEADER

BEGIN_DB
 ICCAP_VAR VU1        0              
 ICCAP_VAR VU2        0              
 ICCAP_VAR VN         0              

 #VP              IP              IN             
  -3              2.4505e-009     1.5711e-009    
  -2.99           2.7477e-009     -2.142e-009    
  -2.98           2.441e-009      -3.5921e-009   
  -2.97           2.0213e-009     -4.3314e-009   
  -2.96           -1.78e-010      -4.5107e-009   
  -2.95           -7.846e-010     -3.8801e-009   
  -2.94           -1.2757e-009    -3.1936e-009   
  -2.93           -2.5862e-009    -2.54e-010     
  -2.92           -2.2277e-009    2.5366e-009    
  -2.91           -2.3969e-009    3.2322e-009    
  -2.9            -2.525e-009     2.9211e-009    
  -2.89           -2.1359e-009    2.6831e-009    
  -2.88           -2.3045e-009    3.4332e-009    
  -2.87           -2.4544e-009    3.0773e-009    
  -2.86           -2.0462e-009    2.8102e-009    
  -2.85           1.467e-010      3.661e-009     
  -2.84           2.0752e-009     3.2735e-009    
  -2.83           2.0697e-009     -1.1602e-009   
  -2.82           -5.76e-011      -4.5101e-009   
  -2.81           -7.296e-010     -3.9426e-009   
  -2.8            -1.217e-009     -3.2828e-009   
  -2.79           -2.6287e-009    -3.387e-010    
  -2.78           -2.2784e-009    2.4684e-009    
  -2.77           -2.4338e-009    3.1231e-009    
  -2.76           -2.0157e-009    2.8519e-009    
  -2.75           2.083e-010      3.7361e-009    
  -2.74           2.1365e-009     3.233e-009     
  -2.73           2.0443e-009     -1.3325e-009   
  -2.72           -1.265e-010     -4.5196e-009   
  -2.71           -7.585e-010     -3.9056e-009   
  -2.7            -1.2476e-009    -3.2298e-009   
  -2.69           -2.6037e-009    -3.039e-010    
  -2.68           -2.2487e-009    2.5018e-009    
  -2.67           -2.4134e-009    3.1805e-009    
  -2.66           -2.5417e-009    2.8931e-009    
  -2.65           -2.158e-009     2.6514e-009    
  -2.64           -2.3306e-009    3.3752e-009    
  -2.63           -2.4731e-009    3.0444e-009    
  -2.62           -2.0656e-009    2.7805e-009    
  -2.61           8.75e-011       3.5989e-009    
  -2.6            2.038e-009      3.3159e-009    
  -2.59           2.0919e-009     -1.0245e-009   
  -2.58           2.2652e-009     -4.4944e-009   
  -2.57           2.428e-009      -4.4108e-009   
  -2.56           2.5634e-009     -4.3601e-009   
  -2.55           2.173e-009      -4.2158e-009   
  -2.54           2.3464e-009     -4.4526e-009   
  -2.53           2.4859e-009     -4.3734e-009   
  -2.52           2.083e-009      -4.3136e-009   
  -2.51           2.2502e-009     -4.5075e-009   
  -2.5            2.4156e-009     -4.4039e-009   
  -2.49           2.5487e-009     -4.3633e-009   
  -2.48           2.1591e-009     -4.263e-009    
  -2.47           2.3309e-009     -4.4561e-009   
  -2.46           2.4764e-009     -4.3999e-009   
  -2.45           2.0694e-009     -4.3379e-009   
  -2.44           -7.21e-011      -4.5305e-009   
  -2.43           -7.347e-010     -3.9256e-009   
  -2.42           -1.2222e-009    -3.2723e-009   
  -2.41           -2.6253e-009    -3.305e-010    
  -2.4            -2.2726e-009    2.47e-009      
  -2.39           -2.4281e-009    3.1331e-009    
  -2.38           -2.0094e-009    2.8549e-009    
  -2.37           2.177e-010      3.7455e-009    
  -2.36           2.1491e-009     3.2209e-009    
  -2.35           2.0418e-009     -1.3282e-009   
  -2.34           -1.284e-010     -4.5134e-009   
  -2.33           -7.613e-010     -3.9006e-009   
  -2.32           -1.2543e-009    -3.2249e-009   
  -2.31           -2.6112e-009    -2.947e-010    
  -2.3            -2.2445e-009    2.5093e-009    
  -2.29           -2.4109e-009    3.1709e-009    
  -2.28           -2.5435e-009    2.8828e-009    
  -2.27           -2.1618e-009    2.6485e-009    
  -2.26           -2.3258e-009    3.3798e-009    
  -2.25           -2.4728e-009    3.0297e-009    
  -2.24           -2.0727e-009    2.7721e-009    
  -2.23           8.2e-011        3.587e-009     
  -2.22           2.0302e-009     3.3185e-009    
  -2.21           2.0984e-009     -1.0113e-009   
  -2.2            2.271e-009      -4.5078e-009   
  -2.19           2.4306e-009     -4.4097e-009   
  -2.18           2.0177e-009     -4.3748e-009   
  -2.17           -1.98e-010      -4.5109e-009   
  -2.16           -7.948e-010     -3.9012e-009   
  -2.15           -1.2899e-009    -3.1603e-009   
  -2.14           -2.5753e-009    -2.246e-010    
  -2.13           -2.2219e-009    2.5605e-009    
  -2.12           -2.384e-009     3.2496e-009    
  -2.11           -2.5064e-009    2.9535e-009    
  -2.1            -2.1334e-009    2.6982e-009    
  -2.09           -2.3002e-009    3.4456e-009    
  -2.08           -2.4373e-009    3.0947e-009    
  -2.07           -2.0417e-009    2.8267e-009    
  -2.06           1.558e-010      3.6824e-009    
  -2.05           2.0934e-009     3.2782e-009    
  -2.04           2.074e-009      -1.1709e-009   
  -2.03           -6.97e-011      -4.5245e-009   
  -2.02           -7.349e-010     -3.9578e-009   
  -2.01           -1.2236e-009    -3.2627e-009   
  -2              -2.6257e-009    -3.477e-010    
  -1.99           -2.2714e-009    2.4645e-009    
  -1.98           -2.4143e-009    3.14e-009      
  -1.97           -2.0189e-009    2.8509e-009    
  -1.96           2.074e-010      3.7419e-009    
  -1.95           2.148e-009      3.238e-009     
  -1.94           2.0486e-009     -1.3149e-009   
  -1.93           -1.188e-010     -4.5293e-009   
  -1.92           -7.633e-010     -3.9371e-009   
  -1.91           -1.2482e-009    -3.2288e-009   
  -1.9            -2.607e-009     -2.983e-010    
  -1.89           -2.2438e-009    2.5011e-009    
  -1.88           -2.4002e-009    3.1856e-009    
  -1.87           -2.5353e-009    2.8949e-009    
  -1.86           -2.1614e-009    2.6498e-009    
  -1.85           -2.3219e-009    3.3782e-009    
  -1.84           -2.4618e-009    3.0366e-009    
  -1.83           -2.0733e-009    2.7721e-009    
  -1.82           8.73e-011       3.6101e-009    
  -1.81           2.0345e-009     3.3172e-009    
  -1.8            2.1004e-009     -9.941e-010    
  -1.79           2.2624e-009     -4.5155e-009   
  -1.78           2.4143e-009     -4.4265e-009   
  -1.77           2.5526e-009     -4.3669e-009   
  -1.76           2.1797e-009     -4.2314e-009   
  -1.75           2.3339e-009     -4.4762e-009   
  -1.74           2.4666e-009     -4.4183e-009   
  -1.73           2.0942e-009     -4.2999e-009   
  -1.72           -2.73e-011      -4.5037e-009   
  -1.71           -7.22e-010      -3.9681e-009   
  -1.7            -1.2025e-009    -3.2893e-009   
  -1.69           -2.6355e-009    -3.707e-010    
  -1.68           -2.282e-009     2.4485e-009    
  -1.67           -2.4249e-009    3.1201e-009    
  -1.66           -2.0288e-009    2.8473e-009    
  -1.65           1.854e-010      3.7201e-009    
  -1.64           2.1273e-009     3.2528e-009    
  -1.63           2.0546e-009     -1.2808e-009   
  -1.62           -1.021e-010     -4.5201e-009   
  -1.61           -7.542e-010     -3.9412e-009   
  -1.6            -1.2335e-009    -3.2206e-009   
  -1.59           -2.5957e-009    -3.066e-010    
  -1.58           -2.261e-009     2.4835e-009    
  -1.57           -2.4095e-009    3.1712e-009    
  -1.56           -2.5318e-009    2.882e-009     
  -1.55           -2.1673e-009    2.6358e-009    
  -1.54           -2.3336e-009    3.3596e-009    
  -1.53           -2.4632e-009    3.0361e-009    
  -1.52           -2.0731e-009    2.772e-009     
  -1.51           7.77e-011       3.5912e-009    
  -1.5            2.0269e-009     3.3217e-009    
  -1.49           2.1008e-009     -1.0054e-009   
  -1.48           2.2759e-009     -4.4651e-009   
  -1.47           2.4181e-009     -4.4279e-009   
  -1.46           2.5426e-009     -4.3877e-009   
  -1.45           2.1856e-009     -4.2048e-009   
  -1.44           2.3465e-009     -4.4407e-009   
  -1.43           2.4715e-009     -4.3873e-009   
  -1.42           2.0977e-009     -4.3164e-009   
  -1.41           2.2629e-009     -4.508e-009    
  -1.4            2.4071e-009     -4.4203e-009   
  -1.39           2.5326e-009     -4.3731e-009   
  -1.38           2.1716e-009     -4.2174e-009   
  -1.37           2.3313e-009     -4.4721e-009   
  -1.36           2.4588e-009     -4.4012e-009   
  -1.35           2.0908e-009     -4.3225e-009   
  -1.34           -5.23e-011      -4.5161e-009   
  -1.33           -7.32e-010      -3.9582e-009   
  -1.32           -1.2155e-009    -3.2727e-009   
  -1.31           -2.6236e-009    -3.564e-010    
  -1.3            -2.2785e-009    2.4567e-009    
  -1.29           -2.4169e-009    3.1289e-009    
  -1.28           -2.0262e-009    2.8525e-009    
  -1.27           1.977e-010      3.7309e-009    
  -1.26           2.1336e-009     3.247e-009     
  -1.25           2.0548e-009     -1.297e-009    
  -1.24           -1.079e-010     -4.5228e-009   
  -1.23           -7.572e-010     -3.941e-009    
  -1.22           -1.2423e-009    -3.2127e-009   
  -1.21           -2.5973e-009    -2.972e-010    
  -1.2            -2.2538e-009    2.5032e-009    
  -1.19           -2.4028e-009    3.1824e-009    
  -1.18           -2.5296e-009    2.8918e-009    
  -1.17           -2.1679e-009    2.6432e-009    
  -1.16           -2.3235e-009    3.3763e-009    
  -1.15           -2.4542e-009    3.0407e-009    
  -1.14           -2.0779e-009    2.7779e-009    
  -1.13           8.7e-011        3.6083e-009    
  -1.12           2.0352e-009     3.3265e-009    
  -1.11           2.1052e-009     -9.944e-010    
  -1.1            2.2683e-009     -4.506e-009    
  -1.09           2.4076e-009     -4.424e-009    
  -1.08           2.5427e-009     -4.3629e-009   
  -1.07           2.1834e-009     -4.208e-009    
  -1.06           2.3379e-009     -4.4746e-009   
  -1.05           2.4671e-009     -4.3995e-009   
  -1.04           2.0962e-009     -4.3158e-009   
  -1.03           2.2535e-009     -4.517e-009    
  -1.02           2.3993e-009     -4.4333e-009   
  -1.01           2.5313e-009     -4.3781e-009   
  -1              2.1714e-009     -4.2241e-009   
  -0.99           2.3262e-009     -4.4714e-009   
  -0.98           2.4584e-009     -4.416e-009    
  -0.97           2.0858e-009     -4.3364e-009   
  -0.96           -6.09e-011      -4.5122e-009   
  -0.95           -7.312e-010     -3.9623e-009   
  -0.94           -1.2188e-009    -3.261e-009    
  -0.93           -2.6251e-009    -3.478e-010    
  -0.92           -2.2742e-009    2.473e-009     
  -0.91           -2.4183e-009    3.1398e-009    
  -0.9            -2.0179e-009    2.8621e-009    
  -0.89           2.128e-010      3.7361e-009    
  -0.88           2.1403e-009     3.2393e-009    
  -0.87           2.0467e-009     -1.3122e-009   
  -0.86           -1.111e-010     -4.5196e-009   
  -0.85           -7.579e-010     -3.9384e-009   
  -0.84           -1.2497e-009    -3.2106e-009   
  -0.83           -2.5998e-009    -3.018e-010    
  -0.82           -2.249e-009     2.4993e-009    
  -0.81           -2.4005e-009    3.1894e-009    
  -0.8            -2.5265e-009    2.9012e-009    
  -0.79           -2.1623e-009    2.6492e-009    
  -0.78           -2.3248e-009    3.3844e-009    
  -0.77           -2.452e-009     3.0471e-009    
  -0.76           -2.0801e-009    2.7824e-009    
  -0.75           8.44e-011       3.6046e-009    
  -0.74           2.037e-009      3.3262e-009    
  -0.73           2.1027e-009     -1.0215e-009   
  -0.72           2.2662e-009     -4.4973e-009   
  -0.71           2.4082e-009     -4.4369e-009   
  -0.7            2.5415e-009     -4.3696e-009   
  -0.69           2.1813e-009     -4.2295e-009   
  -0.68           2.3358e-009     -4.4496e-009   
  -0.67           2.4692e-009     -4.3979e-009   
  -0.66           2.0937e-009     -4.3399e-009   
  -0.65           2.2493e-009     -4.5197e-009   
  -0.64           2.3979e-009     -4.4216e-009   
  -0.63           2.5326e-009     -4.3972e-009   
  -0.62           2.1658e-009     -4.2489e-009   
  -0.61           2.325e-009      -4.4737e-009   
  -0.6            2.4565e-009     -4.3972e-009   
  -0.59           2.0779e-009     -4.319e-009    
  -0.58           -6.5e-011       -4.5251e-009   
  -0.57           -7.387e-010     -3.9618e-009   
  -0.56           -1.2244e-009    -3.2603e-009   
  -0.55           -2.6192e-009    -3.407e-010    
  -0.54           -2.273e-009     2.4704e-009    
  -0.53           -2.415e-009     3.1505e-009    
  -0.52           -2.0133e-009    2.8656e-009    
  -0.51           2.161e-010      3.7441e-009    
  -0.5            2.1508e-009     3.2324e-009    
  -0.49           2.0418e-009     -1.3457e-009   
  -0.48           -1.236e-010     -4.515e-009    
  -0.47           -7.639e-010     -3.9311e-009   
  -0.46           -1.255e-009     -3.2093e-009   
  -0.45           -2.5961e-009    -2.897e-010    
  -0.44           -2.2434e-009    2.5193e-009    
  -0.43           -2.3959e-009    3.1964e-009    
  -0.42           -2.519e-009     2.9117e-009    
  -0.41           -2.1588e-009    2.6625e-009    
  -0.4            -2.3196e-009    3.3944e-009    
  -0.39           -2.4529e-009    3.0584e-009    
  -0.38           -2.0676e-009    2.7966e-009    
  -0.37           1.012e-010      3.627e-009     
  -0.36           2.0542e-009     3.3119e-009    
  -0.35           2.0921e-009     -1.0552e-009   
  -0.34           2.2591e-009     -4.5212e-009   
  -0.33           2.4038e-009     -4.4268e-009   
  -0.32           2.5337e-009     -4.3735e-009   
  -0.31           2.1748e-009     -4.253e-009    
  -0.3            2.3298e-009     -4.455e-009    
  -0.29           2.4609e-009     -4.3987e-009   
  -0.28           2.0837e-009     -4.3192e-009   
  -0.27           -4.97e-011      -4.5356e-009   
  -0.26           -7.307e-010     -3.9669e-009   
  -0.25           -1.2165e-009    -3.2623e-009   
  -0.24           -2.6258e-009    -3.433e-010    
  -0.23           -2.2778e-009    2.4739e-009    
  -0.22           -2.4213e-009    3.1398e-009    
  -0.21           -2.0209e-009    2.8614e-009    
  -0.2            2.029e-010      3.7306e-009    
  -0.19           2.1466e-009     3.2422e-009    
  -0.18           2.0502e-009     -1.3087e-009   
  -0.17           -1.137e-010     -4.5217e-009   
  -0.16           -7.599e-010     -3.9347e-009   
  -0.15           -1.248e-009     -3.2147e-009   
  -0.14           -2.5976e-009    -2.989e-010    
  -0.13           -2.2497e-009    2.5094e-009    
  -0.12           -2.4039e-009    3.1857e-009    
  -0.11           -2.5199e-009    2.9109e-009    
  -0.1            -2.1601e-009    2.6547e-009    
  -0.09           -2.3208e-009    3.3969e-009    
  -0.08           -2.4603e-009    3.0496e-009    
  -0.07           -2.0626e-009    2.793e-009     
  -0.06           1.047e-010      3.6166e-009    
  -0.05           2.0531e-009     3.3028e-009    
  -0.04           2.0898e-009     -1.0651e-009   
  -0.03           2.2579e-009     -4.4997e-009   
  -0.02           2.4134e-009     -4.4169e-009   
  -0.01           2.5455e-009     -4.3869e-009   
  0               2.3561e-009     2.504e-010     
  0.01            2.4993e-009     -4.3859e-009   
  0.02            2.1013e-009     -4.311e-009    
  0.03            2.2693e-009     -4.4892e-009   
  0.04            2.4262e-009     -4.3987e-009   
  0.05            2.5573e-009     -4.3743e-009   
  0.06            2.1717e-009     -4.2148e-009   
  0.07            2.3398e-009     -4.4409e-009   
  0.08            2.4844e-009     -4.392e-009    
  0.09            2.0818e-009     -4.3247e-009   
  0.1             2.2444e-009     -4.5244e-009   
  0.11            2.4067e-009     -4.4154e-009   
  0.12            2.5472e-009     -4.3661e-009   
  0.13            2.1512e-009     -4.2599e-009   
  0.14            2.3179e-009     -4.4562e-009   
  0.15            2.4678e-009     -4.3877e-009   
  0.16            2.063e-009      -4.3074e-009   
  0.17            -7.88e-011      -4.5301e-009   
  0.18            -7.339e-010     -3.9004e-009   
  0.19            -1.2239e-009    -3.2716e-009   
  0.2             -2.624e-009     -3.267e-010    
  0.21            -2.2437e-009    2.471e-009     
  0.22            -2.4062e-009    3.1401e-009    
  0.23            -2.5421e-009    2.854e-009     
  0.24            -2.1467e-009    2.6115e-009    
  0.25            -2.3052e-009    3.3333e-009    
  0.26            -2.4471e-009    2.9956e-009    
  0.27            -2.0285e-009    2.7301e-009    
  0.28            1.299e-010      3.5303e-009    
  0.29            2.1029e-009     3.2638e-009    
  0.3             2.2242e-009     -1.1473e-009   
  0.31            2.4517e-009     -5.0588e-009   
  0.32            2.6827e-009     -5.0763e-009   
  0.33            2.3944e-009     -5.1987e-009   
  0.34            1.9579e-009     -6.3462e-009   
  0.35            2.4201e-009     -5.5187e-009   
  0.36            2.0522e-009     -7.9255e-009   
  0.37            2.8292e-009     -5.6635e-009   
  0.38            4.891e-009      -1.0245e-008   
  0.39            2.2972e-009     -1.5331e-008   
  0.4             3.4849e-009     -1.8091e-008   
  0.41            4.759e-009      -1.9822e-008   
  0.42            1.0711e-008     -1.071e-008    
  0.43            1.099e-008      -2.007e-008    
  0.44            2.1564e-008     -1.3325e-008   
  0.45            2.5567e-008     -3.1788e-008   
  0.46            4.2575e-008     -3.7854e-008   
  0.47            5.4981e-008     -5.7942e-008   
  0.48            8.6397e-008     -8.4413e-008   
  0.49            1.2084e-007     -1.2842e-007   
  0.5             1.7319e-007     -1.7066e-007   
  0.51            2.464e-007      -2.5575e-007   
  0.52            3.4361e-007     -3.2857e-007   
  0.53            4.8525e-007     -4.9908e-007   
  0.54            6.5803e-007     -6.4579e-007   
  0.55            8.9575e-007     -9.0628e-007   
  0.56            1.1707e-006     -1.1682e-006   
  0.57            1.502e-006      -1.5042e-006   
  0.58            1.9192e-006     -1.9089e-006   
  0.59            2.3506e-006     -2.3609e-006   
  0.6             2.8867e-006     -2.8644e-006   
  0.61            3.4162e-006     -3.4174e-006   
  0.62            3.9999e-006     -3.9609e-006   
  0.63            4.6797e-006     -4.6476e-006   
  0.64            5.2872e-006     -5.2843e-006   
  0.65            6.0253e-006     -6.0146e-006   
  0.66            6.8124e-006     -6.7395e-006   
  0.67            7.5083e-006     -7.4964e-006   
  0.68            8.299e-006      -8.262e-006    
  0.69            9.0524e-006     -9.0641e-006   
  0.7             9.9183e-006     -9.8753e-006   
  0.71            1.08181e-005    -1.07747e-005  
  0.72            1.1582e-005     -1.1597e-005   
  0.73            1.2533e-005     -1.2502e-005   
  0.74            1.3372e-005     -1.346e-005    
  0.75            1.4364e-005     -1.4419e-005   
  0.76            1.5399e-005     -1.5397e-005   
  0.77            1.6388e-005     -1.6337e-005   
  0.78            1.7108e-005     -1.7172e-005   
  0.79            1.8109e-005     -1.8099e-005   
  0.8             1.923e-005      -1.9152e-005   
  0.81            2.0283e-005     -2.0292e-005   
  0.82            2.1221e-005     -2.1374e-005   
  0.83            2.2574e-005     -2.2444e-005   
  0.84            2.3254e-005     -2.3495e-005   
  0.85            2.4648e-005     -2.4517e-005   
  0.86            2.5686e-005     -2.5758e-005   
  0.87            2.6848e-005     -2.6901e-005   
  0.88            2.811e-005      -2.8186e-005   
