! VERSION = 6.00
BEGIN_HEADER
 ICCAP_INPUTS
  VU1        V  E GROUND SMU1 0.1 CON        0
  VU2        V  S GROUND SMU4 0.1 CON        0
  VN         V  B GROUND SMU3 0.015 CON        0
  VP         V  C GROUND SMU2 0.015 LIN        1    -3         1          401  0.01      
 ICCAP_OUTPUTS
  IP         I  C GROUND SMU2 B
  IN         I  B GROUND SMU3 B
END_HEADER

BEGIN_DB
 ICCAP_VAR VU1        0              
 ICCAP_VAR VU2        0              
 ICCAP_VAR VN         0              

 #VP              IP              IN             
  -3              -1.8757e-009    -7.222e-009    
  -2.99           -8.588e-010     -1.2634e-008   
  -2.98           -9.616e-010     -1.4329e-008   
  -2.97           -1.0745e-009    -1.4887e-008   
  -2.96           -6.269e-010     -7.328e-009    
  -2.95           -7.306e-010     -9.493e-009    
  -2.94           -8.25e-010      -1.2022e-008   
  -2.93           -9.292e-010     -1.4001e-008   
  -2.92           -1.0361e-009    -1.4984e-008   
  -2.91           -5.924e-010     -6.805e-009    
  -2.9            -6.988e-010     -8.728e-009    
  -2.89           -7.959e-010     -1.1425e-008   
  -2.88           -8.95e-010      -1.3531e-008   
  -2.87           -1.0027e-009    -1.4748e-008   
  -2.86           -1.1164e-009    -1.4226e-008   
  -2.85           -6.684e-010     -8.032e-009    
  -2.84           -7.663e-010     -1.0812e-008   
  -2.83           -8.635e-010     -1.3005e-008   
  -2.82           -9.657e-010     -1.4413e-008   
  -2.81           -1.0809e-009    -1.4687e-008   
  -2.8            -6.314e-010     -7.267e-009    
  -2.79           -7.321e-010     -9.679e-009    
  -2.78           -8.294e-010     -1.2257e-008   
  -2.77           -9.311e-010     -1.4145e-008   
  -2.76           -1.0354e-009    -1.4955e-008   
  -2.75           -5.928e-010     -6.75e-009     
  -2.74           -6.988e-010     -8.612e-009    
  -2.73           -7.974e-010     -1.1461e-008   
  -2.72           -9.004e-010     -1.353e-008    
  -2.71           -1.0069e-009    -1.4919e-008   
  -2.7            -1.1201e-009    -1.4526e-008   
  -2.69           -6.688e-010     -7.936e-009    
  -2.68           -7.676e-010     -1.0566e-008   
  -2.67           -8.61e-010      -1.2967e-008   
  -2.66           -9.726e-010     -1.4542e-008   
  -2.65           -1.0879e-009    -1.4854e-008   
  -2.64           -6.321e-010     -7.387e-009    
  -2.63           -7.314e-010     -9.602e-009    
  -2.62           -8.293e-010     -1.224e-008    
  -2.61           -9.345e-010     -1.4114e-008   
  -2.6            -1.0395e-009    -1.5055e-008   
  -2.59           -5.985e-010     -6.847e-009    
  -2.58           -7.062e-010     -8.841e-009    
  -2.57           -8.042e-010     -1.1668e-008   
  -2.56           -9.051e-010     -1.3716e-008   
  -2.55           -1.0097e-009    -1.4893e-008   
  -2.54           -1.1258e-009    -1.4204e-008   
  -2.53           -6.752e-010     -8.181e-009    
  -2.52           -7.728e-010     -1.0969e-008   
  -2.51           -8.708e-010     -1.3094e-008   
  -2.5            -9.802e-010     -1.4634e-008   
  -2.49           -1.0888e-009    -1.4601e-008   
  -2.48           -6.419e-010     -7.857e-009    
  -2.47           -7.413e-010     -1.0024e-008   
  -2.46           -8.405e-010     -1.2536e-008   
  -2.45           -9.39e-010      -1.4209e-008   
  -2.44           -1.0457e-009    -1.4912e-008   
  -2.43           -6.059e-010     -6.904e-009    
  -2.42           -7.144e-010     -9.004e-009    
  -2.41           -8.121e-010     -1.193e-008    
  -2.4            -9.11e-010      -1.3771e-008   
  -2.39           -1.0184e-009    -1.4783e-008   
  -2.38           -5.712e-010     -6.466e-009    
  -2.37           -6.791e-010     -8.306e-009    
  -2.36           -7.757e-010     -1.1123e-008   
  -2.35           -8.758e-010     -1.3284e-008   
  -2.34           -9.811e-010     -1.4497e-008   
  -2.33           -1.0874e-009    -1.4536e-008   
  -2.32           -6.442e-010     -7.679e-009    
  -2.31           -7.441e-010     -1.0129e-008   
  -2.3            -8.425e-010     -1.261e-008    
  -2.29           -9.399e-010     -1.4233e-008   
  -2.28           -1.0484e-009    -1.4949e-008   
  -2.27           -6.106e-010     -7.033e-009    
  -2.26           -7.126e-010     -9.1e-009      
  -2.25           -8.06e-010      -1.17e-008     
  -2.24           -9.046e-010     -1.3754e-008   
  -2.23           -1.0154e-009    -1.4958e-008   
  -2.22           -5.721e-010     -6.525e-009    
  -2.21           -6.768e-010     -8.433e-009    
  -2.2            -7.771e-010     -1.0981e-008   
  -2.19           -8.72e-010      -1.3092e-008   
  -2.18           -9.817e-010     -1.4605e-008   
  -2.17           -1.0886e-009    -1.4712e-008   
  -2.16           -6.424e-010     -7.582e-009    
  -2.15           -7.447e-010     -9.973e-009    
  -2.14           -8.406e-010     -1.2343e-008   
  -2.13           -9.418e-010     -1.4175e-008   
  -2.12           -1.0549e-009    -1.4928e-008   
  -2.11           -6.105e-010     -7.079e-009    
  -2.1            -7.136e-010     -9.01e-009     
  -2.09           -8.106e-010     -1.1757e-008   
  -2.08           -9.084e-010     -1.3829e-008   
  -2.07           -1.0257e-009    -1.492e-008    
  -2.06           -5.74e-010      -6.69e-009     
  -2.05           -6.805e-010     -8.287e-009    
  -2.04           -7.778e-010     -1.0939e-008   
  -2.03           -8.746e-010     -1.3116e-008   
  -2.02           -9.815e-010     -1.4629e-008   
  -2.01           -1.0908e-009    -1.4631e-008   
  -2              -6.439e-010     -7.767e-009    
  -1.99           -7.468e-010     -1.0088e-008   
  -1.98           -8.42e-010      -1.2468e-008   
  -1.97           -9.413e-010     -1.4314e-008   
  -1.96           -1.0539e-009    -1.4946e-008   
  -1.95           -6.142e-010     -7.206e-009    
  -1.94           -7.112e-010     -9.247e-009    
  -1.93           -8.101e-010     -1.1919e-008   
  -1.92           -9.081e-010     -1.3988e-008   
  -1.91           -1.018e-009     -1.4913e-008   
  -1.9            -5.765e-010     -6.521e-009    
  -1.89           -6.819e-010     -8.582e-009    
  -1.88           -7.776e-010     -1.1258e-008   
  -1.87           -8.804e-010     -1.3334e-008   
  -1.86           -9.798e-010     -1.4683e-008   
  -1.85           -1.095e-009     -1.441e-008    
  -1.84           -6.502e-010     -7.927e-009    
  -1.83           -7.482e-010     -1.0404e-008   
  -1.82           -8.473e-010     -1.2683e-008   
  -1.81           -9.463e-010     -1.4312e-008   
  -1.8            -1.0525e-009    -1.4833e-008   
  -1.79           -6.143e-010     -7.184e-009    
  -1.78           -7.136e-010     -9.419e-009    
  -1.77           -8.079e-010     -1.2183e-008   
  -1.76           -9.117e-010     -1.394e-008    
  -1.75           -1.0193e-009    -1.499e-008    
  -1.74           -5.777e-010     -6.782e-009    
  -1.73           -6.815e-010     -8.556e-009    
  -1.72           -7.794e-010     -1.1457e-008   
  -1.71           -8.783e-010     -1.3374e-008   
  -1.7            -9.81e-010      -1.4613e-008   
  -1.69           -1.0938e-009    -1.4493e-008   
  -1.68           -6.525e-010     -7.813e-009    
  -1.67           -7.456e-010     -1.0506e-008   
  -1.66           -8.449e-010     -1.2805e-008   
  -1.65           -9.485e-010     -1.4304e-008   
  -1.64           -1.066e-009     -1.4838e-008   
  -1.63           -6.159e-010     -7.2e-009      
  -1.62           -7.198e-010     -9.592e-009    
  -1.61           -8.156e-010     -1.2084e-008   
  -1.6            -9.233e-010     -1.4016e-008   
  -1.59           -1.0199e-009    -1.4804e-008   
  -1.58           -5.761e-010     -6.653e-009    
  -1.57           -6.85e-010      -8.587e-009    
  -1.56           -7.819e-010     -1.1509e-008   
  -1.55           -8.774e-010     -1.3527e-008   
  -1.54           -9.795e-010     -1.464e-008    
  -1.53           -1.0997e-009    -1.4322e-008   
  -1.52           -6.502e-010     -7.886e-009    
  -1.51           -7.486e-010     -1.0515e-008   
  -1.5            -8.476e-010     -1.289e-008    
  -1.49           -9.51e-010      -1.4436e-008   
  -1.48           -1.0655e-009    -1.4764e-008   
  -1.47           -6.153e-010     -7.27e-009     
  -1.46           -7.149e-010     -9.558e-009    
  -1.45           -8.13e-010      -1.2217e-008   
  -1.44           -9.174e-010     -1.4132e-008   
  -1.43           -1.0202e-009    -1.4885e-008   
  -1.42           -5.772e-010     -6.666e-009    
  -1.41           -6.84e-010      -8.735e-009    
  -1.4            -7.822e-010     -1.149e-008    
  -1.39           -8.828e-010     -1.3578e-008   
  -1.38           -9.855e-010     -1.4827e-008   
  -1.37           -1.0968e-009    -1.4271e-008   
  -1.36           -6.55e-010      -8.041e-009    
  -1.35           -7.515e-010     -1.0488e-008   
  -1.34           -8.465e-010     -1.2834e-008   
  -1.33           -9.512e-010     -1.4475e-008   
  -1.32           -1.0632e-009    -1.4742e-008   
  -1.31           -6.16e-010      -7.313e-009    
  -1.3            -7.17e-010      -9.585e-009    
  -1.29           -8.153e-010     -1.222e-008    
  -1.28           -9.161e-010     -1.4045e-008   
  -1.27           -1.0205e-009    -1.5018e-008   
  -1.26           -5.787e-010     -6.719e-009    
  -1.25           -6.848e-010     -8.766e-009    
  -1.24           -7.842e-010     -1.1655e-008   
  -1.23           -8.847e-010     -1.3421e-008   
  -1.22           -9.903e-010     -1.4603e-008   
  -1.21           -1.1056e-009    -1.4164e-008   
  -1.2            -6.556e-010     -8.178e-009    
  -1.19           -7.519e-010     -1.0843e-008   
  -1.18           -8.5e-010       -1.3027e-008   
  -1.17           -9.54e-010      -1.4262e-008   
  -1.16           -1.0676e-009    -1.4486e-008   
  -1.15           -6.214e-010     -7.442e-009    
  -1.14           -7.201e-010     -9.774e-009    
  -1.13           -8.198e-010     -1.2382e-008   
  -1.12           -9.18e-010      -1.4136e-008   
  -1.11           -1.0253e-009    -1.472e-008    
  -1.1            -5.84e-010      -6.931e-009    
  -1.09           -6.899e-010     -8.951e-009    
  -1.08           -7.854e-010     -1.1785e-008   
  -1.07           -8.832e-010     -1.366e-008    
  -1.06           -9.898e-010     -1.4568e-008   
  -1.05           -5.433e-010     -6.213e-009    
  -1.04           -6.577e-010     -8.158e-009    
  -1.03           -7.525e-010     -1.0887e-008   
  -1.02           -8.492e-010     -1.3167e-008   
  -1.01           -9.568e-010     -1.4356e-008   
  -1              -1.0646e-009    -1.4577e-008   
  -0.99           -6.199e-010     -7.38e-009     
  -0.98           -7.208e-010     -9.9e-009      
  -0.97           -8.148e-010     -1.2452e-008   
  -0.96           -9.163e-010     -1.4189e-008   
  -0.95           -1.0201e-009    -1.478e-008    
  -0.94           -5.863e-010     -6.866e-009    
  -0.93           -6.899e-010     -8.941e-009    
  -0.92           -7.858e-010     -1.1803e-008   
  -0.91           -8.847e-010     -1.3685e-008   
  -0.9            -9.907e-010     -1.4707e-008   
  -0.89           -5.431e-010     -6.336e-009    
  -0.88           -6.535e-010     -8.208e-009    
  -0.87           -7.518e-010     -1.0835e-008   
  -0.86           -8.515e-010     -1.3022e-008   
  -0.85           -9.556e-010     -1.4415e-008   
  -0.84           -1.0614e-009    -1.4674e-008   
  -0.83           -6.181e-010     -7.421e-009    
  -0.82           -7.177e-010     -9.834e-009    
  -0.81           -8.11e-010      -1.2313e-008   
  -0.8            -9.107e-010     -1.4156e-008   
  -0.79           -1.0209e-009    -1.4874e-008   
  -0.78           -5.79e-010      -6.916e-009    
  -0.77           -6.85e-010      -8.768e-009    
  -0.76           -7.796e-010     -1.1645e-008   
  -0.75           -8.791e-010     -1.3661e-008   
  -0.74           -9.877e-010     -1.4736e-008   
  -0.73           -1.0987e-009    -1.4263e-008   
  -0.72           -6.472e-010     -8.019e-009    
  -0.71           -7.467e-010     -1.0668e-008   
  -0.7            -8.455e-010     -1.2919e-008   
  -0.69           -9.386e-010     -1.4399e-008   
  -0.68           -1.0512e-009    -1.4681e-008   
  -0.67           -6.089e-010     -7.331e-009    
  -0.66           -7.142e-010     -9.617e-009    
  -0.65           -8.071e-010     -1.2304e-008   
  -0.64           -9.065e-010     -1.4006e-008   
  -0.63           -1.0091e-009    -1.484e-008    
  -0.62           -5.708e-010     -6.651e-009    
  -0.61           -6.753e-010     -8.542e-009    
  -0.6            -7.702e-010     -1.1492e-008   
  -0.59           -8.728e-010     -1.3486e-008   
  -0.58           -9.784e-010     -1.4635e-008   
  -0.57           -1.0842e-009    -1.4315e-008   
  -0.56           -6.368e-010     -7.823e-009    
  -0.55           -7.352e-010     -1.0459e-008   
  -0.54           -8.345e-010     -1.282e-008    
  -0.53           -9.303e-010     -1.4336e-008   
  -0.52           -1.0378e-009    -1.4686e-008   
  -0.51           -6.03e-010      -7.1e-009      
  -0.5            -7.008e-010     -9.337e-009    
  -0.49           -7.945e-010     -1.2013e-008   
  -0.48           -8.906e-010     -1.3976e-008   
  -0.47           -1.0054e-009    -1.4825e-008   
  -0.46           -5.575e-010     -6.576e-009    
  -0.45           -6.661e-010     -8.409e-009    
  -0.44           -7.585e-010     -1.1203e-008   
  -0.43           -8.581e-010     -1.3231e-008   
  -0.42           -9.601e-010     -1.4528e-008   
  -0.41           -1.0682e-009    -1.4508e-008   
  -0.4            -6.254e-010     -7.686e-009    
  -0.39           -7.271e-010     -1.0178e-008   
  -0.38           -8.173e-010     -1.2547e-008   
  -0.37           -9.146e-010     -1.4197e-008   
  -0.36           -1.0218e-009    -1.4808e-008   
  -0.35           -5.824e-010     -6.893e-009    
  -0.34           -6.859e-010     -9.036e-009    
  -0.33           -7.815e-010     -1.1709e-008   
  -0.32           -8.752e-010     -1.3615e-008   
  -0.31           -9.857e-010     -1.4714e-008   
  -0.3            -5.426e-010     -6.277e-009    
  -0.29           -6.511e-010     -8.28e-009     
  -0.28           -7.429e-010     -1.081e-008    
  -0.27           -8.428e-010     -1.2996e-008   
  -0.26           -9.381e-010     -1.4425e-008   
  -0.25           -1.0501e-009    -1.4653e-008   
  -0.24           -6.094e-010     -7.397e-009    
  -0.23           -7.102e-010     -9.78e-009     
  -0.22           -8.017e-010     -1.2272e-008   
  -0.21           -9.033e-010     -1.4001e-008   
  -0.2            -1.0054e-009    -1.4847e-008   
  -0.19           -5.671e-010     -6.678e-009    
  -0.18           -6.747e-010     -8.67e-009     
  -0.17           -7.646e-010     -1.1475e-008   
  -0.16           -8.671e-010     -1.34e-008     
  -0.15           -9.683e-010     -1.4598e-008   
  -0.14           -1.0788e-009    -1.4339e-008   
  -0.13           -6.331e-010     -7.955e-009    
  -0.12           -7.334e-010     -1.049e-008    
  -0.11           -8.286e-010     -1.2689e-008   
  -0.1            -9.283e-010     -1.4249e-008   
  -0.09           -1.0348e-009    -1.4669e-008   
  -0.08           -5.957e-010     -7.181e-009    
  -0.07           -6.961e-010     -9.407e-009    
  -0.06           -7.879e-010     -1.203e-008    
  -0.05           -8.866e-010     -1.371e-008    
  -0.04           -9.931e-010     -1.4718e-008   
  -0.03           -5.531e-010     -6.46e-009     
  -0.02           -6.58e-010      -8.412e-009    
  -0.01           -7.498e-010     -1.1169e-008   
  0               2.2021e-009     -3.734e-009    
  0.01            2.232e-009      -3.767e-009    
  0.02            2.2572e-009     -3.86e-009     
  0.03            2.2818e-009     -3.855e-009    
  0.04            -7.306e-010     -1.0469e-008   
  0.05            -8.23e-010      -1.2747e-008   
  0.06            -9.223e-010     -1.4129e-008   
  0.07            -1.0322e-009    -1.4642e-008   
  0.08            -5.925e-010     -7.149e-009    
  0.09            -6.882e-010     -9.261e-009    
  0.1             -7.828e-010     -1.1919e-008   
  0.11            -8.844e-010     -1.3715e-008   
  0.12            -9.828e-010     -1.4766e-008   
  0.13            -5.45e-010      -6.414e-009    
  0.14            -6.493e-010     -8.343e-009    
  0.15            -7.445e-010     -1.0996e-008   
  0.16            -8.366e-010     -1.2973e-008   
  0.17            -9.326e-010     -1.44e-008     
  0.18            -1.04e-009      -1.4572e-008   
  0.19            -5.977e-010     -7.704e-009    
  0.2             -6.898e-010     -9.869e-009    
  0.21            -7.752e-010     -1.2451e-008   
  0.22            -8.638e-010     -1.4058e-008   
  0.23            -9.655e-010     -1.4797e-008   
  0.24            -5.075e-010     -6.774e-009    
  0.25            -5.826e-010     -8.9e-009      
  0.26            -6.474e-010     -1.1571e-008   
  0.27            -7.018e-010     -1.3625e-008   
  0.28            -7.477e-010     -1.4816e-008   
  0.29            -7.812e-010     -1.4544e-008   
  0.3             2.1336e-009     -8.377e-009    
  0.31            2.3268e-009     -7.971e-009    
  0.32            2.5864e-009     -7.549e-009    
  0.33            2.1084e-009     -7.23e-009     
  0.34            2.545e-009      -1.517e-008    
  0.35            2.4077e-009     -1.6214e-008   
  0.36            2.026e-009      -1.3996e-008   
  0.37            2.4115e-009     -1.6942e-008   
  0.38            3.7699e-009     -1.8936e-008   
  0.39            4.957e-009      -1.6531e-008   
  0.4             1.1443e-008     -1.4232e-008   
  0.41            1.255e-008      -1.3419e-008   
  0.42            2.2418e-008     -2.2094e-008   
  0.43            2.7248e-008     -2.6962e-008   
  0.44            4.1293e-008     -4.2491e-008   
  0.45            5.692e-008      -5.5316e-008   
  0.46            8.2465e-008     -8.5078e-008   
  0.47            1.2011e-007     -1.2374e-007   
  0.48            1.6777e-007     -1.6106e-007   
  0.49            2.3866e-007     -2.5249e-007   
  0.5             3.4976e-007     -3.3641e-007   
  0.51            4.9887e-007     -5.1087e-007   
  0.52            7.3558e-007     -7.2242e-007   
  0.53            1.0439e-006     -1.05304e-006  
  0.54            1.504e-006      -1.4942e-006   
  0.55            2.2164e-006     -2.2273e-006   
  0.56            3.1892e-006     -3.1883e-006   
  0.57            4.7167e-006     -4.7109e-006   
  0.58            6.7977e-006     -6.8078e-006   
  0.59            9.7619e-006     -9.7548e-006   
  0.6             1.4377e-005     -1.4348e-005   
  0.61            2.0483e-005     -2.0434e-005   
  0.62            2.9844e-005     -2.9834e-005   
  0.63            4.1943e-005     -4.1906e-005   
  0.64            5.8331e-005     -5.8278e-005   
  0.65            8.2064e-005     -8.2066e-005   
  0.66            0.00011087      -0.000110742   
  0.67            0.0001503       -0.00015013    
  0.68            0.00019546      -0.00019543    
  0.69            0.00024998      -0.00024971    
  0.7             0.00031968      -0.00031938    
  0.71            0.00039509      -0.00039487    
  0.72            0.00048855      -0.00048837    
  0.73            0.0005868       -0.0005866     
  0.74            0.00069735      -0.0006972     
  0.75            0.00082981      -0.00082973    
  0.76            0.00096594      -0.00096563    
  0.77            0.00112575      -0.00112527    
  0.78            0.0012881       -0.001287      
  0.79            0.0014633       -0.0014616     
  0.8             0.0016665       -0.0016645     
  0.81            0.0018671       -0.0018663     
  0.82            0.0020982       -0.002096      
  0.83            0.0023259       -0.0023237     
  0.84            0.0025654       -0.0025643     
  0.85            0.0028373       -0.0028364     
  0.86            0.0031022       -0.0031        
  0.87            0.0033997       -0.0033981     
  0.88            0.0036872       -0.0036864     
