! VERSION = 6.00
BEGIN_HEADER
 ICCAP_INPUTS
  vb         V  B GROUND SMU1 0.01 CON        0
  vc         V  C GROUND SMU2 0.1 CON        0
  ve         V  E GROUND SMU4 0.1 LIN        1    -0.6       -1         41   -0.01     
  vs         V  S GROUND SMU3 0.0001 CON        0
 ICCAP_OUTPUTS
  ib         I  B GROUND SMU1 B
  ic         I  C GROUND SMU2 B
END_HEADER

BEGIN_DB
 ICCAP_VAR vb         0              
 ICCAP_VAR vc         0              
 ICCAP_VAR vs         0              

 #ve              ib              ic             
  -0.6            -7.79e-010      3.348e-008     
  -0.61           1.5988e-009     5.1084e-008    
  -0.62           1.8792e-009     7.7113e-008    
  -0.63           1.5999e-009     1.11503e-007   
  -0.64           2.1675e-009     1.6109e-007    
  -0.65           3.5132e-009     2.4183e-007    
  -0.66           5.3637e-009     3.5586e-007    
  -0.67           6.2133e-009     5.1264e-007    
  -0.68           8.3138e-009     7.4234e-007    
  -0.69           1.4291e-008     1.10824e-006   
  -0.7            1.9832e-008     1.6159e-006    
  -0.71           2.7893e-008     2.3581e-006    
  -0.72           4.069e-008      3.422e-006     
  -0.73           5.8887e-008     4.9486e-006    
  -0.74           8.4284e-008     7.1511e-006    
  -0.75           1.1923e-007     1.01969e-005   
  -0.76           1.7068e-007     1.4423e-005    
  -0.77           2.4015e-007     2.0208e-005    
  -0.78           3.3524e-007     2.791e-005     
  -0.79           4.6148e-007     3.7954e-005    
  -0.8            1.06911e-005    0.00030559     
  -0.81           1.2036e-005     0.00032521     
  -0.82           1.3282e-005     0.00034476     
  -0.83           1.4511e-005     0.0003639      
  -0.84           1.5657e-005     0.00038313     
  -0.85           1.6796e-005     0.00040288     
  -0.86           1.7819e-005     0.00042294     
  -0.87           1.8826e-005     0.0004434      
  -0.88           1.9823e-005     0.00046497     
  -0.89           2.0754e-005     0.00048753     
  -0.9            2.1697e-005     0.00051057     
  -0.91           2.2549e-005     0.00053478     
  -0.92           2.3398e-005     0.00056013     
  -0.93           2.4166e-005     0.00058771     
  -0.94           2.4843e-005     0.00061606     
  -0.95           2.5475e-005     0.00064637     
  -0.96           2.6163e-005     0.00067944     
  -0.97           2.6661e-005     0.00071584     
  -0.98           2.7215e-005     0.00075637     
  -0.99           2.7585e-005     0.00079926     
  -1              2.7904e-005     0.00084553     
END_DB

