! VERSION = 6.00
BEGIN_HEADER
 ICCAP_INPUTS
  VU1        V  E GROUND SMU1 0.1 CON        0
  VU2        V  S GROUND SMU4 0.1 CON        0
  VN         V  B GROUND SMU3 0.015 CON        0
  VP         V  C GROUND SMU2 0.015 LIN        1    -0.6       0.6        121  0.01      
 ICCAP_OUTPUTS
  IP         I  C GROUND SMU2 B
  IN         I  B GROUND SMU3 B
END_HEADER

BEGIN_DB
 ICCAP_VAR VU1        0              
 ICCAP_VAR VU2        0              
 ICCAP_VAR VN         0              

 #VP              IP              IN             
  -0.6            -1.1581e-009    -1.4196e-008   
  -0.59           -1.3055e-009    -1.46e-008     
  -0.58           -1.427e-009     -1.2255e-008   
  -0.57           -5.199e-010     -1.5007e-008   
  -0.56           -1.1565e-009    -1.6579e-008   
  -0.55           -1.2299e-009    -1.6079e-008   
  -0.54           -1.3294e-009    -1.4007e-008   
  -0.53           -1.4648e-009    -1.1555e-008   
  -0.52           -5.43e-010      -1.5172e-008   
  -0.51           -1.1734e-009    -1.6687e-008   
  -0.5            -1.25e-009      -1.5635e-008   
  -0.49           -1.3564e-009    -1.3573e-008   
  -0.48           -1.5036e-009    -1.1055e-008   
  -0.47           -5.676e-010     -1.5067e-008   
  -0.46           -1.1893e-009    -1.6716e-008   
  -0.45           -1.2738e-009    -1.5148e-008   
  -0.44           -1.3907e-009    -1.2906e-008   
  -0.43           -4.944e-010     -1.4715e-008   
  -0.42           -1.135e-009     -1.663e-008    
  -0.41           -1.2074e-009    -1.6468e-008   
  -0.4            -1.2991e-009    -1.4773e-008   
  -0.39           -1.4281e-009    -1.2301e-008   
  -0.38           -5.144e-010     -1.4962e-008   
  -0.37           -1.153e-009     -1.6804e-008   
  -0.36           -1.2245e-009    -1.6148e-008   
  -0.35           -1.3248e-009    -1.417e-008    
  -0.34           -1.4594e-009    -1.1743e-008   
  -0.33           -5.408e-010     -1.5225e-008   
  -0.32           -1.1702e-009    -1.6656e-008   
  -0.31           -1.2497e-009    -1.5698e-008   
  -0.3            -1.3534e-009    -1.3599e-008   
  -0.29           -1.4996e-009    -1.1083e-008   
  -0.28           -5.635e-010     -1.5244e-008   
  -0.27           -1.1891e-009    -1.6653e-008   
  -0.26           -1.272e-009     -1.5262e-008   
  -0.25           -1.3867e-009    -1.302e-008    
  -0.24           -4.923e-010     -1.4652e-008   
  -0.23           -5.888e-010     -1.5019e-008   
  -0.22           -1.2055e-009    -1.6505e-008   
  -0.21           -1.2958e-009    -1.493e-008    
  -0.2            -1.4181e-009    -1.2337e-008   
  -0.19           -5.14e-010      -1.5265e-008   
  -0.18           -1.1541e-009    -1.6832e-008   
  -0.17           -1.2276e-009    -1.6559e-008   
  -0.16           -1.3193e-009    -1.4888e-008   
  -0.15           -1.4458e-009    -1.2327e-008   
  -0.14           -5.374e-010     -1.5564e-008   
  -0.13           -1.1717e-009    -1.6511e-008   
  -0.12           -1.2457e-009    -1.6503e-008   
  -0.11           -1.3444e-009    -1.4893e-008   
  -0.1            -1.4733e-009    -1.2173e-008   
  -0.09           -5.588e-010     -1.5755e-008   
  -0.08           -1.1886e-009    -1.6561e-008   
  -0.07           -1.2684e-009    -1.6372e-008   
  -0.06           -1.3696e-009    -1.4312e-008   
  -0.05           -1.5159e-009    -1.1505e-008   
  -0.04           -5.867e-010     -1.6007e-008   
  -0.03           -1.207e-009     -1.6699e-008   
  -0.02           -1.2896e-009    -1.5839e-008   
  -0.01           -1.3999e-009    -1.3517e-008   
  0               -9.579e-010     -1.2075e-008   
  0.01            -5.28e-010      -1.5723e-008   
  0.02            -1.1622e-009    -1.6268e-008   
  0.03            -1.2477e-009    -1.6272e-008   
  0.04            -1.3502e-009    -1.4735e-008   
  0.05            -1.4827e-009    -1.1726e-008   
  0.06            -5.51e-010      -1.6044e-008   
  0.07            -1.1799e-009    -1.6285e-008   
  0.08            -1.2646e-009    -1.5211e-008   
  0.09            -1.3751e-009    -1.3822e-008   
  0.1             -4.71e-010      -1.3163e-008   
  0.11            -5.803e-010     -1.5911e-008   
  0.12            -1.2047e-009    -1.6608e-008   
  0.13            -1.296e-009     -1.5769e-008   
  0.14            -1.4133e-009    -1.3016e-008   
  0.15            -5.01e-010      -1.5081e-008   
  0.16            -6.043e-010     -1.556e-008    
  0.17            -1.2244e-009    -1.6236e-008   
  0.18            -1.3197e-009    -1.5034e-008   
  0.19            -1.4483e-009    -1.2404e-008   
  0.2             -5.253e-010     -1.5645e-008   
  0.21            -1.1623e-009    -1.6129e-008   
  0.22            -1.2479e-009    -1.6288e-008   
  0.23            -1.3416e-009    -1.4494e-008   
  0.24            -1.4763e-009    -1.1704e-008   
  0.25            -5.391e-010     -1.577e-008    
  0.26            -1.1626e-009    -1.6378e-008   
  0.27            -1.2401e-009    -1.5907e-008   
  0.28            -1.3404e-009    -1.3703e-008   
  0.29            -1.466e-009     -1.1086e-008   
  0.3             -4.809e-010     -1.5839e-008   
  0.31            -1.0609e-009    -1.6511e-008   
  0.32            -1.0831e-009    -1.5621e-008   
  0.33            -1.0999e-009    -1.3228e-008   
  0.34            1.8328e-009     -1.5973e-008   
  0.35            2.0561e-009     -1.5527e-008   
  0.36            2.368e-009      -1.464e-008    
  0.37            2.1924e-009     -1.3657e-008   
  0.38            2.1816e-009     -1.4467e-008   
  0.39            1.5691e-009     -1.4249e-008   
  0.4             2.6814e-009     -1.5038e-008   
  0.41            4.8019e-009     -1.4164e-008   
  0.42            1.124e-008      -1.6026e-008   
  0.43            1.3034e-008     -1.1094e-008   
  0.44            2.1856e-008     -2.4732e-008   
  0.45            2.9153e-008     -2.5368e-008   
  0.46            4.4978e-008     -4.7706e-008   
  0.47            6.5013e-008     -5.7805e-008   
  0.48            9.6114e-008     -1.1058e-007   
  0.49            1.4128e-007     -1.4666e-007   
  0.5             2.0697e-007     -1.9105e-007   
  0.51            3.0316e-007     -3.162e-007    
  0.52            4.4581e-007     -4.3104e-007   
  0.53            6.5372e-007     -6.6608e-007   
  0.54            9.6685e-007     -9.4974e-007   
  0.55            1.4129e-006     -1.4038e-006   
  0.56            2.073e-006      -2.0656e-006   
  0.57            3.0393e-006     -3.0495e-006   
  0.58            4.4525e-006     -4.4414e-006   
  0.59            6.4916e-006     -6.5039e-006   
  0.6             9.4605e-006     -9.4394e-006   
END_DB

