! VERSION = 6.00
BEGIN_HEADER
 ICCAP_INPUTS
  VG         V  B GROUND SMU4 0.001 LIN        1    0          1.8        37   0.05      
  VS         V  E GROUND SMU2 0.1 CON        0
  VB         V  C GROUND SMU3 0.1 LIN        3    0          -1.8       3    -0.9      
  VD         V  S GROUND SMU1 0.1 LIN        2    0.1        1.8        2    1.7       
 ICCAP_OUTPUTS
  IG         I  B GROUND SMU4 B
  ID         I  S GROUND SMU1 B
  IB         I  C GROUND SMU3 B
END_HEADER

BEGIN_DB
 ICCAP_VAR VS         0              
 ICCAP_VAR VB         0              
 ICCAP_VAR VD         0.1            

 #VG              IG              ID              IB             
  0               1.2681e-009     1.2638e-009     -1.1109e-008   
  0.05            2.8403e-009     5.16e-011       -9.634e-009    
  0.1             6.704e-010      2.3148e-009     -4.2e-011      
  0.15            -1.7895e-009    1.5471e-009     1.6729e-008    
  0.2             -1.5386e-009    -1.647e-009     4.071e-009     
  0.25            -1.085e-010     -1.967e-009     -1.1052e-008   
  0.3             -3.364e-010     -1.7725e-009    -1.1266e-008   
  0.35            2.8068e-009     2.3409e-009     -1.0984e-008   
  0.4             -1.302e-009     7.5336e-009     2.0665e-008    
  0.45            -1.2621e-009    1.983e-008      -2.571e-009    
  0.5             1.2584e-009     7.6991e-008     -2.4648e-008   
  0.55            -4.426e-010     2.393e-007      1.1471e-008    
  0.6             -8.837e-010     6.7656e-007     -1.0299e-008   
  0.65            2.3499e-009     1.6524e-006     1.4824e-008    
  0.7             -1.6886e-009    3.6201e-006     2.0734e-008    
  0.75            -1.3946e-009    6.7044e-006     4.88e-009      
  0.8             -1.3015e-009    1.10202e-005    1.0014e-008    
  0.85            1.6278e-009     1.6132e-005     6.87e-009      
  0.9             1.3055e-009     2.1985e-005     -8.422e-009    
  0.95            2.8301e-009     2.8117e-005     -8.559e-009    
  1               1.1786e-009     3.4343e-005     8.706e-009     
  1.05            -1.3232e-009    4.074e-005      2.6503e-008    
  1.1             -2.5418e-009    4.6692e-005     1.0993e-008    
  1.15            -1.9647e-009    5.2327e-005     3.71e-010      
  1.2             -1.4865e-009    5.7792e-005     2.902e-009     
  1.25            -1.3459e-009    6.2958e-005     7.534e-009     
  1.3             -2.6384e-009    6.7809e-005     1.1563e-008    
  1.35            -2.1532e-009    7.232e-005      5.63e-010      
  1.4             -1.5819e-009    7.6604e-005     2.212e-009     
  1.45            -1.372e-009     8.0667e-005     5.657e-009     
  1.5             -2.6891e-009    8.4408e-005     1.0839e-008    
  1.55            1.9431e-009     8.7851e-005     -1.9637e-008   
  1.6             1.4162e-009     9.117e-005      -7.354e-009    
  1.65            2.8164e-009     9.4245e-005     -8.364e-009    
  1.7             2.7093e-009     9.7186e-005     2.56e-010      
  1.75            1.382e-009      9.982e-005      1.0206e-008    
  1.8             2.887e-010      0.000102433     1.0565e-008    
END_DB

BEGIN_DB
 ICCAP_VAR VS         0              
 ICCAP_VAR VB         0              
 ICCAP_VAR VD         1.8            

 #VG              IG              ID              IB             
  0               9.001e-010      8.477e-010      -1.1993e-008   
  0.05            1.2523e-009     -1.4122e-009    -2.0518e-008   
  0.1             2.8236e-009     2.85e-011       -1.0197e-008   
  0.15            1.7352e-009     1.4785e-009     -1.97e-010     
  0.2             4.033e-010      2.2989e-009     1.0668e-008    
  0.25            5.902e-010      2.7069e-009     1.0199e-008    
  0.3             7.63e-010       4.1597e-009     9.358e-009     
  0.35            -1.703e-009     9.8438e-009     1.4958e-008    
  0.4             2.0839e-009     3.4496e-008     2.1377e-008    
  0.45            -2.6823e-009    1.3135e-007     1.0404e-008    
  0.5             -1.1552e-009    4.7719e-007     -9.821e-009    
  0.55            2.3961e-009     1.4046e-006     1.4664e-008    
  0.6             -1.5134e-009    3.6092e-006     1.6749e-008    
  0.65            -1.3149e-009    7.7437e-006     -1.5405e-008   
  0.7             2.795e-009      1.419e-005      -2.0168e-008   
  0.75            2.7551e-009     2.3532e-005     -1.3205e-008   
  0.8             2.2354e-009     3.5351e-005     -1.8572e-008   
  0.85            1.5584e-009     4.9435e-005     -2.6995e-008   
  0.9             1.2847e-009     6.5301e-005     -3.4462e-008   
  0.95            2.8167e-009     8.2546e-005     -3.7484e-008   
  1               2.4448e-009     0.000101262     -3.1845e-008   
  1.05            2.6237e-009     0.00012037      -2.9866e-008   
  1.1             1.9608e-009     0.00014047      -3.6785e-008   
  1.15            1.4126e-009     0.00016093      -4.3083e-008   
  1.2             1.2533e-009     0.00018176      -4.4388e-008   
  1.25            2.7532e-009     0.00020264      -4.6609e-008   
  1.3             2.2032e-009     0.00022423      -3.6881e-008   
  1.35            1.5379e-009     0.00024558      -4.087e-008    
  1.4             1.2802e-009     0.00026703      -4.3404e-008   
  1.45            2.8143e-009     0.00028841      -4.3126e-008   
  1.5             2.4172e-009     0.00031016      -3.3902e-008   
  1.55            1.7262e-009     0.00033157      -3.5782e-008   
  1.6             1.3284e-009     0.00035299      -3.998e-008    
  1.65            1.2304e-009     0.00037431      -3.8478e-008   
  1.7             2.6253e-009     0.00039543      -4.1477e-008   
  1.75            1.9393e-009     0.00041691      -2.9684e-008   
  1.8             1.4032e-009     0.00043799      -3.3903e-008   
END_DB

BEGIN_DB
 ICCAP_VAR VS         0              
 ICCAP_VAR VB         -0.9           
 ICCAP_VAR VD         0.1            

 #VG              IG              ID              IB             
  0               -8.932e-010     -8.729e-010     1.214e-008     
  0.05            -1.3169e-009    1.3533e-009     2.3019e-008    
  0.1             -2.6756e-009    2.71e-011       1.1041e-008    
  0.15            2.3502e-009     -1.4376e-009    -2.0274e-008   
  0.2             1.2159e-009     2.1186e-009     -4.041e-009    
  0.25            -1.3596e-009    1.1581e-009     2.7275e-008    
  0.3             -1.1904e-009    -2.0766e-009    1.0689e-008    
  0.35            1.3593e-009     -1.075e-009     -2.6016e-008   
  0.4             1.9476e-009     1.4943e-009     -8.233e-009    
  0.45            -1.4345e-009    2.1587e-009     2.6105e-008    
  0.5             -1.3695e-009    4.7062e-009     8.644e-009     
  0.55            2.1497e-009     2.0293e-008     2.2437e-008    
  0.6             1.513e-009      6.9846e-008     -5.56e-009     
  0.65            -1.4384e-009    2.2202e-007     2.28e-008      
  0.7             1.23e-009       6.2248e-007     -2.2942e-008   
  0.75            2.7467e-009     1.5629e-006     2.3496e-008    
  0.8             4.648e-010      3.4141e-006     1.053e-008     
  0.85            -1.769e-009     6.4813e-006     2.279e-008     
  0.9             -1.3976e-009    1.07165e-005    4.321e-009     
  0.95            1.2637e-009     1.5882e-005     2.114e-009     
  1               2.7656e-009     2.1765e-005     -1.0159e-008   
  1.05            4.437e-010      2.8158e-005     1.0565e-008    
  1.1             -1.7783e-009    3.4475e-005     2.3018e-008    
  1.15            -1.3991e-009    4.062e-005      4.153e-009     
  1.2             -1.3186e-009    4.6584e-005     9.143e-009     
  1.25            -2.5603e-009    5.2253e-005     1.1118e-008    
  1.3             -1.9917e-009    5.7587e-005     6.33e-010      
  1.35            -1.4756e-009    6.2659e-005     3.105e-009     
  1.4             -1.3396e-009    6.7417e-005     7.24e-009      
  1.45            -2.6478e-009    7.189e-005      1.1222e-008    
  1.5             -1.314e-009     7.6085e-005     -9.599e-009    
  1.55            1.258e-009      7.986e-005      -2.4972e-008   
  1.6             2.7352e-009     8.3499e-005     -1.0856e-008   
  1.65            5.219e-010      8.6984e-005     1.0585e-008    
  1.7             -1.6974e-009    9.0187e-005     2.1784e-008    
  1.75            -1.3693e-009    9.315e-005      4.918e-009     
  1.8             -1.2871e-009    9.5941e-005     9.47e-009      
END_DB

BEGIN_DB
 ICCAP_VAR VS         0              
 ICCAP_VAR VB         -0.9           
 ICCAP_VAR VD         1.8            

 #VG              IG              ID              IB             
  0               1.2291e-009     1.198e-009      7.922e-009     
  0.05            2.8086e-009     -1.277e-010     -1.2643e-008   
  0.1             1.022e-010      2.0384e-009     1.0483e-008    
  0.15            2.944e-010      2.1372e-009     1.0548e-008    
  0.2             4.881e-010      2.2365e-009     9.963e-009     
  0.25            -1.3086e-009    1.413e-009      2.1265e-008    
  0.3             -2.6671e-009    2.305e-010      1.0771e-008    
  0.35            1.2412e-009     -6.998e-010     -1.814e-008    
  0.4             2.8324e-009     3.4592e-009     -1.1396e-008   
  0.45            -8.583e-010     1.3631e-008     -3.29e-010     
  0.5             -1.22e-009      6.6852e-008     -9.407e-009    
  0.55            -2.282e-009     2.6646e-007     8.836e-009     
  0.6             -1.6725e-009    9.0656e-007     6.27e-010      
  0.65            2.5816e-009     2.4849e-006     1.9316e-008    
  0.7             -2.419e-009     5.8868e-006     6.309e-009     
  0.75            2.8431e-009     1.1489e-005     -1.793e-008    
  0.8             2.519e-009      1.9964e-005     -1.2138e-008   
  0.85            1.8497e-009     3.1131e-005     -1.8e-008      
  0.9             1.3897e-009     4.4655e-005     -2.7981e-008   
  0.95            2.8264e-009     6.0185e-005     -3.2208e-008   
  1               2.6835e-009     7.7473e-005     -2.683e-008    
  1.05            2.087e-009      9.5688e-005     -3.0731e-008   
  1.1             -1.3497e-009    0.00011544      -5.4274e-008   
  1.15            -1.7471e-009    0.00013511      -4.4154e-008   
  1.2             -2.0053e-009    0.00015537      -4.3616e-008   
  1.25            -2.3332e-009    0.00017616      -4.3337e-008   
  1.3             -2.6054e-009    0.00019725      -4.2496e-008   
  1.35            -2.6826e-009    0.00021844      -3.8702e-008   
  1.4             -2.3637e-009    0.00023972      -3.3795e-008   
  1.45            -1.7509e-009    0.00026135      -3.2417e-008   
  1.5             -1.4115e-009    0.00028274      -2.8973e-008   
  1.55            -1.309e-009     0.0003044       -2.2909e-008   
  1.6             -2.218e-009     0.00032555      -3.043e-008    
  1.65            -1.6293e-009    0.00034699      -2.8096e-008   
  1.7             -1.3749e-009    0.00036849      -2.3947e-008   
  1.75            -2.5843e-009    0.00038952      -2.936e-008    
  1.8             -2.0634e-009    0.0004105       -2.6032e-008   
END_DB

BEGIN_DB
 ICCAP_VAR VS         0              
 ICCAP_VAR VB         -1.8           
 ICCAP_VAR VD         0.1            

 #VG              IG              ID              IB             
  0               -1.069e-009     -1.0327e-009    -1.3953e-008   
  0.05            -1.5418e-009    8.683e-010      2.5559e-008    
  0.1             -1.7417e-009    -1.4156e-009    6.287e-009     
  0.15            -3.682e-010     -2.1368e-009    -1.1127e-008   
  0.2             -5.801e-010     -2.2e-009       -1.0764e-008   
  0.25            -7.802e-010     -2.2414e-009    -1.0147e-008   
  0.3             1.8986e-009     -1.5861e-009    -1.3692e-008   
  0.35            1.4481e-009     1.7824e-009     -7.521e-009    
  0.4             -1.3177e-009    1.3964e-009     2.1739e-008    
  0.45            -2.684e-009     3.031e-010      1.1019e-008    
  0.5             2.2818e-009     1.9448e-009     -1.893e-008    
  0.55            1.9958e-009     5.774e-009      -3.718e-009    
  0.6             -2.1138e-009    1.922e-008      -2.0838e-008   
  0.65            -1.5725e-009    7.3627e-008     2.196e-009     
  0.7             1.1158e-009     2.3504e-007     -1.8526e-008   
  0.75            -1.3378e-009    6.9195e-007     2.7316e-008    
  0.8             -2.6403e-009    1.6614e-006     -2.2147e-008   
  0.85            -1.297e-009     3.6284e-006     -9.474e-009    
  0.9             -9.42e-011      6.6333e-006     -1.1633e-008   
  0.95            -6.129e-010     1.0988e-005     -1.1117e-008   
  1               1.5815e-009     1.6231e-005     -2.1135e-008   
  1.05            2.0167e-009     2.227e-005      1.0327e-008    
  1.1             9.111e-010      2.8502e-005     9.712e-009     
  1.15            1.2612e-009     3.4662e-005     8.86e-009      
  1.2             -1.2938e-009    4.1073e-005     2.5776e-008    
  1.25            -2.4917e-009    4.6963e-005     1.0936e-008    
  1.3             -1.8796e-009    5.2544e-005     6.7e-010       
  1.35            -1.4495e-009    5.7861e-005     3.115e-009     
  1.4             -1.3238e-009    6.2856e-005     7.792e-009     
  1.45            -2.6194e-009    6.7564e-005     1.1781e-008    
  1.5             -2.1157e-009    7.1912e-005     5.85e-010      
  1.55            -1.559e-009     7.6015e-005     2.18e-009      
  1.6             -1.3578e-009    7.9875e-005     5.475e-009     
  1.65            -2.6775e-009    8.3428e-005     1.0622e-008    
  1.7             1.9934e-009     8.6695e-005     -1.9821e-008   
  1.75            1.4747e-009     8.9815e-005     -6.938e-009    
  1.8             1.292e-009      9.2707e-005     -8.572e-009    
END_DB

BEGIN_DB
 ICCAP_VAR VS         0              
 ICCAP_VAR VB         -1.8           
 ICCAP_VAR VD         1.8            

 #VG              IG              ID              IB             
  0               -1.2543e-009    -1.1562e-009    -8.387e-009    
  0.05            -2.4949e-009    2.787e-010      1.2675e-008    
  0.1             -1.0449e-009    -2.1673e-009    6.43e-010      
  0.15            1.4852e-009     -1.0101e-009    -2.4613e-008   
  0.2             8.792e-010      2.3251e-009     -8.246e-009    
  0.25            -1.5533e-009    1.7265e-009     1.2804e-008    
  0.3             -8.345e-010     -2.1631e-009    6.413e-009     
  0.35            2.2206e-009     -1.204e-009     -9.009e-009    
  0.4             1.9135e-009     1.9967e-009     -5.098e-009    
  0.45            1.648e-009      6.7758e-009     -7.943e-009    
  0.5             -1.6036e-009    2.568e-008      -7.581e-009    
  0.55            -1.3466e-009    1.1999e-007     9.698e-009     
  0.6             -2.6557e-009    4.549e-007      1.0239e-008    
  0.65            -1.6866e-009    1.4192e-006     -9.586e-009    
  0.7             -1.9504e-009    3.6215e-006     -1.2915e-008   
  0.75            -9.675e-010     7.8922e-006     -1.588e-008    
  0.8             2.5807e-009     1.4698e-005     -2.0385e-008   
  0.85            2.8236e-009     2.4415e-005     -7.063e-009    
  0.9             2.7381e-009     3.6726e-005     -1.7315e-008   
  0.95            2.1983e-009     5.1141e-005     -2.2154e-008   
  1               1.5617e-009     6.74e-005       -3.0055e-008   
  1.05            1.3028e-009     8.5022e-005     -3.6133e-008   
  1.1             2.825e-009      0.000103573     -3.8917e-008   
  1.15            1.331e-009      0.00012319      -2.3305e-008   
  1.2             1.2385e-009     0.0001432       -4.1564e-008   
  1.25            2.5849e-009     0.00016374      -4.7064e-008   
  1.3             1.9181e-009     0.00018482      -3.6503e-008   
  1.35            1.4111e-009     0.00020584      -4.2312e-008   
  1.4             1.2694e-009     0.00022695      -4.2238e-008   
  1.45            2.7397e-009     0.00024821      -4.4268e-008   
  1.5             2.188e-009      0.00026991      -3.3639e-008   
  1.55            1.5599e-009     0.00029112      -3.749e-008    
  1.6             1.3014e-009     0.00031247      -3.9624e-008   
  1.65            2.8288e-009     0.00033377      -3.9148e-008   
  1.7             2.438e-009      0.00035535      -2.959e-008    
  1.75            1.7666e-009     0.00037636      -3.1352e-008   
  1.8             1.3616e-009     0.00039736      -3.572e-008    
END_DB

