! VERSION = 6.00
BEGIN_HEADER
 ICCAP_INPUTS
  VG         V  B GROUND SMU4 0.001 LIN        1    0          1.8        37   0.05      
  VS         V  E GROUND SMU2 0.1 CON        0
  VB         V  C GROUND SMU3 0.1 LIN        3    0          -1.8       3    -0.9      
  VD         V  S GROUND SMU1 0.1 LIN        2    0.1        1.8        2    1.7       
 ICCAP_OUTPUTS
  IG         I  B GROUND SMU4 B
  ID         I  S GROUND SMU1 B
  IB         I  C GROUND SMU3 B
END_HEADER

BEGIN_DB
 ICCAP_VAR VS         0              
 ICCAP_VAR VB         0              
 ICCAP_VAR VD         0.1            

 #VG              IG              ID              IB             
  0               1.2686e-009     1.1919e-009     9.404e-009     
  0.05            2.8933e-009     -1.184e-010     -1.324e-008    
  0.1             -1.3291e-009    1.5226e-009     2.0122e-008    
  0.15            -2.7037e-009    2.428e-010      1.1907e-008    
  0.2             1.334e-010      -1.5586e-009    7.13e-010      
  0.25            2.227e-009      2.3719e-009     -1.1668e-008   
  0.3             1.8969e-009     7.7379e-009     -5.585e-009    
  0.35            -2.5744e-009    3.1809e-008     -1.1143e-008   
  0.4             6.91e-010       1.3365e-007     -1.3596e-008   
  0.45            -1.5472e-009    5.5517e-007     1.6894e-008    
  0.5             -2.6473e-009    1.9551e-006     -2.2329e-008   
  0.55            -8.172e-010     6.2227e-006     -1.1456e-008   
  0.6             2.9126e-009     1.6551e-005     -1.0359e-008   
  0.65            2.682e-009      3.6661e-005     -2.97e-010     
  0.7             6.377e-010      6.909e-005      1.1079e-008    
  0.75            -1.5974e-009    0.000112175     1.8477e-008    
  0.8             -1.3606e-009    0.00016355      4.104e-009     
  0.85            -2.6649e-009    0.00021762      1.1258e-008    
  0.9             -2.1006e-009    0.00027206      6.17e-010      
  0.95            -1.5299e-009    0.00032588      3.042e-009     
  1               -1.3717e-009    0.00037753      7.408e-009     
  1.05            -2.7281e-009    0.00042629      1.1405e-008    
  1.1             -1.3419e-009    0.00047223      -9.827e-009    
  1.15            -1.277e-010     0.00051334      -1.1561e-008   
  1.2             -6.735e-010     0.0005533       -1.182e-008    
  1.25            1.7409e-009     0.00058968      -1.7109e-008   
  1.3             1.3453e-009     0.00062391      -8.708e-009    
  1.35            2.9109e-009     0.00065522      -8.426e-009    
  1.4             2.6259e-009     0.00068492      -2.77e-010     
  1.45            2.5093e-009     0.00071154      7.74e-009      
  1.5             5.01e-010       0.00073694      1.1123e-008    
  1.55            -1.7744e-009    0.00076019      2.2754e-008    
  1.6             -1.4183e-009    0.00078112      4.832e-009     
  1.65            -1.338e-009     0.00080102      9.778e-009     
  1.7             -2.5651e-009    0.00081936      1.0681e-008    
  1.75            -1.9204e-009    0.00083578      1.021e-009     
  1.8             -1.4643e-009    0.00085131      3.694e-009     
END_DB

BEGIN_DB
 ICCAP_VAR VS         0              
 ICCAP_VAR VB         0              
 ICCAP_VAR VD         1.8            

 #VG              IG              ID              IB             
  0               1.1125e-009     1.0727e-009     1.2538e-008    
  0.05            1.9812e-009     -7.32e-010      -2.0865e-008   
  0.1             2.4606e-009     1.2884e-009     -7.624e-009    
  0.15            9.34e-011       2.9379e-009     1.1005e-008    
  0.2             2.971e-010      5.9192e-009     1.1292e-008    
  0.25            2.8933e-009     1.7861e-008     1.1217e-008    
  0.3             -1.6837e-009    7.9385e-008     2.0684e-008    
  0.35            -1.4028e-009    3.3957e-007     -6.74e-010     
  0.4             1.5057e-009     1.2982e-006     8.305e-009     
  0.45            1.3065e-009     4.5337e-006     -1.3952e-008   
  0.5             -1.5076e-009    1.4171e-005     -2.3023e-008   
  0.55            -1.3724e-009    3.5351e-005     -2.414e-008    
  0.6             -2.6999e-009    7.5502e-005     -4.6624e-008   
  0.65            -2.2977e-009    0.00013861      -9.4102e-008   
  0.7             2.389e-009      0.000223        -1.4059e-007   
  0.75            1.6828e-009     0.00032915      -1.6975e-007   
  0.8             1.344e-009      0.00045312      -2.0828e-007   
  0.85            2.9084e-009     0.00059039      -2.3724e-007   
  0.9             2.5475e-009     0.00074008      -2.5234e-007   
  0.95            1.8422e-009     0.00089529      -2.7197e-007   
  1               1.391e-009      0.00105682      -2.8959e-007   
  1.05            1.747e-010      0.001225        -2.7848e-007   
  1.1             6.605e-010      0.0013945       -2.7986e-007   
  1.15            1.0398e-009     0.001562        -2.8114e-007   
  1.2             1.4337e-009     0.0017326       -2.7645e-007   
  1.25            1.8835e-009     0.0019076       -2.7079e-007   
  1.3             2.2783e-009     0.0020834       -2.644e-007    
  1.35            2.5717e-009     0.0022569       -2.5708e-007   
  1.4             2.8646e-009     0.0024305       -2.4782e-007   
  1.45            2.8465e-009     0.0026035       -2.4374e-007   
  1.5             2.3191e-009     0.0027756       -2.3367e-007   
  1.55            1.6353e-009     0.0029466       -2.2576e-007   
  1.6             1.3354e-009     0.0031174       -2.1818e-007   
  1.65            2.9061e-009     0.0032868       -2.0683e-007   
  1.7             2.5095e-009     0.003458        -1.8796e-007   
  1.75            1.8009e-009     0.003625        -1.7937e-007   
  1.8             1.3724e-009     0.0037917       -1.7404e-007   
END_DB

BEGIN_DB
 ICCAP_VAR VS         0              
 ICCAP_VAR VB         -0.9           
 ICCAP_VAR VD         0.1            

 #VG              IG              ID              IB             
  0               9.551e-010      8.738e-010      2.3296e-008    
  0.05            1.3326e-009     -1.2805e-009    -2.3935e-008   
  0.1             1.1865e-009     2.1836e-009     -8.594e-009    
  0.15            -1.401e-009     1.1497e-009     2.7266e-008    
  0.2             -1.1574e-009    -2.1177e-009    1.0589e-008    
  0.25            2.895e-010      -1.7885e-009    -1.1251e-008   
  0.3             1.7299e-009     -6.493e-010     -2.353e-008    
  0.35            2.5982e-009     2.1969e-009     -8.303e-009    
  0.4             2.853e-010      7.5485e-009     1.1685e-008    
  0.45            -1.8187e-009    2.442e-008      -1.6368e-008   
  0.5             9.07e-010       1.1608e-007     -1.634e-008    
  0.55            -1.4221e-009    5.0867e-007     1.2401e-008    
  0.6             -2.4192e-009    1.8969e-006     -1.824e-008    
  0.65            -3.725e-010     6.1734e-006     -1.1882e-008   
  0.7             2.7723e-009     1.665e-005      -1.2319e-008   
  0.75            -1.3873e-009    3.7741e-005     2.6788e-008    
  0.8             -2.7043e-009    7.0543e-005     1.1096e-008    
  0.85            1.8766e-009     0.000112853     -1.9002e-008   
  0.9             1.3364e-009     0.00016406      -5.364e-009    
  0.95            2.8618e-009     0.00021844      -8.582e-009    
  1               -1.7252e-009    0.00027569      2.17e-008      
  1.05            -1.4122e-009    0.00032925      5.094e-009     
  1.1             -1.351e-009     0.00038069      9.813e-009     
  1.15            -2.4839e-009    0.00042911      1.1513e-008    
  1.2             -1.8715e-009    0.00047355      9.56e-010      
  1.25            -1.4524e-009    0.00051543      3.651e-009     
  1.3             -1.3663e-009    0.00055417      8.558e-009     
  1.35            -2.6059e-009    0.00059009      1.1367e-008    
  1.4             -2.0539e-009    0.00062255      6.69e-010      
  1.45            -1.5266e-009    0.00065309      2.671e-009     
  1.5             -1.3815e-009    0.00068127      7.052e-009     
  1.55            -2.6845e-009    0.00070735      1.1336e-008    
  1.6             1.8409e-009     0.0007305       -1.8435e-008   
  1.65            1.3837e-009     0.00075256      -8.193e-009    
  1.7             2.8919e-009     0.00077289      -8.175e-009    
  1.75            2.6461e-009     0.00079195      -2.99e-010     
  1.8             6.177e-010      0.00080926      1.1627e-008    
END_DB

BEGIN_DB
 ICCAP_VAR VS         0              
 ICCAP_VAR VB         -0.9           
 ICCAP_VAR VD         1.8            

 #VG              IG              ID              IB             
  0               1.2014e-009     2.1264e-009     1.0218e-008    
  0.05            2.432e-009      1.7945e-009     -1.8724e-008   
  0.1             2.2785e-009     2.1787e-009     -4.132e-009    
  0.15            -2.2429e-009    1.6101e-009     1.5566e-008    
  0.2             2.8373e-009     2.2726e-009     -1.305e-008    
  0.25            -1.3474e-009    4.4904e-009     1.9786e-008    
  0.3             2.7488e-009     1.1474e-008     -3.94e-009     
  0.35            -1.5382e-009    4.8108e-008     1.5615e-008    
  0.4             -1.3804e-009    2.1348e-007     -1.784e-009    
  0.45            -2.6808e-009    8.9902e-007     8.842e-009     
  0.5             -1.6567e-009    3.3373e-006     -1.3308e-008   
  0.55            -1.9662e-009    1.04172e-005    -2.2926e-008   
  0.6             2.5452e-009     2.7486e-005     -3.6252e-008   
  0.65            1.8706e-009     6.1532e-005     -5.1474e-008   
  0.7             1.3355e-009     0.00011791      -8.6125e-008   
  0.75            -1.3936e-009    0.00019978      -1.0769e-007   
  0.8             -2.7247e-009    0.00030488      -1.4371e-007   
  0.85            -2.3798e-009    0.00042543      -1.8767e-007   
  0.9             -1.7805e-009    0.00056256      -2.1593e-007   
  0.95            -1.4244e-009    0.00071036      -2.3621e-007   
  1               -1.3489e-009    0.00086624      -2.4902e-007   
  1.05            -2.5289e-009    0.00102821      -2.5943e-007   
  1.1             1.672e-009      0.0011894       -2.6185e-007   
  1.15            1.3415e-009     0.0013582       -2.9026e-007   
  1.2             2.8803e-009     0.0015276       -2.8994e-007   
  1.25            2.5258e-009     0.0017025       -2.7913e-007   
  1.3             1.8492e-009     0.0018739       -2.7612e-007   
  1.35            1.3916e-009     0.0020473       -2.7433e-007   
  1.4             2.9057e-009     0.0022213       -2.6565e-007   
  1.45            2.6696e-009     0.0023953       -2.4828e-007   
  1.5             2.0472e-009     0.0025671       -2.3912e-007   
  1.55            1.4724e-009     0.0027387       -2.3373e-007   
  1.6             1.3033e-009     0.0029104       -2.235e-007    
  1.65            2.7916e-009     0.0030801       -2.1475e-007   
  1.7             2.2579e-009     0.0032517       -1.9444e-007   
  1.75            1.6001e-009     0.0034198       -1.876e-007    
  1.8             1.3287e-009     0.0035872       -1.8057e-007   
END_DB

BEGIN_DB
 ICCAP_VAR VS         0              
 ICCAP_VAR VB         -1.8           
 ICCAP_VAR VD         0.1            

 #VG              IG              ID              IB             
  0               1.3296e-009     1.3714e-009     -1.2294e-008   
  0.05            1.1836e-009     2.1904e-009     -8.558e-009    
  0.1             -1.3988e-009    1.1419e-009     2.7269e-008    
  0.15            -1.1532e-009    -2.1291e-009    1.039e-008     
  0.2             1.4215e-009     -1.1013e-009    -2.5607e-008   
  0.25            9.956e-010      2.3537e-009     -8.064e-009    
  0.3             -1.4799e-009    1.0306e-009     2.6517e-008    
  0.35            1.334e-010      -1.7136e-009    8.285e-009     
  0.4             2.8693e-009     2.1004e-009     -2.5433e-008   
  0.45            -1.3462e-009    7.6128e-009     2.1975e-008    
  0.5             2.8632e-009     2.9076e-008     1.1545e-008    
  0.55            1.5358e-009     1.278e-007      3.821e-009     
  0.6             1.3103e-009     5.501e-007      -8.008e-009    
  0.65            2.8972e-009     2.0918e-006     2.7169e-008    
  0.7             2.7063e-009     6.7631e-006     -2.36e-010     
  0.75            -1.8142e-009    1.8161e-005     2.16e-008      
  0.8             -7.716e-010     3.9462e-005     -1.1919e-008   
  0.85            1.6166e-009     7.2251e-005     -1.4987e-008   
  0.9             1.9871e-009     0.00011676      -8.417e-009    
  0.95            1.4379e-009     0.00016814      -7.463e-009    
  1               1.2938e-009     0.00022285      -8.025e-009    
  1.05            2.7588e-009     0.00027762      -1.0541e-008   
  1.1             5.031e-010      0.00033261      1.1165e-008    
  1.15            -1.7464e-009    0.00038383      2.2134e-008    
  1.2             -1.4114e-009    0.00043135      4.839e-009     
  1.25            -1.3425e-009    0.00047594      9.675e-009     
  1.3             -2.5132e-009    0.00051733      1.1523e-008    
  1.35            -1.9103e-009    0.0005549       7.68e-010      
  1.4             -1.4653e-009    0.00058993      3.637e-009     
  1.45            -1.3634e-009    0.00062256      8.381e-009     
  1.5             -2.6372e-009    0.00065253      1.1387e-008    
  1.55            -2.1069e-009    0.00067956      1.44e-010      
  1.6             -1.5589e-009    0.00070486      1.837e-009     
  1.65            -1.3788e-009    0.00072845      6.205e-009     
  1.7             -2.7103e-009    0.00075         1.096e-008     
  1.75            -2.2855e-009    0.00076959      7.43e-010      
  1.8             -8.179e-010     0.00078784      -1.1822e-008   
END_DB

BEGIN_DB
 ICCAP_VAR VS         0              
 ICCAP_VAR VB         -1.8           
 ICCAP_VAR VD         1.8            

 #VG              IG              ID              IB             
  0               1.2091e-009     9.0777e-008     -7.826e-008    
  0.05            2.2804e-009     8.9831e-008     -1.0493e-007   
  0.1             1.5794e-009     9.0712e-008     -9.522e-008    
  0.15            1.3225e-009     9.0652e-008     -9.795e-008    
  0.2             2.8854e-009     9.0971e-008     -9.861e-008    
  0.25            -2.0841e-009    9.007e-008      -7.5142e-008   
  0.3             1.3867e-009     9.442e-008      -9.9015e-008   
  0.35            3.428e-010      1.0567e-007     -9.8847e-008   
  0.4             1.1335e-009     1.723e-007      -9.86e-008     
  0.45            2.5129e-009     4.5831e-007     -1.01543e-007  
  0.5             3.326e-010      1.553e-006      -9.243e-008    
  0.55            -7.72e-011      5.2619e-006     -1.0736e-007   
  0.6             2.1625e-009     1.5624e-005     -1.1702e-007   
  0.65            2.4552e-009     3.8853e-005     -1.1365e-007   
  0.7             2.7548e-009     8.1449e-005     -1.3987e-007   
  0.75            1.2652e-009     0.00014719      -1.7298e-007   
  0.8             2.6871e-009     0.00023678      -2.3222e-007   
  0.85            1.9832e-009     0.00034881      -2.5647e-007   
  0.9             1.4421e-009     0.00047651      -2.9403e-007   
  0.95            1.2952e-009     0.00061741      -3.2106e-007   
  1               2.8079e-009     0.00076706      -3.4475e-007   
  1.05            2.2044e-009     0.00092671      -3.5018e-007   
  1.1             1.5406e-009     0.00108948      -3.6495e-007   
  1.15            -1.4508e-009    0.00126         -3.8165e-007   
  1.2             -1.3538e-009    0.0014306       -3.5747e-007   
  1.25            -2.6288e-009    0.001602        -3.5396e-007   
  1.3             -2.0496e-009    0.0017726       -3.613e-007    
  1.35            -1.5154e-009    0.0019464       -3.5283e-007   
  1.4             -1.3744e-009    0.0021198       -3.4073e-007   
  1.45            -2.7078e-009    0.002293        -3.2848e-007   
  1.5             -2.2399e-009    0.0024637       -3.3049e-007   
  1.55            -1.6232e-009    0.002637        -3.191e-007    
  1.6             -1.3926e-009    0.0028083       -3.058e-007    
  1.65            -1.3142e-009    0.0029793       -2.9145e-007   
  1.7             -2.4338e-009    0.0031495       -2.8082e-007   
  1.75            -1.7654e-009    0.0033166       -2.8273e-007   
  1.8             -1.4245e-009    0.0034846       -2.7187e-007   
END_DB

