! VERSION = 6.00
BEGIN_HEADER
 ICCAP_INPUTS
  VG         V  B GROUND SMU4 0.001 LIN        1    0          1.8        37   0.05      
  VS         V  E GROUND SMU3 0.1 CON        0
  VB         V  C GROUND SMU1 0.1 LIN        3    0          -1.8       3    -0.9      
  VD         V  S GROUND SMU2 0.1 LIN        2    0.1        1.8        2    1.7       
 ICCAP_OUTPUTS
  IG         I  B GROUND SMU4 B
  ID         I  S GROUND SMU2 B
  IB         I  C GROUND SMU1 B
END_HEADER

BEGIN_DB
 ICCAP_VAR VS         0              
 ICCAP_VAR VB         0              
 ICCAP_VAR VD         0.1            

 #VG              IG              ID              IB             
  0               -1.895e-010     1.1385e-009     4.434e-009     
  0.05            -2.5819e-009    -2.76e-011      1.0199e-008    
  0.1             1.8877e-009     -2.7858e-009    -1.317e-008    
  0.15            -2.0345e-009    2.8772e-009     2.1129e-008    
  0.2             2.2893e-009     1.426e-010      -1.6208e-008   
  0.25            -2.1887e-009    6.3043e-009     1.5328e-008    
  0.3             1.5505e-009     2.8972e-008     4.724e-009     
  0.35            -1.3303e-009    1.05239e-007    1.2605e-008    
  0.4             1.4085e-009     4.2171e-007     -1.8093e-008   
  0.45            -1.9271e-009    1.7808e-006     -9.952e-009    
  0.5             2.6922e-009     6.6959e-006     -1.6907e-008   
  0.55            2.7039e-009     2.1994e-005     -9.741e-009    
  0.6             -2.4272e-009    6.0831e-005     1.1256e-008    
  0.65            -5.007e-010     0.00013276      -1.6804e-008   
  0.7             1.5123e-009     0.00023943      -1.6728e-008   
  0.75            8.943e-010      0.00037566      8.725e-009     
  0.8             -2.5648e-009    0.00052267      7.466e-009     
  0.85            2.5412e-009     0.00065824      -1.2067e-008   
  0.9             -1.7778e-009    0.00079036      1.5846e-008    
  0.95            2.6635e-009     0.00090138      -1.2263e-008   
  1               -2.1127e-009    0.00100168      1.39e-008      
  1.05            1.7414e-009     0.00108484      -1.8035e-008   
  1.1             2.6598e-009     0.0011572       7.518e-009     
  1.15            -2.1031e-009    0.0012216       1.4043e-008    
  1.2             1.7025e-009     0.0012752       -1.7531e-008   
  1.25            8.001e-010      0.0013229       9.077e-009     
  1.3             -2.5882e-009    0.0013643       7.073e-009     
  1.35            2.249e-010      0.0014003       -9.79e-009     
  1.4             2.5905e-009     0.001431        -1.1095e-008   
  1.45            -1.8536e-009    0.0014601       1.5504e-008    
  1.5             2.6816e-009     0.0014854       -1.3271e-008   
  1.55            -2.1876e-009    0.0015073       1.3399e-008    
  1.6             1.6025e-009     0.0015267       -1.6707e-008   
  1.65            -2.3039e-009    0.0015448       1.2283e-008    
  1.7             1.7819e-009     0.0015605       -1.6812e-008   
  1.75            -2.3954e-009    0.0015755       1.1353e-008    
  1.8             1.9861e-009     0.0015881       -1.6526e-008   
END_DB

BEGIN_DB
 ICCAP_VAR VS         0              
 ICCAP_VAR VB         0              
 ICCAP_VAR VD         1.8            

 #VG              IG              ID              IB             
  0               -1.2406e-009    -2.2973e-009    -5.986e-009    
  0.05            -8.278e-010     -3.8066e-009    -9.044e-009    
  0.1             2.5201e-009     2.4953e-009     -7.499e-009    
  0.15            -2.4678e-009    3.9181e-009     1.2233e-008    
  0.2             1.6163e-009     2.1286e-008     4.555e-009     
  0.25            -1.887e-009     7.2295e-008     1.5054e-008    
  0.3             -1.028e-009     3.165e-007      1.4468e-008    
  0.35            2.0989e-009     1.3481e-006     9.341e-009     
  0.4             -2.4919e-009    5.6211e-006     1.629e-009     
  0.45            -2.6192e-009    1.9928e-005     -1.8641e-008   
  0.5             -1.2474e-009    6.0226e-005     -7.2679e-008   
  0.55            -2.0425e-009    0.0001474       -1.308e-007    
  0.6             -1.938e-009     0.0002969       -2.3884e-007   
  0.65            -1.285e-010     0.00051233      -3.4264e-007   
  0.7             2.0748e-009     0.00079305      -4.465e-007    
  0.75            -1.138e-010     0.0011284       -4.9597e-007   
  0.8             -2.2593e-009    0.0015067       -5.4039e-007   
  0.85            -1.8376e-009    0.0019088       -5.8241e-007   
  0.9             4.19e-011       0.0023234       -5.7803e-007   
  0.95            2.3417e-009     0.0027674       -5.6311e-007   
  1               1.9088e-009     0.0032263       -5.0394e-007   
  1.05            3.47e-011       0.0037063       -4.5939e-007   
  1.1             -2.059e-009     0.0041845       -4.0407e-007   
  1.15            -1.9333e-009    0.0046624       -3.755e-007    
  1.2             -1.123e-010     0.0051419       -3.2605e-007   
  1.25            2.1047e-009     0.0056303       -2.8716e-007   
  1.3             2.0584e-009     0.0061258       -2.2042e-007   
  1.35            1.928e-010      0.0066261       -1.8166e-007   
  1.4             -1.8194e-009    0.0071227       -1.4118e-007   
  1.45            -2.0385e-009    0.0076108       -1.3574e-007   
  1.5             -2.957e-010     0.008102        -1.1311e-007   
  1.55            1.8083e-009     0.0085911       -1.0075e-007   
  1.6             -1.7492e-009    0.0090943       -6.5259e-008   
  1.65            -2.0682e-009    0.0095806       -6.078e-008    
  1.7             -3.349e-010     0.0100677       -5.1264e-008   
  1.75            1.7502e-009     0.0105508       -5.0138e-008   
  1.8             2.2256e-009     0.0110404       -1.8481e-008   
END_DB

BEGIN_DB
 ICCAP_VAR VS         0              
 ICCAP_VAR VB         -0.9           
 ICCAP_VAR VD         0.1            

 #VG              IG              ID              IB             
  0               -2.5514e-009    -3.4493e-009    -1.7744e-008   
  0.05            2.5932e-009     -6.235e-010     -1.4523e-008   
  0.1             -2.4475e-009    5.041e-010      1.272e-008     
  0.15            2.6417e-009     -4.656e-010     -1.3526e-008   
  0.2             -2.4979e-009    4.21e-010       1.1769e-008    
  0.25            2.6746e-009     -2.9103e-009    -8.466e-009    
  0.3             -2.523e-009     1.3422e-009     1.1465e-008    
  0.35            1.5361e-009     2.2045e-009     -9.55e-009     
  0.4             1.7535e-009     2.6412e-008     1.6589e-008    
  0.45            2.694e-009      1.16e-007       5.945e-009     
  0.5             1.5371e-009     5.0663e-007     -1.5158e-008   
  0.55            -2.3021e-009    2.2221e-006     -1.5566e-008   
  0.6             1.8005e-009     8.4063e-006     -1.6992e-008   
  0.65            2.7048e-009     2.7525e-005     -9.828e-009    
  0.7             -1.3253e-009    7.3663e-005     1.301e-008     
  0.75            -2.6125e-009    0.00015528      -9.706e-009    
  0.8             1.651e-009      0.00026998      -1.7053e-008   
  0.85            -2.3122e-009    0.00041339      1.2046e-008    
  0.9             1.8072e-009     0.0005544       -1.7042e-008   
  0.95            -2.3856e-009    0.00069678      1.1334e-008    
  1               1.9636e-009     0.00081797      -1.6773e-008   
  1.05            -1.3811e-009    0.00093021      1.4813e-008    
  1.1             -1.0358e-009    0.00102298      -8.778e-009    
  1.15            2.6994e-009     0.00110122      -7.352e-009    
  1.2             1.7573e-009     0.0011702       1.4118e-008    
  1.25            -2.3674e-009    0.001231        1.1547e-008    
  1.3             1.9204e-009     0.0012809       -1.6876e-008   
  1.35            -1.3617e-009    0.0013272       1.4203e-008    
  1.4             2.2688e-009     0.0013635       -1.5237e-008   
  1.45            1.9567e-009     0.0013979       8.381e-009     
  1.5             -1.3871e-009    0.0014282       1.772e-008     
  1.55            2.3037e-009     0.0014534       -1.4813e-008   
  1.6             1.9408e-009     0.0014772       8.397e-009     
  1.65            -1.4046e-009    0.0014985       1.761e-008     
  1.7             2.3266e-009     0.0015167       -1.4793e-008   
  1.75            1.9187e-009     0.0015338       8.55e-009      
  1.8             -1.4243e-009    0.0015487       1.7377e-008    
END_DB

BEGIN_DB
 ICCAP_VAR VS         0              
 ICCAP_VAR VB         -0.9           
 ICCAP_VAR VD         1.8            

 #VG              IG              ID              IB             
  0               -2.522e-010     1.0059e-009     1.4757e-008    
  0.05            -2.6007e-009    -1.366e-010     8.958e-009     
  0.1             2.0374e-009     -2.6726e-009    -1.5758e-008   
  0.15            -1.9494e-009    1.7081e-009     1.6528e-008    
  0.2             1.7088e-009     3.6249e-009     -1.7457e-008   
  0.25            1.725e-009      1.4155e-008     1.5907e-008    
  0.3             -2.3714e-009    5.7377e-008     1.1488e-008    
  0.35            2.835e-010      2.6607e-007     -7.915e-009    
  0.4             -2.1161e-009    1.1612e-006     -1.6956e-008   
  0.45            -4.097e-010     4.8432e-006     -1.7163e-008   
  0.5             -2.2736e-009    1.7877e-005     -1.5462e-008   
  0.55            -5.926e-010     5.5389e-005     -7.0417e-008   
  0.6             -2.4382e-009    0.00014079      -1.3068e-007   
  0.65            -1.6982e-009    0.00029107      -2.2942e-007   
  0.7             2.003e-010      0.00050141      -3.3142e-007   
  0.75            2.5585e-009     0.00078207      -4.2868e-007   
  0.8             -1.923e-009     0.0011236       -4.8088e-007   
  0.85            2.6172e-009     0.0014948       -5.2935e-007   
  0.9             9.035e-010      0.0019008       -5.477e-007    
  0.95            -2.2974e-009    0.0023399       -5.2953e-007   
  1               -1.8273e-009    0.0027888       -5.3833e-007   
  1.05            4.9e-011        0.0032383       -5.0111e-007   
  1.1             2.3746e-009     0.0037086       -4.6358e-007   
  1.15            1.8863e-009     0.0041909       -3.9166e-007   
  1.2             2.46e-011       0.0046894       -3.4219e-007   
  1.25            -2.0785e-009    0.0051816       -2.8747e-007   
  1.3             -1.9242e-009    0.0056698       -2.6448e-007   
  1.35            -1.114e-010     0.0061566       -2.2349e-007   
  1.4             2.1061e-009     0.0066522       -1.9498e-007   
  1.45            2.0518e-009     0.0071534       -1.3899e-007   
  1.5             2.027e-010      0.0076561       -1.1139e-007   
  1.55            -8.285e-010     0.0081458       -1.0556e-007   
  1.6             -2.302e-009     0.0086498       -6.5555e-008   
  1.65            -1.8174e-009    0.0091427       -7.1149e-008   
  1.7             5.68e-011       0.0096213       -5.7009e-008   
  1.75            2.3797e-009     0.0101113       -5.3513e-008   
  1.8             1.889e-009      0.0106006       -2.1754e-008   
END_DB

BEGIN_DB
 ICCAP_VAR VS         0              
 ICCAP_VAR VB         -1.8           
 ICCAP_VAR VD         0.1            

 #VG              IG              ID              IB             
  0               1.1515e-009     2.1808e-009     4.344e-009     
  0.05            8.609e-010      4.1693e-009     7.492e-009     
  0.1             -2.4044e-009    -1.8451e-009    4.474e-009     
  0.15            2.6799e-009     -2.932e-010     -1.1487e-008   
  0.2             -2.5358e-009    2.287e-010      1.096e-008     
  0.25            2.6994e-009     -8.86e-011      -9.785e-009    
  0.3             -1.556e-009     3.3953e-009     1.2089e-008    
  0.35            1.9329e-009     -1.3652e-009    -1.4137e-008   
  0.4             -1.8559e-009    8.3492e-009     1.7051e-008    
  0.45            2.2405e-009     3.5415e-008     1.0318e-008    
  0.5             9.871e-010      1.5865e-007     -1.6482e-008   
  0.55            -2.5413e-009    7.2257e-007     8.918e-009     
  0.6             2.4823e-009     2.9706e-006     1.6615e-008    
  0.65            2.6212e-009     1.1022e-005     7.294e-009     
  0.7             -1.9545e-009    3.5333e-005     1.4734e-008    
  0.75            1.5297e-009     8.6644e-005     -1.4848e-008   
  0.8             1.68e-009       0.00017469      1.5512e-008    
  0.85            -1.7792e-009    0.00030263      1.6032e-008    
  0.9             2.664e-009      0.00044067      -1.2294e-008   
  0.95            -2.0769e-009    0.00058879      1.3893e-008    
  1               1.6761e-009     0.00072124      -1.6953e-008   
  1.05            -2.316e-009     0.00084453      1.1814e-008    
  1.1             1.8216e-009     0.00094627      -1.7123e-008   
  1.15            -2.3926e-009    0.00103872      1.1056e-008    
  1.2             1.9786e-009     0.00111327      -1.6622e-008   
  1.25            -8.68e-010      0.0011798       -1.3671e-008   
  1.3             -1.3989e-009    0.0012371       4.088e-009     
  1.35            2.3206e-009     0.0012845       -1.4786e-008   
  1.4             -1.4944e-009    0.001328        1.7081e-008    
  1.45            2.4236e-009     0.0013637       -1.4002e-008   
  1.5             -1.6084e-009    0.0013972       1.6817e-008    
  1.55            -8.846e-010     0.0014256       -9.538e-009    
  1.6             2.7221e-009     0.0014503       -6.912e-009    
  1.65            -2.4121e-009    0.0014733       1.1131e-008    
  1.7             2.0291e-009     0.0014924       -1.6506e-008   
  1.75            -1.4227e-009    0.0015122       1.5494e-008    
  1.8             -1.0084e-009    0.0015271       -9.037e-009    
END_DB

BEGIN_DB
 ICCAP_VAR VS         0              
 ICCAP_VAR VB         -1.8           
 ICCAP_VAR VD         1.8            

 #VG              IG              ID              IB             
  0               1.4034e-009     -6.33e-011      7.965e-009     
  0.05            -2.5243e-009    2.541e-010      1.1316e-008    
  0.1             1.5179e-009     -3.0023e-009    -9.746e-009    
  0.15            -1.7031e-009    3.1656e-009     1.4726e-008    
  0.2             2.1041e-009     -1.6008e-009    -1.6955e-008   
  0.25            -2.0075e-009    6.5705e-009     1.6484e-008    
  0.3             2.6743e-009     2.7847e-008     1.6022e-008    
  0.35            2.3723e-009     1.2174e-007     -1.0947e-008   
  0.4             -2.2285e-009    5.595e-007      1.1541e-008    
  0.45            2.064e-009      2.3713e-006     7.462e-009     
  0.5             -2.5436e-009    9.4528e-006     -1.5746e-008   
  0.55            -2.584e-009     3.2682e-005     -3.0628e-008   
  0.6             -1.701e-010     8.9868e-005     -8.421e-008    
  0.65            1.622e-010      0.0002021       -1.768e-007    
  0.7             2.5079e-009     0.00038456      -2.8163e-007   
  0.75            1.7803e-009     0.0006341       -3.5868e-007   
  0.8             -8.1e-011       0.000954        -4.4483e-007   
  0.85            2.6326e-009     0.0013048       -5.1908e-007   
  0.9             9.515e-010      0.0016965       -5.3445e-007   
  0.95            -2.2265e-009    0.0021257       -5.2509e-007   
  1               -1.8639e-009    0.002565        -5.4285e-007   
  1.05            -8.6e-012       0.0030104       -5.1058e-007   
  1.1             2.2793e-009     0.0034776       -4.7693e-007   
  1.15            1.9623e-009     0.003957        -4.0661e-007   
  1.2             1.072e-010      0.0044513       -3.5683e-007   
  1.25            -1.9557e-009    0.0049416       -3.012e-007    
  1.3             -1.9797e-009    0.0054284       -2.7721e-007   
  1.35            -2.209e-010     0.0059173       -2.3597e-007   
  1.4             1.9367e-009     0.0064104       -2.0603e-007   
  1.45            2.1378e-009     0.0069122       -1.4925e-007   
  1.5             3.052e-010      0.0074129       -1.1861e-007   
  1.55            -1.955e-010     0.0079044       -9.584e-008    
  1.6             2.1224e-009     0.0083941       -1.04296e-007  
  1.65            2.0467e-009     0.0088909       -5.8367e-008   
  1.7             1.98e-010       0.0093895       -4.3903e-008   
  1.75            -1.8091e-009    0.0098829       -2.5523e-008   
  1.8             -2.0526e-009    0.0103643       -3.9852e-008   
END_DB

