! VERSION = 6.00
BEGIN_HEADER
 ICCAP_INPUTS
  VG         V  B GROUND SMU4 0.001 LIN        1    0          1.8        37   0.05      
  VS         V  E GROUND SMU2 0.1 CON        0
  VB         V  C GROUND SMU3 0.1 LIN        3    0          -1.8       3    -0.9      
  VD         V  S GROUND SMU1 0.1 LIN        2    0.1        1.8        2    1.7       
 ICCAP_OUTPUTS
  IG         I  B GROUND SMU4 B
  ID         I  S GROUND SMU1 B
  IB         I  C GROUND SMU3 B
END_HEADER

BEGIN_DB
 ICCAP_VAR VS         0              
 ICCAP_VAR VB         0              
 ICCAP_VAR VD         0.1            

 #VG              IG              ID              IB             
  0               1.0348e-009     9.553e-010      1.8272e-008    
  0.05            1.453e-009      -1.0377e-009    -2.608e-008    
  0.1             9.664e-010      2.3774e-009     -8.505e-009    
  0.15            -1.515e-009     1.8757e-009     1.2035e-008    
  0.2             1.472e-010      -1.7029e-009    8.29e-009      
  0.25            -3.33e-011      -1.2106e-009    -1.1568e-008   
  0.3             -2.734e-010     1.4715e-009     -1.1801e-008   
  0.35            2.0168e-009     1.6497e-008     2.0431e-008    
  0.4             1.4429e-009     6.739e-008      -7.699e-009    
  0.45            -1.0144e-009    2.8802e-007     1.5288e-008    
  0.5             2.5175e-009     1.1275e-006     1.8367e-008    
  0.55            4.984e-010      4.0496e-006     1.1125e-008    
  0.6             -2.0539e-009    1.1869e-005     1.3018e-008    
  0.65            1.2857e-009     2.8492e-005     -2.6227e-008   
  0.7             2.8032e-009     5.657e-005      -1.0561e-008   
  0.75            -1.5839e-009    9.7671e-005     1.8425e-008    
  0.8             -1.3174e-009    0.00014732      6.195e-009     
  0.85            -2.4795e-009    0.00020104      1.1682e-008    
  0.9             -1.8516e-009    0.0002561       1.366e-009     
  0.95            -1.4354e-009    0.00031174      4.614e-009     
  1               -1.3345e-009    0.00036603      9.471e-009     
  1.05            -2.5915e-009    0.00041816      1.1323e-008    
  1.1             -2.0174e-009    0.00046699      6.09e-010      
  1.15            -1.5007e-009    0.00051379      3.418e-009     
  1.2             -1.356e-009     0.00055788      8.544e-009     
  1.25            -2.6634e-009    0.00059927      1.1404e-008    
  1.3             -2.1883e-009    0.00063723      5.44e-010      
  1.35            -1.592e-009     0.00067342      2.54e-009      
  1.4             -1.3751e-009    0.0007072       7.011e-009     
  1.45            -2.7061e-009    0.00073847      1.1097e-008    
  1.5             -2.897e-010     0.00076701      -1.1569e-008   
  1.55            -8.096e-010     0.00079437      -1.1698e-008   
  1.6             -1.1811e-009    0.00082002      -9.735e-009    
  1.65            6.49e-011       0.00084259      -1.1588e-008   
  1.7             -4.72e-010      0.00086472      -1.1749e-008   
  1.75            -9.216e-010     0.00088516      -1.087e-008    
  1.8             1.4317e-009     0.00090326      -1.2557e-008   
END_DB

BEGIN_DB
 ICCAP_VAR VS         0              
 ICCAP_VAR VB         0              
 ICCAP_VAR VD         1.8            

 #VG              IG              ID              IB             
  0               -1.5456e-009    1.329e-010      1.0112e-008    
  0.05            -8.986e-010     -2.2044e-009    7.869e-009     
  0.1             1.7382e-009     -1.5648e-009    -1.2719e-008   
  0.15            2.566e-009      1.3516e-009     -8.829e-009    
  0.2             2.863e-010      3.4727e-009     1.1125e-008    
  0.25            4.997e-010      8.03e-009       1.0902e-008    
  0.3             1.84e-009       2.7489e-008     1.755e-008     
  0.35            2.5245e-009     1.1918e-007     -1.0361e-008   
  0.4             1.82e-009       5.1153e-007     -3.808e-009    
  0.45            -1.6669e-009    2.1714e-006     -1.4555e-008   
  0.5             -2.0305e-009    7.3684e-006     -1.8105e-008   
  0.55            2.4025e-009     2.1267e-005     -3.1726e-008   
  0.6             1.7008e-009     5.112e-005      -4.4204e-008   
  0.65            1.3371e-009     0.000103197     -7.8269e-008   
  0.7             2.7981e-009     0.00018118      -9.488e-008    
  0.75            2.2212e-009     0.00028119      -1.4219e-007   
  0.8             1.5546e-009     0.00040103      -1.8248e-007   
  0.85            1.3023e-009     0.00053672      -2.1629e-007   
  0.9             2.8598e-009     0.00068316      -2.4314e-007   
  0.95            2.4164e-009     0.00084182      -2.5561e-007   
  1               1.6933e-009     0.00100502      -2.749e-007    
  1.05            -2.357e-009     0.0011789       -2.927e-007    
  1.1             -1.7035e-009    0.0013497       -2.8707e-007   
  1.15            -1.4011e-009    0.0015244       -2.8672e-007   
  1.2             -1.3173e-009    0.0017011       -2.8185e-007   
  1.25            -2.4946e-009    0.0018792       -2.7823e-007   
  1.3             -1.8581e-009    0.0020552       -2.8426e-007   
  1.35            -1.4385e-009    0.0022335       -2.7494e-007   
  1.4             -1.3372e-009    0.0024116       -2.6231e-007   
  1.45            -2.6032e-009    0.0025893       -2.5215e-007   
  1.5             -2.0274e-009    0.0027643       -2.5359e-007   
  1.55            -1.5037e-009    0.0029411       -2.4093e-007   
  1.6             -1.3571e-009    0.003117        -2.2581e-007   
  1.65            -2.679e-009     0.0032922       -2.1268e-007   
  1.7             -2.1961e-009    0.0034633       -2.132e-007    
  1.75            -1.6026e-009    0.0036359       -2.0101e-007   
  1.8             -1.3755e-009    0.0038072       -1.866e-007    
END_DB

BEGIN_DB
 ICCAP_VAR VS         0              
 ICCAP_VAR VB         -0.9           
 ICCAP_VAR VD         0.1            

 #VG              IG              ID              IB             
  0               4.19e-011       5.01e-010       1.0341e-008    
  0.05            2.433e-010      2.1846e-009     1.1149e-008    
  0.1             4.555e-010      2.2757e-009     1.1091e-008    
  0.15            6.598e-010      2.3542e-009     1.0391e-008    
  0.2             -1.9089e-009    1.5744e-009     1.8693e-008    
  0.25            -1.533e-009     -1.7208e-009    4.054e-009     
  0.3             1.281e-009      -1.2905e-009    -2.1966e-008   
  0.35            2.2826e-009     1.6425e-009     -1.0971e-008   
  0.4             -1.3589e-009    3.7998e-009     2.6824e-008    
  0.45            2.8339e-009     1.2598e-008     1.1131e-008    
  0.5             4.166e-010      5.7099e-008     1.0992e-008    
  0.55            2.8717e-009     2.4768e-007     -1.1754e-008   
  0.6             -1.7687e-009    1.08355e-006    2.3059e-008    
  0.65            -2.4455e-009    3.8545e-006     -1.8134e-008   
  0.7             2.6624e-009     1.1553e-005     -1.1767e-008   
  0.75            7.104e-010      2.8526e-005     1.1161e-008    
  0.8             -1.5477e-009    5.7701e-005     1.7202e-008    
  0.85            -1.3635e-009    9.8555e-005     7.806e-009     
  0.9             -1.4962e-009    0.00014789      1.1076e-008    
  0.95            -1.3554e-009    0.00020225      8.588e-009     
  1               -2.6722e-009    0.00025855      1.1585e-008    
  1.05            -2.1751e-009    0.00031356      6.2e-010       
  1.1             -1.5765e-009    0.00036775      2.51e-009      
  1.15            -1.3753e-009    0.00041939      7.243e-009     
  1.2             -2.7186e-009    0.00046827      1.1376e-008    
  1.25            1.9069e-009     0.0005131       -2.0278e-008   
  1.3             1.3883e-009     0.00055611      -8.547e-009    
  1.35            2.8819e-009     0.00059629      -8.472e-009    
  1.4             2.7167e-009     0.0006343       -7.4e-011      
  1.45            5.865e-010      0.00066931      1.1259e-008    
  1.5             9.837e-010      0.00070122      9.811e-009     
  1.55            -1.727e-010     0.00073173      1.1889e-008    
  1.6             -1.4064e-009    0.00076031      2.5804e-008    
  1.65            -1.319e-009     0.00078632      1.0299e-008    
  1.7             -2.5202e-009    0.00081057      1.1552e-008    
  1.75            -1.885e-009     0.00083256      1.392e-009     
  1.8             -1.4466e-009    0.00085329      4.108e-009     
END_DB

BEGIN_DB
 ICCAP_VAR VS         0              
 ICCAP_VAR VB         -0.9           
 ICCAP_VAR VD         1.8            

 #VG              IG              ID              IB             
  0               1.0609e-009     1.9489e-009     -1.1604e-008   
  0.05            2.858e-009      1.8664e-009     -2.3122e-008   
  0.1             2.8768e-009     1.8223e-009     -7.36e-010     
  0.15            2.819e-009      1.807e-009      -1.353e-009    
  0.2             -1.3022e-009    2.6203e-009     1.7956e-008    
  0.25            -2.6391e-009    1.7882e-009     1.2003e-008    
  0.3             -2.4371e-009    3.1383e-009     -3.13e-010     
  0.35            2.7672e-009     1.6251e-008     1.6652e-008    
  0.4             8.687e-010      6.9446e-008     9.506e-009     
  0.45            2.8506e-009     3.0939e-007     -1.301e-008    
  0.5             1.8951e-009     1.2984e-006     8.749e-009     
  0.55            -2.5103e-009    5.1146e-006     5.173e-009     
  0.6             1.3129e-009     1.5473e-005     -2.5712e-008   
  0.65            2.8693e-009     3.9645e-005     -4.187e-008    
  0.7             2.4918e-009     8.5455e-005     -5.9338e-008   
  0.75            2.6738e-009     0.00015528      -8.9718e-008   
  0.8             -2.5531e-009    0.00025193      -1.1891e-007   
  0.85            -1.9438e-009    0.00036964      -1.6218e-007   
  0.9             -1.4646e-009    0.00050291      -1.9053e-007   
  0.95            -1.35e-009      0.00064932      -2.1157e-007   
  1               -2.6511e-009    0.00080617      -2.3038e-007   
  1.05            -2.1195e-009    0.00096755      -2.5776e-007   
  1.1             1.3736e-009     0.0011326       -2.6674e-007   
  1.15            1.2655e-009     0.0013034       -2.8552e-007   
  1.2             2.717e-009      0.0014768       -2.9343e-007   
  1.25            2.0471e-009     0.0016541       -2.8352e-007   
  1.3             1.4531e-009     0.0018307       -2.872e-007    
  1.35            1.2888e-009     0.0020073       -2.8421e-007   
  1.4             2.8123e-009     0.0021834       -2.8085e-007   
  1.45            2.2586e-009     0.0023627       -2.6409e-007   
  1.5             1.5695e-009     0.0025389       -2.6076e-007   
  1.55            1.3104e-009     0.0027152       -2.5477e-007   
  1.6             2.8639e-009     0.0028893       -2.4623e-007   
  1.65            2.4494e-009     0.0030663       -2.2813e-007   
  1.7             1.7226e-009     0.0032389       -2.2173e-007   
  1.75            1.3448e-009     0.0034107       -2.1672e-007   
  1.8             1.2556e-009     0.0035815       -2.0677e-007   
END_DB

BEGIN_DB
 ICCAP_VAR VS         0              
 ICCAP_VAR VB         -1.8           
 ICCAP_VAR VD         0.1            

 #VG              IG              ID              IB             
  0               2.0256e-009     2.2499e-009     7.18e-010      
  0.05            1.4748e-009     1.9014e-009     -7.704e-009    
  0.1             1.6656e-009     1.6215e-009     1.0705e-008    
  0.15            2.996e-010      2.2125e-009     1.1234e-008    
  0.2             5.063e-010      2.3002e-009     1.102e-008     
  0.25            7.056e-010      2.3708e-009     1.0194e-008    
  0.3             8.803e-010      2.4009e-009     9.388e-009     
  0.35            -1.6051e-009    1.8725e-009     1.3245e-008    
  0.4             -1.45e-009      1.426e-010      6.84e-009      
  0.45            -1.3839e-009    2.458e-009      8.973e-009     
  0.5             2.876e-009      1.3684e-008     1.1107e-008    
  0.55            -1.2901e-009    6.336e-008      2.4529e-008    
  0.6             2.2061e-009     2.7681e-007     -1.8313e-008   
  0.65            2.8741e-009     1.1493e-006     2.8422e-008    
  0.7             2.6649e-009     4.1473e-006     -1.69e-010     
  0.75            -1.3275e-009    1.2678e-005     7.921e-009     
  0.8             -2.5322e-009    3.0449e-005     1.1489e-008    
  0.85            -1.9108e-009    6.0023e-005     1.206e-009     
  0.9             -1.4543e-009    0.000101298     4.049e-009     
  0.95            -1.3121e-009    0.00015147      6.54e-009      
  1               -2.4497e-009    0.00020594      1.2423e-008    
  1.05            -1.7975e-009    0.00026138      1.776e-009     
  1.1             -1.4173e-009    0.00031685      4.985e-009     
  1.15            -1.3297e-009    0.00037047      1.0055e-008    
  1.2             -2.5676e-009    0.00042161      1.159e-008     
  1.25            -1.9519e-009    0.00046936      1.069e-009     
  1.3             -1.4681e-009    0.00051456      3.807e-009     
  1.35            -1.35e-009      0.000557        8.774e-009     
  1.4             -2.6486e-009    0.00059667      1.1613e-008    
  1.45            -2.1251e-009    0.00063279      7.23e-010      
  1.5             -1.5457e-009    0.00066707      3.032e-009     
  1.55            -1.366e-009     0.00069894      7.443e-009     
  1.6             -2.6952e-009    0.00072841      1.1598e-008    
  1.65            -2.2905e-009    0.00075534      5.38e-010      
  1.7             -1.6496e-009    0.00078073      2.432e-009     
  1.75            -1.3865e-009    0.00080419      6.009e-009     
  1.8             -1.3079e-009    0.00082607      1.0617e-008    
END_DB

BEGIN_DB
 ICCAP_VAR VS         0              
 ICCAP_VAR VB         -1.8           
 ICCAP_VAR VD         1.8            

 #VG              IG              ID              IB             
  0               -2.705e-009     7.3997e-008     -7.5219e-008   
  0.05            -2.3142e-009    7.4538e-008     -7.5465e-008   
  0.1             -1.6829e-009    7.4548e-008     -7.3598e-008   
  0.15            -1.3919e-009    7.4824e-008     -6.9972e-008   
  0.2             -1.3141e-009    7.5109e-008     -6.5466e-008   
  0.25            -2.4582e-009    7.5503e-008     -6.3794e-008   
  0.3             -1.8076e-009    7.5675e-008     -7.4343e-008   
  0.35            -1.4198e-009    8.0061e-008     -7.1293e-008   
  0.4             -1.3305e-009    1.01125e-007    -6.6184e-008   
  0.45            -1.3192e-009    2.0203e-007     -7.7658e-008   
  0.5             -2.5005e-009    6.4114e-007     -6.4918e-008   
  0.55            -8.124e-010     2.324e-006      -8.0479e-008   
  0.6             1.4478e-009     7.9547e-006     -9.4088e-008   
  0.65            1.0591e-009     2.3149e-005     -9.5943e-008   
  0.7             1.4527e-009     5.4563e-005     -1.4034e-007   
  0.75            1.2787e-009     0.000109371     -1.5405e-007   
  0.8             2.0175e-009     0.00019014      -1.8818e-007   
  0.85            1.4251e-009     0.0002937       -2.2285e-007   
  0.9             1.2748e-009     0.00041641      -2.5607e-007   
  0.95            2.7766e-009     0.00055385      -2.882e-007    
  1               2.1616e-009     0.00070551      -3.0223e-007   
  1.05            1.5128e-009     0.00086354      -3.2678e-007   
  1.1             1.2958e-009     0.00102768      -3.4288e-007   
  1.15            1.204e-010      0.0012016       -3.5565e-007   
  1.2             5.985e-010      0.0013727       -3.3876e-007   
  1.25            9.959e-010      0.0015437       -3.4325e-007   
  1.3             1.3887e-009     0.0017165       -3.4341e-007   
  1.35            1.8361e-009     0.0018942       -3.4043e-007   
  1.4             2.2289e-009     0.0020735       -3.3821e-007   
  1.45            2.5166e-009     0.0022498       -3.3605e-007   
  1.5             2.8077e-009     0.0024258       -3.3093e-007   
  1.55            2.8597e-009     0.002602        -3.3272e-007   
  1.6             2.4205e-009     0.0027761       -3.2891e-007   
  1.65            1.6963e-009     0.00295         -3.2733e-007   
  1.7             1.3328e-009     0.0031223       -3.2791e-007   
  1.75            2.8815e-009     0.0032932       -3.2477e-007   
  1.8             2.5589e-009     0.0034669       -3.1546e-007   
END_DB

