! VERSION = 6.00
BEGIN_HEADER
 ICCAP_INPUTS
  VG         V  B GROUND SMU4 0.001 LIN        1    0          1.8        37   0.05      
  VS         V  E GROUND SMU3 0.1 CON        0
  VB         V  C GROUND SMU1 0.1 LIN        3    0          -1.8       3    -0.9      
  VD         V  S GROUND SMU2 0.1 LIN        2    0.1        1.8        2    1.7       
 ICCAP_OUTPUTS
  IG         I  B GROUND SMU4 B
  ID         I  S GROUND SMU2 B
  IB         I  C GROUND SMU1 B
END_HEADER

BEGIN_DB
 ICCAP_VAR VS         0              
 ICCAP_VAR VB         0              
 ICCAP_VAR VD         0.1            

 #VG              IG              ID              IB             
  0               4.421e-010      -7.641e-010     -1.3915e-008   
  0.05            2.6524e-009     5.054e-010      -7.547e-009    
  0.1             -2.3342e-009    7.845e-010      1.4195e-008    
  0.15            2.5825e-009     -7.61e-010      -1.4968e-008   
  0.2             -2.4473e-009    6.01e-010       1.2993e-008    
  0.25            2.6692e-009     -4.453e-010     -1.3666e-008   
  0.3             -2.5338e-009    7.706e-010      1.1623e-008    
  0.35            2.7224e-009     -1.4256e-009    -9.282e-009    
  0.4             1.109e-010      1.0191e-008     -1.5784e-008   
  0.45            -8.082e-010     2.8182e-008     -9.804e-009    
  0.5             -2.1769e-009    1.3218e-007     1.619e-008     
  0.55            2.6139e-009     5.0138e-007     -1.0472e-008   
  0.6             -2.1835e-009    1.6389e-006     -1.492e-008    
  0.65            2.6134e-009     4.2689e-006     -1.0783e-008   
  0.7             -1.9165e-009    9.272e-006      1.4962e-008    
  0.75            -1.533e-010     1.6407e-005     1.0963e-008    
  0.8             2.135e-009      2.5606e-005     -1.6148e-008   
  0.85            -1.5159e-009    3.6796e-005     1.7675e-008    
  0.9             -9.547e-010     4.8138e-005     -9.634e-009    
  0.95            2.7449e-009     5.9321e-005     -6.889e-009    
  1               -2.4309e-009    7.0808e-005     1.116e-008     
  1.05            2.075e-009      8.1163e-005     -1.6251e-008   
  1.1             -1.4749e-009    9.1523e-005     1.6862e-008    
  1.15            2.4535e-009     0.000100601     -1.3808e-008   
  1.2             -1.6616e-009    0.000109643     1.6608e-008    
  1.25            -1.7966e-009    0.00011779      -1.197e-008    
  1.3             1.8616e-009     0.00012508      -1.7196e-008   
  1.35            -2.448e-009     0.0001323       1.1208e-008    
  1.4             2.1095e-009     0.00013861      -1.6302e-008   
  1.45            -1.4992e-009    0.00014487      1.7394e-008    
  1.5             2.4709e-009     0.00015021      -1.3735e-008   
  1.55            -1.6758e-009    0.0001556       1.6472e-008    
  1.6             -8.574e-010     0.00016043      -9.778e-009    
  1.65            2.7422e-009     0.00016483      -7.28e-009     
  1.7             -1.3496e-009    0.00016923      1.3287e-008    
  1.75            2.2786e-009     0.00017285      -1.509e-008    
  1.8             1.9695e-009     0.00017653      8.417e-009     
END_DB

BEGIN_DB
 ICCAP_VAR VS         0              
 ICCAP_VAR VB         0              
 ICCAP_VAR VD         1.8            

 #VG              IG              ID              IB             
  0               1.2817e-009     2.177e-010      1.0674e-008    
  0.05            -2.5144e-009    4.322e-010      1.1969e-008    
  0.1             2.7091e-009     -3.503e-010     -1.1529e-008   
  0.15            -2.5713e-009    2.512e-010      1.1272e-008    
  0.2             1.6344e-009     -2.8909e-009    -1.0653e-008   
  0.25            -1.8477e-009    3.4516e-009     1.7051e-008    
  0.3             1.6342e-009     3.7978e-009     -1.8658e-008   
  0.35            2.5843e-009     1.4653e-008     1.4096e-008    
  0.4             8.325e-010      5.9323e-008     9.331e-009     
  0.45            3.568e-010      2.3855e-007     -8.186e-009    
  0.5             -1.6428e-009    9.1926e-007     1.5423e-008    
  0.55            1.7977e-009     2.9051e-006     6.035e-009     
  0.6             -1.6418e-009    8.0635e-006     9.124e-009     
  0.65            2.4851e-009     1.7209e-005     -1.7655e-008   
  0.7             1.8211e-009     3.1882e-005     -1.2643e-008   
  0.75            -6.08e-011      5.2632e-005     -2.2331e-008   
  0.8             -2.2748e-009    7.7773e-005     -2.583e-008    
  0.85            -1.8527e-009    0.00010673      -5.503e-008    
  0.9             -2.5438e-009    0.00013878      -6.1567e-008   
  0.95            -8.674e-010     0.00017361      -6.5663e-008   
  1               2.6502e-009     0.00020964      -7.9348e-008   
  1.05            1.6432e-009     0.00024718      -5.2805e-008   
  1.1             -1.3091e-009    0.00028815      -5.0024e-008   
  1.15            -2.4341e-009    0.00032774      -6.8158e-008   
  1.2             -7.585e-010     0.00036851      -7.0563e-008   
  1.25            2.7127e-009     0.00040898      -7.8023e-008   
  1.3             1.5215e-009     0.0004498       -4.9045e-008   
  1.35            -1.4148e-009    0.00049317      -3.9928e-008   
  1.4             -2.3165e-009    0.00053444      -5.9202e-008   
  1.45            -6.219e-010     0.00057623      -5.9786e-008   
  1.5             1.4167e-009     0.00061749      -6.4757e-008   
  1.55            2.3971e-009     0.00065964      -3.7422e-008   
  1.6             5.736e-010      0.00070159      -3.1857e-008   
  1.65            -1.371e-009     0.00074341      -2.0705e-008   
  1.7             -2.3504e-009    0.00078436      -4.3097e-008   
  1.75            -6.541e-010     0.00082565      -4.3977e-008   
  1.8             1.3711e-009     0.00086585      -4.9468e-008   
END_DB

BEGIN_DB
 ICCAP_VAR VS         0              
 ICCAP_VAR VB         -0.9           
 ICCAP_VAR VD         0.1            

 #VG              IG              ID              IB             
  0               1.0257e-009     1.7172e-009     1.1187e-008    
  0.05            -2.4703e-009    5.527e-010      1.2634e-008    
  0.1             2.6866e-009     -4.939e-010     -1.3164e-008   
  0.15            -2.546e-009     3.378e-010      1.1553e-008    
  0.2             1.5281e-009     -3.1036e-009    -9.745e-009    
  0.25            -1.75e-009      2.93e-009       1.523e-008     
  0.3             2.2247e-009     -2.7304e-009    -1.8427e-008   
  0.35            -2.1417e-009    1.0753e-009     1.6319e-008    
  0.4             2.4159e-009     -8.141e-010     -1.6582e-008   
  0.45            -2.3058e-009    1.9544e-009     1.4629e-008    
  0.5             2.5636e-009     4.6368e-009     -1.5286e-008   
  0.55            -1.5432e-009    2.0567e-008     -6.099e-009    
  0.6             9.317e-010      1.1565e-007     -1.6091e-008   
  0.65            -2.6026e-009    4.6217e-007     7.719e-009     
  0.7             2.438e-009      1.5416e-006     1.5893e-008    
  0.75            -1.6507e-009    4.2599e-006     1.6631e-008    
  0.8             -8.779e-010     9.1455e-006     -9.628e-009    
  0.85            -8.004e-010     1.661e-005      1.6199e-008    
  0.9             2.7255e-009     2.6021e-005     -7.865e-009    
  0.95            -1.4145e-009    3.7301e-005     1.5347e-008    
  1               2.4033e-009     4.8526e-005     -1.4328e-008   
  1.05            -1.5872e-009    6.0454e-005     1.6599e-008    
  1.1             -9.127e-010     7.1617e-005     -9.594e-009    
  1.15            2.7474e-009     8.2047e-005     -6.845e-009    
  1.2             -2.4786e-009    9.2304e-005     1.1018e-008    
  1.25            2.1969e-009     0.000101356     -1.5655e-008   
  1.3             -1.5623e-009    0.000110304     1.9213e-008    
  1.35            1.845e-010      0.00011807      -1.6945e-008   
  1.4             2.5979e-009     0.00012533      -1.1669e-008   
  1.45            -1.887e-009     0.00013232      1.5474e-008    
  1.5             2.7251e-009     0.00013857      -1.3971e-008   
  1.55            -2.2525e-009    0.00014449      1.2433e-008    
  1.6             1.737e-009      0.00014976      -1.7125e-008   
  1.65            -2.3971e-009    0.00015488      1.1531e-008    
  1.7             1.9966e-009     0.00015943      -1.665e-008    
  1.75            -1.4223e-009    0.00016395      1.562e-008     
  1.8             2.4059e-009     0.00016774      -1.4454e-008   
END_DB

BEGIN_DB
 ICCAP_VAR VS         0              
 ICCAP_VAR VB         -0.9           
 ICCAP_VAR VD         1.8            

 #VG              IG              ID              IB             
  0               7.691e-010      1.165e-010      -7.279e-009    
  0.05            2.3178e-009     1.768e-009      -4.998e-009    
  0.1             -1.5309e-009    1.5758e-009     1.9393e-008    
  0.15            1.9561e-009     -2.8898e-009    -1.4223e-008   
  0.2             -1.911e-009     1.2571e-009     1.6805e-008    
  0.25            2.1861e-009     -1.2309e-009    -1.6903e-008   
  0.3             -2.1109e-009    1.3374e-009     1.6192e-008    
  0.35            2.3866e-009     2.315e-010      -1.6841e-008   
  0.4             -2.2744e-009    7.1552e-009     1.5071e-008    
  0.45            -1.8625e-009    2.7855e-008     -1.7212e-008   
  0.5             3.616e-010      1.3798e-007     -8.051e-009    
  0.55            -1.6482e-009    5.7051e-007     1.587e-008     
  0.6             2.0397e-009     2.0084e-006     9.207e-009     
  0.65            -2.5669e-009    6.031e-006      3.307e-009     
  0.7             -2.6397e-009    1.42e-005       -4.555e-009    
  0.75            -1.2238e-009    2.7818e-005     -2.6492e-008   
  0.8             2.1599e-009     4.6499e-005     -4.9011e-008   
  0.85            2.0416e-009     7.0868e-005     -2.6842e-008   
  0.9             1.651e-010      9.9839e-005     -3.3892e-008   
  0.95            8.726e-010      0.00013144      -2.8532e-008   
  1               -2.3867e-009    0.00016678      -3.0707e-008   
  1.05            -1.785e-009     0.00020369      -6.5827e-008   
  1.1             1.345e-010      0.00024067      -6.7025e-008   
  1.15            2.5528e-009     0.00027989      -7.2021e-008   
  1.2             1.7614e-009     0.00031986      -5.0178e-008   
  1.25            -1.152e-010     0.00036222      -4.9764e-008   
  1.3             -2.3349e-009    0.00040357      -4.4681e-008   
  1.35            -1.8233e-009    0.00044501      -6.4424e-008   
  1.4             8.39e-011       0.00048555      -6.117e-008    
  1.45            2.4966e-009     0.0005274       -6.4154e-008   
  1.5             1.8132e-009     0.00056908      -3.8911e-008   
  1.55            -6.46e-011      0.00061232      -3.7434e-008   
  1.6             -2.2766e-009    0.0006541       -3.0312e-008   
  1.65            -1.8601e-009    0.00069569      -4.9434e-008   
  1.7             3.12e-011       0.0007362       -4.5601e-008   
  1.75            2.4247e-009     0.00077731      -4.9474e-008   
  1.8             1.8658e-009     0.00081858      -2.3622e-008   
END_DB

BEGIN_DB
 ICCAP_VAR VS         0              
 ICCAP_VAR VB         -1.8           
 ICCAP_VAR VD         0.1            

 #VG              IG              ID              IB             
  0               -8.692e-010     -3.356e-010     6.942e-009     
  0.05            -2.0933e-009    -1.8842e-009    2.552e-009     
  0.1             1.9107e-009     -1.4734e-009    -1.6702e-008   
  0.15            -2.0836e-009    2.6092e-009     2.2064e-008    
  0.2             2.3748e-009     -1.1278e-009    -1.669e-008    
  0.25            -2.275e-009     9.084e-010      1.5086e-008    
  0.3             2.5359e-009     -9.037e-010     -1.5642e-008   
  0.35            -2.4125e-009    7.186e-010      1.3994e-008    
  0.4             2.6463e-009     -6.085e-010     -1.4843e-008   
  0.45            -2.5071e-009    7.727e-010      1.2565e-008    
  0.5             2.71e-009       -1.8164e-009    -8.223e-009    
  0.55            -1.4342e-009    1.00665e-008    9.39e-009      
  0.6             2.4885e-009     3.3959e-008     1.3155e-008    
  0.65            1.1588e-009     1.4432e-007     -1.6462e-008   
  0.7             -2.5152e-009    5.7861e-007     1.0634e-008    
  0.75            2.4205e-009     1.8708e-006     1.4903e-008    
  0.8             -1.5964e-009    4.9592e-006     1.6307e-008    
  0.85            2.5885e-009     1.0189e-005     -1.2329e-008   
  0.9             8.419e-010      1.8151e-005     -1.6606e-008   
  0.95            -2.6136e-009    2.8244e-005     7.206e-009     
  1               2.087e-010      3.9082e-005     -9.825e-009    
  1.05            2.6451e-009     5.0703e-005     -1.0984e-008   
  1.1             -1.9312e-009    6.2594e-005     1.4779e-008    
  1.15            1.5381e-009     7.3476e-005     -1.4709e-008   
  1.2             8.874e-010      8.4057e-005     9.03e-009      
  1.25            -2.6015e-009    9.412e-005      7.616e-009     
  1.3             2.6347e-009     0.000102956     -1.1007e-008   
  1.35            -1.9123e-009    0.000111684     1.4999e-008    
  1.4             -1.6602e-009    0.00011952      -1.6023e-008   
  1.45            2.7064e-009     0.00012653      -1.1051e-008   
  1.5             -2.1284e-009    0.00013326      1.3753e-008    
  1.55            1.7566e-009     0.00013933      -1.8333e-008   
  1.6             -2.4257e-009    0.00014515      1.1808e-008    
  1.65            2.0277e-009     0.00015025      -1.6226e-008   
  1.7             -1.4329e-009    0.00015538      1.5712e-008    
  1.75            2.4544e-009     0.00015968      -1.4379e-008   
  1.8             -1.6146e-009    0.00016399      1.6233e-008    
END_DB

BEGIN_DB
 ICCAP_VAR VS         0              
 ICCAP_VAR VB         -1.8           
 ICCAP_VAR VD         1.8            

 #VG              IG              ID              IB             
  0               1.0732e-009     1.7719e-009     1.1345e-008    
  0.05            -2.5646e-009    3.039e-010      1.201e-008     
  0.1             2.7378e-009     -2.132e-010     -1.0173e-008   
  0.15            -2.594e-009     1.052e-010      1.1065e-008    
  0.2             1.7877e-009     -2.9452e-009    -1.18e-008     
  0.25            -1.9855e-009    2.7026e-009     1.9738e-008    
  0.3             2.4575e-009     -2.4218e-009    -2.1691e-008   
  0.35            -2.3425e-009    1.389e-009      1.4328e-008    
  0.4             2.2692e-009     4.0883e-009     -1.6405e-008   
  0.45            2.6448e-009     1.565e-008      1.5218e-008    
  0.5             -1.6104e-009    6.4298e-008     1.5869e-008    
  0.55            -1.132e-009     2.7976e-007     1.5134e-008    
  0.6             2.3201e-009     1.07753e-006    -2.4303e-008   
  0.65            -2.6189e-009    3.6332e-006     -1.3561e-008   
  0.7             -1.2824e-009    9.5654e-006     -1.5895e-008   
  0.75            -2.616e-010     2.0097e-005     -2.722e-009    
  0.8             1.9518e-009     3.6304e-005     -3.8695e-008   
  0.85            2.1242e-009     5.8397e-005     -2.3228e-008   
  0.9             2.727e-010      8.5255e-005     -2.9442e-008   
  0.95            1.5709e-009     0.0001151       -4.6821e-008   
  1               2.3079e-009     0.00014903      -4.315e-008    
  1.05            4.736e-010      0.00018503      -4.4555e-008   
  1.1             -1.4677e-009    0.0002229       -4.0555e-008   
  1.15            -2.2571e-009    0.00026118      -6.5337e-008   
  1.2             -5.506e-010     0.00030105      -6.8915e-008   
  1.25            1.496e-009      0.00034102      -7.4579e-008   
  1.3             2.3484e-009     0.00038251      -4.9895e-008   
  1.35            5.176e-010      0.00042396      -4.55e-008     
  1.4             -1.4139e-009    0.00046601      -3.6426e-008   
  1.45            -2.2981e-009    0.00050725      -5.8349e-008   
  1.5             -6.029e-010     0.00054901      -5.8889e-008   
  1.55            1.415e-009      0.00059017      -6.3165e-008   
  1.6             2.3889e-009     0.00063242      -3.6568e-008   
  1.65            5.702e-010      0.0006742       -3.1086e-008   
  1.7             -1.3608e-009    0.00071626      -2.0648e-008   
  1.75            -2.3484e-009    0.00075718      -4.298e-008    
  1.8             -6.61e-010      0.00079815      -4.3582e-008   
END_DB

