! VERSION = 6.00
BEGIN_HEADER
 ICCAP_INPUTS
  VG         V  B GROUND SMU4 0.001 LIN        2    0          1.8        6    0.36      
  VS         V  E GROUND SMU3 0.1 CON        0
  VD         V  S GROUND SMU2 0.1 LIN        1    0          1.8        37   0.05      
  VB         V  C GROUND SMU1 0.1 LIN        3    0          -0.9       2    -0.9      
 ICCAP_OUTPUTS
  ID         I  S GROUND SMU2 B
  IB         I  C GROUND SMU1 B
  IG         I  B GROUND SMU4 B
END_HEADER

BEGIN_DB
 ICCAP_VAR VG         0              
 ICCAP_VAR VS         0              
 ICCAP_VAR VB         0              

 #VD              ID              IB              IG             
  0               -3.2532e-009    -1.6818e-008    -2.4298e-009   
  0.05            -3.312e-010     -1.1789e-008    2.7059e-009    
  0.1             2.271e-010      1.1114e-008     -2.5584e-009   
  0.15            -3.0426e-009    -1.0438e-008    1.6135e-009    
  0.2             2.8625e-009     1.6375e-008     -1.8136e-009   
  0.25            -1.3826e-009    -1.6845e-008    2.0551e-009    
  0.3             1.1885e-009     1.6674e-008     -1.9793e-009   
  0.35            -1.2483e-009    -1.6923e-008    2.2396e-009    
  0.4             1.0419e-009     1.5985e-008     -2.1407e-009   
  0.45            -1.0809e-009    -1.6686e-008    2.406e-009     
  0.5             8.957e-010      1.5149e-008     -2.2834e-009   
  0.55            -9.033e-010     -1.6107e-008    2.5261e-009    
  0.6             7.287e-010      1.4352e-008     -2.3913e-009   
  0.65            -3.4543e-009    -8.227e-009     1.569e-010     
  0.7             1.62e-011       -8.306e-009     2.7251e-009    
  0.75            2.8679e-009     1.6064e-008     -1.7855e-009   
  0.8             -1.3997e-009    -1.6632e-008    2.0316e-009    
  0.85            1.2074e-009     1.6517e-008     -1.9601e-009   
  0.9             -1.264e-009     -1.6982e-008    2.2185e-009    
  0.95            1.0589e-009     1.6168e-008     -2.1224e-009   
  1               -1.1068e-009    -1.6532e-008    2.3806e-009    
  1.05            9.114e-010      1.5322e-008     -2.2625e-009   
  1.1             -9.289e-010     -1.5964e-008    2.5221e-009    
  1.15            7.553e-010      1.4231e-008     -2.3852e-009   
  1.2             -3.4663e-009    -8.337e-009     1.502e-010     
  1.25            7e-012          -8.21e-009      2.7243e-009    
  1.3             2.8786e-009     1.5754e-008     -1.7708e-009   
  1.35            -2.7238e-009    -1.8566e-008    2.2348e-009    
  1.4             1.0492e-009     1.6e-008        -2.1363e-009   
  1.45            -1.0932e-009    -1.66e-008      2.4057e-009    
  1.5             9.008e-010      1.4961e-008     -2.285e-009    
  1.55            -9.045e-010     -1.5894e-008    2.5301e-009    
  1.6             7.343e-010      1.4185e-008     -2.3944e-009   
  1.65            -3.4544e-009    -8.284e-009     1.638e-010     
  1.7             2.01e-011       -8.357e-009     2.7259e-009    
  1.75            2.8619e-009     1.6099e-008     -1.7945e-009   
  1.8             -2.7156e-009    -1.8856e-008    2.2604e-009    
END_DB

BEGIN_DB
 ICCAP_VAR VG         0.36           
 ICCAP_VAR VS         0              
 ICCAP_VAR VB         0              

 #VD              ID              IB              IG             
  0               6.847e-010      1.2954e-008     -8.395e-010    
  0.05            3.8264e-009     -1.5362e-008    2.5956e-009    
  0.1             3.697e-009      1.3436e-008     -2.4568e-009   
  0.15            4.7277e-009     -1.617e-008     2.4521e-009    
  0.2             4.503e-009      1.4862e-008     -2.3327e-009   
  0.25            2.8107e-009     -1.6783e-008    2.2625e-009    
  0.3             8.115e-009      1.6236e-008     -2.167e-010    
  0.35            2.7279e-009     1.2528e-008     -1.9678e-009   
  0.4             3.7178e-009     -1.6673e-008    2.1991e-009    
  0.45            9.451e-009      -1.0153e-008    7.303e-010     
  0.5             9.845e-009      9.436e-009      7.568e-010     
  0.55            1.0245e-008     9.183e-009      7.808e-010     
  0.6             1.1121e-008     9.205e-009      8.07e-010      
  0.65            9.632e-009      1.3143e-008     1.558e-010     
  0.7             9.419e-009      1.5603e-008     1.6335e-009    
  0.75            9.759e-009      -2.2056e-008    1.5817e-009    
  0.8             1.0125e-008     -2.1402e-008    1.5318e-009    
  0.85            1.1012e-008     6.462e-009      1.1743e-009    
  0.9             1.054e-008      -1.6422e-008    2.713e-009     
  0.95            1.1359e-008     -7.876e-009     2.7273e-009    
  1               1.1774e-008     -1.6347e-008    2.5983e-009    
  1.05            1.2535e-008     -1.4793e-008    1.9644e-009    
  1.1             1.2126e-008     -1.1099e-008    2.6222e-009    
  1.15            1.3373e-008     -6.791e-009     2.7229e-009    
  1.2             1.1918e-008     -1.6423e-008    1.5812e-009    
  1.25            1.3593e-008     -1.4459e-008    2.4102e-009    
  1.3             1.5122e-008     -7.624e-009     2.7186e-009    
  1.35            1.7256e-008     -7.948e-009     2.68e-009      
  1.4             1.4903e-008     -1.6382e-008    2.0833e-009    
  1.45            2.3799e-008     -1.0329e-008    2.6522e-009    
  1.5             1.8048e-008     -7.042e-009     2.7272e-009    
  1.55            1.712e-008      -1.6414e-008    1.6761e-009    
  1.6             1.6207e-008     -1.6051e-008    1.6203e-009    
  1.65            1.7196e-008     -1.5132e-008    1.5588e-009    
  1.7             1.8238e-008     -1.4128e-008    1.5211e-009    
  1.75            1.9395e-008     -1.3443e-008    2.7181e-009    
  1.8             2.4006e-008     -7.984e-009     2.6847e-009    
END_DB

BEGIN_DB
 ICCAP_VAR VG         0.72           
 ICCAP_VAR VS         0              
 ICCAP_VAR VB         0              

 #VD              ID              IB              IG             
  0               -2.9532e-008    1.6464e-008     8.933e-010     
  0.05            8.1316e-006     8.97e-009       2.7242e-009    
  0.1             1.2454e-005     1.1808e-008     -2.532e-010    
  0.15            1.4632e-005     -1.651e-008     2.0121e-009    
  0.2             1.5968e-005     -1.6584e-008    1.7045e-009    
  0.25            1.6941e-005     -1.6569e-008    1.4387e-009    
  0.3             1.7773e-005     -1.7812e-008    2.704e-009     
  0.35            1.8471e-005     -1.0292e-008    2.6448e-009    
  0.4             1.9281e-005     -1.7426e-008    1.7072e-009    
  0.45            1.9924e-005     -1.653e-008     1.4505e-009    
  0.5             2.0594e-005     -1.7904e-008    2.7067e-009    
  0.55            2.1225e-005     -1.0311e-008    2.6491e-009    
  0.6             2.1999e-005     -1.7533e-008    1.7158e-009    
  0.65            2.2622e-005     -1.6568e-008    1.4522e-009    
  0.7             2.3276e-005     -1.797e-008     2.7081e-009    
  0.75            2.391e-005      -1.0053e-008    2.6511e-009    
  0.8             2.4703e-005     -1.765e-008     1.7203e-009    
  0.85            2.5315e-005     -1.6587e-008    1.4615e-009    
  0.9             2.5992e-005     -1.7756e-008    2.7112e-009    
  0.95            2.6628e-005     -1.0129e-008    2.6574e-009    
  1               2.7343e-005     -1.3315e-008    2.5402e-009    
  1.05            2.8106e-005     -1.3354e-008    2.7169e-009    
  1.1             2.8714e-005     -9.431e-009     2.6778e-009    
  1.15            2.9588e-005     -1.8782e-008    1.8091e-009    
  1.2             3.0229e-005     -1.655e-008     1.5264e-009    
  1.25            3.0941e-005     -1.7591e-008    2.7168e-009    
  1.3             3.1616e-005     -9.566e-009     2.6758e-009    
  1.35            3.2494e-005     -1.9445e-008    1.8167e-009    
  1.4             3.3167e-005     -1.7316e-008    1.5346e-009    
  1.45            3.3915e-005     -1.8869e-008    2.7188e-009    
  1.5             3.4755e-005     -2.4648e-008    2.1171e-009    
  1.55            3.5434e-005     -1.2102e-008    1.152e-010     
  1.6             3.676e-005      -1.536e-008     -1.7659e-009   
  1.65            3.7628e-005     -1.7847e-008    -1.6967e-009   
  1.7             3.8083e-005     -1.9779e-008    -2.3644e-009   
  1.75            3.8917e-005     -1.9847e-008    -2.5742e-009   
  1.8             3.9992e-005     9.94e-010       -2.084e-009    
END_DB

BEGIN_DB
 ICCAP_VAR VG         1.08           
 ICCAP_VAR VS         0              
 ICCAP_VAR VB         0              

 #VD              ID              IB              IG             
  0               1.2104e-008     1.2262e-008     1.0389e-009    
  0.05            4.5798e-005     -1.6875e-008    7.978e-010     
  0.1             8.4805e-005     1.0918e-008     -2.4705e-009   
  0.15            0.00011687      -1.1347e-008    1.66e-011      
  0.2             0.00014179      -1.2262e-008    2.6938e-009    
  0.25            0.00016021      -7.407e-009     2.7193e-009    
  0.3             0.00017365      -7.179e-009     2.7316e-009    
  0.35            0.0001833       -6.853e-009     2.7354e-009    
  0.4             0.00019029      -7.239e-009     2.7281e-009    
  0.45            0.00019575      -7.656e-009     2.7109e-009    
  0.5             0.00020009      -8.046e-009     2.6854e-009    
  0.55            0.00020374      -1.7131e-008    1.4344e-009    
  0.6             0.00020705      -1.6883e-008    1.5749e-009    
  0.65            0.00021007      -1.6791e-008    1.7414e-009    
  0.7             0.00021297      -1.6807e-008    1.9192e-009    
  0.75            0.00021563      -1.6295e-008    2.0898e-009    
  0.8             0.00021824      -1.2201e-008    2.6906e-009    
  0.85            0.00022063      -7.463e-009     2.7193e-009    
  0.9             0.0002232       -7.391e-009     2.7279e-009    
  0.95            0.0002256       -6.753e-009     2.7316e-009    
  1               0.00022804      -7.08e-009      2.7268e-009    
  1.05            0.00023042      -7.73e-009      2.7102e-009    
  1.1             0.00023276      -8.094e-009     2.6871e-009    
  1.15            0.000235        -1.722e-008     1.4322e-009    
  1.2             0.00023724      -1.7019e-008    1.575e-009     
  1.25            0.00023943      -1.701e-008     1.7458e-009    
  1.3             0.00024168      -1.7187e-008    1.9226e-009    
  1.35            0.00024389      -1.6878e-008    2.0935e-009    
  1.4             0.00024597      -1.333e-008     2.6968e-009    
  1.45            0.00024827      -2.4858e-008    2.3849e-009    
  1.5             0.00025048      -2.092e-008     1.6834e-009    
  1.55            0.00025242      -1.5359e-008    1.284e-010     
  1.6             0.00025594      -1.8612e-008    -1.5603e-009   
  1.65            0.00025731      -2.136e-008     -2.62e-009     
  1.7             0.00025978      -6.655e-009     -1.2659e-009   
  1.75            0.00026159      -3.0547e-008    2.046e-010     
  1.8             0.00026333      -5.4865e-008    2.7278e-009    
END_DB

BEGIN_DB
 ICCAP_VAR VG         1.44           
 ICCAP_VAR VS         0              
 ICCAP_VAR VB         0              

 #VD              ID              IB              IG             
  0               4.7159e-008     1.7282e-008     8.849e-010     
  0.05            7.1859e-005     -7.009e-009     -1.359e-010    
  0.1             0.00013866      -7.09e-009      1.6161e-009    
  0.15            0.00019963      -1.7001e-008    1.7893e-009    
  0.2             0.00025373      -1.6597e-008    1.9681e-009    
  0.25            0.00030059      -1.0864e-008    2.6721e-009    
  0.3             0.00033974      -7.852e-009     2.7074e-009    
  0.35            0.00037199      -7.625e-009     2.7285e-009    
  0.4             0.00039805      -6.932e-009     2.735e-009     
  0.45            0.00041864      -6.977e-009     2.7384e-009    
  0.5             0.00043486      -7.396e-009     2.7306e-009    
  0.55            0.00044755      -7.929e-009     2.709e-009     
  0.6             0.00045754      -7.89e-009      2.6764e-009    
  0.65            0.00046598      -1.7167e-008    1.4839e-009    
  0.7             0.00047276      -1.6852e-008    1.6368e-009    
  0.75            0.00047863      -1.704e-008     1.8115e-009    
  0.8             0.00048362      -1.667e-008     1.9887e-009    
  0.85            0.0004884       -1.1126e-008    2.6808e-009    
  0.9             0.00049225      -8.021e-009     2.7107e-009    
  0.95            0.00049639      -7.215e-009     2.7295e-009    
  1               0.00050029      -6.888e-009     2.7389e-009    
  1.05            0.0005042       -7.058e-009     2.7373e-009    
  1.1             0.00050777      -7.287e-009     2.7293e-009    
  1.15            0.00051121      -7.938e-009     2.7059e-009    
  1.2             0.00051452      -7.954e-009     2.6733e-009    
  1.25            0.00051776      -1.7131e-008    1.4909e-009    
  1.3             0.00052098      -1.7144e-008    1.648e-009     
  1.35            0.00052419      -1.7275e-008    1.8196e-009    
  1.4             0.00052709      -1.7261e-008    1.9942e-009    
  1.45            0.00053012      -1.2698e-008    2.6766e-009    
  1.5             0.00053328      -2.513e-008     2.308e-009     
  1.55            0.00053624      -1.9955e-008    1.605e-009     
  1.6             0.00053881      -1.5922e-008    8.78e-011      
  1.65            0.00054331      -2.0074e-008    -1.601e-009    
  1.7             0.00054529      -2.3096e-008    -2.6145e-009   
  1.75            0.00054847      -9.822e-009     -2.4876e-009   
  1.8             0.0005512       -2.0853e-008    -2.0753e-009   
END_DB

BEGIN_DB
 ICCAP_VAR VG         1.8            
 ICCAP_VAR VS         0              
 ICCAP_VAR VB         0              

 #VD              ID              IB              IG             
  0               5.7367e-008     -9.165e-009     -3.478e-010    
  0.05            8.7214e-005     1.8637e-008     -1.1145e-009   
  0.1             0.00017086      1.6415e-008     5.036e-010     
  0.15            0.00025029      1.5947e-008     -1.8164e-009   
  0.2             0.00032431      1.4745e-008     -1.9645e-009   
  0.25            0.00039222      1.474e-008      -1.3941e-009   
  0.3             0.00045335      1.6821e-008     -1.5015e-009   
  0.35            0.0005075       1.6465e-008     -1.6289e-009   
  0.4             0.00055491      1.6116e-008     -1.7757e-009   
  0.45            0.00059565      1.507e-008      -1.9253e-009   
  0.5             0.00063025      1.3994e-008     -2.0704e-009   
  0.55            0.00065927      1.6701e-008     -1.4706e-009   
  0.6             0.00068342      1.6603e-008     -1.5927e-009   
  0.65            0.00070328      1.6203e-008     -1.7375e-009   
  0.7             0.00071979      1.5333e-008     -1.8927e-009   
  0.75            0.00073327      1.3287e-008     -1.3522e-009   
  0.8             0.00074462      1.7184e-008     -1.4455e-009   
  0.85            0.00075413      1.6557e-008     -1.5663e-009   
  0.9             0.00076262      1.6335e-008     -1.7058e-009   
  0.95            0.0007698       1.5713e-008     -1.849e-009    
  1               0.00077624      1.453e-008      -2.0052e-009   
  1.05            0.0007821       1.5383e-008     -1.419e-009    
  1.1             0.00078736      1.6736e-008     -1.5346e-009   
  1.15            0.00079216      1.6504e-008     -1.6655e-009   
  1.2             0.00079678      1.5674e-008     -1.8162e-009   
  1.25            0.00080129      1.4784e-008     -1.9629e-009   
  1.3             0.0008056       1.4549e-008     -1.3942e-009   
  1.35            0.00080972      1.6697e-008     -1.4983e-009   
  1.4             0.0008139       1.609e-008      -1.6268e-009   
  1.45            0.00081777      1.5292e-008     -1.7765e-009   
  1.5             0.00082165      1.3898e-008     -1.923e-009    
  1.55            0.00082513      1.1484e-008     -2.0678e-009   
  1.6             0.00082875      9.044e-009      -2.195e-009    
  1.65            0.00083229      5.189e-009      -2.3034e-009   
  1.7             0.00083568      2.19e-010       -2.3948e-009   
  1.75            0.00083912      -7.182e-009     -2.4609e-009   
  1.8             0.00084236      -3.318e-009     -2.028e-009    
END_DB

BEGIN_DB
 ICCAP_VAR VG         0              
 ICCAP_VAR VS         0              
 ICCAP_VAR VB         -0.9           

 #VD              ID              IB              IG             
  0               1.9e-012        8.843e-009      1.4043e-009    
  0.05            2.559e-010      1.1244e-008     -2.5582e-009   
  0.1             -3.0565e-009    -1.0093e-008    1.5773e-009    
  0.15            2.8797e-009     1.5654e-008     -1.7714e-009   
  0.2             -1.4069e-009    -1.6854e-008    2.0115e-009    
  0.25            1.2105e-009     1.6676e-008     -1.9513e-009   
  0.3             -1.2769e-009    -1.7068e-008    2.2062e-009    
  0.35            1.0675e-009     1.6342e-008     -2.1087e-009   
  0.4             -1.1176e-009    -1.6677e-008    2.3626e-009    
  0.45            9.282e-010      1.5473e-008     -2.2436e-009   
  0.5             -9.522e-010     -1.6121e-008    2.4922e-009    
  0.55            7.742e-010      1.4268e-008     -2.3531e-009   
  0.6             -7.81e-010      -1.5133e-008    2.5909e-009    
  0.65            3.5492e-009     7.851e-009      -2.4392e-009   
  0.7             -3.3424e-009    -7.934e-009     2.092e-010     
  0.75            1.068e-010      -7.841e-009     2.7391e-009    
  0.8             1.2476e-009     1.6805e-008     -1.8971e-009   
  0.85            -1.3136e-009    -1.693e-008     2.1513e-009    
  0.9             1.1141e-009     1.6431e-008     -2.0639e-009   
  0.95            -1.1588e-009    -1.6788e-008    2.3178e-009    
  1               9.671e-010      1.5656e-008     -2.2037e-009   
  1.05            -9.895e-010     -1.6317e-008    2.4606e-009    
  1.1             8.125e-010      1.4614e-008     -2.3314e-009   
  1.15            -8.225e-010     -1.5297e-008    2.5685e-009    
  1.2             3.5761e-009     7.958e-009      -1.543e-010    
  1.25            -6.2e-012       1.0308e-008     -2.6033e-009   
  1.3             -2.9025e-009    -1.3462e-008    1.9114e-009    
  1.35            1.2834e-009     1.6847e-008     -1.8593e-009   
  1.4             -1.341e-009     -1.68e-008      2.1023e-009    
  1.45            1.1495e-009     1.6594e-008     -2.0182e-009   
  1.5             -1.2068e-009    -1.6987e-008    2.2708e-009    
  1.55            1.0126e-009     1.5849e-008     -2.1687e-009   
  1.6             -1.0471e-009    -1.6574e-008    2.4215e-009    
  1.65            8.653e-010      1.4783e-008     -2.3024e-009   
  1.7             -8.753e-010     -1.5689e-008    2.5373e-009    
  1.75            7.102e-010      1.3682e-008     -2.3995e-009   
  1.8             -3.4277e-009    -8.242e-009     1.624e-010     
END_DB

BEGIN_DB
 ICCAP_VAR VG         0.36           
 ICCAP_VAR VS         0              
 ICCAP_VAR VB         -0.9           

 #VD              ID              IB              IG             
  0               -1.0274e-009    -5.302e-009     3.076e-010     
  0.05            3.434e-010      -7.213e-009     2.7262e-009    
  0.1             1.1802e-009     1.6553e-008     -2.0874e-009   
  0.15            -1.0178e-009    -1.6699e-008    2.3421e-009    
  0.2             1.0581e-009     1.5437e-008     -2.2265e-009   
  0.25            -8.149e-010     -1.5991e-008    2.4744e-009    
  0.3             9.399e-010      1.423e-008      -2.3425e-009   
  0.35            -6.03e-010      -1.4869e-008    2.5824e-009    
  0.4             3.7506e-009     7.98e-009       -2.4384e-009   
  0.45            -3.638e-010     -1.4035e-008    2.6543e-009    
  0.5             7.104e-010      1.2009e-008     -2.5085e-009   
  0.55            -2.9283e-009    -8.637e-009     2.7045e-009    
