! VERSION = 6.00
BEGIN_HEADER
 ICCAP_INPUTS
  VG         V  B GROUND SMU4 0.001 LIN        1    0          1.8        37   0.05      
  VS         V  E GROUND SMU2 0.1 CON        0
  VB         V  C GROUND SMU3 0.1 LIN        3    0          -1.8       3    -0.9      
  VD         V  S GROUND SMU1 0.1 LIN        2    0.1        1.8        2    1.7       
 ICCAP_OUTPUTS
  IG         I  B GROUND SMU4 B
  ID         I  S GROUND SMU1 B
  IB         I  C GROUND SMU3 B
END_HEADER

BEGIN_DB
 ICCAP_VAR VS         0              
 ICCAP_VAR VB         0              
 ICCAP_VAR VD         0.1            

 #VG              IG              ID              IB             
  0               8.264e-010      8.4e-010        -1.1636e-008   
  0.05            1.2741e-009     -1.5461e-009    -1.6885e-008   
  0.1             2.8783e-009     -1.321e-010     -1.3255e-008   
  0.15            -1.332e-009     1.602e-009      1.9969e-008    
  0.2             -2.6923e-009    5.258e-010      1.1766e-008    
  0.25            -2.5278e-009    7.483e-010      8.41e-010      
  0.3             -2.2902e-009    6.2627e-009     1.007e-009     
  0.35            1.2705e-009     3.1021e-008     1.1274e-008    
  0.4             -2.1057e-009    1.2797e-007     2.0276e-008    
  0.45            1.2989e-009     5.4354e-007     -2.6021e-008   
  0.5             2.9047e-009     2.0252e-006     2.8078e-008    
  0.55            2.6272e-009     6.5663e-006     -6.09e-010     
  0.6             -2.425e-009     1.7989e-005     1.0154e-008    
  0.65            -1.7931e-009    4.0203e-005     1.683e-009     
  0.7             -1.4395e-009    7.5016e-005     4.679e-009     
  0.75            -1.5954e-009    0.00012125      1.009e-008     
  0.8             -1.396e-009     0.00017489      6.899e-009     
  0.85            -1.3156e-009    0.00023246      1.1319e-008    
  0.9             -2.4082e-009    0.00029083      1.233e-008     
  0.95            -1.7528e-009    0.0003479       1.99e-009      
  1               -1.427e-009     0.00040337      5.026e-009     
  1.05            -1.3442e-009    0.00045645      1.0065e-008    
  1.1             -2.564e-009     0.00050654      1.1547e-008    
  1.15            -1.9405e-009    0.00055289      1.006e-009     
  1.2             -1.4766e-009    0.00059716      3.666e-009     
  1.25            -1.3708e-009    0.0006383       9.041e-009     
  1.3             -2.6812e-009    0.00067696      1.1689e-008    
  1.35            -2.1597e-009    0.0007121       7.36e-010      
  1.4             -1.5789e-009    0.00074559      2.503e-009     
  1.45            -1.3911e-009    0.00077673      7.317e-009     
  1.5             -1.3106e-009    0.00080545      1.1438e-008    
  1.55            -2.3878e-009    0.00083241      1.2492e-008    
  1.6             -1.7224e-009    0.00085673      2.147e-009     
  1.65            -1.4178e-009    0.00087983      5.491e-009     
  1.7             -1.34e-009      0.00090132      1.0485e-008    
  1.75            -2.5507e-009    0.0009213       1.1702e-008    
  1.8             -1.917e-009     0.00093934      1.064e-009     
END_DB

BEGIN_DB
 ICCAP_VAR VS         0              
 ICCAP_VAR VB         0              
 ICCAP_VAR VD         1.8            

 #VG              IG              ID              IB             
  0               -1.1149e-009    -1.0958e-009    -1.4277e-008   
  0.05            -1.7399e-009    8.5e-010        2.2324e-008    
  0.1             -7.771e-010     -2.1489e-009    5.686e-009     
  0.15            1.2942e-009     -8.513e-010     -9.642e-009    
  0.2             2.9036e-009     2.7373e-009     -1.122e-008    
  0.25            -8.319e-010     1.0229e-008     -3.03e-010     
  0.3             -1.2096e-009    5.585e-008      -9.464e-009    
  0.35            -2.4359e-009    2.5533e-007     8.777e-009     
  0.4             -7.682e-010     1.08168e-006    -1.3313e-008   
  0.45            1.5624e-009     4.0728e-006     5.629e-009     
  0.5             -1.4503e-009    1.342e-005      -1.4499e-008   
  0.55            -1.3454e-009    3.4823e-005     -2.0892e-008   
  0.6             -2.6008e-009    7.6465e-005     -4.6043e-008   
  0.65            -2.1548e-009    0.00014265      -9.2821e-008   
  0.7             -3.388e-010     0.00023224      -1.0383e-007   
  0.75            -8.374e-010     0.00034602      -1.8087e-007   
  0.8             -1.2118e-009    0.0004809       -2.1494e-007   
  0.85            -1.6407e-009    0.00062906      -2.4858e-007   
  0.9             -1.9411e-009    0.00078441      -2.7354e-007   
  0.95            -2.2516e-009    0.00094969      -2.9225e-007   
  1               -2.5916e-009    0.00112187      -3.0636e-007   
  1.05            2.7388e-009     0.0012943       -2.9593e-007   
  1.1             2.0802e-009     0.0014748       -3.1498e-007   
  1.15            1.4818e-009     0.001655        -3.227e-007    
  1.2             1.3017e-009     0.0018372       -3.227e-007    
  1.25            2.8495e-009     0.002019        -3.2125e-007   
  1.3             2.3132e-009     0.0022042       -3.0622e-007   
  1.35            1.6332e-009     0.0023866       -3.0332e-007   
  1.4             1.3331e-009     0.0025686       -2.9811e-007   
  1.45            2.8971e-009     0.0027489       -2.8878e-007   
  1.5             2.5354e-009     0.0029326       -2.7046e-007   
  1.55            1.8225e-009     0.0031123       -2.6261e-007   
  1.6             1.3823e-009     0.0032912       -2.5713e-007   
  1.65            1.2755e-009     0.003469        -2.4599e-007   
  1.7             2.723e-009      0.0036453       -2.3912e-007   
  1.75            2.0571e-009     0.0038227       -2.1756e-007   
  1.8             1.4749e-009     0.0039967       -2.1234e-007   
END_DB

BEGIN_DB
 ICCAP_VAR VS         0              
 ICCAP_VAR VB         -0.9           
 ICCAP_VAR VD         0.1            

 #VG              IG              ID              IB             
  0               -1.3603e-009    -1.2681e-009    -8.405e-009    
  0.05            -1.3154e-009    2.82e-011       1.1488e-008    
  0.1             -2.6747e-009    1.844e-010      1.2001e-008    
  0.15            -9.923e-010     -2.2859e-009    8.34e-010      
  0.2             1.6365e-009     -1.7155e-009    -1.1969e-008   
  0.25            1.7513e-009     1.5877e-009     -8.563e-009    
  0.3             3.811e-010      2.4642e-009     1.1019e-008    
  0.35            5.871e-010      3.4114e-009     1.0333e-008    
  0.4             7.696e-010      7.5597e-009     9.504e-009     
  0.45            -1.5233e-009    2.4223e-008     -1.2071e-008   
  0.5             7.525e-010      1.1727e-007     -1.3869e-008   
  0.55            -1.5459e-009    5.2531e-007     1.6494e-008    
  0.6             -2.5996e-009    2.0169e-006     -2.0777e-008   
  0.65            -7.422e-010     6.6975e-006     -1.1511e-008   
  0.7             2.894e-009      1.8209e-005     -1.0551e-008   
  0.75            2.7788e-009     4.0693e-005     7.4e-011       
  0.8             5.456e-010      7.6365e-005     1.1136e-008    
  0.85            2.8423e-009     0.00012263      9.617e-009     
  0.9             2.0186e-009     0.00017627      1.0695e-008    
  0.95            8.969e-010      0.00023451      1.0155e-008    
  1               -1.4543e-009    0.00029374      1.3383e-008    
  1.05            -1.3516e-009    0.00035151      9.791e-009     
  1.1             -2.6017e-009    0.00040686      1.1357e-008    
  1.15            -2.016e-009     0.00045853      8.85e-010      
  1.2             -1.5234e-009    0.00050777      3.439e-009     
  1.25            -1.377e-009     0.00055397      8.36e-009      
  1.3             -2.6994e-009    0.0005972       1.1663e-008    
  1.35            -2.211e-009     0.00063654      8.13e-010      
  1.4             -1.6296e-009    0.00067401      2.207e-009     
  1.45            -1.406e-009     0.00070859      6.45e-009      
  1.5             -1.3129e-009    0.00074064      1.1178e-008    
  1.55            -2.4127e-009    0.0007706       1.2003e-008    
  1.6             -1.7853e-009    0.0007977       1.594e-009     
  1.65            -1.4398e-009    0.00082335      4.992e-009     
  1.7             -1.3434e-009    0.00084716      1.004e-008     
  1.75            -2.5695e-009    0.00086925      1.1333e-008    
  1.8             -1.9622e-009    0.00088914      1.071e-009     
END_DB

BEGIN_DB
 ICCAP_VAR VS         0              
 ICCAP_VAR VB         -0.9           
 ICCAP_VAR VD         1.8            

 #VG              IG              ID              IB             
  0               1.1442e-009     1.5846e-009     -1.086e-008    
  0.05            2.2658e-009     -1.821e-010     -1.8424e-008   
  0.1             2.3515e-009     1.6476e-009     -5.894e-009    
  0.15            -1.3604e-009    1.9256e-009     2.3316e-008    
  0.2             -1.3133e-009    8.037e-010      1.0954e-008    
  0.25            -2.678e-009     2.0342e-009     1.1188e-008    
  0.3             -2.4895e-009    6.2149e-009     4.09e-010      
  0.35            2.4393e-009     3.1796e-008     8.7e-009       
  0.4             1.8551e-009     1.4594e-007     -2.6588e-008   
  0.45            7.569e-010      6.5516e-007     8.947e-009     
  0.5             -2.7242e-009    2.7565e-006     -1.4142e-008   
  0.55            -2.2201e-009    9.2947e-006     -2.0068e-008   
  0.6             2.0394e-009     2.6023e-005     -3.6066e-008   
  0.65            1.4921e-009     6.0686e-005     -5.447e-008    
  0.7             1.4215e-009     0.0001192       -8.2194e-008   
  0.75            -1.4608e-009    0.00020535      -1.0706e-007   
  0.8             -1.3504e-009    0.00031619      -1.4531e-007   
  0.85            -2.6209e-009    0.00044639      -1.7971e-007   
  0.9             -2.0153e-009    0.00058923      -2.2211e-007   
  0.95            -1.5309e-009    0.00074615      -2.4574e-007   
  1               -1.3809e-009    0.00091169      -2.6136e-007   
  1.05            -2.71e-009      0.00108367      -2.7292e-007   
  1.1             1.9645e-009     0.0012546       -2.8242e-007   
  1.15            1.4514e-009     0.0014327       -3.0937e-007   
  1.2             1.2905e-009     0.001613        -3.1246e-007   
  1.25            2.7864e-009     0.0017929       -3.1491e-007   
  1.3             2.144e-009      0.001977        -3.0148e-007   
  1.35            1.5494e-009     0.0021592       -3.0144e-007   
  1.4             1.3252e-009     0.0023411       -2.9707e-007   
  1.45            2.8854e-009     0.0025216       -2.9003e-007   
  1.5             2.3748e-009     0.0027051       -2.72e-007     
  1.55            1.6952e-009     0.002885        -2.6562e-007   
  1.6             1.3631e-009     0.003064        -2.6003e-007   
  1.65            1.2566e-009     0.0032419       -2.4983e-007   
  1.7             2.5981e-009     0.0034185       -2.4374e-007   
  1.75            1.886e-009      0.0035964       -2.2232e-007   
  1.8             1.4231e-009     0.0037714       -2.178e-007    
END_DB

BEGIN_DB
 ICCAP_VAR VS         0              
 ICCAP_VAR VB         -1.8           
 ICCAP_VAR VD         0.1            

 #VG              IG              ID              IB             
  0               -7.033e-010     -7.884e-010     -2.6112e-008   
  0.05            -1.7621e-009    1.6679e-009     1.5357e-008    
  0.1             -1.6701e-009    -1.6615e-009    5.254e-009     
  0.15            -2.184e-010     -2.1602e-009    -1.168e-008    
  0.2             -4.512e-010     -2.2201e-009    -1.1617e-008   
  0.25            -6.85e-010      -2.2633e-009    -1.0655e-008   
  0.3             1.2648e-009     -1.5309e-009    -1.7095e-008   
  0.35            2.8687e-009     5.96e-011       -1.3588e-008   
  0.4             1.67e-010       3.2849e-009     1.1133e-008    
  0.45            3.801e-010      7.7526e-009     1.1104e-008    
  0.5             -1.9386e-009    2.5795e-008     -1.8144e-008   
  0.55            7.739e-010      1.2611e-007     -1.4458e-008   
  0.6             -1.52e-009      5.6645e-007     1.5793e-008    
  0.65            -2.6246e-009    2.1824e-006     -2.1149e-008   
  0.7             -7.817e-010     7.1976e-006     -1.1545e-008   
  0.75            2.9084e-009     1.9368e-005     -1.0352e-008   
  0.8             2.7426e-009     4.2658e-005     -3.6e-011      
  0.85            6.047e-010      7.9109e-005     1.1146e-008    
  0.9             2.8713e-009     0.00012594      9.355e-009     
  0.95            2.8428e-009     0.00018043      2.01e-010      
  1               4.761e-010      0.00023891      1.1185e-008    
  1.05            9.02e-010       0.00029655      1.0106e-008    
  1.1             -1.4436e-009    0.00035427      1.3116e-008    
  1.15            -1.3423e-009    0.0004093       9.749e-009     
  1.2             -2.5842e-009    0.00046122      1.1416e-008    
  1.25            -1.9804e-009    0.00050941      1.177e-009     
  1.3             -1.4896e-009    0.00055483      3.79e-009      
  1.35            -1.3641e-009    0.00059726      8.459e-009     
  1.4             -2.677e-009     0.00063681      1.1396e-008    
  1.45            -2.1494e-009    0.00067276      9.4e-010       
  1.5             -1.5684e-009    0.00070676      2.728e-009     
  1.55            -1.386e-009     0.0007383       6.959e-009     
  1.6             -2.7274e-009    0.00076738      1.1348e-008    
  1.65            1.8858e-009     0.00079361      -1.9291e-008   
  1.7             1.4004e-009     0.00081852      -8.752e-009    
  1.75            1.2824e-009     0.00084167      -8.508e-009    
  1.8             2.741e-009      0.00086302      -1.2862e-008   
END_DB

BEGIN_DB
 ICCAP_VAR VS         0              
 ICCAP_VAR VB         -1.8           
 ICCAP_VAR VD         1.8            

 #VG              IG              ID              IB             
  0               -1.2782e-009    4.2219e-008     -5.4184e-008   
  0.05            -2.2054e-009    4.3201e-008     -3.018e-008    
  0.1             -1.5831e-009    4.2339e-008     -4.0801e-008   
  0.15            -1.3874e-009    4.2486e-008     -3.663e-008    
  0.2             -1.3041e-009    4.2771e-008     -3.2378e-008   
  0.25            -2.374e-009     4.3554e-008     -3.0965e-008   
  0.3             -1.7015e-009    4.4575e-008     -4.142e-008    
  0.35            -1.4093e-009    5.3954e-008     -3.8086e-008   
  0.4             -1.3286e-009    9.8533e-008     -3.3515e-008   
  0.45            -1.3867e-009    3.0707e-007     -4.4729e-008   
  0.5             -8.291e-010     1.163e-006      -4.7038e-008   
  0.55            -1.1981e-009    4.4768e-006     -5.8221e-008   
  0.6             2.8887e-009     1.4027e-005     -6.6923e-008   
  0.65            2.4194e-009     3.6719e-005     -7.5265e-008   
  0.7             6.431e-010      8.082e-005      -1.0112e-007   
  0.75            -8.1e-011       0.00014912      -1.4973e-007   
  0.8             -6.393e-010     0.00024447      -1.8473e-007   
  0.85            -1.0389e-009    0.00036345      -2.2014e-007   
  0.9             -1.4538e-009    0.00050123      -2.5371e-007   
  0.95            -1.8389e-009    0.00064957      -2.8428e-007   
  1               -2.1066e-009    0.00080787      -3.0664e-007   
  1.05            -2.4816e-009    0.00097557      -3.2295e-007   
  1.1             -8.279e-010     0.0011482       -3.156e-007    
  1.15            -1.1979e-009    0.0013273       -3.4457e-007   
  1.2             -1.6297e-009    0.0015071       -3.5109e-007   
  1.25            -1.9396e-009    0.0016848       -3.5135e-007   
  1.3             -2.2476e-009    0.0018654       -3.4807e-007   
  1.35            -2.6015e-009    0.0020477       -3.428e-007    
  1.4             -2.742e-009     0.0022291       -3.3449e-007   
  1.45            -2.609e-009     0.0024104       -3.217e-007    
  1.5             -2.0494e-009    0.002592        -3.1191e-007   
  1.55            -1.5189e-009    0.0027728       -2.9982e-007   
  1.6             -1.3686e-009    0.0029528       -2.8487e-007   
  1.65            -2.6931e-009    0.0031319       -2.7126e-007   
  1.7             -2.2214e-009    0.0033065       -2.7157e-007   
  1.75            -1.6181e-009    0.0034838       -2.5893e-007   
  1.8             -1.3901e-009    0.003659        -2.4416e-007   
END_DB

