! VERSION = 6.00
BEGIN_HEADER
 ICCAP_INPUTS
  VG         V  B GROUND SMU4 0.001 LIN        1    0          1.8        37   0.05      
  VS         V  E GROUND SMU2 0.1 CON        0
  VB         V  C GROUND SMU3 0.1 LIN        3    0          -1.8       3    -0.9      
  VD         V  S GROUND SMU1 0.1 LIN        2    0.1        1.8        2    1.7       
 ICCAP_OUTPUTS
  IG         I  B GROUND SMU4 B
  ID         I  S GROUND SMU1 B
  IB         I  C GROUND SMU3 B
END_HEADER

BEGIN_DB
 ICCAP_VAR VS         0              
 ICCAP_VAR VB         0              
 ICCAP_VAR VD         0.1            

 #VG              IG              ID              IB             
  0               -1.1888e-009    -1.105e-009     -1.2699e-008   
  0.05            -2.0964e-009    6.206e-010      1.7259e-008    
  0.1             -1.387e-009     -1.9011e-009    2.735e-009     
  0.15            1.327e-009      -1.2072e-009    -2.4636e-008   
  0.2             2.1781e-009     1.5408e-009     -9.362e-009    
  0.25            8.389e-010      3.8941e-009     9.116e-009     
  0.3             9.913e-010      8.9136e-009     9.02e-009      
  0.35            -2.7365e-009    2.7907e-008     -2.0251e-008   
  0.4             9.59e-011       1.3072e-007     -8.352e-009    
  0.45            5.715e-010      5.2094e-007     1.1037e-008    
  0.5             -1.3306e-009    2.0005e-006     -1.0981e-008   
  0.55            -2.5321e-009    6.5468e-006     1.1632e-008    
  0.6             1.4721e-009     1.7167e-005     6.52e-010      
  0.65            1.2973e-009     3.8324e-005     -8.222e-009    
  0.7             2.8252e-009     7.1499e-005     -1.0922e-008   
  0.75            2.8245e-009     0.00011722      1.051e-008     
  0.8             1.3723e-009     0.0001685       1.0133e-008    
  0.85            2.47e-010       0.00022729      1.1203e-008    
  0.9             7.12e-010       0.00028531      1.0691e-008    
  0.95            -1.5497e-009    0.00034338      1.6923e-008    
  1               -1.3789e-009    0.00039962      7.432e-009     
  1.05            -2.719e-009     0.00045325      1.1815e-008    
  1.1             -3.475e-010     0.00050283      -1.1887e-008   
  1.15            -8.347e-010     0.00055114      -1.1375e-008   
  1.2             1.5444e-009     0.00059526      -1.3573e-008   
  1.25            1.3123e-009     0.00063782      -8.322e-009    
  1.3             2.8701e-009     0.00067711      -9.592e-009    
  1.35            3.7e-010        0.00071492      1.1195e-008    
  1.4             -1.3089e-009    0.00074953      2.4873e-008    
  1.45            -2.3926e-009    0.00078153      1.2273e-008    
  1.5             -1.7364e-009    0.00081079      1.858e-009     
  1.55            -1.4195e-009    0.00083852      4.888e-009     
  1.6             -1.3365e-009    0.00086436      1.0226e-008    
  1.65            -2.5598e-009    0.00088844      1.167e-008     
  1.7             -1.921e-009     0.00091017      9.35e-010      
  1.75            -1.4746e-009    0.00093097      3.475e-009     
  1.8             -1.36e-009      0.00095013      8.718e-009     
END_DB

BEGIN_DB
 ICCAP_VAR VS         0              
 ICCAP_VAR VB         0              
 ICCAP_VAR VD         1.8            

 #VG              IG              ID              IB             
  0               -1.0223e-009    -9.208e-010     -1.9746e-008   
  0.05            -1.4049e-009    1.1498e-009     2.8524e-008    
  0.1             -1.1218e-009    -2.0582e-009    1.0585e-008    
  0.15            1.4471e-009     -1.2146e-009    -1.1411e-008   
  0.2             1.3431e-009     2.8194e-009     -8.345e-009    
  0.25            2.8742e-009     1.2197e-008     2.6608e-008    
  0.3             -1.7191e-009    5.2889e-008     2.1772e-008    
  0.35            -1.3811e-009    2.2284e-007     9.733e-009     
  0.4             -1.3074e-009    9.526e-007      9.997e-009     
  0.45            2.333e-009      3.5237e-006     9.444e-009     
  0.5             -1.323e-009     1.1998e-005     -4.137e-009    
  0.55            -2.1326e-009    3.2273e-005     -2.807e-008    
  0.6             -1.5517e-009    7.2851e-005     -5.2032e-008   
  0.65            -1.3894e-009    0.00013904      -8.6714e-008   
  0.7             1.3063e-009     0.00022661      -1.5543e-007   
  0.75            2.8595e-009     0.00033922      -1.7616e-007   
  0.8             2.3975e-009     0.00047255      -2.0364e-007   
  0.85            1.6734e-009     0.00061898      -2.3965e-007   
  0.9             1.3386e-009     0.00077566      -2.7056e-007   
  0.95            2.8921e-009     0.00094024      -2.9181e-007   
  1               2.6001e-009     0.0011144       -2.9976e-007   
  1.05            -1.5811e-009    0.0012938       -3.2681e-007   
  1.1             -1.3777e-009    0.0014724       -3.1039e-007   
  1.15            -2.7245e-009    0.0016532       -3.0881e-007   
  1.2             -2.373e-009     0.0018333       -3.1973e-007   
  1.25            -1.7275e-009    0.0020168       -3.1565e-007   
  1.3             -1.41e-009      0.0021998       -3.0731e-007   
  1.35            -1.3345e-009    0.0023828       -2.9583e-007   
  1.4             -2.5544e-009    0.0025655       -2.8624e-007   
  1.45            -1.9394e-009    0.0027454       -2.8797e-007   
  1.5             -1.4666e-009    0.0029259       -2.7539e-007   
  1.55            -1.3552e-009    0.0031062       -2.6009e-007   
  1.6             -2.6692e-009    0.0032857       -2.466e-007    
  1.65            -2.1631e-009    0.0034615       -2.4688e-007   
  1.7             -1.5708e-009    0.0036382       -2.337e-007    
  1.75            -1.3785e-009    0.0038138       -2.1885e-007   
  1.8             -2.7236e-009    0.0039883       -2.0377e-007   
END_DB

BEGIN_DB
 ICCAP_VAR VS         0              
 ICCAP_VAR VB         -0.9           
 ICCAP_VAR VD         0.1            

 #VG              IG              ID              IB             
  0               -2.4804e-009    -2.2474e-009    1.32e-010      
  0.05            -1.144e-009     -2.1715e-009    1.497e-009     
  0.1             3.163e-010      -1.7929e-009    -1.1596e-008   
  0.15            1.7737e-009     -8.561e-010     -2.2339e-008   
  0.2             1.6256e-009     1.683e-009      -8.599e-009    
  0.25            1.8166e-009     1.4769e-009     9.628e-009     
  0.3             4.509e-010      2.5008e-009     1.086e-008     
  0.35            -1.3485e-009    2.5586e-009     2.3799e-008    
  0.4             -1.3071e-009    5.7366e-009     1.1701e-008    
  0.45            -1.392e-009     2.3642e-008     -4.013e-009    
  0.5             -2.6907e-009    1.1917e-007     1.0869e-008    
  0.55            -2.2137e-009    5.2603e-007     6.69e-010      
  0.6             -2.1697e-009    2.0362e-006     -1.4759e-008   
  0.65            1.2669e-009     6.6838e-006     -2.4783e-008   
  0.7             -3.59e-011      1.842e-005      -9.528e-009    
  0.75            -1.384e-009     4.1111e-005     2.8008e-008    
  0.8             -2.7244e-009    7.6285e-005     1.1462e-008    
  0.85            -1.6087e-009    0.00012306      -1.8738e-008   
  0.9             1.8807e-009     0.00017504      -1.9658e-008   
  0.95            1.3936e-009     0.00023253      -8.373e-009    
  1               1.2757e-009     0.00029106      -8.568e-009    
  1.05            2.7552e-009     0.00034847      -1.2135e-008   
  1.1             5.742e-010      0.00040546      1.1252e-008    
  1.15            -1.6745e-009    0.00045862      2.0724e-008    
  1.2             -1.4004e-009    0.00050837      5.759e-009     
  1.25            -1.3219e-009    0.00055544      1.0914e-008    
  1.3             -2.4888e-009    0.00059945      1.2096e-008    
  1.35            -1.8262e-009    0.00063975      1.506e-009     
  1.4             -1.4327e-009    0.00067786      4.332e-009     
  1.45            -1.3493e-009    0.00071331      9.504e-009     
  1.5             -2.6224e-009    0.00074641      1.1511e-008    
  1.55            -2.0329e-009    0.00077649      8.19e-010      
  1.6             -1.5023e-009    0.0008049       3.038e-009     
  1.65            -1.3692e-009    0.00083148      7.855e-009     
  1.7             -2.7024e-009    0.000856        1.1647e-008    
  1.75            -2.2348e-009    0.00087832      6.54e-010      
  1.8             -1.6115e-009    0.00089937      2.631e-009     
END_DB

BEGIN_DB
 ICCAP_VAR VS         0              
 ICCAP_VAR VB         -0.9           
 ICCAP_VAR VD         1.8            

 #VG              IG              ID              IB             
  0               -1.3425e-009    -2.694e-010     -9.417e-009    
  0.05            -1.3077e-009    1.0006e-009     1.0561e-008    
  0.1             -2.6544e-009    1.1691e-009     1.1147e-008    
  0.15            1.117e-010      -9.311e-010     -2.94e-010     
  0.2             2.1827e-009     1.9771e-009     -1.2595e-008   
  0.25            1.8621e-009     2.9725e-009     -7.247e-009    
  0.3             3.929e-010      9.406e-009      1.6523e-008    
  0.35            -1.9201e-009    3.3198e-008     1.4744e-008    
  0.4             -1.5479e-009    1.4987e-007     -7.392e-009    
  0.45            -1.3685e-009    6.4809e-007     5.666e-009     
  0.5             2.5896e-009     2.5536e-006     1.5406e-008    
  0.55            2.8544e-009     8.9623e-006     -3.462e-009    
  0.6             -1.4308e-009    2.6295e-005     -1.4668e-008   
  0.65            -1.3372e-009    6.2234e-005     -3.7786e-008   
  0.7             -4.444e-010     0.00012115      -9.6766e-008   
  0.75            7.501e-010      0.00020746      -1.2895e-007   
  0.8             1.6225e-009     0.00031601      -1.7034e-007   
  0.85            1.3167e-009     0.00044546      -1.9945e-007   
  0.9             2.8806e-009     0.00058917      -2.3181e-007   
  0.95            2.494e-009      0.00074778      -2.5038e-007   
  1               1.783e-009      0.00091205      -2.7479e-007   
  1.05            1.3607e-009     0.00108274      -2.9621e-007   
  1.1             -1.4523e-009    0.0012634       -3.177e-007    
  1.15            -1.3448e-009    0.0014413       -2.9649e-007   
  1.2             -2.6172e-009    0.0016219       -2.9792e-007   
  1.25            -2.0614e-009    0.0018019       -3.0883e-007   
  1.3             -1.5262e-009    0.0019844       -3.0354e-007   
  1.35            -1.3639e-009    0.002167        -2.9429e-007   
  1.4             -2.6897e-009    0.0023494       -2.8468e-007   
  1.45            -2.2466e-009    0.0025286       -2.8823e-007   
  1.5             -1.6358e-009    0.0027102       -2.7763e-007   
  1.55            -1.3878e-009    0.0028901       -2.6434e-007   
  1.6             -1.3091e-009    0.0030696       -2.5011e-007   
  1.65            -2.4371e-009    0.0032484       -2.3843e-007   
  1.7             -1.7911e-009    0.003423        -2.3834e-007   
  1.75            -1.4186e-009    0.0035988       -2.2489e-007   
  1.8             -1.3277e-009    0.0037741       -2.099e-007    
END_DB

BEGIN_DB
 ICCAP_VAR VS         0              
 ICCAP_VAR VB         -1.8           
 ICCAP_VAR VD         0.1            

 #VG              IG              ID              IB             
  0               1.0402e-009     9.518e-010      1.735e-008     
  0.05            1.4696e-009     -1.0482e-009    -2.5909e-008   
  0.1             9.488e-010      2.3812e-009     -8.326e-009    
  0.15            -1.5351e-009    1.8162e-009     1.2178e-008    
  0.2             -1.8174e-009    -1.4002e-009    7.8e-009       
  0.25            -4.673e-010     -2.177e-009     -1.1651e-008   
  0.3             -6.935e-010     -2.1089e-009    -1.0724e-008   
  0.35            1.2525e-009     -1.2716e-009    -1.7152e-008   
  0.4             2.8224e-009     2.1562e-009     -1.4026e-008   
  0.45            1.685e-010      8.4064e-009     1.0959e-008    
  0.5             -2.0211e-009    2.9217e-008     -1.9886e-008   
  0.55            5.851e-010      1.4299e-007     -1.2168e-008   
  0.6             9.761e-010      6.011e-007      9.713e-009     
  0.65            -2.5053e-009    2.4231e-006     -9.572e-009    
  0.7             -1.8785e-009    7.6586e-006     1.44e-009      
  0.75            2.8173e-009     2.0025e-005     -1.1699e-008   
  0.8             1.9874e-009     4.3552e-005     1.0345e-008    
  0.85            -1.3875e-009    8.0835e-005     2.6746e-008    
  0.9             -1.4794e-009    0.00012786      1.1479e-008    
  0.95            -1.3519e-009    0.00018247      9.143e-009     
  1               -2.6488e-009    0.00024063      1.1329e-008    
  1.05            -2.1235e-009    0.00029861      8.49e-010      
  1.1             -1.5581e-009    0.00035592      3.014e-009     
  1.15            -1.3724e-009    0.00041119      7.521e-009     
  1.2             -2.7064e-009    0.00046358      1.1526e-008    
  1.25            -3.433e-010     0.00051166      -1.1651e-008   
  1.3             -8.35e-010      0.00055816      -1.1554e-008   
  1.35            1.5389e-009     0.00060021      -1.3994e-008   
  1.4             1.3025e-009     0.0006406       -8.343e-009    
  1.45            2.8528e-009     0.00067766      -9.836e-009    
  1.5             -1.662e-009     0.00071322      2.0411e-008    
  1.55            -1.3932e-009    0.00074539      6.321e-009     
  1.6             -1.3091e-009    0.00077535      1.0868e-008    
  1.65            -2.4382e-009    0.00080326      1.2258e-008    
  1.7             -1.8038e-009    0.00082833      1.744e-009     
  1.75            -1.429e-009     0.00085213      4.986e-009     
  1.8             -1.3335e-009    0.00087438      9.723e-009     
END_DB

BEGIN_DB
 ICCAP_VAR VS         0              
 ICCAP_VAR VB         -1.8           
 ICCAP_VAR VD         1.8            

 #VG              IG              ID              IB             
  0               1.607e-009      8.5191e-008     -7.8429e-008   
  0.05            1.3168e-009     8.265e-008      -9.0278e-008   
  0.1             2.882e-009      8.288e-008      -9.0636e-008   
  0.15            2.5025e-009     8.2728e-008     -8.2246e-008   
  0.2             1.7771e-009     8.2921e-008     -8.5368e-008   
  0.25            1.3596e-009     8.3253e-008     -9.045e-008    
  0.3             1.2613e-009     8.524e-008      -9.0267e-008   
  0.35            2.6783e-009     9.4975e-008     -9.4951e-008   
  0.4             2.4206e-009     1.4098e-007     -9.0053e-008   
  0.45            1.683e-009      3.4793e-007     -8.6493e-008   
  0.5             2.3183e-009     1.2365e-006     -6.9325e-008   
  0.55            1.4793e-009     4.539e-006      -9.7133e-008   
  0.6             7.219e-010      1.4584e-005     -9.5391e-008   
  0.65            -6.355e-010     3.8364e-005     -1.0201e-007   
  0.7             -1.0357e-009    8.4284e-005     -1.5013e-007   
  0.75            -2.7196e-009    0.00015501      -1.8472e-007   
  0.8             -2.6856e-009    0.00025154      -2.1443e-007   
  0.85            -2.217e-009     0.00037129      -2.4968e-007   
  0.9             -1.6088e-009    0.00050841      -2.8194e-007   
  0.95            -1.3849e-009    0.00065939      -3.0692e-007   
  1               -2.729e-009     0.00082046      -3.263e-007    
  1.05            -2.393e-009     0.00098658      -3.5594e-007   
  1.1             2.0293e-009     0.0011572       -3.4093e-007   
  1.15            1.4413e-009     0.0013331       -3.8685e-007   
  1.2             1.2834e-009     0.001512        -3.9311e-007   
  1.25            2.8072e-009     0.0016908       -3.9793e-007   
  1.3             2.2173e-009     0.0018741       -3.8727e-007   
  1.35            1.5474e-009     0.002055        -3.8964e-007   
  1.4             1.306e-009      0.002236        -3.8765e-007   
  1.45            2.8679e-009     0.0024157       -3.8294e-007   
  1.5             2.4199e-009     0.0025984       -3.6775e-007   
  1.55            1.6982e-009     0.0027777       -3.6443e-007   
  1.6             1.3377e-009     0.0029558       -3.6165e-007   
  1.65            2.899e-009      0.0031322       -3.5435e-007   
  1.7             2.5838e-009     0.0033118       -3.3977e-007   
  1.75            1.87e-009       0.0034857       -3.3604e-007   
  1.8             1.3916e-009     0.00366         -3.369e-007    
END_DB

