! VERSION = 6.00
BEGIN_HEADER
 ICCAP_INPUTS
  VG         V  B GROUND SMU4 0.001 LIN        1    0          1.8        37   0.05      
  VS         V  E GROUND SMU2 0.1 CON        0
  VB         V  C GROUND SMU3 0.1 LIN        3    0          -1.8       3    -0.9      
  VD         V  S GROUND SMU1 0.1 LIN        2    0.1        1.8        2    1.7       
 ICCAP_OUTPUTS
  IG         I  B GROUND SMU4 B
  ID         I  S GROUND SMU1 B
  IB         I  C GROUND SMU3 B
END_HEADER

BEGIN_DB
 ICCAP_VAR VS         0              
 ICCAP_VAR VB         0              
 ICCAP_VAR VD         0.1            

 #VG              IG              ID              IB             
  0               -1.2024e-009    -1.0695e-009    -6.5e-009      
  0.05            -1.433e-009     -1.152e-009     9.884e-009     
  0.1             -1.104e-010     -1.8753e-009    -9.437e-009    
  0.15            1.1287e-009     -1.0395e-009    -1.5022e-008   
  0.2             1.8254e-009     9.758e-010      -7.543e-009    
  0.25            5.111e-010      1.9563e-009     8.665e-009     
  0.3             6.562e-010      2.1433e-009     1.005e-008     
  0.35            8.299e-010      3.1809e-009     1.0839e-008    
  0.4             1.0148e-009     7.9902e-009     1.1394e-008    
  0.45            -1.2287e-009    2.5988e-008     -9.776e-009    
  0.5             -2.0238e-009    9.4728e-008     7.493e-009     
  0.55            2.992e-010      2.8961e-007     -9.304e-009    
  0.6             5.865e-010      7.419e-007      7.993e-009     
  0.65            -1.8866e-009    1.6293e-006     -1.0632e-008   
  0.7             -4.036e-010     2.9247e-006     -9.327e-009    
  0.75            -8.198e-010     4.6366e-006     -9.173e-009    
  0.8             1.1123e-009     6.5084e-006     -8.762e-009    
  0.85            1.1815e-009     8.5508e-006     -6.013e-009    
  0.9             1.191e-009      1.06582e-005    -1.0741e-008   
  0.95            -1.2255e-009    1.2792e-005     -3.42e-009     
  1               -1.9391e-009    1.4818e-005     7.906e-009     
  1.05            -3.936e-010     1.6751e-005     -9.364e-009    
  1.1             -7.556e-010     1.8647e-005     -8.997e-009    
  1.15            -1.2307e-009    2.0414e-005     -1.0131e-008   
  1.2             -1.5266e-009    2.2075e-005     -1.0824e-008   
  1.25            -4.532e-010     2.3673e-005     -9.541e-009    
  1.3             -8.821e-010     2.5193e-005     -9.105e-009    
  1.35            1.119e-009      2.6569e-005     -8.806e-009    
  1.4             1.1859e-009     2.7827e-005     -6.93e-009     
  1.45            1.1952e-009     2.9163e-005     -1.1158e-008   
  1.5             1.0971e-009     3.0266e-005     -3.373e-009    
  1.55            1.1384e-009     3.1371e-005     -2.826e-009    
  1.6             1.1894e-009     3.2422e-005     -8.256e-009    
  1.65            1.5977e-009     3.3414e-005     -1.2026e-008   
  1.7             1.4664e-009     3.4401e-005     1.1779e-008    
  1.75            3.7e-010        3.5212e-005     8.509e-009     
  1.8             6.937e-010      3.6019e-005     8.453e-009     
END_DB

BEGIN_DB
 ICCAP_VAR VS         0              
 ICCAP_VAR VB         0              
 ICCAP_VAR VD         1.8            

 #VG              IG              ID              IB             
  0               1.1864e-009     9.979e-010      5.672e-009     
  0.05            1.1907e-009     -1.198e-010     -1.2837e-008   
  0.1             1.6118e-009     -2.238e-010     -1.5501e-008   
  0.15            1.1927e-009     1.2201e-009     1.1631e-008    
  0.2             -8e-012         1.8746e-009     8.211e-009     
  0.25            1.353e-010      2.5198e-009     8.481e-009     
  0.3             2.634e-010      4.9024e-009     8.187e-009     
  0.35            -1.3823e-009    1.1418e-008     -9.425e-009    
  0.4             -8.118e-010     4.7298e-008     -9.193e-009    
  0.45            -1.686e-009     1.7539e-007     8.831e-009     
  0.5             -5.129e-010     5.5596e-007     -9.734e-009    
  0.55            1.1778e-009     1.4269e-006     6.935e-009     
  0.6             1.1844e-009     3.1148e-006     -1.2864e-008   
  0.65            1.2832e-009     5.7372e-006     -1.9756e-008   
  0.7             1.094e-009      9.3657e-006     -8.652e-009    
  0.75            -1.2524e-009    1.4067e-005     -3.314e-009    
  0.8             -2.0603e-009    1.9313e-005     -1.8666e-008   
  0.85            -2.3275e-009    2.5274e-005     -1.8675e-008   
  0.9             -2.4e-009       3.1671e-005     -1.5663e-008   
  0.95            -2.1047e-009    3.8463e-005     -1.6909e-008   
  1               -2.1306e-009    4.5459e-005     -2.2923e-008   
  1.05            -2.3563e-009    5.2682e-005     -2.1586e-008   
  1.1             -2.3786e-009    6.0018e-005     -1.7468e-008   
  1.15            -1.8328e-009    6.7462e-005     -2.4573e-008   
  1.2             -2.1873e-009    7.5001e-005     -2.3284e-008   
  1.25            -2.3973e-009    8.2595e-005     -2.1422e-008   
  1.3             -2.3395e-009    9.0211e-005     -1.6642e-008   
  1.35            -1.8981e-009    9.7843e-005     -2.4219e-008   
  1.4             -2.2537e-009    0.000105505     -2.2683e-008   
  1.45            -2.4156e-009    0.000113145     -1.9057e-008   
  1.5             -1.2473e-009    0.00012095      -2.1894e-008   
  1.55            -2.1624e-009    0.00012852      -1.6694e-008   
  1.6             -2.085e-009     0.0001361       -2.1473e-008   
  1.65            -2.3312e-009    0.00014373      -1.9389e-008   
  1.7             -2.3975e-009    0.0001512       -1.4723e-008   
  1.75            -1.7518e-009    0.00015868      -2.0561e-008   
  1.8             -2.1462e-009    0.0001663       -1.9432e-008   
END_DB

BEGIN_DB
 ICCAP_VAR VS         0              
 ICCAP_VAR VB         -0.9           
 ICCAP_VAR VD         0.1            

 #VG              IG              ID              IB             
  0               -1.1715e-009    -1.0588e-009    -9.285e-009    
  0.05            -1.6459e-009    2.32e-010       1.4739e-008    
  0.1             -3.369e-010     -1.9445e-009    -9.168e-009    
  0.15            -4.734e-010     -1.9361e-009    -9.001e-009    
  0.2             -6.469e-010     -1.8677e-009    -9.195e-009    
  0.25            1.1852e-009     -1.3723e-009    -8.802e-009    
  0.3             1.1798e-009     -1.453e-010     -1.4016e-008   
  0.35            2.0158e-009     1.1468e-009     -3.409e-009    
  0.4             7.599e-010      2.2864e-009     9.508e-009     
  0.45            9.394e-010      4.3028e-009     1.0665e-008    
  0.5             -2.2301e-009    1.1443e-008     -1.0849e-008   
  0.55            -2.26e-010      4.5184e-008     -9.982e-009    
  0.6             -2.1989e-009    1.5641e-007     8.575e-009     
  0.65            -1.1361e-009    4.3944e-007     -1.0006e-008   
  0.7             4.56e-011       1.03647e-006    -9.279e-009    
  0.75            1.1238e-009     2.0693e-006     8.826e-009     
  0.8             1.1858e-009     3.5405e-006     -6.536e-009    
  0.85            1.191e-009      5.3756e-006     -1.0915e-008   
  0.9             1.1061e-009     7.3969e-006     -3.402e-009    
  0.95            1.1407e-009     9.5035e-006     -2.696e-009    
  1               -1.2444e-009    1.1688e-005     -8.253e-009    
  1.05            -2.2174e-009    1.3773e-005     5.633e-009     
  1.1             -1.1416e-009    1.5779e-005     -1.1007e-008   
  1.15            3.46e-011       1.7643e-005     -9.493e-009    
  1.2             -3.802e-010     1.9483e-005     -9.685e-009    
  1.25            -7.627e-010     2.1226e-005     -8.967e-009    
  1.3             -1.2195e-009    2.2842e-005     -1.0162e-008   
  1.35            -6.5e-011       2.4337e-005     -9.665e-009    
  1.4             -4.383e-010     2.5795e-005     -9.526e-009    
  1.45            -8.646e-010     2.716e-005      -9.142e-009    
  1.5             1.1239e-009     2.8316e-005     -9.11e-009     
  1.55            1.1802e-009     2.9512e-005     -6.503e-009    
  1.6             1.1819e-009     3.0641e-005     -1.0797e-008   
  1.65            1.1091e-009     3.1687e-005     -3.397e-009    
  1.7             1.1371e-009     3.2671e-005     -2.793e-009    
  1.75            1.1857e-009     3.3609e-005     -7.747e-009    
  1.8             1.6113e-009     3.4485e-005     -1.1886e-008   
END_DB

BEGIN_DB
 ICCAP_VAR VS         0              
 ICCAP_VAR VB         -0.9           
 ICCAP_VAR VD         1.8            

 #VG              IG              ID              IB             
  0               -1.1022e-009    -9.647e-010     -1.4459e-008   
  0.05            -7.011e-010     -1.8322e-009    5.31e-009      
  0.1             -8.962e-010     -1.6705e-009    -1.0017e-008   
  0.15            1.1913e-009     -1.5348e-009    -9.041e-009    
  0.2             2.0302e-009     1.0644e-009     -3.222e-009    
  0.25            8.152e-010      1.7793e-009     1.0693e-008    
  0.3             9.841e-010      2.0792e-009     1.1079e-008    
  0.35            1.1759e-009     4.1579e-009     1.1575e-008    
  0.4             -2.2898e-009    1.1378e-008     -1.1885e-008   
  0.45            -2.914e-010     4.8516e-008     -9.848e-009    
  0.5             -2.337e-009     1.7907e-007     8.501e-009     
  0.55            -9.576e-010     5.7824e-007     -9.971e-009    
  0.6             1.1894e-009     1.4925e-006     8.765e-009     
  0.65            1.2775e-009     3.2139e-006     -1.8222e-008   
  0.7             1.098e-009      5.9317e-006     -7.05e-009     
  0.75            1.1523e-009     9.6242e-006     -8.848e-009    
  0.8             -1.2299e-009    1.4415e-005     -1.0765e-008   
  0.85            -1.9577e-009    1.9825e-005     -1.245e-009    
  0.9             -2.215e-009     2.5791e-005     -1.9377e-008   
  0.95            -2.3945e-009    3.2266e-005     -1.816e-008    
  1               -2.3199e-009    3.9068e-005     -1.5361e-008   
  1.05            -1.9276e-009    4.6144e-005     -2.3455e-008   
  1.1             -2.2611e-009    5.3384e-005     -2.268e-008    
  1.15            -2.4089e-009    6.0751e-005     -1.9408e-008   
  1.2             -2.2599e-009    6.824e-005      -1.7651e-008   
  1.25            -2.01e-009      7.5774e-005     -2.3743e-008   
  1.3             -2.2919e-009    8.3373e-005     -2.2626e-008   
  1.35            -2.4098e-009    9.098e-005      -1.869e-008    
  1.4             -2.1745e-009    9.8659e-005     -1.7607e-008   
  1.45            -2.0735e-009    0.000106261     -2.2724e-008   
  1.5             -2.3297e-009    0.000113922     -2.0811e-008   
  1.55            -2.0837e-009    0.00012167      -2.3445e-008   
  1.6             -2.1429e-009    0.00012926      -2.1561e-008   
  1.65            -2.3946e-009    0.00013685      -1.9226e-008   
  1.7             -2.3617e-009    0.00014442      -1.5612e-008   
  1.75            -1.8276e-009    0.00015198      -2.0777e-008   
  1.8             -2.187e-009     0.00015951      -1.9058e-008   
END_DB

BEGIN_DB
 ICCAP_VAR VS         0              
 ICCAP_VAR VB         -1.8           
 ICCAP_VAR VD         0.1            

 #VG              IG              ID              IB             
  0               -1.1663e-009    -1.0556e-009    1.0772e-008    
  0.05            -1.6232e-009    2.463e-010      1.4993e-008    
  0.1             2.0233e-009     1.0036e-009     -1.0153e-008   
  0.15            -1.2121e-009    1.2254e-009     1.055e-008     
  0.2             -1.4002e-009    -1.1751e-009    9.364e-009     
  0.25            -4.66e-011      -1.8583e-009    -9.686e-009    
  0.3             -2.188e-010     -1.9119e-009    -9.193e-009    
  0.35            1.1467e-009     -1.0539e-009    -1.2556e-008   
  0.4             2.3324e-009     1.3034e-009     -8.946e-009    
  0.45            5.942e-010      2.9168e-009     9.55e-009      
  0.5             7.517e-010      6.6166e-009     1.0587e-008    
  0.55            -1.2383e-009    2.0133e-008     -9.326e-009    
  0.6             -2.1822e-009    7.6511e-008     6.135e-009     
  0.65            1.73e-010       2.3657e-007     -7.566e-009    
  0.7             4.65e-010       6.0886e-007     8.185e-009     
  0.75            -1.9526e-009    1.3782e-006     -1.0249e-008   
  0.8             -3.581e-010     2.5751e-006     -9.506e-009    
  0.85            -7.469e-010     4.2098e-006     -8.907e-009    
  0.9             -1.1906e-009    6.1532e-006     -1.1001e-008   
  0.95            -3.06e-011      8.1909e-006     -9.424e-009    
  1               -4.137e-010     1.03383e-005    -9.196e-009    
  1.05            2.2586e-009     1.2453e-005     -9.391e-009    
  1.1             9.424e-010      1.4459e-005     1.0313e-008    
  1.15            1.3717e-009     1.6459e-005     1.1597e-008    
  1.2             3.161e-010      1.8353e-005     8.525e-009     
  1.25            6.021e-010      2.0098e-005     8.094e-009     
  1.3             1.0119e-009     2.1767e-005     1.0637e-008    
  1.35            1.4393e-009     2.3376e-005     1.1564e-008    
  1.4             3.602e-010      2.4862e-005     8.474e-009     
  1.45            6.581e-010      2.6233e-005     8.34e-009      
  1.5             1.0898e-009     2.7471e-005     9.927e-009     
  1.55            1.5045e-009     2.8718e-005     1.2317e-008    
  1.6             3.901e-010      2.9867e-005     8.633e-009     
  1.65            7.281e-010      3.0937e-005     8.504e-009     
  1.7             1.1576e-009     3.1957e-005     1.0453e-008    
  1.75            1.562e-009      3.2927e-005     1.2747e-008    
  1.8             4.258e-010      3.382e-005      8.239e-009     
END_DB

BEGIN_DB
 ICCAP_VAR VS         0              
 ICCAP_VAR VB         -1.8           
 ICCAP_VAR VD         1.8            

 #VG              IG              ID              IB             
  0               1.9123e-009     3.1267e-009     4.299e-009     
  0.05            -1.2243e-009    1.0409e-009     4.75e-009      
  0.1             -2.2452e-009    1.1602e-009     6.596e-009     
  0.15            1.4542e-009     2.2008e-009     -1.2164e-008   
  0.2             1.255e-009      2.1538e-009     -4.522e-009    
  0.25            1.1429e-009     2.1497e-009     -4.241e-009    
  0.3             1.0995e-009     2.3384e-009     -3.854e-009    
  0.35            1.1045e-009     3.4724e-009     -4.037e-009    
  0.4             1.1298e-009     8.7274e-009     -5.832e-009    
  0.45            1.1828e-009     3.1203e-008     7.422e-009     
  0.5             -2.3857e-009    1.1028e-007     7.169e-009     
  0.55            -8.383e-010     3.7723e-007     -1.0966e-008   
  0.6             -1.2778e-009    1.06068e-006    -1.3459e-008   
  0.65            1.5406e-009     2.4513e-006     2.132e-009     
  0.7             -2.0282e-009    4.8305e-006     2.39e-009      
  0.75            -2.1797e-009    8.1329e-006     -1.5601e-008   
  0.8             1.1215e-009     1.2385e-005     -1.8934e-008   
  0.85            1.1225e-009     1.75e-005       -1.2211e-008   
  0.9             1.1805e-009     2.3259e-005     -1.7791e-008   
  0.95            1.1817e-009     2.9612e-005     -2.2978e-008   
  1               1.2261e-009     3.6267e-005     -3.0302e-008   
  1.05            1.1011e-009     4.3245e-005     -1.6631e-008   
  1.1             1.164e-009      5.0388e-005     -1.8853e-008   
  1.15            1.1845e-009     5.7718e-005     -2.4473e-008   
  1.2             1.373e-009      6.5135e-005     -2.9211e-008   
  1.25            1.1029e-009     7.2701e-005     -1.8413e-008   
  1.3             1.1385e-009     8.0193e-005     -1.7658e-008   
  1.35            1.1867e-009     8.7789e-005     -2.2755e-008   
  1.4             1.592e-009      9.5452e-005     -2.6532e-008   
  1.45            1.1478e-009     0.000103083     -1.6636e-008   
  1.5             1.113e-009      0.000110673     -1.6639e-008   
  1.55            1.1628e-009     0.00011839      -1.6263e-008   
  1.6             1.1839e-009     0.00012595      -2.2688e-008   
  1.65            1.3669e-009     0.00013358      -2.7093e-008   
  1.7             1.102e-009      0.00014113      -1.5494e-008   
  1.75            1.1391e-009     0.00014864      -1.454e-008    
  1.8             1.191e-009      0.00015616      -1.9483e-008   
END_DB

