! VERSION = 6.00
BEGIN_HEADER
 ICCAP_INPUTS
  VG         V  B GROUND SMU4 0.001 LIN        2    0          1.8        6    0.36      
  VS         V  E GROUND SMU3 0.1 CON        0
  VD         V  S GROUND SMU2 0.1 LIN        1    0          1.8        37   0.05      
  VB         V  C GROUND SMU1 0.1 LIN        3    0          -0.9       2    -0.9      
 ICCAP_OUTPUTS
  ID         I  S GROUND SMU2 B
  IB         I  C GROUND SMU1 B
  IG         I  B GROUND SMU4 B
END_HEADER

BEGIN_DB
 ICCAP_VAR VG         0              
 ICCAP_VAR VS         0              
 ICCAP_VAR VB         0              

 #VD              ID              IB              IG             
  0               1.115e-010      -7.26e-009      7.534e-010     
  0.05            1.7696e-009     -5.582e-009     2.3316e-009    
  0.1             5.12e-011       1.0816e-008     -2.5868e-009   
  0.15            -2.9209e-009    -1.2094e-008    1.8052e-009    
  0.2             2.6693e-009     1.9514e-008     -1.9513e-009   
  0.25            -1.2343e-009    -1.628e-008     2.2125e-009    
  0.3             1.0241e-009     1.5156e-008     -2.1136e-009   
  0.35            -1.0716e-009    -1.599e-008     2.3663e-009    
  0.4             8.899e-010      1.4404e-008     -2.25e-009     
  0.45            -9.149e-010     -1.5352e-008    2.4978e-009    
  0.5             7.423e-010      1.3683e-008     -2.3635e-009   
  0.55            -7.524e-010     -1.4837e-008    2.5952e-009    
  0.6             5.949e-010      1.2796e-008     -2.4466e-009   
  0.65            -5.884e-010     -1.3975e-008    2.6647e-009    
  0.7             4.43e-010       1.2276e-008     -2.5102e-009   
  0.75            -3.984e-010     -1.2528e-008    2.7104e-009    
  0.8             2.842e-010      1.1615e-008     -2.5495e-009   
  0.85            -2.214e-010     -1.0497e-008    2.7287e-009    
  0.9             1.448e-010      1.1362e-008     -2.5756e-009   
  0.95            -2.9664e-009    -1.1097e-008    1.7072e-009    
  1               2.7467e-009     1.7582e-008     -1.8678e-009   
  1.05            -2.6232e-009    -1.9871e-008    2.3173e-009    
  1.1             9.294e-010      1.4629e-008     -2.2017e-009   
  1.15            -9.672e-010     -1.5457e-008    2.4594e-009    
  1.2             7.818e-010      1.3899e-008     -2.3237e-009   
  1.25            -8.064e-010     -1.4737e-008    2.5665e-009    
  1.3             6.396e-010      1.3144e-008     -2.4208e-009   
  1.35            -3.3488e-009    -8.119e-009     1.962e-010     
  1.4             7.42e-011       -8.076e-009     2.7221e-009    
  1.45            2.7751e-009     1.6736e-008     -1.8303e-009   
  1.5             -2.654e-009     -1.9259e-008    2.2882e-009    
  1.55            9.577e-010      1.4998e-008     -2.1709e-009   
  1.6             -1.001e-009     -1.5407e-008    2.4294e-009    
  1.65            8.133e-010      1.4003e-008     -2.3027e-009   
  1.7             -8.321e-010     -1.5089e-008    2.5441e-009    
  1.75            6.691e-010      1.299e-008      -2.4072e-009   
  1.8             -6.596e-010     -1.4241e-008    2.6352e-009    
END_DB

BEGIN_DB
 ICCAP_VAR VG         0.36           
 ICCAP_VAR VS         0              
 ICCAP_VAR VB         0              

 #VD              ID              IB              IG             
  0               -5.15e-011      -7.618e-009     7.418e-010     
  0.05            5.3683e-009     -5.709e-009     1.7258e-009    
  0.1             7.744e-009      -1.3849e-008    -8.8e-012      
  0.15            8.494e-009      1.3383e-008     2.919e-010     
  0.2             9.336e-009      1.602e-008      5.759e-010     
  0.25            1.0366e-008     1.1481e-008     8.46e-010      
  0.3             7.134e-009      8.876e-009      -1.7511e-009   
  0.35            1.046e-008      1.0316e-008     7.025e-010     
  0.4             9.344e-009      1.1827e-008     6.36e-011      
  0.45            9.95e-009       1.4011e-008     3.565e-010     
  0.5             1.0934e-008     1.6579e-008     6.394e-010     
  0.55            1.1982e-008     1.1431e-008     9.004e-010     
  0.6             1.0494e-008     1.3363e-008     2.832e-010     
  0.65            9.94e-009       1.6199e-008     2.4749e-009    
  0.7             1.3562e-008     -8.347e-009     1.6781e-009    
  0.75            9.904e-009      1.8405e-008     1.9224e-009    
  0.8             1.0352e-008     -1.1113e-008    2.2851e-009    
  0.85            1.0461e-008     -8.352e-009     2.5635e-009    
  0.9             1.0663e-008     -7.271e-009     2.7091e-009    
  0.95            1.1193e-008     -7.72e-009      2.7427e-009    
  1               1.1295e-008     -1.6931e-008    2.6824e-009    
  1.05            1.1721e-008     -7.509e-009     2.7392e-009    
  1.1             1.1956e-008     -7.312e-009     2.6212e-009    
  1.15            1.2598e-008     -1.4667e-008    1.7245e-009    
  1.2             1.1811e-008     -1.3121e-008    2.4906e-009    
  1.25            1.264e-008      -7.303e-009     2.7402e-009    
  1.3             1.34e-008       -1.7527e-008    2.6122e-009    
  1.35            1.2369e-008     -1.4871e-008    2.2011e-009    
  1.4             1.368e-008      -8.902e-009     2.6973e-009    
  1.45            1.4273e-008     -7.596e-009     2.7041e-009    
  1.5             1.3057e-008     -1.6204e-008    1.8332e-009    
  1.55            1.4468e-008     -1.2359e-008    2.5458e-009    
  1.6             1.5329e-008     -7.049e-009     2.7407e-009    
  1.65            1.4148e-008     -1.6933e-008    1.4838e-009    
  1.7             1.3059e-008     -1.2526e-008    2.725e-009     
  1.75            1.703e-008      -7.846e-009     2.6775e-009    
  1.8             1.587e-008      -1.5964e-008    1.9709e-009    
END_DB

BEGIN_DB
 ICCAP_VAR VG         0.72           
 ICCAP_VAR VS         0              
 ICCAP_VAR VB         0              

 #VD              ID              IB              IG             
  0               -1.3174e-008    6.141e-009      1.1928e-009    
  0.05            8.5583e-006     -1.4101e-008    -2.0745e-009   
  0.1             1.327e-005      -1.456e-008     1.8407e-009    
  0.15            1.5774e-005     -9.159e-009     2.6739e-009    
  0.2             1.7207e-005     -1.1851e-008    2.577e-009     
  0.25            1.8179e-005     -1.4789e-008    1.56e-009      
  0.3             1.8839e-005     -1.7372e-008    2.7182e-009    
  0.35            1.9376e-005     -8.925e-009     2.6785e-009    
  0.4             1.9933e-005     -1.1682e-008    2.5849e-009    
  0.45            2.0523e-005     -1.5068e-008    1.5761e-009    
  0.5             2.0975e-005     -1.7545e-008    2.7198e-009    
  0.55            2.1413e-005     -8.665e-009     2.684e-009     
  0.6             2.1906e-005     -1.1458e-008    2.5895e-009    
  0.65            2.2467e-005     -1.5291e-008    1.5898e-009    
  0.7             2.2887e-005     -1.7318e-008    2.722e-009     
  0.75            2.3299e-005     -8.713e-009     2.6852e-009    
  0.8             2.3775e-005     -1.1427e-008    2.6029e-009    
  0.85            2.4334e-005     -1.5602e-008    1.6156e-009    
  0.9             2.4731e-005     -1.7176e-008    1.3838e-009    
  0.95            2.5184e-005     -1.9069e-008    2.6862e-009    
  1               2.561e-005      -1.083e-008     2.6104e-009    
  1.05            2.6172e-005     -1.5894e-008    1.6326e-009    
  1.1             2.6564e-005     -1.7088e-008    1.3959e-009    
  1.15            2.7019e-005     -1.8973e-008    2.6915e-009    
  1.2             2.7439e-005     -1.1026e-008    2.6135e-009    
  1.25            2.8006e-005     -1.6442e-008    1.6484e-009    
  1.3             2.8407e-005     -1.7136e-008    1.4086e-009    
  1.35            2.8848e-005     -1.908e-008     2.6994e-009    
  1.4             2.9269e-005     -1.1014e-008    2.6211e-009    
  1.45            2.9857e-005     -1.7566e-008    1.6747e-009    
  1.5             3.0251e-005     -1.8579e-008    1.43e-009      
  1.55            3.0703e-005     -2.1003e-008    2.7004e-009    
  1.6             3.127e-005      -2.4699e-008    1.9807e-009    
  1.65            3.167e-005      -1.4014e-008    5.38e-011      
  1.7             3.251e-005      -1.7948e-008    -1.8018e-009   
  1.75            3.2855e-005     -1.9213e-008    -2.4823e-009   
  1.8             3.3323e-005     -2.4005e-008    -2.4022e-009   
END_DB

BEGIN_DB
 ICCAP_VAR VG         1.08           
 ICCAP_VAR VS         0              
 ICCAP_VAR VB         0              

 #VD              ID              IB              IG             
  0               2.1377e-008     -1.0642e-008    -1.1544e-009   
  0.05            4.2842e-005     -7.105e-009     -1.3439e-009   
  0.1             7.9513e-005     1.0618e-008     -2.513e-009    
  0.15            0.000109759     1.1925e-008     -2.4058e-009   
  0.2             0.00013327      1.5899e-008     5.639e-010     
  0.25            0.00015133      1.557e-008      -1.6807e-009   
  0.3             0.0001643       1.4917e-008     -1.8327e-009   
  0.35            0.0001736       1.4117e-008     -1.984e-009    
  0.4             0.00018038      1.4956e-008     -1.4072e-009   
  0.45            0.00018527      1.6051e-008     -1.5193e-009   
  0.5             0.00018918      1.5572e-008     -1.6583e-009   
  0.55            0.00019237      1.4891e-008     -1.8089e-009   
  0.6             0.00019516      1.4044e-008     -1.9625e-009   
  0.65            0.00019773      1.4568e-008     -1.3983e-009   
  0.7             0.00020006      1.6259e-008     -1.5075e-009   
  0.75            0.00020223      1.5723e-008     -1.6333e-009   
  0.8             0.00020431      1.4919e-008     -1.7851e-009   
  0.85            0.00020633      1.415e-008      -1.947e-009    
  0.9             0.00020836      1.4147e-008     -1.3792e-009   
  0.95            0.00021023      1.6276e-008     -1.4897e-009   
  1               0.00021206      1.5823e-008     -1.6205e-009   
  1.05            0.00021383      1.524e-008      -1.7684e-009   
  1.1             0.00021565      1.4508e-008     -1.9229e-009   
  1.15            0.00021745      1.3712e-008     -2.0718e-009   
  1.2             0.00021915      1.6557e-008     -1.4708e-009   
  1.25            0.00022082      1.562e-008      -1.5973e-009   
  1.3             0.00022255      1.5e-008        -1.7429e-009   
  1.35            0.00022415      1.4018e-008     -1.8965e-009   
  1.4             0.00022582      1.2977e-008     -2.0462e-009   
  1.45            0.00022738      1.1578e-008     -2.1861e-009   
  1.5             0.00022915      9.76e-009       -2.3008e-009   
  1.55            0.00023068      7.571e-009      -2.4005e-009   
  1.6             0.00023227      4.185e-009      -2.4705e-009   
  1.65            0.00023322      -1.8453e-008    -2.1942e-009   
  1.7             0.00023498      -2.3048e-008    -2.597e-009    
  1.75            0.00023687      -9.628e-009     -1.4098e-009   
  1.8             0.0002383       -3.1283e-008    -1.44e-011     
END_DB

BEGIN_DB
 ICCAP_VAR VG         1.44           
 ICCAP_VAR VS         0              
 ICCAP_VAR VB         0              

 #VD              ID              IB              IG             
  0               4.2718e-008     1.4702e-008     9.492e-010     
  0.05            6.8528e-005     -7.981e-009     -1.5113e-009   
  0.1             0.00013192      2.2572e-008     1.4437e-009    
  0.15            0.00019001      -7.704e-009     2.6302e-009    
  0.2             0.00024138      -1.6595e-008    1.5183e-009    
  0.25            0.00028591      -1.6209e-008    1.6853e-009    
  0.3             0.00032341      -1.6121e-008    1.8669e-009    
  0.35            0.0003543       -1.5596e-008    2.0475e-009    
  0.4             0.00037931      -1.1586e-008    2.7069e-009    
  0.45            0.00039894      -7.954e-009     2.7284e-009    
  0.5             0.00041443      -7.416e-009     2.7285e-009    
  0.55            0.00042652      -7.069e-009     2.7214e-009    
  0.6             0.00043603      -7.416e-009     2.7082e-009    
  0.65            0.00044353      -7.692e-009     2.6821e-009    
  0.7             0.00044957      -7.797e-009     2.6438e-009    
  0.75            0.0004549       -1.6857e-008    1.4688e-009    
  0.8             0.00045938      -1.6124e-008    1.6256e-009    
  0.85            0.00046339      -1.6077e-008    1.8025e-009    
  0.9             0.0004671       -1.5874e-008    1.9861e-009    
  0.95            0.00047043      -1.5426e-008    2.1614e-009    
  1               0.00047385      -1.2836e-008    2.7227e-009    
  1.05            0.00047667      -7.424e-009     2.7306e-009    
  1.1             0.00047956      -7.134e-009     2.7266e-009    
  1.15            0.00048225      -7.218e-009     2.7172e-009    
  1.2             0.00048506      -7.68e-009      2.6929e-009    
  1.25            0.00048767      -7.987e-009     2.6584e-009    
  1.3             0.00049019      -1.7311e-008    1.425e-009     
  1.35            0.0004927       -1.6574e-008    1.5694e-009    
  1.4             0.00049513      -1.6708e-008    1.747e-009     
  1.45            0.00049755      -1.684e-008     1.9285e-009    
  1.5             0.00049978      -1.192e-008     2.6773e-009    
  1.55            0.0005022       -2.5101e-008    2.2731e-009    
  1.6             0.00050459      -1.8976e-008    1.5635e-009    
  1.65            0.00050653      -1.5809e-008    7.98e-011      
  1.7             0.00051031      -1.9953e-008    -1.5975e-009   
  1.75            0.00051175      -2.2731e-008    -2.5963e-009   
  1.8             0.00051422      -8.67e-009      -1.251e-009    
END_DB

BEGIN_DB
 ICCAP_VAR VG         1.8            
 ICCAP_VAR VS         0              
 ICCAP_VAR VB         0              

 #VD              ID              IB              IG             
  0               4.8557e-008     -1.3048e-008    8.744e-010     
  0.05            8.4647e-005     -7.236e-009     -8.56e-011     
  0.1             0.00016551      -7.255e-009     1.7689e-009    
  0.15            0.00024207      -1.6622e-008    1.959e-009     
  0.2             0.00031322      -1.5952e-008    2.1339e-009    
  0.25            0.00037833      -1.2593e-008    2.7051e-009    
  0.3             0.0004367       -7.532e-009     2.7171e-009    
  0.35            0.00048854      -6.83e-009      2.7224e-009    
  0.4             0.0005337       -6.96e-009      2.7182e-009    
  0.45            0.0005727       -7.456e-009     2.7061e-009    
  0.5             0.00060577      -7.981e-009     2.68e-009      
  0.55            0.00063339      -7.665e-009     2.6411e-009    
  0.6             0.00065643      -1.6656e-008    1.538e-009     
  0.65            0.0006754       -1.6696e-008    1.7041e-009    
  0.7             0.00069104      -1.6638e-008    1.9007e-009    
  0.75            0.00070385      -1.5957e-008    2.0821e-009    
  0.8             0.00071436      -1.1938e-008    2.6934e-009    
  0.85            0.00072288      -7.598e-009     2.7129e-009    
  0.9             0.00073035      -7.12e-009      2.7201e-009    
  0.95            0.00073687      -6.713e-009     2.7209e-009    
  1               0.00074256      -7.346e-009     2.7109e-009    
  1.05            0.00074772      -7.857e-009     2.6878e-009    
  1.1             0.00075219      -7.875e-009     2.6518e-009    
  1.15            0.00075636      -1.6782e-008    1.4861e-009    
  1.2             0.00076035      -1.6465e-008    1.65e-009      
  1.25            0.00076413      -1.6726e-008    1.8347e-009    
  1.3             0.00076764      -1.6293e-008    2.0206e-009    
  1.35            0.00077114      -1.1432e-008    2.6811e-009    
  1.4             0.00077424      -7.753e-009     2.708e-009     
  1.45            0.0007774       -7.59e-009      2.7175e-009    
  1.5             0.00078035      -7.439e-009     2.7232e-009    
  1.55            0.00078348      -8.3e-009       2.7151e-009    
  1.6             0.00078645      -1.0003e-008    2.6939e-009    
  1.65            0.00078902      -2.1744e-008    2.7075e-009    
  1.7             0.00079177      -2.8898e-008    2.4757e-009    
  1.75            0.00079481      -2.9538e-008    1.8281e-009    
  1.8             0.00079715      -2.6657e-008    1.958e-010     
END_DB

BEGIN_DB
 ICCAP_VAR VG         0              
 ICCAP_VAR VS         0              
 ICCAP_VAR VB         -0.9           

 #VD              ID              IB              IG             
  0               4.212e-009      1.3775e-008     2.6056e-009    
  0.05            3.4759e-009     7.639e-009      -2.4662e-009   
  0.1             -5.174e-010     -1.379e-008     2.679e-009     
  0.15            3.694e-010      1.2113e-008     -2.5223e-009   
  0.2             -3.1041e-009    -8.68e-009      2.7071e-009    
  0.25            1.65e-010       1.1073e-008     -2.554e-009    
  0.3             -2.9769e-009    -1.0751e-008    1.69e-009      
  0.35            2.7489e-009     1.7991e-008     -1.8897e-009   
  0.4             -1.2884e-009    -1.6456e-008    2.1687e-009    
  0.45            1.0634e-009     1.586e-008      -2.0844e-009   
  0.5             -1.1083e-009    -1.6275e-008    2.376e-009     
  0.55            8.973e-010      1.4896e-008     -2.2622e-009   
  0.6             -9.005e-010     -1.561e-008     2.5274e-009    
  0.65            7.191e-010      1.3958e-008     -2.3906e-009   
  0.7             -6.935e-010     -1.5101e-008    2.6266e-009    
  0.75            5.314e-010      1.2966e-008     -2.4757e-009   
  0.8             -4.755e-010     -1.3169e-008    2.6853e-009    
  0.85            3.2685e-009     8.597e-009      -1.3781e-009   
  0.9             -4.0314e-009    -9.791e-009     -5.895e-010    
  0.95            1.408e-010      1.0999e-008     -2.5555e-009   
  1               -2.9592e-009    -1.1191e-008    1.7219e-009    
  1.05            2.7162e-009     1.8718e-008     -1.9151e-009   
  1.1             -1.2678e-009    -1.6403e-008    2.1922e-009    
  1.15            1.0465e-009     1.5524e-008     -2.1084e-009   
  1.2             -1.0873e-009    -1.6127e-008    2.391e-009     
  1.25            8.817e-010      1.4757e-008     -2.2819e-009   
  1.3             -8.798e-010     -1.5468e-008    2.5401e-009    
  1.35            6.973e-010      1.3809e-008     -2.3992e-009   
  1.4             -3.3859e-009    -8.094e-009     1.884e-010     
  1.45            7.28e-011       -8.007e-009     2.712e-009     
  1.5             2.7766e-009     1.7205e-008     -1.8454e-009   
  1.55            -2.6367e-009    -1.9956e-008    2.3259e-009    
  1.6             9.383e-010      1.5169e-008     -2.2294e-009   
  1.65            -9.451e-010     -1.5795e-008    2.4948e-009    
  1.7             7.547e-010      1.3997e-008     -2.3658e-009   
  1.75            -3.4448e-009    -8.269e-009     1.557e-010     
  1.8             1.39e-011       -8.132e-009     2.7129e-009    
END_DB

BEGIN_DB
 ICCAP_VAR VG         0.36           
 ICCAP_VAR VS         0              
 ICCAP_VAR VB         -0.9           

 #VD              ID              IB              IG             
  0               5.127e-010      -7.808e-009     8.589e-010     
  0.05            3.0729e-009     1.324e-008      -1.6358e-009   
  0.1             -2.6663e-009    -1.6177e-008    2.0939e-009    
  0.15            1.2458e-009     1.5729e-008     -2.0243e-009   
  0.2             -1.0225e-009    -1.6144e-008    2.2965e-009    
  0.25            1.0988e-009     1.4976e-008     -2.1968e-009   
  0.3             -8.148e-010     -1.5877e-008    2.4673e-009    
  0.35            9.497e-010      1.4081e-008     -2.3418e-009   
  0.4             -5.899e-010     -1.5092e-008    2.5902e-009    
  0.45            7.97e-010       1.3069e-008     -2.4463e-009   
  0.5             -3.089e-009     -8.009e-009     2.277e-010     
  0.55            3.82e-010       -7.537e-009     2.7086e-009    
