! VERSION = 6.00
BEGIN_HEADER
 ICCAP_INPUTS
  VG         V  B GROUND SMU4 0.001 LIN        2    0          1.8        6    0.36      
  VS         V  E GROUND SMU2 0.1 CON        0
  VD         V  S GROUND SMU1 0.1 LIN        1    0          1.8        37   0.05      
  VB         V  C GROUND SMU3 0.1 LIN        3    0          -0.9       2    -0.9      
 ICCAP_OUTPUTS
  ID         I  S GROUND SMU1 B
  IB         I  C GROUND SMU3 B
  IG         I  B GROUND SMU4 B
END_HEADER

BEGIN_DB
 ICCAP_VAR VG         0              
 ICCAP_VAR VS         0              
 ICCAP_VAR VB         0              

 #VD              ID              IB              IG             
  0               6.351e-010      2.2665e-008     5.259e-010     
  0.05            -6.95e-010      -1.7797e-008    2.24e-009      
  0.1             2.0514e-009     -5.72e-009      1.3245e-009    
  0.15            1.2566e-009     2.6295e-008     -1.3723e-009   
  0.2             -2.0207e-009    1.1559e-008     -1.3129e-009   
  0.25            -1.2559e-009    -2.5541e-008    1.3546e-009    
  0.3             2.269e-009      -8.824e-009     1.1257e-009    
  0.35            1.9201e-009     1.1132e-008     -2.217e-010    
  0.4             8.781e-010      2.4902e-008     -1.5822e-009   
  0.45            -1.4741e-009    6.822e-009      -1.7494e-009   
  0.5             -2.1698e-009    -1.1767e-008    -3.937e-010    
  0.55            -2.2304e-009    -1.1147e-008    -6.162e-010    
  0.6             -2.2631e-009    -1.0266e-008    -8.158e-010    
  0.65            -1.6114e-009    -1.3783e-008    1.9213e-009    
  0.7             1.7969e-009     -8.446e-009     1.5065e-009    
  0.75            1.5334e-009     1.0704e-008     1.7043e-009    
  0.8             2.2057e-009     1.1206e-008     3.667e-010     
  0.85            2.3064e-009     1.0446e-008     5.685e-010     
  0.9             2.3736e-009     9.626e-009      7.555e-010     
  0.95            1.628e-009      1.5577e-008     -1.7457e-009   
  1               -1.6379e-009    5.078e-009      -1.6197e-009   
  1.05            -2.1109e-009    -1.1724e-008    -2.074e-010    
  1.1             -2.1779e-009    -1.1548e-008    -4.357e-010    
  1.15            -2.2354e-009    -1.0597e-008    -6.67e-010     
  1.2             -1.5388e-009    -1.7062e-008    1.2677e-009    
  1.25            -1.623e-010     -1.332e-008     2.8569e-009    
  1.3             2.0917e-009     1.119e-008      1.421e-010     
  1.35            2.1956e-009     1.1205e-008     3.44e-010      
  1.4             2.2941e-009     1.0581e-008     5.458e-010     
  1.45            2.3695e-009     9.755e-009      7.366e-010     
  1.5             1.6045e-009     1.617e-008      -1.7795e-009   
  1.55            -1.6693e-009    4.922e-009      -1.6061e-009   
  1.6             -2.1047e-009    -1.1843e-008    -1.651e-010    
  1.65            -2.174e-009     -1.1748e-008    -4.015e-010    
  1.7             -2.2315e-009    -1.1114e-008    -6.413e-010    
  1.75            -2.2637e-009    -1.0181e-008    -8.244e-010    
  1.8             -2.2565e-009    -9.358e-009     -9.771e-010    
END_DB

BEGIN_DB
 ICCAP_VAR VG         0.36           
 ICCAP_VAR VS         0              
 ICCAP_VAR VB         0              

 #VD              ID              IB              IG             
  0               -8.473e-010     -1.2254e-008    -1.1444e-009   
  0.05            1.429e-008      -8.352e-009     -1.9379e-009   
  0.1             2.1447e-008     1.7003e-008     -1.5533e-009   
  0.15            2.2718e-008     1.0799e-008     1.9259e-009    
  0.2             2.1938e-008     -1.6183e-008    1.7392e-009    
  0.25            2.3342e-008     -2.199e-008     1.2577e-009    
  0.3             2.4945e-008     -2.4189e-008    1.2758e-009    
  0.35            2.6544e-008     -2.5805e-008    1.2943e-009    
  0.4             2.6092e-008     -1.001e-008     -1.0646e-009   
  0.45            3.1578e-008     2.138e-008      -1.5056e-009   
  0.5             3.2775e-008     1.0682e-008     1.9881e-009    
  0.55            3.2623e-008     -1.4768e-008    1.6541e-009    
  0.6             3.4596e-008     -2.0543e-008    1.9856e-009    
  0.65            3.5478e-008     -1.1674e-008    -1.526e-010    
  0.7             4.016e-008      1.1415e-008     -2.5947e-009   
  0.75            4.4124e-008     1.5183e-008     -1.4892e-009   
  0.8             4.4499e-008     1.0688e-008     2.018e-009     
  0.85            4.5132e-008     -1.4234e-008    1.6229e-009    
  0.9             4.7692e-008     -1.9771e-008    1.9237e-009    
  0.95            5.0564e-008     -2.485e-008     1.2819e-009    
  1               5.3392e-008     -2.6205e-008    1.2977e-009    
  1.05            5.6294e-008     -2.6565e-008    1.3168e-009    
  1.1             5.7647e-008     -1.0273e-008    -9.616e-010    
  1.15            6.5435e-008     1.8777e-008     -1.6143e-009   
  1.2             6.967e-008      2.4828e-008     -1.3041e-009   
  1.25            7.2501e-008     1.5153e-008     -1.8465e-009   
  1.3             7.7019e-008     2.7679e-008     -1.341e-009    
  1.35            7.7566e-008     9.231e-009      1.0044e-009    
  1.4             8.0948e-008     -2.1504e-008    1.5475e-009    
  1.45            8.2968e-008     -1.1873e-008    -5.428e-010    
  1.5             9.332e-008      1.2674e-008     -2.2202e-009   
  1.55            9.3872e-008     1.0724e-008     1.4169e-009    
  1.6             9.9315e-008     -2.6525e-008    1.312e-009     
  1.65            1.03571e-007    -1.0288e-008    -9.841e-010    
  1.7             1.1002e-007     1.9103e-008     -1.1176e-009   
  1.75            1.2159e-007     2.7613e-008     -1.368e-009    
  1.8             1.2788e-007     2.5887e-008     -1.3205e-009   
END_DB

BEGIN_DB
 ICCAP_VAR VG         0.72           
 ICCAP_VAR VS         0              
 ICCAP_VAR VB         0              

 #VD              ID              IB              IG             
  0               -9.1198e-008    2.5569e-008     1.3303e-009    
  0.05            4.8232e-005     1.8972e-008     -9.009e-010    
  0.1             7.4469e-005     2.7638e-008     -1.3734e-009   
  0.15            8.7897e-005     2.0035e-008     -1.6579e-009   
  0.2             9.4446e-005     1.0096e-008     9e-010         
  0.25            9.9535e-005     -2.5909e-008    1.3096e-009    
  0.3             0.000104044     -1.1806e-008    -5.269e-010    
  0.35            0.000109221     2.2918e-008     -1.4835e-009   
  0.4             0.000110634     9.106e-009      1.0712e-009    
  0.45            0.00011666      -2.6172e-008    -1.2134e-009   
  0.5             0.00012006      2.7639e-008     -1.3531e-009   
  0.55            0.00012339      2.3394e-008     -1.8115e-009   
  0.6             0.00012593      1.1259e-008     5.439e-010     
  0.65            0.00012794      -1.9327e-008    1.7257e-009    
  0.7             0.00013188      -1.1505e-008    -7.994e-010    
  0.75            0.00013673      2.2745e-008     -1.484e-009    
  0.8             0.00013823      1.0293e-008     8.668e-010     
  0.85            0.00014113      -2.5132e-008    1.4085e-009    
  0.9             0.00014621      -9.976e-009     -1.0739e-009   
  0.95            0.00015009      2.7559e-008     -1.3809e-009   
  1               0.00015339      1.4902e-008     -1.8626e-009   
  1.05            0.00015453      1.051e-008      2.0275e-009    
  1.1             0.00015779      -1.8728e-008    1.7699e-009    
  1.15            0.00016168      -1.1676e-008    -7.653e-010    
  1.2             0.00016674      2.1669e-008     -1.5087e-009   
  1.25            0.00016875      9.981e-009      8.343e-010     
  1.3             0.00017117      -2.5735e-008    1.4297e-009    
  1.35            0.00017693      -1.2231e-008    -1.0415e-009   
  1.4             0.0001809       6.191e-009      -1.3401e-009   
  1.45            0.00018461      1.255e-008      -1.6153e-009   
  1.5             0.00018836      6.72e-010       -2.5603e-009   
  1.55            0.00019184      -4.559e-009     -2.2042e-009   
  1.6             0.00019207      -1.4991e-008    1.8126e-009    
  1.65            0.00019649      -5.1439e-008    1.4764e-009    
  1.7             0.00020145      -6.6517e-008    -2.28e-009     
  1.75            0.0002063       -6.9564e-008    3.27e-010      
  1.8             0.00020884      -1.3373e-007    3.822e-010     
END_DB

BEGIN_DB
 ICCAP_VAR VG         1.08           
 ICCAP_VAR VS         0              
 ICCAP_VAR VB         0              

 #VD              ID              IB              IG             
  0               -1.1654e-007    -9.704e-009     8.065e-010     
  0.05            0.00024301      -1.9068e-008    -6.991e-010    
  0.1             0.00044809      1.9874e-008     -1.5527e-009   
  0.15            0.00060923      1.0853e-008     7.855e-010     
  0.2             0.00072748      -2.3227e-008    1.4611e-009    
  0.25            0.00081608      -1.048e-008     -9.857e-010    
  0.3             0.00087723      2.66e-008       -1.3933e-009   
  0.35            0.0009159       8.861e-009      1.0532e-009    
  0.4             0.00094644      -2.6592e-008    1.3171e-009    
  0.45            0.00097004      -2.3082e-008    1.2672e-009    
  0.5             0.0009894       -1.1854e-008    -5.035e-010    
  0.55            0.00100845      1.7116e-008     -1.7286e-009   
  0.6             0.00102137      1.1349e-008     6.273e-010     
  0.65            0.0010319       -2.0089e-008    1.6215e-009    
  0.7             0.00104591      -1.1074e-008    -8.564e-010    
  0.75            0.0010603       2.3926e-008     -1.4422e-009   
  0.8             0.00107182      2.7609e-008     -1.3746e-009   
  0.85            0.00108257      2.6841e-008     -1.3288e-009   
  0.9             0.00109196      1.12e-008       3.935e-010     
  0.95            0.00109866      -1.7452e-008    1.9474e-009    
  1               0.00111024      -1.2013e-008    -6.519e-010    
  1.05            0.00112283      1.9079e-008     -1.5933e-009   
  1.1             0.001131        -1.2145e-008    2.972e-010     
  1.15            0.0011439       1.1413e-008     -2.6541e-009   
  1.2             0.0011538       2.6614e-008     -1.3864e-009   
  1.25            0.0011633       2.6712e-008     -1.3418e-009   
  1.3             0.0011723       1.71e-008       -1.603e-009    
  1.35            0.0011822       8.054e-009      -2.5584e-009   
  1.4             0.0011917       6.607e-009      -2.2117e-009   
  1.45            0.0011993       5.068e-009      -1.7892e-009   
  1.5             0.0012053       -8.941e-009     2.0897e-009    
  1.55            0.001213        -4.3878e-008    8.86e-011      
  1.6             0.0012279       -4.0679e-008    -2.4263e-009   
  1.65            0.0012294       -7.1957e-008    1.6599e-009    
  1.7             0.0012423       -1.2243e-007    1.2445e-009    
  1.75            0.0012521       -1.9339e-007    -2.7065e-009   
  1.8             0.0012584       -2.6096e-007    1.0051e-009    
END_DB

BEGIN_DB
 ICCAP_VAR VG         1.44           
 ICCAP_VAR VS         0              
 ICCAP_VAR VB         0              

 #VD              ID              IB              IG             
  0               -1.2488e-007    2.7387e-008     -1.3696e-009   
  0.05            0.00038199      1.481e-009      -1.4378e-009   
  0.1             0.00073176      9.586e-009      9.353e-010     
  0.15            0.00104008      -2.5637e-008    1.3609e-009    
  0.2             0.0013015       1.0919e-008     2.797e-009     
  0.25            0.0015173       -2.6287e-008    1.3304e-009    
  0.3             0.0016899       -2.4144e-008    1.2791e-009    
  0.35            0.001826        -1.1855e-008    -4.312e-010    
  0.4             0.001933        1.6178e-008     -1.7947e-009   
  0.45            0.0020131       1.1423e-008     5.675e-010     
  0.5             0.0020725       -1.9193e-008    1.7009e-009    
  0.55            0.0021221       -1.1482e-008    -8.105e-010    
  0.6             0.0021632       2.2595e-008     -1.4739e-009   
  0.65            0.0021943       2.6916e-008     -1.3811e-009   
  0.7             0.0022208       2.7263e-008     -1.3378e-009   
  0.75            0.0022428       2.2153e-008     -1.7308e-009   
  0.8             0.0022622       1.1373e-008     6.275e-010     
  0.85            0.0022779       -2.0126e-008    1.6314e-009    
  0.9             0.0022972       -1.1449e-008    -8.575e-010    
  0.95            0.0023162       2.3856e-008     -1.445e-009    
  1               0.0023279       9.979e-009      9.232e-010     
  1.05            0.0023418       -2.5621e-008    1.3658e-009    
  1.1             0.0023563       -2.568e-008     1.295e-009     
  1.15            0.0023716       -2.0224e-008    1.9512e-009    
  1.2             0.0023858       -1.2348e-008    -6.486e-010    
  1.25            0.0024021       1.8419e-008     -1.6017e-009   
  1.3             0.0024125       9.486e-009      7.394e-010     
  1.35            0.0024226       -2.5011e-008    1.5101e-009    
  1.4             0.0024378       -1.5346e-008    -9.455e-010    
  1.45            0.002452        -1.31e-010      -1.3556e-009   
  1.5             0.0024607       -5.352e-009     2.5858e-009    
  1.55            0.0024731       -3.8042e-008    -8e-010        
  1.6             0.0024875       -2.1499e-008    -1.4807e-009   
  1.65            0.002496        -6.1506e-008    2.3079e-009    
  1.7             0.002508        -1.1938e-007    2.6659e-009    
  1.75            0.0025204       -1.7749e-007    -8.957e-010    
  1.8             0.0025333       -2.233e-007     -1.4288e-009   
END_DB

BEGIN_DB
 ICCAP_VAR VG         1.8            
 ICCAP_VAR VS         0              
 ICCAP_VAR VB         0              

 #VD              ID              IB              IG             
  0               -8.988e-007     -1.4836e-008    -1.2806e-009   
  0.05            0.00046403      2.333e-008      1.4425e-009    
  0.1             0.00090484      -1.9018e-008    1.8876e-009    
  0.15            0.0013118       6.33e-009       1.2967e-009    
  0.2             0.0016775       -1.0066e-008    -1.4022e-009   
  0.25            0.001998        2.5116e-008     -1.3217e-009   
  0.3             0.002274        1.1375e-008     4.555e-010     
  0.35            0.0025069       -1.8384e-008    1.8392e-009    
  0.4             0.0027034       -1.2002e-008    -7.208e-010    
  0.45            0.0028666       2.0507e-008     -1.5361e-009   
  0.5             0.002998        1.0557e-008     7.972e-010     
  0.55            0.0031042       -2.3785e-008    1.45e-009      
  0.6             0.0031914       -2.6028e-008    1.3285e-009    
  0.65            0.0032626       -2.3566e-008    1.2771e-009    
  0.7             0.0033213       -1.2064e-008    -4.577e-010    
  0.75            0.0033715       1.6739e-008     -1.771e-009    
  0.8             0.0034113       1.1577e-008     5.875e-010     
  0.85            0.0034416       -1.9724e-008    1.6687e-009    
  0.9             0.0034743       -1.1521e-008    -8.26e-010     
  0.95            0.0035029       2.3486e-008     -1.4586e-009   
  1               0.0035275       2.7068e-008     -1.3788e-009   
  1.05            0.0035484       1.4738e-008     -1.902e-009    
  1.1             0.0035651       1.0061e-008     2.024e-009     
  1.15            0.0035845       -1.8599e-008    1.7964e-009    
  1.2             0.0036042       -1.2131e-008    -7.48e-010     
  1.25            0.0036237       2.0874e-008     -1.5162e-009   
  1.3             0.0036416       2.5261e-008     -1.3941e-009   
  1.35            0.0036518       7.329e-009      1.0385e-009    
  1.4             0.0036676       -2.925e-008     1.3184e-009    
  1.45            0.0036886       -1.5444e-008    -1.2727e-009   
  1.5             0.0037034       1.377e-009      -2.6761e-009   
  1.55            0.0037174       -6.35e-009      -2.4337e-009   
  1.6             0.0037248       -1.8948e-008    1.6339e-009    
  1.65            0.0037402       -6.3106e-008    1.6336e-009    
  1.7             0.003756        -8.5558e-008    -2.1514e-009   
  1.75            0.0037689       -9.233e-008     4.233e-010     
  1.8             0.0037843       -1.684e-007     -1.3118e-009   
END_DB

BEGIN_DB
 ICCAP_VAR VG         0              
 ICCAP_VAR VS         0              
 ICCAP_VAR VB         -0.9           

 #VD              ID              IB              IG             
  0               -8.74e-010      -2.5666e-008    -8.667e-010    
  0.05            1.4269e-009     2.2374e-008     -1.341e-009    
  0.1             7.35e-011       1.1554e-008     -2.7053e-009   
  0.15            -2.2072e-009    -9.431e-009     -1.0916e-009   
  0.2             -1.7697e-009    -1.1273e-008    1.4851e-009    
  0.25            2.3777e-009     -8.195e-009     9.342e-010     
  0.3             1.7955e-009     1.2211e-008     -1.5233e-009   
  0.35            -1.4131e-009    7.744e-009      -1.7931e-009   
  0.4             -2.1963e-009    -1.176e-008     -4.802e-010    
  0.45            -2.2481e-009    -1.0502e-008    -7.107e-010    
  0.5             -1.5489e-009    -1.6513e-008    1.2644e-009    
  0.55            -1.86e-010      -1.3775e-008    2.8327e-009    
  0.6             2.107e-009      1.1259e-008     1.667e-010     
  0.65            2.2053e-009     1.1282e-008     3.752e-010     
  0.7             2.2954e-009     1.0217e-008     5.787e-010     
  0.75            1.4821e-009     2.0876e-008     -1.3271e-009   
  0.8             1.341e-010      1.1617e-008     -2.6747e-009   
  0.85            -2.2625e-009    6.03e-010       -9.454e-010    
  0.9             -1.6747e-009    -1.1869e-008    1.6851e-009    
  0.95            1.5897e-009     -8.508e-009     1.6954e-009    
  1               2.1899e-009     1.1324e-008     3.402e-010     
  1.05            2.283e-009      1.0309e-008     5.449e-010     
  1.1             1.4555e-009     2.1646e-008     -1.333e-009    
  1.15            1.071e-010      1.1539e-008     -2.6902e-009   
  1.2             -1.3073e-009    7.83e-010       -1.875e-009    
  1.25            -2.237e-009     -1.0898e-008    -6.439e-010    
  1.3             -1.5179e-009    -1.7991e-008    1.2748e-009    
  1.35            -1.289e-010     -1.2995e-008    2.8657e-009    
  1.4             1.4876e-009     2.079e-008      -1.3279e-009   
  1.45            1.327e-010      1.1617e-008     -2.6771e-009   
  1.5             -1.2922e-009    6.97e-010       -1.8907e-009   
  1.55            -2.2435e-009    -1.1125e-008    -6.802e-010    
  1.6             -2.2651e-009    -9.981e-009     -8.472e-010    
  1.65            -1.6265e-009    -1.33e-008      1.8646e-009    
  1.7             1.7551e-009     -8.554e-009     1.5627e-009    
  1.75            2.0013e-009     1.0096e-008     -5.42e-011     
  1.8             1.0049e-009     2.7206e-008     -1.4435e-009   
END_DB

BEGIN_DB
 ICCAP_VAR VG         0.36           
 ICCAP_VAR VS         0              
 ICCAP_VAR VB         -0.9           

 #VD              ID              IB              IG             
  0               1.4112e-009     -1.2098e-008    1.3445e-009    
  0.05            1.5881e-009     -8.751e-009     2.1199e-009    
  0.1             2.8566e-009     9.054e-009      7.912e-010     
  0.15            2.2318e-009     1.4904e-008     -1.6925e-009   
  0.2             1.456e-010      5.418e-009      -1.5063e-009   
  0.25            3.348e-010      8.081e-009      -1.4179e-009   
  0.3             5.323e-010      1.0045e-008     -1.3826e-009   
  0.35            7.432e-010      1.1428e-008     -1.3534e-009   
  0.4             9.734e-010      1.1489e-008     -1.3175e-009   
  0.45            1.226e-009      1.1861e-008     -2.656e-009    
  0.5             2.926e-010      4.37e-010       -2.4794e-009   
  0.55            4.628e-010      1.451e-009      -2.216e-009    
