! VERSION = 6.00
BEGIN_HEADER
 ICCAP_INPUTS
  VG         V  B GROUND SMU4 0.001 LIN        1    0          1.8        37   0.05      
  VS         V  E GROUND SMU3 0.1 CON        0
  VB         V  C GROUND SMU1 0.1 LIN        3    0          -1.8       3    -0.9      
  VD         V  S GROUND SMU2 0.1 LIN        2    0.1        1.8        2    1.7       
 ICCAP_OUTPUTS
  IG         I  B GROUND SMU4 B
  ID         I  S GROUND SMU2 B
  IB         I  C GROUND SMU1 B
END_HEADER

BEGIN_DB
 ICCAP_VAR VS         0              
 ICCAP_VAR VB         0              
 ICCAP_VAR VD         0.1            

 #VG              IG              ID              IB             
  0               -1.1089e-009    -1.8362e-009    -1.1129e-008   
  0.05            2.6532e-009     -4.682e-010     -1.3647e-008   
  0.1             -2.5095e-009    4.146e-010      1.1758e-008    
  0.15            2.6905e-009     1.1e-010        -1.0817e-008   
  0.2             -1.5329e-009    4.5508e-009     1.1439e-008    
  0.25            1.9647e-009     3.4544e-009     -1.4411e-008   
  0.3             2.4683e-009     2.9073e-008     1.2861e-008    
  0.35            2.6545e-009     1.1922e-007     -1.1772e-008   
  0.4             9.611e-010      4.9594e-007     8.153e-009     
  0.45            -2.5764e-009    2.064e-006      -1.6963e-008   
  0.5             1.966e-009      7.6581e-006     -1.6894e-008   
  0.55            2.5836e-009     2.4457e-005     1.753e-009     
  0.6             -1.8927e-009    6.6251e-005     1.5477e-008    
  0.65            -6.623e-010     0.00014189      -1.6791e-008   
  0.7             2.6691e-009     0.00025162      -7.879e-009    
  0.75            -1.5279e-009    0.00039008      1.6705e-008    
  0.8             2.5031e-009     0.00052891      -1.3321e-008   
  0.85            -1.7363e-009    0.00067108      1.6317e-008    
  0.9             2.6118e-009     0.00079241      -1.0315e-008   
  0.95            -1.954e-009     0.00090542      1.5031e-008    
  1               1.5696e-009     0.00099847      -1.5264e-008   
  1.05            8.614e-010      0.0010801       9.146e-009     
  1.1             1.7754e-009     0.0011482       1.4615e-008    
  1.15            -2.4043e-009    0.0012099       1.1287e-008    
  1.2             2.0345e-009     0.0012596       -1.6592e-008   
  1.25            -1.4422e-009    0.0013065       1.6055e-008    
  1.3             -9.75e-010      0.0013441       -9.315e-009    
  1.35            2.7086e-009     0.0013773       -6.958e-009    
  1.4             -2.387e-009     0.001408        1.1574e-008    
  1.45            2.0047e-009     0.0014337       -1.6656e-008   
  1.5             -1.423e-009     0.0014589       1.5722e-008    
  1.55            2.404e-009      0.0014779       -1.4647e-008   
  1.6             -1.5935e-009    0.0014974       1.6629e-008    
  1.65            -8.779e-010     0.0015144       -9.68e-009     
  1.7             2.7158e-009     0.001529        -6.752e-009    
  1.75            -2.4688e-009    0.0015427       1.0816e-008    
  1.8             2.2126e-009     0.0015542       -1.5935e-008   
END_DB

BEGIN_DB
 ICCAP_VAR VS         0              
 ICCAP_VAR VB         0              
 ICCAP_VAR VD         1.8            

 #VG              IG              ID              IB             
  0               -8.667e-010     -3.734e-010     6.884e-009     
  0.05            2.7054e-009     1.132e-010      -9.102e-009    
  0.1             -1.6336e-009    3.9304e-009     1.3565e-008    
  0.15            2.7065e-009     4.407e-009      -8.98e-009     
  0.2             1.8399e-009     2.087e-008      1.6817e-008    
  0.25            -2.4297e-009    8.6181e-008     1.0639e-008    
  0.3             -9.971e-010     3.8385e-007     1.438e-008     
  0.35            2.5676e-009     1.5948e-006     1.4238e-008    
  0.4             -1.8759e-009    6.5696e-006     5.983e-009     
  0.45            -1.9936e-009    2.2518e-005     -1.9534e-008   
  0.5             -1.9465e-009    6.5483e-005     -7.878e-008    
  0.55            -2.4015e-009    0.00015928      -1.3195e-007   
  0.6             -1.7322e-009    0.00031756      -2.4821e-007   
  0.65            1.893e-010      0.00053546      -3.519e-007    
  0.7             2.5596e-009     0.00081978      -4.4867e-007   
  0.75            1.7113e-009     0.0011563       -4.9407e-007   
  0.8             2.2297e-009     0.0015344       -5.4557e-007   
  0.85            3.847e-010      0.001941        -5.6037e-007   
  0.9             -1.5772e-009    0.0023697       -5.4595e-007   
  0.95            -2.1677e-009    0.002807        -5.4465e-007   
  1               -4.435e-010     0.0032626       -5.0841e-007   
  1.05            1.6177e-009     0.0037227       -4.6931e-007   
  1.1             2.27e-009       0.0042007       -3.9571e-007   
  1.15            4.27e-010       0.0046817       -3.4157e-007   
  1.2             -1.5175e-009    0.0051683       -2.8473e-007   
  1.25            -2.2163e-009    0.0056465       -2.6208e-007   
  1.3             -4.997e-010     0.0061331       -2.2322e-007   
  1.35            1.5436e-009     0.0066142       -1.9385e-007   
  1.4             2.313e-009      0.0071089       -1.3825e-007   
  1.45            4.722e-010      0.0076005       -1.0814e-007   
  1.5             1.1494e-009     0.0080853       -1.04232e-007  
  1.55            -1.8839e-009    0.008577        -7.6836e-008   
  1.6             -1.991e-009     0.0090607       -6.7876e-008   
  1.65            -1.925e-010     0.0095402       -5.6197e-008   
  1.7             2.0193e-009     0.0100208       -5.3676e-008   
  1.75            2.0869e-009     0.0105069       -2.1158e-008   
  1.8             2.085e-010      0.0109911       -1.3796e-008   
END_DB

BEGIN_DB
 ICCAP_VAR VS         0              
 ICCAP_VAR VB         -0.9           
 ICCAP_VAR VD         0.1            

 #VG              IG              ID              IB             
  0               1.3392e-009     8.72e-011       9.894e-009     
  0.05            -2.5233e-009    2.875e-010      1.1438e-008    
  0.1             1.5411e-009     -3.0537e-009    -9.524e-009    
  0.15            -1.7599e-009    2.8928e-009     1.5485e-008    
  0.2             2.0204e-009     -1.3113e-009    -1.679e-008    
  0.25            -1.9771e-009    1.4355e-009     1.657e-008     
  0.3             2.2511e-009     1.714e-010      -1.7056e-008   
  0.35            -2.165e-009     7.2735e-009     1.5893e-008    
  0.4             1.9528e-009     3.2742e-008     7.308e-009     
  0.45            6.01e-010       1.4122e-007     -1.1334e-008   
  0.5             -2.6203e-009    6.3116e-007     5.508e-009     
  0.55            2.1438e-009     2.593e-006      1.2488e-008    
  0.6             6.402e-010      9.7263e-006     1.3868e-008    
  0.65            9.51e-011       3.0214e-005     8.611e-009     
  0.7             2.4561e-009     8.0651e-005     -1.384e-008    
  0.75            2.6895e-009     0.00016268      9.119e-009     
  0.8             -1.4849e-009    0.000284        1.697e-008     
  0.85            2.4605e-009     0.00041973      -1.3768e-008   
  0.9             -1.6797e-009    0.00056802      1.6565e-008    
  0.95            2.5821e-009     0.00070012      -1.0788e-008   
  1               -1.8926e-009    0.00082587      1.5387e-008    
  1.05            1.5021e-009     0.00092969      -1.4161e-008   
  1.1             -2.2467e-009    0.00102204      1.2715e-008    
  1.15            1.7467e-009     0.00109728      -1.7092e-008   
  1.2             2.6741e-009     0.0011634       7.277e-009     
  1.25            4.16e-011       0.0012222       7.706e-009     
  1.3             -2.0971e-009    0.0012702       1.3974e-008    
  1.35            1.7468e-009     0.0013119       -1.8037e-008   
  1.4             -2.3811e-009    0.0013494       1.1456e-008    
  1.45            2.0013e-009     0.0013802       -1.6783e-008   
  1.5             -1.4329e-009    0.0014105       1.5843e-008    
  1.55            2.3995e-009     0.0014336       -1.4131e-008   
  1.6             -1.601e-009     0.0014565       1.6656e-008    
  1.65            -8.772e-010     0.0014763       -9.696e-009    
  1.7             2.7224e-009     0.0014935       -6.869e-009    
  1.75            -2.4655e-009    0.0015098       1.0537e-008    
  1.8             2.1938e-009     0.0015233       -1.5529e-008   
END_DB

BEGIN_DB
 ICCAP_VAR VS         0              
 ICCAP_VAR VB         -0.9           
 ICCAP_VAR VD         1.8            

 #VG              IG              ID              IB             
  0               -1.907e-010     1.1773e-009     4.57e-009      
  0.05            -2.6039e-009    -5.74e-011      9.914e-009     
  0.1             2.0003e-009     -2.6937e-009    -1.4887e-008   
  0.15            -1.9542e-009    1.8332e-009     1.6813e-008    
  0.2             1.7818e-009     4.2773e-009     -1.7553e-008   
  0.25            -2.6217e-009    1.2946e-008     -1.7217e-008   
  0.3             2.6675e-009     6.69e-008       -1.2147e-008   
  0.35            -1.062e-010     3.2549e-007     -8.659e-009    
  0.4             -3.283e-010     1.4009e-006     -2.871e-009    
  0.45            1.8045e-009     5.6606e-006     -2.5934e-008   
  0.5             1.7589e-009     2.0191e-005     -2.6455e-008   
  0.55            2.2041e-009     6.1085e-005     -5.6446e-008   
  0.6             1.9646e-009     0.00014865      -1.3997e-007   
  0.65            2.1133e-009     0.00030292      -2.1793e-007   
  0.7             2.411e-010      0.00052989      -3.212e-007    
  0.75            -1.7908e-009    0.00081875      -4.0752e-007   
  0.8             1.3603e-009     0.0011435       -5.0256e-007   
  0.85            -1.591e-009     0.0015361       -5.1826e-007   
  0.9             -2.1611e-009    0.0019373       -5.6175e-007   
  0.95            -4.282e-010     0.0023669       -5.5605e-007   
  1               1.6534e-009     0.0028092       -5.379e-007    
  1.05            2.2598e-009     0.0032756       -4.7607e-007   
  1.1             4.073e-010      0.0037481       -4.2739e-007   
  1.15            -1.5417e-009    0.004229        -3.7001e-007   
  1.2             -2.1896e-009    0.0047055       -3.4331e-007   
  1.25            -4.697e-010     0.0051908       -2.9804e-007   
  1.3             1.5754e-009     0.0056743       -2.6061e-007   
  1.35            2.2873e-009     0.0061694       -1.97e-007     
  1.4             4.45e-010       0.0066637       -1.5874e-007   
  1.45            -1.4925e-009    0.0071592       -1.2049e-007   
  1.5             -2.2274e-009    0.0076444       -1.1814e-007   
  1.55            2.2463e-009     0.0081336       -8.2663e-008   
  1.6             4.026e-010      0.0086262       -6.2282e-008   
  1.65            -1.5545e-009    0.0091173       -3.974e-008    
  1.7             -2.1886e-009    0.0095972       -5.1716e-008   
  1.75            -4.644e-010     0.010081        -4.4514e-008   
  1.8             1.5928e-009     0.0105571       -4.4007e-008   
END_DB

BEGIN_DB
 ICCAP_VAR VS         0              
 ICCAP_VAR VB         -1.8           
 ICCAP_VAR VD         0.1            

 #VG              IG              ID              IB             
  0               3.079e-010      -1.051e-009     -1.6034e-008   
  0.05            2.7082e-009     2.948e-010      -7.036e-009    
  0.1             6.868e-010      4.2186e-009     8.844e-009     
  0.15            -2.1998e-009    -1.8663e-009    3.566e-009     
  0.2             1.6418e-009     -1.6035e-009    -1.8128e-008   
  0.25            -1.8465e-009    2.8698e-009     1.7336e-008    
  0.3             2.1074e-009     -9.165e-010     -1.7061e-008   
  0.35            -2.049e-009     2.9206e-009     1.654e-008     
  0.4             1.4974e-009     1.0688e-008     -1.6076e-008   
  0.45            -2.2538e-009    4.1663e-008     1.2513e-008    
  0.5             9.883e-010      1.9332e-007     -1.6677e-008   
  0.55            -2.5516e-009    8.7484e-007     8.52e-009      
  0.6             2.4152e-009     3.5151e-006     1.5982e-008    
  0.65            2.724e-009      1.2693e-005     -9.618e-009    
  0.7             -1.328e-009     3.8901e-005     1.2801e-008    
  0.75            2.2356e-009     9.2881e-005     -1.5445e-008   
  0.8             2.543e-010      0.00018767      1.4049e-008    
  0.85            -1.7719e-009    0.00031354      1.6382e-008    
  0.9             2.6773e-009     0.00045196      -1.2461e-008   
  0.95            -2.1425e-009    0.0005986       1.3421e-008    
  1               1.581e-009      0.00072827      -1.7105e-008   
  1.05            -2.2935e-009    0.00084972      1.2082e-008    
  1.1             1.8152e-009     0.00094867      -1.717e-008    
  1.15            -2.4094e-009    0.00103838      1.1185e-008    
  1.2             2.0574e-009     0.0011104       -1.6274e-008   
  1.25            -9.833e-010     0.0011749       -7.06e-009     
  1.3             1.6237e-009     0.0012291       -1.62e-008     
  1.35            -2.3201e-009    0.0012762       1.2012e-008    
  1.4             1.8705e-009     0.0013155       -1.7056e-008   
  1.45            -2.4277e-009    0.0013519       1.1084e-008    
  1.5             2.0947e-009     0.0013816       -1.6091e-008   
  1.55            -1.4888e-009    0.0014104       1.7321e-008    
  1.6             -9.495e-010     0.0014342       -9.321e-009    
  1.65            2.7243e-009     0.0014549       -6.797e-009    
  1.7             -2.4014e-009    0.0014743       1.1238e-008    
  1.75            2.0332e-009     0.0014907       -1.6435e-008   
  1.8             -1.4477e-009    0.0015073       1.6153e-008    
END_DB

BEGIN_DB
 ICCAP_VAR VS         0              
 ICCAP_VAR VB         -1.8           
 ICCAP_VAR VD         1.8            

 #VG              IG              ID              IB             
  0               3.401e-010      -9.696e-010     -1.5376e-008   
  0.05            2.7037e-009     3.497e-010      -7.063e-009    
  0.1             -2.1243e-009    1.0562e-009     1.6257e-008    
  0.15            2.3825e-009     -7.092e-010     -1.6775e-008   
  0.2             -2.2734e-009    2.2559e-009     1.4886e-008    
  0.25            2.5127e-009     6.0768e-009     -1.5618e-008   
  0.3             2.5447e-009     3.4019e-008     1.3788e-008    
  0.35            2.3788e-009     1.4986e-007     -1.0828e-008   
  0.4             -2.2636e-009    6.8502e-007     1.1156e-008    
  0.45            1.9678e-009     2.8417e-006     5.952e-009     
  0.5             -2.6239e-009    1.1247e-005     -8.232e-009    
  0.55            2.714e-009      3.6197e-005     -3.7541e-008   
  0.6             -8.244e-010     9.8292e-005     -1.1288e-007   
  0.65            1.999e-010      0.00021965      -1.6339e-007   
  0.7             -1.8501e-009    0.00041077      -2.6108e-007   
  0.75            -2.0179e-009    0.00066497      -3.8531e-007   
  0.8             -2.486e-010     0.00097717      -4.6811e-007   
  0.85            -2.4432e-009    0.0013401       -5.1233e-007   
  0.9             -1.6844e-009    0.0017424       -5.519e-007    
  0.95            2.6317e-009     0.0021479       -5.5641e-007   
  1               1.6118e-009     0.0025814       -5.2054e-007   
  1.05            -1.31e-009      0.0030564       -4.8366e-007   
  1.1             -2.4185e-009    0.003517        -4.5909e-007   
  1.15            -7.265e-010     0.003992        -4.1412e-007   
  1.2             2.6774e-009     0.0044639       -3.7253e-007   
  1.25            1.5119e-009     0.0049413       -2.9801e-007   
  1.3             -1.391e-009     0.0054495       -2.4565e-007   
  1.35            -2.3153e-009    0.0059325       -2.2477e-007   
  1.4             -6.199e-010     0.0064238       -1.9061e-007   
  1.45            1.3745e-009     0.0069075       -1.6572e-007   
  1.5             2.4011e-009     0.0074041       -1.1446e-007   
  1.55            3.418e-010      0.0078943       -1.0491e-007   
  1.6             -1.7733e-009    0.0083923       -5.5099e-008   
  1.65            -2.0531e-009    0.0088733       -6.9945e-008   
  1.7             -2.986e-010     0.0093576       -5.8017e-008   
  1.75            1.8504e-009     0.0098393       -5.5385e-008   
  1.8             2.1613e-009     0.0103278       -2.2326e-008   
END_DB

