! VERSION = 6.00
BEGIN_HEADER
 ICCAP_INPUTS
  VG         V  B GROUND SMU4 0.001 LIN        2    0          1.8        6    0.36      
  VS         V  E GROUND SMU3 0.1 CON        0
  VD         V  S GROUND SMU2 0.1 LIN        1    0          1.8        37   0.05      
  VB         V  C GROUND SMU1 0.1 LIN        3    0          -0.9       2    -0.9      
 ICCAP_OUTPUTS
  ID         I  S GROUND SMU2 B
  IB         I  C GROUND SMU1 B
  IG         I  B GROUND SMU4 B
END_HEADER

BEGIN_DB
 ICCAP_VAR VG         0              
 ICCAP_VAR VS         0              
 ICCAP_VAR VB         0              

 #VD              ID              IB              IG             
  0               9.098e-010      1.3978e-008     -2.492e-010    
  0.05            -1.759e-010     8.611e-009      -2.6001e-009   
  0.1             -1.2954e-009    -1.6471e-008    2.1612e-009    
  0.15            1.0615e-009     1.5503e-008     -2.0963e-009   
  0.2             -1.0864e-009    -1.621e-008     2.3901e-009    
  0.25            8.583e-010      1.4585e-008     -2.2865e-009   
  0.3             -8.544e-010     -1.5391e-008    2.5564e-009    
  0.35            6.517e-010      1.3388e-008     -2.4245e-009   
  0.4             -6.017e-010     -1.4464e-008    2.6608e-009    
  0.45            4.321e-010      1.2476e-008     -2.513e-009    
  0.5             -3.1362e-009    -8.452e-009     2.7072e-009    
  0.55            3.152e-009      1.0224e-008     -1.4632e-009   
  0.6             -2.8796e-009    -1.2923e-008    1.8957e-009    
  0.65            2.5844e-009     2.1691e-008     -2.0691e-009   
  0.7             -1.1166e-009    -1.6205e-008    2.3644e-009    
  0.75            8.918e-010      1.4888e-008     -2.2606e-009   
  0.8             -8.875e-010     -1.5675e-008    2.5358e-009    
  0.85            6.817e-010      1.3714e-008     -2.408e-009    
  0.9             -6.398e-010     -1.4344e-008    2.6484e-009    
  0.95            4.75e-010       1.2635e-008     -2.5009e-009   
  1               -3.1738e-009    -8.264e-009     2.7054e-009    
  1.05            2.498e-010      1.1804e-008     -2.5494e-009   
  1.1             -3.0189e-009    -9.92e-009      1.6086e-009    
  1.15            2.7915e-009     1.6667e-008     -1.8266e-009   
  1.2             -1.3275e-009    -1.6055e-008    2.1083e-009    
  1.25            1.0919e-009     1.5658e-008     -2.0534e-009   
  1.3             -1.1294e-009    -1.6217e-008    2.3618e-009    
  1.35            8.998e-010      1.4782e-008     -2.2601e-009   
  1.4             -8.908e-010     -1.5917e-008    2.5375e-009    
  1.45            6.861e-010      1.377e-008      -2.4075e-009   
  1.5             -6.473e-010     -1.4473e-008    2.6474e-009    
  1.55            4.77e-010       1.2365e-008     -2.5032e-009   
  1.6             -3.1632e-009    -8.204e-009     2.7002e-009    
  1.65            3.1937e-009     9.655e-009      -1.4415e-009   
  1.7             -2.9073e-009    -1.2601e-008    1.8432e-009    
  1.75            2.6224e-009     2.0991e-008     -2.0313e-009   
  1.8             -1.1521e-009    -1.6208e-008    2.3279e-009    
END_DB

BEGIN_DB
 ICCAP_VAR VG         0.36           
 ICCAP_VAR VS         0              
 ICCAP_VAR VB         0              

 #VD              ID              IB              IG             
  0               1.6393e-009     1.1806e-008     1.0357e-009    
  0.05            6.1495e-009     1.2195e-008     -2.5233e-009   
  0.1             6.6743e-009     -8.5e-009       2.5956e-009    
  0.15            9.486e-009      -2.0005e-008    3.824e-010     
  0.2             7.866e-009      2.0313e-008     -2.3457e-009   
  0.25            8.354e-009      6.05e-009       1.866e-009     
  0.3             9.807e-009      -8.403e-009     -2.3859e-009   
  0.35            1.1384e-008     8.444e-009      5.624e-010     
  0.4             1.1137e-008     1.2492e-008     -2.2626e-009   
  0.45            1.3213e-008     -1.0498e-008    2.6649e-009    
  0.5             1.2496e-008     -6.84e-009      2.712e-009     
  0.55            1.3711e-008     -1.5907e-008    1.68e-009      
  0.6             1.5693e-008     -1.5749e-008    2.4937e-009    
  0.65            1.554e-008      -7.255e-009     2.7342e-009    
  0.7             1.4528e-008     -7.347e-009     2.6132e-009    
  0.75            1.8196e-008     -1.5249e-008    2.218e-009     
  0.8             1.9286e-008     -9.205e-009     2.7079e-009    
  0.85            1.7838e-008     -7.475e-009     2.6849e-009    
  0.9             2.0715e-008     -1.5859e-008    1.8737e-009    
  0.95            2.1789e-008     -1.8674e-008    1.8303e-009    
  1               2.2997e-008     -1.822e-008     1.7878e-009    
  1.05            2.3867e-008     -1.7489e-008    1.747e-009     
  1.1             2.4688e-008     -1.6803e-008    1.706e-009     
  1.15            2.6051e-008     -1.6234e-008    1.667e-009     
  1.2             2.6931e-008     -1.5436e-008    1.6254e-009    
  1.25            2.8663e-008     -1.4747e-008    1.5895e-009    
  1.3             3.0004e-008     -1.4199e-008    1.5519e-009    
  1.35            3.1146e-008     -1.3575e-008    1.5169e-009    
  1.4             3.259e-008      -1.312e-008     2.7298e-009    
  1.45            2.9292e-008     -7.809e-009     2.6465e-009    
  1.5             3.4756e-008     -1.5658e-008    2.0793e-009    
  1.55            3.6947e-008     -1.0004e-008    2.6775e-009    
  1.6             3.4754e-008     -6.909e-009     2.7037e-009    
  1.65            3.9869e-008     -1.5927e-008    1.7329e-009    
  1.7             4.1823e-008     -1.6409e-008    1.6937e-009    
  1.75            4.4175e-008     -1.5886e-008    1.6403e-009    
  1.8             4.668e-008      -1.526e-008     1.6133e-009    
END_DB

BEGIN_DB
 ICCAP_VAR VG         0.72           
 ICCAP_VAR VS         0              
 ICCAP_VAR VB         0              

 #VD              ID              IB              IG             
  0               -1.1896e-008    1.736e-008      1.1821e-009    
  0.05            7.294e-006      1.691e-008      2.5267e-009    
  0.1             1.1899e-005     5.835e-009      8.296e-010     
  0.15            1.4244e-005     -1.2989e-008    2.7156e-009    
  0.2             1.5236e-005     -9.395e-009     2.6717e-009    
  0.25            1.63e-005       -1.2533e-008    2.5692e-009    
  0.3             1.7362e-005     -1.4253e-008    1.5357e-009    
  0.35            1.8008e-005     -1.7474e-008    2.7193e-009    
  0.4             1.8387e-005     -8.896e-009     2.6859e-009    
  0.45            1.9207e-005     -1.1792e-008    2.6035e-009    
  0.5             2.0197e-005     -1.5366e-008    1.6106e-009    
  0.55            2.0619e-005     -1.7086e-008    1.3816e-009    
  0.6             2.1288e-005     -1.8779e-008    2.6982e-009    
  0.65            2.1737e-005     -1.0966e-008    2.6289e-009    
  0.7             2.2832e-005     -1.6499e-008    1.6849e-009    
  0.75            2.3233e-005     -1.6876e-008    1.4409e-009    
  0.8             2.3892e-005     -1.8381e-008    2.7069e-009    
  0.85            2.4305e-005     -9.95e-009      2.6526e-009    
  0.9             2.5348e-005     -1.7726e-008    1.7595e-009    
  0.95            2.5825e-005     -1.6532e-008    1.5028e-009    
  1               2.6393e-005     -1.7857e-008    2.7162e-009    
  1.05            2.6863e-005     -9.134e-009     2.6708e-009    
  1.1             2.764e-005      -1.2287e-008    2.58e-009      
  1.15            2.8692e-005     -1.4942e-008    1.5682e-009    
  1.2             2.9109e-005     -1.7329e-008    2.7173e-009    
  1.25            2.9593e-005     -8.635e-009     2.6808e-009    
  1.3             3.0378e-005     -1.1326e-008    2.6054e-009    
  1.35            3.1477e-005     -1.6446e-008    1.6438e-009    
  1.4             3.2009e-005     -1.7748e-008    1.4045e-009    
  1.45            3.2786e-005     -1.9808e-008    2.6983e-009    
  1.5             3.3731e-005     -2.3094e-008    1.9942e-009    
  1.55            3.4208e-005     -1.1599e-008    6.08e-011      
  1.6             3.4702e-005     -1.4999e-008    -1.7942e-009   
  1.65            3.5634e-005     -1.7441e-008    -1.7252e-009   
  1.7             3.5835e-005     -1.8959e-008    -2.3771e-009   
  1.75            3.6652e-005     -1.9036e-008    -2.5585e-009   
  1.8             3.8651e-005     2.133e-009      -2.0416e-009   
END_DB

BEGIN_DB
 ICCAP_VAR VG         1.08           
 ICCAP_VAR VS         0              
 ICCAP_VAR VB         0              

 #VD              ID              IB              IG             
  0               1.734e-008      -1.6537e-008    -9.361e-010    
  0.05            4.5135e-005     -1.9351e-008    1.105e-009     
  0.1             8.3684e-005     -6.881e-009     2.5706e-009    
  0.15            0.00011565      4.685e-009      -2.1564e-009   
  0.2             0.00014025      1.8817e-008     -1.5555e-009   
  0.25            0.00015826      1.5987e-008     -1.7085e-009   
  0.3             0.00017145      1.5022e-008     -1.868e-009    
  0.35            0.00018076      1.3102e-008     -1.3429e-009   
  0.4             0.00018785      1.6611e-008     -1.4415e-009   
  0.45            0.00019349      1.6364e-008     -1.5702e-009   
  0.5             0.00019786      1.5787e-008     -1.7246e-009   
  0.55            0.00020171      1.5041e-008     -1.8892e-009   
  0.6             0.00020553      1.3401e-008     -1.351e-009    
  0.65            0.00020847      1.6692e-008     -1.4609e-009   
  0.7             0.00021148      1.6079e-008     -1.5957e-009   
  0.75            0.00021435      1.583e-008      -1.7524e-009   
  0.8             0.00021715      1.4786e-008     -1.9138e-009   
  0.85            0.00021993      1.3866e-008     -1.3656e-009   
  0.9             0.00022236      1.6457e-008     -1.4734e-009   
  0.95            0.00022509      1.6304e-008     -1.6119e-009   
  1               0.00022751      1.5712e-008     -1.7712e-009   
  1.05            0.00023006      1.4635e-008     -1.9305e-009   
  1.1             0.00023276      1.4194e-008     -1.3778e-009   
  1.15            0.00023496      1.6571e-008     -1.488e-009    
  1.2             0.00023734      1.5941e-008     -1.6309e-009   
  1.25            0.00023975      1.5535e-008     -1.7907e-009   
  1.3             0.00024209      1.4152e-008     -1.954e-009    
  1.35            0.00024435      1.2957e-008     -2.1034e-009   
  1.4             0.0002467       1.1426e-008     -2.2441e-009   
  1.45            0.00024899      9.418e-009      -2.3532e-009   
  1.5             0.00025122      7.07e-009       -2.4378e-009   
  1.55            0.00025346      3.43e-009       -2.4934e-009   
  1.6             0.00025397      -1.878e-008     -2.1265e-009   
  1.65            0.00025674      -1.7006e-008    -2.073e-009    
  1.7             0.000261        -1.0352e-008    -1.4908e-009   
  1.75            0.00026277      -3.3324e-008    -8.68e-011     
  1.8             0.00026304      -5.4485e-008    2.6995e-009    
END_DB

BEGIN_DB
 ICCAP_VAR VG         1.44           
 ICCAP_VAR VS         0              
 ICCAP_VAR VB         0              

 #VD              ID              IB              IG             
  0               4.6424e-008     8.458e-009      6.35e-011      
  0.05            7.3035e-005     -1.0178e-008    1.814e-010     
  0.1             0.00014108      -8.317e-009     1.707e-010     
  0.15            0.00020298      -1.7088e-008    1.6912e-009    
  0.2             0.00025758      -1.6814e-008    1.8872e-009    
  0.25            0.00030456      -1.615e-008     2.0773e-009    
  0.3             0.00034418      -1.1932e-008    2.6903e-009    
  0.35            0.00037563      -7.295e-009     2.7115e-009    
  0.4             0.00040153      -7.18e-009      2.719e-009     
  0.45            0.00042163      -6.785e-009     2.7189e-009    
  0.5             0.00043782      -7.15e-009      2.7071e-009    
  0.55            0.00045024      -7.865e-009     2.68e-009      
  0.6             0.00046029      -7.802e-009     2.6418e-009    
  0.65            0.00046945      -1.6707e-008    1.519e-009     
  0.7             0.00047639      -1.6665e-008    1.693e-009     
  0.75            0.00048245      -1.6706e-008    1.8908e-009    
  0.8             0.00048783      -1.6179e-008    2.0845e-009    
  0.85            0.00049314      -1.2024e-008    2.6988e-009    
  0.9             0.00049672      -7.457e-009     2.7158e-009    
  0.95            0.00050088      -6.835e-009     2.7229e-009    
  1               0.00050497      -6.709e-009     2.7178e-009    
  1.05            0.00050884      -7.403e-009     2.7015e-009    
  1.1             0.00051253      -7.922e-009     2.6752e-009    
  1.15            0.00051639      -7.724e-009     2.636e-009     
  1.2             0.00052087      -1.665e-008     1.5278e-009    
  1.25            0.00052431      -1.6675e-008    1.7047e-009    
  1.3             0.00052775      -1.6924e-008    1.901e-009     
  1.35            0.00053116      -1.0503e-008    2.306e-010     
  1.4             0.00053492      -1.9969e-008    1.8124e-009    
  1.45            0.00053777      -1.8128e-008    2.0092e-009    
  1.5             0.00054106      -1.4014e-008    2.6944e-009    
  1.55            0.00054454      -2.7886e-008    2.3566e-009    
  1.6             0.00054789      -2.4853e-008    1.646e-009     
  1.65            0.00055059      -2.2124e-008    1.261e-010     
  1.7             0.00055312      -2.6809e-008    -2.6098e-009   
  1.75            0.00055791      -1.6078e-008    -1.3511e-009   
  1.8             0.0005608       -4.2549e-008    2.88e-011      
END_DB

BEGIN_DB
 ICCAP_VAR VG         1.8            
 ICCAP_VAR VS         0              
 ICCAP_VAR VB         0              

 #VD              ID              IB              IG             
  0               5.545e-008      1.2562e-008     1.042e-009     
  0.05            8.9545e-005     -1.658e-008     7.235e-010     
  0.1             0.00017559      -1.3965e-008    -1.198e-010    
  0.15            0.00025691      -9.785e-009     -8.036e-010    
  0.2             0.00033258      -1.6588e-008    1.5323e-009    
  0.25            0.00040157      -1.6725e-008    1.7044e-009    
  0.3             0.00046364      -1.6373e-008    1.911e-009     
  0.35            0.00051837      -1.6108e-008    2.1028e-009    
  0.4             0.00056594      -1.2056e-008    2.7022e-009    
  0.45            0.00060648      -7.275e-009     2.7199e-009    
  0.5             0.00064096      -6.892e-009     2.7264e-009    
  0.55            0.00066973      -6.746e-009     2.7221e-009    
  0.6             0.00069368      -7.533e-009     2.7036e-009    
  0.65            0.00071357      -7.852e-009     2.6713e-009    
  0.7             0.00072992      -7.65e-009      2.6325e-009    
  0.75            0.00074415      -1.6503e-008    1.5578e-009    
  0.8             0.00075574      -1.6662e-008    1.743e-009     
  0.85            0.0007654       -1.6408e-008    1.9505e-009    
  0.9             0.00077371      -1.598e-008     2.1389e-009    
  0.95            0.00078162      -1.2553e-008    2.7057e-009    
  1               0.00078755      -7.364e-009     2.7235e-009    
  1.05            0.00079352      -6.875e-009     2.726e-009     
  1.1             0.00079924      -7.038e-009     2.7185e-009    
  1.15            0.00080446      -7.542e-009     2.6972e-009    
  1.2             0.00080954      -7.887e-009     2.6657e-009    
  1.25            0.00081501      -1.7089e-008    1.4341e-009    
  1.3             0.00081974      -1.6741e-008    1.5927e-009    
  1.35            0.00082427      -1.6826e-008    1.7845e-009    
  1.4             0.00082849      -1.7012e-008    1.9805e-009    
  1.45            0.00083244      -1.1764e-008    2.6844e-009    
  1.5             0.00083687      -2.4259e-008    2.3285e-009    
  1.55            0.00084123      -1.8789e-008    1.631e-009     
  1.6             0.00084476      -1.3342e-008    1.099e-010     
  1.65            0.00084948      -1.6036e-008    -1.553e-009    
  1.7             0.00085205      -1.7227e-008    -2.6058e-009   
  1.75            0.00085694      -1.322e-009     -1.2606e-009   
  1.8             0.00086046      -2.383e-008     1.822e-010     
END_DB

BEGIN_DB
 ICCAP_VAR VG         0              
 ICCAP_VAR VS         0              
 ICCAP_VAR VB         -0.9           

 #VD              ID              IB              IG             
  0               2.515e-010      -6.86e-009      -6.502e-010    
  0.05            -1.8365e-009    4.717e-009      -2.4368e-009   
  0.1             -3.51e-010      -1.1472e-008    2.7036e-009    
  0.15            2.127e-010      1.0909e-008     -2.5595e-009   
  0.2             -2.9938e-009    -1.0901e-008    1.6768e-009    
  0.25            2.7654e-009     1.7692e-008     -1.8648e-009   
  0.3             -1.289e-009     -1.7111e-008    2.1636e-009    
  0.35            1.0421e-009     1.5999e-008     -2.0892e-009   
  0.4             -1.0653e-009    -1.6406e-008    2.3819e-009    
  0.45            8.363e-010      1.4424e-008     -2.2702e-009   
  0.5             -8.261e-010     -1.5166e-008    2.539e-009     
  0.55            6.159e-010      1.3032e-008     -2.4125e-009   
  0.6             -5.758e-010     -1.3825e-008    2.6496e-009    
  0.65            4.046e-010      1.1616e-008     -2.5091e-009   
  0.7             -3.1185e-009    -8.963e-009     2.7119e-009    
  0.75            1.808e-010      1.0748e-008     -2.5683e-009   
  0.8             -2.9786e-009    -1.1367e-008    1.7066e-009    
  0.85            2.733e-009      1.8404e-008     -1.9014e-009   
  0.9             -1.2567e-009    -1.7023e-008    2.2001e-009    
  0.95            1.0122e-009     1.5771e-008     -2.1201e-009   
  1               -1.0289e-009    -1.6255e-008    2.4094e-009    
  1.05            8.092e-010      1.4208e-008     -2.2928e-009   
  1.1             -7.967e-010     -1.5214e-008    2.5555e-009    
  1.15            5.895e-010      1.2749e-008     -2.4294e-009   
  1.2             -5.41e-010      -1.3693e-008    2.6594e-009    
  1.25            3.704e-010      1.1776e-008     -2.5182e-009   
  1.3             -3.1019e-009    -9.16e-009      1.4837e-009    
  1.35            2.9323e-009     1.4556e-008     -1.7016e-009   
  1.4             -2.7341e-009    -1.7543e-008    2.1813e-009    
  1.45            1.0223e-009     1.6112e-008     -2.1071e-009   
  1.5             -1.0378e-009    -1.6497e-008    2.3891e-009    
  1.55            8.149e-010      1.4155e-008     -2.2839e-009   
  1.6             -8.091e-010     -1.5136e-008    2.5502e-009    
  1.65            6.015e-010      1.2627e-008     -2.415e-009    
  1.7             -3.2937e-009    -8.114e-009     2.6533e-009    
  1.75            3.3305e-009     8.411e-009      -1.3625e-009   
  1.8             -3.002e-010     -1.1016e-008    2.7124e-009    
END_DB

BEGIN_DB
 ICCAP_VAR VG         0.36           
 ICCAP_VAR VS         0              
 ICCAP_VAR VB         -0.9           

 #VD              ID              IB              IG             
  0               -1.2829e-009    -1.6897e-008    1.968e-010     
  0.05            2.147e-010      -7.828e-009     2.7331e-009    
  0.1             1.3668e-009     1.6718e-008     -1.9037e-009   
  0.15            -1.0775e-009    -1.7088e-008    2.1891e-009    
  0.2             1.2268e-009     1.5921e-008     -2.1098e-009   
  0.25            -8.137e-010     -1.6519e-008    2.3919e-009    
  0.3             1.0774e-009     1.4525e-008     -2.2885e-009   
  0.35            -5.223e-010     -1.5425e-008    2.5444e-009    
  0.4             9.434e-010      1.3012e-008     -2.4221e-009   
  0.45            -2.148e-010     -1.3983e-008    2.6522e-009    
  0.5             7.987e-010      1.1798e-008     -2.51e-009     
  0.55            -2.6899e-009    -8.725e-009     2.7074e-009    
