! VERSION = 6.00
BEGIN_HEADER
 ICCAP_INPUTS
  VG         V  B GROUND SMU4 0.001 LIN        2    0          1.8        6    0.36      
  VS         V  E GROUND SMU2 0.1 CON        0
  VD         V  S GROUND SMU1 0.1 LIN        1    0          1.8        37   0.05      
  VB         V  C GROUND SMU3 0.1 LIN        3    0          -0.9       2    -0.9      
 ICCAP_OUTPUTS
  ID         I  S GROUND SMU1 B
  IB         I  C GROUND SMU3 B
  IG         I  B GROUND SMU4 B
END_HEADER

BEGIN_DB
 ICCAP_VAR VG         0              
 ICCAP_VAR VS         0              
 ICCAP_VAR VB         0              

 #VD              ID              IB              IG             
  0               8.28e-010       2.7745e-008     7.766e-010     
  0.05            -1.5815e-009    -1.528e-008     2.0267e-009    
  0.1             1.9127e-009     -7.613e-009     1.4792e-009    
  0.15            1.3902e-009     2.4603e-008     -1.3504e-009   
  0.2             3.03e-011       1.1399e-008     -1.3149e-009   
  0.25            1.808e-010      1.2407e-008     -2.6729e-009   
  0.3             -2.25e-009      5.81e-010       -9.66e-010     
  0.35            -1.6848e-009    -1.202e-008     1.6522e-009    
  0.4             1.58e-009       -8.609e-009     1.726e-009     
  0.45            2.2407e-009     1.1209e-008     3.474e-010     
  0.5             2.323e-009      1.0644e-008     5.528e-010     
  0.55            1.4787e-009     2.2015e-008     -1.329e-009    
  0.6             1.138e-010      1.1734e-008     -2.7066e-009   
  0.65            -1.3199e-009    4.97e-010       -1.8829e-009   
  0.7             -2.2255e-009    -1.1141e-008    -5.967e-010    
  0.75            -1.4976e-009    -1.9343e-008    1.2702e-009    
  0.8             -7.62e-011      -1.2581e-008    2.8772e-009    
  0.85            1.4741e-009     2.2197e-008     -1.3306e-009   
  0.9             1.069e-010      1.169e-008      -2.7063e-009   
  0.95            -2.0691e-009    -1.1667e-008    -5.26e-011     
  1               -2.1537e-009    -1.1841e-008    -2.769e-010    
  1.05            -2.2058e-009    -1.1687e-008    -5.138e-010    
  1.1             -2.2474e-009    -1.0855e-008    -7.253e-010    
  1.15            -2.2528e-009    -1.0152e-008    -8.833e-010    
  1.2             -1.6349e-009    -1.3016e-008    1.8115e-009    
  1.25            1.7168e-009     -8.737e-009     1.6202e-009    
  1.3             1.4713e-009     1.0598e-008     1.8037e-009    
  1.35            2.2773e-009     1.1043e-008     4.351e-010     
  1.4             2.3524e-009     1.0368e-008     6.311e-010     
  1.45            2.3911e-009     9.533e-009      8.082e-010     
  1.5             1.69e-009       1.5241e-008     -1.7317e-009   
  1.55            -1.6157e-009    5.629e-009      -1.6643e-009   
  1.6             -2.1384e-009    -1.1789e-008    -2.218e-010    
  1.65            -2.197e-009     -1.1706e-008    -4.542e-010    
  1.7             -2.2394e-009    -1.1072e-008    -6.789e-010    
  1.75            -2.2509e-009    -1.0356e-008    -8.47e-010     
  1.8             -1.6176e-009    -1.3807e-008    1.8784e-009    
END_DB

BEGIN_DB
 ICCAP_VAR VG         0.36           
 ICCAP_VAR VS         0              
 ICCAP_VAR VB         0              

 #VD              ID              IB              IG             
  0               1.0289e-009     -1.1139e-008    1.2488e-009    
  0.05            2.1517e-008     -1.1804e-008    -1.3695e-009   
  0.1             2.9125e-008     2.7445e-008     -1.3906e-009   
  0.15            3.212e-008      1.0258e-008     8.168e-010     
  0.2             3.3063e-008     -1.794e-008     1.8708e-009    
  0.25            3.5055e-008     -2.4162e-008    1.2677e-009    
  0.3             3.8054e-008     -2.5853e-008    1.2877e-009    
  0.35            4.071e-008      -2.6679e-008    1.307e-009     
  0.4             4.1667e-008     -1.0361e-008    -9.775e-010    
  0.45            4.9126e-008     1.9559e-008     -1.6035e-009   
  0.5             5.3278e-008     2.425e-008      -1.2997e-009   
  0.55            5.7065e-008     2.6031e-008     -1.3202e-009   
  0.6             5.8793e-008     8.915e-009      1.106e-009     
  0.65            6.1469e-008     -2.3836e-008    1.4506e-009    
  0.7             6.3895e-008     -1.1792e-008    -6.627e-010    
  0.75            7.2887e-008     1.4119e-008     -2.066e-009    
  0.8             7.8078e-008     1.1239e-008     -1.76e-011     
  0.85            7.9498e-008     -9.192e-009     2.8861e-009    
  0.9             8.3707e-008     -1.0258e-008    -1.0701e-009   
  0.95            9.3741e-008     2.2069e-008     -1.525e-009    
  1               9.5173e-008     1.046e-008      2.0125e-009    
  1.05            1.0046e-007     -1.5115e-008    1.6523e-009    
  1.1             1.04823e-007    -1.1685e-008    -4.154e-010    
  1.15            1.2081e-007     -4.426e-009     -1.6708e-009   
  1.2             1.2244e-007     1.0879e-008     6.837e-010     
  1.25            1.2803e-007     -2.1624e-008    1.5572e-009    
  1.3             1.3399e-007     -1.0806e-008    -8.929e-010    
  1.35            1.4925e-007     2.5412e-008     -1.4344e-009   
  1.4             1.4975e-007     9.376e-009      9.783e-010     
  1.45            1.5988e-007     -2.6388e-008    1.3465e-009    
  1.5             1.6674e-007     -1.1891e-008    5.6e-012       
  1.55            1.8633e-007     1.2486e-008     -2.3099e-009   
  1.6             1.9708e-007     1.5159e-008     -1.8921e-009   
  1.65            1.9957e-007     9.73e-009       2.0425e-009    
  1.7             2.1209e-007     -1.8822e-008    1.7732e-009    
  1.75            2.2266e-007     -1.1874e-008    -7.534e-010    
  1.8             2.4781e-007     2.1294e-008     -1.5221e-009   
END_DB

BEGIN_DB
 ICCAP_VAR VG         0.72           
 ICCAP_VAR VS         0              
 ICCAP_VAR VB         0              

 #VD              ID              IB              IG             
  0               -1.3673e-007    1.9155e-008     -3.49e-011     
  0.05            5.3095e-005     2.2847e-008     -1.7953e-009   
  0.1             8.2277e-005     1.7832e-008     -1.7229e-009   
  0.15            9.836e-005      2.7287e-008     -1.3931e-009   
  0.2             0.000107742     2.3471e-008     -1.293e-009    
  0.25            0.000114239     2.7707e-008     -1.3832e-009   
  0.3             0.00011815      -8.378e-009     1.798e-009     
  0.35            0.00012317      -1.173e-008     -7.368e-010    
  0.4             0.00012894      2.1203e-008     -1.5335e-009   
  0.45            0.00013192      1.0771e-008     8.179e-010     
  0.5             0.00013534      -2.3958e-008    1.4321e-009    
  0.55            0.00014103      -1.0511e-008    -1.0116e-009   
  0.6             0.00014609      2.7357e-008     -1.396e-009    
  0.65            0.00014746      9.111e-009      1.091e-009     
  0.7             0.00015214      -2.6825e-008    1.3087e-009    
  0.75            0.00015645      -2.2928e-008    2.1183e-009    
  0.8             0.00016074      -1.1751e-008    -5.045e-010    
  0.85            0.00016648      1.7919e-008     -1.7255e-009   
  0.9             0.00016978      1.1061e-008     6.429e-010     
  0.95            0.0001724       -2.0335e-008    1.6082e-009    
  1               0.00017763      -1.1115e-008    -8.551e-010    
  1.05            0.00018324      2.4142e-008     -1.4505e-009   
  1.1             0.00018756      2.7639e-008     -1.3788e-009   
  1.15            0.00019173      2.6988e-008     -1.3283e-009   
  1.2             0.00019529      1.0796e-008     3.726e-010     
  1.25            0.00019786      -1.804e-008     1.9646e-009    
  1.3             0.00020343      -1.1128e-008    -1.9993e-009   
  1.35            0.00020899      1.6785e-008     -1.6223e-009   
  1.4             0.00021378      6.988e-009      -2.5972e-009   
  1.45            0.00021822      5.75e-009       -2.263e-009    
  1.5             0.00022234      3.794e-009      -1.8432e-009   
  1.55            0.00022428      -1.039e-008     2.0837e-009    
  1.6             0.00022876      -4.2739e-008    1.227e-010     
  1.65            0.00023662      -3.468e-008     -2.4837e-009   
  1.7             0.00023648      -5.6179e-008    1.6374e-009    
  1.75            0.00024327      -1.11112e-007   2.769e-009     
  1.8             0.00024825      -1.3311e-007    2.7672e-009    
END_DB

BEGIN_DB
 ICCAP_VAR VG         1.08           
 ICCAP_VAR VS         0              
 ICCAP_VAR VB         0              

 #VD              ID              IB              IG             
  0               -1.3241e-007    2.6604e-008     -1.485e-009    
  0.05            0.00025673      -2.0024e-008    -1.5747e-009   
  0.1             0.00047286      2.1885e-008     -1.7466e-009   
  0.15            0.00064332      1.1103e-008     6.324e-010     
  0.2             0.00076908      -2.0404e-008    1.6417e-009    
  0.25            0.0008626       -1.1266e-008    -8.455e-010    
  0.3             0.00092844      2.3872e-008     -1.464e-009    
  0.35            0.00097448      2.7314e-008     -1.3805e-009   
  0.4             0.00100812      2.7294e-008     -1.3333e-009   
  0.45            0.00103319      1.1021e-008     3.501e-010     
  0.5             0.00105035      -1.7347e-008    2.014e-009     
  0.55            0.00106928      -1.1877e-008    -5.872e-010    
  0.6             0.00108826      1.904e-008      -1.6664e-009   
  0.65            0.00110134      1.099e-008      7.03e-010      
  0.7             0.00111249      -2.1465e-008    1.5533e-009    
  0.75            0.001129        1.1121e-008     -2.028e-010    
  0.8             0.0011385       -1.1194e-008    2.7912e-009    
  0.85            0.0011518       -2.6411e-008    1.3194e-009    
  0.9             0.001164        -2.4468e-008    1.2658e-009    
  0.95            0.0011766       -1.1753e-008    -4.19e-010     
  1               0.0011917       1.682e-008      -1.8279e-009   
  1.05            0.0012015       1.1088e-008     5.614e-010     
  1.1             0.0012096       -1.9441e-008    1.7227e-009    
  1.15            0.0012228       -1.1674e-008    -7.936e-010    
  1.2             0.0012362       2.2059e-008     -1.4998e-009   
  1.25            0.0012476       2.5767e-008     -1.3935e-009   
  1.3             0.0012578       1.2841e-008     -2.0261e-009   
  1.35            0.0012636       6.572e-009      1.9769e-009    
  1.4             0.0012738       -1.8985e-008    2.27e-010      
  1.45            0.0012897       -1.69e-009      -2.6075e-009   
  1.5             0.0012923       -1.1205e-008    1.5162e-009    
  1.55            0.0013058       -5.5815e-008    1.8332e-009    
  1.6             0.0013181       -7.04e-008      -2.0548e-009   
  1.65            0.0013297       -8.2749e-008    -1.44e-011     
  1.7             0.0013355       -1.5439e-007    2.647e-010     
  1.75            0.0013513       -1.9933e-007    -2.6467e-009   
  1.8             0.0013533       -2.935e-007     1.4565e-009    
END_DB

BEGIN_DB
 ICCAP_VAR VG         1.44           
 ICCAP_VAR VS         0              
 ICCAP_VAR VB         0              

 #VD              ID              IB              IG             
  0               -1.2989e-007    -1.1745e-008    1.021e-009     
  0.05            0.00039761      -1.2211e-008    1.431e-010     
  0.1             0.00076467      1.154e-008      -2.5124e-009   
  0.15            0.00108726      2.8219e-008     -1.358e-009    
  0.2             0.0013615       -1.0035e-008    -2.4355e-009   
  0.25            0.0015869       2.8006e-008     -1.3454e-009   
  0.3             0.0017672       2.3634e-008     -1.2919e-009   
  0.35            0.0019088       1.1204e-008     5.66e-010      
  0.4             0.0020164       -1.924e-008     1.7081e-009    
  0.45            0.0021025       -1.1442e-008    -7.93e-010     
  0.5             0.0021705       2.2493e-008     -1.501e-009    
  0.55            0.002222        2.6871e-008     -1.3927e-009   
  0.6             0.0022577       9.003e-009      1.0903e-009    
  0.65            0.0022916       -2.6444e-008    1.3042e-009    
  0.7             0.0023206       -2.2991e-008    1.2544e-009    
  0.75            0.0023464       -1.174e-008     -4.933e-010    
  0.8             0.0023714       1.8198e-008     -1.7462e-009   
  0.85            0.0023907       1.1187e-008     6.315e-010     
  0.9             0.0024064       -1.9995e-008    1.6336e-009    
  0.95            0.0024273       -1.1221e-008    -8.409e-010    
  1               0.0024467       2.3825e-008     -1.4625e-009   
  1.05            0.0024634       2.7373e-008     -1.3781e-009   
  1.1             0.00248         2.7276e-008     -1.3318e-009   
  1.15            0.0024936       1.0681e-008     3.406e-010     
  1.2             0.0025048       -1.7438e-008    2.0335e-009    
  1.25            0.0025226       -1.0882e-008    -1.9736e-009   
  1.3             0.0025376       1.7057e-008     -1.6813e-009   
  1.35            0.0025532       8.3e-009        -2.6186e-009   
  1.4             0.0025667       6.936e-009      -2.3176e-009   
  1.45            0.0025793       5.247e-009      -1.9219e-009   
  1.5             0.0025905       -2.4252e-008    -2.7443e-009   
  1.55            0.0026001       -2.1905e-008    1.0832e-009    
  1.6             0.0026136       -7.6907e-008    1.3043e-009    
  1.65            0.0026296       -8.891e-008     -2.5882e-009   
  1.7             0.0026413       -1.0075e-007    2.82e-011      
  1.75            0.0026572       -1.7693e-007    -2.3483e-009   
  1.8             0.0026624       -2.6937e-007    1.7435e-009    
END_DB

BEGIN_DB
 ICCAP_VAR VG         1.8            
 ICCAP_VAR VS         0              
 ICCAP_VAR VB         0              

 #VD              ID              IB              IG             
  0               -9.617e-007     -1.0373e-008    1.4347e-009    
  0.05            0.00048296      -1.1694e-008    -2.5692e-009   
  0.1             0.00094072      1.0949e-008     6.691e-010     
  0.15            0.0013631       -9.325e-009     1.3668e-009    
  0.2             0.0017424       -2.224e-008     2.0913e-009    
  0.25            0.0020758       -1.1794e-008    -5.268e-010    
  0.3             0.0023637       1.8489e-008     -1.7202e-009   
  0.35            0.0026069       1.1028e-008     6.612e-010     
  0.4             0.0028083       -2.0583e-008    1.596e-009     
  0.45            0.0029781       -1.1082e-008    -8.611e-010    
  0.5             0.0031172       2.4201e-008     -1.4509e-009   
  0.55            0.0032293       2.7708e-008     -1.3729e-009   
  0.6             0.0033208       2.7121e-008     -1.323e-009    
  0.65            0.0033939       1.1e-008        3.331e-010     
  0.7             0.0034515       -1.7643e-008    1.9796e-009    
  0.75            0.0035029       -1.1871e-008    -5.736e-010    
  0.8             0.0035484       1.9302e-008     -1.6503e-009   
  0.85            0.0035828       1.1029e-008     6.84e-010      
  0.9             0.0036122       -2.1748e-008    1.5498e-009    
  0.95            0.0036435       -1.1155e-008    -8.873e-010    
  1               0.0036718       2.5282e-008     -1.4291e-009   
  1.05            0.0036908       9.736e-009      9.657e-010     
  1.1             0.0037121       -2.5987e-008    1.3351e-009    
  1.15            0.0037385       -9.784e-009     -1.1696e-009   
  1.2             0.003758        2.7929e-008     -1.3549e-009   
  1.25            0.0037765       1.7209e-008     -1.7544e-009   
  1.3             0.0037928       1.0035e-008     6.285e-010     
  1.35            0.0038078       -2.2246e-008    1.6414e-009    
  1.4             0.003827        -1.5521e-008    -8.437e-010    
  1.45            0.0038457       -3.92e-010      -1.3817e-009   
  1.5             0.0038586       -4.982e-009     2.5297e-009    
  1.55            0.0038747       -3.3088e-008    -6.414e-010    
  1.6             0.0038924       -1.5412e-008    -1.6209e-009   
  1.65            0.0039044       -4.7452e-008    2.2208e-009    
  1.7             0.0039173       -1.00837e-007   -7.28e-011     
  1.75            0.0039341       -1.2961e-007    -2.7215e-009   
  1.8             0.0039441       -1.9683e-007    1.2907e-009    
END_DB

BEGIN_DB
 ICCAP_VAR VG         0              
 ICCAP_VAR VS         0              
 ICCAP_VAR VB         -0.9           

 #VD              ID              IB              IG             
  0               1.3485e-009     6.709e-009      1.3185e-009    
  0.05            2.2332e-009     -8.815e-009     1.1994e-009    
  0.1             1.1471e-009     2.8037e-008     -1.4067e-009   
  0.15            -2.177e-009     1.0369e-008     -1.1422e-009   
  0.2             -1.7928e-009    -1.1562e-008    1.454e-009     
  0.25            2.3857e-009     -8.546e-009     9.631e-010     
  0.3             1.812e-009      1.2256e-008     -1.5457e-009   
  0.35            -1.4263e-009    7.54e-009       -1.8049e-009   
  0.4             -2.195e-009     -1.1741e-008    -4.272e-010    
  0.45            -2.2372e-009    -1.1369e-008    -6.5e-010      
  0.5             -1.5223e-009    -1.8496e-008    1.2665e-009    
  0.55            -9.73e-011      -1.3073e-008    2.8733e-009    
  0.6             1.4796e-009     2.1816e-008     -1.3269e-009   
  0.65            1.156e-010      1.158e-008      -2.7068e-009   
  0.7             -1.3307e-009    5.94e-010       -1.8822e-009   
  0.75            -2.2341e-009    -1.1243e-008    -5.681e-010    
  0.8             -1.4828e-009    -1.9951e-008    1.2774e-009    
  0.85            -3.19e-011      -1.205e-008     2.8925e-009    
  0.9             2.0752e-009     1.0942e-008     1.81e-011      
  0.95            1.0733e-009     2.7825e-008     -1.4345e-009   
  1               -2.2235e-009    9.668e-009      -1.0587e-009   
  1.05            -1.7398e-009    -1.1665e-008    1.5285e-009    
  1.1             2.4005e-009     -8.566e-009     8.88e-010      
  1.15            1.7572e-009     1.3328e-008     -1.6317e-009   
  1.2             -1.5153e-009    6.286e-009      -1.7328e-009   
  1.25            -2.1527e-009    -1.1914e-008    -3.139e-010    
  1.3             -2.1954e-009    -1.1434e-008    -5.279e-010    
  1.35            -2.2205e-009    -1.0532e-008    -7.364e-010    
  1.4             -1.5164e-009    -1.6574e-008    1.2537e-009    
  1.45            -9.7e-011       -1.4007e-008    2.8429e-009    
  1.5             2.2682e-009     1.0904e-008     1.621e-010     
  1.55            2.4192e-009     1.1018e-008     3.444e-010     
  1.6             2.5763e-009     1.0208e-008     5.463e-010     
  1.65            2.7522e-009     9.723e-009      7.207e-010     
  1.7             2.1387e-009     1.6959e-008     -1.8665e-009   
  1.75            1.834e-010      3.555e-009      -1.6322e-009   
  1.8             5.863e-010      5.074e-009      -1.4882e-009   
END_DB

BEGIN_DB
 ICCAP_VAR VG         0.36           
 ICCAP_VAR VS         0              
 ICCAP_VAR VB         -0.9           

 #VD              ID              IB              IG             
  0               9.397e-010      1.8338e-008     1.046e-009     
  0.05            -2.79e-010      -2.5716e-008    1.4986e-009    
  0.1             1.9932e-009     -8.192e-009     2.7074e-009    
  0.15            3.3996e-009     1.0836e-008     4.886e-010     
  0.2             2.7056e-009     2.3838e-008     -1.343e-009    
  0.25            1.5347e-009     1.1386e-008     -2.7274e-009   
  0.3             2.3619e-009     -2.12e-008      2.3968e-009    
  0.35            2.4934e-009     -4.134e-009     2.1031e-009    
  0.4             2.6236e-009     -6.9e-009       1.814e-009     
  0.45            2.7687e-009     -8.724e-009     1.5688e-009    
  0.5             2.9346e-009     -8.622e-009     1.4205e-009    
  0.55            3.1101e-009     -8.309e-009     1.3377e-009    
