! VERSION = 6.00
BEGIN_HEADER
 ICCAP_INPUTS
  VG         V  B GROUND SMU4 0.001 LIN        1    0          1.8        37   0.05      
  VS         V  E GROUND SMU3 0.1 CON        0
  VB         V  C GROUND SMU1 0.1 LIN        3    0          -1.8       3    -0.9      
  VD         V  S GROUND SMU2 0.1 LIN        2    0.1        1.8        2    1.7       
 ICCAP_OUTPUTS
  IG         I  B GROUND SMU4 B
  ID         I  S GROUND SMU2 B
  IB         I  C GROUND SMU1 B
END_HEADER

BEGIN_DB
 ICCAP_VAR VS         0              
 ICCAP_VAR VB         0              
 ICCAP_VAR VD         0.1            

 #VG              IG              ID              IB             
  0               1.0464e-009     1.7372e-009     1.1112e-008    
  0.05            -2.4821e-009    4.213e-010      1.1922e-008    
  0.1             2.6744e-009     -3.136e-009     -8.524e-009    
  0.15            -1.4422e-009    3.3004e-009     9.998e-009     
  0.2             1.8204e-009     -2.5108e-009    -1.2602e-008   
  0.25            1.7334e-009     4.0722e-009     8.536e-009     
  0.3             2.7132e-009     9.729e-009      -1.6871e-008   
  0.35            1.7398e-009     3.1263e-008     -1.7938e-008   
  0.4             -1.0163e-009    1.4167e-007     1.5182e-008    
  0.45            2.7085e-009     5.8516e-007     -7.355e-009    
  0.5             -2.5671e-009    2.3543e-006     -9.821e-009    
  0.55            2.5361e-009     7.5728e-006     -1.2187e-008   
  0.6             7.626e-010      2.1241e-005     -1.7071e-008   
  0.65            -2.6089e-009    4.912e-005      6.818e-009     
  0.7             2.6523e-009     9.1367e-005     -1.1273e-008   
  0.75            2.6371e-009     0.00014915      9.075e-009     
  0.8             -1.6348e-009    0.00021618      1.6589e-008    
  0.85            -8.693e-010     0.00028439      -9.535e-009    
  0.9             2.7185e-009     0.00034976      -7.097e-009    
  0.95            -2.4601e-009    0.00041372      1.0547e-008    
  1               2.1907e-009     0.00046859      -1.5716e-008   
  1.05            -1.5474e-009    0.00052108      1.8815e-008    
  1.1             2.5019e-009     0.0005647       -1.3111e-008   
  1.15            -1.7212e-009    0.00060615      1.6231e-008    
  1.2             2.6629e-009     0.00064152      -1.1639e-008   
  1.25            -2.0883e-009    0.00067366      1.3784e-008    
  1.3             1.7241e-009     0.00070168      -1.7684e-008   
  1.35            -2.3657e-009    0.00072733      1.1424e-008    
  1.4             1.9462e-009     0.00074932      -1.6847e-008   
  1.45            -1.3856e-009    0.00077081      1.4644e-008    
  1.5             -1.0267e-009    0.00078865      -8.973e-009    
  1.55            2.7106e-009     0.00080478      -7.39e-009     
  1.6             -2.3027e-009    0.00081992      1.1896e-008    
  1.65            1.8307e-009     0.0008331       -1.7124e-008   
  1.7             -2.4063e-009    0.00084577      1.1289e-008    
  1.75            2.0471e-009     0.00085661      -1.639e-008    
  1.8             -1.442e-009     0.00086761      1.6149e-008    
END_DB

BEGIN_DB
 ICCAP_VAR VS         0              
 ICCAP_VAR VB         0              
 ICCAP_VAR VD         1.8            

 #VG              IG              ID              IB             
  0               3.961e-010      -8.131e-010     -1.4276e-008   
  0.05            2.6701e-009     4.772e-010      -6.598e-009    
  0.1             5.849e-010      4.4367e-009     9.033e-009     
  0.15            -4.642e-010     -3.1044e-009    -9.847e-009    
  0.2             2.418e-009      3.3826e-009     -1.6537e-008   
  0.25            2.6149e-009     2.1483e-008     1.4946e-008    
  0.3             -1.7021e-009    8.9025e-008     1.6145e-008    
  0.35            -9.035e-010     3.7927e-007     1.2757e-008    
  0.4             2.5125e-009     1.5595e-006     1.4081e-008    
  0.45            -1.9793e-009    6.007e-006      6.596e-009     
  0.5             -1.8604e-009    1.881e-005      -1.2296e-008   
  0.55            -2.0074e-009    4.8888e-005     -5.541e-008    
  0.6             -1.2164e-009    0.0001056       -8.2689e-008   
  0.65            -2.2133e-009    0.00019562      -1.0935e-007   
  0.7             -1.8651e-009    0.0003149       -1.9421e-007   
  0.75            -2.2e-012       0.00045839      -2.3758e-007   
  0.8             2.3269e-009     0.00062689      -2.8016e-007   
  0.85            1.9191e-009     0.00081436      -2.8101e-007   
  0.9             4.71e-011       0.0010198       -2.9563e-007   
  0.95            2.6504e-009     0.0012287       -3.0926e-007   
  1               1.5779e-009     0.0014421       -2.9359e-007   
  1.05            -1.3281e-009    0.0016771       -2.7789e-007   
  1.1             -2.388e-009     0.0019045       -2.81e-007     
  1.15            -7.16e-010      0.002138        -2.6475e-007   
  1.2             2.6854e-009     0.0023703       -2.522e-007    
  1.25            1.507e-009      0.0026044       -2.0427e-007   
  1.3             -1.3908e-009    0.0028533       -1.7601e-007   
  1.35            -2.3177e-009    0.0030897       -1.7631e-007   
  1.4             -6.344e-010     0.0033298       -1.5959e-007   
  1.45            2.7052e-009     0.0035666       -1.4907e-007   
  1.5             1.4347e-009     0.0038033       -1.0775e-007   
  1.55            -3e-012         0.0040491       -1.0938e-007   
  1.6             2.6876e-009     0.0042848       -9.421e-008    
  1.65            -2.6127e-009    0.0045271       -7.9552e-008   
  1.7             -1.0599e-009    0.004766        -7.1521e-008   
  1.75            2.3411e-009     0.0049977       -7.6203e-008   
  1.8             1.8844e-009     0.0052326       -3.7397e-008   
END_DB

BEGIN_DB
 ICCAP_VAR VS         0              
 ICCAP_VAR VB         -0.9           
 ICCAP_VAR VD         0.1            

 #VG              IG              ID              IB             
  0               -1.95e-010      1.1196e-009     1.5785e-008    
  0.05            -2.5984e-009    -7.63e-011      9.635e-009     
  0.1             1.9787e-009     -2.8313e-009    -1.4671e-008   
  0.15            -1.9205e-009    1.196e-009      1.6621e-008    
  0.2             2.1744e-009     -1.2368e-009    -1.708e-008    
  0.25            -2.0925e-009    1.1072e-009     1.6261e-008    
  0.3             2.3526e-009     -7.474e-010     -1.6607e-008   
  0.35            -2.2243e-009    2.4953e-009     1.5209e-008    
  0.4             6.423e-010      1.1781e-008     1.8778e-008    
  0.45            2.6366e-009     3.6332e-008     -9.343e-009    
  0.5             -1.0897e-009    1.6157e-007     1.6023e-008    
  0.55            2.6984e-009     6.8929e-007     -7.422e-009    
  0.6             -2.4406e-009    2.7614e-006     -1.7029e-008   
  0.65            -7.692e-010     9.2507e-006     -9.866e-009    
  0.7             -4.429e-010     2.518e-005      1.2773e-008    
  0.75            1.6163e-009     5.5397e-005     -1.6899e-008   
  0.8             8.396e-010      0.000102627     9.238e-009     
  0.85            7.11e-011       0.00016385      1.2198e-008    
  0.9             -2.0562e-009    0.00023141      1.4254e-008    
  0.95            1.6614e-009     0.00029897      -1.6681e-008   
  1               8.188e-010      0.0003658       8.919e-009     
  1.05            -2.602e-009     0.00042795      7.242e-009     
  1.1             2.017e-010      0.00048186      -9.873e-009    
  1.15            2.5848e-009     0.00053089      -1.1113e-008   
  1.2             -1.8626e-009    0.00057606      1.5476e-008    
  1.25            2.6968e-009     0.0006143       -1.3481e-008   
  1.3             1.46e-011       0.00064954      7.691e-009     
  1.35            -2.1266e-009    0.00067952      1.3424e-008    
  1.4             1.7678e-009     0.00070629      -1.8342e-008   
  1.45            -2.3866e-009    0.00073084      1.1611e-008    
  1.5             1.9703e-009     0.00075179      -1.6534e-008   
  1.55            -1.3981e-009    0.00077225      1.5049e-008    
  1.6             2.3555e-009     0.0007887       -1.471e-008    
  1.65            -1.527e-009     0.0008049       1.6721e-008    
  1.7             -9.276e-010     0.00081914      -9.475e-009    
  1.75            2.7229e-009     0.00083168      -6.624e-009    
  1.8             -2.4074e-009    0.00084363      1.1332e-008    
END_DB

BEGIN_DB
 ICCAP_VAR VS         0              
 ICCAP_VAR VB         -0.9           
 ICCAP_VAR VD         1.8            

 #VG              IG              ID              IB             
  0               -1.3341e-009    -7.41e-011      -7.77e-009     
  0.05            2.6855e-009     -3.491e-010     -1.1863e-008   
  0.1             -1.4412e-009    3.2289e-009     9.877e-009     
  0.15            1.8006e-009     -2.7859e-009    -1.2472e-008   
  0.2             -1.7676e-009    1.9669e-009     1.7218e-008    
  0.25            1.5332e-009     4.011e-009      -1.8679e-008   
  0.3             -2.6043e-009    1.2502e-008     -1.744e-008    
  0.35            2.15e-010       6.4328e-008     -1.0446e-008   
  0.4             -6.782e-010     3.0328e-007     1.0959e-008    
  0.45            1.9147e-009     1.2941e-006     8.551e-009     
  0.5             -1.4394e-009    5.1701e-006     1.037e-008     
  0.55            -2.4361e-009    1.6664e-005     -1.1787e-008   
  0.6             -1.703e-009     4.5627e-005     -5.1843e-008   
  0.65            7.906e-010      9.972e-005      -9.0645e-008   
  0.7             2.602e-009      0.00018498      -1.3435e-007   
  0.75            8.969e-010      0.00030406      -1.6789e-007   
  0.8             -2.3152e-009    0.00045368      -1.9755e-007   
  0.85            -1.8078e-009    0.00062396      -2.6666e-007   
  0.9             8.16e-011       0.00080662      -2.8939e-007   
  0.95            2.4387e-009     0.00100833      -3.086e-007    
  1               -2.6108e-009    0.0012248       -3.0498e-007   
  1.05            -1.2697e-009    0.0014497       -3.0083e-007   
  1.1             1.9928e-009     0.0016705       -3.0246e-007   
  1.15            2.1076e-009     0.0019035       -2.5803e-007   
  1.2             2.52e-010       0.0021414       -2.384e-007    
  1.25            -1.7512e-009    0.0023796       -2.1044e-007   
  1.3             -2.0666e-009    0.0026157       -2.1233e-007   
  1.35            -3.421e-010     0.0028545       -1.9318e-007   
  1.4             1.7885e-009     0.0030931       -1.8049e-007   
  1.45            2.1944e-009     0.0033372       -1.3753e-007   
  1.5             3.611e-010      0.0035799       -1.177e-007    
  1.55            2.33e-011       0.0038151       -1.1831e-007   
  1.6             2.3612e-009     0.0040552       -1.1051e-007   
  1.65            -2.2331e-009    0.0042998       -8.2117e-008   
  1.7             -1.8489e-009    0.00454         -8.0455e-008   
  1.75            2.66e-011       0.004772        -6.8992e-008   
  1.8             2.367e-009      0.0050079       -6.6907e-008   
END_DB

BEGIN_DB
 ICCAP_VAR VS         0              
 ICCAP_VAR VB         -1.8           
 ICCAP_VAR VD         0.1            

 #VG              IG              ID              IB             
  0               6.01e-011       -1.4561e-009    -1.6984e-008   
  0.05            2.7131e-009     -1.657e-010     -9.866e-009    
  0.1             -1.5906e-009    3.035e-009      1.2812e-008    
  0.15            2.0172e-009     -2.818e-009     -1.5271e-008   
  0.2             -1.9553e-009    1.1661e-009     1.6744e-008    
  0.25            2.2141e-009     -1.2081e-009    -1.7137e-008   
  0.3             -2.1144e-009    1.0984e-009     1.5914e-008    
  0.35            2.3756e-009     -5.978e-010     -1.6561e-008   
  0.4             -2.2529e-009    3.0001e-009     1.5135e-008    
  0.45            -2.4192e-009    8.313e-009      -1.3441e-008   
  0.5             2.2944e-009     5.0941e-008     -1.4927e-008   
  0.55            -2.295e-010     2.1638e-007     7.677e-009     
  0.6             1.9714e-009     9.7151e-007     -1.6835e-008   
  0.65            -2.5878e-009    3.6701e-006     -9.576e-009    
  0.7             -2.939e-010     1.1504e-005     1.1785e-008    
  0.75            1.8545e-009     2.99e-005       -1.6983e-008   
  0.8             -2.4221e-009    6.4991e-005     1.088e-008     
  0.85            -7.71e-011      0.00011537      1.0866e-008    
  0.9             -2.2446e-009    0.00017764      1.2509e-008    
  0.95            1.7216e-009     0.00024396      -1.6966e-008   
  1               -2.363e-009     0.0003147       1.1512e-008    
  1.05            1.9299e-009     0.00037835      -1.6894e-008   
  1.1             -2.4494e-009    0.00044008      1.0978e-008    
  1.15            2.1259e-009     0.00049266      -1.5812e-008   
  1.2             -1.4906e-009    0.00054246      1.7603e-008    
  1.25            -9.511e-010     0.00058467      -9.225e-009    
  1.3             2.7225e-009     0.00062166      -6.697e-009    
  1.35            -1.536e-010     0.00065634      9.336e-009     
  1.4             -2.3441e-009    0.00068556      1.168e-008     
  1.45            1.8931e-009     0.00071125      -1.681e-008    
  1.5             -2.4368e-009    0.00073553      1.0986e-008    
  1.55            2.0954e-009     0.00075582      -1.6243e-008   
  1.6             -1.4669e-009    0.00077574      1.6962e-008    
  1.65            -9.663e-010     0.00079223      -9.515e-009    
  1.7             2.7186e-009     0.00080725      -7.07e-009     
  1.75            -2.3745e-009    0.00082118      1.1459e-008    
  1.8             1.9589e-009     0.00083346      -1.6727e-008   
END_DB

BEGIN_DB
 ICCAP_VAR VS         0              
 ICCAP_VAR VB         -1.8           
 ICCAP_VAR VD         1.8            

 #VG              IG              ID              IB             
  0               8.699e-010      5.299e-010      -7.8e-009      
  0.05            -1.661e-009     2.9499e-009     1.371e-008     
  0.1             2.1232e-009     -2.7432e-009    -1.685e-008    
  0.15            -2.0571e-009    1.1351e-009     1.5983e-008    
  0.2             2.3298e-009     -8.281e-010     -1.6687e-008   
  0.25            -2.2246e-009    2.2727e-009     1.5175e-008    
  0.3             2.4818e-009     5.6406e-009     -1.594e-008    
  0.35            -1.8795e-009    2.7633e-008     -6.902e-009    
  0.4             6.62e-010       1.4443e-007     -1.3517e-008   
  0.45            -2.6142e-009    6.3745e-007     4.767e-009     
  0.5             2.1124e-009     2.5798e-006     8.588e-009     
  0.55            -2.3134e-009    9.2963e-006     -1.8727e-008   
  0.6             -1.9378e-009    2.8054e-005     -1.9836e-008   
  0.65            -1.9724e-009    6.8072e-005     -6.8069e-008   
  0.7             -1.1878e-009    0.0001381       -1.0903e-007   
  0.75            -2.5776e-009    0.00024115      -1.54e-007     
  0.8             -1.3854e-009    0.00037715      -2.0586e-007   
  0.85            1.7781e-009     0.00053186      -2.5709e-007   
  0.9             2.2006e-009     0.00071289      -2.6076e-007   
  0.95            3.585e-010      0.00091024      -2.7807e-007   
  1               -1.6042e-009    0.00112026      -2.7927e-007   
  1.05            -1.7928e-009    0.0013384       -3.1697e-007   
  1.1             -2.0434e-009    0.0015593       -2.9416e-007   
  1.15            -2.99e-010      0.001788        -2.8215e-007   
  1.2             1.8694e-009     0.0020198       -2.7216e-007   
  1.25            2.1575e-009     0.0022596       -2.2889e-007   
  1.3             3.1e-010        0.0024993       -2.0619e-007   
  1.35            -1.6789e-009    0.0027403       -1.7775e-007   
  1.4             -2.1029e-009    0.0029774       -1.8114e-007   
  1.45            -3.824e-010     0.003218        -1.633e-007    
  1.5             1.7247e-009     0.0034567       -1.5226e-007   
  1.55            2.221e-009      0.0037          -1.115e-007    
  1.6             2.696e-009      0.0039376       -1.1127e-007   
  1.65            -2.6165e-009    0.0041815       -9.4671e-008   
  1.7             -1.1152e-009    0.0044215       -8.5357e-008   
  1.75            2.3067e-009     0.0046542       -8.8731e-008   
  1.8             1.9292e-009     0.0048911       -4.8367e-008   
END_DB

