! VERSION = 6.00
BEGIN_HEADER
 ICCAP_INPUTS
  VG         V  B GROUND SMU4 0.001 LIN        2    0          1.8        6    0.36      
  VS         V  E GROUND SMU3 0.1 CON        0
  VD         V  S GROUND SMU2 0.1 LIN        1    0          1.8        37   0.05      
  VB         V  C GROUND SMU1 0.1 LIN        3    0          -0.9       2    -0.9      
 ICCAP_OUTPUTS
  ID         I  S GROUND SMU2 B
  IB         I  C GROUND SMU1 B
  IG         I  B GROUND SMU4 B
END_HEADER

BEGIN_DB
 ICCAP_VAR VG         0              
 ICCAP_VAR VS         0              
 ICCAP_VAR VB         0              

 #VD              ID              IB              IG             
  0               1.0429e-009     1.4942e-008     -2.571e-010    
  0.05            -1.859e-010     9.002e-009      -2.6344e-009   
  0.1             -4.0171e-009    -8.877e-009     -8.467e-010    
  0.15            1.7647e-009     -5.412e-009     2.3537e-009    
  0.2             1.6255e-009     1.9937e-008     -1.4616e-009   
  0.25            -2.9366e-009    -1.2783e-008    1.8516e-009    
  0.3             2.3367e-009     8.576e-009      1.7355e-009    
  0.35            3.09e-010       1.1452e-008     -2.5476e-009   
  0.4             -3.0872e-009    -9.858e-009     1.5468e-009    
  0.45            2.919e-009      1.5289e-008     -1.7485e-009   
  0.5             -2.7492e-009    -1.8115e-008    2.2054e-009    
  0.55            1.0436e-009     1.6068e-008     -2.1166e-009   
  0.6             -1.0695e-009    -1.6662e-008    2.3844e-009    
  0.65            8.726e-010      1.4947e-008     -2.2713e-009   
  0.7             -8.766e-010     -1.5409e-008    2.5279e-009    
  0.75            6.934e-010      1.3287e-008     -2.3942e-009   
  0.8             -3.3945e-009    -8.175e-009     1.834e-010     
  0.85            6.46e-011       -7.992e-009     2.7464e-009    
  0.9             2.816e-009      1.7435e-008     -1.8536e-009   
  0.95            -1.3267e-009    -1.7231e-008    2.1098e-009    
  1               1.1123e-009     1.6437e-008     -2.0346e-009   
  1.05            -1.164e-009     -1.6856e-008    2.3034e-009    
  1.1             9.557e-010      1.5658e-008     -2.1993e-009   
  1.15            -9.693e-010     -1.5992e-008    2.4592e-009    
  1.2             7.742e-010      1.4201e-008     -2.3383e-009   
  1.25            -7.7e-010       -1.4786e-008    2.5769e-009    
  1.3             3.5235e-009     7.81e-009       -2.4409e-009   
  1.35            -3.3085e-009    -8.074e-009     2.6595e-009    
  1.4             4.066e-010      1.1946e-008     -2.5171e-009   
  1.45            -3.342e-010     -1.1487e-008    2.711e-009     
  1.5             2.216e-010      1.119e-008      -2.5647e-009   
  1.55            -3.0288e-009    -1.0824e-008    1.6435e-009    
  1.6             2.8321e-009     1.7184e-008     -1.8358e-009   
  1.65            -1.3415e-009    -1.7161e-008    2.1007e-009    
  1.7             1.1317e-009     1.6574e-008     -2.0167e-009   
  1.75            -1.174e-009     -1.6975e-008    2.2938e-009    
  1.8             9.661e-010      1.5628e-008     -2.1921e-009   
END_DB

BEGIN_DB
 ICCAP_VAR VG         0.36           
 ICCAP_VAR VS         0              
 ICCAP_VAR VB         0              

 #VD              ID              IB              IG             
  0               -9.1e-012       -7.211e-009     7.615e-010     
  0.05            6.6851e-009     -5.639e-009     1.8289e-009    
  0.1             1.1562e-008     -9.683e-009     8.605e-010     
  0.15            1.0513e-008     1.3359e-008     2.135e-010     
  0.2             9.938e-009      1.9879e-008     1.5935e-009    
  0.25            1.0512e-008     -1.4907e-008    2.6226e-009    
  0.3             1.118e-008      -6.965e-009     2.7234e-009    
  0.35            1.1913e-008     -8.164e-009     2.6928e-009    
  0.4             1.2998e-008     -1.6268e-008    1.6191e-009    
  0.45            1.2595e-008     -1.5453e-008    2.4308e-009    
  0.5             1.4157e-008     -7.634e-009     2.7271e-009    
  0.55            1.4946e-008     -8.132e-009     2.6829e-009    
  0.6             1.4276e-008     -1.6093e-008    2.1287e-009    
  0.65            1.6568e-008     -9.095e-009     2.6574e-009    
  0.7             1.7625e-008     -7.311e-009     2.7438e-009    
  0.75            1.6947e-008     -1.7374e-008    1.7645e-009    
  0.8             1.6149e-008     -1.7221e-008    1.7133e-009    
  0.85            1.7296e-008     -1.6441e-008    1.6695e-009    
  0.9             1.8497e-008     -1.5739e-008    1.6306e-009    
  0.95            1.9835e-008     -1.4942e-008    1.5848e-009    
  1               2.1239e-008     -1.4466e-008    1.54e-009      
  1.05            2.2756e-008     -1.3742e-008    1.4992e-009    
  1.1             2.4256e-008     -1.326e-008     2.7106e-009    
  1.15            2.9354e-008     -8.128e-009     2.7046e-009    
  1.2             2.9518e-008     -1.6687e-008    2.0255e-009    
  1.25            3.2662e-008     -1.0474e-008    2.6198e-009    
  1.3             3.4834e-008     -7.207e-009     2.7432e-009    
  1.35            3.5379e-008     -1.7172e-008    1.6466e-009    
  1.4             3.5845e-008     -1.5411e-008    1.6057e-009    
  1.45            3.8293e-008     -1.4838e-008    1.5609e-009    
  1.5             4.0924e-008     -1.4046e-008    1.5164e-009    
  1.55            4.3739e-008     -1.3569e-008    2.7146e-009    
  1.6             5.0304e-008     -8.154e-009     2.6994e-009    
  1.65            5.1985e-008     -1.6728e-008    2.0554e-009    
  1.7             5.6398e-008     -1.0165e-008    2.6261e-009    
  1.75            6.0303e-008     -7.021e-009     2.7441e-009    
  1.8             6.2753e-008     -1.7378e-008    1.668e-009     
END_DB

BEGIN_DB
 ICCAP_VAR VG         0.72           
 ICCAP_VAR VS         0              
 ICCAP_VAR VB         0              

 #VD              ID              IB              IG             
  0               -1.0396e-008    -1.7088e-008    -2.6104e-009   
  0.05            9.4998e-006     1.377e-008      2.3134e-009    
  0.1             1.4794e-005     8.058e-009      -2.1442e-009   
  0.15            1.7897e-005     1.3768e-008     -2.0911e-009   
  0.2             1.9737e-005     1.5443e-008     -1.8685e-009   
  0.25            2.1101e-005     1.6601e-008     -1.6395e-009   
  0.3             2.2209e-005     1.7322e-008     -1.4412e-009   
  0.35            2.3212e-005     1.893e-008      -1.3142e-009   
  0.4             2.4163e-005     1.0918e-008     -2.4675e-009   
  0.45            2.506e-005      1.1964e-008     -2.3466e-009   
  0.5             2.5962e-005     1.6565e-008     -1.4628e-009   
  0.55            2.6853e-005     1.8758e-008     -1.3263e-009   
  0.6             2.7748e-005     1.0902e-008     -2.4821e-009   
  0.65            2.8648e-005     1.1757e-008     -2.3706e-009   
  0.7             2.9516e-005     1.7217e-008     -1.4941e-009   
  0.75            3.0414e-005     1.841e-008      -1.3415e-009   
  0.8             3.1334e-005     1.0659e-008     -2.4942e-009   
  0.85            3.2242e-005     1.1642e-008     -2.3901e-009   
  0.9             3.3138e-005     1.7763e-008     -1.5192e-009   
  0.95            3.406e-005      1.8188e-008     -1.3568e-009   
  1               3.5022e-005     1.0298e-008     -2.5041e-009   
  1.05            3.595e-005      1.1534e-008     -2.4062e-009   
  1.1             3.6885e-005     1.8394e-008     -1.5395e-009   
  1.15            3.7837e-005     1.7945e-008     -1.3714e-009   
  1.2             3.8824e-005     1.0145e-008     -2.5151e-009   
  1.25            3.9796e-005     1.125e-008      -2.4181e-009   
  1.3             4.0768e-005     1.2117e-008     -2.279e-009    
  1.35            4.1739e-005     1.3934e-008     -1.39e-009     
  1.4             4.2791e-005     8.907e-009      -2.5201e-009   
  1.45            4.3787e-005     9.31e-009       -2.4352e-009   
  1.5             4.4812e-005     9.126e-009      -2.3027e-009   
  1.55            4.5845e-005     8.48e-009       -2.1193e-009   
  1.6             4.6876e-005     7.428e-009      -1.9007e-009   
  1.65            4.7927e-005     5.365e-009      -1.6589e-009   
  1.7             4.8786e-005     -2.0036e-008    -2.615e-009    
  1.75            5.0102e-005     6.88e-010       -2.2966e-009   
  1.8             5.1185e-005     -1.6455e-008    -1.4058e-009   
END_DB

BEGIN_DB
 ICCAP_VAR VG         1.08           
 ICCAP_VAR VS         0              
 ICCAP_VAR VB         0              

 #VD              ID              IB              IG             
  0               2.4366e-008     1.6651e-008     8.87e-010      
  0.05            4.9886e-005     -6.882e-009     -1.3136e-009   
  0.1             9.2483e-005     1.0959e-008     -2.4921e-009   
  0.15            0.0001266       1.5561e-008     1.6746e-009    
  0.2             0.0001536       -7.199e-009     2.728e-009     
  0.25            0.00017356      -7.777e-009     2.7055e-009    
  0.3             0.00018801      -8.01e-009      2.6672e-009    
  0.35            0.00019846      -1.6734e-008    1.475e-009     
  0.4             0.0002063       -1.6774e-008    1.6402e-009    
  0.45            0.00021235      -1.6623e-008    1.8232e-009    
  0.5             0.0002174       -1.6137e-008    2.015e-009     
  0.55            0.00022161      -1.1239e-008    2.6966e-009    
  0.6             0.00022534      -7.479e-009     2.7227e-009    
  0.65            0.00022904      -7.243e-009     2.7326e-009    
  0.7             0.00023242      -7.032e-009     2.7361e-009    
  0.75            0.00023568      -7.03e-009      2.7314e-009    
  0.8             0.00023878      -7.677e-009     2.7122e-009    
  0.85            0.00024182      -7.998e-009     2.6772e-009    
  0.9             0.00024475      -1.6914e-008    1.4476e-009    
  0.95            0.0002476       -1.6733e-008    1.6099e-009    
  1               0.00025039      -1.6642e-008    1.7913e-009    
  1.05            0.00025327      -1.6389e-008    1.984e-009     
  1.1             0.00025583      -1.0992e-008    2.6886e-009    
  1.15            0.00025838      -7.747e-009     2.721e-009     
  1.2             0.00026121      -7.283e-009     2.7329e-009    
  1.25            0.00026389      -7.287e-009     2.7379e-009    
  1.3             0.00026651      -7.56e-009      2.7335e-009    
  1.35            0.00026918      -8.369e-009     2.7156e-009    
  1.4             0.00027177      -9.688e-009     2.6839e-009    
  1.45            0.00027429      -2.0064e-008    1.4189e-009    
  1.5             0.00027683      -1.3155e-008    -3.7e-012      
  1.55            0.00028077      -1.7444e-008    -1.6874e-009   
  1.6             0.00028247      -1.6184e-008    -2.5942e-009   
  1.65            0.00028546      5.1e-010        -2.4322e-009   
  1.7             0.00028789      -7.591e-009     -1.9401e-009   
  1.75            0.00029033      -3.3618e-008    -1.3866e-009   
  1.8             0.00029285      -6.0933e-008    1.33e-011      
END_DB

BEGIN_DB
 ICCAP_VAR VG         1.44           
 ICCAP_VAR VS         0              
 ICCAP_VAR VB         0              

 #VD              ID              IB              IG             
  0               4.2431e-008     9.627e-009      8.951e-010     
  0.05            7.7665e-005     -6.861e-009     -2.4659e-009   
  0.1             0.00014958      1.4885e-008     1.7066e-009    
  0.15            0.00021526      -6.938e-009     2.7315e-009    
  0.2             0.0002731       -7.681e-009     2.7133e-009    
  0.25            0.0003227       -8.125e-009     2.6833e-009    
  0.3             0.00036411      -1.7333e-008    1.448e-009     
  0.35            0.00039791      -1.6737e-008    1.6077e-009    
  0.4             0.00042497      -1.6964e-008    1.7871e-009    
  0.45            0.0004464       -1.6691e-008    1.9774e-009    
  0.5             0.00046322      -1.11e-008      2.6781e-009    
  0.55            0.00047625      -7.835e-009     2.7092e-009    
  0.6             0.00048699      -7.29e-009      2.7278e-009    
  0.65            0.00049573      -7.054e-009     2.7346e-009    
  0.7             0.0005032       -7.157e-009     2.7363e-009    
  0.75            0.00050963      -7.556e-009     2.7249e-009    
  0.8             0.00051541      -8.157e-009     2.6934e-009    
  0.85            0.00052053      -1.7542e-008    1.4224e-009    
  0.9             0.00052539      -1.6909e-008    1.5758e-009    
  0.95            0.00053002      -1.7132e-008    1.7538e-009    
  1               0.00053441      -1.6914e-008    1.9412e-009    
  1.05            0.00053858      -1.6022e-008    2.1195e-009    
  1.1             0.0005427       -1.2597e-008    2.7061e-009    
  1.15            0.00054627      -7.361e-009     2.725e-009     
  1.2             0.00055025      -6.931e-009     2.7342e-009    
  1.25            0.0005539       -6.964e-009     2.7343e-009    
  1.3             0.00055763      -7.695e-009     2.7253e-009    
  1.35            0.00056131      -8.621e-009     2.6982e-009    
  1.4             0.00056463      -1.8616e-008    1.3933e-009    
  1.45            0.00056814      -1.0119e-008    -3.68e-011     
  1.5             0.00057301      -1.2668e-008    -1.7091e-009   
  1.55            0.00057629      -1.36e-008      -1.4014e-009   
  1.6             0.00057911      -1.912e-008     -1.8999e-009   
  1.65            0.00058207      -2.2784e-008    -2.4105e-009   
  1.7             0.00058561      -2.2918e-008    -1.6477e-009   
  1.75            0.00058904      -2.8296e-008    -2.4339e-009   
  1.8             0.00059214      -3.2505e-008    -1.9712e-009   
END_DB

BEGIN_DB
 ICCAP_VAR VG         1.8            
 ICCAP_VAR VS         0              
 ICCAP_VAR VB         0              

 #VD              ID              IB              IG             
  0               4.8886e-008     1.7136e-008     8.984e-010     
  0.05            9.4219e-005     -6.756e-009     -1.3022e-009   
  0.1             0.00018432      1.6074e-008     4.58e-010      
  0.15            0.00026964      1.5335e-008     -1.8931e-009   
  0.2             0.00034892      1.369e-008      -1.3619e-009   
  0.25            0.00042095      1.7098e-008     -1.4622e-009   
  0.3             0.00048553      1.6726e-008     -1.5884e-009   
  0.35            0.00054238      1.6103e-008     -1.7434e-009   
  0.4             0.00059171      1.5136e-008     -1.8991e-009   
  0.45            0.00063402      1.354e-008      -1.3648e-009   
  0.5             0.00066947      1.706e-008      -1.4634e-009   
  0.55            0.00069912      1.6426e-008     -1.593e-009    
  0.6             0.00072368      1.6131e-008     -1.7445e-009   
  0.65            0.00074399      1.5319e-008     -1.9002e-009   
  0.7             0.00076078      1.4014e-008     -2.0509e-009   
  0.75            0.00077472      1.6607e-008     -1.4619e-009   
  0.8             0.00078635      1.6694e-008     -1.5952e-009   
  0.85            0.00079636      1.6068e-008     -1.7412e-009   
  0.9             0.00080497      1.5257e-008     -1.8958e-009   
  0.95            0.0008127       1.4073e-008     -2.0483e-009   
  1               0.00081965      1.6491e-008     -1.4603e-009   
  1.05            0.00082593      1.6627e-008     -1.5997e-009   
  1.1             0.00083175      1.6031e-008     -1.7468e-009   
  1.15            0.00083733      1.5132e-008     -1.9036e-009   
  1.2             0.00084258      1.3826e-008     -1.3654e-009   
  1.25            0.00084747      1.7028e-008     -1.4695e-009   
  1.3             0.00085226      1.628e-008      -1.5982e-009   
  1.35            0.00085679      1.5759e-008     -1.7498e-009   
  1.4             0.0008613       1.4706e-008     -1.9023e-009   
  1.45            0.00086559      1.2808e-008     -2.0547e-009   
  1.5             0.00086989      1.0816e-008     -2.1883e-009   
  1.55            0.00087395      8.778e-009      -2.3056e-009   
  1.6             0.00087805      5.699e-009      -2.3955e-009   
  1.65            0.00088132      -1.6603e-008    -2.2861e-009   
  1.7             0.00088538      -2.0365e-008    -2.6408e-009   
  1.75            0.00088954      -5.863e-009     -1.3448e-009   
  1.8             0.00089317      -2.9063e-008    6.07e-011      
END_DB

BEGIN_DB
 ICCAP_VAR VG         0              
 ICCAP_VAR VS         0              
 ICCAP_VAR VB         -0.9           

 #VD              ID              IB              IG             
  0               -7.658e-010     -1.3665e-008    4.352e-010     
  0.05            4.884e-010      -7.286e-009     2.6527e-009    
  0.1             4.2193e-009     9.356e-009      5.381e-010     
  0.15            -4.0926e-009    -9.946e-009     -5.411e-010    
  0.2             3.0606e-009     1.2704e-008     -1.5989e-009   
  0.25            -2.828e-009     -1.5451e-008    2.0382e-009    
  0.3             1.1701e-009     1.6624e-008     -1.9832e-009   
  0.35            -1.2233e-009    -1.7116e-008    2.2494e-009    
  0.4             1.0077e-009     1.592e-008      -2.1487e-009   
  0.45            -1.0394e-009    -1.6604e-008    2.4179e-009    
  0.5             8.346e-010      1.4602e-008     -2.303e-009    
  0.55            -8.506e-010     -1.5601e-008    2.5531e-009    
  0.6             6.656e-010      1.3449e-008     -2.4196e-009   
  0.65            -6.473e-010     -1.4317e-008    2.6442e-009    
  0.7             4.766e-010      1.2585e-008     -2.499e-009    
  0.75            -4.35e-010      -1.2789e-008    2.6933e-009    
  0.8             3.055e-010      1.1437e-008     -2.5482e-009   
  0.85            -3.07e-009      -9.469e-009     1.5347e-009    
  0.9             2.912e-009      1.5074e-008     -1.73e-009     
  0.95            -2.7348e-009    -1.8155e-008    2.2048e-009    
  1               1.0471e-009     1.587e-008      -2.117e-009    
  1.05            -1.0934e-009    -1.648e-008     2.3788e-009    
  1.1             8.81e-010       1.4948e-008     -2.2703e-009   
  1.15            -9.076e-010     -1.5713e-008    2.524e-009     
  1.2             7.157e-010      1.3739e-008     -2.393e-009    
  1.25            -7.131e-010     -1.464e-008     2.6289e-009    
  1.3             5.401e-010      1.2698e-008     -2.4873e-009   
  1.35            -5.024e-010     -1.3301e-008    2.6932e-009    
  1.4             3.634e-010      1.1902e-008     -2.5444e-009   
  1.45            -3.1154e-009    -8.895e-009     2.7277e-009    
  1.5             1.831e-010      1.131e-008      -2.5794e-009   
  1.55            -2.9957e-009    -1.0738e-008    1.6711e-009    
  1.6             2.7895e-009     1.7248e-008     -1.8596e-009   
  1.65            -2.6384e-009    -2.0153e-008    2.3305e-009    
  1.7             9.383e-010      1.5054e-008     -2.2242e-009   
  1.75            -9.604e-010     -1.5684e-008    2.4885e-009    
  1.8             7.658e-010      1.382e-008      -2.3632e-009   
END_DB

BEGIN_DB
 ICCAP_VAR VG         0.36           
 ICCAP_VAR VS         0              
 ICCAP_VAR VB         -0.9           

 #VD              ID              IB              IG             
  0               -8.892e-010     -4.429e-009     3.826e-010     
  0.05            5.912e-010      -6.723e-009     2.6795e-009    
  0.1             4.4751e-009     9.197e-009      6.278e-010     
  0.15            -5.61e-011      -1.1978e-008    2.7191e-009    
  0.2             5.432e-010      1.1687e-008     -2.5676e-009   
  0.25            2.098e-010      -9.612e-009     2.736e-009     
  0.3             3.4173e-009     1.269e-008      -1.6018e-009   
  0.35            -2.3929e-009    -1.5166e-008    2.0473e-009    
  0.4             1.6415e-009     1.6153e-008     -1.9787e-009   
  0.45            -7.004e-010     -1.666e-008     2.2443e-009    
  0.5             1.6067e-009     1.5679e-008     -2.1463e-009   
  0.55            -4.126e-010     -1.6546e-008    2.4114e-009    
