! VERSION = 6.00
BEGIN_HEADER
 ICCAP_INPUTS
  VG         V  B GROUND SMU4 0.001 LIN        1    0          1.8        37   0.05      
  VS         V  E GROUND SMU2 0.1 CON        0
  VB         V  C GROUND SMU3 0.1 LIN        3    0          -1.8       3    -0.9      
  VD         V  S GROUND SMU1 0.1 LIN        2    0.1        1.8        2    1.7       
 ICCAP_OUTPUTS
  IG         I  B GROUND SMU4 B
  ID         I  S GROUND SMU1 B
  IB         I  C GROUND SMU3 B
END_HEADER

BEGIN_DB
 ICCAP_VAR VS         0              
 ICCAP_VAR VB         0              
 ICCAP_VAR VD         0.1            

 #VG              IG              ID              IB             
  0               -8.385e-010     -8.596e-010     -2.6931e-008   
  0.05            -1.335e-009     1.4853e-009     2.0294e-008    
  0.1             -2.7352e-009    1.272e-010      1.1746e-008    
  0.15            1.2826e-009     -1.4319e-009    -1.8653e-008   
  0.2             2.3456e-009     1.4493e-009     -1.2017e-008   
  0.25            -1.3665e-009    2.739e-009      2.5727e-008    
  0.3             -1.3378e-009    6.2369e-009     1.1543e-008    
  0.35            2.9213e-009     2.713e-008      1.1217e-008    
  0.4             -1.4607e-009    1.126e-007      2.3734e-008    
  0.45            1.2724e-009     4.7367e-007     -2.4004e-008   
  0.5             2.9075e-009     1.7937e-006     2.7242e-008    
  0.55            -1.3023e-009    6.2632e-006     2.3412e-008    
  0.6             1.3512e-009     1.6839e-005     1.28e-009      
  0.65            2.9226e-009     3.8084e-005     -8.423e-009    
  0.7             2.6672e-009     7.275e-005      -4.14e-010     
  0.75            1.5744e-009     0.00011746      2.0242e-008    
  0.8             2.0054e-009     0.0001718       1.0599e-008    
  0.85            -1.3943e-009    0.00023127      2.7361e-008    
  0.9             -1.3242e-009    0.00029029      1.0779e-008    
  0.95            -2.4827e-009    0.00034928      1.1879e-008    
  1               -1.8467e-009    0.00040578      1.481e-009     
  1.05            -1.4503e-009    0.00046028      3.933e-009     
  1.1             -1.3607e-009    0.00051221      9.127e-009     
  1.15            -2.6921e-009    0.0005614       1.1371e-008    
  1.2             -2.1707e-009    0.00060693      9.59e-010      
  1.25            -1.5984e-009    0.00065036      2.624e-009     
  1.3             -1.3967e-009    0.00069091      6.196e-009     
  1.35            -1.3259e-009    0.00072887      1.0938e-008    
  1.4             -2.4905e-009    0.00076454      1.1901e-008    
  1.45            -1.8521e-009    0.00079702      1.432e-009     
  1.5             -1.4546e-009    0.00082792      3.994e-009     
  1.55            -1.3628e-009    0.00085669      8.979e-009     
  1.6             -2.6913e-009    0.00088364      1.1522e-008    
  1.65            -2.1741e-009    0.00090802      7.71e-010      
  1.7             -1.6075e-009    0.00093126      2.348e-009     
  1.75            -1.4007e-009    0.00095278      6.308e-009     
  1.8             -1.3279e-009    0.00097289      1.0502e-008    
END_DB

BEGIN_DB
 ICCAP_VAR VS         0              
 ICCAP_VAR VB         0              
 ICCAP_VAR VD         1.8            

 #VG              IG              ID              IB             
  0               2.3515e-009     2.3632e-009     -1.1725e-008   
  0.05            1.2341e-009     2.1897e-009     -3.805e-009    
  0.1             -1.398e-009     1.3118e-009     2.771e-008     
  0.15            -1.3701e-009    4.622e-010      1.053e-008     
  0.2             -1.3428e-009    2.8376e-009     1.1307e-008    
  0.25            1.2803e-009     1.3443e-008     1.0926e-008    
  0.3             2.7181e-009     5.7794e-008     -1.2291e-008   
  0.35            1.8044e-009     2.4912e-007     -2.6228e-008   
  0.4             6.973e-010      1.06118e-006    9.548e-009     
  0.45            -1.3483e-009    4.1555e-006     -1.6867e-008   
  0.5             9.64e-011       1.3404e-005     -2.5745e-008   
  0.55            5.665e-010      3.529e-005      -2.0733e-008   
  0.6             9.467e-010      7.6762e-005     -4.9848e-008   
  0.65            1.2183e-009     0.00014292      -6.9075e-008   
  0.7             5.287e-010      0.00023702      -1.3155e-007   
  0.75            1.961e-010      0.00034985      -1.9091e-007   
  0.8             -2.51e-010      0.00048384      -2.2961e-007   
  0.85            -7.618e-010     0.00063301      -2.6374e-007   
  0.9             -1.0964e-009    0.00079326      -2.903e-007    
  0.95            -1.4906e-009    0.00096104      -3.1441e-007   
  1               7.879e-010      0.0011298       -3.4315e-007   
  1.05            1.728e-009      0.0013048       -3.4904e-007   
  1.1             1.3565e-009     0.0014833       -3.4939e-007   
  1.15            1.2737e-009     0.0016637       -3.534e-007    
  1.2             2.6566e-009     0.0018462       -3.5903e-007   
  1.25            2.0191e-009     0.0020316       -3.4656e-007   
  1.3             1.4819e-009     0.0022152       -3.4732e-007   
  1.35            1.3065e-009     0.0023985       -3.4241e-007   
  1.4             2.8457e-009     0.0025807       -3.366e-007    
  1.45            2.3461e-009     0.0027657       -3.1949e-007   
  1.5             1.6963e-009     0.0029473       -3.1272e-007   
  1.55            1.3589e-009     0.0031282       -3.0715e-007   
  1.6             1.2746e-009     0.0033076       -2.9619e-007   
  1.65            2.6538e-009     0.0034864       -2.9005e-007   
  1.7             2.0056e-009     0.0036656       -2.6802e-007   
  1.75            1.4711e-009     0.0038421       -2.6213e-007   
  1.8             1.3068e-009     0.0040174       -2.521e-007    
END_DB

BEGIN_DB
 ICCAP_VAR VS         0              
 ICCAP_VAR VB         -0.9           
 ICCAP_VAR VD         0.1            

 #VG              IG              ID              IB             
  0               4.883e-010      5.77e-010       -1.2042e-008   
  0.05            1.4791e-009     -1.7982e-009    -1.1409e-008   
  0.1             9.26e-010       2.3834e-009     -8.146e-009    
  0.15            -1.5541e-009    1.7922e-009     1.2371e-008    
  0.2             -1.758e-009     -1.4385e-009    6.616e-009     
  0.25            -3.692e-010     -2.184e-009     -1.2205e-008   
  0.3             -5.837e-010     -2.0632e-009    -1.1687e-008   
  0.35            1.3027e-009     -4.765e-010     -1.8617e-008   
  0.4             2.8869e-009     4.7323e-009     -1.1746e-008   
  0.45            -2.5108e-009    2.1576e-008     -2.5942e-008   
  0.5             -1.9397e-009    1.04279e-007    8.93e-010      
  0.55            8.912e-010      4.5046e-007     -1.6332e-008   
  0.6             -2.684e-009     1.8211e-006     -2.3317e-008   
  0.65            1.8763e-009     6.1944e-006     -1.8613e-008   
  0.7             -1.3682e-009    1.7813e-005     -4.513e-009    
  0.75            -2.5556e-009    4.03e-005       1.1548e-008    
  0.8             -1.9971e-009    7.5344e-005     7.52e-010      
  0.85            -1.3917e-009    0.00012284      3.036e-009     
  0.9             -2.7002e-009    0.00017727      1.1273e-008    
  0.95            1.9011e-009     0.00023418      -1.9099e-008   
  1               1.4172e-009     0.00029357      -7.519e-009    
  1.05            2.8882e-009     0.00035231      -7.96e-009     
  1.1             -1.3625e-009    0.00041037      2.6368e-008    
  1.15            -2.5207e-009    0.00046449      1.1787e-008    
  1.2             -1.9459e-009    0.00051481      8.59e-010      
  1.25            -1.4984e-009    0.00056302      2.853e-009     
  1.3             -1.3846e-009    0.00060802      7.842e-009     
  1.35            -2.6829e-009    0.00065035      1.1392e-008    
  1.4             -3.464e-010     0.0006886       -1.1852e-008   
  1.45            -8.202e-010     0.00072558      -1.2062e-008   
  1.5             1.5805e-009     0.00075885      -1.3755e-008   
  1.55            1.3326e-009     0.00079095      -8.03e-009     
  1.6             2.8679e-009     0.00082028      -8.676e-009    
  1.65            -1.7641e-009    0.00084877      2.202e-008     
  1.7             -1.4259e-009    0.00087385      4.437e-009     
  1.75            -1.3646e-009    0.00089769      9.24e-009      
  1.8             -2.5698e-009    0.0009198       1.1476e-008    
END_DB

BEGIN_DB
 ICCAP_VAR VS         0              
 ICCAP_VAR VB         -0.9           
 ICCAP_VAR VD         1.8            

 #VG              IG              ID              IB             
  0               1.3545e-009     2.429e-009      1.7677e-008    
  0.05            2.8767e-009     2.0132e-009     -9.359e-009    
  0.1             1.7525e-009     2.5236e-009     9.053e-009     
  0.15            3.591e-010      3.3739e-009     1.0749e-008    
  0.2             -2.2885e-009    1.8234e-009     1.4682e-008    
  0.25            -5.287e-010     2.706e-010      -1.3326e-008   
  0.3             -7.302e-010     6.0113e-009     -1.2281e-008   
  0.35            2.3814e-009     3.5912e-008     1.0452e-008    
  0.4             2.4972e-009     1.5696e-007     -1.1487e-008   
  0.45            1.8528e-009     6.8198e-007     -4.767e-009    
  0.5             2.3155e-009     2.767e-006      8.911e-009     
  0.55            2.5884e-009     9.5312e-006     -2.822e-009    
  0.6             -1.5051e-009    2.7593e-005     -1.5809e-008   
  0.65            -1.3855e-009    6.4278e-005     -4.4079e-008   
  0.7             -2.764e-009     0.00012486      -9.5079e-008   
  0.75            -1.3768e-009    0.00021114      -1.1562e-007   
  0.8             -2.6404e-009    0.00032374      -1.5354e-007   
  0.85            -2.1413e-009    0.00045209      -2.0288e-007   
  0.9             -1.6002e-009    0.00059753      -2.3573e-007   
  0.95            -1.3982e-009    0.00075453      -2.6049e-007   
  1               -1.3518e-009    0.00092067      -2.787e-007    
  1.05            -2.4455e-009    0.00109293      -2.9514e-007   
  1.1             1.3264e-009     0.0012632       -2.9399e-007   
  1.15            2.8508e-009     0.0014409       -3.3728e-007   
  1.2             2.4036e-009     0.0016243       -3.3356e-007   
  1.25            1.7568e-009     0.001806        -3.3775e-007   
  1.3             1.3785e-009     0.0019885       -3.4144e-007   
  1.35            2.905e-009      0.0021713       -3.376e-007    
  1.4             2.6675e-009     0.0023563       -3.2426e-007   
  1.45            2.0688e-009     0.0025377       -3.1847e-007   
  1.5             1.5047e-009     0.0027193       -3.1473e-007   
  1.55            1.3251e-009     0.0029002       -3.0798e-007   
  1.6             2.8528e-009     0.0030795       -2.9902e-007   
  1.65            2.4038e-009     0.0032616       -2.8061e-007   
  1.7             1.751e-009      0.0034391       -2.7261e-007   
  1.75            1.3761e-009     0.0036158       -2.6698e-007   
  1.8             2.9079e-009     0.0037909       -2.5626e-007   
END_DB

BEGIN_DB
 ICCAP_VAR VS         0              
 ICCAP_VAR VB         -1.8           
 ICCAP_VAR VD         0.1            

 #VG              IG              ID              IB             
  0               -1.2877e-009    -1.1754e-009    -9.842e-009    
  0.05            -2.393e-009     3.938e-010      1.4693e-008    
  0.1             -1.1509e-009    -2.1436e-009    1.204e-009     
  0.15            1.4344e-009     -1.8259e-009    -1.1041e-008   
  0.2             9.597e-010      2.369e-009      -8.054e-009    
  0.25            -1.5154e-009    1.842e-009      1.1584e-008    
  0.3             -1.7996e-009    -1.3658e-009    7.419e-009     
  0.35            -4.193e-010     -2.0156e-009    -1.2415e-008   
  0.4             1.3753e-009     -7.18e-011      -1.1642e-008   
  0.45            1.325e-009      5.5233e-009     -8.073e-009    
  0.5             -1.3654e-009    2.5168e-008     -1.1757e-008   
  0.55            -1.4671e-009    1.2216e-007     -7.601e-009    
  0.6             -1.3742e-009    5.2646e-007     8.449e-009     
  0.65            -2.7683e-009    2.0342e-006     -2.5905e-008   
  0.7             2.2394e-009     6.7279e-006     -2.3808e-008   
  0.75            -2.7414e-009    1.8728e-005     1.1715e-008    
  0.8             1.3264e-009     4.1342e-005     -2.6167e-008   
  0.85            2.8697e-009     7.6894e-005     -9.001e-009    
  0.9             1.5263e-009     0.00012383      2.0793e-008    
  0.95            1.9782e-009     0.00017938      1.0055e-008    
  1               8.364e-010      0.00023842      1.066e-008     
  1.05            1.1727e-009     0.00029682      9.135e-009     
  1.1             -1.3715e-009    0.00035736      2.7898e-008    
  1.15            -2.6758e-009    0.00041346      1.1589e-008    
  1.2             -2.174e-009     0.00046618      7.95e-010      
  1.25            -1.5941e-009    0.00051695      2.097e-009     
  1.3             -1.3933e-009    0.00056431      5.966e-009     
  1.35            -1.3384e-009    0.0006088       1.064e-008     
  1.4             -2.4949e-009    0.00065041      1.1719e-008    
  1.45            -1.8616e-009    0.0006884       1.194e-009     
  1.5             -1.4509e-009    0.00072441      3.806e-009     
  1.55            -1.3639e-009    0.00075784      8.846e-009     
  1.6             -2.6905e-009    0.00078911      1.1747e-008    
  1.65            -2.2105e-009    0.00081752      5.68e-010      
  1.7             -1.6095e-009    0.00084431      2.349e-009     
  1.75            -1.3925e-009    0.00086929      6.389e-009     
  1.8             -1.3306e-009    0.00089239      1.109e-008     
END_DB

BEGIN_DB
 ICCAP_VAR VS         0              
 ICCAP_VAR VB         -1.8           
 ICCAP_VAR VD         1.8            

 #VG              IG              ID              IB             
  0               -2.3473e-009    8.4308e-008     -8.787e-008    
  0.05            1.4624e-009     8.8299e-008     -9.6664e-008   
  0.1             1.4732e-009     8.8312e-008     -9.6753e-008   
  0.15            1.4782e-009     8.8343e-008     -9.6693e-008   
  0.2             1.4861e-009     8.8427e-008     -9.6612e-008   
  0.25            1.4977e-009     8.8851e-008     -9.668e-008    
  0.3             1.5081e-009     9.0964e-008     -9.6711e-008   
  0.35            1.5152e-009     1.01117e-007    -9.6823e-008   
  0.4             1.3576e-009     1.4735e-007     -8.6957e-008   
  0.45            2.4393e-009     3.6454e-007     -9.8995e-008   
  0.5             -2.4294e-009    1.2828e-006     -1.1483e-007   
  0.55            2.832e-010      4.6485e-006     -6.816e-008    
  0.6             1.7895e-009     1.4473e-005     -1.2121e-007   
  0.65            2.1894e-009     3.8558e-005     -1.1049e-007   
  0.7             2.4591e-009     8.3741e-005     -1.3946e-007   
  0.75            1.3889e-009     0.00015374      -1.7512e-007   
  0.8             1.2848e-009     0.00024949      -2.3261e-007   
  0.85            2.7434e-009     0.00036696      -2.756e-007    
  0.9             2.1247e-009     0.00050398      -3.0098e-007   
  0.95            1.5216e-009     0.00065385      -3.3796e-007   
  1               1.3178e-009     0.0008133       -3.6614e-007   
  1.05            2.8689e-009     0.00098002      -3.8786e-007   
  1.1             -2.0336e-009    0.0011592       -4.0778e-007   
  1.15            -1.5127e-009    0.0013357       -4.0209e-007   
  1.2             -1.3783e-009    0.0015154       -4.0385e-007   
  1.25            -2.7016e-009    0.0016971       -4.0346e-007   
  1.3             -2.2914e-009    0.001877        -4.1489e-007   
  1.35            -1.6921e-009    0.0020607       -4.1114e-007   
  1.4             -1.4095e-009    0.0022434       -4.0314e-007   
  1.45            -1.3367e-009    0.0024261       -3.9218e-007   
  1.5             -2.531e-009     0.0026085       -3.8371e-007   
  1.55            -1.9506e-009    0.0027879       -3.8643e-007   
  1.6             -1.4887e-009    0.0029681       -3.7503e-007   
  1.65            -1.3709e-009    0.003148        -3.6043e-007   
  1.7             -2.6913e-009    0.0033268       -3.4772e-007   
  1.75            -2.2312e-009    0.0035021       -3.4963e-007   
  1.8             -1.64e-009      0.0036781       -3.3881e-007   
END_DB

