! VERSION = 6.00
BEGIN_HEADER
 ICCAP_INPUTS
  VG         V  B GROUND SMU4 0.001 LIN        1    0          1.8        37   0.05      
  VS         V  E GROUND SMU2 0.1 CON        0
  VB         V  C GROUND SMU3 0.1 LIN        3    0          -1.8       3    -0.9      
  VD         V  S GROUND SMU1 0.1 LIN        2    0.1        1.8        2    1.7       
 ICCAP_OUTPUTS
  IG         I  B GROUND SMU4 B
  ID         I  S GROUND SMU1 B
  IB         I  C GROUND SMU3 B
END_HEADER

BEGIN_DB
 ICCAP_VAR VS         0              
 ICCAP_VAR VB         0              
 ICCAP_VAR VD         0.1            

 #VG              IG              ID              IB             
  0               -7.319e-010     -7.699e-010     1.1325e-008    
  0.05            -2.4302e-009    2.916e-010      1.1765e-008    
  0.1             -1.0632e-009    -2.1457e-009    9.38e-010      
  0.15            1.4829e-009     -1.7392e-009    -1.1929e-008   
  0.2             8.956e-010      2.3354e-009     -8.438e-009    
  0.25            1.0245e-009     2.2596e-009     9.328e-009     
  0.3             -1.4451e-009    1.0655e-009     2.6828e-008    
  0.35            -1.387e-009     7.91e-011       9.242e-009     
  0.4             -1.3451e-009    1.535e-009      1.1076e-008    
  0.45            -1.3018e-009    7.3145e-009     1.1903e-008    
  0.5             2.7681e-009     3.0324e-008     1.0262e-008    
  0.55            -8.34e-011      1.1307e-007     1.0299e-008    
  0.6             -6.011e-010     3.9053e-007     -1.1007e-008   
  0.65            1.7807e-009     1.09448e-006    -1.6793e-008   
  0.7             2.3956e-009     2.4196e-006     1.7176e-008    
  0.75            3.823e-010      4.4707e-006     1.0243e-008    
  0.8             -1.8154e-009    7.0308e-006     1.4561e-008    
  0.85            -1.453e-009     9.8886e-006     3.478e-009     
  0.9             2.288e-009      1.2824e-005     2.048e-009     
  0.95            1.6763e-009     1.5864e-005     -3.085e-009    
  1               1.3452e-009     1.8806e-005     -8.615e-009    
  1.05            2.8485e-009     2.1623e-005     -8.808e-009    
  1.1             2.5138e-009     2.4355e-005     -3.11e-010     
  1.15            6.156e-010      2.6913e-005     1.0312e-008    
  1.2             9.855e-010      2.9247e-005     9.173e-009     
  1.25            -1.3838e-009    3.1544e-005     2.6479e-008    
  1.3             -1.2759e-009    3.362e-005      1.1115e-008    
  1.35            -2.3452e-009    3.5573e-005     1.0812e-008    
  1.4             -1.7497e-009    3.7362e-005     1.191e-009     
  1.45            -2.659e-009     3.9055e-005     -6.991e-009    
  1.5             -8.955e-010     4.0634e-005     -1.0738e-008   
  1.55            1.4523e-009     4.2062e-005     -1.2364e-008   
  1.6             2.8105e-009     4.3463e-005     -8.672e-009    
  1.65            2.0224e-009     4.4756e-005     1.0352e-008    
  1.7             9.045e-010      4.5963e-005     9.773e-009     
  1.75            1.2395e-009     4.7062e-005     8.917e-009     
  1.8             -1.3097e-009    4.816e-005      2.5481e-008    
END_DB

BEGIN_DB
 ICCAP_VAR VS         0              
 ICCAP_VAR VB         0              
 ICCAP_VAR VD         1.8            

 #VG              IG              ID              IB             
  0               2.015e-010      -6.128e-010     -3.031e-009    
  0.05            1.5784e-009     -9.281e-010     -2.4373e-008   
  0.1             7.877e-010      2.3259e-009     -8.64e-009     
  0.15            9.321e-010      2.3194e-009     8.663e-009     
  0.2             -1.482e-009     1.7965e-009     1.1946e-008    
  0.25            -8.903e-010     -2.0438e-009    7.344e-009     
  0.3             1.6951e-009     -8.098e-010     -1.1945e-008   
  0.35            1.4766e-009     4.1914e-009     -8.617e-009    
  0.4             -1.3536e-009    1.4001e-008     -3.585e-009    
  0.45            -1.687e-010     6.7144e-008     -1.1576e-008   
  0.5             -1.7661e-009    2.5498e-007     2.7249e-008    
  0.55            -7.128e-010     8.141e-007      -1.2143e-008   
  0.6             1.4294e-009     2.1507e-006     7.67e-009      
  0.65            1.259e-009      4.7123e-006     -1.2007e-008   
  0.7             2.7665e-009     8.7048e-006     -1.6076e-008   
  0.75            -5.568e-010     1.413e-005      4.604e-009     
  0.8             -9.498e-010     2.0823e-005     -2.0879e-008   
  0.85            -1.326e-009     2.8357e-005     -2.1883e-008   
  0.9             -1.7263e-009    3.6651e-005     -2.506e-008    
  0.95            -1.9919e-009    4.5517e-005     -2.5639e-008   
  1               -2.3193e-009    5.4968e-005     -2.5531e-008   
  1.05            -2.5969e-009    6.4751e-005     -2.4911e-008   
  1.1             -2.7027e-009    7.4733e-005     -2.1393e-008   
  1.15            -2.4234e-009    8.4969e-005     -1.7519e-008   
  1.2             -2.3812e-009    9.5318e-005     -2.6146e-008   
  1.25            -2.6304e-009    0.000105764     -2.4393e-008   
  1.3             -1.3688e-009    0.00011635      -2.5486e-008   
  1.35            -2.5426e-009    0.00012676      -1.7027e-008   
  1.4             -2.2917e-009    0.00013735      -2.518e-008    
  1.45            -2.5816e-009    0.00014794      -2.2913e-008   
  1.5             -2.7048e-009    0.00015852      -1.8817e-008   
  1.55            -2.0293e-009    0.00016904      -2.4067e-008   
  1.6             -2.3557e-009    0.00017958      -2.1702e-008   
  1.65            -2.6195e-009    0.0001901       -1.9634e-008   
  1.7             -1.8328e-009    0.00020063      -2.262e-008    
  1.75            -2.0848e-009    0.00021098      -2.1315e-008   
  1.8             -1.1325e-009    0.00022153      -1.9885e-008   
END_DB

BEGIN_DB
 ICCAP_VAR VS         0              
 ICCAP_VAR VB         -0.9           
 ICCAP_VAR VD         0.1            

 #VG              IG              ID              IB             
  0               3.031e-010      -6.834e-010     -1.9837e-008   
  0.05            1.7132e-009     -8.516e-010     -2.249e-008    
  0.1             6.92e-010       2.3045e-009     -8.558e-009    
  0.15            -1.7671e-009    1.5376e-009     1.6283e-008    
  0.2             -1.5352e-009    -1.6621e-009    3.98e-009      
  0.25            2.3258e-009     -1.4142e-009    -1.9714e-008   
  0.3             1.1974e-009     2.0984e-009     -3.468e-009    
  0.35            -1.3659e-009    1.1441e-009     2.7155e-008    
  0.4             -1.1689e-009    -2.0297e-009    1.0758e-008    
  0.45            2.717e-010      -1.5458e-009    -1.1458e-008   
  0.5             2.8253e-009     2.086e-009      -2.3191e-008   
  0.55            -2.1715e-009    6.3199e-009     1.5217e-008    
  0.6             2.8361e-009     2.5764e-008     1.0462e-008    
  0.65            2.5486e-009     1.04297e-007    -1.05e-010     
  0.7             -6.793e-010     3.7303e-007     1.1173e-008    
  0.75            1.659e-009      1.06885e-006    -1.5485e-008   
  0.8             2.4604e-009     2.4307e-006     1.7929e-008    
  0.85            4.825e-010      4.5185e-006     1.0609e-008    
  0.9             8.784e-010      7.0859e-006     9.719e-009     
  0.95            -1.3971e-009    1.0073e-005     1.2376e-008    
  1               2.1917e-009     1.3076e-005     3.061e-009     
  1.05            1.5272e-009     1.6161e-005     -4.952e-009    
  1.1             1.288e-009      1.9126e-005     -8.464e-009    
  1.15            2.8253e-009     2.1948e-005     -8.757e-009    
  1.2             -1.6949e-009    2.4718e-005     2.1429e-008    
  1.25            -1.382e-009     2.7207e-005     4.611e-009     
  1.3             -1.3062e-009    2.9565e-005     9.334e-009     
  1.35            -2.508e-009     3.1753e-005     1.1131e-008    
  1.4             -1.9132e-009    3.3749e-005     9.54e-010      
  1.45            -1.4469e-009    3.5647e-005     3.265e-009     
  1.5             -1.3282e-009    3.7416e-005     7.861e-009     
  1.55            -2.6232e-009    3.9061e-005     1.1606e-008    
  1.6             -2.156e-009     4.0552e-005     4.91e-010      
  1.65            -1.5626e-009    4.1982e-005     2.071e-009     
  1.7             -1.3491e-009    4.3313e-005     5.66e-009      
  1.75            -1.2686e-009    4.4547e-005     1.0411e-008    
  1.8             -2.3784e-009    4.5709e-005     1.1495e-008    
END_DB

BEGIN_DB
 ICCAP_VAR VS         0              
 ICCAP_VAR VB         -0.9           
 ICCAP_VAR VD         1.8            

 #VG              IG              ID              IB             
  0               -2.276e-010     -4.346e-010     -1.0406e-008   
  0.05            -1.5609e-009    8.455e-010      2.4017e-008    
  0.1             -1.7228e-009    -1.4524e-009    6.358e-009     
  0.15            -3.415e-010     -2.1327e-009    -1.1366e-008   
  0.2             -5.536e-010     -2.185e-009     -1.1011e-008   
  0.25            -7.469e-010     -2.2063e-009    -1.034e-008    
  0.3             -8.918e-010     -2.1425e-009    -9.727e-009    
  0.35            1.683e-009      -1.2779e-009    -1.1909e-008   
  0.4             1.463e-009      2.2204e-009     -8.75e-009     
  0.45            1.3445e-009     8.7046e-009     -8.543e-009    
  0.5             -1.3122e-009    3.6332e-008     -3.096e-009    
  0.55            -2.0165e-009    1.5525e-007     2.1599e-008    
  0.6             1.084e-010      5.5147e-007     -1.1914e-008   
  0.65            2.3306e-009     1.6323e-006     1.2364e-008    
  0.7             -1.63e-009      3.9317e-006     1.472e-008     
  0.75            -1.9882e-009    7.6245e-006     -1.4822e-008   
  0.8             2.2226e-009     1.2734e-005     -1.8931e-008   
  0.85            1.5654e-009     1.9143e-005     -1.4382e-008   
  0.9             1.2934e-009     2.662e-005      -2.0173e-008   
  0.95            2.8246e-009     3.4925e-005     -2.2189e-008   
  1               2.4669e-009     4.4044e-005     -1.5088e-008   
  1.05            1.7805e-009     5.3472e-005     -1.8248e-008   
  1.1             1.3517e-009     6.3253e-005     -2.4944e-008   
  1.15            1.2359e-009     7.3304e-005     -2.5239e-008   
  1.2             2.6667e-009     8.3505e-005     -2.8777e-008   
  1.25            2.0327e-009     9.4e-005        -1.8243e-008   
  1.3             1.4639e-009     0.000104459     -2.3051e-008   
  1.35            -1.7761e-009    0.0001152       -2.9331e-008   
  1.4             -2.0239e-009    0.00012567      -2.5465e-008   
  1.45            -2.3646e-009    0.00013625      -2.3842e-008   
  1.5             -2.6215e-009    0.00014688      -2.2044e-008   
  1.55            -1.8286e-009    0.00015751      -2.4987e-008   
  1.6             -2.0819e-009    0.00016799      -2.267e-008    
  1.65            -2.432e-009     0.00017855      -2.1293e-008   
  1.7             -2.6447e-009    0.00018904      -1.8726e-008   
  1.75            -1.8731e-009    0.00019955      -2.2104e-008   
  1.8             -2.1475e-009    0.00020991      -1.9915e-008   
END_DB

BEGIN_DB
 ICCAP_VAR VS         0              
 ICCAP_VAR VB         -1.8           
 ICCAP_VAR VD         0.1            

 #VG              IG              ID              IB             
  0               -1.1544e-009    -1.1081e-009    -9.612e-009    
  0.05            -1.9676e-009    6.128e-010      1.7791e-008    
  0.1             -1.4082e-009    -1.8392e-009    2.789e-009     
  0.15            1.286e-009      -1.3131e-009    -2.3217e-008   
  0.2             1.1933e-009     2.1179e-009     -9.393e-009    
  0.25            -1.3689e-009    1.1264e-009     2.7574e-008    
  0.3             -1.1558e-009    -2.1044e-009    1.0795e-008    
  0.35            1.3837e-009     -1.0976e-009    -2.6307e-008   
  0.4             9.814e-010      2.3262e-009     -8.378e-009    
  0.45            -1.4481e-009    1.0109e-009     2.6583e-008    
  0.5             -1.3784e-009    -6.7e-012       7.964e-009     
  0.55            -1.3437e-009    1.4404e-009     9.951e-009     
  0.6             -1.3126e-009    7.7798e-009     1.1528e-008    
  0.65            1.6702e-009     3.3846e-008     1.0173e-008    
  0.7             -3.318e-010     1.3645e-007     1.1479e-008    
  0.75            -8.026e-010     4.7783e-007     -1.0761e-008   
  0.8             2.8317e-009     1.2987e-006     2.625e-008     
  0.85            3.254e-010      2.8339e-006     1.0496e-008    
  0.9             7.635e-010      5.0031e-006     1.0131e-008    
  0.95            -1.4535e-009    7.7423e-006     1.5201e-008    
  1               -1.3177e-009    1.07449e-005    7.524e-009     
  1.05            9.3e-011        1.3754e-005     1.1452e-008    
  1.1             1.3192e-009     1.6808e-005     -2.5481e-008   
  1.15            2.8517e-009     1.9751e-005     -8.665e-009    
  1.2             -1.7355e-009    2.265e-005      2.2748e-008    
  1.25            -1.3748e-009    2.5273e-005     4.499e-009     
  1.3             -2.6691e-009    2.7747e-005     9.202e-009     
  1.35            1.2617e-009     2.9979e-005     -2.4191e-008   
  1.4             2.691e-009      3.2101e-005     -1.207e-008    
  1.45            5.925e-010      3.413e-005      1.0692e-008    
  1.5             -1.6084e-009    3.5981e-005     1.9981e-008    
  1.55            -1.3474e-009    3.7693e-005     5.185e-009     
  1.6             -1.2719e-009    3.9284e-005     1.0024e-008    
  1.65            -2.4314e-009    4.0778e-005     1.1116e-008    
  1.7             -1.7901e-009    4.2132e-005     1.248e-009     
  1.75            -1.3939e-009    4.3419e-005     3.817e-009     
  1.8             -1.3008e-009    4.4621e-005     8.768e-009     
END_DB

BEGIN_DB
 ICCAP_VAR VS         0              
 ICCAP_VAR VB         -1.8           
 ICCAP_VAR VD         1.8            

 #VG              IG              ID              IB             
  0               1.028e-009      9.496e-010      1.4786e-008    
  0.05            1.6087e-009     -9.093e-010     -2.4232e-008   
  0.1             7.68e-010       2.3284e-009     -8.509e-009    
  0.15            -1.6756e-009    1.6091e-009     1.4637e-008    
  0.2             -1.6111e-009    -1.5683e-009    4.748e-009     
  0.25            -1.766e-010     -2.0734e-009    -1.1011e-008   
  0.3             -3.839e-010     -2.115e-009     -1.1174e-008   
  0.35            -6.03e-010      -2.0439e-009    -1.044e-008    
  0.4             1.2347e-009     -7.209e-010     -1.7184e-008   
  0.45            2.8191e-009     3.6096e-009     -1.1993e-008   
  0.5             -8.577e-010     1.5339e-008     -2.32e-010     
  0.55            -1.2173e-009    7.618e-008      -9.46e-009     
  0.6             -2.2819e-009    2.9877e-007     8.813e-009     
  0.65            -1.6823e-009    9.8637e-007     5.85e-010      
  0.7             2.567e-009      2.5814e-006     1.8834e-008    
  0.75            -2.4641e-009    5.6448e-006     6.897e-009     
  0.8             -1.5279e-009    1.01663e-005    -1.7426e-008   
  0.85            2.8513e-009     1.5907e-005     -1.8744e-008   
  0.9             2.7035e-009     2.2952e-005     -1.0732e-008   
  0.95            2.0995e-009     3.0916e-005     -1.3445e-008   
  1               1.5139e-009     3.959e-005      -1.9474e-008   
  1.05            1.3049e-009     4.8836e-005     -2.3789e-008   
  1.1             2.8414e-009     5.8423e-005     -2.5279e-008   
  1.15            2.3776e-009     6.8527e-005     -1.6859e-008   
  1.2             1.7119e-009     7.8654e-005     -1.9698e-008   
  1.25            1.3599e-009     8.8943e-005     -2.5267e-008   
  1.3             1.2488e-009     9.9343e-005     -2.5193e-008   
  1.35            2.6424e-009     0.0001098       -2.8543e-008   
  1.4             2.7846e-009     0.00012031      -9.626e-009    
  1.45            2.2131e-009     0.000131        -1.6009e-008   
  1.5             1.596e-009      0.00014151      -1.9196e-008   
  1.55            1.33e-009       0.00015208      -2.2768e-008   
  1.6             2.8676e-009     0.00016259      -2.2348e-008   
  1.65            2.4924e-009     0.00017325      -1.3263e-008   
  1.7             1.8273e-009     0.00018372      -1.4486e-008   
  1.75            1.4035e-009     0.00019412      -1.9574e-008   
  1.8             1.2709e-009     0.00020453      -1.952e-008    
END_DB

