! VERSION = 6.00
BEGIN_HEADER
 ICCAP_INPUTS
  VG         V  B GROUND SMU4 0.001 LIN        1    0          1.8        37   0.05      
  VS         V  E GROUND SMU2 0.1 CON        0
  VB         V  C GROUND SMU3 0.1 LIN        3    0          -1.8       3    -0.9      
  VD         V  S GROUND SMU1 0.1 LIN        2    0.1        1.8        2    1.7       
 ICCAP_OUTPUTS
  IG         I  B GROUND SMU4 B
  ID         I  S GROUND SMU1 B
  IB         I  C GROUND SMU3 B
END_HEADER

BEGIN_DB
 ICCAP_VAR VS         0              
 ICCAP_VAR VB         0              
 ICCAP_VAR VD         0.1            

 #VG              IG              ID              IB             
  0               1.2156e-009     1.1455e-009     1.144e-008     
  0.05            2.7383e-009     -2.924e-010     -1.4598e-008   
  0.1             2.984e-010      2.2137e-009     1.1013e-008    
  0.15            4.97e-010       2.3482e-009     1.0444e-008    
  0.2             6.898e-010      2.6205e-009     9.992e-009     
  0.25            -1.8594e-009    2.7427e-009     1.7781e-008    
  0.3             -1.6288e-009    4.548e-009      4.27e-009      
  0.35            1.3136e-009     2.121e-008      1.0681e-008    
  0.4             2.8682e-009     9.2311e-008     -9.588e-009    
  0.45            -3.681e-010     3.782e-007      1.158e-008     
  0.5             1.2824e-009     1.4543e-006     1.071e-008     
  0.55            2.7943e-009     4.9264e-006     -1.0948e-008   
  0.6             -2.497e-009     1.4258e-005     1.1259e-008    
  0.65            -5.567e-010     3.3194e-005     -1.1699e-008   
  0.7             -9.713e-010     6.516e-005      -1.0199e-008   
  0.75            2.759e-010      0.000107207     -1.2041e-008   
  0.8             -6.849e-010     0.0001607       -1.958e-008    
  0.85            1.7328e-009     0.00021762      -1.6831e-008   
  0.9             1.3522e-009     0.00027671      -8.622e-009    
  0.95            1.2486e-009     0.0003357       -8.804e-009    
  1               2.6278e-009     0.00039348      -1.3452e-008   
  1.05            1.934e-009      0.00044958      -2.481e-009    
  1.1             1.4265e-009     0.00050232      -8.044e-009    
  1.15            1.2778e-009     0.00055198      -8.362e-009    
  1.2             2.7704e-009     0.00059891      -1.1409e-008   
  1.25            5.246e-010      0.00064418      1.1002e-008    
  1.3             9.284e-010      0.00068496      9.807e-009     
  1.35            -2.431e-010     0.00072388      1.2752e-008    
  1.4             -1.4433e-009    0.00076051      2.4227e-008    
  1.45            -1.3435e-009    0.00079404      9.488e-009     
  1.5             -2.6214e-009    0.00082564      1.1495e-008    
  1.55            -2.0473e-009    0.00085443      9.69e-010      
  1.6             -1.5165e-009    0.00088168      3.019e-009     
  1.65            -1.3703e-009    0.00090723      7.901e-009     
  1.7             -2.7103e-009    0.00093068      1.1786e-008    
  1.75            -1.3397e-009    0.00095262      -9.837e-009    
  1.8             -1.231e-010     0.00097232      -1.1789e-008   
END_DB

BEGIN_DB
 ICCAP_VAR VS         0              
 ICCAP_VAR VB         0              
 ICCAP_VAR VD         1.8            

 #VG              IG              ID              IB             
  0               1.0464e-009     9.647e-010      1.6946e-008    
  0.05            1.4982e-009     -9.784e-010     -2.6264e-008   
  0.1             1.8436e-009     1.5556e-009     -8.218e-009    
  0.15            4.821e-010      2.9131e-009     1.0795e-008    
  0.2             -1.3397e-009    4.3591e-009     2.3286e-008    
  0.25            2.8875e-009     1.404e-008      1.1129e-008    
  0.3             -1.7942e-009    6.0943e-008     2.3395e-008    
  0.35            -2.1078e-009    2.4923e-007     1.9942e-008    
  0.4             -1.1587e-009    1.05146e-006    -1.1145e-008   
  0.45            2.2762e-009     3.7419e-006     8.453e-009     
  0.5             -1.3338e-009    1.212e-005      -4.411e-009    
  0.55            -2.264e-009     3.1531e-005     -2.8583e-008   
  0.6             -1.6431e-009    7.0103e-005     -5.2387e-008   
  0.65            -1.837e-009     0.00013331      -8.945e-008    
  0.7             -5.601e-010     0.00022047      -1.0636e-007   
  0.75            -9.781e-010     0.00033334      -1.8098e-007   
  0.8             -1.3695e-009    0.00046775      -2.2031e-007   
  0.85            -1.7656e-009    0.00061456      -2.5725e-007   
  0.9             -2.0285e-009    0.00077172      -2.8548e-007   
  0.95            -2.3831e-009    0.00093948      -3.0918e-007   
  1               -2.6557e-009    0.00111433      -3.2824e-007   
  1.05            1.3182e-009     0.0012905       -3.297e-007    
  1.1             2.8869e-009     0.001471        -3.5254e-007   
  1.15            2.5275e-009     0.0016574       -3.5015e-007   
  1.2             1.8054e-009     0.0018413       -3.5544e-007   
  1.25            1.3683e-009     0.0020271       -3.6028e-007   
  1.3             2.8853e-009     0.002213        -3.5718e-007   
  1.35            2.7111e-009     0.0024005       -3.4391e-007   
  1.4             2.0649e-009     0.0025856       -3.3896e-007   
  1.45            1.461e-009      0.0027694       -3.3635e-007   
  1.5             1.2919e-009     0.0029525       -3.284e-007    
  1.55            2.8396e-009     0.0031346       -3.2062e-007   
  1.6             2.3186e-009     0.003318        -3.0113e-007   
  1.65            1.6215e-009     0.0034989       -2.9438e-007   
  1.7             1.3241e-009     0.0036772       -2.8712e-007   
  1.75            2.8883e-009     0.0038544       -2.7629e-007   
  1.8             2.5435e-009     0.0040335       -2.5724e-007   
END_DB

BEGIN_DB
 ICCAP_VAR VS         0              
 ICCAP_VAR VB         -0.9           
 ICCAP_VAR VD         0.1            

 #VG              IG              ID              IB             
  0               1.4941e-009     1.7811e-009     2.246e-009     
  0.05            8.897e-010      2.398e-009      -8.371e-009    
  0.1             1.0472e-009     2.3503e-009     9.188e-009     
  0.15            -1.447e-009     1.8851e-009     1.1263e-008    
  0.2             -1.0113e-009    -2.2175e-009    9.094e-009     
  0.25            -1.1628e-009    -2.0987e-009    -9.828e-009    
  0.3             3.023e-010      -1.6e-009       -1.1578e-008   
  0.35            2.8739e-009     1.837e-009      -2.2847e-008   
  0.4             -1.3713e-009    5.6914e-009     2.7507e-008    
  0.45            1.2558e-009     2.1014e-008     1.1153e-008    
  0.5             2.6567e-009     9.3407e-008     -1.3553e-008   
  0.55            -7.105e-010     4.1308e-007     1.1783e-008    
  0.6             2.887e-009      1.6038e-006     9.824e-009     
  0.65            -1.715e-009     5.7673e-006     2.1731e-008    
  0.7             1.2707e-009     1.5898e-005     3.233e-009     
  0.75            2.726e-009      3.6484e-005     -1.267e-008    
  0.8             6.015e-010      7.0992e-005     1.111e-008     
  0.85            2.5288e-009     0.00011629      1.1154e-008    
  0.9             5.174e-010      0.00017082      1.1107e-008    
  0.95            -1.7394e-009    0.00022969      2.2251e-008    
  1               -1.4091e-009    0.00028921      5.124e-009     
  1.05            -1.3326e-009    0.00034852      9.904e-009     
  1.1             -2.5643e-009    0.00040588      1.151e-008     
  1.15            -1.9423e-009    0.0004599       1.041e-009     
  1.2             -1.4684e-009    0.00051167      3.669e-009     
  1.25            -1.3579e-009    0.00056055      8.415e-009     
  1.3             -2.675e-009     0.00060642      1.1809e-008    
  1.35            -2.1655e-009    0.00064849      7.95e-010      
  1.4             -1.5751e-009    0.00068846      2.824e-009     
  1.45            -1.3825e-009    0.00072559      6.671e-009     
  1.5             -2.7299e-009    0.00076016      1.1193e-008    
  1.55            -2.691e-010     0.00079163      -1.193e-008    
  1.6             -7.824e-010     0.00082175      -1.1617e-008   
  1.65            1.6053e-009     0.0008488       -1.4695e-008   
  1.7             1.3232e-009     0.00087495      -8.413e-009    
  1.75            2.8935e-009     0.00089869      -8.796e-009    
  1.8             -1.7475e-009    0.00092169      2.248e-008     
END_DB

BEGIN_DB
 ICCAP_VAR VS         0              
 ICCAP_VAR VB         -0.9           
 ICCAP_VAR VD         1.8            

 #VG              IG              ID              IB             
  0               1.2416e-009     2.0425e-009     -1.1307e-008   
  0.05            2.8132e-009     1.7457e-009     -1.5141e-008   
  0.1             -1.2991e-009    2.4803e-009     1.6927e-008    
  0.15            -2.6354e-009    1.2171e-009     1.1948e-008    
  0.2             -2.4323e-009    4.693e-010      -1.92e-010     
  0.25            -1.4141e-009    9.42e-010       -1.2744e-008   
  0.3             2.7561e-009     1.0976e-008     1.0321e-008    
  0.35            5.57e-010       4.5306e-008     1.0253e-008    
  0.4             2.8941e-009     1.9245e-007     -1.3112e-008   
  0.45            2.7044e-009     8.1321e-007     -2.399e-009    
  0.5             1.8601e-009     3.0728e-006     6.613e-009     
  0.55            2.2429e-009     1.02106e-005    -2.132e-009    
  0.6             -1.8395e-009    2.8253e-005     -1.5581e-008   
  0.65            -1.4361e-009    6.4429e-005     -4.6907e-008   
  0.7             -1.4367e-009    0.00012525      -8.8418e-008   
  0.75            -4.719e-010     0.00021013      -1.411e-007    
  0.8             -1.035e-010     0.00032194      -1.5177e-007   
  0.85            3.411e-010      0.00045353      -1.9057e-007   
  0.9             7.933e-010      0.00059907      -2.2601e-007   
  0.95            1.1531e-009     0.00075475      -2.575e-007    
  1               1.5648e-009     0.00092097      -2.8046e-007   
  1.05            2.0049e-009     0.00109794      -2.9914e-007   
  1.1             -2.5833e-009    0.0012796       -3.1502e-007   
  1.15            -2.7342e-009    0.001461        -3.399e-007    
  1.2             -2.6197e-009    0.0016445       -3.4045e-007   
  1.25            -2.038e-009     0.0018303       -3.4136e-007   
  1.3             -1.5036e-009    0.0020158       -3.3856e-007   
  1.35            -1.3648e-009    0.0022022       -3.3085e-007   
  1.4             -2.705e-009     0.002388        -3.2227e-007   
  1.45            -2.253e-009     0.0025706       -3.2664e-007   
  1.5             -1.6244e-009    0.0027546       -3.1723e-007   
  1.55            -1.3892e-009    0.0029383       -3.0481e-007   
  1.6             -1.3116e-009    0.0031207       -2.9034e-007   
  1.65            -2.4587e-009    0.0033019       -2.7932e-007   
  1.7             -1.7906e-009    0.0034796       -2.7949e-007   
  1.75            -1.4224e-009    0.0036587       -2.6602e-007   
  1.8             -1.3397e-009    0.0038361       -2.5034e-007   
END_DB

BEGIN_DB
 ICCAP_VAR VS         0              
 ICCAP_VAR VB         -1.8           
 ICCAP_VAR VD         0.1            

 #VG              IG              ID              IB             
  0               8.623e-010      8.639e-010      2.7044e-008    
  0.05            1.2714e-009     -1.4626e-009    -1.9345e-008   
  0.1             2.881e-009      -4.79e-011      -1.221e-008    
  0.15            -1.329e-009     1.4603e-009     2.2308e-008    
  0.2             -2.7071e-009    1.116e-010      1.1595e-008    
  0.25            -8.969e-010     -2.2256e-009    4.98e-010      
  0.3             1.7391e-009     -1.5788e-009    -1.2464e-008   
  0.35            2.5504e-009     1.3151e-009     -8.595e-009    
  0.4             2.805e-010      3.3513e-009     1.1241e-008    
  0.45            4.884e-010      7.7768e-009     1.0747e-008    
  0.5             -1.6216e-009    2.5487e-008     -1.3152e-008   
  0.55            4.847e-010      1.2364e-007     -1.0757e-008   
  0.6             -1.7825e-009    5.4555e-007     2.3227e-008    
  0.65            -2.4282e-009    2.071e-006      -1.7544e-008   
  0.7             -4.403e-010     6.8682e-006     -1.1841e-008   
  0.75            2.7576e-009     1.8815e-005     -1.1805e-008   
  0.8             -1.3655e-009    4.263e-005      2.8287e-008    
  0.85            -2.6935e-009    7.8933e-005     1.1536e-008    
  0.9             -1.6265e-009    0.00012626      5.95e-010      
  0.95            -1.384e-009     0.00018141      6.38e-009      
  1               -1.3096e-009    0.00024022      1.1181e-008    
  1.05            -2.4409e-009    0.00030008      1.2319e-008    
  1.1             -1.7748e-009    0.00035837      1.903e-009     
  1.15            -1.415e-009     0.00041485      4.829e-009     
  1.2             -1.3343e-009    0.00046888      9.874e-009     
  1.25            -2.5736e-009    0.00051986      1.1381e-008    
  1.3             -1.9616e-009    0.00056714      9.02e-010      
  1.35            -1.4716e-009    0.0006119       3.664e-009     
  1.4             -1.3539e-009    0.00065365      8.471e-009     
  1.45            -2.6701e-009    0.00069269      1.1481e-008    
  1.5             -2.1505e-009    0.00072827      7.48e-010      
  1.55            -1.5616e-009    0.00076205      2.937e-009     
  1.6             -1.3743e-009    0.0007934       7.007e-009     
  1.65            -1.2969e-009    0.00082228      1.1248e-008    
  1.7             -2.3594e-009    0.0008494       1.2805e-008    
  1.75            -1.6937e-009    0.00087404      2.25e-009      
  1.8             -1.3969e-009    0.00089713      5.626e-009     
END_DB

BEGIN_DB
 ICCAP_VAR VS         0              
 ICCAP_VAR VB         -1.8           
 ICCAP_VAR VD         1.8            

 #VG              IG              ID              IB             
  0               -5.325e-010     7.5184e-008     -6.7064e-008   
  0.05            -9.629e-010     7.3458e-008     -8.6378e-008   
  0.1             -1.3514e-009    7.2698e-008     -8.5951e-008   
  0.15            -1.7566e-009    7.3589e-008     -8.7857e-008   
  0.2             -2.0281e-009    7.4813e-008     -8.5608e-008   
  0.25            -2.3969e-009    7.5468e-008     -8.4697e-008   
  0.3             -2.6675e-009    7.8505e-008     -8.4189e-008   
  0.35            -2.7302e-009    9.3121e-008     -7.9935e-008   
  0.4             2.085e-010      1.6376e-007     -8.4855e-008   
  0.45            6.791e-010      4.5413e-007     -6.5622e-008   
  0.5             -2.6749e-009    1.6707e-006     -8.8276e-008   
  0.55            1.7654e-009     5.6271e-006     -9.4041e-008   
  0.6             1.623e-009      1.6854e-005     -1.0125e-007   
  0.65            1.3204e-009     4.168e-005      -1.2e-007      
  0.7             2.8794e-009     8.7536e-005     -1.4863e-007   
  0.75            1.2633e-009     0.00015967      -1.662e-007    
  0.8             2.6788e-009     0.00025715      -2.2852e-007   
  0.85            1.9768e-009     0.00037874      -2.5718e-007   
  0.9             1.4198e-009     0.00051755      -2.9981e-007   
  0.95            1.2794e-009     0.00066996      -3.3215e-007   
  1               2.7977e-009     0.00083225      -3.6248e-007   
  1.05            2.1765e-009     0.0010052       -3.7442e-007   
  1.1             -2.6567e-009    0.0011861       -3.9764e-007   
  1.15            -2.1302e-009    0.001364        -4.0128e-007   
  1.2             -1.5479e-009    0.0015469       -4.0695e-007   
  1.25            -1.3707e-009    0.0017307       -4.0696e-007   
  1.3             -2.7136e-009    0.0019162       -4.0408e-007   
  1.35            -2.3123e-009    0.0020991       -4.144e-007    
  1.4             -1.6665e-009    0.0022849       -4.0984e-007   
  1.45            -1.3909e-009    0.0024688       -4.0247e-007   
  1.5             -1.3184e-009    0.0026534       -3.9273e-007   
  1.55            -2.4801e-009    0.0028367       -3.8476e-007   
  1.6             -1.8114e-009    0.0030168       -3.8892e-007   
  1.65            -1.4229e-009    0.003198        -3.7992e-007   
  1.7             -1.3385e-009    0.0033781       -3.6888e-007   
  1.75            -2.6002e-009    0.0035569       -3.6196e-007   
  1.8             -1.9855e-009    0.0037325       -3.6846e-007   
END_DB

