! VERSION = 6.00
BEGIN_HEADER
 ICCAP_INPUTS
  VG         V  B GROUND SMU4 0.001 LIN        2    0          1.8        6    0.36      
  VS         V  E GROUND SMU2 0.1 CON        0
  VD         V  S GROUND SMU1 0.1 LIN        1    0          1.8        37   0.05      
  VB         V  C GROUND SMU3 0.1 LIN        3    0          -0.9       2    -0.9      
 ICCAP_OUTPUTS
  ID         I  S GROUND SMU1 B
  IB         I  C GROUND SMU3 B
  IG         I  B GROUND SMU4 B
END_HEADER

BEGIN_DB
 ICCAP_VAR VG         0              
 ICCAP_VAR VS         0              
 ICCAP_VAR VB         0              

 #VD              ID              IB              IG             
  0               9.381e-010      1.7547e-008     1.023e-009     
  0.05            -1.0876e-009    -2.6717e-008    1.4439e-009    
  0.1             2.3776e-009     -8.454e-009     9.753e-010     
  0.15            1.8136e-009     1.1697e-008     -1.4878e-009   
  0.2             -1.3601e-009    8.234e-009      -1.8337e-009   
  0.25            -2.2155e-009    -1.1528e-008    -5.387e-010    
  0.3             -2.2633e-009    -1.0675e-008    -7.665e-010    
  0.35            -2.271e-009     -9.73e-009      -9.23e-010     
  0.4             -1.6632e-009    -1.215e-008     1.6926e-009    
  0.45            1.5924e-009     -8.619e-009     1.6616e-009    
  0.5             2.1974e-009     1.1266e-008     3.233e-010     
  0.55            2.2952e-009     1.0792e-008     5.314e-010     
  0.6             2.3745e-009     9.957e-009      7.264e-010     
  0.65            1.6003e-009     1.605e-008      -1.7697e-009   
  0.7             -1.6608e-009    4.759e-009      -1.6063e-009   
  0.75            -1.4828e-009    -1.8948e-008    1.2843e-009    
  0.8             -6.58e-011      -1.2174e-008    2.9037e-009    
  0.85            1.4391e-009     2.1394e-008     -1.3335e-009   
  0.9             1.029e-010      1.1445e-008     -2.7088e-009   
  0.95            -1.5171e-009    -1.771e-008     1.2727e-009    
  1               -1.265e-010     -1.2969e-008    2.8879e-009    
  1.05            1.4788e-009     1.9889e-008     -1.3233e-009   
  1.1             1.526e-010      1.1714e-008     -2.6834e-009   
  1.15            -2.271e-009     7.88e-010       -9.655e-010    
  1.2             -1.6881e-009    -1.168e-008     1.6302e-009    
  1.25            1.5222e-009     -8.521e-009     1.7087e-009    
  1.3             2.2191e-009     1.1157e-008     3.68e-010      
  1.35            1.3186e-009     2.4899e-008     -1.3603e-009   
  1.4             -2.2e-012       1.1394e-008     -1.3191e-009   
  1.45            1.532e-010      1.1778e-008     -2.686e-009    
  1.5             -2.2685e-009    1.054e-009      -9.639e-010    
  1.55            -1.6866e-009    -1.1784e-008    1.6368e-009    
  1.6             1.5227e-009     -8.629e-009     1.7106e-009    
  1.65            2.2198e-009     1.1199e-008     3.744e-010     
  1.7             1.3166e-009     2.4856e-008     -1.3606e-009   
  1.75            -8.3e-012       1.1524e-008     -1.3219e-009   
  1.8             1.435e-010      1.1573e-008     -2.6886e-009   
END_DB

BEGIN_DB
 ICCAP_VAR VG         0.36           
 ICCAP_VAR VS         0              
 ICCAP_VAR VB         0              

 #VD              ID              IB              IG             
  0               -1.3593e-009    1.1344e-008     -1.3668e-009   
  0.05            6.814e-010      1.1799e-008     -1.334e-009    
  0.1             9.801e-010      1.1381e-008     -2.7107e-009   
  0.15            -6.318e-010     -9.675e-009     2.0528e-009    
  0.2             2.071e-009      -7.434e-009     2.4097e-009    
  0.25            2.5291e-009     2.1394e-008     -1.327e-009    
  0.3             1.276e-009      1.1486e-008     -2.6938e-009   
  0.35            3.464e-010      5.34e-010       -2.5563e-009   
  0.4             4.562e-010      9.04e-010       -2.329e-009    
  0.45            5.987e-010      2.019e-009      -2.0406e-009   
  0.5             7.623e-010      3.257e-009      -1.7601e-009   
  0.55            9.599e-010      4.87e-009       -1.55e-009     
  0.6             1.145e-009      7.317e-009      -1.4409e-009   
  0.65            1.3594e-009     9.494e-009      -1.3889e-009   
  0.7             1.5737e-009     1.0995e-008     -1.3581e-009   
  0.75            1.8006e-009     1.1622e-008     -1.3245e-009   
  0.8             2.0322e-009     1.1603e-008     -2.7005e-009   
  0.85            2.6142e-009     -1.1746e-008    2.1932e-009    
  0.9             2.5962e-009     -6.249e-009     1.8714e-009    
  0.95            2.5811e-009     -8.665e-009     1.6076e-009    
  1               2.5697e-009     -8.534e-009     1.4343e-009    
  1.05            2.5479e-009     -8.422e-009     1.348e-009     
  1.1             2.5256e-009     -8.782e-009     1.3029e-009    
  1.15            2.5138e-009     -1.0714e-008    2.8907e-009    
  1.2             3.4014e-009     -1.93e-010      2.8656e-009    
  1.25            4.7422e-009     1.1255e-008     1.17e-010      
  1.3             4.9298e-009     1.1229e-008     3.213e-010     
  1.35            5.1244e-009     1.0376e-008     5.35e-010      
  1.4             4.5161e-009     2.2176e-008     -1.3304e-009   
  1.45            3.3595e-009     1.1517e-008     -2.7065e-009   
  1.5             2.4465e-009     5.02e-010       -2.5745e-009   
  1.55            2.6353e-009     8.03e-010       -2.3535e-009   
  1.6             2.8668e-009     2.178e-009      -2.0786e-009   
  1.65            3.118e-009      3.17e-009       -1.7914e-009   
  1.7             3.3866e-009     4.685e-009      -1.578e-009    
  1.75            3.6487e-009     7.094e-009      -1.4519e-009   
  1.8             3.9375e-009     9.313e-009      -1.3929e-009   
END_DB

BEGIN_DB
 ICCAP_VAR VG         0.72           
 ICCAP_VAR VS         0              
 ICCAP_VAR VB         0              

 #VD              ID              IB              IG             
  0               -8.3383e-010    9.281e-009      2.7046e-009    
  0.05            3.0912e-006     5.058e-009      1.2206e-009    
  0.1             4.6352e-006     -2.6625e-008    1.3033e-009    
  0.15            5.3737e-006     -1.162e-008     -7.05e-011     
  0.2             5.9162e-006     1.2076e-008     -2.3951e-009   
  0.25            6.2272e-006     2.866e-008      -1.3641e-009   
  0.3             6.4885e-006     2.7511e-008     -1.3372e-009   
  0.35            6.7245e-006     2.4499e-008     -1.3064e-009   
  0.4             6.9012e-006     1.1269e-008     3.548e-010     
  0.45            7.0273e-006     -1.5591e-008    2.1641e-009    
  0.5             7.2357e-006     -1.1773e-008    -3.094e-010    
  0.55            7.5762e-006     1.3165e-008     -2.1121e-009   
  0.6             7.7877e-006     2.6971e-008     -1.3318e-009   
  0.65            7.9814e-006     2.3764e-008     -1.2974e-009   
  0.7             8.1297e-006     1.1283e-008     4.056e-010     
  0.75            8.238e-006      -1.5955e-008    2.1014e-009    
  0.8             8.455e-006      -2.1763e-008    1.2535e-009    
  0.85            8.6398e-006     -1.1744e-008    -3.917e-010    
  0.9             8.9839e-006     1.3952e-008     -2.0016e-009   
  0.95            9.1973e-006     2.5714e-008     -1.3168e-009   
  1               9.3444e-006     1.1188e-008     2.991e-010     
  1.05            9.433e-006      -1.5032e-008    2.262e-009     
  1.1             9.643e-006      -2.3921e-008    1.2741e-009    
  1.15            9.844e-006      -1.1782e-008    -2.793e-010    
  1.2             1.02221e-005    1.3101e-008     -2.1481e-009   
  1.25            1.04251e-005    2.7211e-008     -1.3355e-009   
  1.3             1.06075e-005    1.7207e-008     -1.6929e-009   
  1.35            1.06484e-005    1.0191e-008     2.0357e-009    
  1.4             1.08431e-005    -1.1798e-008    2.492e-010     
  1.45            1.12639e-005    1.112e-008      -2.7093e-009   
  1.5             1.1464e-005     -1.075e-009     -1.6564e-009   
  1.55            1.1699e-005     2.6852e-008     -1.3831e-009   
  1.6             1.1903e-005     1.7099e-008     -1.5894e-009   
  1.65            1.2155e-005     9.708e-009      -2.2364e-009   
  1.7             1.2165e-005     5.746e-009      2.0391e-009    
  1.75            1.2404e-005     -1.7435e-008    -1.255e-010    
  1.8             1.2809e-005     8.819e-009      -1.7613e-009   
END_DB

BEGIN_DB
 ICCAP_VAR VG         1.08           
 ICCAP_VAR VS         0              
 ICCAP_VAR VB         0              

 #VD              ID              IB              IG             
  0               -5.2024e-008    -1.9735e-008    -1.0808e-009   
  0.05            2.4199e-005     1.083e-008      2.26e-010      
  0.1             4.4318e-005     1.2271e-008     -2.3103e-009   
  0.15            5.9632e-005     9.941e-009      2.0012e-009    
  0.2             7.0945e-005     -2.2218e-008    1.499e-009     
  0.25            7.9059e-005     -2.6109e-008    1.2923e-009    
  0.3             8.4804e-005     -1.1897e-008    -6.289e-010    
  0.35            8.9125e-005     2.4832e-008     -1.4358e-009   
  0.4             9.2119e-005     2.7177e-008     -1.3305e-009   
  0.45            9.4234e-005     1.1122e-008     6.406e-010     
  0.5             9.5822e-005     -2.5536e-008    1.3976e-009    
  0.55            9.7625e-005     -2.2904e-008    1.259e-009     
  0.6             9.9323e-005     -1.131e-008     -7.957e-010    
  0.65            0.000101064     2.7363e-008     -1.3942e-009   
  0.7             0.000102425     2.3724e-008     -1.2927e-009   
  0.75            0.000103725     2.7934e-008     -1.383e-009    
  0.8             0.000104873     1.1312e-008     3.135e-010     
  0.85            0.000105642     -1.9261e-008    1.6598e-009    
  0.9             0.000106828     -2.6861e-008    1.322e-009     
  0.95            0.000108127     -1.1865e-008    -4.499e-010    
  1               0.000109676     2.1185e-008     -1.5179e-009   
  1.05            0.00011025      9.058e-009      1.0245e-009    
  1.1             0.000111454     -2.4584e-008    1.2781e-009    
  1.15            0.000112701     -1.1714e-008    -7.114e-010    
  1.2             0.000114168     2.6114e-008     -1.4166e-009   
  1.25            0.00011443      2.5992e-008     1.6071e-009    
  1.3             0.00011584      -1.5289e-008    1.6613e-009    
  1.35            0.00011709      -1.1464e-008    -8.263e-010    
  1.4             0.00011837      2.2785e-008     -1.4593e-009   
  1.45            0.00011944      2.6788e-008     -1.3846e-009   
  1.5             0.00012047      1.2414e-008     -1.9071e-009   
  1.55            0.000121        6.499e-009      2.0186e-009    
  1.6             0.00012193      -1.7319e-008    1.632e-010     
  1.65            0.00012363      2.313e-009      -2.542e-009    
  1.7             0.00012462      -8.49e-010      -2.1522e-009   
  1.75            0.00012487      -9.652e-009     1.8633e-009    
  1.8             0.00012595      -4.1513e-008    2.944e-010     
END_DB

BEGIN_DB
 ICCAP_VAR VG         1.44           
 ICCAP_VAR VS         0              
 ICCAP_VAR VB         0              

 #VD              ID              IB              IG             
  0               -7.7873e-008    -2.6565e-008    -8.75e-010     
  0.05            4.3191e-005     1.2503e-008     -3.788e-010    
  0.1             8.2664e-005     1.9927e-008     -1.5654e-009   
  0.15            0.00011734      1.0486e-008     2.0785e-009    
  0.2             0.00014679      -1.1829e-008    -5.354e-010    
  0.25            0.0001713       1.7946e-008     -1.6985e-009   
  0.3             0.00019084      1.1126e-008     6.577e-010     
  0.35            0.00020599      -2.0642e-008    1.5791e-009    
  0.4             0.00021827      -1.0839e-008    -8.842e-010    
  0.45            0.00022773      2.4741e-008     -1.4304e-009   
  0.5             0.00023435      9.517e-009      9.628e-010     
  0.55            0.00023982      -2.5953e-008    1.3483e-009    
  0.6             0.00024439      -2.5546e-008    1.2826e-009    
  0.65            0.00024826      -1.1739e-008    -3.462e-010    
  0.7             0.00025185      1.5231e-008     -1.9075e-009   
  0.75            0.00025422      1.0222e-008     2.0239e-009    
  0.8             0.00025672      -1.8463e-008    1.7875e-009    
  0.85            0.00025934      -1.1694e-008    -7.581e-010    
  0.9             0.00026198      2.1398e-008     -1.5103e-009   
  0.95            0.00026412      2.6693e-008     -1.3961e-009   
  1               0.00026538      9.149e-009      1.0554e-009    
  1.05            0.00026741      -2.6773e-008    1.3151e-009    
  1.1             0.00026933      -2.3218e-008    2.1456e-009    
  1.15            0.00027123      -1.194e-008     -5.044e-010    
  1.2             0.0002734       1.7301e-008     -1.7231e-009   
  1.25            0.00027506      1.1177e-008     6.301e-010     
  1.3             0.00027622      -2.0212e-008    1.6122e-009    
  1.35            0.00027827      -1.1678e-008    -8.594e-010    
  1.4             0.00028024      6.589e-009      -1.3788e-009   
  1.45            0.00028186      1.3933e-008     -1.8973e-009   
  1.5             0.00028283      8.826e-009      2.0278e-009    
  1.55            0.00028427      -1.4614e-008    1.526e-010     
  1.6             0.00028661      6.424e-009      -2.5222e-009   
  1.65            0.00028808      4.827e-009      -2.1496e-009   
  1.7             0.00028931      -2.0151e-008    -2.6971e-009   
  1.75            0.00029047      -1.0812e-008    9.614e-010     
  1.8             0.00029172      -5.637e-008     1.348e-009     
END_DB

BEGIN_DB
 ICCAP_VAR VG         1.8            
 ICCAP_VAR VS         0              
 ICCAP_VAR VB         0              

 #VD              ID              IB              IG             
  0               -9.2509e-008    -1.1672e-008    -6.518e-010    
  0.05            5.5508e-005     1.5634e-008     -7.669e-010    
  0.1             0.000108099     2.7057e-008     -1.4076e-009   
  0.15            0.00015674      8.816e-009      2.8781e-009    
  0.2             0.00020038      -1.362e-008     1.5645e-009    
  0.25            0.00023916      -1.0611e-008    -8.939e-010    
  0.3             0.00027274      2.5725e-008     -1.4317e-009   
  0.35            0.00030106      9.249e-009      9.639e-010     
  0.4             0.00032491      -2.6687e-008    1.3544e-009    
  0.45            0.00034474      -2.5403e-008    1.2866e-009    
  0.5             0.0003616       -1.0827e-008    -1.4468e-009   
  0.55            0.00037476      2.4146e-008     -1.3017e-009   
  0.6             0.00038551      1.1312e-008     5.062e-010     
  0.65            0.00039396      -1.8233e-008    1.7692e-009    
  0.7             0.00040141      -1.1551e-008    -7.633e-010    
  0.75            0.00040774      2.179e-008      -1.5035e-009   
  0.8             0.00041262      1.0418e-008     8.338e-010     
  0.85            0.00041671      -2.494e-008     1.4241e-009    
  0.9             0.00042128      -1.0051e-008    -1.0453e-009   
  0.95            0.00042489      2.809e-008      -1.3913e-009   
  1               0.00042813      2.7569e-008     -1.3404e-009   
  1.05            0.00043102      2.1662e-008     -1.7158e-009   
  1.1             0.00043365      1.1129e-008     6.246e-010     
  1.15            0.00043582      -2.013e-008     1.614e-009     
  1.2             0.0004387       -1.1252e-008    -8.599e-010    
  1.25            0.00044143      2.4421e-008     -1.4477e-009   
  1.3             0.00044324      9.738e-009      9.349e-010     
  1.35            0.00044528      -2.6574e-008    1.3699e-009    
  1.4             0.00044746      -2.6507e-008    1.2961e-009    
  1.45            0.00045045      -1.0539e-008    -1.4046e-009   
  1.5             0.00045236      1.0373e-008     -2.6243e-009   
  1.55            0.00045434      2.613e-008      -1.3822e-009   
  1.6             0.00045628      1.1504e-008     -1.8514e-009   
  1.65            0.00045827      5.767e-009      -2.7175e-009   
  1.7             0.00046021      2.037e-009      -2.4965e-009   
  1.75            0.00046208      -1.524e-009     -2.0915e-009   
  1.8             0.00046308      -1.1684e-008    1.9011e-009    
END_DB

BEGIN_DB
 ICCAP_VAR VG         0              
 ICCAP_VAR VS         0              
 ICCAP_VAR VB         -0.9           

 #VD              ID              IB              IG             
  0               -3.591e-010     -9.434e-009     -1.442e-010    
  0.05            9.439e-010      2.6655e-008     -1.5084e-009   
  0.1             -1.3788e-009    8.379e-009      -1.8142e-009   
  0.15            -2.206e-009     -1.1346e-008    -5.065e-010    
  0.2             -2.2571e-009    -1.0714e-008    -7.245e-010    
  0.25            -2.2772e-009    -9.825e-009     -8.825e-010    
  0.3             -1.638e-009     -1.2665e-008    1.7867e-009    
  0.35            1.677e-009      -8.541e-009     1.6069e-009    
  0.4             2.0214e-009     1.0495e-008     -9.1e-012      
  0.45            1.0351e-009     2.8196e-008     -1.4409e-009   
  0.5             -2.2508e-009    9.833e-009      -1.0504e-009   
  0.55            -1.7393e-009    -1.1699e-008    1.5352e-009    
  0.6             2.3968e-009     -8.405e-009     8.911e-010     
  0.65            2.3472e-009     9.409e-009      1.0433e-009    
  0.7             1.0042e-009     2.7863e-008     -1.4578e-009   
  0.75            -2.2602e-009    9.33e-009       -1.0158e-009   
  0.8             -2.1608e-009    -1.0601e-008    -1.1689e-009   
  0.85            -1.126e-009     -2.6823e-008    1.4272e-009    
  0.9             2.367e-009      -8.291e-009     1.0079e-009    
  0.95            1.8442e-009     1.1901e-008     -1.4816e-009   
  1               -2.2685e-009    8.857e-009      -9.786e-010    
  1.05            -1.6895e-009    -1.1834e-008    1.6271e-009    
  1.1             2.3909e-009     -8.493e-009     8.224e-010     
  1.15            2.3822e-009     8.925e-009      9.699e-010     
  1.2             1.8173e-009     1.2067e-008     -1.5036e-009   
  1.25            -1.3801e-009    8.507e-009      -1.8193e-009   
  1.3             -2.2069e-009    -1.1334e-008    -5.071e-010    
  1.35            -2.2597e-009    -1.039e-008     -7.259e-010    
  1.4             -1.5632e-009    -1.5813e-008    1.2541e-009    
  1.45            -2.108e-010     -1.3761e-008    2.8403e-009    
  1.5             2.2679e-009     1.0427e-008     1.1286e-009    
  1.55            1.0833e-009     2.835e-008      -1.4179e-009   
  1.6             -2.2148e-009    1.0315e-008     -1.1085e-009   
  1.65            -1.7733e-009    -1.1734e-008    1.479e-009     
  1.7             2.3893e-009     -8.116e-009     9.433e-010     
  1.75            1.7966e-009     1.2329e-008     -1.5241e-009   
  1.8             -1.4028e-009    7.743e-009      -1.7958e-009   
END_DB

BEGIN_DB
 ICCAP_VAR VG         0.36           
 ICCAP_VAR VS         0              
 ICCAP_VAR VB         -0.9           

 #VD              ID              IB              IG             
  0               6.858e-010      2.4464e-008     5.823e-010     
  0.05            -1.694e-009     -1.1875e-008    1.6133e-009    
  0.1             1.5411e-009     -8.652e-009     1.7496e-009    
  0.15            2.248e-009      1.1079e-008     3.935e-010     
  0.2             2.3348e-009     1.0554e-008     5.866e-010     
  0.25            2.3935e-009     9.622e-009      7.608e-010     
  0.3             1.6541e-009     1.6245e-008     -1.7797e-009   
  0.35            -1.6541e-009    5.132e-009      -1.6215e-009   
  0.4             -1.4586e-009    -1.9844e-008    1.2775e-009    
  0.45            -2.49e-011      -1.1963e-008    2.8871e-009    
  0.5             1.4579e-009     2.3059e-008     -1.3328e-009   
  0.55            1.057e-010      1.1292e-008     -1.2933e-009   
