! VERSION = 6.00
BEGIN_HEADER
 ICCAP_INPUTS
  VG         V  B GROUND SMU4 0.001 LIN        2    0          1.8        6    0.36      
  VS         V  E GROUND SMU3 0.1 CON        0
  VD         V  S GROUND SMU2 0.1 LIN        1    0          1.8        37   0.05      
  VB         V  C GROUND SMU1 0.1 LIN        3    0          -0.9       2    -0.9      
 ICCAP_OUTPUTS
  ID         I  S GROUND SMU2 B
  IB         I  C GROUND SMU1 B
  IG         I  B GROUND SMU4 B
END_HEADER

BEGIN_DB
 ICCAP_VAR VG         0              
 ICCAP_VAR VS         0              
 ICCAP_VAR VB         0              

 #VD              ID              IB              IG             
  0               7.666e-010      1.3026e-008     -3.884e-010    
  0.05            -4.172e-010     7.446e-009      -2.6235e-009   
  0.1             -4.0525e-009    -9.56e-009      -6.628e-010    
  0.15            2.52e-010       1.1197e-008     -2.5331e-009   
  0.2             -1.445e-010     -9.695e-009     2.7046e-009    
  0.25            6.78e-011       1.0689e-008     -2.5724e-009   
  0.3             -2.9185e-009    -1.2607e-008    1.8085e-009    
  0.35            2.29e-009       8.45e-009       1.7358e-009    
  0.4             3.159e-010      1.1574e-008     -2.5157e-009   
  0.45            -3.0732e-009    -9.637e-009     1.5124e-009    
  0.5             2.9193e-009     1.5102e-008     -1.7232e-009   
  0.55            -2.7184e-009    -1.7804e-008    2.1781e-009    
  0.6             1.0275e-009     1.6296e-008     -2.0972e-009   
  0.65            -1.0504e-009    -1.676e-008     2.3568e-009    
  0.7             8.475e-010      1.5014e-008     -2.2539e-009   
  0.75            -8.429e-010     -1.5526e-008    2.505e-009     
  0.8             6.624e-010      1.3636e-008     -2.3851e-009   
  0.85            -6.187e-010     -1.44e-008      2.6028e-009    
  0.9             4.651e-010      1.2356e-008     -2.4718e-009   
  0.95            -3.1938e-009    -8.329e-009     2.666e-009     
  1               2.831e-010      1.1461e-008     -2.527e-009    
  1.05            -3.0395e-009    -9.916e-009     1.5591e-009    
  1.1             2.8815e-009     1.5672e-008     -1.7641e-009   
  1.15            -2.6851e-009    -1.8308e-008    2.219e-009     
  1.2             9.902e-010      1.6171e-008     -2.1341e-009   
  1.25            -1.0141e-009    -1.6608e-008    2.3876e-009    
  1.3             8.246e-010      1.4735e-008     -2.2828e-009   
  1.35            -8.068e-010     -1.5468e-008    2.5295e-009    
  1.4             6.358e-010      1.3368e-008     -2.397e-009    
  1.45            -5.703e-010     -1.42e-008      2.6248e-009    
  1.5             4.468e-010      1.2135e-008     -2.4796e-009   
  1.55            -3.1628e-009    -8.504e-009     2.6746e-009    
  1.6             3.211e-009      9.964e-009      -1.4447e-009   
  1.65            -2.9161e-009    -1.2666e-008    1.8089e-009    
  1.7             2.6688e-009     2.0196e-008     -1.9801e-009   
  1.75            -1.1847e-009    -1.7108e-008    2.2516e-009    
  1.8             9.679e-010      1.5858e-008     -2.159e-009    
END_DB

BEGIN_DB
 ICCAP_VAR VG         0.36           
 ICCAP_VAR VS         0              
 ICCAP_VAR VB         0              

 #VD              ID              IB              IG             
  0               -1.7374e-009    -9.914e-009     -1.2269e-009   
  0.05            7.1939e-008     -9.589e-009     -2.3912e-009   
  0.1             8.0143e-008     7.268e-009      -2.5947e-009   
  0.15            9.2902e-008     1.6965e-008     -1.5043e-009   
  0.2             9.7147e-008     1.6731e-008     -1.4699e-009   
  0.25            1.00464e-007    1.587e-008      -1.4404e-009   
  0.3             1.02953e-007    1.5246e-008     -1.4122e-009   
  0.35            1.05691e-007    1.4436e-008     -1.3869e-009   
  0.4             9.6302e-008     -1.6786e-008    -1.055e-010    
  0.45            1.09912e-007    1.5761e-008     -1.814e-009    
  0.5             9.0781e-008     -1.408e-008     -2.4456e-009   
  0.55            9.2734e-008     -1.7094e-008    -2.6219e-009   
  0.6             9.779e-008      -1.2555e-008    2.2885e-009    
  0.65            1.059e-007      1.7069e-008     1.1297e-009    
  0.7             1.0955e-007     1.8463e-008     1.1041e-009    
  0.75            1.0518e-007     -1.6935e-008    -1.2112e-009   
  0.8             1.2615e-007     1.3287e-008     -2.1505e-009   
  0.85            1.3174e-007     1.8776e-008     -1.5615e-009   
  0.9             1.3139e-007     1.6366e-008     -1.7082e-009   
  0.95            1.3359e-007     1.5564e-008     -1.8576e-009   
  1               1.3636e-007     1.2857e-008     -1.3441e-009   
  1.05            1.385e-007      1.7282e-008     -1.433e-009    
  1.1             1.405e-007      1.6704e-008     -1.5528e-009   
  1.15            1.4269e-007     1.6265e-008     -1.6969e-009   
  1.2             1.4468e-007     1.5645e-008     -1.8456e-009   
  1.25            1.4699e-007     1.4604e-008     -1.9946e-009   
  1.3             1.4981e-007     1.5439e-008     -1.423e-009    
  1.35            1.5152e-007     1.6695e-008     -1.5504e-009   
  1.4             1.5383e-007     1.6425e-008     -1.6906e-009   
  1.45            1.558e-007      1.5599e-008     -1.844e-009    
  1.5             1.5779e-007     1.4662e-008     -1.9894e-009   
  1.55            1.6079e-007     1.525e-008      -1.4229e-009   
  1.6             1.6288e-007     1.6677e-008     -1.542e-009    
  1.65            1.6488e-007     1.6275e-008     -1.6796e-009   
  1.7             1.6681e-007     1.5666e-008     -1.8313e-009   
  1.75            1.6888e-007     1.4533e-008     -1.9795e-009   
  1.8             1.7189e-007     1.4766e-008     -1.4174e-009   
END_DB

BEGIN_DB
 ICCAP_VAR VG         0.72           
 ICCAP_VAR VS         0              
 ICCAP_VAR VB         0              

 #VD              ID              IB              IG             
  0               3.0571e-008     1.6349e-008     -2.4709e-009   
  0.05            6.9564e-005     1.591e-009      2.6152e-009    
  0.1             0.000112052     -1.2986e-008    2.4942e-009    
  0.15            0.00013779      -1.0208e-008    8.22e-011      
  0.2             0.0001506       -1.3664e-008    2.6944e-009    
  0.25            0.00015691      -7.182e-009     2.7136e-009    
  0.3             0.00016174      -7.104e-009     2.7233e-009    
  0.35            0.00016511      -7.002e-009     2.7229e-009    
  0.4             0.0001682       -7.549e-009     2.7121e-009    
  0.45            0.00017084      -7.881e-009     2.6861e-009    
  0.5             0.00017446      -1.7487e-008    1.404e-009     
  0.55            0.00017637      -1.699e-008     1.544e-009     
  0.6             0.00017936      -1.7112e-008    1.7089e-009    
  0.65            0.00018119      -1.6884e-008    1.898e-009     
  0.7             0.00018314      -1.6126e-008    2.0676e-009    
  0.75            0.00018562      -1.2209e-008    2.6785e-009    
  0.8             0.00018663      -7.617e-009     2.7072e-009    
  0.85            0.00018898      -7.357e-009     2.7198e-009    
  0.9             0.00019066      -6.804e-009     2.7266e-009    
  0.95            0.00019276      -7.287e-009     2.7231e-009    
  1               0.00019447      -7.794e-009     2.7016e-009    
  1.05            0.00019634      -8.054e-009     2.6671e-009    
  1.1             0.00019861      -1.7216e-008    1.4686e-009    
  1.15            0.00020079      -1.7162e-008    1.6208e-009    
  1.2             0.00020277      -1.7164e-008    1.7962e-009    
  1.25            0.00020388      -1.6771e-008    1.9725e-009    
  1.3             0.00020609      -1.1805e-008    2.6544e-009    
  1.35            0.00020625      -8.816e-009     2.691e-009     
  1.4             0.00020895      -2.377e-008     2.4123e-009    
  1.45            0.00021101      -2.1515e-008    1.7666e-009    
  1.5             0.0002119       -1.5526e-008    1.853e-010     
  1.55            0.00021623      -1.8028e-008    -1.4752e-009   
  1.6             0.00021553      -2.073e-008     -2.6157e-009   
  1.65            0.00021927      -5.824e-009     -1.2988e-009   
  1.7             0.00022043      -2.8872e-008    1.196e-010     
  1.75            0.0002193       -4.9677e-008    2.7193e-009    
  1.8             0.00022099      -9.662e-008     2.5841e-009    
END_DB

BEGIN_DB
 ICCAP_VAR VG         1.08           
 ICCAP_VAR VS         0              
 ICCAP_VAR VB         0              

 #VD              ID              IB              IG             
  0               5.717e-008      1.5667e-008     -2.5836e-009   
  0.05            0.00023064      -1.5743e-008    -3.028e-010    
  0.1             0.00043613      -9.522e-009     -9.418e-010    
  0.15            0.00061382      1.584e-009      -1.9121e-009   
  0.2             0.00076071      1.3901e-008     -1.3778e-009   
  0.25            0.00087771      1.6473e-008     -1.4818e-009   
  0.3             0.00096695      1.6074e-008     -1.6181e-009   
  0.35            0.00103232      1.5588e-008     -1.7691e-009   
  0.4             0.00107802      1.5071e-008     -1.9247e-009   
  0.45            0.0011083       1.3285e-008     -9.241e-010    
  0.5             0.0011331       1.5256e-008     -1.87e-009     
  0.55            0.0011495       1.4376e-008     -2.0234e-009   
  0.6             0.0011636       1.5701e-008     -1.434e-009    
  0.65            0.0011748       1.6178e-008     -1.559e-009    
  0.7             0.0011842       1.5875e-008     -1.7044e-009   
  0.75            0.0011947       1.5172e-008     -1.8673e-009   
  0.8             0.0012028       1.2822e-008     -1.3428e-009   
  0.85            0.0012107       1.6811e-008     -1.4285e-009   
  0.9             0.0012183       1.634e-008      -1.5573e-009   
  0.95            0.0012248       1.583e-008      -1.693e-009    
  1               0.0012331       1.5158e-008     -1.8581e-009   
  1.05            0.0012385       1.43e-008       -2.0098e-009   
  1.1             0.0012459       1.5499e-008     -1.429e-009    
  1.15            0.0012525       1.6252e-008     -1.5492e-009   
  1.2             0.0012579       1.578e-008      -1.695e-009    
  1.25            0.0012649       1.5221e-008     -1.851e-009    
  1.3             0.00127         1.4339e-008     -2.0042e-009   
  1.35            0.0012763       1.497e-008      -1.4221e-009   
  1.4             0.0012818       1.5337e-008     -1.5405e-009   
  1.45            0.001287        1.4175e-008     -1.6865e-009   
  1.5             0.0012934       1.1919e-008     -1.841e-009    
  1.55            0.0012975       8.144e-009      -2.0051e-009   
  1.6             0.0013029       1.71e-009       -2.1428e-009   
  1.65            0.0013083       -8.186e-009     -2.2749e-009   
  1.7             0.0013138       -1.2803e-008    -1.6787e-009   
  1.75            0.001318        -4.5537e-008    -2.4475e-009   
  1.8             0.0013233       -6.3189e-008    -1.9844e-009   
END_DB

BEGIN_DB
 ICCAP_VAR VG         1.44           
 ICCAP_VAR VS         0              
 ICCAP_VAR VB         0              

 #VD              ID              IB              IG             
  0               6.0562e-008     -7.031e-009     1.8324e-009    
  0.05            0.00032297      1.3676e-008     2.879e-010     
  0.1             0.00062972      1.3088e-008     -2.083e-009    
  0.15            0.00091865      1.2479e-008     -2.2149e-009   
  0.2             0.0011861       -1.6756e-008    -1.311e-009    
  0.25            0.0014297       1.7991e-008     -1.3753e-009   
  0.3             0.0016471       1.6895e-008     -1.4734e-009   
  0.35            0.0018369       1.622e-008      -1.5917e-009   
  0.4             0.0019996       1.5359e-008     -1.7325e-009   
  0.45            0.0021348       1.4322e-008     -1.8731e-009   
  0.5             0.0022454       1.3558e-008     -1.3721e-009   
  0.55            0.0023329       1.699e-008      -1.4628e-009   
  0.6             0.0024003       1.6264e-008     -1.5812e-009   
  0.65            0.0024523       1.5371e-008     -1.7182e-009   
  0.7             0.0024915       1.4388e-008     -1.8627e-009   
  0.75            0.0025228       1.3513e-008     -1.3628e-009   
  0.8             0.0025472       1.7035e-008     -1.4515e-009   
  0.85            0.0025677       1.6377e-008     -1.5688e-009   
  0.9             0.0025845       1.5466e-008     -1.7018e-009   
  0.95            0.0025987       1.4481e-008     -1.8494e-009   
  1               0.002612        1.3269e-008     -1.3555e-009   
  1.05            0.0026243       1.7096e-008     -1.4441e-009   
  1.1             0.0026355       1.6439e-008     -1.5629e-009   
  1.15            0.0026462       1.5682e-008     -1.6894e-009   
  1.2             0.002656        1.4597e-008     -1.8461e-009   
  1.25            0.0026664       1.3673e-008     -1.9899e-009   
  1.3             0.002675        1.291e-008      -2.1304e-009   
  1.35            0.0026848       1.1896e-008     -2.2548e-009   
  1.4             0.0026926       1.1318e-008     -2.3604e-009   
  1.45            0.0027016       1.0677e-008     -2.4479e-009   
  1.5             0.0027095       1.0126e-008     -2.5056e-009   
  1.55            0.0027175       8.144e-009      -2.5464e-009   
  1.6             0.0027254       5.298e-009      -2.5804e-009   
  1.65            0.0027328       1.784e-009      -2.6005e-009   
  1.7             0.0027402       -3.326e-009     -2.6128e-009   
  1.75            0.0027474       2.99e-009       -1.2726e-009   
  1.8             0.0027539       -2.1036e-008    1.83e-010      
END_DB

BEGIN_DB
 ICCAP_VAR VG         1.8            
 ICCAP_VAR VS         0              
 ICCAP_VAR VB         0              

 #VD              ID              IB              IG             
  0               6.1878e-008     1.494e-008      -2.54e-009     
  0.05            0.00037279      -8.238e-009     -2.0235e-009   
  0.1             0.00073531      1.0688e-008     -2.459e-009    
  0.15            0.00108656      9.869e-009      -2.5078e-009   
  0.2             0.0014232       2.761e-009      2.5648e-009    
  0.25            0.0017434       -1.7136e-008    1.804e-009     
  0.3             0.0020453       -1.6545e-008    1.9811e-009    
  0.35            0.0023262       -1.6021e-008    2.1529e-009    
  0.4             0.0025855       -1.314e-008     2.6852e-009    
  0.45            0.0028215       -7.519e-009     2.7055e-009    
  0.5             0.0030333       -6.858e-009     2.7171e-009    
  0.55            0.0032208       -7.049e-009     2.7162e-009    
  0.6             0.0033845       -7.435e-009     2.7064e-009    
  0.65            0.0035213       -7.97e-009      2.6819e-009    
  0.7             0.0036415       -1.7596e-008    1.4063e-009    
  0.75            0.0037395       -1.7095e-008    1.5443e-009    
  0.8             0.0038188       -1.7272e-008    1.7136e-009    
  0.85            0.003884        -1.6903e-008    1.8861e-009    
  0.9             0.0039362       -1.6263e-008    2.0601e-009    
  0.95            0.0039767       -1.208e-008     2.669e-009     
  1               0.0040102       -7.373e-009     2.6954e-009    
  1.05            0.0040387       -7.213e-009     2.7072e-009    
  1.1             0.0040616       -6.851e-009     2.7186e-009    
  1.15            0.0040821       -7.078e-009     2.7127e-009    
  1.2             0.0040997       -7.672e-009     2.6966e-009    
  1.25            0.0041152       -7.743e-009     2.6636e-009    
  1.3             0.0041292       -1.7293e-008    1.4603e-009    
  1.35            0.0041422       -1.7104e-008    1.6213e-009    
  1.4             0.0041547       -1.7186e-008    1.7915e-009    
  1.45            0.0041666       -1.666e-008     1.9711e-009    
  1.5             0.0041764       -1.1167e-008    2.644e-009     
  1.55            0.004187        -7.814e-009     2.6797e-009    
  1.6             0.0041966       -7.89e-009      2.7001e-009    
  1.65            0.004207        -8.153e-009     2.7149e-009    
  1.7             0.0042166       -9.058e-009     2.7162e-009    
  1.75            0.0042249       -2.3155e-008    2.6418e-009    
  1.8             0.0042335       -2.8912e-008    2.2686e-009    
END_DB

BEGIN_DB
 ICCAP_VAR VG         0              
 ICCAP_VAR VS         0              
 ICCAP_VAR VB         -0.9           

 #VD              ID              IB              IG             
  0               8.164e-010      -9.855e-009     -3.642e-010    
  0.05            -3.764e-010     7.264e-009      -2.6154e-009   
  0.1             -4.0159e-009    -9.365e-009     -7.141e-010    
  0.15            1.758e-009      -3.997e-009     2.2346e-009    
  0.2             1.4565e-009     1.7971e-008     -1.6099e-009   
  0.25            -2.7994e-009    -1.5698e-008    2.0365e-009    
  0.3             1.1481e-009     1.6414e-008     -1.9725e-009   
  0.35            -1.2064e-009    -1.6908e-008    2.232e-009     
  0.4             9.985e-010      1.5994e-008     -2.1352e-009   
  0.45            -1.0235e-009    -1.667e-008     2.391e-009     
  0.5             8.407e-010      1.5197e-008     -2.27e-009     
  0.55            -8.373e-010     -1.5938e-008    2.5061e-009    
  0.6             6.685e-010      1.4049e-008     -2.3766e-009   
  0.65            -6.518e-010     -1.4844e-008    2.5957e-009    
  0.7             4.976e-010      1.25e-008       -2.4502e-009   
  0.75            -3.2274e-009    -7.946e-009     2.6505e-009    
  0.8             3.281e-009      8.418e-009      -1.3812e-009   
  0.85            -4.0453e-009    -9.834e-009     -5.893e-010    
  0.9             1.436e-010      1.0897e-008     -2.5417e-009   
  0.95            -2.9786e-009    -1.1435e-008    1.6724e-009    
  1               2.7696e-009     1.7626e-008     -1.8553e-009   
  1.05            -1.2999e-009    -1.6841e-008    2.1123e-009    
  1.1             1.1034e-009     1.633e-008      -2.0317e-009   
  1.15            -1.0702e-009    -1.6684e-008    2.2916e-009    
  1.2             9.079e-010      1.5415e-008     -2.1894e-009   
  1.25            -9.73e-010      -1.6168e-008    2.4337e-009    
  1.3             7.894e-010      1.4761e-008     -2.3101e-009   
  1.35            -7.958e-010     -1.5305e-008    2.5406e-009    
  1.4             6.223e-010      1.3334e-008     -2.4029e-009   
  1.45            -5.931e-010     -1.3866e-008    2.6185e-009    
  1.5             4.489e-010      1.2293e-008     -2.4688e-009   
  1.55            -3.1837e-009    -8.144e-009     2.6599e-009    
  1.6             2.795e-010      1.1463e-008     -2.5149e-009   
  1.65            -2.003e-010     -1.0359e-008    2.6927e-009    
  1.7             1.077e-010      1.062e-008      -2.5486e-009   
  1.75            -2.9493e-009    -1.1542e-008    1.7116e-009    
  1.8             2.7343e-009     1.8321e-008     -1.9e-009      
END_DB

BEGIN_DB
 ICCAP_VAR VG         0.36           
 ICCAP_VAR VS         0              
 ICCAP_VAR VB         -0.9           

 #VD              ID              IB              IG             
  0               -2.235e-010     7.385e-009      6.002e-010     
  0.05            2.4573e-009     -7.621e-009     2.5108e-009    
  0.1             1.4228e-009     1.2151e-008     -2.4752e-009   
  0.15            -2.175e-009     -8.437e-009     2.6694e-009    
  0.2             4.2802e-009     9.567e-009      -1.4301e-009   
  0.25            -3.0044e-009    -9.923e-009     -5.397e-010    
  0.3             1.259e-010      -1.6671e-008    2.3117e-009    
  0.35            2.1715e-009     1.5239e-008     -2.2055e-009   
  0.4             4.341e-010      -1.6181e-008    2.4518e-009    
  0.45            2.105e-009      1.4164e-008     -2.3295e-009   
  0.5             7.312e-010      -1.5145e-008    2.5627e-009    
  0.55            2.0417e-009     1.3012e-008     -2.427e-009    
