! VERSION = 6.00
BEGIN_HEADER
 ICCAP_INPUTS
  VG         V  B GROUND SMU4 0.001 LIN        1    0          1.8        37   0.05      
  VS         V  E GROUND SMU2 0.1 CON        0
  VB         V  C GROUND SMU3 0.1 LIN        3    0          -1.8       3    -0.9      
  VD         V  S GROUND SMU1 0.1 LIN        2    0.1        1.8        2    1.7       
 ICCAP_OUTPUTS
  IG         I  B GROUND SMU4 B
  ID         I  S GROUND SMU1 B
  IB         I  C GROUND SMU3 B
END_HEADER

BEGIN_DB
 ICCAP_VAR VS         0              
 ICCAP_VAR VB         0              
 ICCAP_VAR VD         0.1            

 #VG              IG              ID              IB             
  0               -1.1261e-009    -1.0138e-009    1.1472e-008    
  0.05            -1.3895e-009    -1.1798e-009    3.26e-009      
  0.1             -4.8e-011       -1.8422e-009    -9.969e-009    
  0.15            -2.469e-010     -1.8893e-009    -9.603e-009    
  0.2             -3.944e-010     -1.8905e-009    -9.037e-009    
  0.25            1.1738e-009     -1.1149e-009    -9.724e-009    
  0.3             2.0507e-009     1.3173e-009     -1.0712e-008   
  0.35            8.174e-010      2.9942e-009     9.81e-009      
  0.4             1.0136e-009     7.654e-009      1.1333e-008    
  0.45            -1.2251e-009    2.6462e-008     -9.865e-009    
  0.5             -1.9704e-009    9.9844e-008     7.621e-009     
  0.55            3.236e-010      3.006e-007      -9.669e-009    
  0.6             6.266e-010      7.5434e-007     8.288e-009     
  0.65            -1.2507e-009    1.6266e-006     -9.365e-009    
  0.7             -1.2278e-009    2.9147e-006     5.433e-009     
  0.75            -2.091e-009     4.5899e-006     6.807e-009     
  0.8             -2.804e-010     6.5042e-006     -9.725e-009    
  0.85            -6.428e-010     8.6394e-006     -8.853e-009    
  0.9             1.191e-009      1.07322e-005    -8.811e-009    
  0.95            -1.212e-009     1.2943e-005     -3.039e-009    
  1               -1.755e-009     1.5039e-005     9.423e-009     
  1.05            1.1883e-009     1.7009e-005     -9.537e-009    
  1.1             1.3779e-009     1.8928e-005     -1.4698e-008   
  1.15            1.0925e-009     2.0762e-005     -3.199e-009    
  1.2             1.136e-009      2.2475e-005     -3.03e-009     
  1.25            1.1842e-009     2.4121e-005     -8.569e-009    
  1.3             1.5477e-009     2.5663e-005     -1.297e-008    
  1.35            1.5027e-009     2.7132e-005     1.26e-008      
  1.4             4.055e-010      2.8498e-005     8.873e-009     
  1.45            7.432e-010      2.9761e-005     8.424e-009     
  1.5             1.1865e-009     3.0977e-005     1.0728e-008    
  1.55            1.915e-010      3.2138e-005     8.101e-009     
  1.6             4.788e-010      3.3187e-005     8.562e-009     
  1.65            8.62e-010       3.4189e-005     8.759e-009     
  1.7             -1.2324e-009    3.516e-005      5.817e-009     
  1.75            -2.1409e-009    3.6052e-005     6.164e-009     
  1.8             -2.48e-010      3.6863e-005     -9.812e-009    
END_DB

BEGIN_DB
 ICCAP_VAR VS         0              
 ICCAP_VAR VB         0              
 ICCAP_VAR VD         1.8            

 #VG              IG              ID              IB             
  0               -1.1134e-009    -1.0103e-009    -1.2262e-008   
  0.05            -5.419e-010     -1.88e-009      3.864e-009     
  0.1             -7.187e-010     -1.7758e-009    -9.47e-009     
  0.15            -9.159e-010     -1.6049e-009    -9.995e-009    
  0.2             2.128e-009      1.1837e-009     -1.1851e-008   
  0.25            9.07e-010       2.217e-009      1.0795e-008    
  0.3             1.101e-009      4.7569e-009     1.1593e-008    
  0.35            -1.2218e-009    1.5426e-008     -9.789e-009    
  0.4             -1.882e-009     6.7937e-008     8.279e-009     
  0.45            -1.3941e-009    2.4275e-007     1.0223e-008    
  0.5             -7.932e-010     7.3404e-007     -9.883e-009    
  0.55            1.1815e-009     1.7354e-006     6.426e-009     
  0.6             1.1897e-009     3.5582e-006     -1.394e-008    
  0.65            1.2287e-009     6.2739e-006     -2.1367e-008   
  0.7             1.0903e-009     9.9419e-006     -9.279e-009    
  0.75            -1.2443e-009    1.464e-005      -4.973e-009    
  0.8             -2.1985e-009    1.987e-005      -1.2627e-008   
  0.85            -2.0418e-009    2.5745e-005     -2.1043e-008   
  0.9             -2.3207e-009    3.2101e-005     -2.1058e-008   
  0.95            -2.3734e-009    3.8818e-005     -1.7776e-008   
  1               -2.0742e-009    4.5832e-005     -1.9104e-008   
  1.05            -1.5422e-009    5.3068e-005     -1.9406e-008   
  1.1             -2.3807e-009    6.0362e-005     -2.3438e-008   
  1.15            -2.3448e-009    6.7827e-005     -1.8703e-008   
  1.2             -1.9662e-009    7.5412e-005     -2.0871e-008   
  1.25            -1.4453e-009    8.3053e-005     -1.9084e-008   
  1.3             -2.3756e-009    9.0638e-005     -2.2653e-008   
  1.35            -2.3021e-009    9.8306e-005     -1.8158e-008   
  1.4             -1.9156e-009    0.000106        -2.5476e-008   
  1.45            -2.26e-009      0.000113673     -2.4188e-008   
  1.5             -1.3089e-009    0.00012148      -2.5087e-008   
  1.55            -2.3916e-009    0.00012905      -1.8781e-008   
  1.6             -2.1088e-009    0.00013674      -1.7584e-008   
  1.65            -2.1111e-009    0.00014432      -2.288e-008    
  1.7             -2.3519e-009    0.00015192      -2.0779e-008   
  1.75            -2.3587e-009    0.00015943      -1.5722e-008   
  1.8             -1.8069e-009    0.00016692      -2.231e-008    
END_DB

BEGIN_DB
 ICCAP_VAR VS         0              
 ICCAP_VAR VB         -0.9           
 ICCAP_VAR VD         0.1            

 #VG              IG              ID              IB             
  0               1.1989e-009     1.0404e-009     -1.0043e-008   
  0.05            1.7353e-009     9.217e-010      -5.496e-009    
  0.1             -1.2369e-009    9.111e-010      8.228e-009     
  0.15            -1.0727e-009    -1.5115e-009    5.604e-009     
  0.2             1.1017e-009     -1.6614e-009    -9.054e-009    
  0.25            1.7336e-009     9.238e-010      -5.834e-009    
  0.3             -1.2374e-009    9.196e-010      8.171e-009     
  0.35            -8.21e-011      -1.8075e-009    5.599e-009     
  0.4             1.1317e-009     -6.262e-010     -1.4927e-008   
  0.45            1.1558e-009     2.2439e-009     -7.629e-009    
  0.5             1.1815e-009     9.1743e-009     -9.47e-009     
  0.55            -1.25e-009      3.8785e-008     -1.0964e-008   
  0.6             -1.2394e-009    1.3385e-007     -2.769e-009    
  0.65            -1.2137e-009    3.9494e-007     5.227e-009     
  0.7             -1.7627e-009    9.3465e-007     9.305e-009     
  0.75            -2.0031e-009    1.8755e-006     -1.2506e-008   
  0.8             -1.0093e-009    3.2804e-006     -1.0304e-008   
  0.85            1.5474e-009     4.9938e-006     -1.2827e-008   
  0.9             1.4909e-009     7.0111e-006     1.2045e-008    
  0.95            3.975e-010      9.145e-006      8.664e-009     
  1               7.266e-010      1.12921e-005    8.771e-009     
  1.05            -1.8444e-009    1.3486e-005     1.0623e-008    
  1.1             -3.936e-010     1.5563e-005     -9.447e-009    
  1.15            -8.257e-010     1.7549e-005     -9.248e-009    
  1.2             1.1077e-009     1.9373e-005     -8.857e-009    
  1.25            1.1823e-009     2.1141e-005     -6.261e-009    
  1.3             1.1887e-009     2.2825e-005     -1.0886e-008   
  1.35            1.1003e-009     2.4387e-005     -3.295e-009    
  1.4             1.1294e-009     2.5852e-005     -2.688e-009    
  1.45            1.1873e-009     2.7251e-005     -7.632e-009    
  1.5             1.6363e-009     2.8544e-005     -1.2187e-008   
  1.55            1.4251e-009     2.9766e-005     1.1665e-008    
  1.6             3.626e-010      3.091e-005      9.085e-009     
  1.65            6.489e-010      3.1966e-005     8.319e-009     
  1.7             1.0812e-009     3.2966e-005     9.851e-009     
  1.75            1.4991e-009     3.3917e-005     1.2631e-008    
  1.8             3.921e-010      3.4792e-005     8.924e-009     
END_DB

BEGIN_DB
 ICCAP_VAR VS         0              
 ICCAP_VAR VB         -0.9           
 ICCAP_VAR VD         1.8            

 #VG              IG              ID              IB             
  0               1.106e-009      9.631e-010      -9.735e-009    
  0.05            1.7314e-009     9.378e-010      -5.595e-009    
  0.1             -1.2378e-009    9.19e-010       8.102e-009     
  0.15            -1.0628e-009    -1.5093e-009    5.604e-009     
  0.2             1.1032e-009     -1.61e-009      -9.147e-009    
  0.25            2.3841e-009     1.1739e-009     -5.558e-009    
  0.3             4.149e-010      2.488e-009      8.022e-009     
  0.35            5.429e-010      4.7885e-009     9.072e-009     
  0.4             -2.3833e-009    1.3098e-008     -1.7207e-008   
  0.45            -6.003e-010     6.0034e-008     -8.958e-009    
  0.5             -1.9634e-009    2.274e-007      7.799e-009     
  0.55            -3.504e-010     6.8599e-007     -1.0436e-008   
  0.6             1.6652e-009     1.6847e-006     5.035e-009     
  0.65            5.336e-010      3.4273e-006     5.209e-009     
  0.7             -2.0632e-009    6.1862e-006     2.502e-009     
  0.75            -1.2594e-009    9.8366e-006     -1.6274e-008   
  0.8             2.344e-009      1.4311e-005     -1.6712e-008   
  0.85            1.8166e-009     1.9585e-005     3.652e-009     
  0.9             -2.3406e-009    2.5462e-005     -1.8972e-008   
  0.95            -2.3739e-009    3.1797e-005     -1.5655e-008   
  1               -1.7811e-009    3.8511e-005     -2.3377e-008   
  1.05            -2.1668e-009    4.5514e-005     -2.3117e-008   
  1.1             -2.3669e-009    5.2705e-005     -2.1911e-008   
  1.15            -2.3496e-009    6.0019e-005     -1.7802e-008   
  1.2             -1.8677e-009    6.75e-005       -2.5767e-008   
  1.25            -2.222e-009     7.5006e-005     -2.4491e-008   
  1.3             -2.3887e-009    8.2593e-005     -2.1637e-008   
  1.35            -2.2924e-009    9.02e-005       -1.8381e-008   
  1.4             -1.9454e-009    9.7835e-005     -2.4916e-008   
  1.45            -2.2638e-009    0.000105425     -2.3566e-008   
  1.5             -2.4059e-009    0.000113045     -1.972e-008    
  1.55            -1.3299e-009    0.00012078      -2.4366e-008   
  1.6             -2.4098e-009    0.00012829      -1.8617e-008   
  1.65            -2.1808e-009    0.00013592      -1.73e-008     
  1.7             -2.0485e-009    0.00014342      -2.2118e-008   
  1.75            -2.3115e-009    0.00015094      -2.0342e-008   
  1.8             -2.3796e-009    0.00015843      -1.5738e-008   
END_DB

BEGIN_DB
 ICCAP_VAR VS         0              
 ICCAP_VAR VB         -1.8           
 ICCAP_VAR VD         0.1            

 #VG              IG              ID              IB             
  0               -1.234e-009     -1.0858e-009    -2.802e-009    
  0.05            -1.102e-009     -1.5014e-009    5.823e-009     
  0.1             1.1062e-009     -1.6704e-009    -9.086e-009    
  0.15            1.748e-009      9.248e-010      -5.916e-009    
  0.2             -1.237e-009     9.146e-010      8.177e-009     
  0.25            -1.0785e-009    -1.5171e-009    5.751e-009     
  0.3             1.1024e-009     -1.651e-009     -9.087e-009    
  0.35            1.7282e-009     9.506e-010      -5.786e-009    
  0.4             4.773e-010      1.9593e-009     8.258e-009     
  0.45            5.518e-010      2.5077e-009     8.46e-009      
  0.5             7.016e-010      5.1374e-009     9.152e-009     
  0.55            -1.2299e-009    1.4767e-008     -9.65e-009     
  0.6             -2.0954e-009    6.3313e-008     6.812e-009     
  0.65            2.536e-010      2.0089e-007     -8.648e-009    
  0.7             5.232e-010      5.3557e-007     8.29e-009      
  0.75            -1.2377e-009    1.215e-006      -9.913e-009    
  0.8             -2.2138e-009    2.3134e-006     5.588e-009     
  0.85            -1.1286e-009    3.8398e-006     -1.0872e-008   
  0.9             4.67e-011       5.6286e-006     -9.196e-009    
  0.95            -3.653e-010     7.7176e-006     -9.512e-009    
  1               1.1888e-009     9.8227e-006     -1.0189e-008   
  1.05            1.046e-010      1.2055e-005     -1.0406e-008   
  1.1             3.978e-010      1.4145e-005     8.564e-009     
  1.15            7.245e-010      1.6142e-005     8.469e-009     
  1.2             1.1645e-009     1.8084e-005     1.0584e-008    
  1.25            1.707e-010      1.9949e-005     7.947e-009     
  1.3             4.629e-010      2.1649e-005     8.676e-009     
  1.35            8.017e-010      2.3249e-005     8.728e-009     
  1.4             1.2404e-009     2.4772e-005     1.1211e-008    
  1.45            2.275e-010      2.6227e-005     8.48e-009      
  1.5             5.034e-010      2.7541e-005     8.367e-009     
  1.55            8.767e-010      2.8773e-005     8.972e-009     
  1.6             1.3259e-009     2.995e-005      1.17e-008      
  1.65            2.359e-010      3.1065e-005     8.777e-009     
  1.7             5.654e-010      3.2071e-005     8.293e-009     
  1.75            9.694e-010      3.3019e-005     9.374e-009     
  1.8             1.3883e-009     3.3936e-005     1.1906e-008    
END_DB

BEGIN_DB
 ICCAP_VAR VS         0              
 ICCAP_VAR VB         -1.8           
 ICCAP_VAR VD         1.8            

 #VG              IG              ID              IB             
  0               -1.1961e-009    1.252e-010      7.321e-009     
  0.05            -1.9551e-009    1.3e-009        9.815e-009     
  0.1             1.2037e-009     2.0864e-009     -1.2093e-008   
  0.15            2.1429e-009     2.1962e-009     -3.997e-009    
  0.2             9.562e-010      2.6332e-009     9.677e-009     
  0.25            1.1226e-009     2.4721e-009     1.0622e-008    
  0.3             1.3125e-009     2.5464e-009     1.1781e-008    
  0.35            -1.2328e-009    2.4185e-009     4.17e-009      
  0.4             -1.2239e-009    8.4872e-009     5.464e-009     
  0.45            1.2436e-009     3.3731e-008     8.055e-009     
  0.5             2.0361e-009     1.3382e-007     -1.0281e-008   
  0.55            1.141e-009      4.3032e-007     8.182e-009     
  0.6             -1.8247e-009    1.191e-006      -1.2243e-008   
  0.65            -2.2643e-009    2.5915e-006     -1.2667e-008   
  0.7             -1.3437e-009    4.9162e-006     -1.5439e-008   
  0.75            -1.625e-009     8.1348e-006     -1.7785e-008   
  0.8             1.7764e-009     1.2286e-005     -1.836e-008    
  0.85            1.2278e-009     1.7229e-005     -1.0664e-008   
  0.9             1.0917e-009     2.2846e-005     -1.4348e-008   
  0.95            1.157e-009      2.8983e-005     -1.6521e-008   
  1               1.1843e-009     3.5591e-005     -2.312e-008    
  1.05            1.4458e-009     4.2466e-005     -2.8605e-008   
  1.1             1.1026e-009     4.9626e-005     -1.8675e-008   
  1.15            1.1282e-009     5.6862e-005     -1.8418e-008   
  1.2             1.1857e-009     6.4278e-005     -2.3336e-008   
  1.25            1.1759e-009     7.1826e-005     -2.7681e-008   
  1.3             1.1853e-009     7.937e-005      -3.3887e-008   
  1.35            1.0999e-009     8.6998e-005     -1.8982e-008   
  1.4             1.1672e-009     9.4562e-005     -2.0696e-008   
  1.45            1.1801e-009     0.000102205     -2.5632e-008   
  1.5             1.3634e-009     0.000109873     -3.0106e-008   
  1.55            1.5871e-009     0.00011757      -8.489e-009    
  1.6             1.125e-009      0.00012517      -1.7694e-008   
  1.65            1.1124e-009     0.00013275      -1.6964e-008   
  1.7             1.1796e-009     0.00014027      -2.0015e-008   
  1.75            1.1856e-009     0.00014781      -2.3936e-008   
  1.8             1.2532e-009     0.00015529      -2.916e-008    
END_DB

