! VERSION = 6.00
BEGIN_HEADER
 ICCAP_INPUTS
  VG         V  B GROUND SMU4 0.001 LIN        1    0          1.8        37   0.05      
  VS         V  E GROUND SMU2 0.1 CON        0
  VB         V  C GROUND SMU3 0.1 LIN        3    0          -1.8       3    -0.9      
  VD         V  S GROUND SMU1 0.1 LIN        2    0.1        1.8        2    1.7       
 ICCAP_OUTPUTS
  IG         I  B GROUND SMU4 B
  ID         I  S GROUND SMU1 B
  IB         I  C GROUND SMU3 B
END_HEADER

BEGIN_DB
 ICCAP_VAR VS         0              
 ICCAP_VAR VB         0              
 ICCAP_VAR VD         0.1            

 #VG              IG              ID              IB             
  0               1.2957e-009     1.3116e-009     -1.1605e-008   
  0.05            2.9115e-009     -2.46e-011      -1.1617e-008   
  0.1             -1.3473e-009    1.4108e-009     2.3527e-008    
  0.15            -2.7367e-009    8.86e-011       1.1743e-008    
  0.2             1.2933e-009     -1.3487e-009    -2.0114e-008   
  0.25            2.3102e-009     1.7212e-009     -1.194e-008    
  0.3             1.013e-009      4.8885e-009     9.068e-009     
  0.35            -1.3279e-009    1.0871e-008     -1.1833e-008   
  0.4             -2.5052e-009    5.1711e-008     1.1728e-008    
  0.45            6.229e-010      2.1594e-007     -1.2794e-008   
  0.5             1.0065e-009     8.421e-007      9.317e-009     
  0.55            -2.6901e-009    3.1099e-006     -2.3511e-008   
  0.6             -2.2017e-009    9.603e-006      8.91e-010      
  0.65            1.4016e-009     2.3716e-005     8.48e-010      
  0.7             1.2822e-009     4.8743e-005     -8.482e-009    
  0.75            2.7446e-009     8.4847e-005     -1.2709e-008   
  0.8             2.4906e-009     0.00013114      1.1428e-008    
  0.85            4.737e-010      0.00018305      1.1338e-008    
  0.9             -1.2922e-009    0.000237        2.3391e-008    
  0.95            -2.2804e-009    0.00029151      1.2594e-008    
  1               -1.6358e-009    0.00034451      2.412e-009     
  1.05            -1.3989e-009    0.00039614      5.909e-009     
  1.1             -1.3193e-009    0.00044556      1.0932e-008    
  1.15            -2.4567e-009    0.00049239      1.1856e-008    
  1.2             -1.7839e-009    0.00053616      1.788e-009     
  1.25            -1.4303e-009    0.00057776      4.598e-009     
  1.3             -1.3434e-009    0.0006168       9.848e-009     
  1.35            -2.5933e-009    0.0006534       1.1539e-008    
  1.4             -1.9613e-009    0.00068697      9.9e-010       
  1.45            -1.4821e-009    0.00071864      3.489e-009     
  1.5             -1.3641e-009    0.00074836      8.386e-009     
  1.55            -2.6936e-009    0.00077616      1.1734e-008    
  1.6             -2.1806e-009    0.00080138      9.79e-010      
  1.65            -1.5811e-009    0.00082527      2.61e-009      
  1.7             -1.3864e-009    0.00084757      6.715e-009     
  1.75            -1.3052e-009    0.00086822      1.1185e-008    
  1.8             -2.3768e-009    0.00088744      1.2126e-008    
END_DB

BEGIN_DB
 ICCAP_VAR VS         0              
 ICCAP_VAR VB         0              
 ICCAP_VAR VD         1.8            

 #VG              IG              ID              IB             
  0               1.637e-010      3.79e-010       1.3146e-008    
  0.05            1.5676e-009     -1.003e-009     -2.5659e-008   
  0.1             1.8004e-009     1.5007e-009     -8.373e-009    
  0.15            4.6e-010        2.4323e-009     1.0891e-008    
  0.2             6.674e-010      3.1322e-009     1.017e-008     
  0.25            -1.3034e-009    5.2852e-009     1.8216e-008    
  0.3             1.2577e-009     1.7726e-008     1.1142e-008    
  0.35            2.619e-009      7.6648e-008     -1.3613e-008   
  0.4             2.8836e-009     3.323e-007      -1.1782e-008   
  0.45            1.7552e-009     1.3475e-006     8.911e-009     
  0.5             -2.6251e-009    5.2168e-006     5.418e-009     
  0.55            1.3837e-009     1.5301e-005     -2.4894e-008   
  0.6             1.2722e-009     3.8745e-005     -4.0684e-008   
  0.65            2.6927e-009     8.1896e-005     -7.0936e-008   
  0.7             2.3291e-009     0.00014892      -8.9398e-008   
  0.75            -2.0439e-009    0.00024019      -1.131e-007    
  0.8             -1.5113e-009    0.00035293      -1.5563e-007   
  0.85            -1.3691e-009    0.00048184      -1.813e-007    
  0.9             -2.7001e-009    0.00062409      -2.036e-007    
  0.95            -2.2276e-009    0.00077404      -2.3563e-007   
  1               -1.6176e-009    0.00093367      -2.5028e-007   
  1.05            -1.3901e-009    0.00109862      -2.5772e-007   
  1.1             1.8464e-009     0.0012651       -2.4395e-007   
  1.15            1.3827e-009     0.0014354       -2.8403e-007   
  1.2             1.2748e-009     0.0016086       -2.8464e-007   
  1.25            2.7056e-009     0.0017832       -2.8745e-007   
  1.3             2.0209e-009     0.0019595       -2.7264e-007   
  1.35            1.4533e-009     0.0021348       -2.7273e-007   
  1.4             1.2961e-009     0.0023101       -2.6613e-007   
  1.45            2.8167e-009     0.0024838       -2.6086e-007   
  1.5             2.2231e-009     0.0026606       -2.4241e-007   
  1.55            1.556e-009      0.0028346       -2.3797e-007   
  1.6             1.3197e-009     0.0030076       -2.3065e-007   
  1.65            2.8827e-009     0.0031786       -2.2183e-007   
  1.7             2.4151e-009     0.0033511       -2.0318e-007   
  1.75            1.6974e-009     0.0035206       -1.9692e-007   
  1.8             1.3525e-009     0.0036897       -1.9174e-007   
END_DB

BEGIN_DB
 ICCAP_VAR VS         0              
 ICCAP_VAR VB         -0.9           
 ICCAP_VAR VD         0.1            

 #VG              IG              ID              IB             
  0               5.651e-010      6.761e-010      2.5304e-008    
  0.05            2.3839e-009     -6.483e-010     -1.6956e-008   
  0.1             1.2711e-009     2.1523e-009     -4.882e-009    
  0.15            -1.3815e-009    1.2135e-009     2.7708e-008    
  0.2             -1.2563e-009    -2.1098e-009    1.1251e-008    
  0.25            1.3809e-009     -1.2001e-009    -2.6707e-008   
  0.3             1.0859e-009     2.3863e-009     -8.539e-009    
  0.35            -1.4323e-009    1.3007e-009     2.8034e-008    
  0.4             -1.3842e-009    9.841e-010      9.651e-009     
  0.45            -1.3549e-009    5.9582e-009     1.1171e-008    
  0.5             2.9081e-009     2.9003e-008     1.1374e-008    
  0.55            1.8255e-009     1.3006e-007     2.211e-009     
  0.6             1.3803e-009     5.6553e-007     -8.656e-009    
  0.65            2.7812e-009     2.2313e-006     2.6065e-008    
  0.7             1.9426e-009     7.2686e-006     1.0535e-008    
  0.75            -2.6766e-009    1.9725e-005     1.1219e-008    
  0.8             -9.244e-010     4.2775e-005     -1.0522e-008   
  0.85            1.4599e-009     7.6531e-005     -1.2343e-008   
  0.9             1.7296e-009     0.00012103      -8.471e-009    
  0.95            1.3577e-009     0.00017175      -8.666e-009    
  1               1.2639e-009     0.00022514      -8.584e-009    
  1.05            2.6216e-009     0.0002796       -1.3656e-008   
  1.1             1.8922e-009     0.00033368      -2.906e-009    
  1.15            1.4092e-009     0.00038517      -8.348e-009    
  1.2             1.2864e-009     0.00043424      -8.467e-009    
  1.25            2.7696e-009     0.00048058      -1.2058e-008   
  1.3             5.798e-010      0.00052547      1.1285e-008    
  1.35            -1.6729e-009    0.0005665       2.0589e-008    
  1.4             -1.3992e-009    0.00060472      5.612e-009     
  1.45            -1.3239e-009    0.00064045      1.0555e-008    
  1.5             -2.4799e-009    0.00067391      1.167e-008     
  1.55            -1.8236e-009    0.00070427      1.677e-009     
  1.6             -1.4343e-009    0.0007331       4.636e-009     
  1.65            -1.3489e-009    0.00075986      9.464e-009     
  1.7             -2.6094e-009    0.00078473      1.1305e-008    
  1.75            -2.0003e-009    0.00080735      8.5e-010       
  1.8             -1.4967e-009    0.00082872      3.34e-009      
END_DB

BEGIN_DB
 ICCAP_VAR VS         0              
 ICCAP_VAR VB         -0.9           
 ICCAP_VAR VD         1.8            

 #VG              IG              ID              IB             
  0               -2.3461e-009    -2.2756e-009    1.6569e-008    
  0.05            -1.2494e-009    -2.1221e-009    1.935e-009     
  0.1             -1.4287e-009    -1.9223e-009    -1.1652e-008   
  0.15            1.3239e-009     -1.3422e-009    -2.4237e-008   
  0.2             1.2239e-009     2.2411e-009     -9.422e-009    
  0.25            -1.391e-009     1.398e-009      2.8004e-008    
  0.3             -1.3566e-009    9.553e-010      1.1015e-008    
  0.35            -1.3206e-009    5.4124e-009     1.1472e-008    
  0.4             1.2784e-009     2.598e-008      1.1017e-008    
  0.45            -5.928e-010     1.1964e-007     1.0977e-008    
  0.5             -1e-009         5.6235e-007     -1.093e-008    
  0.55            2.8556e-009     2.2355e-006     6.178e-009     
  0.6             2.3305e-009     7.9605e-006     -9.283e-009    
  0.65            -2.1314e-009    2.3753e-005     -1.7599e-008   
  0.7             -1.5554e-009    5.5666e-005     -3.7885e-008   
  0.75            -1.3761e-009    0.000110498     -6.0958e-008   
  0.8             -7.6e-010       0.00018862      -1.00061e-007  
  0.85            -1.591e-009     0.00029194      -1.1455e-007   
  0.9             -1.3791e-009    0.00041284      -1.5692e-007   
  0.95            -1.2984e-009    0.00054976      -1.7992e-007   
  1               -2.3619e-009    0.00069834      -2.0142e-007   
  1.05            -1.7114e-009    0.00085367      -2.2922e-007   
  1.1             -1.409e-009     0.00101646      -2.3825e-007   
  1.15            -2.292e-010     0.001182        -2.6513e-007   
  1.2             -7.74e-010      0.0013526       -2.6934e-007   
  1.25            -1.1333e-009    0.0015283       -2.6903e-007   
  1.3             -1.5554e-009    0.0017036       -2.6923e-007   
  1.35            -1.8878e-009    0.0018756       -2.6729e-007   
  1.4             -2.1716e-009    0.0020496       -2.6021e-007   
  1.45            -2.5306e-009    0.0022244       -2.5294e-007   
  1.5             -2.7203e-009    0.0023988       -2.4459e-007   
  1.55            -2.6654e-009    0.0025726       -2.3068e-007   
  1.6             -2.1564e-009    0.0027472       -2.205e-007    
  1.65            -1.5741e-009    0.0029198       -2.097e-007    
  1.7             -1.3809e-009    0.0030917       -1.9601e-007   
  1.75            -1.2992e-009    0.0032624       -1.8246e-007   
  1.8             -2.3523e-009    0.0034323       -1.7223e-007   
END_DB

BEGIN_DB
 ICCAP_VAR VS         0              
 ICCAP_VAR VB         -1.8           
 ICCAP_VAR VD         0.1            

 #VG              IG              ID              IB             
  0               -5.874e-010     -7.101e-010     -2.2336e-008   
  0.05            -2.1916e-009    5.541e-010      1.5847e-008    
  0.1             -1.3482e-009    -2.007e-009     2.3e-009       
  0.15            1.3554e-009     -1.287e-009     -2.4986e-008   
  0.2             1.1576e-009     2.2633e-009     -9.018e-009    
  0.25            -1.996e-010     1.9465e-009     1.1172e-008    
  0.3             -1.5727e-009    9.091e-010      2.545e-008     
  0.35            -8.932e-010     -2.2458e-009    7.104e-009     
  0.4             1.7957e-009     -1.4718e-009    -1.2816e-008   
  0.45            2.5231e-009     2.0036e-009     -8.747e-009    
  0.5             2.675e-010      6.7743e-009     1.1358e-008    
  0.55            -1.874e-009     2.1631e-008     -1.7192e-008   
  0.6             -1.454e-009     1.08757e-007    4.131e-009     
  0.65            1.3792e-009     4.6755e-007     -2.2871e-008   
  0.7             -1.3621e-009    1.9707e-006     -1.188e-008    
  0.75            -2.6749e-009    6.6905e-006     1.1597e-008    
  0.8             1.6464e-009     1.7465e-005     -2.2612e-008   
  0.85            5.739e-010      3.9734e-005     1.1289e-008    
  0.9             9.604e-010      7.2414e-005     9.419e-009     
  0.95            1.6545e-009     0.00011521      1.86e-008      
  1               5.888e-010      0.00016689      1.1337e-008    
  1.05            9.73e-010       0.00021953      9.542e-009     
  1.1             -1.82e-010      0.00027461      1.2066e-008    
  1.15            -1.4208e-009    0.00032847      2.5427e-008    
  1.2             -1.3319e-009    0.00037995      1.0026e-008    
  1.25            -2.5371e-009    0.00042916      1.147e-008     
  1.3             -1.9062e-009    0.00047491      1.419e-009     
  1.35            -1.4605e-009    0.00051854      4.16e-009      
  1.4             -1.3515e-009    0.00055918      9.113e-009     
  1.45            -2.6358e-009    0.00059729      1.1292e-008    
  1.5             -2.0763e-009    0.00063214      6.51e-010      
  1.55            -1.5316e-009    0.00066506      3.121e-009     
  1.6             -1.3721e-009    0.00069575      7.685e-009     
  1.65            -2.6991e-009    0.00072419      1.1556e-008    
  1.7             -2.2551e-009    0.00075002      5.11e-010      
  1.75            -1.6365e-009    0.00077453      2.302e-009     
  1.8             -1.3935e-009    0.0007972       6.355e-009     
END_DB

BEGIN_DB
 ICCAP_VAR VS         0              
 ICCAP_VAR VB         -1.8           
 ICCAP_VAR VD         1.8            

 #VG              IG              ID              IB             
  0               1.291e-009      1.3122e-009     -1.1876e-008   
  0.05            2.8937e-009     -5.49e-011      -1.203e-008    
  0.1             -1.3382e-009    1.4423e-009     2.2474e-008    
  0.15            -2.7073e-009    8.94e-011       1.1281e-008    
  0.2             -5.86e-011      -2.0729e-009    -1.1752e-008   
  0.25            -2.985e-010     -2.1151e-009    -1.2047e-008   
  0.3             -5.382e-010     -1.9338e-009    -1.1379e-008   
  0.35            2.7961e-009     2.3291e-009     -1.0344e-008   
  0.4             2.348e-010      9.4531e-009     1.143e-008     
  0.45            2.7736e-009     3.6609e-008     1.0884e-008    
  0.5             1.4816e-009     1.7063e-007     4.303e-009     
  0.55            1.3012e-009     7.6776e-007     -9.354e-009    
  0.6             1.4432e-009     3.0471e-006     3.96e-009      
  0.65            -1.3292e-009    1.08842e-005    -2.89e-010     
  0.7             -1.254e-010     2.981e-005      -3.2848e-008   
  0.75            3.285e-010      6.7464e-005     -3.4689e-008   
  0.8             1.6264e-009     0.0001261       -5.5622e-008   
  0.85            2.6898e-009     0.00021321      -1.1903e-007   
  0.9             2.8997e-009     0.00032024      -1.3533e-007   
  0.95            2.6508e-009     0.00044556      -1.684e-007    
  1               1.9586e-009     0.00058435      -1.9542e-007   
  1.05            1.4417e-009     0.0007345       -2.2199e-007   
  1.1             1.2968e-009     0.00089242      -2.3804e-007   
  1.15            2.7761e-009     0.00105508      -2.5278e-007   
  1.2             -1.3794e-009    0.0012298       -2.7263e-007   
  1.25            -2.7031e-009    0.0014004       -2.4142e-007   
  1.3             -2.2634e-009    0.0015716       -2.5305e-007   
  1.35            -1.6484e-009    0.0017458       -2.5039e-007   
  1.4             -1.3966e-009    0.0019201       -2.4298e-007   
  1.45            -1.3184e-009    0.0020944       -2.3306e-007   
  1.5             -2.4287e-009    0.0022692       -2.2568e-007   
  1.55            -1.7827e-009    0.0024417       -2.2851e-007   
  1.6             -1.4264e-009    0.002615        -2.1718e-007   
  1.65            -1.339e-009     0.0027876       -2.0362e-007   
  1.7             -2.5445e-009    0.0029596       -1.9337e-007   
  1.75            -1.9308e-009    0.0031289       -1.947e-007    
  1.8             -1.4737e-009    0.0032981       -1.8285e-007   
END_DB

