! VERSION = 6.00
BEGIN_HEADER
 ICCAP_INPUTS
  VG         V  B GROUND SMU4 0.001 LIN        1    0          1.8        37   0.05      
  VS         V  E GROUND SMU3 0.1 CON        0
  VB         V  C GROUND SMU1 0.1 LIN        3    0          -1.8       3    -0.9      
  VD         V  S GROUND SMU2 0.1 LIN        2    0.1        1.8        2    1.7       
 ICCAP_OUTPUTS
  IG         I  B GROUND SMU4 B
  ID         I  S GROUND SMU2 B
  IB         I  C GROUND SMU1 B
END_HEADER

BEGIN_DB
 ICCAP_VAR VS         0              
 ICCAP_VAR VB         0              
 ICCAP_VAR VD         0.1            

 #VG              IG              ID              IB             
  0               -2.3289e-009    -3.9244e-009    -1.1212e-008   
  0.05            2.574e-009      -7.621e-010     -1.508e-008    
  0.1             -2.4317e-009    5.969e-010      1.2942e-008    
  0.15            2.6516e-009     -5.479e-010     -1.3953e-008   
  0.2             -2.5009e-009    4.581e-010      1.1847e-008    
  0.25            2.6923e-009     -2.9602e-009    -8.645e-009    
  0.3             -2.5407e-009    1.0604e-009     1.1187e-008    
  0.35            2.7169e-009     3.7288e-009     -9.659e-009    
  0.4             -2.4477e-009    1.6555e-008     -9.759e-009    
  0.45            2.1233e-009     7.3014e-008     -1.5985e-008   
  0.5             -2.177e-010     2.8672e-007     7.449e-009     
  0.55            2.0038e-009     9.3992e-007     -1.6451e-008   
  0.6             -2.0554e-009    2.5763e-006     -1.0904e-008   
  0.65            1.696e-009      5.706e-006      -1.7048e-008   
  0.7             -2.3546e-009    1.09037e-005    1.1904e-008    
  0.75            -9.599e-010     1.7768e-005     1.6821e-008    
  0.8             2.7181e-009     2.5956e-005     -7.158e-009    
  0.85            -1.502e-010     3.5504e-005     9.517e-009     
  0.9             -2.353e-009     4.5224e-005     1.1977e-008    
  0.95            1.9147e-009     5.4785e-005     -1.6462e-008   
  1               -2.4449e-009    6.4733e-005     1.1077e-008    
  1.05            2.1228e-009     7.3833e-005     -1.5935e-008   
  1.1             -1.4867e-009    8.3073e-005     1.7332e-008    
  1.15            2.4621e-009     9.131e-005      -1.3547e-008   
  1.2             -1.6439e-009    9.9661e-005     1.5988e-008    
  1.25            -8.732e-010     0.000107218     -9.693e-009    
  1.3             2.6024e-009     0.00011421      1.1494e-008    
  1.35            -1.7078e-009    0.00012104      1.5981e-008    
  1.4             -8.469e-010     0.00012731      -9.686e-009    
  1.45            2.709e-009      0.00013317      -7.433e-009    
  1.5             -1.3321e-009    0.00013893      1.3058e-008    
  1.55            2.2559e-009     0.00014389      -1.5503e-008   
  1.6             -1.6046e-009    0.00014899      2.0137e-008    
  1.65            2.5508e-009     0.00015337      -1.2353e-008   
  1.7             -1.7762e-009    0.00015777      1.5646e-008    
  1.75            2.6845e-009     0.00016183      -1.2224e-008   
  1.8             -2.135e-009     0.00016554      1.3571e-008    
END_DB

BEGIN_DB
 ICCAP_VAR VS         0              
 ICCAP_VAR VB         0              
 ICCAP_VAR VD         1.8            

 #VG              IG              ID              IB             
  0               2.69e-010       -1.1166e-009    -1.5872e-008   
  0.05            2.6996e-009     2.124e-010      -7.416e-009    
  0.1             -1.9988e-009    1.147e-009      1.6045e-008    
  0.15            2.2615e-009     -1.1829e-009    -1.64e-008     
  0.2             -2.1533e-009    1.122e-009      1.559e-008     
  0.25            2.4141e-009     -4.876e-010     -1.6415e-008   
  0.3             -2.2863e-009    3.3809e-009     1.4754e-008    
  0.35            2.5165e-009     1.3692e-008     1.3254e-008    
  0.4             7.757e-010      5.7182e-008     9.155e-009     
  0.45            3.525e-010      2.3376e-007     -7.888e-009    
  0.5             -1.6263e-009    8.8809e-007     1.5424e-008    
  0.55            1.7264e-009     2.6767e-006     5.739e-009     
  0.6             -1.7239e-009    7.108e-006      1.0527e-008    
  0.65            -1.941e-010     1.479e-005      1.573e-009     
  0.7             2.0397e-009     2.6941e-005     -3.1219e-008   
  0.75            2.0873e-009     4.3856e-005     -1.2537e-008   
  0.8             2.363e-010      6.5387e-005     -1.6836e-008   
  0.85            -1.4331e-009    9.05e-005       -2.6615e-008   
  0.9             -2.3732e-009    0.00011837      -4.3533e-008   
  0.95            -7.182e-010     0.0001492       -4.6261e-008   
  1               2.6966e-009     0.00018151      -5.6592e-008   
  1.05            1.502e-009      0.00021554      -3.1736e-008   
  1.1             -1.4039e-009    0.00025273      -2.4146e-008   
  1.15            -2.312e-009     0.00028917      -4.5598e-008   
  1.2             -6.515e-010     0.00032679      -4.7611e-008   
  1.25            2.7106e-009     0.00036454      -5.4115e-008   
  1.3             1.4403e-009     0.00040271      -2.7008e-008   
  1.35            -1.4737e-009    0.00044336      -1.6281e-008   
  1.4             -2.2558e-009    0.00048217      -3.8119e-008   
  1.45            -5.85e-010      0.00052165      -3.9047e-008   
  1.5             1.4451e-009     0.00056062      -4.455e-008    
  1.55            2.3742e-009     0.00060059      -1.8772e-008   
  1.6             5.814e-010      0.00064038      -1.4013e-008   
  1.65            -1.3511e-009    0.00068019      -3.624e-009    
  1.7             -2.3613e-009    0.00071922      -2.6816e-008   
  1.75            -7.064e-010     0.00075867      -2.8496e-008   
  1.8             2.6997e-009     0.00079724      -3.5101e-008   
END_DB

BEGIN_DB
 ICCAP_VAR VS         0              
 ICCAP_VAR VB         -0.9           
 ICCAP_VAR VD         0.1            

 #VG              IG              ID              IB             
  0               5.554e-010      -4.48e-010      -1.0672e-008   
  0.05            2.5473e-009     6.763e-010      -7.793e-009    
  0.1             -2.4534e-009    5.946e-010      1.3216e-008    
  0.15            2.6707e-009     -5.755e-010     -1.4105e-008   
  0.2             -2.512e-009     4.411e-010      1.2312e-008    
  0.25            2.7064e-009     -3.898e-010     -1.2681e-008   
  0.3             -2.5437e-009    2.972e-010      1.1689e-008    
  0.35            2.7198e-009     -1.158e-010     -1.0363e-008   
  0.4             -2.5628e-009    5.634e-010      1.1165e-008    
  0.45            2.1827e-009     -4.603e-010     -1.7288e-008   
  0.5             2.5915e-009     1.2155e-008     -4.555e-009    
  0.55            -1.7833e-009    5.364e-008      1.4983e-008    
  0.6             1.1994e-009     2.1738e-007     -1.6132e-008   
  0.65            -2.4622e-009    7.6943e-007     1.1547e-008    
  0.7             2.3905e-009     2.1258e-006     1.4565e-008    
  0.75            -1.5296e-009    5.0145e-006     1.5753e-008    
  0.8             2.5402e-009     9.6105e-006     -1.3409e-008   
  0.85            1.7837e-009     1.6303e-005     -1.6049e-008   
  0.9             -1.5721e-009    2.4789e-005     1.5633e-008    
  0.95            2.5624e-009     3.3772e-005     -1.2891e-008   
  1               -1.7319e-009    4.3906e-005     1.5161e-008    
  1.05            2.7013e-009     5.3616e-005     -1.1263e-008   
  1.1             -2.0989e-009    6.3598e-005     1.361e-008     
  1.15            1.6979e-009     7.2849e-005     -1.7231e-008   
  1.2             8.065e-010      8.1914e-005     8.885e-009     
  1.25            -2.5868e-009    9.0594e-005     7.081e-009     
  1.3             2.121e-010      9.8452e-005     -9.641e-009    
  1.35            2.6242e-009     0.000105911     -1.1636e-008   
  1.4             -1.8551e-009    0.000113206     1.4427e-008    
  1.45            -1.5981e-009    0.00011985      -1.7328e-008   
  1.5             2.7115e-009     0.00012586      -1.1591e-008   
  1.55            -2.1278e-009    0.00013172      1.3488e-008    
  1.6             1.7452e-009     0.00013706      -1.7694e-008   
  1.65            -2.4006e-009    0.00014221      1.2273e-008    
  1.7             1.9355e-009     0.00014682      -1.5563e-008   
  1.75            -2.4753e-009    0.0001514       1.1387e-008    
  1.8             2.1261e-009     0.0001554       -1.5276e-008   
END_DB

BEGIN_DB
 ICCAP_VAR VS         0              
 ICCAP_VAR VB         -0.9           
 ICCAP_VAR VD         1.8            

 #VG              IG              ID              IB             
  0               2.4131e-009     3.2905e-009     1.6154e-008    
  0.05            -2.5585e-009    2.59e-010       1.1691e-008    
  0.1             2.7352e-009     -1.96e-010      -1.0179e-008   
  0.15            -2.5891e-009    1.166e-010      1.1105e-008    
  0.2             1.7343e-009     -2.9594e-009    -1.1622e-008   
  0.25            -1.8732e-009    2.735e-009      1.7832e-008    
  0.3             2.1272e-009     -1.163e-009     -1.6452e-008   
  0.35            -2.0312e-009    1.6885e-009     1.5464e-008    
  0.4             1.8485e-009     4.2595e-009     -1.7088e-008   
  0.45            2.4412e-009     1.7902e-008     1.2013e-008    
  0.5             -2.0746e-009    7.8728e-008     1.3005e-008    
  0.55            -5.672e-010     3.4014e-007     1.0643e-008    
  0.6             1.7e-009        1.2492e-006     7.453e-009     
  0.65            -1.7152e-009    3.9302e-006     1.2266e-008    
  0.7             -8.223e-010     9.3509e-006     -1.5665e-008   
  0.75            2.6188e-009     1.8747e-005     -1.8704e-008   
  0.8             -2.5999e-009    3.3239e-005     -1.9197e-008   
  0.85            -1.3153e-009    5.262e-005      -2.8442e-008   
  0.9             1.8885e-009     7.5244e-005     -4.4934e-008   
  0.95            2.1491e-009     0.000102342     -2.2021e-008   
  1               -2.3002e-009    0.00013273      -2.7846e-008   
  1.05            -1.8347e-009    0.00016491      -4.3279e-008   
  1.1             4.6e-011        0.00019802      -4.3568e-008   
  1.15            2.4173e-009     0.00023351      -5.039e-008    
  1.2             1.8598e-009     0.00027019      -2.6976e-008   
  1.25            9.4e-012        0.00030867      -2.7072e-008   
  1.3             -1.7413e-009    0.00034699      -3.1948e-008   
  1.35            -2.068e-009     0.0003853       -4.0048e-008   
  1.4             -3.499e-010     0.00042416      -4.0551e-008   
  1.45            1.7862e-009     0.00046312      -4.5655e-008   
  1.5             2.2045e-009     0.00050306      -2.0294e-008   
  1.55            3.847e-010      0.00054287      -1.6397e-008   
  1.6             -1.3072e-009    0.0005827       -1.932e-008    
  1.65            -2.4006e-009    0.00062184      -2.9054e-008   
  1.7             -7.508e-010     0.00066157      -3.0591e-008   
  1.75            2.6868e-009     0.00070045      -3.7659e-008   
  1.8             1.536e-009      0.00073914      -9.394e-009    
END_DB

BEGIN_DB
 ICCAP_VAR VS         0              
 ICCAP_VAR VB         -1.8           
 ICCAP_VAR VD         0.1            

 #VG              IG              ID              IB             
  0               1.0557e-009     1.7567e-009     1.0896e-008    
  0.05            -2.5218e-009    3.682e-010      1.2115e-008    
  0.1             2.711e-009      -3.1171e-009    -8.847e-009    
  0.15            -2.5563e-009    2.063e-010      1.1371e-008    
  0.2             1.6156e-009     -3.009e-009     -1.0364e-008   
  0.25            -1.8128e-009    2.7987e-009     1.6336e-008    
  0.3             2.2766e-009     -2.6679e-009    -1.9214e-008   
  0.35            -2.1681e-009    9.959e-010      1.5159e-008    
  0.4             2.4328e-009     -9.377e-010     -1.5729e-008   
  0.45            -2.3014e-009    1.2295e-009     1.4483e-008    
  0.5             2.2078e-009     3.3679e-009     -1.638e-008    
  0.55            2.6119e-009     1.1909e-008     -4.036e-009    
  0.6             -1.8555e-009    5.2737e-008     1.5022e-008    
  0.65            1.1517e-009     2.1633e-007     -1.6363e-008   
  0.7             -2.484e-009     7.5537e-007     1.0855e-008    
  0.75            2.4687e-009     2.0695e-006     1.667e-008     
  0.8             -1.6489e-009    4.8821e-006     1.5886e-008    
  0.85            2.5912e-009     9.408e-006      -1.1609e-008   
  0.9             7.463e-010      1.6148e-005     -1.6518e-008   
  0.95            -2.604e-009     2.4548e-005     6.415e-009     
  1               2.6834e-009     3.3622e-005     -1.1151e-008   
  1.05            -2.0739e-009    4.3703e-005     1.3507e-008    
  1.1             1.6853e-009     5.338e-005      -1.6915e-008   
  1.15            -2.3575e-009    6.3451e-005     1.1867e-008    
  1.2             1.8892e-009     7.2626e-005     -1.6139e-008   
  1.25            -2.4496e-009    8.1785e-005     1.1443e-008    
  1.3             2.0896e-009     9.0026e-005     -1.5656e-008   
  1.35            -1.4536e-009    9.8335e-005     1.66e-008      
  1.4             2.451e-009      0.000105552     -1.4128e-008   
  1.45            -1.604e-009     0.000112759     1.5891e-008    
  1.5             -1.7264e-009    0.00011931      -1.3202e-008   
  1.55            1.9641e-009     0.00012521      -1.6221e-008   
  1.6             -1.3886e-009    0.00013117      1.4585e-008    
  1.65            -1.0335e-009    0.00013643      -8.802e-009    
  1.7             2.7214e-009     0.00014127      -7.27e-009     
  1.75            -2.3178e-009    0.00014607      1.2282e-008    
  1.8             1.8195e-009     0.00015031      -1.6235e-008   
END_DB

BEGIN_DB
 ICCAP_VAR VS         0              
 ICCAP_VAR VB         -1.8           
 ICCAP_VAR VD         1.8            

 #VG              IG              ID              IB             
  0               -1.397e-010     1.057e-009      1.4742e-008    
  0.05            -2.5844e-009    9.8e-012        1.0406e-008    
  0.1             1.8862e-009     -2.8972e-009    -1.3523e-008   
  0.15            1.7058e-009     2.4052e-009     8.699e-009     
  0.2             -2.5308e-009    2.719e-010      1.1205e-008    
  0.25            1.5754e-009     -3.0405e-009    -1.0229e-008   
  0.3             -1.774e-009     2.906e-009      1.5986e-008    
  0.35            2.029e-009      -1.1912e-009    -1.6968e-008   
  0.4             -1.9576e-009    2.1478e-009     1.6483e-008    
  0.45            2.2292e-009     3.8654e-009     -1.7012e-008   
  0.5             2.5322e-009     2.7579e-008     1.3488e-008    
  0.55            4.075e-010      1.2736e-007     -8.267e-009    
  0.6             -1.5494e-009    5.3592e-007     1.6251e-008    
  0.65            2.5442e-009     1.8384e-006     1.5154e-008    
  0.7             -1.8841e-009    5.2681e-006     1.1078e-008    
  0.75            -8.359e-010     1.1895e-005     8.755e-009     
  0.8             2.6411e-009     2.2748e-005     -3.1701e-008   
  0.85            1.6109e-009     3.8337e-005     -8.507e-009    
  0.9             -1.3156e-009    5.9611e-005     -9.866e-009    
  0.95            -2.402e-009     8.4068e-005     -3.2987e-008   
  1               -7.465e-010     0.000112175     -3.9732e-008   
  1.05            -1.8161e-009    0.00014334      -4.3254e-008   
  1.1             8.28e-011       0.00017535      -4.2345e-008   
  1.15            2.4658e-009     0.00020985      -4.8474e-008   
  1.2             1.8047e-009     0.00024577      -2.5966e-008   
  1.25            -5.4e-011       0.00028387      -2.6542e-008   
  1.3             -1.8753e-009    0.00032155      -3.2169e-008   
  1.35            -1.9986e-009    0.00035963      -4.0646e-008   
  1.4             -2.282e-010     0.00039795      -4.0207e-008   
  1.45            2.0031e-009     0.00043693      -4.6156e-008   
  1.5             2.1036e-009     0.00047674      -1.9699e-008   
  1.55            2.548e-010      0.00051657      -1.7475e-008   
  1.6             -1.4215e-009    0.0005562       -2.0556e-008   
  1.65            -2.2672e-009    0.00059539      -3.0005e-008   
  1.7             -5.96e-010      0.00063492      -3.1243e-008   
  1.75            1.4326e-009     0.00067377      -3.6813e-008   
  1.8             2.3696e-009     0.00071353      -1.1486e-008   
END_DB

