! VERSION = 6.00
BEGIN_HEADER
 ICCAP_INPUTS
  VG         V  B GROUND SMU4 0.001 LIN        2    0          1.8        6    0.36      
  VS         V  E GROUND SMU2 0.1 CON        0
  VD         V  S GROUND SMU1 0.1 LIN        1    0          1.8        37   0.05      
  VB         V  C GROUND SMU3 0.1 LIN        3    0          -0.9       2    -0.9      
 ICCAP_OUTPUTS
  ID         I  S GROUND SMU1 B
  IB         I  C GROUND SMU3 B
  IG         I  B GROUND SMU4 B
END_HEADER

BEGIN_DB
 ICCAP_VAR VG         0              
 ICCAP_VAR VS         0              
 ICCAP_VAR VB         0              

 #VD              ID              IB              IG             
  0               -1.186e-009     -8.503e-009     -1.3237e-009   
  0.05            9.43e-011       1.1735e-008     -2.6965e-009   
  0.1             -2.0352e-009    -1.1764e-008    -2e-012        
  0.15            -2.1199e-009    -1.1887e-008    -2.844e-010    
  0.2             -2.1691e-009    -1.1482e-008    -5.082e-010    
  0.25            -2.2158e-009    -1.0533e-008    -7.194e-010    
  0.3             -1.5385e-009    -1.6421e-008    1.2435e-009    
  0.35            -1.841e-010     -1.4201e-008    2.8103e-009    
  0.4             2.2626e-009     1.0088e-008     1.1428e-009    
  0.45            1.1159e-009     2.8137e-008     -1.4089e-009   
  0.5             -2.1642e-009    1.0336e-008     -1.112e-009    
  0.55            -1.7521e-009    -1.1526e-008    1.4601e-009    
  0.6             2.3652e-009     -8.632e-009     9.547e-010     
  0.65            1.8186e-009     1.2119e-008     -1.522e-009    
  0.7             -2.217e-009     7.832e-009      -9.135e-010    
  0.75            -1.623e-009     -1.2509e-008    1.7189e-009    
  0.8             1.6433e-009     -8.599e-009     1.6575e-009    
  0.85            2.2045e-009     1.1266e-008     2.984e-010     
  0.9             2.2895e-009     1.0848e-008     4.851e-010     
  0.95            2.3604e-009     1.0062e-008     6.901e-010     
  1               1.5972e-009     1.7915e-008     -1.8722e-009   
  1.05            -1.7193e-009    4.447e-009      -1.5574e-009   
  1.1             -1.4148e-009    -2.1511e-008    1.2815e-009    
  1.15            3.73e-011       -1.122e-008     2.8774e-009    
  1.2             2.3683e-009     8.965e-009      9.75e-010      
  1.25            1.8391e-009     1.1854e-008     -1.5056e-009   
  1.3             -2.2102e-009    8.346e-009      -9.381e-010    
  1.35            -1.6448e-009    -1.214e-008     1.6794e-009    
  1.4             1.6034e-009     -8.739e-009     1.6964e-009    
  1.45            2.2248e-009     1.1246e-008     3.277e-010     
  1.5             2.3045e-009     1.0586e-008     5.302e-010     
  1.55            1.4638e-009     2.2348e-008     -1.3261e-009   
  1.6             1.22e-010       1.1657e-008     -2.6901e-009   
  1.65            -2.1511e-009    -9.835e-009     -1.1041e-009   
  1.7             -1.7433e-009    -1.1495e-008    1.4633e-009    
  1.75            2.3783e-009     -8.455e-009     9.534e-010     
  1.8             1.821e-009      1.2108e-008     -1.5288e-009   
END_DB

BEGIN_DB
 ICCAP_VAR VG         0.36           
 ICCAP_VAR VS         0              
 ICCAP_VAR VB         0              

 #VD              ID              IB              IG             
  0               1.9628e-009     -1.6356e-008    2.6838e-009    
  0.05            2.6748e-008     -1.1808e-008    -2.6611e-009   
  0.1             3.5265e-008     1.73e-008       -1.5502e-009   
  0.15            3.7604e-008     1.0687e-008     1.9489e-009    
  0.2             3.8848e-008     -1.6732e-008    1.7159e-009    
  0.25            4.295e-008      -2.2636e-008    2.0743e-009    
  0.3             4.465e-008      -1.1644e-008    -6.06e-011     
  0.35            5.1206e-008     1.1769e-008     -2.6468e-009   
  0.4             5.6906e-008     1.6827e-008     -1.5415e-009   
  0.45            5.873e-008      1.0591e-008     1.9639e-009    
  0.5             6.1649e-008     -1.6278e-008    1.696e-009     
  0.55            6.6823e-008     -2.2087e-008    2.0543e-009    
  0.6             7.2346e-008     -2.6288e-008    1.2843e-009    
  0.65            7.6823e-008     -1.0295e-008    -1.0483e-009   
  0.7             8.7376e-008     2.1036e-008     -1.526e-009    
  0.75            9.0008e-008     1.0552e-008     1.9867e-009    
  0.8             9.5924e-008     -1.5832e-008    1.6713e-009    
  0.85            1.03525e-007    -2.176e-008     2.0214e-009    
  0.9             1.1321e-007     -1.5276e-008    8.588e-010     
  0.95            1.1959e-007     -2.468e-008     1.3924e-009    
  1               1.2915e-007     -1.0278e-008    -1.0495e-009   
  1.05            1.4494e-007     2.7559e-008     -1.3769e-009   
  1.1             1.5552e-007     2.7741e-008     -1.3294e-009   
  1.15            1.6698e-007     2.1789e-008     -1.7187e-009   
  1.2             1.7309e-007     1.1291e-008     6.418e-010     
  1.25            1.8352e-007     -2.0154e-008    1.5893e-009    
  1.3             1.9677e-007     -1.1463e-008    -8.586e-010    
  1.35            2.2109e-007     2.4042e-008     -1.4379e-009   
  1.4             2.2534e-007     9.908e-009      9.396e-010     
  1.45            2.4364e-007     -2.6018e-008    1.3481e-009    
  1.5             2.6316e-007     -2.6316e-008    1.2825e-009    
  1.55            2.8809e-007     -9.822e-009     -1.4106e-009   
  1.6             3.1578e-007     2.5741e-008     -1.3112e-009   
  1.65            3.2828e-007     1.1038e-008     4.53e-010      
  1.7             3.4717e-007     -1.8753e-008    1.8416e-009    
  1.75            3.7296e-007     -1.2458e-008    -6.967e-010    
  1.8             4.173e-007      1.9795e-008     -1.5518e-009   
END_DB

BEGIN_DB
 ICCAP_VAR VG         0.72           
 ICCAP_VAR VS         0              
 ICCAP_VAR VB         0              

 #VD              ID              IB              IG             
  0               -1.03322e-007   -1.1563e-008    1.451e-010     
  0.05            5.6967e-005     -1.1613e-008    2.2615e-009    
  0.1             8.8133e-005     -2.612e-008     1.3239e-009    
  0.15            0.000105792     -1.9722e-008    1.8772e-009    
  0.2             0.00011721      -1.1594e-008    -2.6302e-009   
  0.25            0.00012462      1.0857e-008     8.016e-010     
  0.3             0.00013003      -2.336e-008     1.4398e-009    
  0.35            0.00013712      -1.0711e-008    -9.895e-010    
  0.4             0.00014356      2.6669e-008     -1.389e-009    
  0.45            0.00014611      9.228e-009      1.0701e-009    
  0.5             0.00015178      -2.6356e-008    1.2997e-009    
  0.55            0.000157        -2.3332e-008    2.1416e-009    
  0.6             0.00016258      -1.1743e-008    -4.889e-010    
  0.65            0.00016932      1.7956e-008     -1.7471e-009   
  0.7             0.0001734       1.1161e-008     6.238e-010     
  0.75            0.00017709      -2.0073e-008    1.6249e-009    
  0.8             0.00018365      -1.1594e-008    -8.445e-010    
  0.85            0.00019002      2.3718e-008     -1.4516e-009   
  0.9             0.00019327      1.0143e-008     9.257e-010     
  0.95            0.00019779      -2.5464e-008    1.3581e-009    
  1               0.00020566      -9.912e-009     -1.1211e-009   
  1.05            0.00021176      2.7904e-008     -1.3636e-009   
  1.1             0.00021307      8.949e-009      1.2002e-009    
  1.15            0.00021981      -2.5426e-008    1.2726e-009    
  1.2             0.00022847      -1.0295e-008    -1.4412e-009   
  1.25            0.00023364      1.0533e-008     -2.5802e-009   
  1.3             0.00023814      9.535e-009      -3.63e-011     
  1.35            0.000241        -1.7184e-008    2.5917e-009    
  1.4             0.00025036      -1.6179e-008    -1.7473e-009   
  1.45            0.00025624      4.494e-009      -2.1709e-009   
  1.5             0.00026048      -2.3025e-008    -2.6904e-009   
  1.55            0.00026488      -1.513e-008     9.41e-010      
  1.6             0.00027021      -6.4599e-008    1.3467e-009    
  1.65            0.00027796      -6.6757e-008    -2.468e-009    
  1.7             0.00028473      -7.308e-008     5.353e-010     
  1.75            0.00028992      -1.1343e-007    5.469e-010     
  1.8             0.00029765      -1.5669e-007    -1.3319e-009   
END_DB

BEGIN_DB
 ICCAP_VAR VG         1.08           
 ICCAP_VAR VS         0              
 ICCAP_VAR VB         0              

 #VD              ID              IB              IG             
  0               -1.1981e-007    2.767e-008      -1.3812e-009   
  0.05            0.00027117      9.89e-010       -1.4983e-009   
  0.1             0.00049916      1.0225e-008     8.471e-010     
  0.15            0.00067844      -2.4397e-008    1.3993e-009    
  0.2             0.00081273      -2.6531e-008    1.2992e-009    
  0.25            0.00090997      -2.3252e-008    1.2506e-009    
  0.3             0.00097906      -1.1832e-008    -5.032e-010    
  0.35            0.00103092      1.7974e-008     -1.7322e-009   
  0.4             0.00106583      1.1123e-008     6.305e-010     
  0.45            0.00109117      -2.006e-008     1.6125e-009    
  0.5             0.00111697      -1.151e-008     -8.509e-010    
  0.55            0.0011408       2.395e-008      -1.3136e-009   
  0.6             0.0011584       2.7275e-008     -1.3297e-009   
  0.65            0.0011747       2.1647e-008     -1.7181e-009   
  0.7             0.0011891       1.1205e-008     6.459e-010     
  0.75            0.0012012       -2.031e-008     1.5913e-009    
  0.8             0.0012187       -1.1035e-008    -8.642e-010    
  0.85            0.0012352       2.4187e-008     -1.4359e-009   
  0.9             0.0012499       2.7881e-008     -1.3675e-009   
  0.95            0.0012633       2.6907e-008     -1.3207e-009   
  1               0.0012754       1.1162e-008     3.982e-010     
  1.05            0.0012847       -1.7789e-008    1.9269e-009    
  1.1             0.0012992       -1.2008e-008    -6.368e-010    
  1.15            0.0013151       1.9077e-008     -1.6e-009      
  1.2             0.0013258       1.0251e-008     7.438e-010     
  1.25            0.0013355       -2.3399e-008    1.4845e-009    
  1.3             0.0013516       -1.3107e-008    -9.407e-010    
  1.35            0.0013657       3.622e-009      -1.3533e-009   
  1.4             0.001378        8.221e-009      -1.7697e-009   
  1.45            0.0013866       -6.722e-009     2.1254e-009    
  1.5             0.0013975       -3.9482e-008    7.54e-011      
  1.55            0.0014152       -3.389e-008     -2.4098e-009   
  1.6             0.0014194       -6.2784e-008    1.6877e-009    
  1.65            0.0014357       -1.113e-007     1.2313e-009    
  1.7             0.0014481       -1.8007e-007    -2.7133e-009   
  1.75            0.0014572       -2.4507e-007    1.0262e-009    
  1.8             0.0014688       -3.9129e-007    1.3158e-009    
END_DB

BEGIN_DB
 ICCAP_VAR VG         1.44           
 ICCAP_VAR VS         0              
 ICCAP_VAR VB         0              

 #VD              ID              IB              IG             
  0               -1.2738e-007    1.1139e-008     -9.585e-010    
  0.05            0.00041717      1.4877e-008     2.86e-010      
  0.1             0.00079989      -1.6426e-008    2.1048e-009    
  0.15            0.00113716      -1.1837e-008    -5.133e-010    
  0.2             0.0014223       2.4359e-008     1.5917e-009    
  0.25            0.0016583       -1.1185e-008    -8.625e-010    
  0.3             0.001847        2.4114e-008     -1.4372e-009   
  0.35            0.0019951       2.7857e-008     -1.3676e-009   
  0.4             0.0021099       2.6986e-008     -1.3205e-009   
  0.45            0.0021973       1.1133e-008     3.975e-010     
  0.5             0.0022627       -1.7656e-008    1.9267e-009    
  0.55            0.002318        -1.195e-008     -6.433e-010    
  0.6             0.0023644       1.9574e-008     -1.5985e-009   
  0.65            0.002399        1.0832e-008     7.475e-010     
  0.7             0.0024269       -2.2192e-008    1.4807e-009    
  0.75            0.0024573       -1.0531e-008    -9.477e-010    
  0.8             0.0024834       2.6175e-008     -1.4018e-009   
  0.85            0.0025016       9.092e-009      1.0283e-009    
  0.9             0.0025224       -2.6666e-008    1.3177e-009    
  0.95            0.0025432       -2.4697e-008    1.2648e-009    
  1               0.0025631       -1.1814e-008    -4.228e-010    
  1.05            0.0025852       1.6626e-008     -1.8011e-009   
  1.1             0.0026018       1.117e-008      5.68e-010      
  1.15            0.0026158       -1.9216e-008    1.6835e-009    
  1.2             0.002635        -1.2067e-008    -8.045e-010    
  1.25            0.0026545       2.1582e-008     -1.4752e-009   
  1.3             0.0026709       1.0546e-008     -2.3858e-009   
  1.35            0.0026865       1.0657e-008     -1.9731e-009   
  1.4             0.0026975       2.427e-009      1.9938e-009    
  1.45            0.0027124       -2.5426e-008    1.959e-010     
  1.5             0.0027313       -2.3324e-008    -2.2373e-009   
  1.55            0.0027416       -2.8745e-008    1.8009e-009    
  1.6             0.0027572       -7.7166e-008    1.4662e-009    
  1.65            0.0027744       -9.274e-008     -2.6722e-009   
  1.7             0.0027877       -1.4714e-007    9.093e-010     
  1.75            0.0028005       -2.6081e-007    1.36e-009      
  1.8             0.002818        -3.5382e-007    -2.4317e-009   
END_DB

BEGIN_DB
 ICCAP_VAR VG         1.8            
 ICCAP_VAR VS         0              
 ICCAP_VAR VB         0              

 #VD              ID              IB              IG             
  0               -1.0224e-006    2.6262e-008     1.0544e-009    
  0.05            0.00050285      -2.6253e-008    -1.2708e-009   
  0.1             0.00098009      2.7782e-008     -1.3396e-009   
  0.15            0.0014205       -1.1598e-008    -2.2744e-009   
  0.2             0.0018138       1.1231e-008     2.231e-010     
  0.25            0.0021586       -1.5857e-008    2.1941e-009    
  0.3             0.0024556       -2.0219e-008    1.939e-009     
  0.35            0.0027077       -1.1932e-008    -6.303e-010    
  0.4             0.0029195       1.9368e-008     -1.6018e-009   
  0.45            0.0030921       1.0851e-008     7.401e-010     
  0.5             0.003232        -2.245e-008     1.4982e-009    
  0.55            0.0033501       -1.0486e-008    -9.347e-010    
  0.6             0.0034456       2.6159e-008     -1.4094e-009   
  0.65            0.003519        9.249e-009      1.0149e-009    
  0.7             0.0035821       -2.6829e-008    1.3266e-009    
  0.75            0.0036357       -1.1839e-008    -5.71e-011     
  0.8             0.0036849       1.3118e-008     -2.2378e-009   
  0.85            0.003723        1.1255e-008     2.434e-010     
  0.9             0.0037531       -1.5953e-008    2.148e-009     
  0.95            0.0037853       -1.1912e-008    -4.72e-010     
  1               0.0038163       1.7116e-008     -1.7502e-009   
  1.05            0.0038416       1.1173e-008     6.061e-010     
  1.1             0.0038624       -1.9915e-008    1.6387e-009    
  1.15            0.003888        -1.1421e-008    -8.325e-010    
  1.2             0.0039121       2.3281e-008     -1.4553e-009   
  1.25            0.0039335       2.7163e-008     -1.3817e-009   
  1.3             0.0039536       1.3303e-008     -1.9084e-009   
  1.35            0.003969        7e-009          2.0245e-009    
  1.4             0.0039867       -1.7192e-008    1.703e-010     
  1.45            0.0040113       1.712e-009      -2.546e-009    
  1.5             0.0040294       -3.66e-009      -2.1706e-009   
  1.55            0.0040407       -1.7782e-008    1.8529e-009    
  1.6             0.0040586       -5.8924e-008    3.153e-010     
  1.65            0.004081        -6.3075e-008    -2.6787e-009   
  1.7             0.0040943       -1.2595e-007    2.8451e-009    
  1.75            0.0041132       -1.8655e-007    -1.1131e-009   
  1.8             0.0041289       -2.3557e-007    -1.3696e-009   
END_DB

BEGIN_DB
 ICCAP_VAR VG         0              
 ICCAP_VAR VS         0              
 ICCAP_VAR VB         -0.9           

 #VD              ID              IB              IG             
  0               1.2971e-009     7.178e-009      1.3061e-009    
  0.05            2.1679e-009     -9.675e-009     1.2474e-009    
  0.1             1.196e-009      2.8265e-008     -1.3905e-009   
  0.15            -2.1155e-009    1.1287e-008     -1.1931e-009   
  0.2             -1.1006e-009    -2.7066e-008    1.4051e-009    
  0.25            2.3724e-009     -8.485e-009     1.0159e-009    
  0.3             9.928e-010      2.7539e-008     -1.4734e-009   
  0.35            -2.2314e-009    8.481e-009      -9.597e-010    
  0.4             -1.6524e-009    -1.1831e-008    1.6452e-009    
  0.45            1.5832e-009     -8.599e-009     1.6898e-009    
  0.5             2.2112e-009     1.126e-008      3.238e-010     
  0.55            2.2915e-009     1.0787e-008     5.146e-010     
  0.6             2.3661e-009     9.956e-009      6.917e-010     
  0.65            1.5875e-009     1.7492e-008     -1.8565e-009   
  0.7             -1.7212e-009    3.949e-009      -1.5355e-009   
  0.75            -1.3889e-009    -2.1621e-008    1.2911e-009    
  0.8             5.56e-011       -1.0933e-008    1.2562e-009    
  0.85            -1.176e-010     -1.3596e-008    2.8666e-009    
  0.9             2.1061e-009     1.116e-008      1.123e-010     
  0.95            2.1985e-009     1.1225e-008     2.982e-010     
  1               2.2827e-009     1.0621e-008     4.917e-010     
  1.05            1.4196e-009     2.3044e-008     -1.3397e-009   
  1.1             7.33e-011       1.1466e-008     -1.3019e-009   
  1.15            2.339e-010      1.2554e-008     -2.6513e-009   
  1.2             -2.2202e-009    7.93e-010       -9.854e-010    
  1.25            -1.6566e-009    -1.1731e-008    1.6105e-009    
  1.3             1.5519e-009     -8.414e-009     1.7254e-009    
  1.35            2.2495e-009     1.1219e-008     3.546e-010     
  1.4             2.3457e-009     1.0251e-008     5.422e-010     
  1.45            1.5232e-009     2.1599e-008     -1.3285e-009   
  1.5             2.059e-010      1.1702e-008     -2.7139e-009   
  1.55            -2.0436e-009    -1.0019e-008    -1.0942e-009   
  1.6             -1.5395e-009    -1.1761e-008    1.4819e-009    
  1.65            1.3059e-009     -8.648e-009     2.6931e-009    
  1.7             2.6773e-009     1.0354e-008     4.978e-010     
  1.75            1.9815e-009     2.2194e-008     -1.3395e-009   
  1.8             8.462e-010      1.0754e-008     -1.3001e-009   
END_DB

BEGIN_DB
 ICCAP_VAR VG         0.36           
 ICCAP_VAR VS         0              
 ICCAP_VAR VB         -0.9           

 #VD              ID              IB              IG             
  0               1.1441e-009     1.0693e-008     1.2428e-009    
  0.05            2.2147e-009     -1.4222e-008    2.8153e-009    
  0.1             4.0227e-009     1.0243e-008     1.1365e-009    
  0.15            3.2316e-009     2.8676e-008     -1.4084e-009   
  0.2             2.2194e-009     1.0111e-008     -1.374e-009    
  0.25            2.6735e-009     1.1096e-008     -1.3461e-009   
  0.3             3.1663e-009     1.1726e-008     -1.3115e-009   
  0.35            3.7169e-009     1.2038e-008     -2.6847e-009   
  0.4             3.0879e-009     6.65e-010       -2.5357e-009   
  0.45            3.6523e-009     1.026e-009      -2.2997e-009   
  0.5             4.2815e-009     2.191e-009      -2.033e-009    
  0.55            5.001e-009      3.041e-009      -1.7647e-009   
