! VERSION = 6.00
BEGIN_HEADER
 ICCAP_INPUTS
  VG         V  B GROUND SMU4 0.001 LIN        1    0          1.8        37   0.05      
  VS         V  E GROUND SMU3 0.1 CON        0
  VB         V  C GROUND SMU1 0.1 LIN        3    0          -1.8       3    -0.9      
  VD         V  S GROUND SMU2 0.1 LIN        2    0.1        1.8        2    1.7       
 ICCAP_OUTPUTS
  IG         I  B GROUND SMU4 B
  ID         I  S GROUND SMU2 B
  IB         I  C GROUND SMU1 B
END_HEADER

BEGIN_DB
 ICCAP_VAR VS         0              
 ICCAP_VAR VB         0              
 ICCAP_VAR VD         0.1            

 #VG              IG              ID              IB             
  0               -3.791e-010     8.257e-010      1.3621e-008    
  0.05            -2.6348e-009    -4.039e-010     7.388e-009     
  0.1             -6.654e-010     -4.0797e-009    -9.609e-009    
  0.15            5.341e-010      4.2264e-009     9.267e-009     
  0.2             -2.0483e-009    -1.8572e-009    1.981e-009     
  0.25            2.0153e-009     -1.2867e-009    -1.6955e-008   
  0.3             -1.9702e-009    1.7037e-009     1.6516e-008    
  0.35            2.235e-009      3.5248e-009     -1.6903e-008   
  0.4             1.5725e-009     1.1925e-008     -7.384e-009    
  0.45            -2.3307e-009    4.2851e-008     1.2147e-008    
  0.5             1.0538e-009     1.7129e-007     -1.6772e-008   
  0.55            -2.5564e-009    6.1766e-007     9.656e-009     
  0.6             2.733e-009      1.8286e-006     8.762e-009     
  0.65            -4.82e-011      4.7376e-006     7.901e-009     
  0.7             -2.2616e-009    9.8684e-006     1.2933e-008    
  0.75            -1.8529e-009    1.7329e-005     1.8284e-008    
  0.8             1.6881e-009     2.6428e-005     -1.6996e-008   
  0.85            8.216e-010      3.6979e-005     8.933e-009     
  0.9             -2.629e-009     4.801e-005      7.042e-009     
  0.95            2.214e-010      5.856e-005      -1.0524e-008   
  1               2.6408e-009     6.9025e-005     -1.0401e-008   
  1.05            -1.9679e-009    7.9379e-005     1.4879e-008    
  1.1             1.5737e-009     8.868e-005      -1.5277e-008   
  1.15            8.763e-010      9.7632e-005     9.017e-009     
  1.2             -2.6083e-009    0.00010617      7.461e-009     
  1.25            2.6297e-009     0.00011368      -1.0445e-008   
  1.3             6.43e-011       0.00012117      1.2058e-008    
  1.35            -2.1058e-009    0.00012785      1.3898e-008    
  1.4             1.7407e-009     0.00013393      -1.7899e-008   
  1.45            7.993e-010      0.0001398       9.03e-009      
  1.5             -2.6288e-009    0.00014535      7.076e-009     
  1.55            2.6779e-009     0.00015031      -1.0974e-008   
  1.6             -2.0797e-009    0.00015504      1.4033e-008    
  1.65            1.704e-009      0.00015937      -1.7485e-008   
  1.7             -2.3897e-009    0.00016349      1.173e-008     
  1.75            1.9672e-009     0.00016718      -1.6703e-008   
  1.8             -2.4878e-009    0.00017088      1.108e-008     
END_DB

BEGIN_DB
 ICCAP_VAR VS         0              
 ICCAP_VAR VB         0              
 ICCAP_VAR VD         1.8            

 #VG              IG              ID              IB             
  0               -1.2543e-009    -4.081e-010     -1.0486e-008   
  0.05            2.6444e-009     -6.465e-010     -1.4405e-008   
  0.1             -2.5081e-009    4.762e-010      1.2111e-008    
  0.15            2.7078e-009     -3.509e-010     -1.23e-008     
  0.2             -2.566e-009     4.535e-010      1.1206e-008    
  0.25            1.614e-009      -2.2182e-009    -1.038e-008    
  0.3             -1.8269e-009    6.6136e-009     1.6775e-008    
  0.35            -2.64e-009      1.4774e-008     -1.7146e-008   
  0.4             1.5943e-009     7.0289e-008     -1.5824e-008   
  0.45            -9.04e-011      2.9584e-007     6.572e-009     
  0.5             2.2325e-009     1.07501e-006    -1.7008e-008   
  0.55            -2.5024e-009    3.4323e-006     -1.1772e-008   
  0.6             -1.6716e-009    8.6785e-006     -1.5885e-008   
  0.65            -7.195e-010     1.7984e-005     1.606e-009     
  0.7             2.7185e-009     3.2228e-005     -3.992e-008    
  0.75            1.495e-009      5.1342e-005     -2.2174e-008   
  0.8             -1.439e-009     7.6424e-005     -2.0848e-008   
  0.85            -2.2843e-009    0.000104038     -5.0302e-008   
  0.9             -2.6118e-009    0.00013509      -5.6194e-008   
  0.95            -1.3718e-009    0.00016914      -5.9765e-008   
  1               1.8691e-009     0.00020349      -7.4275e-008   
  1.05            2.1749e-009     0.00024072      -4.8578e-008   
  1.1             3.211e-010      0.00027898      -4.7926e-008   
  1.15            -1.7114e-009    0.00031814      -4.0238e-008   
  1.2             -2.1082e-009    0.00035704      -6.3097e-008   
  1.25            -3.74e-010      0.00039694      -6.347e-008    
  1.3             1.7824e-009     0.00043687      -6.9192e-008   
  1.35            2.2159e-009     0.0004777       -4.2646e-008   
  1.4             3.649e-010      0.0005187       -3.8417e-008   
  1.45            -1.6439e-009    0.00055965      -2.8247e-008   
  1.5             -2.1528e-009    0.0005998       -4.9604e-008   
  1.55            -4.245e-010     0.00064024      -4.9531e-008   
  1.6             1.7208e-009     0.00068051      -5.4409e-008   
  1.65            2.247e-009      0.0007215       -2.7434e-008   
  1.7             4.014e-010      0.00076217      -2.3105e-008   
  1.75            -1.3196e-009    0.00080262      -2.5507e-008   
  1.8             -2.4117e-009    0.00084212      -3.4692e-008   
END_DB

BEGIN_DB
 ICCAP_VAR VS         0              
 ICCAP_VAR VB         -0.9           
 ICCAP_VAR VD         0.1            

 #VG              IG              ID              IB             
  0               -8.813e-010     -4.892e-010     6.27e-009      
  0.05            -1.9934e-009    -1.9106e-009    1.77e-009      
  0.1             2.1652e-009     -1.3079e-009    -1.6919e-008   
  0.15            -2.0982e-009    1.0852e-009     1.6285e-008    
  0.2             2.3734e-009     -1.1064e-009    -1.6655e-008   
  0.25            -2.2689e-009    9.039e-010      1.5037e-008    
  0.3             2.5236e-009     -8.779e-010     -1.5592e-008   
  0.35            -2.3991e-009    7.687e-010      1.355e-008     
  0.4             1.828e-010      -3.0469e-009    -8.171e-009    
  0.45            2.7411e-009     3.1427e-009     -7.725e-009    
  0.5             1.7987e-009     1.2838e-008     -1.2733e-008   
  0.55            -1.0061e-009    3.2655e-008     -9.307e-009    
  0.6             -2.57e-011      1.6041e-007     -7.769e-009    
  0.65            -2.2345e-009    5.9142e-007     1.2967e-008    
  0.7             2.2246e-009     1.8355e-006     1.3203e-008    
  0.75            -2.4688e-009    4.8298e-006     1.1117e-008    
  0.8             2.1593e-009     1.00023e-005    -1.5719e-008   
  0.85            2.584e-009      1.7742e-005     1.93e-009      
  0.9             -1.857e-009     2.7635e-005     1.5459e-008    
  0.95            2.7195e-009     3.8062e-005     -1.3378e-008   
  1               1.9e-011        4.9382e-005     7.782e-009     
  1.05            -2.1684e-009    6.0317e-005     1.3381e-008    
  1.1             1.6059e-009     7.0589e-005     -1.6996e-008   
  1.15            -2.3272e-009    8.0894e-005     1.2251e-008    
  1.2             1.8683e-009     9.0041e-005     -1.7089e-008   
  1.25            -2.4505e-009    9.9075e-005     1.1065e-008    
  1.3             2.1202e-009     0.000107034     -1.6116e-008   
  1.35            -1.2743e-009    0.00011481      -1.485e-008    
  1.4             2.0989e-009     0.00012164      -1.5994e-008   
  1.45            -1.4861e-009    0.00012844      1.725e-008     
  1.5             -9.674e-010     0.00013442      -9.34e-009     
  1.55            2.7476e-009     0.00013993      -6.94e-009     
  1.6             -1.589e-010     0.00014535      9.838e-009     
  1.65            -2.3951e-009    0.00015012      1.1579e-008    
  1.7             1.9846e-009     0.00015454      -1.6704e-008   
  1.75            -1.4152e-009    0.00015892      1.541e-008     
  1.8             2.3991e-009     0.00016259      -1.4477e-008   
END_DB

BEGIN_DB
 ICCAP_VAR VS         0              
 ICCAP_VAR VB         -0.9           
 ICCAP_VAR VD         1.8            

 #VG              IG              ID              IB             
  0               -1.0627e-009    -1.7933e-009    -1.3803e-008   
  0.05            2.5863e-009     -7.691e-010     -1.4996e-008   
  0.1             -2.4575e-009    5.843e-010      1.2826e-008    
  0.15            2.6724e-009     -3.2893e-009    -8.026e-009    
  0.2             -2.536e-009     3.953e-010      1.1877e-008    
  0.25            2.7182e-009     -2.093e-010     -1.102e-008    
  0.3             -2.5793e-009    5.565e-010      1.0934e-008    
  0.35            2.1762e-009     -8.862e-010     -1.7176e-008   
  0.4             2.678e-009      1.0531e-008     -9.639e-009    
  0.45            -2.0966e-009    4.2119e-008     1.3829e-008    
  0.5             2.1251e-009     1.8489e-007     -1.8132e-008   
  0.55            -2.5333e-009    7.3452e-007     9.14e-009      
  0.6             1.8998e-009     2.3837e-006     7.948e-009     
  0.65            -1.491e-009     6.71e-006       1.0841e-008    
  0.7             2.6892e-009     1.4771e-005     -1.8781e-008   
  0.75            1.0333e-009     2.8124e-005     -1.12e-008     
  0.8             -2.1828e-009    4.7285e-005     -1.793e-009    
  0.85            -1.8999e-009    7.0543e-005     -4.3192e-008   
  0.9             -2.65e-011      9.7519e-005     -4.8476e-008   
  0.95            -7.091e-010     0.00012865      -6.2617e-008   
  1               2.7154e-009     0.00016155      -6.7945e-008   
  1.05            1.4899e-009     0.00019641      -4.4686e-008   
  1.1             -1.4471e-009    0.00023479      -3.7893e-008   
  1.15            -2.2809e-009    0.00027239      -6.1649e-008   
  1.2             -5.823e-010     0.00031134      -6.4355e-008   
  1.25            1.4645e-009     0.00035039      -7.0668e-008   
  1.3             2.3715e-009     0.00039086      -4.5278e-008   
  1.35            5.496e-010      0.00043135      -4.0672e-008   
  1.4             -1.4004e-009    0.00047231      -3.0424e-008   
  1.45            -2.3241e-009    0.00051251      -5.2803e-008   
  1.5             -6.309e-010     0.00055327      -5.3379e-008   
  1.55            1.4057e-009     0.00059334      -5.8538e-008   
  1.6             2.4075e-009     0.00063448      -3.1768e-008   
  1.65            5.853e-010      0.00067526      -2.6488e-008   
  1.7             -1.3621e-009    0.00071578      -1.5418e-008   
  1.75            -2.3652e-009    0.00075581      -3.8273e-008   
  1.8             -6.773e-010     0.00079588      -3.9141e-008   
END_DB

BEGIN_DB
 ICCAP_VAR VS         0              
 ICCAP_VAR VB         -1.8           
 ICCAP_VAR VD         0.1            

 #VG              IG              ID              IB             
  0               2.3834e-009     3.2524e-009     1.6721e-008    
  0.05            -2.5866e-009    9.76e-011       1.086e-008     
  0.1             1.8004e-009     -2.963e-009     -1.2214e-008   
  0.15            1.7542e-009     2.2855e-009     8.703e-009     
  0.2             -2.5382e-009    3.304e-010      1.1973e-008    
  0.25            1.5282e-009     -3.1024e-009    -9.596e-009    
  0.3             -1.7449e-009    2.9258e-009     1.5312e-008    
  0.35            2.2168e-009     -2.7174e-009    -1.8228e-008   
  0.4             -2.152e-009     1.1094e-009     1.6091e-008    
  0.45            2.4243e-009     -5.946e-010     -1.6582e-008   
  0.5             -2.3145e-009    2.9436e-009     1.4551e-008    
  0.55            2.7199e-009     1.1756e-008     -1.4273e-008   
  0.6             -1.3946e-009    5.0111e-008     1.4772e-008    
  0.65            5.606e-010      2.0212e-007     -1.0143e-008   
  0.7             -1.3917e-009    7.3783e-007     1.7892e-008    
  0.75            2.4833e-009     2.2114e-006     1.6324e-008    
  0.8             -2.1134e-009    5.6159e-006     1.3894e-008    
  0.85            2.7351e-009     1.1336e-005     -9.752e-009    
  0.9             -1.0413e-009    1.9668e-005     -8.803e-009    
  0.95            2.7293e-009     2.9374e-005     -7.452e-009    
  1               -9.28e-011      4.0555e-005     8.374e-009     
  1.05            -2.3077e-009    5.167e-005      1.217e-008     
  1.1             1.8381e-009     6.2259e-005     -1.7102e-008   
  1.15            -2.4409e-009    7.2982e-005     1.1324e-008    
  1.2             2.1001e-009     8.2628e-005     -1.6318e-008   
  1.25            -1.4827e-009    9.2185e-005     1.7064e-008    
  1.3             -9.612e-010     0.000100735     -9.655e-009    
  1.35            2.7356e-009     0.000108495     -6.767e-009    
  1.4             -6.495e-010     0.00011603      -1.6992e-008   
  1.45            2.6683e-009     0.00012284      -7.803e-009    
  1.5             -1.5842e-009    0.00012934      1.6557e-008    
  1.55            -9.086e-010     0.00013523      -9.645e-009    
  1.6             2.7345e-009     0.00014063      -7.077e-009    
  1.65            -2.4836e-009    0.00014584      1.1085e-008    
  1.7             2.2119e-009     0.00015038      -1.5894e-008   
  1.75            -1.5739e-009    0.00015496      1.9393e-008    
  1.8             -9.09e-010      0.00015897      -9.689e-009    
END_DB

BEGIN_DB
 ICCAP_VAR VS         0              
 ICCAP_VAR VB         -1.8           
 ICCAP_VAR VD         1.8            

 #VG              IG              ID              IB             
  0               -6.881e-010     2.954e-010      -7.068e-009    
  0.05            -2.4361e-009    -1.8505e-009    4.899e-009     
  0.1             2.7132e-009     -2.981e-010     -1.156e-008    
  0.15            -2.5691e-009    1.749e-010      1.0951e-008    
  0.2             1.7157e-009     -2.993e-009     -1.1187e-008   
  0.25            -1.9216e-009    2.797e-009      1.8485e-008    
  0.3             2.2079e-009     -1.1e-009       -1.707e-008    
  0.35            -2.1348e-009    1.8679e-009     1.6228e-008    
  0.4             2.0366e-009     2.6306e-009     -1.696e-008    
  0.45            2.5984e-009     2.1121e-008     1.4831e-008    
  0.5             -1.8359e-009    8.9059e-008     1.5691e-008    
  0.55            -8.067e-010     3.6693e-007     1.1909e-008    
  0.6             1.8629e-009     1.3277e-006     8.445e-009     
  0.65            -1.5566e-009    4.1721e-006     1.2665e-008    
  0.7             -9.203e-010     1.02417e-005    -1.8206e-008   
  0.75            2.3793e-009     2.0869e-005     -1.7937e-008   
  0.8             1.8974e-009     3.6969e-005     -1.3535e-008   
  0.85            1.63e-011       5.8632e-005     -2.2205e-008   
  0.9             -2.1772e-009    8.4388e-005     -2.3258e-008   
  0.95            -1.9001e-009    0.000113525     -5.2009e-008   
  1               -2.5764e-009    0.00014568      -5.7256e-008   
  1.05            -9.217e-010     0.00018018      -6.0392e-008   
  1.1             2.6129e-009     0.00021568      -7.3387e-008   
  1.15            1.6922e-009     0.00025271      -4.5333e-008   
  1.2             -2.4531e-009    0.00029282      -4.348e-008    
  1.25            -1.72e-009      0.00033235      -6.2385e-008   
  1.3             2.111e-010      0.00037068      -6.2213e-008   
  1.35            2.6241e-009     0.00041064      -6.1347e-008   
  1.4             1.6671e-009     0.00045028      -3.9805e-008   
  1.45            -2.4682e-009    0.00049255      -3.53e-008     
  1.5             -1.7072e-009    0.00053352      -5.305e-008    
  1.55            2.318e-010      0.00057252      -5.2154e-008   
  1.6             2.6397e-009     0.00061305      -4.9354e-008   
  1.65            1.6492e-009     0.00065348      -2.8122e-008   
  1.7             -1.3066e-009    0.0006957       -2.2785e-008   
  1.75            -2.4328e-009    0.00073543      -3.8555e-008   
  1.8             -7.515e-010     0.00077546      -3.9732e-008   
END_DB

