! VERSION = 6.00
BEGIN_HEADER
 ICCAP_INPUTS
  VG         V  B GROUND SMU4 0.001 LIN        1    0          1.8        37   0.05      
  VS         V  E GROUND SMU2 0.1 CON        0
  VB         V  C GROUND SMU3 0.1 LIN        3    0          -1.8       3    -0.9      
  VD         V  S GROUND SMU1 0.1 LIN        2    0.1        1.8        2    1.7       
 ICCAP_OUTPUTS
  IG         I  B GROUND SMU4 B
  ID         I  S GROUND SMU1 B
  IB         I  C GROUND SMU3 B
END_HEADER

BEGIN_DB
 ICCAP_VAR VS         0              
 ICCAP_VAR VB         0              
 ICCAP_VAR VD         0.1            

 #VG              IG              ID              IB             
  0               -8.837e-010     -8.59e-010      -2.5518e-008   
  0.05            -1.338e-009     1.4195e-009     2.3064e-008    
  0.1             -1.2991e-009    6.61e-011       1.1385e-008    
  0.15            -2.6115e-009    2.54e-010       1.2617e-008    
  0.2             -1.0338e-009    -2.1773e-009    8.28e-010      
  0.25            1.5618e-009     -1.4179e-009    -1.1801e-008   
  0.3             2.6605e-009     2.4507e-009     -8.433e-009    
  0.35            4.572e-010      8.2314e-009     1.0919e-008    
  0.4             -1.667e-009     2.2138e-008     -1.3926e-008   
  0.45            -1.3993e-009    7.5867e-008     6.268e-009     
  0.5             1.5591e-009     1.9885e-007     -2.512e-008    
  0.55            2.0102e-009     4.3318e-007     1.0357e-008    
  0.6             -1.3863e-009    8.0133e-007     2.7003e-008    
  0.65            -2.6735e-009    1.2523e-006     -2.364e-008    
  0.7             -2.2178e-009    1.7773e-006     6.61e-010      
  0.75            -1.6159e-009    2.3267e-006     2.208e-009     
  0.8             -1.3886e-009    2.8829e-006     6.993e-009     
  0.85            -1.3073e-009    3.4361e-006     1.1189e-008    
  0.9             -2.4e-009       3.9806e-006     1.2239e-008    
  0.95            -1.7537e-009    4.5094e-006     1.904e-009     
  1               -1.4181e-009    5.0342e-006     5.396e-009     
  1.05            -1.3324e-009    5.5469e-006     1.0244e-008    
  1.1             -2.5315e-009    6.0486e-006     1.1565e-008    
  1.15            -1.9206e-009    6.526e-006      1.297e-009     
  1.2             -1.4702e-009    6.9994e-006     4.066e-009     
  1.25            -1.3521e-009    7.4564e-006     9.291e-009     
  1.3             -2.6322e-009    7.8992e-006     1.1421e-008    
  1.35            -2.1038e-009    8.3162e-006     5.63e-010      
  1.4             -1.5504e-009    8.7258e-006     2.905e-009     
  1.45            -1.3749e-009    9.1178e-006     7.792e-009     
  1.5             -2.6986e-009    9.4944e-006     1.1549e-008    
  1.55            1.8521e-009     9.8418e-006     -1.8712e-008   
  1.6             1.3823e-009     1.01848e-005    -8.763e-009    
  1.65            1.2712e-009     1.05087e-005    -8.454e-009    
  1.7             2.6993e-009     1.08206e-005    -1.3053e-008   
  1.75            6.425e-010      1.11186e-005    1.1226e-008    
  1.8             -1.628e-009     1.13948e-005    1.9539e-008    
END_DB

BEGIN_DB
 ICCAP_VAR VS         0              
 ICCAP_VAR VB         0              
 ICCAP_VAR VD         1.8            

 #VG              IG              ID              IB             
  0               -1.3237e-009    -1.2153e-009    -8.259e-009    
  0.05            -2.6637e-009    1.449e-010      1.163e-008     
  0.1             -9.632e-010     -2.2472e-009    8.79e-010      
  0.15            1.6518e-009     -1.6562e-009    -1.1953e-008   
  0.2             1.739e-009      1.7441e-009     -8.451e-009    
  0.25            3.864e-010      3.2148e-009     1.1172e-008    
  0.3             5.914e-010      7.0055e-009     1.0331e-008    
  0.35            1.2575e-009     2.0746e-008     1.1234e-008    
  0.4             2.5998e-009     6.8244e-008     -1.4214e-008   
  0.45            -2.127e-009     1.8679e-007     2.0348e-008    
  0.5             -1.1992e-009    4.3489e-007     -9.781e-009    
  0.55            4.57e-011       8.4144e-007     -1.2008e-008   
  0.6             1.8985e-009     1.4646e-006     1.0782e-008    
  0.65            1.4031e-009     2.3049e-006     -9.453e-009    
  0.7             1.2808e-009     3.3813e-006     -9.409e-009    
  0.75            2.7343e-009     4.6803e-006     -1.3527e-008   
  0.8             2.4465e-009     6.2375e-006     7.437e-009     
  0.85            -1.6505e-009    8.0348e-006     1.9171e-008    
  0.9             -1.3903e-009    1.00119e-005    5.359e-009     
  0.95            -2.198e-010     1.221e-005      -9.322e-009    
  1               -1.4308e-009    1.4624e-005     2.3668e-008    
  1.05            -1.3392e-009    1.7217e-005     9.356e-009     
  1.1             -2.5569e-009    1.9996e-005     1.0849e-008    
  1.15            -1.9491e-009    2.2916e-005     4.68e-010      
  1.2             -1.4682e-009    2.6017e-005     3.451e-009     
  1.25            -1.3557e-009    2.9287e-005     9.091e-009     
  1.3             -2.6438e-009    3.2701e-005     1.1224e-008    
  1.35            -2.0962e-009    3.6198e-005     4.34e-010      
  1.4             -1.534e-009     3.9849e-005     2.862e-009     
  1.45            -1.3709e-009    4.3609e-005     7.955e-009     
  1.5             -2.6921e-009    4.7472e-005     1.1595e-008    
  1.55            -2.2495e-009    5.1366e-005     6.48e-010      
  1.6             -1.6316e-009    5.5397e-005     2.358e-009     
  1.65            -1.3892e-009    5.9477e-005     6.728e-009     
  1.7             -1.3128e-009    6.3626e-005     1.1167e-008    
  1.75            -2.3928e-009    6.7835e-005     1.2118e-008    
  1.8             -8.01e-010      7.1996e-005     -1.1689e-008   
END_DB

BEGIN_DB
 ICCAP_VAR VS         0              
 ICCAP_VAR VB         -0.9           
 ICCAP_VAR VD         0.1            

 #VG              IG              ID              IB             
  0               -1.3565e-009    -1.2595e-009    1.1295e-008    
  0.05            -1.3219e-009    5.3e-012        1.151e-008     
  0.1             -2.6496e-009    1.772e-010      1.2049e-008    
  0.15            -9.909e-010     -2.2555e-009    6.84e-010      
  0.2             -1.1532e-009    -2.1612e-009    -1.0062e-008   
  0.25            1.4264e-009     -1.1205e-009    -2.603e-008    
  0.3             1.0081e-009     2.3814e-009     -8.567e-009    
  0.35            1.1685e-009     2.3718e-009     1.0473e-008    
  0.4             -1.399e-009     1.996e-009      2.8014e-008    
  0.45            -1.3685e-009    3.9797e-009     1.1056e-008    
  0.5             1.9807e-009     1.8019e-008     2.0092e-008    
  0.55            1.4345e-009     5.8641e-008     -7.955e-009    
  0.6             -1.1587e-009    1.6128e-007     1.7257e-008    
  0.65            1.323e-009      3.5713e-007     -2.6297e-008   
  0.7             2.8671e-009     6.6563e-007     -9.14e-009     
  0.75            -1.6769e-009    1.0914e-006     2.0932e-008    
  0.8             -2.5911e-009    1.567e-006      -2.0249e-008   
  0.85            -7.374e-010     2.079e-006      -1.1864e-008   
  0.9             -1.1039e-009    2.6105e-006     -9.821e-009    
  0.95            1.364e-010      3.1257e-006     -1.1294e-008   
  1               -3.884e-010     3.6556e-006     -1.19e-008     
  1.05            -8.698e-010     4.1782e-006     -1.1555e-008   
  1.1             1.499e-009      4.6781e-006     -1.276e-008    
  1.15            1.3012e-009     5.178e-006      -8.332e-009    
  1.2             2.8189e-009     5.6593e-006     -1.0426e-008   
  1.25            4.77e-010       6.1439e-006     1.1356e-008    
  1.3             9.019e-010      6.594e-006      1.0336e-008    
  1.35            -1.42e-009      7.0356e-006     1.2737e-008    
  1.4             -1.3376e-009    7.4633e-006     1.0451e-008    
  1.45            -2.5171e-009    7.8729e-006     1.1326e-008    
  1.5             -1.886e-009     8.2581e-006     1.122e-009     
  1.55            -1.4506e-009    8.6353e-006     4.109e-009     
  1.6             -1.3522e-009    8.994e-006      9.657e-009     
  1.65            -2.6066e-009    9.3373e-006     1.1455e-008    
  1.7             -2.0235e-009    9.6553e-006     7.26e-010      
  1.75            -1.497e-009     9.9645e-006     3.16e-009      
  1.8             -1.3661e-009    1.02577e-005    8.689e-009     
END_DB

BEGIN_DB
 ICCAP_VAR VS         0              
 ICCAP_VAR VB         -0.9           
 ICCAP_VAR VD         1.8            

 #VG              IG              ID              IB             
  0               2.59e-011       2.957e-010      8.861e-009     
  0.05            -2.265e-010     -2.1428e-009    -1.2163e-008   
  0.1             -4.761e-010     -2.2155e-009    -1.1855e-008   
  0.15            -7.122e-010     -2.2631e-009    -1.0812e-008   
  0.2             1.2646e-009     -1.5714e-009    -1.609e-008    
  0.25            2.8163e-009     -1.971e-010     -1.3916e-008   
  0.3             1.1461e-009     2.345e-009      1.0147e-008    
  0.35            -1.3978e-009    1.7516e-009     2.8035e-008    
  0.4             -1.3664e-009    3.2542e-009     1.0886e-008    
  0.45            1.2961e-009     1.4693e-008     9.967e-009     
  0.5             2.784e-009      5.506e-008      -1.0964e-008   
  0.55            -2.7253e-009    1.5311e-007     1.1292e-008    
  0.6             1.9844e-009     3.5407e-007     -2.1067e-008   
  0.65            1.4212e-009     7.0523e-007     -8.412e-009    
  0.7             2.57e-009       1.2576e-006     1.8812e-008    
  0.75            6.049e-010      2.0366e-006     1.0772e-008    
  0.8             -1.628e-009     3.0548e-006     1.896e-008     
  0.85            -1.3855e-009    4.2994e-006     5.66e-009      
  0.9             -2.7216e-009    5.7839e-006     1.0589e-008    
  0.95            -2.907e-010     7.4572e-006     -1.2363e-008   
  1               -8.087e-010     9.4107e-006     -1.2291e-008   
  1.05            8.682e-010      1.1557e-005     -2.0256e-008   
  1.1             -1.4273e-009    1.3952e-005     1.2568e-008    
  1.15            -1.3454e-009    1.6508e-005     9.772e-009     
  1.2             -2.5619e-009    1.9277e-005     1.1104e-008    
  1.25            -1.9386e-009    2.2168e-005     6.38e-010      
  1.3             -1.4645e-009    2.5253e-005     3.429e-009     
  1.35            -1.3581e-009    2.8489e-005     9.297e-009     
  1.4             -2.6387e-009    3.1869e-005     1.1633e-008    
  1.45            -2.0836e-009    3.5332e-005     7.15e-010      
  1.5             -1.5222e-009    3.8948e-005     2.815e-009     
  1.55            -1.3675e-009    4.2687e-005     8.13e-009      
  1.6             -2.6875e-009    4.6513e-005     1.1787e-008    
  1.65            -2.2081e-009    5.0375e-005     8.09e-010      
  1.7             -1.5894e-009    5.4346e-005     2.349e-009     
  1.75            -1.3803e-009    5.8383e-005     6.969e-009     
  1.8             -1.3137e-009    6.2495e-005     1.1552e-008    
END_DB

BEGIN_DB
 ICCAP_VAR VS         0              
 ICCAP_VAR VB         -1.8           
 ICCAP_VAR VD         0.1            

 #VG              IG              ID              IB             
  0               3.749e-010      5.338e-010      1.0405e-008    
  0.05            1.8934e-009     -8.362e-010     -2.1008e-008   
  0.1             1.5587e-009     1.7593e-009     -8.567e-009    
  0.15            1.7645e-009     1.4874e-009     1.0739e-008    
  0.2             4.158e-010      2.2452e-009     1.1271e-008    
  0.25            -2.2395e-009    5.232e-010      1.5661e-008    
  0.3             -1.329e-009     -2.0261e-009    2.417e-009     
  0.35            1.3402e-009     -1.2576e-009    -2.591e-008    
  0.4             1.1563e-009     2.3311e-009     -8.773e-009    
  0.45            -1.3985e-009    1.5872e-009     2.8322e-008    
  0.5             -1.3642e-009    2.2208e-009     1.0617e-008    
  0.55            2.8509e-009     1.147e-008      1.1256e-008    
  0.6             -1.6084e-009    4.0101e-008     1.8999e-008    
  0.65            4.918e-010      1.1149e-007     -2.6566e-008   
  0.7             1.303e-010      2.5811e-007     -1.1343e-008   
  0.75            1.351e-009      5.0682e-007     -2.5628e-008   
  0.8             1.2615e-009     8.5364e-007     -8.544e-009    
  0.85            2.6011e-009     1.2887e-006     1.8779e-008    
  0.9             1.8812e-009     1.7656e-006     -2.825e-009    
  0.95            1.391e-009      2.2678e-006     -8.557e-009    
  1               1.2809e-009     2.7776e-006     -8.356e-009    
  1.05            2.7285e-009     3.2898e-006     -1.2621e-008   
  1.1             6.164e-010      3.8108e-006     1.1345e-008    
  1.15            1.0107e-009     4.3029e-006     9.419e-009     
  1.2             -1.431e-010     4.8004e-006     1.1381e-008    
  1.25            -1.3953e-009    5.284e-006      2.6235e-008    
  1.3             -1.3226e-009    5.7458e-006     1.0744e-008    
  1.35            -2.4463e-009    6.1997e-006     1.1653e-008    
  1.4             -1.7925e-009    6.6281e-006     1.389e-009     
  1.45            -1.4209e-009    7.0478e-006     4.814e-009     
  1.5             -1.3391e-009    7.4533e-006     9.938e-009     
  1.55            -2.559e-009     7.842e-006      1.1323e-008    
  1.6             -1.9217e-009    8.2052e-006     8.67e-010      
  1.65            -1.4562e-009    8.5604e-006     3.85e-009      
  1.7             -1.3528e-009    8.8957e-006     9.349e-009     
  1.75            -2.6403e-009    9.218e-006      1.1437e-008    
  1.8             -2.0672e-009    9.5177e-006     7.63e-010      
END_DB

BEGIN_DB
 ICCAP_VAR VS         0              
 ICCAP_VAR VB         -1.8           
 ICCAP_VAR VD         1.8            

 #VG              IG              ID              IB             
  0               -9.142e-010     -8.681e-010     -2.2731e-008   
  0.05            -1.3415e-009    1.3984e-009     2.3672e-008    
  0.1             -2.715e-009     4.99e-011       1.1182e-008    
  0.15            1.2804e-009     -1.49e-009      -1.9739e-008   
  0.2             2.8868e-009     -7.81e-011      -1.2157e-008   
  0.25            -1.3305e-009    1.4596e-009     2.1903e-008    
  0.3             -2.6917e-009    1.209e-010      1.1479e-008    
  0.35            -9.375e-010     -2.2237e-009    8.74e-010      
  0.4             1.6785e-009     -1.4343e-009    -1.2072e-008   
  0.45            2.5854e-009     2.4734e-009     -8.73e-009     
  0.5             3.612e-010      9.6156e-009     1.1222e-008    
  0.55            -2.7093e-009    2.9837e-008     -2.4491e-008   
  0.6             -3.175e-010     9.3786e-008     -1.1739e-008   
  0.65            -2.6175e-009    2.3656e-007     1.0801e-008    
  0.7             -8.069e-010     4.9861e-007     -1.1897e-008   
  0.75            1.5795e-009     9.2187e-007     -1.4562e-008   
  0.8             2.3097e-009     1.5649e-006     1.2885e-008    
  0.85            -1.3118e-009    2.45e-006       2.516e-008     
  0.9             -2.3808e-009    3.5591e-006     1.1637e-008    
  0.95            -8.11e-010      4.8811e-006     -1.2236e-008   
  1               -1.1838e-009    6.4985e-006     -1.0114e-008   
  1.05            5.81e-011       8.2611e-006     -1.1939e-008   
  1.1             -4.994e-010     1.03012e-005    -1.2236e-008   
  1.15            -1.485e-010     1.2587e-005     -8.855e-009    
  1.2             -1.3977e-009    1.506e-005      2.5668e-008    
  1.25            -1.3207e-009    1.7699e-005     1.0293e-008    
  1.3             -2.4531e-009    2.0539e-005     1.1568e-008    
  1.35            -1.7873e-009    2.3502e-005     1.568e-009     
  1.4             -1.414e-009     2.6652e-005     4.939e-009     
  1.45            -1.3342e-009    2.9948e-005     9.989e-009     
  1.5             -2.5504e-009    3.3372e-005     1.1343e-008    
  1.55            -1.9146e-009    3.6895e-005     1.079e-009     
  1.6             -1.4519e-009    4.0534e-005     4.099e-009     
  1.65            -1.3463e-009    4.428e-005      9.275e-009     
  1.7             -2.6142e-009    4.8129e-005     1.1408e-008    
  1.75            -2.0328e-009    5.1988e-005     7.16e-010      
  1.8             -1.4957e-009    5.596e-005      3.266e-009     
END_DB

