! VERSION = 6.00
BEGIN_HEADER
 ICCAP_INPUTS
  VG         V  B GROUND SMU4 0.001 LIN        1    0          1.8        37   0.05      
  VS         V  E GROUND SMU2 0.1 CON        0
  VB         V  C GROUND SMU3 0.1 LIN        3    0          -1.8       3    -0.9      
  VD         V  S GROUND SMU1 0.1 LIN        2    0.1        1.8        2    1.7       
 ICCAP_OUTPUTS
  IG         I  B GROUND SMU4 B
  ID         I  S GROUND SMU1 B
  IB         I  C GROUND SMU3 B
END_HEADER

BEGIN_DB
 ICCAP_VAR VS         0              
 ICCAP_VAR VB         0              
 ICCAP_VAR VD         0.1            

 #VG              IG              ID              IB             
  0               1.762e-010      4.034e-010      9.11e-009      
  0.05            1.5705e-009     -9.894e-010     -2.4907e-008   
  0.1             8.762e-010      2.395e-009      -8.438e-009    
  0.15            -1.5946e-009    1.8006e-009     1.3081e-008    
  0.2             -8.693e-010     -2.0444e-009    7.15e-009      
  0.25            1.7927e-009     -7.148e-010     -1.2756e-008   
  0.3             1.5288e-009     4.4383e-009     -8.675e-009    
  0.35            -1.3091e-009    1.7167e-008     -1.1953e-008   
  0.4             -2.3783e-009    7.8093e-008     1.2218e-008    
  0.45            7.416e-010      3.1603e-007     -1.396e-008    
  0.5             -1.3411e-009    1.2839e-006     -1.1589e-008   
  0.55            -2.5525e-009    4.5213e-006     1.1375e-008    
  0.6             1.3944e-009     1.2661e-005     7.44e-010      
  0.65            1.2747e-009     2.9939e-005     -8.358e-009    
  0.7             2.6913e-009     5.8914e-005     -1.2872e-008   
  0.75            6.412e-010      0.000100594     1.1336e-008    
  0.8             2.7257e-009     0.00014988      1.0281e-008    
  0.85            -1.3711e-009    0.00020571      2.7721e-008    
  0.9             -2.685e-009     0.00026235      1.1577e-008    
  0.95            -2.1974e-009    0.00031849      6.95e-010      
  1               -1.5915e-009    0.00037393      2.268e-009     
  1.05            -1.383e-009     0.00042699      6.887e-009     
  1.1             -1.3019e-009    0.00047782      1.1222e-008    
  1.15            -2.3487e-009    0.00052579      1.2334e-008    
  1.2             -1.6856e-009    0.00057056      2.143e-009     
  1.25            -1.3993e-009    0.00061287      5.718e-009     
  1.3             -1.3229e-009    0.0006526       1.0682e-008    
  1.35            -2.4554e-009    0.00068993      1.1756e-008    
  1.4             -1.7932e-009    0.0007241       1.603e-009     
  1.45            -1.4234e-009    0.00075647      4.678e-009     
  1.5             -1.3394e-009    0.00078668      9.881e-009     
  1.55            -2.5482e-009    0.00081492      1.1471e-008    
  1.6             -1.9136e-009    0.00084063      8.78e-010      
  1.65            -1.4551e-009    0.00086498      3.859e-009     
  1.7             -1.3526e-009    0.0008876       9.081e-009     
  1.75            -2.6256e-009    0.00090869      1.161e-008     
  1.8             -2.0418e-009    0.00092779      5.57e-010      
END_DB

BEGIN_DB
 ICCAP_VAR VS         0              
 ICCAP_VAR VB         0              
 ICCAP_VAR VD         1.8            

 #VG              IG              ID              IB             
  0               1.3411e-009     1.444e-009      -1.2058e-008   
  0.05            1.1578e-009     2.2588e-009     -8.873e-009    
  0.1             -1.4016e-009    1.1847e-009     2.8018e-008    
  0.15            -1.3659e-009    9.43e-011       1.0663e-008    
  0.2             -1.3322e-009    1.2116e-009     1.1533e-008    
  0.25            -2.6867e-009    5.8262e-009     1.1684e-008    
  0.3             2.7182e-009     2.5702e-008     1.0693e-008    
  0.35            -2.7234e-009    1.0937e-007     1.125e-008     
  0.4             -1.674e-010     4.7415e-007     -1.2465e-008   
  0.45            2.3805e-009     1.8893e-006     1.2124e-008    
  0.5             -1.5943e-009    6.8422e-006     1.1515e-008    
  0.55            2.8468e-009     1.9503e-005     -2.8582e-008   
  0.6             2.7856e-009     4.7806e-005     -3.6506e-008   
  0.65            2.1798e-009     9.7722e-005     -6.4955e-008   
  0.7             -1.065e-010     0.00017372      -1.0573e-007   
  0.75            -6.715e-010     0.00027274      -1.4468e-007   
  0.8             -1.057e-009     0.00039483      -1.7624e-007   
  0.85            -1.4719e-009    0.00053329      -2.0812e-007   
  0.9             -1.841e-009     0.00068098      -2.3416e-007   
  0.95            -2.1206e-009    0.00083831      -2.5243e-007   
  1               -2.4985e-009    0.00100466      -2.6779e-007   
  1.05            4.334e-010      0.0011754       -2.9651e-007   
  1.1             6.53e-011       0.0013476       -2.8885e-007   
  1.15            -4.813e-010     0.0015258       -2.9293e-007   
  1.2             -9.265e-010     0.0017064       -2.9227e-007   
  1.25            -1.3192e-009    0.0018896       -2.8903e-007   
  1.3             -1.7348e-009    0.0020694       -2.8754e-007   
  1.35            -2.0099e-009    0.0022473       -2.797e-007    
  1.4             -2.374e-009     0.0024276       -2.7157e-007   
  1.45            -2.6485e-009    0.0026075       -2.6325e-007   
  1.5             -2.7159e-009    0.0027864       -2.5015e-007   
  1.55            -2.393e-009     0.0029656       -2.3692e-007   
  1.6             -1.7452e-009    0.0031436       -2.2654e-007   
  1.65            -1.4109e-009    0.0033201       -2.1332e-007   
  1.7             -1.3301e-009    0.0034955       -1.9851e-007   
  1.75            -2.5118e-009    0.0036709       -1.8743e-007   
  1.8             -1.8592e-009    0.0038424       -1.8797e-007   
END_DB

BEGIN_DB
 ICCAP_VAR VS         0              
 ICCAP_VAR VB         -0.9           
 ICCAP_VAR VD         0.1            

 #VG              IG              ID              IB             
  0               -1.3027e-009    -1.2293e-009    1.0427e-008    
  0.05            -2.6172e-009    2.154e-010      1.2102e-008    
  0.1             -1.0116e-009    -2.2318e-009    4.55e-010      
  0.15            1.5753e-009     -1.7199e-009    -1.1872e-008   
  0.2             8.79e-010       2.3845e-009     -8.553e-009    
  0.25            -1.6025e-009    1.7706e-009     1.3344e-008    
  0.3             -8.672e-010     -2.1596e-009    7.235e-009     
  0.35            1.807e-009      -1.18e-009      -1.3112e-008   
  0.4             1.5475e-009     2.6638e-009     -8.794e-009    
  0.45            2.8645e-009     1.176e-008      2.1715e-008    
  0.5             2.7288e-009     5.0981e-008     -1.01e-010     
  0.55            -6.495e-010     2.2845e-007     1.124e-008     
  0.6             -1.0389e-009    1.00222e-006    -1.0118e-008   
  0.65            2.661e-009      3.6055e-006     8.803e-009     
  0.7             1.2556e-009     1.0934e-005     -2.5965e-008   
  0.75            -1.335e-009     2.8045e-005     2.7571e-008    
  0.8             -2.5354e-009    5.6491e-005     1.1369e-008    
  0.85            -1.9078e-009    9.6486e-005     8.95e-010      
  0.9             -1.3702e-009    0.00014636      3.211e-009     
  0.95            -2.6851e-009    0.00020113      1.1537e-008    
  1               -2.2394e-009    0.00025758      7.38e-010      
  1.05            -1.6184e-009    0.00031474      2.267e-009     
  1.1             -1.389e-009     0.00037013      6.415e-009     
  1.15            -1.3078e-009    0.00042304      1.1088e-008    
  1.2             -2.3797e-009    0.0004733       1.2171e-008    
  1.25            -1.7185e-009    0.00052038      1.95e-009      
  1.3             -1.4057e-009    0.00056474      5.362e-009     
  1.35            -1.3244e-009    0.00060635      1.0347e-008    
  1.4             -2.4837e-009    0.00064529      1.1657e-008    
  1.45            -1.8422e-009    0.00068086      1.377e-009     
  1.5             -1.4357e-009    0.00071457      4.61e-009      
  1.55            -1.3396e-009    0.00074601      9.623e-009     
  1.6             -2.5776e-009    0.00077519      1.1406e-008    
  1.65            -1.9821e-009    0.00080176      5.77e-010      
  1.7             -1.4835e-009    0.0008268       3.801e-009     
  1.75            -1.3561e-009    0.00085018      8.876e-009     
  1.8             -2.6402e-009    0.00087199      1.1472e-008    
END_DB

BEGIN_DB
 ICCAP_VAR VS         0              
 ICCAP_VAR VB         -0.9           
 ICCAP_VAR VD         1.8            

 #VG              IG              ID              IB             
  0               1.79e-011       5.061e-010      2.021e-008     
  0.05            2.298e-010      2.1427e-009     1.1299e-008    
  0.1             4.372e-010      2.2448e-009     1.0844e-008    
  0.15            -1.3444e-009    1.3955e-009     2.396e-008     
  0.2             -1.3031e-009    1.342e-010      1.1438e-008    
  0.25            -2.629e-009     6.519e-010      1.2213e-008    
  0.3             -2.4257e-009    1.2413e-009     5.95e-010      
  0.35            2.6536e-009     1.0917e-008     -1.363e-008    
  0.4             2.4701e-009     4.8308e-008     8.082e-009     
  0.45            2.1222e-009     2.2009e-007     -2.072e-008    
  0.5             1.0037e-009     9.42e-007       7.875e-009     
  0.55            -1.3244e-009    3.8015e-006     -1.4933e-008   
  0.6             6.658e-010      1.2257e-005     -2.7824e-008   
  0.65            1.0364e-009     3.2557e-005     -1.7111e-008   
  0.7             1.4368e-009     7.2283e-005     -3.8226e-008   
  0.75            1.3259e-009     0.00013729      -5.2631e-008   
  0.8             -2.3178e-009    0.00023023      -1.0351e-007   
  0.85            -1.6754e-009    0.00034527      -1.45e-007     
  0.9             -1.4009e-009    0.00047748      -1.7163e-007   
  0.95            -1.3184e-009    0.00062389      -1.9298e-007   
  1               -2.4469e-009    0.00078152      -2.1338e-007   
  1.05            -1.8e-009       0.00094423      -2.403e-007    
  1.1             -1.4301e-009    0.00111479      -2.4921e-007   
  1.15            2.0738e-009     0.0012845       -2.3363e-007   
  1.2             1.4727e-009     0.0014613       -2.7363e-007   
  1.25            1.2975e-009     0.0016388       -2.7596e-007   
  1.3             2.8014e-009     0.0018167       -2.7757e-007   
  1.35            2.215e-009      0.0019988       -2.6466e-007   
  1.4             1.5591e-009     0.0021782       -2.645e-007    
  1.45            1.3179e-009     0.0023574       -2.6077e-007   
  1.5             2.8569e-009     0.0025358       -2.5466e-007   
  1.55            2.3823e-009     0.0027166       -2.3789e-007   
  1.6             1.6691e-009     0.0028933       -2.3294e-007   
  1.65            1.3437e-009     0.0030704       -2.2806e-007   
  1.7             2.8753e-009     0.0032442       -2.1903e-007   
  1.75            2.5147e-009     0.0034218       -2.017e-007    
  1.8             1.804e-009      0.0035941       -1.9504e-007   
END_DB

BEGIN_DB
 ICCAP_VAR VS         0              
 ICCAP_VAR VB         -1.8           
 ICCAP_VAR VD         0.1            

 #VG              IG              ID              IB             
  0               8.882e-010      8.577e-010      -1.2559e-008   
  0.05            1.2824e-009     -1.4752e-009    -1.9066e-008   
  0.1             2.8801e-009     -5.05e-011      -1.1861e-008   
  0.15            -1.3283e-009    1.4313e-009     2.2035e-008    
  0.2             -2.6894e-009    9.84e-011       1.1158e-008    
  0.25            -1.11e-009      -2.1703e-009    -9.504e-009    
  0.3             1.4809e-009     -1.7621e-009    -1.1999e-008   
  0.35            1.9084e-009     1.4492e-009     -8.543e-009    
  0.4             5.848e-010      2.7271e-009     1.0545e-008    
  0.45            7.74e-010       4.4001e-009     9.519e-009     
  0.5             -2.2351e-009    9.968e-009      -1.0235e-008   
  0.55            -1.6337e-009    4.7881e-008     1.936e-009     
  0.6             1.1494e-009     2.1957e-007     -1.8914e-008   
  0.65            3.56e-011       9.8468e-007     1.1264e-008    
  0.7             -2.632e-009     3.6153e-006     -2.1804e-008   
  0.75            -2.1103e-009    1.11198e-005    7.32e-010      
  0.8             1.3882e-009     2.702e-005      8.57e-010      
  0.85            1.2586e-009     5.4702e-005     -8.701e-009    
  0.9             2.6207e-009     9.4273e-005     -1.3109e-008   
  0.95            2.5233e-009     0.0001443       1.109e-008     
  1               5.723e-010      0.00019971      1.1129e-008    
  1.05            -1.6946e-009    0.00025671      2.0877e-008    
  1.1             -1.4091e-009    0.0003134       5.953e-009     
  1.15            -1.3102e-009    0.00036848      1.0736e-008    
  1.2             -2.4195e-009    0.00042125      1.1412e-008    
  1.25            -1.8063e-009    0.00047064      1.52e-009      
  1.3             -1.4436e-009    0.00051776      4.792e-009     
  1.35            -1.3325e-009    0.00056182      1.0011e-008    
  1.4             -2.5381e-009    0.00060302      1.1154e-008    
  1.45            -1.9433e-009    0.00064068      6.96e-010      
  1.5             -2.6438e-009    0.00067624      -7.68e-009     
  1.55            -8.731e-010     0.00070917      -1.0822e-008   
  1.6             1.5098e-009     0.0007391       -1.3197e-008   
  1.65            1.3005e-009     0.00076792      -8.487e-009    
  1.7             2.8087e-009     0.00079436      -1.0452e-008   
  1.75            4.818e-010      0.00081956      1.1045e-008    
  1.8             9.034e-010      0.00084194      1.0125e-008    
END_DB

BEGIN_DB
 ICCAP_VAR VS         0              
 ICCAP_VAR VB         -1.8           
 ICCAP_VAR VD         1.8            

 #VG              IG              ID              IB             
  0               2.1315e-009     2.2912e-009     6.97e-010      
  0.05            1.3802e-009     1.9806e-009     -6.592e-009    
  0.1             2.28e-011       2.0437e-009     1.1307e-008    
  0.15            2.262e-010      2.1455e-009     1.1222e-008    
  0.2             4.366e-010      2.2692e-009     1.0814e-008    
  0.25            -1.3466e-009    1.5058e-009     2.363e-008     
  0.3             -1.3027e-009    7.285e-010      1.1428e-008    
  0.35            -2.6329e-009    3.5854e-009     1.1911e-008    
  0.4             2.2441e-009     1.5999e-008     8.852e-009     
  0.45            1.5807e-009     7.6316e-008     -5.732e-009    
  0.5             1.2461e-009     3.5064e-007     1.167e-009     
  0.55            1.9481e-009     1.4712e-006     9.766e-009     
  0.6             -2.4084e-009    5.6914e-006     5.791e-009     
  0.65            1.6116e-009     1.6934e-005     -2.5452e-008   
  0.7             1.3328e-009     4.3106e-005     -4.0249e-008   
  0.75            2.8801e-009     9.0746e-005     -6.6295e-008   
  0.8             1.2897e-009     0.000165        -7.83e-008     
  0.85            -1.4045e-009    0.00026486      -1.1252e-007   
  0.9             -1.3168e-009    0.00038668      -1.4357e-007   
  0.95            -2.4355e-009    0.00052439      -1.7177e-007   
  1               -1.79e-009      0.00067313      -2.0627e-007   
  1.05            -1.4337e-009    0.00083311      -2.2244e-007   
  1.1             -1.3397e-009    0.00099975      -2.3186e-007   
  1.15            -6.974e-010     0.0011684       -2.6236e-007   
  1.2             -1.0699e-009    0.0013454       -2.6819e-007   
  1.25            -1.4795e-009    0.0015237       -2.729e-007    
  1.3             -1.8422e-009    0.0017          -2.7357e-007   
  1.35            -2.1103e-009    0.0018769       -2.6961e-007   
  1.4             -2.4776e-009    0.0020566       -2.6509e-007   
  1.45            -2.6901e-009    0.0022357       -2.5828e-007   
  1.5             -2.6769e-009    0.0024141       -2.4639e-007   
  1.55            -2.236e-009     0.0025936       -2.3668e-007   
  1.6             -1.623e-009     0.0027717       -2.2689e-007   
  1.65            -1.386e-009     0.0029488       -2.1405e-007   
  1.7             -1.3082e-009    0.0031243       -2.008e-007    
  1.75            -2.4102e-009    0.0032995       -1.9059e-007   
  1.8             -1.7647e-009    0.0034716       -1.9174e-007   
END_DB

