! VERSION = 6.00
BEGIN_HEADER
 ICCAP_INPUTS
  VG         V  B GROUND SMU4 0.001 LIN        1    0          1.8        37   0.05      
  VS         V  E GROUND SMU3 0.1 CON        0
  VB         V  C GROUND SMU1 0.1 LIN        3    0          -1.8       3    -0.9      
  VD         V  S GROUND SMU2 0.1 LIN        2    0.1        1.8        2    1.7       
 ICCAP_OUTPUTS
  IG         I  B GROUND SMU4 B
  ID         I  S GROUND SMU2 B
  IB         I  C GROUND SMU1 B
END_HEADER

BEGIN_DB
 ICCAP_VAR VS         0              
 ICCAP_VAR VB         0              
 ICCAP_VAR VD         0.1            

 #VG              IG              ID              IB             
  0               -3.154e-010     9.364e-010      -9.648e-009    
  0.05            -2.6157e-009    -2.914e-010     7.783e-009     
  0.1             2.2826e-009     -1.2081e-009    -1.6577e-008   
  0.15            -2.1863e-009    1.0128e-009     1.5479e-008    
  0.2             2.4478e-009     -9.623e-010     -1.6089e-008   
  0.25            -2.3269e-009    1.0916e-009     1.4577e-008    
  0.3             2.581e-009      3.436e-010      -1.5735e-008   
  0.35            -1.617e-010     8.7593e-009     7.854e-009     
  0.4             2.6372e-009     2.4561e-008     1.528e-008     
  0.45            -1.639e-009     9.5148e-008     1.6004e-008    
  0.5             1.1686e-009     3.3458e-007     -1.6377e-008   
  0.55            -2.5008e-009    1.05875e-006    1.0909e-008    
  0.6             2.5007e-009     2.71e-006       1.7032e-008    
  0.65            -1.6868e-009    6.1853e-006     1.5641e-008    
  0.7             3.472e-010      1.1804e-005     -1.8489e-008   
  0.75            -1.6321e-009    2.0068e-005     1.5915e-008    
  0.8             -8.81e-010      2.9998e-005     -9.716e-009    
  0.85            2.725e-009      4.0901e-005     -7.139e-009    
  0.9             -2.5004e-009    5.2793e-005     1.0869e-008    
  0.95            2.2144e-009     6.4018e-005     -1.5516e-008   
  1               -1.5483e-009    7.5585e-005     1.8916e-008    
  1.05            -9.27e-010      8.6214e-005     -9.401e-009    
  1.1             2.7305e-009     9.6078e-005     -7.075e-009    
  1.15            -2.4591e-009    0.000105899     1.0489e-008    
  1.2             2.7214e-009     0.00011446      1.3863e-008    
  1.25            -1.3251e-009    0.00012306      1.2557e-008    
  1.3             2.2655e-009     0.00013045      -1.5579e-008   
  1.35            -1.5905e-009    0.0001379       1.9998e-008    
  1.4             -9.017e-010     0.00014447      -9.52e-009     
  1.45            2.7323e-009     0.00015064      -7.136e-009    
  1.5             -2.4792e-009    0.00015661      1.097e-008     
  1.55            2.1623e-009     0.00016183      -1.5772e-008   
  1.6             -1.5083e-009    0.0001671       1.7774e-008    
  1.65            -9.49e-010      0.00017173      -9.193e-009    
  1.7             2.7346e-009     0.00017602      -7.128e-009    
  1.75            -2.4373e-009    0.00018031      9.881e-009     
  1.8             2.0479e-009     0.00018391      -1.6207e-008   
END_DB

BEGIN_DB
 ICCAP_VAR VS         0              
 ICCAP_VAR VB         0              
 ICCAP_VAR VD         1.8            

 #VG              IG              ID              IB             
  0               1.3042e-009     1.506e-010      1.0054e-008    
  0.05            -2.5156e-009    3.918e-010      1.1624e-008    
  0.1             2.7037e-009     -3.1327e-009    -8.894e-009    
  0.15            -2.5599e-009    3.219e-010      1.1095e-008    
  0.2             1.6317e-009     -2.5392e-009    -1.0681e-008   
  0.25            -1.826e-009     5.141e-009      1.6792e-008    
  0.3             2.7326e-009     1.1985e-008     -1.6411e-008   
  0.35            -2.3326e-009    4.777e-008      1.1739e-008    
  0.4             -9.416e-010     1.984e-007      1.3703e-008    
  0.45            2.7371e-009     7.2805e-007     -8.051e-009    
  0.5             -2.6412e-009    2.3236e-006     -1.2935e-008   
  0.55            -1.1134e-009    5.9904e-006     -1.4125e-008   
  0.6             -8.575e-010     1.313e-005      5.157e-009     
  0.65            2.6309e-009     2.4895e-005     -3.9407e-008   
  0.7             1.6513e-009     4.1908e-005     -1.9122e-008   
  0.75            -2.4568e-009    6.5247e-005     -2.5723e-008   
  0.8             -1.7107e-009    9.2429e-005     -5.3711e-008   
  0.85            -2.5754e-009    0.0001226       -6.0258e-008   
  0.9             -1.4585e-009    0.00015687      -6.591e-008    
  0.95            1.6688e-009     0.00019167      -7.9377e-008   
  1               2.2723e-009     0.00022951      -5.8908e-008   
  1.05            4.378e-010      0.00026867      -5.8599e-008   
  1.1             -1.517e-009     0.00030887      -5.1527e-008   
  1.15            -2.23e-009      0.00034889      -7.5397e-008   
  1.2             -5.346e-010     0.00039013      -7.7379e-008   
  1.25            1.5148e-009     0.00043124      -8.3285e-008   
  1.3             2.3433e-009     0.00047357      -5.7015e-008   
  1.35            5.174e-010      0.00051566      -5.186e-008    
  1.4             -1.4188e-009    0.00055831      -4.1222e-008   
  1.45            -2.3075e-009    0.00059991      -6.3278e-008   
  1.5             -6.246e-010     0.00064204      -6.3386e-008   
  1.55            1.3941e-009     0.0006835       -6.8218e-008   
  1.6             2.4075e-009     0.00072595      -4.0841e-008   
  1.65            5.999e-010      0.00076806      -3.5035e-008   
  1.7             -1.3441e-009    0.00081027      -2.3261e-008   
  1.75            -2.396e-009     0.00085134      -4.5958e-008   
  1.8             -7.21e-010      0.00089266      -4.6672e-008   
END_DB

BEGIN_DB
 ICCAP_VAR VS         0              
 ICCAP_VAR VB         -0.9           
 ICCAP_VAR VD         0.1            

 #VG              IG              ID              IB             
  0               3.813e-010      -8.85e-010      -4.43e-009     
  0.05            2.6866e-009     4.006e-010      -7.079e-009    
  0.1             -2.2193e-009    9.316e-010      1.5379e-008    
  0.15            2.4749e-009     -9.548e-010     -1.6208e-008   
  0.2             -2.3459e-009    7.658e-010      1.4169e-008    
  0.25            1.47e-010       -3.4702e-009    -8.438e-009    
  0.3             2.7412e-009     3.93e-011       -8.322e-009    
  0.35            -1.7722e-009    3.0784e-009     1.5914e-008    
  0.4             2.22e-009       -1.8438e-009    -1.8311e-008   
  0.45            -2.1314e-009    5.3055e-009     1.5968e-008    
  0.5             -1.7605e-009    1.6396e-008     -8.05e-009     
  0.55            1.9321e-009     8.9997e-008     -1.6873e-008   
  0.6             4.92e-011       3.4259e-007     6.284e-009     
  0.65            2.4203e-009     1.08829e-006    -1.4189e-008   
  0.7             -2.0555e-009    2.9026e-006     -1.3175e-008   
  0.75            2.6818e-009     6.4373e-006     -1.9035e-008   
  0.8             2.7417e-009     1.2454e-005     -9.675e-009    
  0.85            -2.4373e-009    2.1065e-005     1.1203e-008    
  0.9             2.0887e-009     3.1084e-005     -1.6341e-008   
  0.95            -1.4651e-009    4.2794e-005     1.6801e-008    
  1               -9.81e-010      5.4484e-005     -9.325e-009    
  1.05            2.7403e-009     6.5832e-005     -6.99e-009     
  1.1             -2.3881e-009    7.7359e-005     1.1559e-008    
  1.15            1.9843e-009     8.7717e-005     -1.6606e-008   
  1.2             -1.406e-009     9.8024e-005     1.5063e-008    
  1.25            -1.033e-009     0.000107337     -9.006e-009    
  1.3             -2.4373e-009    0.00011602      1.0182e-008    
  1.35            2.0882e-009     0.00012378      -1.6237e-008   
  1.4             -1.472e-009     0.00013156      1.6874e-008    
  1.45            -9.816e-010     0.00013842      -9.335e-009    
  1.5             2.7383e-009     0.00014475      -6.961e-009    
  1.55            -2.3899e-009    0.0001509       1.1535e-008    
  1.6             1.9749e-009     0.00015631      -1.6593e-008   
  1.65            -1.4036e-009    0.00016175      1.4914e-008    
  1.7             2.3649e-009     0.00016632      -1.4682e-008   
  1.75            -1.5402e-009    0.00017096      1.6735e-008    
  1.8             -9.368e-010     0.00017511      -9.513e-009    
END_DB

BEGIN_DB
 ICCAP_VAR VS         0              
 ICCAP_VAR VB         -0.9           
 ICCAP_VAR VD         1.8            

 #VG              IG              ID              IB             
  0               1.4521e-009     -3.82e-011      8.631e-009     
  0.05            -2.5643e-009    1.968e-010      1.0963e-008    
  0.1             1.6549e-009     -3.0197e-009    -1.0899e-008   
  0.15            -1.8459e-009    2.8278e-009     1.7275e-008    
  0.2             2.1088e-009     -1.2999e-009    -1.6969e-008   
  0.25            -2.0327e-009    1.3676e-009     1.6441e-008    
  0.3             2.2925e-009     -3.82e-011      -1.6907e-008   
  0.35            -2.1924e-009    6.5805e-009     1.5792e-008    
  0.4             -1.6987e-009    2.5445e-008     -1.4513e-008   
  0.45            2.1459e-009     1.258e-007      -1.7451e-008   
  0.5             -2.506e-009     5.1606e-007     1.0022e-008    
  0.55            2.5426e-009     1.7165e-006     1.4493e-008    
  0.6             -1.9403e-009    4.8518e-006     1.0128e-008    
  0.65            -2.0003e-009    1.11249e-005    -1.7938e-008   
  0.7             -1.1784e-009    2.2389e-005     3.098e-009     
  0.75            2.2295e-009     3.854e-005      -4.7567e-008   
  0.8             2.0042e-009     6.053e-005      -2.5643e-008   
  0.85            1.353e-010      8.7613e-005     -3.4133e-008   
  0.9             -1.0004e-009    0.00011783      -5.3679e-008   
  0.95            -2.1972e-009    0.00015157      -5.4953e-008   
  1               -1.8949e-009    0.00018769      -6.9704e-008   
  1.05            -2.29e-011      0.00022455      -7.1623e-008   
  1.1             2.3294e-009     0.00026347      -8.0606e-008   
  1.15            1.946e-009      0.00030365      -5.7634e-008   
  1.2             6.98e-011       0.0003453       -5.8138e-008   
  1.25            -2.0844e-009    0.00038689      -5.1189e-008   
  1.3             -1.9472e-009    0.00042825      -7.2365e-008   
  1.35            -1.118e-010     0.00046946      -7.0339e-008   
  1.4             2.1856e-009     0.00051152      -7.5375e-008   
  1.45            2.0321e-009     0.00055391      -4.8782e-008   
  1.5             1.563e-010      0.00059692      -4.5938e-008   
  1.55            -1.9457e-009    0.00063909      -3.6171e-008   
  1.6             -2.0011e-009    0.00068088      -5.6621e-008   
  1.65            -2.268e-010     0.00072247      -5.4934e-008   
  1.7             2.0224e-009     0.00076417      -5.9782e-008   
  1.75            2.1067e-009     0.00080617      -3.2928e-008   
  1.8             2.554e-010      0.00084823      -2.9251e-008   
END_DB

BEGIN_DB
 ICCAP_VAR VS         0              
 ICCAP_VAR VB         -1.8           
 ICCAP_VAR VD         0.1            

 #VG              IG              ID              IB             
  0               3.196e-010      -1.0295e-009    -5.878e-009    
  0.05            2.7151e-009     2.994e-010      -7.375e-009    
  0.1             -2.1318e-009    1.0326e-009     1.6035e-008    
  0.15            2.3996e-009     -1.0681e-009    -1.6444e-008   
  0.2             -2.2863e-009    8.682e-010      1.5027e-008    
  0.25            2.5366e-009     -8.615e-010     -1.5415e-008   
  0.3             -2.4081e-009    6.781e-010      1.3416e-008    
  0.35            1.89e-010       -3.3351e-009    -8.139e-009    
  0.4             2.74e-009       3.199e-010      -7.555e-009    
  0.45            -1.8872e-009    3.9746e-009     1.8018e-008    
  0.5             2.1553e-009     4.5761e-009     -1.6944e-008   
  0.55            2.5034e-009     2.9692e-008     1.2717e-008    
  0.6             1.212e-009      1.2459e-007     -1.7078e-008   
  0.65            -2.458e-009     4.6138e-007     1.114e-008     
  0.7             2.2826e-009     1.3846e-006     1.2835e-008    
  0.75            1.956e-009      3.5205e-006     8.629e-009     
  0.8             -1.4246e-009    7.7249e-006     1.7521e-008    
  0.85            -1.6991e-009    1.4323e-005     -7.855e-009    
  0.9             -8.549e-010     2.3161e-005     -9.657e-009    
  0.95            2.7357e-009     3.3617e-005     -7.341e-009    
  1               -1.344e-009     4.5496e-005     1.3319e-008    
  1.05            -1.0899e-009    5.7264e-005     -8.47e-009     
  1.1             2.7252e-009     6.8441e-005     -7.295e-009    
  1.15            -2.96e-011      7.9886e-005     7.776e-009     
  1.2             -2.2297e-009    9.0334e-005     1.281e-008     
  1.25            1.6841e-009     9.9879e-005     -1.6904e-008   
  1.3             8.275e-010      0.000109142     9.072e-009     
  1.35            3.958e-010      0.00011764      1.5343e-008    
  1.4             -1.5872e-009    0.00012552      1.6666e-008    
  1.45            -9.11e-010      0.00013276      -9.518e-009    
  1.5             2.7426e-009     0.00013941      -6.824e-009    
  1.55            -2.4677e-009    0.00014585      1.091e-008     
  1.6             2.1656e-009     0.00015148      -1.5819e-008   
  1.65            -1.5246e-009    0.00015711      1.8348e-008    
  1.7             2.5057e-009     0.0001619       -1.3095e-008   
  1.75            -1.7117e-009    0.00016673      1.642e-008     
  1.8             2.6208e-009     0.00017094      -1.0893e-008   
END_DB

BEGIN_DB
 ICCAP_VAR VS         0              
 ICCAP_VAR VB         -1.8           
 ICCAP_VAR VD         1.8            

 #VG              IG              ID              IB             
  0               4.042e-010      -8.406e-010     -1.4152e-008   
  0.05            2.6735e-009     4.407e-010      -7.283e-009    
  0.1             5.673e-010      4.2363e-009     9.15e-009      
  0.15            -2.0792e-009    -1.8752e-009    2.246e-009     
  0.2             1.9361e-009     -1.4376e-009    -1.7207e-008   
  0.25            -1.8932e-009    1.352e-009      1.687e-008     
  0.3             2.1599e-009     -7.99e-010      -1.708e-008    
  0.35            -2.0784e-009    3.5621e-009     1.6285e-008    
  0.4             -2.5879e-009    1.0182e-008     -1.5938e-008   
  0.45            -9.556e-010     5.4765e-008     -9.709e-009    
  0.5             -1.6317e-009    2.6342e-007     -4.449e-009    
  0.55            -8.889e-010     9.8185e-007     -1.1162e-008   
  0.6             2.1933e-009     2.9774e-006     9.558e-009     
  0.65            -2.474e-009     7.6492e-006     3.879e-009     
  0.7             -1.2751e-009    1.6311e-005     -5.615e-009    
  0.75            -2.468e-009     3.0223e-005     -2.7775e-008   
  0.8             -8.034e-010     4.9726e-005     -3.9273e-008   
  0.85            2.685e-009      7.3833e-005     -5.7787e-008   
  0.9             1.5694e-009     0.000102206     -3.8334e-008   
  0.95            8.216e-010      0.00013521      -3.3402e-008   
  1               -2.4312e-009    0.00017082      -3.6257e-008   
  1.05            -1.7468e-009    0.00020811      -7.038e-008    
  1.1             1.823e-010      0.00024526      -7.3441e-008   
  1.15            2.5931e-009     0.00028463      -7.6645e-008   
  1.2             1.71e-009       0.00032475      -5.6428e-008   
  1.25            -2.4269e-009    0.00036729      -5.4917e-008   
  1.3             -1.7562e-009    0.0004092       -7.2335e-008   
  1.35            1.691e-010      0.00044938      -7.0854e-008   
  1.4             2.5862e-009     0.00049129      -7.1146e-008   
  1.45            1.7232e-009     0.00053305      -4.814e-008    
  1.5             -1.553e-010     0.00057681      -4.4892e-008   
  1.55            -2.3789e-009    0.00061892      -3.9839e-008   
  1.6             -1.7935e-009    0.00066113      -5.8094e-008   
  1.65            1.308e-010      0.00070181      -5.4669e-008   
  1.7             2.5429e-009     0.00074355      -5.6171e-008   
  1.75            1.7654e-009     0.00078493      -3.1604e-008   
  1.8             -1.033e-010     0.00082774      -2.9692e-008   
END_DB

