! VERSION = 6.00
BEGIN_HEADER
 ICCAP_INPUTS
  VG         V  B GROUND SMU4 0.001 LIN        1    0          1.8        37   0.05      
  VS         V  E GROUND SMU2 0.1 CON        0
  VB         V  C GROUND SMU3 0.1 LIN        3    0          -1.8       3    -0.9      
  VD         V  S GROUND SMU1 0.1 LIN        2    0.1        1.8        2    1.7       
 ICCAP_OUTPUTS
  IG         I  B GROUND SMU4 B
  ID         I  S GROUND SMU1 B
  IB         I  C GROUND SMU3 B
END_HEADER

BEGIN_DB
 ICCAP_VAR VS         0              
 ICCAP_VAR VB         0              
 ICCAP_VAR VD         0.1            

 #VG              IG              ID              IB             
  0               -1.703e-009     -1.9157e-009    -3.072e-009    
  0.05            -1.6335e-009    -1.6263e-009    5.364e-009     
  0.1             -1.74e-010      -2.1051e-009    -1.1789e-008   
  0.15            -3.881e-010     -2.1619e-009    -1.1826e-008   
  0.2             -5.933e-010     -2.2001e-009    -1.1351e-008   
  0.25            -7.759e-010     -2.1793e-009    -1.0601e-008   
  0.3             1.2871e-009     -1.1452e-009    -9.704e-009    
  0.35            2.8719e-009     2.0378e-009     -1.0829e-008   
  0.4             2.839e-009      5.8721e-009     -1.77e-010     
  0.45            -1.3702e-009    2.1303e-008     -1.172e-008    
  0.5             -2.6969e-009    9.2317e-008     1.1376e-008    
  0.55            2.074e-010      3.4057e-007     -8.674e-009    
  0.6             6.601e-010      1.03888e-006    1.1144e-008    
  0.65            -1.3154e-009    2.6691e-006     -1.1143e-008   
  0.7             -2.479e-009     5.5555e-006     1.1599e-008    
  0.75            -1.8933e-009    9.7137e-006     1.195e-009     
  0.8             1.3008e-009     1.4963e-005     2.039e-009     
  0.85            2.8356e-009     2.117e-005      -9.897e-009    
  0.9             3.866e-010      2.8128e-005     1.1226e-008    
  0.95            8.076e-010      3.505e-005      1.0304e-008    
  1               1.1368e-009     4.1943e-005     8.716e-009     
  1.05            -1.62e-011      4.9049e-005     1.1161e-008    
  1.1             -1.3763e-009    5.5797e-005     2.7109e-008    
  1.15            -2.6959e-009    6.2245e-005     1.154e-008     
  1.2             1.9693e-009     6.8259e-005     -2.0577e-008   
  1.25            1.4443e-009     7.4137e-005     -7.78e-009     
  1.3             1.2909e-009     7.9732e-005     -8.159e-009    
  1.35            2.8035e-009     8.501e-005      -1.0692e-008   
  1.4             1.3488e-009     8.998e-005      9.257e-009     
  1.45            2.155e-010      9.4877e-005     1.1265e-008    
  1.5             6.619e-010      9.9286e-005     1.1174e-008    
  1.55            -1.619e-009     0.000103483     1.9222e-008    
  1.6             -1.3881e-009    0.000107452     6.635e-009     
  1.65            -1.313e-009     0.000111164     1.0926e-008    
  1.7             1.3669e-009     0.00011465      1.1798e-008    
  1.75            2.8708e-009     0.0001179       -8.404e-009    
  1.8             2.6778e-009     0.00012102      -3.05e-010     
END_DB

BEGIN_DB
 ICCAP_VAR VS         0              
 ICCAP_VAR VB         0              
 ICCAP_VAR VD         1.8            

 #VG              IG              ID              IB             
  0               8.61e-010       8.302e-010      2.6977e-008    
  0.05            1.2729e-009     -1.4849e-009    -1.9141e-008   
  0.1             2.8633e-009     -5.95e-011      -1.2127e-008   
  0.15            -1.3346e-009    1.4208e-009     2.3366e-008    
  0.2             -2.7044e-009    1.195e-010      1.1474e-008    
  0.25            1.2865e-009     -1.1066e-009    -2.0907e-008   
  0.3             2.8736e-009     2.3809e-009     -1.1017e-008   
  0.35            -1.3496e-009    8.3937e-009     2.4697e-008    
  0.4             1.3165e-009     3.0184e-008     1.0796e-008    
  0.45            -1.791e-009     1.2669e-007     2.8147e-008    
  0.5             -7.34e-010      4.8345e-007     -1.2547e-008   
  0.55            2.0358e-009     1.5372e-006     9.712e-009     
  0.6             -2.3295e-009    4.1812e-006     8.588e-009     
  0.65            -1.6956e-009    9.0553e-006     -1.7797e-008   
  0.7             2.873e-009      1.6664e-005     -2.1134e-008   
  0.75            2.6183e-009     2.7499e-005     -1.6005e-008   
  0.8             1.9599e-009     4.1197e-005     -2.2627e-008   
  0.85            1.4386e-009     5.7531e-005     -3.2824e-008   
  0.9             1.2921e-009     7.5917e-005     -3.7115e-008   
  0.95            2.8171e-009     9.572e-005      -4.2641e-008   
  1               2.8347e-009     0.00011739      -2.8298e-008   
  1.05            2.3965e-009     0.00013987      -3.7663e-008   
  1.1             1.7218e-009     0.00016299      -4.2476e-008   
  1.15            1.3579e-009     0.0001867       -4.7946e-008   
  1.2             2.8767e-009     0.00021089      -4.8013e-008   
  1.25            2.6776e-009     0.00023567      -4.009e-008    
  1.3             2.0684e-009     0.00026034      -4.1152e-008   
  1.35            1.4904e-009     0.00028518      -4.5789e-008   
  1.4             1.3037e-009     0.00031007      -4.6488e-008   
  1.45            2.8456e-009     0.00033492      -4.6868e-008   
  1.5             2.4237e-009     0.00036024      -3.6489e-008   
  1.55            1.7507e-009     0.00038515      -3.8513e-008   
  1.6             1.3656e-009     0.00041002      -4.2221e-008   
  1.65            1.2677e-009     0.00043476      -4.0818e-008   
  1.7             2.7042e-009     0.0004593       -4.3666e-008   
  1.75            2.0905e-009     0.00048411      -3.1166e-008   
  1.8             1.5104e-009     0.00050861      -3.4994e-008   
END_DB

BEGIN_DB
 ICCAP_VAR VS         0              
 ICCAP_VAR VB         -0.9           
 ICCAP_VAR VD         0.1            

 #VG              IG              ID              IB             
  0               1.3871e-009     1.5061e-009     3.732e-009     
  0.05            1.0086e-009     2.3348e-009     -8.402e-009    
  0.1             -1.4765e-009    9.622e-010      2.6655e-008    
  0.15            -1.821e-009     -1.3658e-009    8.771e-009     
  0.2             -4.815e-010     -2.1879e-009    -1.1714e-008   
  0.25            -6.812e-010     -2.2287e-009    -1.0612e-008   
  0.3             1.2648e-009     -1.5192e-009    -1.7696e-008   
  0.35            2.8604e-009     -9.55e-011      -1.304e-008    
  0.4             -1.3269e-009    1.5546e-009     2.1841e-008    
  0.45            -2.6938e-009    6.221e-010      1.161e-008     
  0.5             1.2958e-009     2.6519e-009     -1.1807e-008   
  0.55            2.7804e-009     1.2587e-008     2.7909e-008    
  0.6             4.696e-010      5.4588e-008     1.1447e-008    
  0.65            2.8744e-009     2.129e-007      -1.19e-008     
  0.7             2.597e-009      7.2223e-007     -4.31e-010     
  0.75            2.097e-009      1.9857e-006     1.1718e-008    
  0.8             9.612e-010      4.4217e-006     9.437e-009     
  0.85            -2.13e-010      8.3506e-006     1.2292e-008    
  0.9             -1.019e-009     1.3491e-005     2.1803e-008    
  0.95            2.385e-010      1.9481e-005     -1.1804e-008   
  1               1.4386e-009     2.6252e-005     -2.3685e-008   
  1.05            1.2866e-009     3.3318e-005     -8.415e-009    
  1.1             2.8036e-009     4.0348e-005     -1.0747e-008   
  1.15            1.3437e-009     4.724e-005      9.984e-009     
  1.2             1.992e-010      5.4215e-005     1.1072e-008    
  1.25            6.489e-010      6.0615e-005     1.1169e-008    
  1.3             9.993e-010      6.6672e-005     9.11e-009      
  1.35            -1.3915e-009    7.2696e-005     2.6429e-008    
  1.4             -1.3162e-009    7.8208e-005     1.0711e-008    
  1.45            -2.4823e-009    8.3445e-005     1.1558e-008    
  1.5             -1.8988e-009    8.8305e-005     9.38e-010      
  1.55            -1.4691e-009    9.2942e-005     3.775e-009     
  1.6             -1.3536e-009    9.7302e-005     8.728e-009     
  1.65            -2.6617e-009    0.000101397     1.1711e-008    
  1.7             -2.226e-009     0.000105141     8.25e-010      
  1.75            -1.656e-009     0.000108744     1.918e-009     
  1.8             -1.3968e-009    0.000112114     5.963e-009     
END_DB

BEGIN_DB
 ICCAP_VAR VS         0              
 ICCAP_VAR VB         -0.9           
 ICCAP_VAR VD         1.8            

 #VG              IG              ID              IB             
  0               -5.288e-010     -6.341e-010     -3.326e-009    
  0.05            -2.1151e-009    5.906e-010      1.7223e-008    
  0.1             -1.3531e-009    -1.959e-009     2.497e-009     
  0.15            1.3367e-009     -1.2631e-009    -2.535e-008    
  0.2             1.1155e-009     2.2524e-009     -8.662e-009    
  0.25            -1.4155e-009    1.0693e-009     2.7605e-008    
  0.3             -1.0552e-009    -2.1178e-009    1.0033e-008    
  0.35            1.5363e-009     -1.3297e-009    -1.158e-008    
  0.4             1.3983e-009     2.2667e-009     -8.302e-009    
  0.45            1.332e-009      9.3404e-009     -8.379e-009    
  0.5             2.8546e-009     4.3041e-008     2.6618e-008    
  0.55            -1.4013e-009    1.8795e-007     -2.24e-010     
  0.6             -1.3266e-009    6.9417e-007     9.487e-009     
  0.65            2.1834e-009     2.0917e-006     1.0356e-008    
  0.7             1.0396e-009     5.2139e-006     4.748e-009     
  0.75            -2.3634e-009    1.11993e-005    4.38e-009      
  0.8             1.8063e-009     1.984e-005      -2.3349e-008   
  0.85            1.3821e-009     3.1846e-005     -2.4931e-008   
  0.9             2.8595e-009     4.672e-005      -2.91e-008     
  0.95            2.744e-009      6.4274e-005     -2.4712e-008   
  1               2.1872e-009     8.3501e-005     -2.9292e-008   
  1.05            1.564e-009      0.000104095     -3.7092e-008   
  1.1             1.819e-009      0.00012602      -3.4083e-008   
  1.15            1.3765e-009     0.0001489       -4.3723e-008   
  1.2             1.2727e-009     0.00017239      -4.4419e-008   
  1.25            2.7401e-009     0.00019615      -4.8546e-008   
  1.3             2.147e-009      0.00022081      -3.8375e-008   
  1.35            1.5394e-009     0.00024542      -4.3049e-008   
  1.4             1.3161e-009     0.00027009      -4.5037e-008   
  1.45            2.8645e-009     0.00029471      -4.489e-008    
  1.5             2.5148e-009     0.00031993      -3.562e-008    
  1.55            1.8431e-009     0.00034475      -3.6951e-008   
  1.6             1.3932e-009     0.00036956      -4.1497e-008   
  1.65            1.2795e-009     0.00039433      -4.0143e-008   
  1.7             2.7718e-009     0.00041883      -4.2082e-008   
  1.75            2.2089e-009     0.00044377      -3.0644e-008   
  1.8             1.5877e-009     0.00046818      -3.3681e-008   
END_DB

BEGIN_DB
 ICCAP_VAR VS         0              
 ICCAP_VAR VB         -1.8           
 ICCAP_VAR VD         0.1            

 #VG              IG              ID              IB             
  0               -2.378e-010     -3.96e-010      -9.874e-009    
  0.05            -1.6343e-009    8.444e-010      2.3598e-008    
  0.1             -1.6921e-009    -1.5507e-009    6.197e-009     
  0.15            -2.449e-010     -2.1271e-009    -1.2026e-008   
  0.2             -4.52e-010      -2.18e-009      -1.1715e-008   
  0.25            -6.57e-010      -2.221e-009     -1.0889e-008   
  0.3             -8.045e-010     -2.24e-009      -1.0298e-008   
  0.35            -9.379e-010     -2.2335e-009    -9.487e-009    
  0.4             1.726e-009      -1.6389e-009    -1.2352e-008   
  0.45            1.6329e-009     1.7266e-009     -8.952e-009    
  0.5             1.8006e-009     1.7898e-009     1.0592e-008    
  0.55            4.158e-010      3.9898e-009     1.1259e-008    
  0.6             5.893e-010      1.0797e-008     1.066e-008     
  0.65            -1.74e-009      3.9336e-008     -1.4384e-008   
  0.7             1.0991e-009     1.6736e-007     -1.8565e-008   
  0.75            -6.53e-011      6.0943e-007     1.1109e-008    
  0.8             -2.6661e-009    1.7025e-006     -2.34e-008     
  0.85            -2.2548e-009    3.9283e-006     6.36e-010      
  0.9             -1.677e-009     7.5632e-006     1.935e-009     
  0.95            1.8827e-009     1.2369e-005     5.673e-009     
  1               1.4025e-009     1.8358e-005     -8.468e-009    
  1.05            1.2832e-009     2.5055e-005     -8.462e-009    
  1.1             2.7763e-009     3.2031e-005     -1.1323e-008   
  1.15            4.84e-010       3.9299e-005     1.1385e-008    
  1.2             -1.2882e-009    4.6299e-005     2.3805e-008    
  1.25            -2.3108e-009    5.3051e-005     1.2601e-008    
  1.3             -1.717e-009     5.9467e-005     2.021e-009     
  1.35            -1.4111e-009    6.5622e-005     5.342e-009     
  1.4             -1.331e-009     7.147e-005      1.0087e-008    
  1.45            -2.5676e-009    7.6996e-005     1.1388e-008    
  1.5             -2.036e-009     8.2118e-005     7.11e-010      
  1.55            -1.5313e-009    8.702e-005      2.81e-009      
  1.6             -1.3716e-009    9.1621e-005     7.712e-009     
  1.65            -2.6961e-009    9.5942e-005     1.1564e-008    
  1.7             1.9868e-009     9.9855e-005     -2.0582e-008   
  1.75            1.4466e-009     0.000103632     -7.693e-009    
  1.8             1.2944e-009     0.000107163     -8.258e-009    
END_DB

BEGIN_DB
 ICCAP_VAR VS         0              
 ICCAP_VAR VB         -1.8           
 ICCAP_VAR VD         1.8            

 #VG              IG              ID              IB             
  0               2.8652e-009     -7.261e-010     -2.2245e-008   
  0.05            1.7825e-009     1.4664e-009     -4.41e-010     
  0.1             3.915e-010      2.2137e-009     1.1489e-008    
  0.15            5.654e-010      2.2937e-009     1.0884e-008    
  0.2             7.335e-010      2.3432e-009     9.92e-009      
  0.25            -1.8156e-009    1.5983e-009     1.7074e-008    
  0.3             -1.5459e-009    -1.7011e-009    4.336e-009     
  0.35            1.2982e-009     -1.3014e-009    -2.1638e-008   
  0.4             2.2473e-009     1.6769e-009     -1.0468e-008   
  0.45            -1.3732e-009    3.9291e-009     2.7281e-008    
  0.5             -8.578e-010     1.0627e-008     -6.05e-010     
  0.55            1.5253e-009     5.8029e-008     -1.3277e-008   
  0.6             -1.872e-010     2.4953e-007     1.0694e-008    
  0.65            -6.989e-010     9.1086e-007     -1.3092e-008   
  0.7             2.5971e-009     2.6555e-006     1.8777e-008    
  0.75            -2.5296e-009    6.4911e-006     6.488e-009     
  0.8             1.6678e-009     1.2789e-005     -1.9421e-008   
  0.85            1.3461e-009     2.2376e-005     -2.1177e-008   
  0.9             2.8713e-009     3.5005e-005     -2.5538e-008   
  0.95            2.6402e-009     5.0775e-005     -2.1661e-008   
  1               2.0198e-009     6.841e-005      -2.7193e-008   
  1.05            1.477e-009      8.8222e-005     -3.558e-008    
  1.1             1.2998e-009     0.000109277     -3.929e-008    
  1.15            1.2912e-009     0.00013136      -4.134e-008    
  1.2             2.789e-009      0.00015426      -4.5192e-008   
  1.25            2.2812e-009     0.00017811      -3.6378e-008   
  1.3             1.6346e-009     0.00020207      -4.0832e-008   
  1.35            1.3384e-009     0.00022639      -4.4813e-008   
  1.4             2.8719e-009     0.00025078      -4.4553e-008   
  1.45            2.6112e-009     0.00027586      -3.5775e-008   
  1.5             1.971e-009      0.00030054      -3.6948e-008   
  1.55            1.4554e-009     0.00032526      -4.1457e-008   
  1.6             1.2993e-009     0.00034996      -4.1131e-008   
  1.65            2.823e-009      0.00037465      -4.2013e-008   
  1.7             2.3584e-009     0.00039955      -3.1453e-008   
  1.75            1.702e-009      0.00042404      -3.3654e-008   
  1.8             1.3542e-009     0.0004485       -3.7094e-008   
END_DB

