! VERSION = 6.00
BEGIN_HEADER
 ICCAP_INPUTS
  VG         V  B GROUND SMU4 0.001 LIN        1    0          1.8        37   0.05      
  VS         V  E GROUND SMU2 0.1 CON        0
  VB         V  C GROUND SMU3 0.1 LIN        3    0          -1.8       3    -0.9      
  VD         V  S GROUND SMU1 0.1 LIN        2    0.1        1.8        2    1.7       
 ICCAP_OUTPUTS
  IG         I  B GROUND SMU4 B
  ID         I  S GROUND SMU1 B
  IB         I  C GROUND SMU3 B
END_HEADER

BEGIN_DB
 ICCAP_VAR VS         0              
 ICCAP_VAR VB         0              
 ICCAP_VAR VD         0.1            

 #VG              IG              ID              IB             
  0               5.314e-010      6.531e-010      2.3726e-008    
  0.05            2.2788e-009     -6.581e-010     -1.7751e-008   
  0.1             1.2973e-009     2.0776e-009     -5.452e-009    
  0.15            -1.3639e-009    1.2732e-009     2.7257e-008    
  0.2             -1.3331e-009    7.22e-011       1.1691e-008    
  0.25            -2.6993e-009    7.325e-010      1.1211e-008    
  0.3             1.2756e-009     2.9514e-009     -1.9975e-008   
  0.35            2.5804e-009     1.3446e-008     2.7672e-008    
  0.4             1.8775e-009     5.604e-008      -2.893e-009    
  0.45            -1.2423e-009    2.497e-007      1.8564e-008    
  0.5             1.299e-009      1.01758e-006    -2.6663e-008   
  0.55            2.8687e-009     3.5959e-006     2.8256e-008    
  0.6             2.672e-009      1.07185e-005    -5.31e-010     
  0.65            -1.7519e-009    2.6124e-005     2.3758e-008    
  0.7             -7.252e-010     5.0512e-005     -1.1654e-008   
  0.75            1.692e-009      8.3701e-005     -1.624e-008    
  0.8             2.0863e-009     0.00012458      -8.519e-009    
  0.85            1.4665e-009     0.0001687       -7.261e-009    
  0.9             1.2861e-009     0.00021463      -8.235e-009    
  0.95            2.814e-009      0.00026029      -1.025e-008    
  1               1.3457e-009     0.00030497      9.501e-009     
  1.05            -1.307e-009     0.00035023      2.6173e-008    
  1.1             -2.4291e-009    0.00039193      1.1691e-008    
  1.15            -1.7797e-009    0.00043089      2.658e-009     
  1.2             -1.4166e-009    0.00046824      5.053e-009     
  1.25            -1.3273e-009    0.00050355      9.815e-009     
  1.3             -2.5557e-009    0.00053666      1.1091e-008    
  1.35            -1.9598e-009    0.00056723      8.32e-010      
  1.4             -1.4756e-009    0.00059633      3.533e-009     
  1.45            -1.3476e-009    0.00062337      8.666e-009     
  1.5             -2.6502e-009    0.00064896      1.1326e-008    
  1.55            -2.1471e-009    0.00067208      6.71e-010      
  1.6             -1.5657e-009    0.0006942       2.51e-009      
  1.65            -1.3698e-009    0.0007148       7.18e-009      
  1.7             -2.7009e-009    0.00073376      1.1062e-008    
  1.75            1.9246e-009     0.00075112      -1.9958e-008   
  1.8             1.4079e-009     0.00076754      -8.424e-009    
END_DB

BEGIN_DB
 ICCAP_VAR VS         0              
 ICCAP_VAR VB         0              
 ICCAP_VAR VD         1.8            

 #VG              IG              ID              IB             
  0               2.626e-010      -6.468e-010     -2.038e-008    
  0.05            1.6958e-009     -8.955e-010     -2.3612e-008   
  0.1             1.6616e-009     1.6176e-009     -8.782e-009    
  0.15            3.223e-010      2.269e-009      1.1326e-008    
  0.2             5.214e-010      2.697e-009      1.0496e-008    
  0.25            -1.3262e-009    3.4876e-009     2.1967e-008    
  0.3             -2.6851e-009    9.8612e-009     1.14e-008      
  0.35            1.2944e-009     4.2214e-008     9.752e-009     
  0.4             2.7956e-009     1.8883e-007     -1.1403e-008   
  0.45            -1.5743e-009    8.5557e-007     1.72e-008      
  0.5             1.2824e-009     3.2158e-006     5.077e-009     
  0.55            2.7574e-009     1.04122e-005    -2.1013e-008   
  0.6             -2.6456e-009    2.895e-005      -1.1384e-008   
  0.65            -2.1477e-009    6.3129e-005     -3.8051e-008   
  0.7             -2.1713e-009    0.00011908      -6.1212e-008   
  0.75            -1.5745e-009    0.00019462      -8.0952e-008   
  0.8             1.3451e-009     0.00028857      -1.1449e-007   
  0.85            2.8709e-009     0.00039756      -1.3234e-007   
  0.9             2.557e-009      0.00052322      -1.3946e-007   
  0.95            1.8743e-009     0.00065683      -1.5344e-007   
  1               1.399e-009      0.00079854      -1.6644e-007   
  1.05            1.2691e-009     0.00094625      -1.7017e-007   
  1.1             2.7184e-009     0.00109804      -1.7511e-007   
  1.15            -2.6922e-009    0.0012596       -1.6995e-007   
  1.2             -2.3094e-009    0.0014163       -1.577e-007    
  1.25            -1.6992e-009    0.0015775       -1.5178e-007   
  1.3             -1.3986e-009    0.001739        -1.4213e-007   
  1.35            -1.3136e-009    0.0019015       -1.3089e-007   
  1.4             -2.4793e-009    0.0020641       -1.2285e-007   
  1.45            -1.8685e-009    0.0022247       -1.2533e-007   
  1.5             -1.4467e-009    0.0023877       -1.1491e-007   
  1.55            -1.9518e-009    0.0025479       -1.2205e-007   
  1.6             -2.2843e-009    0.002709        -1.1321e-007   
  1.65            -1.3512e-009    0.002872        -6.939e-008    
  1.7             -6.34e-011      0.0030289       -1.05319e-007  
  1.75            2.3307e-009     0.003187        -7.4912e-008   
  1.8             2.6205e-009     0.0033447       -6.7367e-008   
END_DB

BEGIN_DB
 ICCAP_VAR VS         0              
 ICCAP_VAR VB         -0.9           
 ICCAP_VAR VD         0.1            

 #VG              IG              ID              IB             
  0               2.8417e-009     -6.613e-010     -2.2333e-008   
  0.05            1.387e-010      2.0778e-009     1.1297e-008    
  0.1             3.392e-010      2.1788e-009     1.129e-008     
  0.15            5.422e-010      2.2711e-009     1.0308e-008    
  0.2             7.324e-010      2.3439e-009     9.719e-009     
  0.25            -1.7733e-009    1.6026e-009     1.6259e-008    
  0.3             -1.5987e-009    -1.608e-009     4.962e-009     
  0.35            -1.708e-010     -1.905e-009     -1.197e-008    
  0.4             1.4917e-009     -1.839e-010     -1.1811e-008   
  0.45            1.3688e-009     4.474e-009      -8.388e-009    
  0.5             -1.7984e-009    2.1799e-008     -9.504e-009    
  0.55            -1.4202e-009    1.03008e-007    4.734e-009     
  0.6             1.4155e-009     4.5945e-007     -2.3945e-008   
  0.65            -1.3483e-009    2.0096e-006     -1.1773e-008   
  0.7             -2.6286e-009    6.9214e-006     1.1565e-008    
  0.75            1.6628e-009     1.7979e-005     -2.1236e-008   
  0.8             6.046e-010      3.9741e-005     1.13e-008      
  0.85            9.872e-010      7.0354e-005     9.356e-009     
  0.9             -1.626e-010     0.000109965     1.1982e-008    
  0.95            7.311e-010      0.00015393      2.1597e-008    
  1               -1.519e-009     0.00020021      1.6412e-008    
  1.05            -1.3646e-009    0.00024655      7.71e-009      
  1.1             -2.6778e-009    0.00029204      1.1479e-008    
  1.15            -2.214e-009     0.000335        9.58e-010      
  1.2             -1.6168e-009    0.00037681      2.222e-009     
  1.25            -1.3857e-009    0.00041617      6.058e-009     
  1.3             -2.7079e-009    0.00045321      1.0992e-008    
  1.35            1.9923e-009     0.00048716      -2.0795e-008   
  1.4             1.4401e-009     0.00051979      -7.847e-009    
  1.45            1.2836e-009     0.00055012      -8.347e-009    
  1.5             2.7736e-009     0.00057839      -1.1172e-008   
  1.55            5.242e-010      0.00060558      1.131e-008     
  1.6             9.255e-010      0.00062985      9.863e-009     
  1.65            -1.4088e-009    0.00065338      2.589e-008     
  1.7             -1.3153e-009    0.00067457      1.019e-008     
  1.75            -2.4864e-009    0.00069458      1.1371e-008    
  1.8             -1.8567e-009    0.00071265      1.195e-009     
END_DB

BEGIN_DB
 ICCAP_VAR VS         0              
 ICCAP_VAR VB         -0.9           
 ICCAP_VAR VD         1.8            

 #VG              IG              ID              IB             
  0               1.2026e-009     1.1233e-009     1.1213e-008    
  0.05            2.648e-009      -3.93e-010      -1.5103e-008   
  0.1             6.663e-010      2.3195e-009     7.885e-009     
  0.15            -1.2911e-009    1.5441e-009     1.8067e-008    
  0.2             -2.6016e-009    2.496e-010      1.2261e-008    
  0.25            -1.021e-009     -2.1525e-009    7.88e-010      
  0.3             1.5462e-009     -1.4317e-009    -1.1668e-008   
  0.35            2.6247e-009     2.3344e-009     -8.223e-009    
  0.4             4.619e-010      8.8957e-009     1.0788e-008    
  0.45            2.0822e-009     3.4991e-008     2.1665e-008    
  0.5             2.8672e-009     1.6869e-007     -1.1767e-008   
  0.55            -1.7087e-009    8.1148e-007     2.1025e-008    
  0.6             -5.734e-010     3.221e-006      -3.868e-009    
  0.65            -9.89e-010      1.11814e-005    -1.914e-008    
  0.7             2.423e-009      3.018e-005      -3.1909e-008   
  0.75            2.73e-009       6.7234e-005     -2.784e-008    
  0.8             1.2518e-009     0.00012505      -4.7987e-008   
  0.85            2.6057e-009     0.00020518      -9.1592e-008   
  0.9             1.2905e-009     0.00030589      -9.6581e-008   
  0.95            2.8039e-009     0.00041869      -1.2502e-007   
  1               2.2353e-009     0.00054808      -1.2836e-007   
  1.05            1.5781e-009     0.0006849       -1.423e-007    
  1.1             1.3149e-009     0.00082876      -1.5082e-007   
  1.15            2.854e-009      0.00097738      -1.5455e-007   
  1.2             -1.8089e-009    0.0011362       -1.4618e-007   
  1.25            -1.4304e-009    0.0012934       -1.3927e-007   
  1.3             -1.3298e-009    0.0014527       -1.3068e-007   
  1.35            -2.5616e-009    0.0016136       -1.242e-007    
  1.4             -1.9639e-009    0.0017731       -1.2916e-007   
  1.45            -1.4843e-009    0.0019347       -1.206e-007    
  1.5             -1.3516e-009    0.0020962       -1.0885e-007   
  1.55            1.2597e-009     0.0022541       -1.3384e-007   
  1.6             2.6319e-009     0.002414        -1.1738e-007   
  1.65            1.9318e-009     0.002576        -1e-007        
  1.7             1.4249e-009     0.0027354       -9.924e-008    
  1.75            1.2777e-009     0.0028949       -9.301e-008    
  1.8             2.7437e-009     0.0030524       -9.011e-008    
END_DB

BEGIN_DB
 ICCAP_VAR VS         0              
 ICCAP_VAR VB         -1.8           
 ICCAP_VAR VD         0.1            

 #VG              IG              ID              IB             
  0               1.0029e-009     8.956e-010      2.0431e-008    
  0.05            1.356e-009      -1.2081e-009    -2.5892e-008   
  0.1             1.1188e-009     2.2563e-009     -8.617e-009    
  0.15            -1.4071e-009    1.0833e-009     2.8308e-008    
  0.2             -1.114e-009     -2.1578e-009    1.03e-008      
  0.25            1.456e-009      -1.7541e-009    -1.1684e-008   
  0.3             9.653e-010      2.3626e-009     -8.3e-009      
  0.35            -1.4892e-009    1.8215e-009     1.2175e-008    
  0.4             -9.519e-010     -2.1379e-009    8.457e-009     
  0.45            1.6439e-009     -1.2059e-009    -1.1972e-008   
  0.5             1.4534e-009     2.708e-009      -8.609e-009    
  0.55            2.8757e-009     1.2888e-008     2.4226e-008    
  0.6             2.6267e-009     6.0505e-008     -3.44e-010     
  0.65            -7.402e-010     2.9017e-007     1.1723e-008    
  0.7             2.7732e-009     1.2521e-006     9.011e-009     
  0.75            5.382e-010      4.7372e-006     1.1352e-008    
  0.8             -2.7011e-009    1.3794e-005     1.0732e-008    
  0.85            -1.027e-009     3.2163e-005     -1.0208e-008   
  0.9             2.051e-010      5.9619e-005     -1.1773e-008   
  0.95            -2.737e-010     9.6883e-005     -1.1871e-008   
  1               -2.5343e-009    0.00014029      -1.1663e-008   
  1.05            -6.897e-010     0.00018543      -1.1777e-008   
  1.1             1.7292e-009     0.00023119      -1.6487e-008   
  1.15            1.3503e-009     0.00027658      -8.536e-009    
  1.2             1.2481e-009     0.00032002      -8.666e-009    
  1.25            2.5754e-009     0.00036189      -1.3693e-008   
  1.3             1.8521e-009     0.00040183      -2.99e-009     
  1.35            1.3986e-009     0.00043885      -8.64e-009     
  1.4             1.2695e-009     0.00047372      -8.432e-009    
  1.45            2.6993e-009     0.00050627      -1.251e-008    
  1.5             6.205e-010      0.00053724      1.1224e-008    
  1.55            9.998e-010      0.00056512      9.301e-009     
  1.6             1.3846e-009     0.00059112      1.0581e-008    
  1.65            3.077e-010      0.00061658      1.121e-008     
  1.7             7.611e-010      0.00063915      1.0466e-008    
  1.75            -1.482e-009     0.00066038      1.5453e-008    
  1.8             -1.3509e-009    0.00068028      8.729e-009     
END_DB

BEGIN_DB
 ICCAP_VAR VS         0              
 ICCAP_VAR VB         -1.8           
 ICCAP_VAR VD         1.8            

 #VG              IG              ID              IB             
  0               9.219e-010      8.534e-010      2.4668e-008    
  0.05            1.292e-009      -1.3787e-009    -2.2046e-008   
  0.1             2.8682e-009     5.04e-011       -1.0558e-008   
  0.15            1.7475e-009     1.5077e-009     -2.78e-010     
  0.2             4.152e-010      2.2311e-009     1.1092e-008    
  0.25            6.216e-010      2.3233e-009     1.0445e-008    
  0.3             8.081e-010      2.4029e-009     9.352e-009     
  0.35            9.634e-010      2.5797e-009     8.941e-009     
  0.4             -1.4967e-009    3.0646e-009     1.2071e-008    
  0.45            -1.4035e-009    6.4644e-009     8.233e-009     
  0.5             1.3078e-009     3.3275e-008     1.068e-008     
  0.55            -1.6608e-009    1.7084e-007     2.6286e-008    
  0.6             -5.649e-010     7.9745e-007     -1.2833e-008   
  0.65            1.4521e-009     3.2713e-006     7.416e-009     
  0.7             2.0772e-009     1.1215e-005     -2.1594e-008   
  0.75            2.3831e-009     3.0874e-005     -1.0955e-008   
  0.8             2.6857e-009     6.8601e-005     -2.654e-008    
  0.85            2.8643e-009     0.0001279       -4.6325e-008   
  0.9             2.6792e-009     0.00020967      -7.636e-008    
  0.95            -9.104e-010     0.00031037      -9.661e-008    
  1               -1.8455e-009    0.00042879      -8.62e-008     
  1.05            -1.4308e-009    0.00055652      -1.1847e-007   
  1.1             -1.3321e-009    0.00069451      -1.2167e-007   
  1.15            -2.5735e-009    0.00083978      -1.2531e-007   
  1.2             -1.9911e-009    0.00098814      -1.3807e-007   
  1.25            2.633e-010      0.0011391       -1.2087e-007   
  1.3             -1.716e-010     0.0012963       -1.485e-007    
  1.35            -7.193e-010     0.0014556       -1.4525e-007   
  1.4             -1.0886e-009    0.001618        -1.3879e-007   
  1.45            -1.5089e-009    0.0017797       -1.3475e-007   
  1.5             -1.8513e-009    0.0019383       -1.2894e-007   
  1.55            -2.1324e-009    0.0020976       -1.2059e-007   
  1.6             -2.4978e-009    0.0022588       -1.1337e-007   
  1.65            -1.3931e-009    0.0024203       -9.288e-008    
  1.7             1.479e-010      0.0025782       -1.11631e-007  
  1.75            2.1956e-009     0.0027366       -7.5946e-008   
  1.8             2.4752e-009     0.0028951       -7.2314e-008   
END_DB

