! VERSION = 6.00
BEGIN_HEADER
 ICCAP_INPUTS
  VG         V  B GROUND SMU4 0.001 LIN        2    0          1.8        6    0.36      
  VS         V  E GROUND SMU2 0.1 CON        0
  VD         V  S GROUND SMU1 0.1 LIN        1    0          1.8        37   0.05      
  VB         V  C GROUND SMU3 0.1 LIN        3    0          -0.9       2    -0.9      
 ICCAP_OUTPUTS
  ID         I  S GROUND SMU1 B
  IB         I  C GROUND SMU3 B
  IG         I  B GROUND SMU4 B
END_HEADER

BEGIN_DB
 ICCAP_VAR VG         0              
 ICCAP_VAR VS         0              
 ICCAP_VAR VB         0              

 #VD              ID              IB              IG             
  0               -1.0042e-009    -1.6326e-008    -1.0703e-009   
  0.05            1.005e-009      2.7466e-008     -1.4544e-009   
  0.1             -2.2429e-009    9.216e-009      -1.0203e-009   
  0.15            -1.7204e-009    -1.1574e-008    1.5671e-009    
  0.2             2.3886e-009     -8.196e-009     8.72e-010      
  0.25            1.7385e-009     1.3261e-008     -1.6015e-009   
  0.3             -1.485e-009     6.585e-009      -1.7505e-009   
  0.35            -2.1673e-009    -1.1918e-008    -3.817e-010    
  0.4             -2.2213e-009    -1.1277e-008    -6.159e-010    
  0.45            -2.2582e-009    -1.0218e-008    -8.107e-010    
  0.5             -2.2529e-009    -9.381e-009     -9.604e-010    
  0.55            -1.6862e-009    -1.1842e-008    1.6464e-009    
  0.6             1.5518e-009     -8.649e-009     1.7226e-009    
  0.65            2.222e-009      1.1227e-008     3.857e-010     
  0.7             2.3143e-009     1.0512e-008     5.909e-010     
  0.75            2.3812e-009     9.455e-009      7.772e-010     
  0.8             1.6484e-009     1.5334e-008     -1.7249e-009   
  0.85            -1.605e-009     5.287e-009      -1.657e-009    
  0.9             -1.5151e-009    -1.813e-008     1.2767e-009    
  0.95            -1.19e-010      -1.2912e-008    2.8778e-009    
  1               1.4837e-009     2.0664e-008     -1.324e-009    
  1.05            1.554e-010      1.1718e-008     -2.6804e-009   
  1.1             -2.2573e-009    7.62e-010       -9.511e-010    
  1.15            -1.6783e-009    -1.1892e-008    1.6586e-009    
  1.2             1.5528e-009     -8.521e-009     1.7114e-009    
  1.25            2.2133e-009     1.117e-008      3.707e-010     
  1.3             2.3089e-009     1.0226e-008     5.796e-010     
  1.35            1.4834e-009     2.0541e-008     -1.3212e-009   
  1.4             1.546e-010      1.1763e-008     -2.6771e-009   
  1.45            -2.2553e-009    6.5e-010        -9.561e-010    
  1.5             -1.6781e-009    -1.1888e-008    1.6524e-009    
  1.55            1.5555e-009     -8.414e-009     1.7124e-009    
  1.6             2.2165e-009     1.1266e-008     3.697e-010     
  1.65            2.3153e-009     1.0576e-008     5.769e-010     
  1.7             2.3785e-009     9.513e-009      7.672e-010     
  1.75            1.6462e-009     1.541e-008      -1.7368e-009   
  1.8             -1.6208e-009    5.227e-009      -1.649e-009    
END_DB

BEGIN_DB
 ICCAP_VAR VG         0.36           
 ICCAP_VAR VS         0              
 ICCAP_VAR VB         0              

 #VD              ID              IB              IG             
  0               -4.614e-010     -2.5833e-008    -8.503e-010    
  0.05            1.7071e-008     -8.478e-009     -1.8848e-009   
  0.1             2.5249e-008     1.9707e-008     -1.6481e-009   
  0.15            2.7257e-008     1.147e-008      2.939e-010     
  0.2             2.7978e-008     -1.3279e-008    2.661e-009     
  0.25            2.8086e-008     -1.1865e-008    2.801e-010     
  0.3             3.0632e-008     9.555e-009      -1.3482e-009   
  0.35            3.4795e-008     9.069e-009      9.862e-010     
  0.4             3.4922e-008     -2.095e-008     1.5694e-009    
  0.45            3.4664e-008     -1.1924e-008    -5.165e-010    
  0.5             4.046e-008      1.2488e-008     -2.2382e-009   
  0.55            4.2922e-008     1.0743e-008     1.4043e-009    
  0.6             4.3571e-008     -2.6596e-008    1.3167e-009    
  0.65            4.4321e-008     -1.0105e-008    -9.775e-010    
  0.7             5.1067e-008     1.9129e-008     -1.5885e-009   
  0.75            5.2199e-008     1.0729e-008     1.9011e-009    
  0.8             5.3644e-008     -1.694e-008     1.7774e-009    
  0.85            5.6884e-008     -2.2805e-008    2.1287e-009    
  0.9             5.8618e-008     -1.1771e-008    -4.54e-011     
  0.95            6.5285e-008     1.1647e-008     -2.6626e-009   
  1               7.0531e-008     1.7182e-008     -1.5443e-009   
  1.05            7.0801e-008     1.0623e-008     1.9444e-009    
  1.1             7.3304e-008     -1.5768e-008    1.7081e-009    
  1.15            7.7891e-008     -2.1654e-008    2.038e-009     
  1.2             8.1978e-008     -2.592e-008     1.2977e-009    
  1.25            8.538e-008      -9.971e-009     -1.0633e-009   
  1.3             9.4881e-008     2.1557e-008     -1.5096e-009   
  1.35            9.5272e-008     1.0018e-008     1.9943e-009    
  1.4             1.00003e-007    -1.4679e-008    1.6493e-009    
  1.45            1.02732e-007    -1.2026e-008    -4.449e-010    
  1.5             1.0954e-007     1.2212e-008     1.9087e-009    
  1.55            1.1416e-007     -1.2029e-008    -6.527e-010    
  1.6             1.2757e-007     1.8973e-008     -1.5839e-009   
  1.65            1.2976e-007     1.047e-008      7.54e-010      
  1.7             1.352e-007      -2.2787e-008    1.4865e-009    
  1.75            1.417e-007      -1.0382e-008    -9.644e-010    
  1.8             1.5653e-007     2.6397e-008     -1.4046e-009   
END_DB

BEGIN_DB
 ICCAP_VAR VG         0.72           
 ICCAP_VAR VS         0              
 ICCAP_VAR VB         0              

 #VD              ID              IB              IG             
  0               -1.08449e-007   -2.667e-008     -1.318e-009    
  0.05            4.7992e-005     -2.4528e-008    1.0892e-009    
  0.1             7.4196e-005     -2.2406e-008    1.2603e-009    
  0.15            8.839e-005      -1.1369e-008    -7.94e-010     
  0.2             9.7165e-005     2.7021e-008     -1.3976e-009   
  0.25            0.000102573     2.3617e-008     -1.2923e-009   
  0.3             0.000106909     2.7647e-008     -1.3855e-009   
  0.35            0.000110236     1.1378e-008     3.294e-010     
  0.4             0.000112418     -1.9603e-008    1.6528e-009    
  0.45            0.00011681      -1.0925e-008    -2.6346e-009   
  0.5             0.00012141      2.4563e-008     -1.3029e-009   
  0.55            0.00012382      1.1413e-008     5.179e-010     
  0.6             0.00012609      -1.8378e-008    1.754e-009     
  0.65            0.00012987      -1.1551e-008    -7.744e-010    
  0.7             0.00013453      2.1824e-008     -1.4972e-009   
  0.75            0.00013626      9.952e-009      8.55e-010      
  0.8             0.0001389       -2.5019e-008    1.4104e-009    
  0.85            0.00014237      -2.6499e-008    1.3134e-009    
  0.9             0.0001458       -1.1844e-008    -1.976e-010    
  0.95            0.00015139      1.3471e-008     -2.0719e-009   
  1               0.00015196      1.0665e-008     1.9107e-009    
  1.05            0.00015587      -1.6914e-008    1.9634e-009    
  1.1             0.00015963      -1.1989e-008    -6.382e-010    
  1.15            0.00016472      1.8926e-008     -1.6003e-009   
  1.2             0.00016692      1.0534e-008     7.422e-010     
  1.25            0.0001694       -2.2956e-008    1.4998e-009    
  1.3             0.00017415      -1.1241e-008    -9.535e-010    
  1.35            0.0001784       6.787e-009      -1.3618e-009   
  1.4             0.0001825       1.3315e-008     -1.7225e-009   
  1.45            0.00018624      5.479e-009      -2.6536e-009   
  1.5             0.00019006      1.766e-009      -2.3519e-009   
  1.55            0.00019223      -2.489e-008     -2.6334e-009   
  1.6             0.00019544      -1.5878e-008    8.457e-010     
  1.65            0.00019831      -6.3668e-008    1.4151e-009    
  1.7             0.00020335      -6.5255e-008    -2.3597e-009   
  1.75            0.00020787      -6.8715e-008    4.18e-010      
  1.8             0.0002108       -1.311e-007     5.076e-010     
END_DB

BEGIN_DB
 ICCAP_VAR VG         1.08           
 ICCAP_VAR VS         0              
 ICCAP_VAR VB         0              

 #VD              ID              IB              IG             
  0               -1.1809e-007    1.0933e-008     -9.692e-010    
  0.05            0.00024878      1.4091e-008     2.632e-010     
  0.1             0.00045646      -1.6015e-008    2.1475e-009    
  0.15            0.00062049      -1.9274e-008    1.8881e-009    
  0.2             0.0007429       -1.1866e-008    -7.034e-010    
  0.25            0.00083136      2.0278e-008     -1.5608e-009   
  0.3             0.00089123      1.0868e-008     7.911e-010     
  0.35            0.00093138      -2.3575e-008    1.4599e-009    
  0.4             0.00096562      -1.0521e-008    -9.976e-010    
  0.45            0.00099034      2.6468e-008     -1.3938e-009   
  0.5             0.00100432      9.003e-009      1.0737e-009    
  0.55            0.00102089      -2.6069e-008    1.3103e-009    
  0.6             0.00103592      -2.2246e-008    1.2554e-009    
  0.65            0.00104953      -1.1902e-008    -5.452e-010    
  0.7             0.00106548      1.8064e-008     -1.6899e-009   
  0.75            0.00107546      1.1088e-008     6.736e-010     
  0.8             0.00108401      -2.0989e-008    1.5822e-009    
  0.85            0.00109723      -1.0829e-008    -8.96e-010     
  0.9             0.00111083      2.5018e-008     -1.43e-009     
  0.95            0.00111691      9.412e-009      9.747e-010     
  1               0.0011291       -2.5856e-008    3.983e-010     
  1.05            0.0011425       2.38e-008       -1.4477e-009   
  1.1             0.001148        9.541e-009      9.397e-010     
  1.15            0.0011571       -2.5569e-008    1.3584e-009    
  1.2             0.0011669       -2.5727e-008    1.2854e-009    
  1.25            0.0011824       -1.1261e-008    -1.4304e-009   
  1.3             0.0011915       9.664e-009      -2.5715e-009   
  1.35            0.0012008       9.445e-009      -2.2354e-009   
  1.4             0.0012093       9.736e-009      -1.8281e-009   
  1.45            0.0012191       1.33e-010       -2.6718e-009   
  1.5             0.0012211       -9.486e-009     1.3676e-009    
  1.55            0.0012333       -5.4243e-008    1.2463e-009    
  1.6             0.0012443       -6.065e-008     -2.7006e-009   
  1.65            0.0012504       -7.5229e-008    9.918e-010     
  1.7             0.0012613       -1.2765e-007    1.373e-009     
  1.75            0.0012715       -1.9873e-007    -2.4319e-009   
  1.8             0.0012813       -2.6353e-007    5.06e-010      
END_DB

BEGIN_DB
 ICCAP_VAR VG         1.44           
 ICCAP_VAR VS         0              
 ICCAP_VAR VB         0              

 #VD              ID              IB              IG             
  0               -1.2202e-007    1.131e-008      -1.0297e-009   
  0.05            0.00039141      1.2572e-008     1.019e-010     
  0.1             0.0007496       -1.4541e-008    2.3802e-009    
  0.15            0.00106491      -2.2432e-008    1.2625e-009    
  0.2             0.0013316       1.1992e-008     2.2025e-009    
  0.25            0.0015507       -1.1991e-008    -4.585e-010    
  0.3             0.001727        1.6479e-008     -1.757e-009    
  0.35            0.001864        1.1352e-008     5.914e-010     
  0.4             0.0019674       -1.9502e-008    1.6455e-009    
  0.45            0.0020502       -1.1079e-008    -8.396e-010    
  0.5             0.0021141       2.3788e-008     -1.4533e-009   
  0.55            0.0021634       2.7825e-008     -1.3801e-009   
  0.6             0.0022012       1.5025e-008     -1.8628e-009   
  0.65            0.0022294       9.883e-009      2.035e-009     
  0.7             0.0022551       -1.8408e-008    1.7529e-009    
  0.75            0.0022799       -1.1561e-008    -7.809e-010    
  0.8             0.0023023       2.2143e-008     -1.4953e-009   
  0.85            0.0023185       9.946e-009      8.566e-010     
  0.9             0.0023337       -2.5138e-008    1.4078e-009    
  0.95            0.0023506       -2.6565e-008    1.3129e-009    
  1               0.0023673       -1.1964e-008    -1.987e-010    
  1.05            0.0023864       1.3438e-008     -2.0539e-009   
  1.1             0.0023959       1.0324e-008     1.9131e-009    
  1.15            0.0024109       -1.6944e-008    1.951e-009     
  1.2             0.002425        -1.2353e-008    -6.429e-010    
  1.25            0.0024409       1.8272e-008     -1.5874e-009   
  1.3             0.0024524       9.428e-009      7.446e-010     
  1.35            0.0024623       -2.5525e-008    1.4902e-009    
  1.4             0.0024785       -1.5711e-008    -9.603e-010    
  1.45            0.0024918       -4.73e-010      -1.3613e-009   
  1.5             0.0025008       -6.47e-009      2.598e-009     
  1.55            0.0025134       -3.935e-008     -8.134e-010    
  1.6             0.0025282       -2.2747e-008    -1.4676e-009   
  1.65            0.0025361       -6.4497e-008    2.331e-009     
  1.7             0.0025482       -1.3948e-007    -1.4e-010      
  1.75            0.0025559       -1.8611e-007    2.7135e-009    
  1.8             0.0025746       -2.685e-007     -1.6539e-009   
END_DB

BEGIN_DB
 ICCAP_VAR VG         1.8            
 ICCAP_VAR VS         0              
 ICCAP_VAR VB         0              

 #VD              ID              IB              IG             
  0               -1.2846e-007    -8.469e-009     2.5115e-009    
  0.05            0.00047582      1.1493e-008     2.5005e-009    
  0.1             0.00092775      -1.2039e-008    -6.83e-010     
  0.15            0.0013434       1.6853e-008     2.372e-010     
  0.2             0.0017171       1.1568e-008     -2.6026e-009   
  0.25            0.0020436       2.7606e-008     -1.3733e-009   
  0.3             0.0023243       2.6524e-008     -1.3256e-009   
  0.35            0.0025618       1.1281e-008     4.137e-010     
  0.4             0.0027578       -1.7641e-008    1.917e-009     
  0.45            0.0029218       -1.2013e-008    -6.809e-010    
  0.5             0.003057        1.9788e-008     -1.5727e-009   
  0.55            0.0031639       1.0599e-008     7.738e-010     
  0.6             0.0032498       -2.3077e-008    1.4708e-009    
  0.65            0.0033237       -1.0123e-008    -9.788e-010    
  0.7             0.0033829       2.646e-008      -1.395e-009    
  0.75            0.0034266       8.837e-009      1.0516e-009    
  0.8             0.0034669       -2.6643e-008    1.3161e-009    
  0.85            0.0035018       -1.1846e-008    -1.634e-010    
  0.9             0.0035353       1.3445e-008     -2.1153e-009   
  0.95            0.0035568       1.0792e-008     1.8923e-009    
  1               0.0035808       -1.1748e-008    2.732e-010     
  1.05            0.0036083       1.1582e-008     -2.6344e-009   
  1.1             0.0036284       2.7484e-008     -1.381e-009    
  1.15            0.003648        2.7053e-008     -1.3373e-009   
  1.2             0.0036661       2.1035e-008     -1.6828e-009   
  1.25            0.0036823       1.0852e-008     6.667e-010     
  1.3             0.0036953       -2.1854e-008    1.5765e-009    
  1.35            0.0037144       -1.305e-008     -8.896e-010    
  1.4             0.0037318       4.06e-009       -1.3703e-009   
  1.45            0.003747        9.234e-009      -1.8331e-009   
  1.5             0.0037621       3.53e-010       -2.6813e-009   
  1.55            0.0037691       -9.827e-009     1.355e-009     
  1.6             0.0037859       -5.3614e-008    2.0516e-009    
  1.65            0.0038017       -6.2239e-008    -1.9524e-009   
  1.7             0.0038154       -7.0166e-008    -1.135e-010    
  1.75            0.0038266       -1.3368e-007    2.7838e-009    
  1.8             0.0038442       -2.0083e-007    -1.5788e-009   
END_DB

BEGIN_DB
 ICCAP_VAR VG         0              
 ICCAP_VAR VS         0              
 ICCAP_VAR VB         -0.9           

 #VD              ID              IB              IG             
  0               -9.422e-010     -1.8935e-008    -1.0452e-009   
  0.05            1.0983e-009     2.7846e-008     -1.4159e-009   
  0.1             -2.1752e-009    1.058e-008      -1.1242e-009   
  0.15            -1.0879e-009    -2.5667e-008    1.4557e-009    
  0.2             2.3625e-009     -8.46e-009      9.815e-010     
  0.25            9.636e-010      2.6192e-008     -1.4949e-009   
  0.3             -2.2446e-009    9.034e-009      -9.7e-010      
  0.35            -2.1607e-009    -9.546e-009     -1.131e-009    
  0.4             -1.8015e-009    -1.1593e-008    3.088e-010     
  0.45            -8.785e-010     -2.261e-008     1.7867e-009    
  0.5             1.6726e-009     -8.854e-009     1.6357e-009    
  0.55            2.1701e-009     1.1371e-008     2.828e-010     
  0.6             2.2692e-009     1.0629e-008     5.017e-010     
  0.65            1.4288e-009     2.2686e-008     -1.334e-009    
  0.7             9.18e-011       1.1321e-008     -2.692e-009    
  0.75            -2.0594e-009    -1.1764e-008    -6.41e-011     
  0.8             -2.153e-009     -1.197e-008     -3.085e-010    
  0.85            -2.2145e-009    -1.1319e-008    -5.505e-010    
  0.9             -2.2566e-009    -1.0258e-008    -7.685e-010    
  0.95            -1.5941e-009    -1.4854e-008    1.9938e-009    
  1               1.8512e-009     -8.102e-009     1.4949e-009    
  1.05            1.5788e-009     1.0731e-008     1.6913e-009    
  1.1             2.2018e-009     1.1362e-008     3.493e-010     
  1.15            2.3018e-009     1.0687e-008     5.645e-010     
  1.2             2.3657e-009     9.656e-009      7.572e-010     
  1.25            1.6416e-009     1.6103e-008     -1.7582e-009   
  1.3             -1.6326e-009    5.431e-009      -1.6451e-009   
  1.35            -2.125e-009     -1.2033e-008    -2.255e-010    
  1.4             -2.1905e-009    -1.1618e-008    -4.733e-010    
  1.45            -2.2437e-009    -1.0472e-008    -7.087e-010    
  1.5             -1.5627e-009    -1.6503e-008    1.2579e-009    
  1.55            -2.091e-010     -1.3817e-008    2.8223e-009    
  1.6             2.2445e-009     1.0213e-008     1.1327e-009    
  1.65            1.1037e-009     2.783e-008      -1.4148e-009   
  1.7             -2.1691e-009    1.0589e-008     -1.132e-009    
  1.75            -1.7985e-009    -1.1668e-008    3.122e-010     
  1.8             -8.726e-010     -2.2565e-008    1.7914e-009    
END_DB

BEGIN_DB
 ICCAP_VAR VG         0.36           
 ICCAP_VAR VS         0              
 ICCAP_VAR VB         -0.9           

 #VD              ID              IB              IG             
  0               -4.701e-010     -1.0611e-008    -2.784e-010    
  0.05            1.3531e-009     2.3328e-008     -1.641e-009    
  0.1             1.871e-010      6.309e-009      -1.4728e-009   
  0.15            4.053e-010      8.866e-009      -1.4042e-009   
  0.2             6.262e-010      1.0587e-008     -1.3712e-009   
  0.25            8.458e-010      1.1909e-008     -1.3394e-009   
  0.3             1.0945e-009     1.148e-008      -2.7014e-009   
  0.35            -4.9e-010       -9.471e-009     2.0542e-009    
  0.4             2.2784e-009     -7.462e-009     2.4131e-009    
  0.45            2.8069e-009     2.0963e-008     -1.3291e-009   
  0.5             1.638e-009      1.1657e-008     -2.6709e-009   
  0.55            7.755e-010      5.29e-010       -2.5017e-009   
