! VERSION = 6.00
BEGIN_HEADER
 ICCAP_INPUTS
  VG         V  B GROUND SMU4 0.001 LIN        2    0          1.8        6    0.36      
  VS         V  E GROUND SMU3 0.1 CON        0
  VD         V  S GROUND SMU2 0.1 LIN        1    0          1.8        37   0.05      
  VB         V  C GROUND SMU1 0.1 LIN        3    0          -0.9       2    -0.9      
 ICCAP_OUTPUTS
  ID         I  S GROUND SMU2 B
  IB         I  C GROUND SMU1 B
  IG         I  B GROUND SMU4 B
END_HEADER

BEGIN_DB
 ICCAP_VAR VG         0              
 ICCAP_VAR VS         0              
 ICCAP_VAR VB         0              

 #VD              ID              IB              IG             
  0               8.634e-010      1.3857e-008     -3.411e-010    
  0.05            -3.336e-010     7.782e-009      -2.6224e-009   
  0.1             -1.1504e-009    -1.7018e-008    2.2862e-009    
  0.15            9.471e-010      1.5719e-008     -2.185e-009    
  0.2             -9.546e-010     -1.6462e-008    2.4305e-009    
  0.25            7.736e-010      1.4588e-008     -2.3082e-009   
  0.3             -7.612e-010     -1.5513e-008    2.5398e-009    
  0.35            3.5351e-009     7.828e-009      -2.4042e-009   
  0.4             -3.3151e-009    -8.037e-009     2.26e-010      
  0.45            1.441e-010      -7.247e-009     2.7115e-009    
  0.5             2.7493e-009     1.8358e-008     -1.8955e-009   
  0.55            -1.2734e-009    -1.7052e-008    2.1434e-009    
  0.6             1.0736e-009     1.6297e-008     -2.0575e-009   
  0.65            -1.1166e-009    -1.6841e-008    2.3214e-009    
  0.7             9.179e-010      1.5415e-008     -2.208e-009    
  0.75            -9.22e-010      -1.6218e-008    2.4536e-009    
  0.8             7.438e-010      1.4479e-008     -2.3297e-009   
  0.85            -3.4597e-009    -8.334e-009     1.469e-010     
  0.9             8.9e-012        -8.321e-009     2.7079e-009    
  0.95            2.8953e-009     1.5372e-008     -1.7399e-009   
  1               -2.7055e-009    -1.792e-008     2.1912e-009    
  1.05            1.035e-009      1.6242e-008     -2.0951e-009   
  1.1             -1.0622e-009    -1.6828e-008    2.3499e-009    
  1.15            8.733e-010      1.5141e-008     -2.2351e-009   
  1.2             -8.738e-010     -1.5906e-008    2.4754e-009    
  1.25            7.01e-010       1.3959e-008     -2.3482e-009   
  1.3             -6.773e-010     -1.4874e-008    2.5714e-009    
  1.35            5.357e-010      1.2843e-008     -2.4378e-009   
  1.4             -4.89e-010      -1.3497e-008    2.6385e-009    
  1.45            3.3192e-009     8.547e-009      -1.3665e-009   
  1.5             -4.0568e-009    -9.71e-009      -6.095e-010    
  1.55            1.957e-010      1.1103e-008     -2.5424e-009   
  1.6             -2.9981e-009    -1.0762e-008    1.6281e-009    
  1.65            2.8266e-009     1.6724e-008     -1.8063e-009   
  1.7             -1.3383e-009    -1.6995e-008    2.0573e-009    
  1.75            1.1451e-009     1.6638e-008     -1.9797e-009   
  1.8             -1.1906e-009    -1.7094e-008    2.2363e-009    
END_DB

BEGIN_DB
 ICCAP_VAR VG         0.36           
 ICCAP_VAR VS         0              
 ICCAP_VAR VB         0              

 #VD              ID              IB              IG             
  0               2.635e-010      -8.895e-009     -1.261e-009    
  0.05            6.8877e-008     1.664e-008      2.6927e-009    
  0.1             8.9698e-008     -1.6813e-008    2.0079e-009    
  0.15            8.4154e-008     -1.3443e-008    -1.6444e-009   
  0.2             9.9408e-008     1.2046e-008     -2.296e-009    
  0.25            9.0152e-008     1.0696e-008     2.2917e-009    
  0.3             9.2173e-008     1.39e-008       2.5568e-009    
  0.35            9.836e-008      8.531e-009      -2.6227e-009   
  0.4             1.1149e-007     1.7659e-008     -1.4019e-009   
  0.45            1.1366e-007     1.6916e-008     -1.5042e-009   
  0.5             1.158e-007      1.6644e-008     -1.6331e-009   
  0.55            1.0133e-007     1.5997e-008     -1.2184e-009   
  0.6             1.1613e-007     -1.1404e-008    2.544e-009     
  0.65            1.177e-007      -9.725e-009     2.6113e-009    
  0.7             1.1889e-007     -8.008e-009     2.6567e-009    
  0.75            1.1987e-007     -7.598e-009     2.6875e-009    
  0.8             1.2046e-007     -6.933e-009     2.7078e-009    
  0.85            1.2119e-007     -6.94e-009      2.7187e-009    
  0.9             1.2215e-007     -6.933e-009     2.7174e-009    
  0.95            1.231e-007      -7.546e-009     2.703e-009     
  1               1.2395e-007     -8.04e-009      2.6771e-009    
  1.05            1.3372e-007     -1.7461e-008    1.4238e-009    
  1.1             1.3614e-007     -1.7015e-008    1.5603e-009    
  1.15            1.3809e-007     -1.7115e-008    1.7272e-009    
  1.2             1.4027e-007     -1.6943e-008    1.9044e-009    
  1.25            1.424e-007      -1.6342e-008    2.08e-009      
  1.3             1.4179e-007     -1.2342e-008    2.665e-009     
  1.35            1.4242e-007     -7.263e-009     2.6959e-009    
  1.4             1.428e-007      -7.024e-009     2.7094e-009    
  1.45            1.434e-007      -6.734e-009     2.7158e-009    
  1.5             1.4373e-007     -7.239e-009     2.7111e-009    
  1.55            1.4436e-007     -7.725e-009     2.6964e-009    
  1.6             1.4523e-007     -7.955e-009     2.6672e-009    
  1.65            1.5713e-007     -1.7378e-008    1.4614e-009    
  1.7             1.5902e-007     -1.7249e-008    1.6085e-009    
  1.75            1.6107e-007     -1.7313e-008    1.7818e-009    
  1.8             1.6308e-007     -1.712e-008     1.9546e-009    
END_DB

BEGIN_DB
 ICCAP_VAR VG         0.72           
 ICCAP_VAR VS         0              
 ICCAP_VAR VB         0              

 #VD              ID              IB              IG             
  0               3.8889e-008     -1.6949e-008    -9.309e-010    
  0.05            7.2181e-005     -1.8539e-008    1.0584e-009    
  0.1             0.00011772      -1.0253e-008    6.47e-010      
  0.15            0.00014401      -9.403e-009     -9.042e-010    
  0.2             0.0001563       -1.385e-008     2.6921e-009    
  0.25            0.00016293      -6.932e-009     2.705e-009     
  0.3             0.00016747      -6.61e-009      2.7093e-009    
  0.35            0.00017086      -6.758e-009     2.7072e-009    
  0.4             0.00017374      -7.375e-009     2.6979e-009    
  0.45            0.00017636      -7.813e-009     2.672e-009     
  0.5             0.0001795       -1.7181e-008    1.4011e-009    
  0.55            0.00018186      -1.675e-008     1.5338e-009    
  0.6             0.00018378      -1.6945e-008    1.7024e-009    
  0.65            0.00018649      -1.6843e-008    1.8826e-009    
  0.7             0.00018844      -1.6198e-008    2.0553e-009    
  0.75            0.00019021      -1.1842e-008    2.6759e-009    
  0.8             0.00019149      -7.423e-009     2.6937e-009    
  0.85            0.00019359      -6.955e-009     2.7067e-009    
  0.9             0.00019527      -6.584e-009     2.7122e-009    
  0.95            0.00019709      -6.762e-009     2.7109e-009    
  1               0.000199        -7.46e-009      2.6924e-009    
  1.05            0.00020052      -7.773e-009     2.6673e-009    
  1.1             0.00020285      -1.7001e-008    1.4247e-009    
  1.15            0.00020503      -1.6689e-008    1.556e-009     
  1.2             0.0002063       -1.7068e-008    1.7327e-009    
  1.25            0.00020788      -1.6945e-008    1.9082e-009    
  1.3             0.00020976      -1.0701e-008    2.6408e-009    
  1.35            0.00021141      -2.3258e-008    2.2286e-009    
  1.4             0.00021303      -1.6057e-008    1.517e-009     
  1.45            0.00021423      -1.1274e-008    7.4e-011       
  1.5             0.00021881      -1.4495e-008    -1.6042e-009   
  1.55            0.0002178       -1.7193e-008    -2.0443e-009   
  1.6             0.00021961      -1.4704e-008    -2.2017e-009   
  1.65            0.00022318      -3.635e-009     -1.6138e-009   
  1.7             0.00022464      -2.6669e-008    -2.4002e-009   
  1.75            0.0002265       -2.7444e-008    -1.9037e-009   
  1.8             0.00022739      -5.9952e-008    -1.3607e-009   
END_DB

BEGIN_DB
 ICCAP_VAR VG         1.08           
 ICCAP_VAR VS         0              
 ICCAP_VAR VB         0              

 #VD              ID              IB              IG             
  0               1.748e-008      -1.3312e-008    2.027e-010     
  0.05            0.00022717      1.6827e-008     6.497e-010     
  0.1             0.00043095      1.637e-008      -1.5178e-009   
  0.15            0.00060931      1.5852e-008     -1.6483e-009   
  0.2             0.00075977      1.4947e-008     -1.7894e-009   
  0.25            0.00088158      1.4123e-008     -1.9365e-009   
  0.3             0.00097606      1.3509e-008     -2.0769e-009   
  0.35            0.00104598      1.2741e-008     -2.2015e-009   
  0.4             0.00109562      1.2185e-008     -2.3148e-009   
  0.45            0.0011277       1.1697e-008     -9.563e-010    
  0.5             0.0011545       1.3265e-008     -2.0818e-009   
  0.55            0.0011725       1.2709e-008     -2.2081e-009   
  0.6             0.0011867       1.2107e-008     -2.319e-009    
  0.65            0.0011982       1.1543e-008     -2.4146e-009   
  0.7             0.0012084       1.0927e-008     -2.4836e-009   
  0.75            0.0012177       1.0211e-008     -2.5257e-009   
  0.8             0.001226        8.97e-009       -2.5614e-009   
  0.85            0.0012338       7.918e-009      -2.5802e-009   
  0.9             0.001241        7.306e-009      -2.5961e-009   
  0.95            0.0012481       6.756e-009      -2.6086e-009   
  1               0.0012552       6.104e-009      -2.6075e-009   
  1.05            0.0012615       5.005e-009      -2.598e-009    
  1.1             0.0012687       1.7377e-008     -1.4044e-009   
  1.15            0.0012752       1.6449e-008     -1.5021e-009   
  1.2             0.0012814       1.5915e-008     -1.627e-009    
  1.25            0.0012877       1.5121e-008     -1.7659e-009   
  1.3             0.0012932       1.4237e-008     -1.9157e-009   
  1.35            0.0012984       1.3189e-008     -2.0617e-009   
  1.4             0.001304        1.2146e-008     -2.1844e-009   
  1.45            0.0013102       1.0602e-008     -2.3042e-009   
  1.5             0.0013158       8.514e-009      -2.395e-009    
  1.55            0.0013211       5.305e-009      -2.4675e-009   
  1.6             0.0013233       -1.749e-008     -2.1876e-009   
  1.65            0.0013294       -2.3593e-008    -2.6004e-009   
  1.7             0.0013361       -1.3017e-008    -1.4062e-009   
  1.75            0.0013412       -4.1759e-008    -2.34e-011     
  1.8             0.0013432       -7.546e-008     2.7146e-009    
END_DB

BEGIN_DB
 ICCAP_VAR VG         1.44           
 ICCAP_VAR VS         0              
 ICCAP_VAR VB         0              

 #VD              ID              IB              IG             
  0               5.4057e-008     -1.0865e-008    2.2863e-009    
  0.05            0.00031287      1.2836e-008     1.7447e-009    
  0.1             0.00061162      -6.773e-009     2.7143e-009    
  0.15            0.00089465      -7.026e-009     2.7112e-009    
  0.2             0.0011585       1.6508e-008     2.6919e-009    
  0.25            0.0014012       -7.057e-009     2.7066e-009    
  0.3             0.001621        -6.95e-009      2.7132e-009    
  0.35            0.0018154       -6.919e-009     2.7159e-009    
  0.4             0.0019842       -7.239e-009     2.7055e-009    
  0.45            0.0021272       -7.852e-009     2.6855e-009    
  0.5             0.0022454       -7.806e-009     2.651e-009     
  0.55            0.0023386       -1.6803e-008    1.5076e-009    
  0.6             0.0024137       -1.6779e-008    1.664e-009     
  0.65            0.002471        -1.6869e-008    1.8374e-009    
  0.7             0.0025158       -1.6435e-008    2.0108e-009    
  0.75            0.0025492       -1.1535e-008    2.6649e-009    
  0.8             0.0025746       -7.619e-009     2.693e-009     
  0.85            0.0025969       -7.024e-009     2.703e-009     
  0.9             0.0026145       -6.678e-009     2.7121e-009    
  0.95            0.0026304       -6.888e-009     2.7121e-009    
  1               0.0026441       -7.391e-009     2.7001e-009    
  1.05            0.002657        -7.848e-009     2.6765e-009    
  1.1             0.0026684       -1.7183e-008    1.3932e-009    
  1.15            0.0026793       -1.6641e-008    1.5305e-009    
  1.2             0.0026903       -1.6951e-008    1.6938e-009    
  1.25            0.0026996       -1.6897e-008    1.8661e-009    
  1.3             0.0027097       -1.6333e-008    2.0435e-009    
  1.35            0.0027187       -1.1732e-008    2.6717e-009    
  1.4             0.0027269       -7.526e-009     2.6954e-009    
  1.45            0.0027356       -7.106e-009     2.7093e-009    
  1.5             0.0027444       -7.155e-009     2.7165e-009    
  1.55            0.0027525       -8.085e-009     2.7123e-009    
  1.6             0.0027608       -9.647e-009     2.6971e-009    
  1.65            0.002768        -2.2065e-008    2.6986e-009    
  1.7             0.0027756       -2.9904e-008    2.4375e-009    
  1.75            0.0027835       -3.1717e-008    1.7787e-009    
  1.8             0.0027905       -3.2815e-008    1.898e-010     
END_DB

BEGIN_DB
 ICCAP_VAR VG         1.8            
 ICCAP_VAR VS         0              
 ICCAP_VAR VB         0              

 #VD              ID              IB              IG             
  0               6.4231e-008     -1.9135e-008    2.7105e-009    
  0.05            0.00035848      1.6773e-008     1.6295e-009    
  0.1             0.00070827      -7.242e-009     2.7063e-009    
  0.15            0.00104838      -7.792e-009     2.6841e-009    
  0.2             0.0013762       1.6664e-008     2.6816e-009    
  0.25            0.00169         -7.248e-009     2.7006e-009    
  0.3             0.001988        -7.004e-009     2.7094e-009    
  0.35            0.0022676       -6.85e-009      2.7115e-009    
  0.4             0.0025281       -7.24e-009      2.7067e-009    
  0.45            0.002768        -7.765e-009     2.6876e-009    
  0.5             0.0029862       -7.904e-009     2.6539e-009    
  0.55            0.0031807       -1.6863e-008    1.4998e-009    
  0.6             0.0033529       -1.6921e-008    1.6605e-009    
  0.65            0.0035032       -1.7048e-008    1.8352e-009    
  0.7             0.0036325       -1.6536e-008    2.0151e-009    
  0.75            0.0037406       -1.1417e-008    2.6552e-009    
  0.8             0.0038299       -7.448e-009     2.6901e-009    
  0.85            0.0039036       -6.994e-009     2.7059e-009    
  0.9             0.0039634       -6.66e-009      2.7144e-009    
  0.95            0.0040114       -6.823e-009     2.713e-009     
  1               0.00405         -7.456e-009     2.6995e-009    
  1.05            0.0040814       -7.931e-009     2.6748e-009    
  1.1             0.0041077       -7.535e-009     2.6383e-009    
  1.15            0.0041291       -1.6871e-008    1.5546e-009    
  1.2             0.0041487       -1.7048e-008    1.7203e-009    
  1.25            0.0041649       -1.6943e-008    1.9034e-009    
  1.3             0.0041813       -1.6357e-008    2.0749e-009    
  1.35            0.0041954       -1.2217e-008    2.67e-009      
  1.4             0.0042067       -7.519e-009     2.695e-009     
  1.45            0.0042203       -7.208e-009     2.7065e-009    
  1.5             0.0042319       -6.806e-009     2.7092e-009    
  1.55            0.0042432       -7.137e-009     2.7048e-009    
  1.6             0.0042543       -7.954e-009     2.6909e-009    
  1.65            0.0042644       -8.578e-009     2.661e-009     
  1.7             0.004274        -1.8207e-008    1.4471e-009    
  1.75            0.0042833       -1.0559e-008    2.52e-011      
  1.8             0.0043006       -1.3537e-008    -1.6441e-009   
END_DB

BEGIN_DB
 ICCAP_VAR VG         0              
 ICCAP_VAR VS         0              
 ICCAP_VAR VB         -0.9           

 #VD              ID              IB              IG             
  0               -8.479e-010     -1.4299e-008    3.979e-010     
  0.05            4.187e-010      -6.859e-009     2.6625e-009    
  0.1             9.148e-010      1.5191e-008     -2.1932e-009   
  0.15            -9.402e-010     -1.5931e-008    2.4447e-009    
  0.2             7.62e-010       1.4008e-008     -2.3227e-009   
  0.25            -7.655e-010     -1.4892e-008    2.559e-009     
  0.3             6.051e-010      1.3135e-008     -2.4205e-009   
  0.35            -5.821e-010     -1.4223e-008    2.6381e-009    
  0.4             4.454e-010      1.229e-008      -2.4955e-009   
  0.45            -3.856e-010     -1.2683e-008    2.6874e-009    
  0.5             2.783e-010      1.1681e-008     -2.5371e-009   
  0.55            -1.943e-010     -1.0549e-008    2.7087e-009    
  0.6             1.084e-010      1.1033e-008     -2.5648e-009   
  0.65            -2.9462e-009    -1.1378e-008    1.7122e-009    
  0.7             2.7204e-009     1.8297e-008     -1.9019e-009   
  0.75            -1.2535e-009    -1.656e-008     2.1545e-009    
  0.8             1.0527e-009     1.5987e-008     -2.0767e-009   
  0.85            -1.0913e-009    -1.6544e-008    2.3285e-009    
  0.9             8.944e-010      1.5206e-008     -2.2231e-009   
  0.95            -9.112e-010     -1.5931e-008    2.4725e-009    
  1               7.364e-010      1.3987e-008     -2.3482e-009   
  1.05            -3.4436e-009    -8.374e-009     1.606e-010     
  1.1             1.3e-011        -7.926e-009     2.7182e-009    
  1.15            2.8735e-009     1.5777e-008     -1.7585e-009   
  1.2             -2.7e-009       -1.8334e-008    2.2015e-009    
  1.25            1.0161e-009     1.6116e-008     -2.11e-009     
  1.3             -1.0498e-009    -1.6664e-008    2.3587e-009    
  1.35            8.71e-010       1.5122e-008     -2.2482e-009   
  1.4             -8.825e-010     -1.5756e-008    2.4848e-009    
  1.45            7.079e-010      1.4023e-008     -2.3557e-009   
  1.5             -6.985e-010     -1.4797e-008    2.5824e-009    
  1.55            5.455e-010      1.3017e-008     -2.4433e-009   
  1.6             -5.16e-010      -1.3856e-008    2.6494e-009    
  1.65            3.801e-010      1.206e-008      -2.5034e-009   
  1.7             -3.102e-010     -1.1892e-008    2.6887e-009    
  1.75            2.147e-010      1.1067e-008     -2.5395e-009   
  1.8             -3.0103e-009    -1.0163e-008    1.5958e-009    
END_DB

BEGIN_DB
 ICCAP_VAR VG         0.36           
 ICCAP_VAR VS         0              
 ICCAP_VAR VB         -0.9           

 #VD              ID              IB              IG             
  0               1.1013e-009     1.5432e-008     -1.236e-010    
  0.05            6.4e-011        -1.5974e-008    2.463e-009     
  0.1             1.8828e-009     1.4095e-008     -2.338e-009    
  0.15            -2.2834e-009    -8.264e-009     1.591e-010     
  0.2             2.6313e-009     -8.058e-009     2.7157e-009    
  0.25            4.1619e-009     1.5666e-008     -1.7559e-009   
  0.3             -1.3516e-009    -1.8249e-008    2.2057e-009    
  0.35            2.4398e-009     1.6212e-008     -2.1129e-009   
  0.4             4.63e-010       -1.6595e-008    2.3717e-009    
  0.45            2.3803e-009     1.4923e-008     -2.2531e-009   
  0.5             7.572e-010      -1.5642e-008    2.4938e-009    
  0.55            2.3082e-009     1.3755e-008     -2.362e-009    
