! VERSION = 6.00
BEGIN_HEADER
 ICCAP_INPUTS
  VG         V  B GROUND SMU4 0.001 LIN        2    0          1.8        6    0.36      
  VS         V  E GROUND SMU2 0.1 CON        0
  VD         V  S GROUND SMU1 0.1 LIN        1    0          1.8        37   0.05      
  VB         V  C GROUND SMU3 0.1 LIN        3    0          -0.9       2    -0.9      
 ICCAP_OUTPUTS
  ID         I  S GROUND SMU1 B
  IB         I  C GROUND SMU3 B
  IG         I  B GROUND SMU4 B
END_HEADER

BEGIN_DB
 ICCAP_VAR VG         0              
 ICCAP_VAR VS         0              
 ICCAP_VAR VB         0              

 #VD              ID              IB              IG             
  0               1.0988e-009     1.1169e-008     1.1801e-009    
  0.05            -5.311e-010     -1.6383e-008    2.5082e-009    
  0.1             2.2325e-009     -3.472e-009     1.1616e-009    
  0.15            1.9385e-009     1.1005e-008     -2.003e-010    
  0.2             8.867e-010      2.4672e-008     -1.5938e-009   
  0.25            -1.4923e-009    6.911e-009      -1.7505e-009   
  0.3             -2.1606e-009    -1.1815e-008    -3.598e-010    
  0.35            -2.2153e-009    -1.1456e-008    -5.744e-010    
  0.4             -2.2488e-009    -1.0541e-008    -7.685e-010    
  0.45            -2.2488e-009    -9.665e-009     -9.087e-010    
  0.5             -1.6452e-009    -1.2872e-008    1.7763e-009    
  0.55            1.6947e-009     -8.764e-009     1.6163e-009    
  0.6             2.0229e-009     1.0705e-008     -1.42e-011     
  0.65            1.0286e-009     2.7262e-008     -1.4517e-009   
  0.7             -2.2228e-009    9.59e-009       -1.024e-009    
  0.75            -1.7125e-009    -1.1817e-008    1.5865e-009    
  0.8             2.3843e-009     -8.62e-009      8.481e-010     
  0.85            2.3553e-009     8.948e-009      9.846e-010     
  0.9             1.8235e-009     1.211e-008      -1.5153e-009   
  0.95            -1.3927e-009    8.486e-009      -1.8255e-009   
  1               -2.1957e-009    -1.1504e-008    -4.935e-010    
  1.05            -2.2414e-009    -1.0634e-008    -6.992e-010    
  1.1             -1.5434e-009    -1.7352e-008    1.2594e-009    
  1.15            -1.476e-010     -1.329e-008     2.8447e-009    
  1.2             2.0934e-009     1.1184e-008     1.16e-010      
  1.25            2.192e-009      1.1268e-008     3.06e-010      
  1.3             2.2804e-009     1.0642e-008     4.994e-010     
  1.35            2.35e-009       1.0229e-008     6.81e-010      
  1.4             1.5571e-009     1.8883e-008     -1.3023e-009   
  1.45            2.084e-010      1.2167e-008     -2.6253e-009   
  1.5             -2.2333e-009    7.77e-010       -9.834e-010    
  1.55            -1.6862e-009    -1.2102e-008    1.6509e-009    
  1.6             1.5659e-009     -8.562e-009     1.71e-009      
  1.65            2.2101e-009     1.1276e-008     3.49e-010      
  1.7             2.2959e-009     1.0499e-008     5.391e-010     
  1.75            1.4376e-009     2.2526e-008     -1.3277e-009   
  1.8             8.9e-011        1.1232e-008     -2.6943e-009   
END_DB

BEGIN_DB
 ICCAP_VAR VG         0.36           
 ICCAP_VAR VS         0              
 ICCAP_VAR VB         0              

 #VD              ID              IB              IG             
  0               7.57e-010       1.576e-008      1.044e-009     
  0.05            1.3883e-008     2.0604e-008     2.85e-009      
  0.1             1.3384e-008     -1.1592e-008    -8.099e-010    
  0.15            1.7657e-008     1.5978e-008     -1.8578e-009   
  0.2             1.9189e-008     2.7898e-008     -1.3426e-009   
  0.25            2.1025e-008     9.481e-009      1.0002e-009    
  0.3             1.9617e-008     -2.1072e-008    1.5734e-009    
  0.35            1.8402e-008     -1.1877e-008    -5.172e-010    
  0.4             2.1846e-008     1.2764e-008     -2.2724e-009   
  0.45            2.4287e-008     1.1651e-008     -1.418e-010    
  0.5             2.371e-008      -8.552e-009     2.8894e-009    
  0.55            2.1427e-008     -1.0752e-008    -9.525e-010    
  0.6             2.5851e-008     1.8805e-008     -1.6444e-009   
  0.65            2.7436e-008     2.5481e-008     -1.3093e-009   
  0.7             2.8515e-008     2.7115e-008     -1.33e-009     
  0.75            2.9387e-008     9.191e-009      1.0566e-009    
  0.8             2.8319e-008     -2.247e-008     1.5026e-009    
  0.85            2.706e-008      -1.1937e-008    -5.978e-010    
  0.9             3.1264e-008     1.3316e-008     -2.1675e-009   
  0.95            3.2868e-008     2.7356e-008     -1.3761e-009   
  1               3.3835e-008     1.0335e-008     8.347e-010     
  1.05            3.3151e-008     -1.843e-008     1.8529e-009    
  1.1             3.3774e-008     -2.4001e-008    1.2679e-009    
  1.15            3.5068e-008     -2.5674e-008    1.2854e-009    
  1.2             3.5996e-008     -2.6499e-008    1.304e-009     
  1.25            3.5255e-008     -1.0334e-008    -9.855e-010    
  1.3             4.0507e-008     1.9294e-008     -1.6001e-009   
  1.35            4.0721e-008     1.0911e-008     1.8942e-009    
  1.4             4.0062e-008     -1.7762e-008    1.8123e-009    
  1.45            4.0308e-008     -1.1781e-008    -2.819e-010    
  1.5             4.4977e-008     1.1631e-008     -2.5023e-009   
  1.55            4.7338e-008     1.364e-008      -1.4416e-009   
  1.6             4.7328e-008     1.125e-008      5.926e-010     
  1.65            4.776e-008      -1.5584e-008    2.2679e-009    
  1.7             4.8623e-008     -2.6517e-008    1.3149e-009    
  1.75            4.8115e-008     -1.0614e-008    -9.431e-010    
  1.8             5.3955e-008     1.8419e-008     -1.6518e-009   
END_DB

BEGIN_DB
 ICCAP_VAR VG         0.72           
 ICCAP_VAR VS         0              
 ICCAP_VAR VB         0              

 #VD              ID              IB              IG             
  0               -8.1759e-008    4.661e-009      1.5028e-009    
  0.05            3.6252e-005     1.0673e-008     -1.5937e-009   
  0.1             5.4901e-005     9.893e-009      9.482e-010     
  0.15            6.4388e-005     -2.5369e-008    1.2915e-009    
  0.2             7.0682e-005     -1.0506e-008    -1.641e-009    
  0.25            7.3647e-005     1.4142e-008     -1.4599e-009   
  0.3             7.6596e-005     2.7168e-008     -1.3345e-009   
  0.35            7.809e-005      1.1259e-008     6.08e-010      
  0.4             7.9358e-005     -2.4291e-008    1.4255e-009    
  0.45            8.1536e-005     -2.3722e-008    1.2663e-009    
  0.5             8.3626e-005     -1.1756e-008    -7.502e-010    
  0.55            8.6396e-005     2.5898e-008     -1.4111e-009   
  0.6             8.5891e-005     9.001e-009      1.2236e-009    
  0.65            8.858e-005      -1.8852e-008    1.8774e-009    
  0.7             8.9935e-005     -1.2284e-008    2.789e-010     
  0.75            9.3248e-005     1.1995e-008     -2.389e-009    
  0.8             9.2891e-005     1.0724e-008     1.9326e-009    
  0.85            9.4763e-005     -2.0746e-008    1.6044e-009    
  0.9             9.7653e-005     -9.947e-009     -1.0815e-009   
  0.95            9.9651e-005     2.6831e-008     -1.3326e-009   
  1               0.000100255     1.1235e-008     6.179e-010     
  1.05            0.00010089      -2.4379e-008    1.4201e-009    
  1.1             0.000102799     -2.3161e-008    2.1911e-009    
  1.15            0.000104666     -1.1773e-008    -7.536e-010    
  1.2             0.000107322     2.5863e-008     -1.4078e-009   
  1.25            0.000108838     2.4785e-008     -1.3058e-009   
  1.3             0.000110348     2.6058e-008     -1.3944e-009   
  1.35            0.000111635     1.7003e-008     -1.6827e-009   
  1.4             0.000113397     2.5163e-008     -1.3846e-009   
  1.45            0.00011338      1.5668e-008     2.4358e-009    
  1.5             0.00011484      -1.7481e-008    -5.34e-010     
  1.55            0.00011762      9.168e-009      -1.7112e-009   
  1.6             0.00011769      -3.693e-009     2.1483e-009    
  1.65            0.00011901      -3.2511e-008    2.48e-011      
  1.7             0.00012181      -2.962e-008     -1.9573e-009   
  1.75            0.00012194      -3.2331e-008    1.9743e-009    
  1.8             0.00012379      -7.1774e-008    2.003e-010     
END_DB

BEGIN_DB
 ICCAP_VAR VG         1.08           
 ICCAP_VAR VS         0              
 ICCAP_VAR VB         0              

 #VD              ID              IB              IG             
  0               9.1739e-007     -1.1854e-008    9.451e-010     
  0.05            0.00018711      -1.6026e-008    -3.221e-010    
  0.1             0.00034636      1.5186e-008     -1.9318e-009   
  0.15            0.0004722       1.0218e-008     2.0025e-009    
  0.2             0.00056797      -1.8435e-008    1.8361e-009    
  0.25            0.00063899      -1.1709e-008    -7.29e-010     
  0.3             0.00068894      2.0992e-008     -1.5497e-009   
  0.35            0.00072145      1.0394e-008     8.065e-010     
  0.4             0.000744        -2.3728e-008    1.4532e-009    
  0.45            0.00076434      -1.0198e-008    -1.0033e-009   
  0.5             0.00077934      2.6513e-008     -1.3939e-009   
  0.55            0.00078672      8.996e-009      1.0695e-009    
  0.6             0.00079717      -2.6108e-008    1.3096e-009    
  0.65            0.00080747      -1.1679e-008    -1.599e-010    
  0.7             0.00081945      1.3412e-008     -2.1234e-009   
  0.75            0.00082274      1.0909e-008     1.8773e-009    
  0.8             0.00083112      -1.2182e-008    2.802e-010     
  0.85            0.00084314      1.1352e-008     -2.6367e-009   
  0.9             0.00084366      1.0668e-008     1.4205e-009    
  0.95            0.00085368      -1.9892e-008    1.9613e-009    
  1               0.00086062      -1.1928e-008    -6.476e-010    
  1.05            0.00086969      1.9439e-008     -1.6095e-009   
  1.1             0.00087466      1.0847e-008     7.41e-010      
  1.15            0.0008785       -2.2465e-008    1.505e-009     
  1.2             0.00088791      -1.0563e-008    -9.415e-010    
  1.25            0.0008957       2.5594e-008     -1.4108e-009   
  1.3             0.00089733      8.635e-009      1.0128e-009    
  1.35            0.00090362      -2.7258e-008    1.3262e-009    
  1.4             0.00091358      -1.1973e-008    -1.2289e-009   
  1.45            0.00091895      6.499e-009      -2.6969e-009   
  1.5             0.00092512      2.295e-009      -2.5046e-009   
  1.55            0.00093083      -2.415e-009     -2.142e-009    
  1.6             0.0009309       -1.52e-008      1.8678e-009    
  1.65            0.00093708      -5.4559e-008    2.899e-010     
  1.7             0.00094719      -5.4844e-008    -2.6448e-009   
  1.75            0.00094595      -8.9944e-008    1.4077e-009    
  1.8             0.0009554       -1.2063e-007    -9.59e-011     
END_DB

BEGIN_DB
 ICCAP_VAR VG         1.44           
 ICCAP_VAR VS         0              
 ICCAP_VAR VB         0              

 #VD              ID              IB              IG             
  0               -1.2061e-007    -1.7247e-008    1.2521e-009    
  0.05            0.00030298      -7.237e-009     1.3059e-009    
  0.1             0.00058221      -2.2545e-008    1.2574e-009    
  0.15            0.00083135      -1.192e-008     -5.397e-010    
  0.2             0.00104675      1.7898e-008     -1.6976e-009   
  0.25            0.0012274       -8.655e-009     -1.3362e-009   
  0.3             0.0013741       2.2415e-008     -1.7468e-009   
  0.35            0.0014911       1.1333e-008     6.148e-010     
  0.4             0.0015807       -1.9936e-008    1.6365e-009    
  0.45            0.0016528       -1.1188e-008    -8.447e-010    
  0.5             0.001708        2.3726e-008     -1.4525e-009   
  0.55            0.0017505       2.759e-008      -1.3761e-009   
  0.6             0.0017828       2.7234e-008     -1.328e-009    
  0.65            0.0018078       1.1203e-008     3.665e-010     
  0.7             0.001826        -1.7251e-008    1.9845e-009    
  0.75            0.0018451       -1.1985e-008    -6.216e-010    
  0.8             0.0018635       1.8847e-008     -1.6274e-009   
  0.85            0.0018763       1.0902e-008     7.307e-010     
  0.9             0.0018874       -2.1811e-008    1.5184e-009    
  0.95            0.0019023       -1.0596e-008    -9.29e-010     
  1               0.0019154       2.5654e-008     -1.4128e-009   
  1.05            0.0019222       9.209e-009      9.989e-010     
  1.1             0.0019323       -2.6239e-008    1.3311e-009    
  1.15            0.0019476       -9.35e-009      -1.2182e-009   
  1.2             0.0019574       2.8067e-008     -1.3494e-009   
  1.25            0.0019668       2.4036e-008     -1.2951e-009   
  1.3             0.0019742       1.095e-008      5.443e-010     
  1.35            0.0019799       -1.9785e-008    1.7333e-009    
  1.4             0.001991        -1.3226e-008    -7.867e-010    
  1.45            0.0020021       1.8811e-008     -1.4906e-009   
  1.5             0.0020109       6.204e-009      -2.4086e-009   
  1.55            0.0020184       3.682e-009      -2.0031e-009   
  1.6             0.002025        -2.4583e-008    -2.7181e-009   
  1.65            0.0020301       -2.1212e-008    1.0307e-009    
  1.7             0.0020385       -7.547e-008     1.3229e-009    
  1.75            0.0020487       -8.5442e-008    -2.5341e-009   
  1.8             0.0020557       -9.163e-008     9.85e-011      
END_DB

BEGIN_DB
 ICCAP_VAR VG         1.8            
 ICCAP_VAR VS         0              
 ICCAP_VAR VB         0              

 #VD              ID              IB              IG             
  0               -1.2278e-007    1.9801e-008     -1.2999e-009   
  0.05            0.00037515      4.15e-009       -1.3564e-009   
  0.1             0.00073231      1.73e-008       -1.7432e-009   
  0.15            0.00106431      1.1199e-008     6.291e-010     
  0.2             0.001365        -1.0059e-008    1.2065e-009    
  0.25            0.0016336       -2.489e-008     1.2795e-009    
  0.3             0.0018685       -1.891e-008     1.8597e-009    
  0.35            0.0020716       -1.1831e-008    -7.137e-010    
  0.4             0.002244        2.0531e-008     -1.5507e-009   
  0.45            0.0023873       1.0507e-008     7.961e-010     
  0.5             0.0025048       -2.3467e-008    1.4528e-009    
  0.55            0.0026053       -1.0118e-008    -9.976e-010    
  0.6             0.0026855       2.6597e-008     -1.3911e-009   
  0.65            0.0027464       8.946e-009      1.0715e-009    
  0.7             0.0027987       -2.6395e-008    1.3083e-009    
  0.75            0.002842        -2.3036e-008    1.257e-009     
  0.8             0.0028778       -1.18e-008      -5.113e-010    
  0.85            0.0029094       1.7672e-008     -1.7269e-009   
  0.9             0.0029336       1.1168e-008     6.418e-010     
  0.95            0.0029532       -2.041e-008     1.6201e-009    
  1               0.0029744       -1.1031e-008    -8.644e-010    
  1.05            0.002994        2.4037e-008     -1.4456e-009   
  1.1             0.0030068       9.64e-009       9.366e-010     
  1.15            0.0030208       -2.5604e-008    1.3593e-009    
  1.2             0.0030397       -9.401e-009     -1.1432e-009   
  1.25            0.0030529       2.7903e-008     -1.3616e-009   
  1.3             0.0030598       8.775e-009      1.2135e-009    
  1.35            0.0030731       -2.5371e-008    1.2784e-009    
  1.4             0.0030856       -1.2655e-008    -3.752e-010    
  1.45            0.0030999       1.3974e-008     -1.8799e-009   
  1.5             0.0031106       1.7138e-008     -1.558e-009    
  1.55            0.003122        5.775e-009      -2.494e-009    
  1.6             0.003132        3.482e-009      -2.1226e-009   
  1.65            0.00314         -2.4188e-008    -2.6985e-009   
  1.7             0.0031476       -1.917e-008     9.701e-010     
  1.75            0.0031567       -7.1785e-008    1.3406e-009    
  1.8             0.0031683       -8.1261e-008    -2.4865e-009   
END_DB

BEGIN_DB
 ICCAP_VAR VG         0              
 ICCAP_VAR VS         0              
 ICCAP_VAR VB         -0.9           

 #VD              ID              IB              IG             
  0               1.2803e-009     -1.1437e-008    1.2982e-009    
  0.05            6.09e-011       -1.0462e-008    1.2636e-009    
  0.1             -1.189e-010     -1.2838e-008    2.8602e-009    
  0.15            1.4858e-009     2.1322e-008     -1.3191e-009   
  0.2             1.349e-010      1.1557e-008     -2.6755e-009   
  0.25            -2.2458e-009    6.12e-010       -9.276e-010    
  0.3             -1.662e-009     -1.2595e-008    1.7326e-009    
  0.35            1.6444e-009     -8.717e-009     1.6591e-009    
  0.4             2.1886e-009     1.1292e-008     3.007e-010     
  0.45            2.2804e-009     1.0707e-008     4.998e-010     
  0.5             1.4159e-009     2.335e-008      -1.334e-009    
  0.55            6.55e-011       1.1239e-008     -1.2885e-009   
  0.6             2.344e-010      1.2163e-008     -2.6028e-009   
  0.65            -2.2198e-009    5.18e-010       -1.0144e-009   
  0.7             -2.1246e-009    -9.638e-009     -1.1674e-009   
  0.75            -1.8091e-009    -1.1838e-008    2.865e-010     
  0.8             -8.839e-010     -2.2843e-008    1.7702e-009    
  0.85            1.6714e-009     -8.852e-009     1.6291e-009    
  0.9             2.0343e-009     9.852e-009      1.76e-011      
  0.95            2.1353e-009     1.128e-008      2.044e-010     
  1               2.2292e-009     1.1096e-008     4.01e-010      
  1.05            2.3176e-009     1.0234e-008     5.95e-010      
  1.1             2.3733e-009     9.391e-009      7.642e-010     
  1.15            1.6328e-009     1.6221e-008     -1.7814e-009   
  1.2             -1.6624e-009    5.149e-009      -1.6207e-009   
  1.25            -2.1061e-009    -1.1833e-008    -1.792e-010    
  1.3             -2.1705e-009    -1.1732e-008    -4.063e-010    
  1.35            -2.2214e-009    -1.1075e-008    -6.329e-010    
  1.4             -2.2473e-009    -1.024e-008     -8.13e-010     
  1.45            -1.6049e-009    -1.4534e-008    1.96e-009      
  1.5             1.8397e-009     -8.528e-009     1.5071e-009    
  1.55            1.5765e-009     1.0407e-008     1.6963e-009    
  1.6             2.2022e-009     1.1285e-008     3.444e-010     
  1.65            2.2924e-009     1.0359e-008     5.453e-010     
  1.7             1.4466e-009     2.2415e-008     -1.3265e-009   
  1.75            1.048e-010      1.1432e-008     -2.6887e-009   
  1.8             -2.1845e-009    -9.689e-009     -1.1039e-009   
END_DB

BEGIN_DB
 ICCAP_VAR VG         0.36           
 ICCAP_VAR VS         0              
 ICCAP_VAR VB         -0.9           

 #VD              ID              IB              IG             
  0               6.129e-010      -1.1868e-008    5.099e-010     
  0.05            -5.463e-010     -1.8566e-008    2.2024e-009    
  0.1             1.3171e-009     -5.945e-009     2.3505e-009    
  0.15            1.5968e-009     2.3766e-008     -1.3485e-009   
  0.2             2.819e-010      1.1479e-008     -1.305e-009    
  0.25            4.596e-010      1.1831e-008     -2.6512e-009   
  0.3             -1.6718e-009    9.75e-010       1.095e-010     
  0.35            -1.7711e-009    -1.1753e-008    -9.21e-011     
  0.4             -1.8271e-009    -1.1793e-008    -3.146e-010    
  0.45            -1.8691e-009    -1.1101e-008    -5.412e-010    
  0.5             -9.078e-010     -1.0177e-008    1.3496e-009    
  0.55            1.5821e-009     -9.003e-009     2.1225e-009    
