! VERSION = 6.00
BEGIN_HEADER
 ICCAP_INPUTS
  VG         V  B GROUND SMU4 0.001 LIN        1    0          1.8        37   0.05      
  VS         V  E GROUND SMU2 0.1 CON        0
  VB         V  C GROUND SMU3 0.1 LIN        3    0          -1.8       3    -0.9      
  VD         V  S GROUND SMU1 0.1 LIN        2    0.1        1.8        2    1.7       
 ICCAP_OUTPUTS
  IG         I  B GROUND SMU4 B
  ID         I  S GROUND SMU1 B
  IB         I  C GROUND SMU3 B
END_HEADER

BEGIN_DB
 ICCAP_VAR VS         0              
 ICCAP_VAR VB         0              
 ICCAP_VAR VD         0.1            

 #VG              IG              ID              IB             
  0               -1.4015e-009    -1.4537e-009    1.1152e-008    
  0.05            -1.1031e-009    -2.173e-009     1.0215e-008    
  0.1             1.4756e-009     -1.7548e-009    -1.1607e-008   
  0.15            9.346e-010      2.3467e-009     -8.316e-009    
  0.2             -1.5412e-009    1.7728e-009     1.2553e-008    
  0.25            -8.92e-010      -2.1696e-009    7.65e-009      
  0.3             1.7717e-009     -1.3565e-009    -1.2895e-008   
  0.35            2.5054e-009     2.1262e-009     -8.953e-009    
  0.4             2.519e-010      6.8248e-009     1.1323e-008    
  0.45            -1.9207e-009    1.7423e-008     -1.8046e-008   
  0.5             -1.4661e-009    7.846e-008      3.639e-009     
  0.55            8.84e-010       2.8717e-007     -1.5294e-008   
  0.6             -1.4266e-009    1.01094e-006    1.3439e-008    
  0.65            -2.0096e-009    2.4742e-006     -1.2865e-008   
  0.7             -1.0539e-009    5.3719e-006     -1.0269e-008   
  0.75            1.833e-010      9.5802e-006     -1.1756e-008   
  0.8             9.271e-010      1.5026e-005     -2.0735e-008   
  0.85            -2.227e-010     2.1729e-005     1.266e-008     
  0.9             -1.4313e-009    2.8887e-005     2.4102e-008    
  0.95            -1.3301e-009    3.6245e-005     9.456e-009     
  1               -2.5798e-009    4.3657e-005     1.1376e-008    
  1.05            -2.026e-009     5.077e-005      8.98e-010      
  1.1             -1.5109e-009    5.7823e-005     3.196e-009     
  1.15            -1.3571e-009    6.4608e-005     7.957e-009     
  1.2             -2.6752e-009    7.1066e-005     1.1368e-008    
  1.25            -2.2602e-009    7.7052e-005     8.16e-010      
  1.3             -1.6601e-009    8.2912e-005     2.253e-009     
  1.35            -1.3887e-009    8.844e-005      6.006e-009     
  1.4             -1.3096e-009    9.3689e-005     1.0478e-008    
  1.45            -2.4682e-009    9.863e-005      1.1633e-008    
  1.5             -1.8583e-009    0.000103097     1.25e-009      
  1.55            -1.4423e-009    0.000107462     4.29e-009      
  1.6             -1.3378e-009    0.000111557     9.237e-009     
  1.65            4.87e-011       0.00011543      1.2504e-008    
  1.7             5.162e-010      0.00011897      1.1185e-008    
  1.75            9.068e-010      0.00012228      1.0109e-008    
  1.8             -1.4124e-009    0.00012546      1.2942e-008    
END_DB

BEGIN_DB
 ICCAP_VAR VS         0              
 ICCAP_VAR VB         0              
 ICCAP_VAR VD         1.8            

 #VG              IG              ID              IB             
  0               -1.3736e-009    -1.3504e-009    1.1314e-008    
  0.05            -1.1979e-009    -2.1054e-009    1.0893e-008    
  0.1             2.526e-010      -1.8087e-009    -1.1451e-008   
  0.15            1.7074e-009     -8.865e-010     -2.3069e-008   
  0.2             1.6544e-009     1.6618e-009     -8.559e-009    
  0.25            2.923e-010      2.3782e-009     1.1333e-008    
  0.3             4.907e-010      3.2558e-009     1.0958e-008    
  0.35            -1.3281e-009    6.4087e-009     2.3423e-008    
  0.4             2.2442e-009     2.1315e-008     2.3826e-008    
  0.45            1.5725e-009     8.4013e-008     -5.863e-009    
  0.5             2.8625e-009     3.2087e-007     -1.2088e-008   
  0.55            1.7458e-009     1.1218e-006     9.463e-009     
  0.6             -2.6055e-009    3.5599e-006     8.232e-009     
  0.65            -1.4655e-009    8.1536e-006     -1.6177e-008   
  0.7             2.7495e-009     1.5814e-005     -1.9946e-008   
  0.75            2.1711e-009     2.7131e-005     -1.6561e-008   
  0.8             1.5353e-009     4.1643e-005     -2.6756e-008   
  0.85            1.3008e-009     5.8961e-005     -3.3566e-008   
  0.9             2.8441e-009     7.8491e-005     -3.8869e-008   
  0.95            2.4157e-009     9.9328e-005     -3.3693e-008   
  1               1.85e-009       0.00012223      -3.6684e-008   
  1.05            1.3751e-009     0.00014533      -4.7253e-008   
  1.1             1.2641e-009     0.00016964      -4.8288e-008   
  1.15            2.7139e-009     0.00019392      -5.3501e-008   
  1.2             2.0787e-009     0.00021899      -4.3242e-008   
  1.25            1.4811e-009     0.00024442      -4.914e-008    
  1.3             1.2894e-009     0.00026997      -4.998e-008    
  1.35            2.8179e-009     0.00029594      -5.1409e-008   
  1.4             2.3391e-009     0.00032131      -4.1089e-008   
  1.45            1.6542e-009     0.00034706      -4.4368e-008   
  1.5             1.3271e-009     0.00037288      -4.7111e-008   
  1.55            2.8623e-009     0.00039858      -4.6133e-008   
  1.6             2.5517e-009     0.00042414      -3.6733e-008   
  1.65            1.8691e-009     0.00044972      -3.7808e-008   
  1.7             1.3935e-009     0.0004752       -4.2376e-008   
  1.75            1.2694e-009     0.00050065      -4.0536e-008   
  1.8             2.7299e-009     0.00052569      -4.2859e-008   
END_DB

BEGIN_DB
 ICCAP_VAR VS         0              
 ICCAP_VAR VB         -0.9           
 ICCAP_VAR VD         0.1            

 #VG              IG              ID              IB             
  0               -1.2304e-009    -1.138e-009     -1.0154e-008   
  0.05            -2.3267e-009    4.551e-010      1.4603e-008    
  0.1             -5.4e-010       -2.1941e-009    -1.1487e-008   
  0.15            -7.515e-010     -2.2314e-009    -1.0317e-008   
  0.2             1.2427e-009     -1.5537e-009    -1.556e-008    
  0.25            2.7955e-009     -2.188e-010     -1.3931e-008   
  0.3             1.969e-010      2.1099e-009     1.119e-008     
  0.35            3.963e-010      2.2238e-009     1.1099e-008    
  0.4             5.928e-010      2.4204e-009     1.0231e-008    
  0.45            -1.3091e-009    2.1873e-009     2.0764e-008    
  0.5             -2.6579e-009    3.5071e-009     1.1746e-008    
  0.55            2.5551e-009     1.4368e-008     2.75e-008      
  0.6             1.883e-009      5.9915e-008     -2.565e-009    
  0.65            -1.1066e-009    2.4573e-007     1.6656e-008    
  0.7             1.273e-010      8.2992e-007     -1.1394e-008   
  0.75            2.8566e-009     2.2129e-006     2.8011e-008    
  0.8             2.5924e-009     4.8589e-006     -2.69e-010     
  0.85            2.4715e-009     8.9409e-006     7.464e-009     
  0.9             -2.5516e-009    1.4437e-005     1.1185e-008    
  0.95            -6.935e-010     2.092e-005      -1.1876e-008   
  1               1.7464e-009     2.8011e-005     -1.706e-008    
  1.05            1.346e-009      3.5328e-005     -8.614e-009    
  1.1             1.2548e-009     4.2689e-005     -8.478e-009    
  1.15            2.6344e-009     4.9899e-005     -1.3242e-008   
  1.2             6.532e-010      5.6965e-005     1.1118e-008    
  1.25            -1.5827e-009    6.381e-005      1.8908e-008    
  1.3             -1.3696e-009    7.0191e-005     6.937e-009     
  1.35            -1.2957e-009    7.6262e-005     1.1047e-008    
  1.4             -2.3841e-009    8.2014e-005     1.223e-008     
  1.45            -1.7432e-009    8.7284e-005     1.828e-009     
  1.5             -1.4074e-009    9.2397e-005     5.035e-009     
  1.55            -1.323e-009     9.7195e-005     9.986e-009     
  1.6             -2.5426e-009    0.000101701     1.144e-008     
  1.65            -1.9495e-009    0.000105763     7.87e-010      
  1.7             -1.475e-009     0.000109714     3.592e-009     
  1.75            -1.3484e-009    0.000113388     8.502e-009     
  1.8             -1.6687e-009    0.00011695      9.382e-009     
END_DB

BEGIN_DB
 ICCAP_VAR VS         0              
 ICCAP_VAR VB         -0.9           
 ICCAP_VAR VD         1.8            

 #VG              IG              ID              IB             
  0               -1.702e-010     -3.933e-010     -9.54e-009     
  0.05            -4.086e-010     -2.1531e-009    -1.1871e-008   
  0.1             1.2954e-009     -1.3726e-009    -2.2709e-008   
  0.15            2.8603e-009     5.64e-011       -1.0204e-008   
  0.2             1.7089e-009     1.5276e-009     -2.69e-010     
  0.25            3.626e-010      2.1958e-009     1.1309e-008    
  0.3             5.571e-010      2.3351e-009     1.0477e-008    
  0.35            -1.317e-009     1.7907e-009     2.1444e-008    
  0.4             -2.6684e-009    1.8152e-009     1.1713e-008    
  0.45            -2.5349e-009    6.9172e-009     7.09e-010      
  0.5             2.5303e-009     3.3124e-008     9.611e-009     
  0.55            2.864e-009      1.3983e-007     -1.2019e-008   
  0.6             -1.782e-009     5.9674e-007     2.2811e-008    
  0.65            2.6312e-009     1.8893e-006     1.8502e-008    
  0.7             1.9509e-009     5.1547e-006     -6.264e-009    
  0.75            -1.334e-009     1.1782e-005     -1.2343e-008   
  0.8             -2.5747e-009    2.1712e-005     -6.55e-010     
  0.85            -2.3379e-009    3.4665e-005     -2.5919e-008   
  0.9             -2.6204e-009    5.0939e-005     -3e-008        
  0.95            -2.706e-009     6.9585e-005     -3.0438e-008   
  1               -2.452e-009     9.0149e-005     -2.9789e-008   
  1.05            -1.8408e-009    0.000112295     -3.1791e-008   
  1.1             -1.5551e-009    0.00013552      -4.5656e-008   
  1.15            -1.3677e-009    0.00015948      -3.0107e-008   
  1.2             -2.6949e-009    0.00018396      -2.7272e-008   
  1.25            -2.3309e-009    0.00020857      -3.8627e-008   
  1.3             -1.7092e-009    0.00023378      -3.763e-008    
  1.35            -1.3957e-009    0.00025934      -3.4086e-008   
  1.4             -1.3198e-009    0.00028507      -2.8985e-008   
  1.45            -2.5083e-009    0.00031081      -2.6984e-008   
  1.5             -1.8997e-009    0.00033622      -3.6838e-008   
  1.55            -1.4486e-009    0.000362        -3.2783e-008   
  1.6             -1.3452e-009    0.0003876       -2.6834e-008   
  1.65            -2.3667e-009    0.00041279      -3.4174e-008   
  1.7             -1.7479e-009    0.00043836      -3.1889e-008   
  1.75            -1.4055e-009    0.00046383      -2.7093e-008   
  1.8             -1.3268e-009    0.00048907      -2.1012e-008   
END_DB

BEGIN_DB
 ICCAP_VAR VS         0              
 ICCAP_VAR VB         -1.8           
 ICCAP_VAR VD         0.1            

 #VG              IG              ID              IB             
  0               7.964e-010      8.215e-010      -1.1389e-008   
  0.05            1.2568e-009     -1.5278e-009    -1.6395e-008   
  0.1             2.8314e-009     -1.786e-010     -1.3821e-008   
  0.15            1.1027e-009     2.2546e-009     1.0209e-008    
  0.2             -1.4051e-009    1.0572e-009     2.8338e-008    
  0.25            -1.0842e-009    -2.1916e-009    1.0081e-008    
  0.3             1.476e-009      -1.7412e-009    -1.1405e-008   
  0.35            9.264e-010      2.3554e-009     -8.104e-009    
  0.4             -1.5206e-009    1.7848e-009     1.2153e-008    
  0.45            -8.955e-010     -2.1056e-009    7.708e-009     
  0.5             1.7285e-009     -1.0148e-009    -1.2219e-008   
  0.55            1.4973e-009     3.0756e-009     -8.745e-009    
  0.6             2.8526e-009     1.3425e-008     2.1708e-008    
  0.65            2.7465e-009     5.6067e-008     4.2e-011       
  0.7             -5.934e-010     2.2452e-007     1.1397e-008    
  0.75            -9.888e-010     7.898e-007      -1.0407e-008   
  0.8             2.866e-009      2.1237e-006     2.7649e-008    
  0.85            -1.7283e-009    4.7848e-006     2.2432e-008    
  0.9             -1.3994e-009    8.7747e-006     5.216e-009     
  0.95            2.1545e-009     1.4052e-005     3.671e-009     
  1               1.4991e-009     2.0388e-005     -6.406e-009    
  1.05            1.3051e-009     2.7436e-005     -8.431e-009    
  1.1             2.8437e-009     3.475e-005      -9.875e-009    
  1.15            4.072e-010      4.2309e-005     1.1416e-008    
  1.2             -1.2931e-009    4.9621e-005     2.4901e-008    
  1.25            -2.3414e-009    5.6601e-005     1.2403e-008    
  1.3             -1.6886e-009    6.3213e-005     2.038e-009     
  1.35            -1.3948e-009    6.9568e-005     5.356e-009     
  1.4             -1.3208e-009    7.5598e-005     1.0301e-008    
  1.45            -2.4947e-009    8.1258e-005     1.1718e-008    
  1.5             -1.8585e-009    8.6506e-005     1.365e-009     
  1.55            -1.4349e-009    9.1544e-005     4.131e-009     
  1.6             -1.3441e-009    9.6267e-005     9.194e-009     
  1.65            -2.6162e-009    0.000100708     1.1676e-008    
  1.7             -2.0483e-009    0.000104733     7.19e-010      
  1.75            -1.5114e-009    0.000108615     2.975e-009     
  1.8             -1.3625e-009    0.000112245     7.795e-009     
END_DB

BEGIN_DB
 ICCAP_VAR VS         0              
 ICCAP_VAR VB         -1.8           
 ICCAP_VAR VD         1.8            

 #VG              IG              ID              IB             
  0               8.873e-010      8.303e-010      -1.1855e-008   
  0.05            1.2834e-009     -1.4324e-009    -1.9725e-008   
  0.1             2.8745e-009     -2.64e-011      -1.1619e-008   
  0.15            -1.3339e-009    1.3861e-009     2.2873e-008    
  0.2             -2.7028e-009    6.87e-011       1.1573e-008    
  0.25            1.2798e-009     -1.4537e-009    -1.9104e-008   
  0.3             2.8762e-009     -4.16e-011      -1.2178e-008   
  0.35            -1.328e-009     1.5177e-009     2.1954e-008    
  0.4             -2.6974e-009    6.029e-010      1.1548e-008    
  0.45            -1.0956e-009    2.341e-010      -9.622e-009    
  0.5             2.3255e-009     1.1304e-008     2.4938e-008    
  0.55            1.6386e-009     4.9255e-008     -4.404e-009    
  0.6             2.1141e-009     2.0728e-007     -1.019e-008    
  0.65            1.5088e-009     7.8853e-007     -7.186e-009    
  0.7             2.2166e-009     2.553e-006      1.0152e-008    
  0.75            -1.8843e-009    6.7407e-006     9.616e-009     
  0.8             2.2152e-009     1.3821e-005     -2.0426e-008   
  0.85            1.5613e-009     2.4649e-005     -1.8632e-008   
  0.9             1.3198e-009     3.8783e-005     -2.6325e-008   
  0.95            2.8692e-009     5.573e-005      -3.2022e-008   
  1               2.4222e-009     7.5129e-005     -2.7444e-008   
  1.05            1.7084e-009     9.6096e-005     -3.3987e-008   
  1.1             1.7265e-009     0.00011852      -3.404e-008    
  1.15            1.3582e-009     0.00014175      -4.3768e-008   
  1.2             1.2542e-009     0.00016569      -4.5442e-008   
  1.25            2.6144e-009     0.00019024      -5.1329e-008   
  1.3             1.8863e-009     0.00021529      -4.1147e-008   
  1.35            1.413e-009      0.00024042      -4.6847e-008   
  1.4             1.2798e-009     0.00026575      -4.6897e-008   
  1.45            2.7506e-009     0.00029116      -5.0006e-008   
  1.5             2.0886e-009     0.00031689      -3.9059e-008   
  1.55            1.5001e-009     0.0003424       -4.3169e-008   
  1.6             1.3047e-009     0.00036801      -4.4119e-008   
  1.65            2.8341e-009     0.00039327      -4.4854e-008   
  1.7             2.3023e-009     0.00041881      -3.4355e-008   
  1.75            1.6225e-009     0.00044409      -3.7091e-008   
  1.8             1.3388e-009     0.00046929      -3.9805e-008   
END_DB

