! VERSION = 6.00
BEGIN_HEADER
 ICCAP_INPUTS
  VG         V  B GROUND SMU4 0.001 LIN        2    0          1.8        6    0.36      
  VS         V  E GROUND SMU3 0.1 CON        0
  VD         V  S GROUND SMU2 0.1 LIN        1    0          1.8        37   0.05      
  VB         V  C GROUND SMU1 0.1 LIN        3    0          -0.9       2    -0.9      
 ICCAP_OUTPUTS
  ID         I  S GROUND SMU2 B
  IB         I  C GROUND SMU1 B
  IG         I  B GROUND SMU4 B
END_HEADER

BEGIN_DB
 ICCAP_VAR VG         0              
 ICCAP_VAR VS         0              
 ICCAP_VAR VB         0              

 #VD              ID              IB              IG             
  0               4.412e-010      -7.59e-009      8.324e-010     
  0.05            1.626e-010      1.1129e-008     -2.5455e-009   
  0.1             -2.9641e-009    -1.0576e-008    1.6405e-009    
  0.15            2.7907e-009     1.6628e-008     -1.8166e-009   
  0.2             -2.6535e-009    -1.8991e-008    2.2402e-009    
  0.25            9.913e-010      1.5724e-008     -2.1301e-009   
  0.3             -1.0432e-009    -1.6542e-008    2.3744e-009    
  0.35            8.817e-010      1.5035e-008     -2.2456e-009   
  0.4             -9.03e-010      -1.5732e-008    2.4881e-009    
  0.45            7.459e-010      1.4295e-008     -2.3418e-009   
  0.5             -7.474e-010     -1.5177e-008    2.565e-009     
  0.55            6.108e-010      1.3502e-008     -2.4147e-009   
  0.6             -3.3386e-009    -7.961e-009     2.097e-010     
  0.65            1.09e-010       -7.889e-009     2.7106e-009    
  0.7             2.7775e-009     1.683e-008      -1.8294e-009   
  0.75            -2.6442e-009    -1.9186e-008    2.2645e-009    
  0.8             9.809e-010      1.5584e-008     -2.1512e-009   
  0.85            -1.018e-009     -1.6324e-008    2.39e-009      
  0.9             8.608e-010      1.4961e-008     -2.2627e-009   
  0.95            -8.743e-010     -1.5871e-008    2.4937e-009    
  1               7.342e-010      1.4099e-008     -2.3585e-009   
  1.05            -7.318e-010     -1.5007e-008    2.5805e-009    
  1.1             3.5145e-009     7.652e-009      -2.4271e-009   
  1.15            -3.3235e-009    -7.901e-009     2.335e-010     
  1.2             1.271e-010      -7.488e-009     2.7072e-009    
  1.25            2.7712e-009     1.7404e-008     -1.8491e-009   
  1.3             -1.3092e-009    -1.655e-008     2.0789e-009    
  1.35            1.1382e-009     1.6182e-008     -1.9859e-009   
  1.4             -1.1952e-009    -1.6754e-008    2.2341e-009    
  1.45            1.0194e-009     1.5807e-008     -2.1157e-009   
  1.5             -1.0549e-009    -1.6384e-008    2.3649e-009    
  1.55            9.021e-010      1.5088e-008     -2.2368e-009   
  1.6             -9.067e-010     -1.6167e-008    2.4673e-009    
  1.65            7.726e-010      1.42e-008       -2.3308e-009   
  1.7             -3.4738e-009    -8.429e-009     1.336e-010     
  1.75            -2.1e-011       -8.724e-009     2.712e-009     
  1.8             2.9421e-009     1.4283e-008     -1.674e-009    
END_DB

BEGIN_DB
 ICCAP_VAR VG         0.36           
 ICCAP_VAR VS         0              
 ICCAP_VAR VB         0              

 #VD              ID              IB              IG             
  0               3.58e-011       -6.821e-009     7.282e-010     
  0.05            3.7098e-008     -9.432e-009     -2.2308e-009   
  0.1             5.043e-008      9.973e-009      -2.5183e-009   
  0.15            5.4752e-008     5.821e-009      -2.6035e-009   
  0.2             6.333e-008      1.5591e-008     -1.8106e-009   
  0.25            6.816e-008      1.1524e-008     -2.4058e-009   
  0.3             7.1906e-008     7.127e-009      -2.5771e-009   
  0.35            8.1805e-008     1.6367e-008     -1.4759e-009   
  0.4             8.926e-008      1.6138e-008     -1.4375e-009   
  0.45            9.6874e-008     1.5216e-008     -1.4019e-009   
  0.5             1.03799e-007    1.4194e-008     -1.3692e-009   
  0.55            1.0624e-007     -1.6434e-008    1.0282e-009    
  0.6             1.1335e-007     1.2072e-008     1.2873e-009    
  0.65            1.2302e-007     -1.6553e-008    1.3974e-009    
  0.7             1.3289e-007     -1.6318e-008    1.5355e-009    
  0.75            1.4249e-007     -1.6576e-008    1.7082e-009    
  0.8             1.5294e-007     -1.6411e-008    1.8798e-009    
  0.85            1.6437e-007     -1.6137e-008    2.0658e-009    
  0.9             1.7456e-007     -1.1714e-008    2.6762e-009    
  0.95            1.8974e-007     -7.276e-009     2.6958e-009    
  1               2.0168e-007     -7.192e-009     2.705e-009     
  1.05            2.1659e-007     -6.833e-009     2.7065e-009    
  1.1             2.3206e-007     -6.724e-009     2.7024e-009    
  1.15            2.4813e-007     -7.368e-009     2.6883e-009    
  1.2             2.6579e-007     -7.814e-009     2.6639e-009    
  1.25            2.8438e-007     -7.375e-009     2.6305e-009    
  1.3             3.1062e-007     -1.6207e-008    1.5191e-009    
  1.35            3.3485e-007     -1.6649e-008    1.6874e-009    
  1.4             3.5771e-007     -1.6559e-008    1.8659e-009    
  1.45            3.8406e-007     -1.6361e-008    2.0425e-009    
  1.5             4.0922e-007     -1.1559e-008    2.6785e-009    
  1.55            4.3559e-007     -7.599e-009     2.6977e-009    
  1.6             4.663e-007      -7.405e-009     2.7031e-009    
  1.65            4.9712e-007     -7.26e-009      2.706e-009     
  1.7             5.3186e-007     -7.272e-009     2.7024e-009    
  1.75            5.6966e-007     -8.131e-009     2.6889e-009    
  1.8             6.09e-007       -8.918e-009     2.667e-009     
END_DB

BEGIN_DB
 ICCAP_VAR VG         0.72           
 ICCAP_VAR VS         0              
 ICCAP_VAR VB         0              

 #VD              ID              IB              IG             
  0               4.0842e-008     -1.331e-008     -1.1143e-009   
  0.05            7.5039e-005     -1.1006e-008    1.953e-009     
  0.1             0.0001174       -7.182e-009     8.101e-010     
  0.15            0.00014018      -1.7071e-008    1.6739e-009    
  0.2             0.00015434      -1.6131e-008    1.8537e-009    
  0.25            0.00016447      -1.5794e-008    2.0238e-009    
  0.3             0.00017288      -1.0957e-008    2.6958e-009    
  0.35            0.00017928      -7.684e-009     2.7157e-009    
  0.4             0.00018629      -7.266e-009     2.7149e-009    
  0.45            0.00019308      -6.5e-009       2.7136e-009    
  0.5             0.00019973      -6.625e-009     2.7079e-009    
  0.55            0.00020658      -7.349e-009     2.688e-009     
  0.6             0.00021303      -7.645e-009     2.6624e-009    
  0.65            0.00021965      -7.301e-009     2.6271e-009    
  0.7             0.0002265       -1.6004e-008    1.5115e-009    
  0.75            0.00023301      -1.6039e-008    1.6709e-009    
  0.8             0.00023951      -1.6093e-008    1.8486e-009    
  0.85            0.00024652      -1.5778e-008    2.0383e-009    
  0.9             0.00025265      -1.1064e-008    2.6943e-009    
  0.95            0.0002589       -7.501e-009     2.7125e-009    
  1               0.0002656       -7.262e-009     2.7177e-009    
  1.05            0.00027217      -6.861e-009     2.7118e-009    
  1.1             0.00027902      -6.788e-009     2.6999e-009    
  1.15            0.00028598      -7.485e-009     2.6812e-009    
  1.2             0.00029288      -8.112e-009     2.6572e-009    
  1.25            0.00030056      -1.7771e-008    1.3785e-009    
  1.3             0.00030666      -1.0008e-008    -1.97e-011     
  1.35            0.00031842      -1.2894e-008    -1.6702e-009   
  1.4             0.00032565      -1.4617e-008    -1.3767e-009   
  1.45            0.00033024      -1.7271e-008    -2.5963e-009   
  1.5             0.00033916      -2.464e-009     -1.3438e-009   
  1.55            0.00034545      -2.4017e-008    3.42e-011      
  1.6             0.00035068      -4.5048e-008    2.7083e-009    
  1.65            0.00035731      -9.3159e-008    2.6727e-009    
  1.7             0.00036603      -1.1465e-007    -2.244e-010    
  1.75            0.00037262      -1.4434e-007    2.6444e-009    
  1.8             0.00037964      -2.2634e-007    1.4631e-009    
END_DB

BEGIN_DB
 ICCAP_VAR VG         1.08           
 ICCAP_VAR VS         0              
 ICCAP_VAR VB         0              

 #VD              ID              IB              IG             
  0               6.7482e-008     1.2758e-008     -2.335e-009    
  0.05            0.00029865      -8.697e-009     -1.8633e-009   
  0.1             0.000562        8.002e-009      -2.5597e-009   
  0.15            0.00078497      7.058e-009      -2.5724e-009   
  0.2             0.00096438      6.619e-009      -2.5836e-009   
  0.25            0.00110195      5.897e-009      -2.5921e-009   
  0.3             0.0012004       -1.7708e-008    8.648e-010     
  0.35            0.0012705       -1.6337e-008    1.7592e-009    
  0.4             0.0013242       -1.6225e-008    1.9467e-009    
  0.45            0.0013639       -1.5763e-008    2.1287e-009    
  0.5             0.0013955       -1.218e-008     2.7027e-009    
  0.55            0.0014213       -7.391e-009     2.7087e-009    
  0.6             0.0014453       -6.759e-009     2.71e-009      
  0.65            0.0014666       -6.777e-009     2.7063e-009    
  0.7             0.0014867       -7.053e-009     2.6941e-009    
  0.75            0.0015064       -7.678e-009     2.6731e-009    
  0.8             0.0015245       -7.649e-009     2.6415e-009    
  0.85            0.0015422       -1.6202e-008    1.4734e-009    
  0.9             0.00156         -1.6293e-008    1.6238e-009    
  0.95            0.0015767       -1.6485e-008    1.8141e-009    
  1               0.0015927       -1.6317e-008    1.9904e-009    
  1.05            0.001609        -1.0886e-008    2.6806e-009    
  1.1             0.0016243       -7.643e-009     2.698e-009     
  1.15            0.0016408       -7.262e-009     2.7065e-009    
  1.2             0.0016566       -6.898e-009     2.7109e-009    
  1.25            0.0016725       -7.254e-009     2.7081e-009    
  1.3             0.001688        -8.597e-009     2.695e-009     
  1.35            0.0017038       -1.0452e-008    2.6715e-009    
  1.4             0.0017186       -2.1788e-008    1.3839e-009    
  1.45            0.0017332       -1.7577e-008    -1.13e-011     
  1.5             0.0017523       -2.1273e-008    -2.589e-009    
  1.55            0.0017693       -1.0354e-008    -2.487e-009    
  1.6             0.0017838       -2.6118e-008    -2.1059e-009   
  1.65            0.0017992       -6.5184e-008    -1.4883e-009   
  1.7             0.00181         -1.3043e-007    -1.2481e-009   
  1.75            0.0018266       -1.878e-007     1.966e-010     
  1.8             0.0018389       -2.9094e-007    2.7077e-009    
END_DB

BEGIN_DB
 ICCAP_VAR VG         1.44           
 ICCAP_VAR VS         0              
 ICCAP_VAR VB         0              

 #VD              ID              IB              IG             
  0               7.2164e-008     1.6562e-008     -2.6133e-009   
  0.05            0.00040277      -1.678e-008     -4.752e-010    
  0.1             0.00078645      -1.6381e-008    2.066e-009     
  0.15            0.0011502       7.621e-009      -1.8382e-009   
  0.2             0.0014857       7.478e-009      -2.5657e-009   
  0.25            0.0017893       6.98e-009       -2.5891e-009   
  0.3             0.002058        6.457e-009      -2.6077e-009   
  0.35            0.0022891       5.974e-009      -2.6139e-009   
  0.4             0.0024828       4.985e-009      -2.6069e-009   
  0.45            0.0026399       1.6959e-008     -1.4255e-009   
  0.5             0.002766        1.6389e-008     -1.5405e-009   
  0.55            0.0028652       1.6106e-008     -1.6909e-009   
  0.6             0.0029434       1.5479e-008     -1.8415e-009   
  0.65            0.0030058       1.4588e-008     -1.9956e-009   
  0.7             0.0030559       1.5053e-008     -1.4096e-009   
  0.75            0.003098        1.6308e-008     -1.5242e-009   
  0.8             0.0031338       1.6193e-008     -1.6637e-009   
  0.85            0.0031657       1.5509e-008     -1.818e-009    
  0.9             0.0031941       1.4523e-008     -1.9689e-009   
  0.95            0.0032219       1.4672e-008     -1.391e-009    
  1               0.0032473       1.6264e-008     -1.5006e-009   
  1.05            0.0032714       1.6123e-008     -1.6369e-009   
  1.1             0.0032934       1.5474e-008     -1.7912e-009   
  1.15            0.0033161       1.4629e-008     -1.9435e-009   
  1.2             0.0033384       1.4071e-008     -1.3759e-009   
  1.25            0.0033594       1.6036e-008     -1.4812e-009   
  1.3             0.0033798       1.5781e-008     -1.6148e-009   
  1.35            0.0033994       1.4758e-008     -1.7716e-009   
  1.4             0.0034202       1.3262e-008     -1.9197e-009   
  1.45            0.0034401       1.0668e-008     -2.0704e-009   
  1.5             0.0034589       7.274e-009      -2.2082e-009   
  1.55            0.0034781       1.347e-009      -2.3206e-009   
  1.6             0.0034974       -7.911e-009     -2.4074e-009   
  1.65            0.0035148       -9.054e-009     -1.9064e-009   
  1.7             0.0035333       -4.245e-008     -1.3545e-009   
  1.75            0.003548        -1.0726e-007    -6.577e-010    
  1.8             0.0035654       -1.3728e-007    2.3032e-009    
END_DB

BEGIN_DB
 ICCAP_VAR VG         1.8            
 ICCAP_VAR VS         0              
 ICCAP_VAR VB         0              

 #VD              ID              IB              IG             
  0               6.5166e-008     -7.374e-009     1.7312e-009    
  0.05            0.00045148      1.2933e-008     1.846e-010     
  0.1             0.00089184      1.2552e-008     -2.2375e-009   
  0.15            0.0013202       6.604e-009      2.7136e-009    
  0.2             0.0017332       -6.856e-009     2.7221e-009    
  0.25            0.002127        -7.088e-009     2.7197e-009    
  0.3             0.0024983       -7.584e-009     2.7036e-009    
  0.35            0.0028441       -8.011e-009     2.6707e-009    
  0.4             0.0031617       -1.7332e-008    1.4223e-009    
  0.45            0.0034494       -1.7043e-008    1.5673e-009    
  0.5             0.0037059       -1.699e-008     1.7461e-009    
  0.55            0.0039295       -1.6763e-008    1.9248e-009    
  0.6             0.0041221       -1.6144e-008    2.0959e-009    
  0.65            0.0042851       -1.2431e-008    2.6825e-009    
  0.7             0.0044204       -7.567e-009     2.7084e-009    
  0.75            0.0045334       -6.875e-009     2.72e-009      
  0.8             0.0046258       -6.749e-009     2.7221e-009    
  0.85            0.0047025       -7.323e-009     2.7165e-009    
  0.9             0.0047661       -7.806e-009     2.6971e-009    
  0.95            0.0048198       -8.02e-009      2.6627e-009    
  1               0.0048652       -1.7156e-008    1.4738e-009    
  1.05            0.0049059       -1.6996e-008    1.6213e-009    
  1.1             0.0049424       -1.6871e-008    1.7907e-009    
  1.15            0.0049756       -1.6555e-008    1.9674e-009    
  1.2             0.0050064       -1.591e-008     2.1375e-009    
  1.25            0.0050357       -1.3075e-008    2.6904e-009    
  1.3             0.0050625       -7.525e-009     2.7111e-009    
  1.35            0.0050895       -6.943e-009     2.7206e-009    
  1.4             0.0051151       -7.115e-009     2.7194e-009    
  1.45            0.0051396       -8.145e-009     2.7107e-009    
  1.5             0.0051634       -9.535e-009     2.6875e-009    
  1.55            0.0051864       -2.065e-008     1.3821e-009    
  1.6             0.0052082       -1.3712e-008    -2.38e-011     
  1.65            0.0052388       -1.9157e-008    -1.6959e-009   
  1.7             0.0052556       -2.0628e-008    -2.5642e-009   
  1.75            0.00528         -8.733e-009     -2.3619e-009   
  1.8             0.0053003       -2.7356e-008    -1.8553e-009   
END_DB

BEGIN_DB
 ICCAP_VAR VG         0              
 ICCAP_VAR VS         0              
 ICCAP_VAR VB         -0.9           

 #VD              ID              IB              IG             
  0               -1.3649e-009    -1.647e-008     1.181e-010     
  0.05            -7.58e-011      -8.955e-009     2.7221e-009    
  0.1             2.9397e-009     1.3786e-008     -1.6563e-009   
  0.15            -2.7546e-009    -1.6262e-008    2.0991e-009    
  0.2             1.0937e-009     1.5935e-008     -2.0174e-009   
  0.25            -1.1508e-009    -1.6296e-008    2.2718e-009    
  0.3             9.505e-010      1.5319e-008     -2.1672e-009   
  0.35            -9.871e-010     -1.5909e-008    2.4178e-009    
  0.4             8.068e-010      1.4373e-008     -2.2978e-009   
  0.45            -8.124e-010     -1.5369e-008    2.5416e-009    
  0.5             6.605e-010      1.3432e-008     -2.4094e-009   
  0.55            -3.3748e-009    -7.941e-009     1.993e-010     
  0.6             7.79e-011       -7.622e-009     2.716e-009     
  0.65            2.7858e-009     1.6905e-008     -1.8259e-009   
  0.7             -2.6379e-009    -1.9448e-008    2.2821e-009    
  0.75            9.6e-010        1.5743e-008     -2.1787e-009   
  0.8             -9.872e-010     -1.6349e-008    2.43e-009      
  0.85            8.152e-010      1.4388e-008     -2.3056e-009   
  0.9             -8.195e-010     -1.5554e-008    2.5407e-009    
  0.95            6.55e-010       1.3592e-008     -2.4026e-009   
  1               -6.443e-010     -1.477e-008     2.6212e-009    
  1.05            4.982e-010      1.2833e-008     -2.4748e-009   
  1.1             -3.2202e-009    -7.92e-009      2.6701e-009    
  1.15            3.331e-010      1.2031e-008     -2.5227e-009   
  1.2             -2.602e-010     -1.1086e-008    2.6971e-009    
  1.25            1.714e-010      1.0965e-008     -2.5525e-009   
  1.3             -2.9855e-009    -1.0709e-008    1.6449e-009    
  1.35            2.7847e-009     1.7078e-008     -1.8363e-009   
  1.4             -1.3147e-009    -1.664e-008     2.0882e-009    
  1.45            1.1201e-009     1.6375e-008     -2.0104e-009   
  1.5             -1.174e-009     -1.6924e-008    2.2659e-009    
  1.55            9.781e-010      1.5865e-008     -2.1615e-009   
  1.6             -1.0114e-009    -1.6522e-008    2.4098e-009    
  1.65            8.264e-010      1.4756e-008     -2.2906e-009   
  1.7             -8.425e-010     -1.5589e-008    2.5327e-009    
  1.75            6.722e-010      1.3877e-008     -2.3933e-009   
  1.8             -3.3901e-009    -8.098e-009     1.855e-010     
END_DB

BEGIN_DB
 ICCAP_VAR VG         0.36           
 ICCAP_VAR VS         0              
 ICCAP_VAR VB         -0.9           

 #VD              ID              IB              IG             
  0               1.6936e-009     1.0998e-008     9.731e-010     
  0.05            2.7249e-009     1.4542e-008     -2.2921e-009   
  0.1             3.6682e-009     -1.7217e-008    2.2112e-009    
  0.15            3.9076e-009     1.6066e-008     -2.1281e-009   
  0.2             4.37e-009       -1.698e-008     1.9667e-009    
  0.25            4.9471e-009     1.668e-008      -1.9232e-009   
  0.3             2.7333e-009     -1.7835e-008    1.7283e-009    
  0.35            8.707e-009      1.8253e-008     6.531e-010     
  0.4             3.0984e-009     1.1701e-008     -1.9219e-009   
  0.45            5.0189e-009     -1.6926e-008    2.2617e-009    
  0.5             1.0601e-008     -1.3142e-008    6.486e-010     
  0.55            1.0182e-008     1.1474e-008     -1.15e-011     
