! VERSION = 6.00
BEGIN_HEADER
 ICCAP_INPUTS
  VG         V  B GROUND SMU4 0.001 LIN        2    0          1.8        6    0.36      
  VS         V  E GROUND SMU2 0.1 CON        0
  VD         V  S GROUND SMU1 0.1 LIN        1    0          1.8        37   0.05      
  VB         V  C GROUND SMU3 0.1 LIN        3    0          -0.9       2    -0.9      
 ICCAP_OUTPUTS
  ID         I  S GROUND SMU1 B
  IB         I  C GROUND SMU3 B
  IG         I  B GROUND SMU4 B
END_HEADER

BEGIN_DB
 ICCAP_VAR VG         0              
 ICCAP_VAR VS         0              
 ICCAP_VAR VB         0              

 #VD              ID              IB              IG             
  0               -7.314e-010     -2.5187e-008    -6.864e-010    
  0.05            1.6549e-009     1.5205e-008     -1.7344e-009   
  0.1             -1.5889e-009    5.272e-009      -1.6239e-009   
  0.15            -2.0747e-009    -1.1729e-008    -1.878e-010    
  0.2             -2.1364e-009    -1.1815e-008    -4.153e-010    
  0.25            -2.1804e-009    -1.0926e-008    -6.389e-010    
  0.3             -1.4747e-009    -1.798e-008     1.2516e-009    
  0.35            -9.76e-011      -1.3261e-008    2.833e-009     
  0.4             2.0941e-009     1.1025e-008     9.95e-011      
  0.45            2.1881e-009     1.1265e-008     2.909e-010     
  0.5             2.2708e-009     1.0676e-008     4.917e-010     
  0.55            1.4259e-009     2.3268e-008     -1.3287e-009   
  0.6             8.63e-011       1.1568e-008     -2.6884e-009   
  0.65            -1.9857e-009    -1.1651e-008    -3.5e-012      
  0.7             -2.0811e-009    -1.1849e-008    -2.203e-010    
  0.75            -2.1382e-009    -1.1686e-008    -4.457e-010    
  0.8             -2.1793e-009    -1.0769e-008    -6.687e-010    
  0.85            -1.4871e-009    -1.7663e-008    1.249e-009     
  0.9             -1.165e-010     -1.3448e-008    2.8265e-009    
  0.95            2.1042e-009     1.0989e-008     1.237e-010     
  1               2.1982e-009     1.1251e-008     3.142e-010     
  1.05            2.2852e-009     1.0819e-008     5.088e-010     
  1.1             2.3458e-009     1.0013e-008     6.974e-010     
  1.15            1.5896e-009     1.7491e-008     -1.8389e-009   
  1.2             -1.6817e-009    4.435e-009      -1.5454e-009   
  1.25            -2.0288e-009    -1.1661e-008    -9e-011        
  1.3             -2.1044e-009    -1.1967e-008    -3.179e-010    
  1.35            -2.1553e-009    -1.1326e-008    -5.435e-010    
  1.4             -2.1887e-009    -1.0397e-008    -7.51e-010     
  1.45            -1.5237e-009    -1.5579e-008    2.0217e-009    
  1.5             1.9028e-009     -7.581e-009     1.4481e-009    
  1.55            1.3687e-009     2.4927e-008     -1.3375e-009   
  1.6             3.65e-011       1.1391e-008     -1.3051e-009   
  1.65            1.865e-010      1.1922e-008     -2.6523e-009   
  1.7             -2.1848e-009    5e-010          -9.428e-010    
  1.75            -1.6207e-009    -1.2009e-008    1.6464e-009    
  1.8             1.5865e-009     -8.552e-009     1.6885e-009    
END_DB

BEGIN_DB
 ICCAP_VAR VG         0.36           
 ICCAP_VAR VS         0              
 ICCAP_VAR VB         0              

 #VD              ID              IB              IG             
  0               1.1823e-009     -1.1034e-008    1.263e-009     
  0.05            1.8823e-008     -1.1741e-008    -2.6393e-009   
  0.1             2.5179e-008     1.7483e-008     -1.5439e-009   
  0.15            2.6897e-008     1.0384e-008     1.9417e-009    
  0.2             2.639e-008      -1.6672e-008    1.7194e-009    
  0.25            2.8485e-008     -2.2284e-008    2.061e-009     
  0.3             3.084e-008      -2.617e-008     1.2734e-009    
  0.35            3.2983e-008     -2.6197e-008    1.2922e-009    
  0.4             3.3292e-008     -1.0447e-008    -9.471e-010    
  0.45            3.9332e-008     1.9094e-008     -1.6266e-009   
  0.5             4.2592e-008     2.526e-008      -1.2943e-009   
  0.55            4.4195e-008     1.5924e-008     -1.868e-009    
  0.6             4.7586e-008     2.7841e-008     -1.329e-009    
  0.65            4.925e-008      9.527e-009      9.929e-010     
  0.7             5.0477e-008     -2.0969e-008    1.5484e-009    
  0.75            5.1524e-008     -1.1701e-008    -4.983e-010    
  0.8             5.8967e-008     1.3116e-008     -2.258e-009    
  0.85            6.3387e-008     2.673e-008      -1.3778e-009   
  0.9             6.5197e-008     1.0551e-008     7.781e-010     
  0.95            6.7643e-008     -1.7851e-008    1.9238e-009    
  1               6.9138e-008     -1.1569e-008    -1.791e-010    
  1.05            7.8655e-008     1.1346e-008     -2.5613e-009   
  1.1             7.9865e-008     8.972e-009      1.1588e-009    
  1.15            8.4399e-008     -2.4434e-008    1.3916e-009    
  1.2             8.8359e-008     -1.1812e-008    -7.368e-010    
  1.25            9.891e-008      1.5207e-008     -1.9661e-009   
  1.3             1.06303e-007    2.8033e-008     -1.3435e-009   
  1.35            1.06546e-007    9.965e-009      9.443e-010     
  1.4             1.1095e-007     9.694e-009      -2.4063e-009   
  1.45            1.25e-007       2.7998e-008     -1.3346e-009   
  1.5             1.326e-007      2.392e-008      -1.8137e-009   
  1.55            1.3559e-007     1.1082e-008     5.529e-010     
  1.6             1.4223e-007     -1.9392e-008    1.6934e-009    
  1.65            1.4962e-007     -1.1691e-008    -7.863e-010    
  1.7             1.6672e-007     2.204e-008      -1.4736e-009   
  1.75            1.7774e-007     2.6605e-008     -1.3763e-009   
  1.8             1.901e-007      2.7322e-008     -1.3263e-009   
END_DB

BEGIN_DB
 ICCAP_VAR VG         0.72           
 ICCAP_VAR VS         0              
 ICCAP_VAR VB         0              

 #VD              ID              IB              IG             
  0               -9.8912e-008    1.5681e-008     2.8322e-009    
  0.05            4.6699e-005     6.519e-009      1.7378e-009    
  0.1             7.2925e-005     -1.0411e-008    -9.62e-010     
  0.15            8.6901e-005     2.8108e-008     -1.3414e-009   
  0.2             9.4401e-005     1.1205e-008     4.767e-010     
  0.25            9.8849e-005     -2.1996e-008    1.4839e-009    
  0.3             0.000105128     -9.49e-009      -1.1449e-009   
  0.35            0.000109421     2.5948e-008     -1.3056e-009   
  0.4             0.000112225     1.1078e-008     6.99e-010      
  0.45            0.00011621      -2.4221e-008    -9.201e-010    
  0.5             0.00012084      2.5455e-008     -1.3982e-009   
  0.55            0.00012252      9.44e-009       9.98e-010      
  0.6             0.00012632      -2.6083e-008    1.3101e-009    
  0.65            0.00013193      -9.575e-009     -1.2093e-009   
  0.7             0.00013547      2.8193e-008     -1.3355e-009   
  0.75            0.00013927      2.4169e-008     -1.8344e-009   
  0.8             0.00014207      1.132e-008      5.419e-010     
  0.85            0.00014439      -1.9125e-008    1.7126e-009    
  0.9             0.000149        -1.1847e-008    -7.814e-010    
  0.95            0.00015402      2.2154e-008     -1.4769e-009   
  1               0.00015604      1.0543e-008     8.602e-010     
  1.05            0.00015908      -2.4519e-008    1.3795e-009    
  1.1             0.00016494      -1.0384e-008    -1.0532e-009   
  1.15            0.00016935      2.7341e-008     -1.3666e-009   
  1.2             0.00017337      2.7108e-008     -1.3203e-009   
  1.25            0.00017706      2.1026e-008     -1.7028e-009   
  1.3             0.00018095      1.5982e-008     -1.5403e-009   
  1.35            0.00018528      9.381e-009      -2.4828e-009   
  1.4             0.00018916      1.0164e-008     -2.1066e-009   
  1.45            0.00019291      1.1012e-008     -1.711e-009    
  1.5             0.00019743      1.53e-010       -2.6232e-009   
  1.55            0.00020159      -5.484e-009     -2.3439e-009   
  1.6             0.00020185      -1.6888e-008    1.7121e-009    
  1.65            0.00020745      -5.5477e-008    1.5293e-009    
  1.7             0.00021272      -7.0374e-008    -2.1992e-009   
  1.75            0.00021802      -7.536e-008     2.166e-010     
  1.8             0.00022124      -9.628e-008     2.797e-010     
END_DB

BEGIN_DB
 ICCAP_VAR VG         1.08           
 ICCAP_VAR VS         0              
 ICCAP_VAR VB         0              

 #VD              ID              IB              IG             
  0               -1.1629e-007    7.94e-010       -3.09e-011     
  0.05            0.00023371      -1.7382e-008    -1.6271e-009   
  0.1             0.00043032      1.8964e-008     -1.6117e-009   
  0.15            0.00058578      1.0999e-008     7.049e-010     
  0.2             0.00070062      -2.1645e-008    1.4982e-009    
  0.25            0.00078632      -1.0605e-008    -9.115e-010    
  0.3             0.00084625      8.464e-009      -1.3563e-009   
  0.35            0.00088345      8.868e-009      1.2013e-009    
  0.4             0.00091492      -2.5405e-008    2.3277e-009    
  0.45            0.00093851      -2.238e-008     2.0632e-009    
  0.5             0.00095822      -1.192e-008     -5.272e-010    
  0.55            0.00097694      1.801e-008      -1.6754e-009   
  0.6             0.00099019      1.1186e-008     6.498e-010     
  0.65            0.00100092      -2.0605e-008    1.5672e-009    
  0.7             0.00101607      -1.1338e-008    -8.638e-010    
  0.75            0.00103024      2.4431e-008     -1.4236e-009   
  0.8             0.00103821      9.92e-009       9.438e-010     
  0.85            0.00104858      -2.6134e-008    1.3379e-009    
  0.9             0.00105968      -2.616e-008     1.2744e-009    
  0.95            0.00107199      -1.1795e-008    -3.084e-010    
  1               0.0010857       1.5139e-008     -1.9336e-009   
  1.05            0.00109223      1.0515e-008     1.9946e-009    
  1.1             0.00110244      -1.8348e-008    1.8123e-009    
  1.15            0.00111421      -1.205e-008     -7.076e-010    
  1.2             0.00112687      2.0377e-008     -1.5281e-009   
  1.25            0.0011354       -9.186e-009     1.1965e-009    
  1.3             0.0011451       -1.3465e-008    -7.447e-010    
  1.35            0.0011576       1.8085e-008     -1.5032e-009   
  1.4             0.0011678       6.088e-009      -2.4492e-009   
  1.45            0.0011772       3.285e-009      -2.0527e-009   
  1.5             0.0011849       -2.5616e-008    -2.6884e-009   
  1.55            0.001192        -2.2242e-008    9.916e-010     
  1.6             0.0012012       -7.7979e-008    1.3203e-009    
  1.65            0.0012132       -8.9773e-008    -2.4942e-009   
  1.7             0.0012225       -1.0381e-007    -7.567e-010    
  1.75            0.0012298       -1.9202e-007    1.3414e-009    
  1.8             0.001242        -2.743e-007     -2.4305e-009   
END_DB

BEGIN_DB
 ICCAP_VAR VG         1.44           
 ICCAP_VAR VS         0              
 ICCAP_VAR VB         0              

 #VD              ID              IB              IG             
  0               -1.1925e-007    1.1087e-008     -9.793e-010    
  0.05            0.00035804      1.3683e-008     1.5e-010       
  0.1             0.00068796      -1.5492e-008    2.2716e-009    
  0.15            0.00098188      -1.1741e-008    -3.763e-010    
  0.2             0.0012359       1.0248e-008     -1.146e-009    
  0.25            0.0014461       2.8595e-008     -1.3503e-009   
  0.3             0.0016126       9.176e-009      1.2267e-009    
  0.35            0.0017481       -2.495e-008     1.2639e-009    
  0.4             0.0018528       -1.1847e-008    -3.781e-010    
  0.45            0.0019365       1.5921e-008     -1.8258e-009   
  0.5             0.0019956       9.76e-009       2.04e-009      
  0.55            0.0020433       -1.875e-008     1.7077e-009    
  0.6             0.0020832       -1.1672e-008    -7.611e-010    
  0.65            0.0021173       2.1962e-008     -1.478e-009    
  0.7             0.0021441       2.715e-008      -1.3795e-009   
  0.75            0.0021624       9.039e-009      1.0605e-009    
  0.8             0.0021834       -2.6995e-008    1.2972e-009    
  0.85            0.0022028       -2.3242e-008    1.2486e-009    
  0.9             0.0022214       -1.1859e-008    -4.814e-010    
  0.95            0.002241        1.7218e-008     -1.7137e-009   
  1               0.002256        1.1181e-008     6.129e-010     
  1.05            0.0022679       -1.9918e-008    1.6001e-009    
  1.1             0.0022849       -1.1332e-008    -8.336e-010    
  1.15            0.0023021       2.369e-008      -1.4315e-009   
  1.2             0.0023159       2.7833e-008     -1.3658e-009   
  1.25            0.0023294       1.4716e-008     -1.8807e-009   
  1.3             0.002339        8.727e-009      2.0135e-009    
  1.35            0.0023512       -1.3649e-008    1.685e-010     
  1.4             0.0023693       7.301e-009      -2.5286e-009   
  1.45            0.0023823       5.775e-009      -2.148e-009    
  1.5             0.0023925       -2.1046e-008    -2.6698e-009   
  1.55            0.0024032       -1.386e-008     9.31e-010      
  1.6             0.0024136       -6.5954e-008    1.3374e-009    
  1.65            0.0024289       -7.2497e-008    -2.4435e-009   
  1.7             0.0024418       -8.9114e-008    5.176e-010     
  1.75            0.0024515       -1.5386e-007    2.7005e-009    
  1.8             0.0024677       -2.3965e-007    -1.6304e-009   
END_DB

BEGIN_DB
 ICCAP_VAR VG         1.8            
 ICCAP_VAR VS         0              
 ICCAP_VAR VB         0              

 #VD              ID              IB              IG             
  0               -1.1853e-007    -1.1899e-008    1.0055e-009    
  0.05            0.00042831      -1.3028e-008    1.072e-010     
  0.1             0.00083846      1.2178e-008     -2.4465e-009   
  0.15            0.0012206       -5.002e-009     -1.4007e-009   
  0.2             0.0015666       9.355e-009      9.86e-010      
  0.25            0.0018756       -2.6328e-008    1.3155e-009    
  0.3             0.0021455       -2.5279e-008    1.2643e-009    
  0.35            0.0023797       -1.0843e-008    -1.458e-009    
  0.4             0.002575        2.4427e-008     -1.2902e-009   
  0.45            0.0027372       1.1111e-008     5.104e-010     
  0.5             0.0028698       -1.8412e-008    1.7407e-009    
  0.55            0.0029804       -1.1679e-008    -7.522e-010    
  0.6             0.0030716       2.1281e-008     -1.5019e-009   
  0.65            0.0031418       1.0379e-008     8.278e-010     
  0.7             0.003199        -2.417e-008     1.4001e-009    
  0.75            0.003248        -2.658e-008     1.2975e-009    
  0.8             0.0032898       -2.3663e-008    1.2503e-009    
  0.85            0.0033253       -1.1668e-008    -4.598e-010    
  0.9             0.0033584       1.7061e-008     -1.7567e-009   
  0.95            0.0033841       1.1171e-008     5.972e-010     
  1               0.0034057       -1.9262e-008    1.6338e-009    
  1.05            0.0034305       -1.1409e-008    -8.201e-010    
  1.1             0.0034536       2.3128e-008     -1.4501e-009   
  1.15            0.0034703       1.0158e-008     8.968e-010     
  1.2             0.0034873       -2.5289e-008    1.3594e-009    
  1.25            0.003509        -1.0318e-008    -1.0861e-009   
  1.3             0.0035267       2.7341e-008     -1.3584e-009   
  1.35            0.003543        1.4628e-008     -1.845e-009    
  1.4             0.0035556       7.883e-009      2.0399e-009    
  1.45            0.0035704       -1.6249e-008    1.372e-010     
  1.5             0.0035909       3.288e-009      -2.4886e-009   
  1.55            0.0036053       -5.4e-010       -2.1264e-009   
  1.6             0.0036145       -1.4038e-008    1.8744e-009    
  1.65            0.0036288       -5.2655e-008    2.837e-010     
  1.7             0.0036485       -5.366e-008     -2.629e-009    
  1.75            0.0036549       -9.2184e-008    1.425e-009     
  1.8             0.0036732       -1.535e-007     1.2714e-009    
END_DB

BEGIN_DB
 ICCAP_VAR VG         0              
 ICCAP_VAR VS         0              
 ICCAP_VAR VB         -0.9           

 #VD              ID              IB              IG             
  0               -1.4028e-009    -7.683e-009     -1.4016e-009   
  0.05            -2.1542e-009    1.0349e-008     -1.0873e-009   
  0.1             -1.7182e-009    -1.1581e-008    1.4651e-009    
  0.15            2.3703e-009     -8.602e-009     9.199e-010     
  0.2             1.7814e-009     1.2449e-008     -1.5409e-009   
  0.25            -2.1996e-009    7.182e-009      -8.696e-010    
  0.3             -1.5917e-009    -1.2892e-008    1.7858e-009    
  0.35            1.7056e-009     -8.714e-009     1.578e-009     
  0.4             1.4672e-009     1.0033e-008     1.7576e-009    
  0.45            2.2315e-009     1.1037e-008     4.013e-010     
  0.5             5.217e-010      1.5342e-008     -2.2624e-009   
  0.55            -2.0093e-009    2.504e-009      -1.2689e-009   
  0.6             -1.8137e-009    -1.1636e-008    -1.4399e-009   
  0.65            -1.3028e-009    -2.3855e-008    1.2984e-009    
  0.7             2.161e-009      -9.638e-009     1.2361e-009    
  0.75            1.1884e-009     2.8442e-008     -1.3796e-009   
  0.8             -2.0857e-009    1.0976e-008     -1.1871e-009   
  0.85            -1.0956e-009    -2.6608e-008    1.3909e-009    
  0.9             2.3436e-009     -8.545e-009     1.0133e-009    
  0.95            1.0001e-009     2.7191e-008     -1.4607e-009   
  1               -2.1895e-009    8.742e-009      -9.625e-010    
  1.05            -1.636e-009     -1.1974e-008    1.6232e-009    
  1.1             1.5557e-009     -8.608e-009     1.6984e-009    
  1.15            2.209e-009      1.1129e-008     3.353e-010     
  1.2             2.298e-009      1.0375e-008     5.296e-010     
  1.25            1.4688e-009     2.1783e-008     -1.3211e-009   
  1.3             1.49e-010       1.1514e-008     -2.6911e-009   
  1.35            -2.0997e-009    -9.782e-009     -1.0836e-009   
  1.4             -1.6441e-009    -1.1792e-008    1.4734e-009    
  1.45            1.491e-009      -8.738e-009     1.8506e-009    
  1.5             2.4258e-009     1.0503e-008     4.949e-010     
  1.55            1.6399e-009     2.2622e-008     -1.3272e-009   
  1.6             3.974e-010      1.1145e-008     -2.6986e-009   
  1.65            -1.5539e-009    -1.2286e-008    8.6e-012       
  1.7             -1.4823e-009    -1.2396e-008    -2.06e-010     
  1.75            -2.059e-010     -1.2311e-008    1.4585e-009    
  1.8             2.1131e-009     -9.54e-009      2.6865e-009    
END_DB

BEGIN_DB
 ICCAP_VAR VG         0.36           
 ICCAP_VAR VS         0              
 ICCAP_VAR VB         -0.9           

 #VD              ID              IB              IG             
  0               -9.212e-010     -1.8652e-008    -1.06e-009     
  0.05            1.6625e-009     2.7289e-008     -1.4494e-009   
  0.1             5.377e-010      9.224e-009      -1.3853e-009   
  0.15            7.826e-010      1.0787e-008     -1.3522e-009   
  0.2             1.0206e-009     1.162e-008      -1.3211e-009   
  0.25            1.2841e-009     1.1365e-008     -2.6915e-009   
  0.3             2.0306e-009     -1.1604e-008    2.2904e-009    
  0.35            2.0952e-009     -4.808e-009     1.9955e-009    
  0.4             2.151e-009      -7.623e-009     1.724e-009     
  0.45            2.2276e-009     -8.731e-009     1.4998e-009    
  0.5             2.3216e-009     -8.466e-009     1.3698e-009    
  0.55            2.4145e-009     -8.608e-009     1.3044e-009    
