! VERSION = 6.00
BEGIN_HEADER
 ICCAP_INPUTS
  VG         V  B GROUND SMU4 0.001 LIN        2    0          1.8        6    0.36      
  VS         V  E GROUND SMU2 0.1 CON        0
  VD         V  S GROUND SMU1 0.1 LIN        1    0          1.8        37   0.05      
  VB         V  C GROUND SMU3 0.1 LIN        3    0          -0.9       2    -0.9      
 ICCAP_OUTPUTS
  ID         I  S GROUND SMU1 B
  IB         I  C GROUND SMU3 B
  IG         I  B GROUND SMU4 B
END_HEADER

BEGIN_DB
 ICCAP_VAR VG         0              
 ICCAP_VAR VS         0              
 ICCAP_VAR VB         0              

 #VD              ID              IB              IG             
  0               8.311e-010      -1.1773e-008    9.086e-010     
  0.05            -1.4152e-009    -2.1651e-008    1.2899e-009    
  0.1             3.68e-011       -1.0398e-008    2.881e-009     
  0.15            1.5545e-009     -2.53e-010      1.7151e-009    
  0.2             2.1958e-009     1.1186e-008     3.312e-010     
  0.25            2.2756e-009     1.0977e-008     5.076e-010     
  0.3             2.3395e-009     1.0291e-008     6.839e-010     
  0.35            1.5476e-009     1.8934e-008     -1.2987e-009   
  0.4             1.89e-010       1.2121e-008     -2.636e-009    
  0.45            -2.2392e-009    8.28e-010       -9.636e-010    
  0.5             -1.672e-009     -1.2232e-008    1.6814e-009    
  0.55            1.6084e-009     -8.701e-009     1.6678e-009    
  0.6             1.512e-009      1.9838e-008     -1.3084e-009   
  0.65            1.56e-010       1.1966e-008     -2.6623e-009   
  0.7             -1.2981e-009    7.26e-010       -1.8935e-009   
  0.75            -2.2205e-009    -1.1065e-008    -6.234e-010    
  0.8             -1.5049e-009    -1.9237e-008    1.2679e-009    
  0.85            -6.11e-011      -1.2286e-008    2.8694e-009    
  0.9             1.4078e-009     2.3344e-008     -1.3273e-009   
  0.95            4.79e-011       1.1364e-008     -1.2939e-009   
  1               1.933e-010      1.2163e-008     -2.6332e-009   
  1.05            -2.2365e-009    8.02e-010       -9.624e-010    
  1.1             -1.6733e-009    -1.226e-008     1.6808e-009    
  1.15            1.6063e-009     -8.884e-009     1.6739e-009    
  1.2             2.1694e-009     1.1263e-008     2.808e-010     
  1.25            2.2516e-009     1.1033e-008     4.634e-010     
  1.3             2.3262e-009     1.0369e-008     6.382e-010     
  1.35            2.3633e-009     9.517e-009      7.945e-010     
  1.4             1.6411e-009     1.5753e-008     -1.7475e-009   
  1.45            -1.6613e-009    5.232e-009      -1.6189e-009   
  1.5             -1.471e-009     -2.0242e-008    1.2756e-009    
  1.55            -2.21e-011      -1.1572e-008    2.8794e-009    
  1.6             1.4636e-009     -2.17e-010      1.7878e-009    
  1.65            2.2297e-009     1.115e-008      4.123e-010     
  1.7             2.3049e-009     1.0597e-008     5.897e-010     
  1.75            2.3571e-009     9.822e-009      7.521e-010     
  1.8             1.606e-009      1.673e-008      -1.812e-009    
END_DB

BEGIN_DB
 ICCAP_VAR VG         0.36           
 ICCAP_VAR VS         0              
 ICCAP_VAR VB         0              

 #VD              ID              IB              IG             
  0               7.806e-010      2.8124e-008     8.388e-010     
  0.05            1.994e-009      -1.8198e-008    2.2223e-009    
  0.1             2.2132e-009     -5.662e-009     1.9498e-009    
  0.15            2.2577e-009     -8.112e-009     1.6986e-009    
  0.2             2.2839e-009     -9e-009         1.514e-009     
  0.25            2.3004e-009     -8.663e-009     1.388e-009     
  0.3             2.3175e-009     -8.597e-009     1.326e-009     
  0.35            2.3354e-009     -8.858e-009     1.2883e-009    
  0.4             2.3779e-009     -1.053e-008     1.2598e-009    
  0.45            2.3498e-009     -1.3026e-008    2.862e-009     
  0.5             4.6335e-009     1.1097e-008     6.92e-011      
  0.55            4.8627e-009     1.1329e-008     2.504e-010     
  0.6             5.074e-009      1.1006e-008     4.27e-010      
  0.65            5.2986e-009     1.0503e-008     5.99e-010      
  0.7             5.4894e-009     9.68e-009       7.607e-010     
  0.75            5.0551e-009     1.6611e-008     -1.799e-009    
  0.8             3.1316e-009     4.976e-009      -1.5959e-009   
  0.85            3.4388e-009     6.756e-009      -1.4735e-009   
  0.9             3.7489e-009     8.734e-009      -1.4059e-009   
  0.95            4.07e-009       1.0178e-008     -1.3696e-009   
  1               4.4086e-009     1.1385e-008     -1.3402e-009   
  1.05            4.7736e-009     1.147e-008      -1.3105e-009   
  1.1             5.1315e-009     1.1637e-008     -2.6685e-009   
  1.15            4.2887e-009     7.67e-010       -2.5451e-009   
  1.2             4.5915e-009     5.68e-010       -2.3578e-009   
  1.25            4.9235e-009     1.577e-009      -2.1273e-009   
  1.3             5.2862e-009     2.725e-009      -1.8819e-009   
  1.35            5.6803e-009     3.971e-009      -1.674e-009    
  1.4             6.0989e-009     5.766e-009      -1.5241e-009   
  1.45            6.5446e-009     7.969e-009      -1.4312e-009   
  1.5             6.9905e-009     9.637e-009      -1.3855e-009   
  1.55            7.4634e-009     1.1025e-008     -1.3535e-009   
  1.6             7.9553e-009     1.156e-008      -1.326e-009    
  1.65            8.4842e-009     1.1347e-008     -2.6986e-009   
  1.7             6.3944e-009     -9.528e-009     -1.0578e-009   
  1.75            7.1771e-009     -1.1862e-008    1.5574e-009    
  1.8             9.618e-009      -8.56e-009      1.4093e-009    
END_DB

BEGIN_DB
 ICCAP_VAR VG         0.72           
 ICCAP_VAR VS         0              
 ICCAP_VAR VB         0              

 #VD              ID              IB              IG             
  0               -9.762e-009     -1.771e-008     -1.6078e-009   
  0.05            4.6558e-006     -1.1522e-008    -1.3329e-009   
  0.1             6.891e-006      8.975e-009      1.2033e-009    
  0.15            8.1221e-006     -2.6416e-008    1.2991e-009    
  0.2             8.975e-006      -9.452e-009     -1.201e-009    
  0.25            9.5076e-006     2.7847e-008     -1.3695e-009   
  0.3             9.7225e-006     9.283e-009      1.0399e-009    
  0.35            1.01464e-005    -2.5828e-008    1.3489e-009    
  0.4             1.0651e-005     -1.0391e-008    -1.0296e-009   
  0.45            1.10834e-005    2.5713e-008     -1.4127e-009   
  0.5             1.1279e-005     -1.0675e-008    2.8719e-009    
  0.55            1.1585e-005     -1.1634e-008    1.971e-010     
  0.6             1.2172e-005     1.269e-008      -2.288e-009    
  0.65            1.2277e-005     1.0677e-008     2.0073e-009    
  0.7             1.2624e-005     -2.1942e-008    1.4961e-009    
  0.75            1.3179e-005     -9.623e-009     -1.1447e-009   
  0.8             1.3558e-005     2.6604e-008     -1.3151e-009   
  0.85            1.3773e-005     1.1202e-008     6.818e-010     
  0.9             1.3996e-005     -2.5312e-008    1.3718e-009    
  0.95            1.4392e-005     -2.2627e-008    2.1113e-009    
  1               1.4785e-005     -1.1635e-008    -7.953e-010    
  1.05            1.5286e-005     2.6545e-008     -1.3897e-009   
  1.1             1.5645e-005     2.4768e-008     -1.8643e-009   
  1.15            1.5828e-005     1.0889e-008     7.671e-010     
  1.2             1.6083e-005     -2.5928e-008    1.3382e-009    
  1.25            1.6495e-005     -2.0551e-008    1.9439e-009    
  1.3             1.692e-005      -1.1024e-008    -8.732e-010    
  1.35            1.7439e-005     2.7423e-008     -1.3694e-009   
  1.4             1.7721e-005     1.0676e-008     3.262e-010     
  1.45            1.7876e-005     -2.0431e-008    1.6675e-009    
  1.5             1.8453e-005     -1.134e-008     -1.0196e-009   
  1.55            1.8918e-005     9.363e-009      -2.7003e-009   
  1.6             1.9296e-005     9.927e-009      -2.2072e-009   
  1.65            1.9678e-005     6.825e-009      -2.6882e-009   
  1.7             2.0054e-005     6.616e-009      -2.1484e-009   
  1.75            2.0452e-005     1.999e-009      -2.6737e-009   
  1.8             2.0824e-005     7.74e-010       -2.0911e-009   
END_DB

BEGIN_DB
 ICCAP_VAR VG         1.08           
 ICCAP_VAR VS         0              
 ICCAP_VAR VB         0              

 #VD              ID              IB              IG             
  0               -6.0108e-008    2.7875e-008     8.963e-010     
  0.05            2.8979e-005     -1.3492e-008    2.337e-010     
  0.1             5.2935e-005     -1.8577e-008    1.7771e-009    
  0.15            7.2009e-005     -1.0348e-008    -9.534e-010    
  0.2             8.6159e-005     2.8617e-008     -1.3528e-009   
  0.25            9.5587e-005     1.1031e-008     1.4561e-009    
  0.3             0.000102805     -1.3453e-008    1.5403e-009    
  0.35            0.000107788     -2.6675e-008    1.2942e-009    
  0.4             0.000111616     -1.187e-008     -5.363e-010    
  0.45            0.00011425      2.2862e-008     2.7444e-009    
  0.5             0.00011683      -2.6872e-008    1.3069e-009    
  0.55            0.000119        -2.3415e-008    1.2597e-009    
  0.6             0.00012096      -1.1855e-008    -4.744e-010    
  0.65            0.00012321      1.7067e-008     -1.7577e-009   
  0.7             0.00012478      1.1317e-008     5.95e-010      
  0.75            0.00012593      -1.9352e-008    1.6674e-009    
  0.8             0.00012775      -1.1359e-008    -8.15e-010     
  0.85            0.00012951      2.2936e-008     -1.465e-009    
  0.9             0.00013114      2.7187e-008     -1.3786e-009   
  0.95            0.0001325       2.8093e-008     -1.3355e-009   
  1               0.00013386      2.3175e-008     -1.783e-009    
  1.05            0.00013513      1.1362e-008     5.816e-010     
  1.1             0.00013598      -1.9364e-008    1.6798e-009    
  1.15            0.00013764      -1.1414e-008    -8.065e-010    
  1.2             0.0001393       2.2717e-008     -1.4744e-009   
  1.25            0.00014063      2.722e-008      -1.381e-009    
  1.3             0.00014197      2.7894e-008     -1.338e-009    
  1.35            0.00014326      2.2924e-008     -1.7907e-009   
  1.4             0.00014428      1.0469e-008     5.729e-010     
  1.45            0.00014511      -2.0689e-008    1.6959e-009    
  1.5             0.00014661      -1.4254e-008    -7.922e-010    
  1.55            0.00014807      1.492e-009      -1.3851e-009   
  1.6             0.0001494       6.303e-009      -2.0507e-009   
  1.65            0.00015035      -1.8566e-008    -2.7e-009      
  1.7             0.00015157      -2.3122e-008    -2.7258e-009   
  1.75            0.00015232      -1.743e-008     1.0996e-009    
  1.8             0.0001536       -6.4612e-008    1.301e-009     
END_DB

BEGIN_DB
 ICCAP_VAR VG         1.44           
 ICCAP_VAR VS         0              
 ICCAP_VAR VB         0              

 #VD              ID              IB              IG             
  0               -9.1579e-008    -2.6135e-008    -8.621e-010    
  0.05            4.906e-005      1.2488e-008     -3.473e-010    
  0.1             9.3969e-005     1.9349e-008     -1.5968e-009   
  0.15            0.0001334       2.6905e-008     9.701e-010     
  0.2             0.00016676      -2.6149e-008    1.3403e-009    
  0.25            0.0001947       -9.246e-009     -1.1696e-009   
  0.3             0.00021688      2.8401e-008     -1.3529e-009   
  0.35            0.00023366      9.127e-009      1.2215e-009    
  0.4             0.00024729      -2.4789e-008    1.2748e-009    
  0.45            0.00025771      -1.1761e-008    -3.734e-010    
  0.5             0.00026617      1.5621e-008     -1.8744e-009   
  0.55            0.00027197      9.923e-009      2.0256e-009    
  0.6             0.0002769       -1.8273e-008    1.7889e-009    
  0.65            0.00028134      -1.159e-008     -7.396e-010    
  0.7             0.00028535      2.0982e-008     -1.5268e-009   
  0.75            0.00028821      1.036e-008      8.034e-010     
  0.8             0.00029066      -2.3596e-008    1.4431e-009    
  0.85            0.00029395      -1.0096e-008    -9.952e-010    
  0.9             0.0002967       2.6868e-008     -1.3912e-009   
  0.95            0.00029831      8.92e-009       1.0506e-009    
  1               0.00030058      -2.6669e-008    1.3139e-009    
  1.05            0.00030285      -2.3843e-008    1.2615e-009    
  1.1             0.00030504      -1.1853e-008    -4.606e-010    
  1.15            0.00030754      1.6856e-008     -1.7872e-009   
  1.2             0.00030943      1.1252e-008     5.805e-010     
  1.25            0.00031086      -1.9375e-008    1.6911e-009    
  1.3             0.00031305      -1.157e-008     -7.973e-010    
  1.35            0.00031535      2.2344e-008     -1.4802e-009   
  1.4             0.00031709      2.6298e-008     -1.3856e-009   
  1.45            0.00031901      2.6811e-008     -1.3377e-009   
  1.5             0.00032063      1.6049e-008     -1.6481e-009   
  1.55            0.00032249      7.482e-009      -2.6102e-009   
  1.6             0.0003242       5.935e-009      -2.3014e-009   
  1.65            0.00032575      4.426e-009      -1.901e-009    
  1.7             0.00032719      -2.2341e-008    -2.7173e-009   
  1.75            0.00032839      -1.6457e-008    1.0646e-009    
  1.8             0.00033004      -6.3991e-008    1.3111e-009    
END_DB

BEGIN_DB
 ICCAP_VAR VG         1.8            
 ICCAP_VAR VS         0              
 ICCAP_VAR VB         0              

 #VD              ID              IB              IG             
  0               -9.8392e-008    -1.2457e-008    -1.613e-010    
  0.05            6.2149e-005     2.6603e-008     -1.2567e-009   
  0.1             0.00012099      2.3723e-008     8.044e-010     
  0.15            0.0001751       -2.3539e-008    1.4489e-009    
  0.2             0.00022369      -1.0171e-008    -9.896e-010    
  0.25            0.00026644      2.6542e-008     -1.3921e-009   
  0.3             0.00030281      9.023e-009      1.0435e-009    
  0.35            0.00033394      -2.6329e-008    1.311e-009     
  0.4             0.00035994      -2.4029e-008    1.263e-009     
  0.45            0.00038143      -1.1765e-008    -4.344e-010    
  0.5             0.00039927      1.6731e-008     -1.8095e-009   
  0.55            0.00041347      1.1273e-008     5.636e-010     
  0.6             0.00042466      -1.9191e-008    1.7169e-009    
  0.65            0.00043444      -1.1485e-008    -7.866e-010    
  0.7             0.00044243      2.2222e-008     -1.4929e-009   
  0.75            0.00044867      1.0135e-008     8.563e-010     
  0.8             0.00045374      -2.4493e-008    1.4087e-009    
  0.85            0.00045856      -2.6311e-008    1.308e-009     
  0.9             0.00046293      -2.332e-008     1.26e-009      
  0.95            0.00046673      -1.189e-008     -4.677e-010    
  1               0.00047065      1.7174e-008     -1.7725e-009   
  1.05            0.00047373      1.1277e-008     5.878e-010     
  1.1             0.00047627      -1.9419e-008    1.6914e-009    
  1.15            0.00047943      -1.1367e-008    -8.069e-010    
  1.2             0.00048247      2.2518e-008     -1.4812e-009   
  1.25            0.00048461      9.873e-009      8.712e-010     
  1.3             0.00048689      -2.5e-008       1.3987e-009    
  1.35            0.00048925      -2.6738e-008    1.3047e-009    
  1.4             0.00049175      -1.2234e-008    -1.52e-010     
  1.45            0.00049459      1.2566e-008     -2.1476e-009   
  1.5             0.00049671      1.5331e-008     -1.7572e-009   
  1.55            0.00049904      8.63e-009       -2.6602e-009   
  1.6             0.00050118      7.183e-009      -2.4188e-009   
  1.65            0.00050318      6.322e-009      -2.0326e-009   
  1.7             0.00050491      -1.907e-008     -2.6993e-009   
  1.75            0.00050689      -2.3971e-008    -2.7225e-009   
  1.8             0.00050836      -1.9513e-008    1.1094e-009    
END_DB

BEGIN_DB
 ICCAP_VAR VG         0              
 ICCAP_VAR VS         0              
 ICCAP_VAR VB         -0.9           

 #VD              ID              IB              IG             
  0               -1.3348e-009    1.1203e-008     -1.3881e-009   
  0.05            -2.1526e-009    1.1015e-008     -1.1681e-009   
  0.1             -1.0954e-009    -2.6528e-008    1.4442e-009    
  0.15            2.3696e-009     -8.373e-009     9.563e-010     
  0.2             1.7762e-009     1.2499e-008     -1.5416e-009   
  0.25            -1.4415e-009    7.374e-009      -1.7761e-009   
  0.3             -2.1544e-009    -1.1785e-008    -3.841e-010    
  0.35            -2.2041e-009    -1.0973e-008    -5.732e-010    
  0.4             -2.2457e-009    -1.0072e-008    -7.642e-010    
  0.45            -1.569e-009     -1.5697e-008    1.2474e-009    
  0.5             -1.917e-010     -1.3873e-008    2.843e-009     
  0.55            1.5035e-009     1.9718e-008     -1.3098e-009   
  0.6             1.441e-010      1.1889e-008     -2.6771e-009   
  0.65            -2.2517e-009    7.66e-010       -9.174e-010    
  0.7             -1.6474e-009    -1.2588e-008    1.7633e-009    
  0.75            1.6916e-009     -8.698e-009     1.5923e-009    
  0.8             1.9946e-009     1.0007e-008     -3.9e-011      
  0.85            9.885e-010      2.7414e-008     -1.4699e-009   
  0.9             -2.2477e-009    8.837e-009      -9.708e-010    
  0.95            -1.6753e-009    -1.2191e-008    1.6712e-009    
  1               1.5919e-009     -8.641e-009     1.6621e-009    
  1.05            2.1546e-009     1.1266e-008     2.859e-010     
  1.1             2.2366e-009     1.0655e-008     4.596e-010     
  1.15            1.3539e-009     2.3949e-008     -1.3444e-009   
  1.2             7.3e-012        1.1626e-008     -1.3064e-009   
  1.25            1.332e-010      1.1693e-008     -2.6842e-009   
  1.3             -1.3145e-009    6.21e-010       -1.8722e-009   
  1.35            -2.2036e-009    -1.1302e-008    -5.802e-010    
  1.4             -2.2434e-009    -1.058e-008     -7.576e-010    
  1.45            -1.568e-009     -1.5874e-008    2.0774e-009    
  1.5             1.9463e-009     -7.048e-009     1.3972e-009    
  1.55            2.0235e-009     1.1349e-008     1.06e-011      
  1.6             2.1067e-009     1.1353e-008     1.776e-010     
  1.65            2.1902e-009     1.1172e-008     3.527e-010     
  1.7             2.2739e-009     1.0412e-008     5.176e-010     
  1.75            1.4042e-009     2.2829e-008     -1.3364e-009   
  1.8             4.53e-011       1.1502e-008     -1.2971e-009   
END_DB

BEGIN_DB
 ICCAP_VAR VG         0.36           
 ICCAP_VAR VS         0              
 ICCAP_VAR VB         -0.9           

 #VD              ID              IB              IG             
  0               -9.425e-010     -1.9707e-008    -1.0366e-009   
  0.05            1.0235e-009     2.726e-008      -1.4681e-009   
  0.1             -2.203e-009     9.398e-009      -9.821e-010    
  0.15            -2.1202e-009    -9.699e-009     -1.113e-009    
  0.2             -1.7238e-009    -1.1881e-008    1.4961e-009    
  0.25            2.4122e-009     -8.519e-009     9.13e-010      
  0.3             1.7902e-009     1.3326e-008     -1.5867e-009   
  0.35            -2.2063e-009    6.916e-009      -8.396e-010    
  0.4             -2.1907e-009    -9.331e-009     -9.67e-010     
  0.45            -1.6121e-009    -1.2194e-008    1.6727e-009    
  0.5             1.6586e-009     -8.866e-009     1.6588e-009    
  0.55            2.226e-009      1.1156e-008     2.847e-010     
