! VERSION = 6.00
BEGIN_HEADER
 ICCAP_INPUTS
  VG         V  B GROUND SMU4 0.001 LIN        2    0          1.8        6    0.36      
  VS         V  E GROUND SMU2 0.1 CON        0
  VD         V  S GROUND SMU1 0.1 LIN        1    0          1.8        37   0.05      
  VB         V  C GROUND SMU3 0.1 LIN        3    0          -0.9       2    -0.9      
 ICCAP_OUTPUTS
  ID         I  S GROUND SMU1 B
  IB         I  C GROUND SMU3 B
  IG         I  B GROUND SMU4 B
END_HEADER

BEGIN_DB
 ICCAP_VAR VG         0              
 ICCAP_VAR VS         0              
 ICCAP_VAR VB         0              

 #VD              ID              IB              IG             
  0               -1.4884e-009    1.1313e-008     -1.4244e-009   
  0.05            -2.2038e-009    9.964e-009      -1.0638e-009   
  0.1             -1.7327e-009    -1.1628e-008    1.5244e-009    
  0.15            2.3813e-009     -8.419e-009     8.929e-010     
  0.2             1.7473e-009     1.3129e-008     -1.5917e-009   
  0.25            -1.4847e-009    6.884e-009      -1.7377e-009   
  0.3             -2.1589e-009    -1.1979e-008    -3.5e-010      
  0.35            -2.2126e-009    -1.1216e-008    -5.71e-010     
  0.4             -2.2451e-009    -1.0249e-008    -7.714e-010    
  0.45            -2.2427e-009    -9.609e-009     -9.09e-010     
  0.5             -1.6395e-009    -1.2562e-008    1.7588e-009    
  0.55            1.6706e-009     -8.63e-009      1.6287e-009    
  0.6             2.1647e-009     1.1311e-008     2.665e-010     
  0.65            2.2529e-009     1.1043e-008     4.56e-010      
  0.7             2.3338e-009     1.0299e-008     6.4e-010       
  0.75            2.3761e-009     9.216e-009      8.049e-010     
  0.8             2.3704e-009     8.882e-009      9.501e-010     
  0.85            1.7945e-009     1.2431e-008     -1.5249e-009   
  0.9             -1.4061e-009    7.745e-009      -1.7952e-009   
  0.95            -2.18e-009      -1.1773e-008    -4.487e-010    
  1               -2.2322e-009    -1.1114e-008    -6.645e-010    
  1.05            -2.2506e-009    -1.0218e-008    -8.286e-010    
  1.1             -1.6025e-009    -1.3856e-008    1.9106e-009    
  1.15            1.8082e-009     -8.389e-009     1.5263e-009    
  1.2             1.5551e-009     1.0652e-008     1.7074e-009    
  1.25            2.2034e-009     1.1299e-008     3.426e-010     
  1.3             2.2947e-009     1.0743e-008     5.401e-010     
  1.35            2.3595e-009     9.909e-009      7.175e-010     
  1.4             1.591e-009      1.7282e-008     -1.8357e-009   
  1.45            -1.7165e-009    4.612e-009      -1.5637e-009   
  1.5             -2.0684e-009    -1.1787e-008    -9.15e-011     
  1.55            -2.149e-009     -1.2019e-008    -3.139e-010    
  1.6             -2.2068e-009    -1.1383e-008    -5.317e-010    
  1.65            -2.2457e-009    -1.0486e-008    -7.467e-010    
  1.7             -1.5564e-009    -1.6053e-008    1.2541e-009    
  1.75            -1.949e-010     -1.3801e-008    2.8241e-009    
  1.8             2.1192e-009     1.1275e-008     1.731e-010     
END_DB

BEGIN_DB
 ICCAP_VAR VG         0.36           
 ICCAP_VAR VS         0              
 ICCAP_VAR VB         0              

 #VD              ID              IB              IG             
  0               1.5874e-009     2.52e-009       1.5095e-009    
  0.05            1.3429e-008     -1.1847e-008    -2.6214e-009   
  0.1             1.8274e-008     1.6342e-008     -1.5189e-009   
  0.15            1.8782e-008     1.0695e-008     1.9814e-009    
  0.2             1.7291e-008     -1.5709e-008    1.679e-009     
  0.25            1.8199e-008     -2.1336e-008    2.0214e-009    
  0.3             1.9313e-008     -2.5782e-008    1.2919e-009    
  0.35            1.7888e-008     -1.0083e-008    -1.053e-009    
  0.4             2.2427e-008     2.1444e-008     -1.5113e-009   
  0.45            2.3295e-008     1.0765e-008     1.9851e-009    
  0.5             2.1966e-008     -1.5489e-008    1.6657e-009    
  0.55            2.2744e-008     -2.1334e-008    2.0077e-009    
  0.6             2.3879e-008     -2.5629e-008    1.2891e-009    
  0.65            2.2626e-008     -1.0079e-008    -1.0585e-009   
  0.7             2.7183e-008     2.1603e-008     -1.5068e-009   
  0.75            2.7902e-008     1.0675e-008     1.9908e-009    
  0.8             2.6717e-008     -1.5262e-008    1.6548e-009    
  0.85            2.7609e-008     -2.1115e-008    2.0002e-009    
  0.9             2.8796e-008     -2.5526e-008    1.2898e-009    
  0.95            2.765e-008      -9.9e-009       -1.0682e-009   
  1               3.2533e-008     2.1755e-008     -1.5011e-009   
  1.05            3.2853e-008     1.0774e-008     2.0007e-009    
  1.1             3.1835e-008     -1.5028e-008    1.6524e-009    
  1.15            3.1359e-008     -1.1906e-008    -4.266e-010    
  1.2             3.5525e-008     1.2202e-008     -2.3669e-009   
  1.25            3.7906e-008     1.2189e-008     -2.081e-010    
  1.3             3.6659e-008     -8.339e-009     1.2798e-009    
  1.35            3.7001e-008     -2.6285e-008    1.2991e-009    
  1.4             3.6171e-008     -1.043e-008     -1.013e-009    
  1.45            4.1165e-008     2.0386e-008     -1.5532e-009   
  1.5             4.1221e-008     1.0631e-008     1.9415e-009    
  1.55            4.056e-008      -1.6549e-008    1.7364e-009    
  1.6             4.194e-008      -2.2411e-008    2.0914e-009    
  1.65            4.2007e-008     -1.1611e-008    -4.98e-011     
  1.7             4.5777e-008     1.1708e-008     -2.6545e-009   
  1.75            4.8774e-008     1.7061e-008     -1.5427e-009   
  1.8             4.7876e-008     1.0529e-008     1.9427e-009    
END_DB

BEGIN_DB
 ICCAP_VAR VG         0.72           
 ICCAP_VAR VS         0              
 ICCAP_VAR VB         0              

 #VD              ID              IB              IG             
  0               -9.2097e-008    -8.48e-009      -1.3626e-009   
  0.05            3.9149e-005     -1.1848e-008    2.5205e-009    
  0.1             6.0572e-005     -1.0602e-008    -9.106e-010    
  0.15            7.1401e-005     2.798e-008      -1.3633e-009   
  0.2             7.4971e-005     1.0681e-008     1.4325e-009    
  0.25            7.9093e-005     -1.4084e-008    1.5787e-009    
  0.3             8.1574e-005     -2.6198e-008    1.3002e-009    
  0.35            8.396e-005      -1.1961e-008    -5.279e-010    
  0.4             8.7147e-005     2.2679e-008     -1.4788e-009   
  0.45            8.7269e-005     8.9e-009        1.0682e-009    
  0.5             8.9662e-005     -2.3289e-008    1.2668e-009    
  0.55            9.1674e-005     -1.1744e-008    -7.657e-010    
  0.6             9.4505e-005     2.6447e-008     -1.397e-009    
  0.65            9.3723e-005     9.29e-009       1.2464e-009    
  0.7             9.6415e-005     -1.8354e-008    1.8329e-009    
  0.75            9.8631e-005     -1.0511e-008    -9.318e-010    
  0.8             0.000101089     2.8187e-008     -1.3597e-009   
  0.85            9.9908e-005     1.0811e-008     1.443e-009     
  0.9             0.000102513     -1.37e-008      1.5467e-009    
  0.95            0.000104086     -2.6251e-008    1.2982e-009    
  1               0.00010588      -1.2086e-008    -5.55e-010     
  1.05            0.000108743     2.3231e-008     -1.4643e-009   
  1.1             0.000110465     2.7853e-008     -1.3406e-009   
  1.15            0.000111122     1.1479e-008     5.682e-010     
  1.2             0.00011148      -2.3979e-008    1.4357e-009    
  1.25            0.00011371      9.496e-009      -1.2067e-009   
  1.3             0.00011523      9.996e-009      8.356e-010     
  1.35            0.00011619      -2.545e-008     1.4174e-009    
  1.4             0.000119        -1.2083e-008    -1.035e-009    
  1.45            0.00012087      6.444e-009      -1.3404e-009   
  1.5             0.00012209      1.3066e-008     -1.6197e-009   
  1.55            0.00012416      2.457e-009      -2.585e-009    
  1.6             0.00012545      -1.234e-009     -2.2556e-009   
  1.65            0.00012433      -9.729e-009     1.7881e-009    
  1.7             0.0001266       -4.3069e-008    1.48e-009      
  1.75            0.0001288       -5.3262e-008    -2.26e-009     
  1.8             0.00013109      -4.9311e-008    2.935e-010     
END_DB

BEGIN_DB
 ICCAP_VAR VG         1.08           
 ICCAP_VAR VS         0              
 ICCAP_VAR VB         0              

 #VD              ID              IB              IG             
  0               9.2196e-007     -8.445e-009     2.8792e-009    
  0.05            0.00019538      2.6477e-008     1.3011e-009    
  0.1             0.00036163      -2.2751e-008    1.2591e-009    
  0.15            0.00049503      -1.1855e-008    -4.889e-010    
  0.2             0.00059753      1.7445e-008     -1.7495e-009   
  0.25            0.0006711       1.1285e-008     6.118e-010     
  0.3             0.00072021      -2.0065e-008    1.653e-009     
  0.35            0.00075762      -1.1301e-008    -8.377e-010    
  0.4             0.00078438      2.3479e-008     -1.4584e-009   
  0.45            0.00080247      2.724e-008      -1.376e-009    
  0.5             0.00081738      2.6985e-008     -1.3275e-009   
  0.55            0.00082848      1.1116e-008     3.488e-010     
  0.6             0.00083597      -1.7313e-008    2.0225e-009    
  0.65            0.00084583      -1.1992e-008    -5.933e-010    
  0.7             0.00085706      1.8801e-008     -1.6557e-009   
  0.75            0.00086398      1.1028e-008     7.026e-010     
  0.8             0.00086888      -2.158e-008     1.5553e-009    
  0.85            0.00087908      -1.0719e-008    -9.024e-010    
  0.9             0.00088778      2.5188e-008     -1.4273e-009   
  0.95            0.00089136      9.341e-009      9.714e-010     
  1               0.00089767      -2.5784e-008    1.3415e-009    
  1.05            0.00090821      -9.305e-009     -1.1812e-009   
  1.1             0.0009153       2.784e-008      -1.3513e-009   
  1.15            0.00092109      2.4878e-008     -1.2998e-009   
  1.2             0.00092611      1.1165e-008     4.996e-010     
  1.25            0.0009293       -1.9114e-008    1.8025e-009    
  1.3             0.0009365       -1.2364e-008    -7.482e-010    
  1.35            0.00094473      2.0015e-008     -1.5302e-009   
  1.4             0.00095148      8.837e-009      -2.4515e-009   
  1.45            0.00095685      8.803e-009      -2.0727e-009   
  1.5             0.00096194      8.73e-009       -1.698e-009    
  1.55            0.0009644       -6.501e-009     2.1513e-009    
  1.6             0.0009689       -3.8104e-008    2.18e-011      
  1.65            0.00097865      -3.0461e-008    -2.3303e-009   
  1.7             0.00097824      -5.5971e-008    1.7274e-009    
  1.75            0.00098674      -1.2079e-007    2.633e-009     
  1.8             0.00099213      -1.6225e-007    -8.398e-010    
END_DB

BEGIN_DB
 ICCAP_VAR VG         1.44           
 ICCAP_VAR VS         0              
 ICCAP_VAR VB         0              

 #VD              ID              IB              IG             
  0               -1.1754e-007    2.634e-008      -1.4802e-009   
  0.05            0.00031458      -1.1719e-008    -2.2892e-009   
  0.1             0.00060476      2.6212e-008     -1.3953e-009   
  0.15            0.00086184      8.986e-009      1.0523e-009    
  0.2             0.00108355      -2.6044e-008    1.3123e-009    
  0.25            0.0012697       1.1446e-008     2.6787e-009    
  0.3             0.0014211       -2.6088e-008    1.2954e-009    
  0.35            0.0015425       -1.1717e-008    -2.18e-010     
  0.4             0.0016388       1.4073e-008     -2.0581e-009   
  0.45            0.0017086       1.0608e-008     1.9189e-009    
  0.5             0.0017643       -1.7393e-008    1.9787e-009    
  0.55            0.0018083       -1.198e-008     -6.228e-010    
  0.6             0.0018429       1.9295e-008     -1.6309e-009   
  0.65            0.0018684       1.0869e-008     7.217e-010     
  0.7             0.0018869       -2.1841e-008    1.5333e-009    
  0.75            0.0019081       -1.0625e-008    -9.21e-010     
  0.8             0.0019259       2.5423e-008     -1.4196e-009   
  0.85            0.0019366       9.312e-009      9.868e-010     
  0.9             0.0019486       -2.5957e-008    1.337e-009     
  0.95            0.0019664       -9.271e-009     -1.1975e-009   
  1               0.0019778       2.7952e-008     -1.3486e-009   
  1.05            0.0019887       2.468e-008      -1.2943e-009   
  1.1             0.0019981       1.1286e-008     5.151e-010     
  1.15            0.0020047       -1.8975e-008    1.7867e-009    
  1.2             0.0020169       -1.1701e-008    -7.583e-010    
  1.25            0.0020279       2.1452e-008     -1.5174e-009   
  1.3             0.0020351       9.801e-009      8.275e-010     
  1.35            0.0020414       -2.5067e-008    1.4351e-009    
  1.4             0.0020544       -1.1797e-008    -1.0209e-009   
  1.45            0.0020639       6.267e-009      -1.3374e-009   
  1.5             0.0020721       1.2471e-008     -1.6632e-009   
  1.55            0.002081        3.4e-010        -2.5904e-009   
  1.6             0.0020874       -7.518e-009     -7.4e-011      
  1.65            0.002091        -4.475e-008     2.6282e-009    
  1.7             0.0021048       -6.263e-008     -1.7155e-009   
  1.75            0.0021108       -6.285e-008     -1.5599e-009   
  1.8             0.0021165       -1.1166e-007    5.25e-011      
END_DB

BEGIN_DB
 ICCAP_VAR VG         1.8            
 ICCAP_VAR VS         0              
 ICCAP_VAR VB         0              

 #VD              ID              IB              IG             
  0               -1.1935e-007    1.1287e-008     -1.0314e-009   
  0.05            0.00038779      1.267e-008      6.16e-011      
  0.1             0.00075677      -1.4369e-008    2.4497e-009    
  0.15            0.00109949      -1.1728e-008    -2.616e-010    
  0.2             0.0014108       1.0986e-008     -9.702e-010    
  0.25            0.0016873       2.6411e-008     -1.4002e-009   
  0.3             0.001927        9.168e-009      1.0325e-009    
  0.35            0.0021342       -2.6115e-008    1.319e-009     
  0.4             0.0023099       -2.3828e-008    1.2649e-009    
  0.45            0.0024572       -1.177e-008     -4.443e-010    
  0.5             0.0025806       1.7009e-008     -1.8017e-009   
  0.55            0.0026798       1.1312e-008     5.779e-010     
  0.6             0.0027582       -1.9419e-008    1.7018e-009    
  0.65            0.0028251       -1.1571e-008    -8.063e-010    
  0.7             0.0028802       2.2855e-008     -1.4821e-009   
  0.75            0.0029208       1.0263e-008     8.779e-010     
  0.8             0.0029547       -2.5065e-008    1.398e-009     
  0.85            0.0029877       -1.0036e-008    -1.0702e-009   
  0.9             0.0030142       2.7434e-008     -1.3743e-009   
  0.95            0.0030361       2.7089e-008     -1.3227e-009   
  1               0.0030542       1.1091e-008     3.573e-010     
  1.05            0.0030691       -1.714e-008     2.0131e-009    
  1.1             0.0030861       -1.1912e-008    -5.994e-010    
  1.15            0.0031039       1.8789e-008     -1.6582e-009   
  1.2             0.0031161       1.0906e-008     7.053e-010     
  1.25            0.0031268       -2.1667e-008    1.5517e-009    
  1.3             0.0031421       -1.0893e-008    -9.033e-010    
  1.35            0.0031558       2.4688e-008     -1.4231e-009   
  1.4             0.0031636       8.441e-009      9.705e-010     
  1.45            0.0031745       -2.777e-008     1.3419e-009    
  1.5             0.0031896       -1.2701e-008    -1.1784e-009   
  1.55            0.0031995       4.794e-009      -1.3004e-009   
  1.6             0.0032068       -2.593e-009     2.7787e-009    
  1.65            0.0032188       -2.8365e-008    -1.0046e-009   
  1.7             0.0032294       -3.331e-009     -1.3876e-009   
  1.75            0.0032356       -4.0895e-008    2.4679e-009    
  1.8             0.0032446       -8.8448e-008    -5.951e-010    
END_DB

BEGIN_DB
 ICCAP_VAR VG         0              
 ICCAP_VAR VS         0              
 ICCAP_VAR VB         -0.9           

 #VD              ID              IB              IG             
  0               1.511e-009      4.909e-009      1.3758e-009    
  0.05            2.3248e-009     -8.409e-009     1.0541e-009    
  0.1             1.01e-009       2.7244e-008     -1.4546e-009   
  0.15            -2.2274e-009    9.155e-009      -1.0076e-009   
  0.2             -2.1415e-009    -1.0353e-008    -1.1549e-009   
  0.25            -1.0984e-009    -2.6084e-008    1.4422e-009    
  0.3             2.3659e-009     -8.358e-009     9.741e-010     
  0.35            1.8037e-009     1.2258e-008     -1.5173e-009   
  0.4             -1.3954e-009    7.757e-009      -1.8121e-009   
  0.45            -2.1844e-009    -1.1525e-008    -4.763e-010    
  0.5             -2.232e-009     -1.0584e-008    -6.887e-010    
  0.55            -1.531e-009     -1.7505e-008    1.2589e-009    
  0.6             -1.347e-010     -1.3267e-008    2.8523e-009    
  0.65            2.0942e-009     1.1181e-008     1.14e-010      
  0.7             2.192e-009      1.1218e-008     3.074e-010     
  0.75            2.2826e-009     1.066e-008      4.994e-010     
  0.8             2.3557e-009     1.0177e-008     6.763e-010     
  0.85            1.5457e-009     1.863e-008      -1.298e-009    
  0.9             2.097e-010      1.2219e-008     -2.628e-009    
  0.95            -2.2294e-009    8.44e-010       -9.856e-010    
  1               -1.6795e-009    -1.2236e-008    1.6408e-009    
  1.05            1.5617e-009     -8.778e-009     1.7095e-009    
  1.1             2.2175e-009     1.1219e-008     3.594e-010     
  1.15            2.3013e-009     1.0392e-008     5.452e-010     
  1.2             1.439e-009      2.2162e-008     -1.3222e-009   
  1.25            1.026e-010      1.1325e-008     -2.6948e-009   
  1.3             -2.0366e-009    -1.1677e-008    -2.31e-011     
  1.35            -2.1215e-009    -1.1863e-008    -2.448e-010    
  1.4             -2.1828e-009    -1.1573e-008    -4.65e-010     
  1.45            -2.2288e-009    -1.0635e-008    -6.863e-010    
  1.5             -1.5297e-009    -1.7613e-008    1.2602e-009    
  1.55            -1.29e-010      -1.3326e-008    2.8566e-009    
  1.6             1.4838e-009     2.0871e-008     -1.3144e-009   
  1.65            1.384e-010      1.173e-008      -2.6751e-009   
  1.7             -2.066e-009     -1.1608e-008    -8.74e-011     
  1.75            -2.1406e-009    -1.1807e-008    -3.005e-010    
  1.8             -2.1974e-009    -1.1325e-008    -5.234e-010    
END_DB

BEGIN_DB
 ICCAP_VAR VG         0.36           
 ICCAP_VAR VS         0              
 ICCAP_VAR VB         -0.9           

 #VD              ID              IB              IG             
  0               1.262e-009      8.085e-009      1.2954e-009    
  0.05            1.3054e-009     -1.0272e-008    2.2282e-009    
  0.1             1.4125e-009     2.7416e-008     -1.3773e-009   
  0.15            9.64e-011       1.1301e-008     -1.3435e-009   
  0.2             2.389e-010      1.1307e-008     -1.3094e-009   
  0.25            4.099e-010      1.1744e-008     -2.6673e-009   
  0.3             -1.6537e-009    8.66e-010       1.518e-010     
  0.35            -1.7612e-009    -1.1728e-008    -1.23e-011     
  0.4             -1.8327e-009    -1.1833e-008    -2.35e-010     
  0.45            -1.8765e-009    -1.1606e-008    -4.494e-010    
  0.5             -1.9023e-009    -1.0683e-008    -6.746e-010    
  0.55            -1.1804e-009    -1.7951e-008    1.2619e-009    
