! VERSION = 6.00
BEGIN_HEADER
 ICCAP_INPUTS
  VG         V  B GROUND SMU4 0.001 LIN        1    0          1.8        37   0.05      
  VS         V  E GROUND SMU2 0.1 CON        0
  VB         V  C GROUND SMU3 0.1 LIN        3    0          -1.8       3    -0.9      
  VD         V  S GROUND SMU1 0.1 LIN        2    0.1        1.8        2    1.7       
 ICCAP_OUTPUTS
  IG         I  B GROUND SMU4 B
  ID         I  S GROUND SMU1 B
  IB         I  C GROUND SMU3 B
END_HEADER

BEGIN_DB
 ICCAP_VAR VS         0              
 ICCAP_VAR VB         0              
 ICCAP_VAR VD         0.1            

 #VG              IG              ID              IB             
  0               -1.1448e-009    -1.0167e-009    1.157e-008     
  0.05            -1.3588e-009    -1.2105e-009    2.688e-009     
  0.1             5.12e-011       -1.8144e-009    -9.93e-009     
  0.15            -1.443e-010     -1.8722e-009    -9.614e-009    
  0.2             1.1788e-009     -1.509e-010     -1.408e-008    
  0.25            1.5403e-009     -2.116e-010     -1.6602e-008   
  0.3             1.2428e-009     1.3022e-009     1.2421e-008    
  0.35            -9.3e-012       2.4343e-009     8.455e-009     
  0.4             1.509e-010      4.8569e-009     9.063e-009     
  0.45            -1.8906e-009    1.1752e-008     -7.045e-009    
  0.5             -8.629e-010     4.8443e-008     -9.369e-009    
  0.55            -1.3874e-009    1.7039e-007     1.0522e-008    
  0.6             1.5483e-009     4.823e-007      -1.3012e-008   
  0.65            1.1603e-009     1.1202e-006     8.522e-009     
  0.7             1.1908e-009     2.2188e-006     -9.048e-009    
  0.75            1.4616e-009     3.8084e-006     -1.3804e-008   
  0.8             1.1078e-009     5.7995e-006     -3.344e-009    
  0.85            1.1225e-009     8.0541e-006     -2.746e-009    
  0.9             1.1893e-009     1.0414e-005     -6.61e-009     
  0.95            1.631e-010      1.2862e-005     -1.1422e-008   
  1               4.372e-010      1.5138e-005     8.679e-009     
  1.05            7.829e-010      1.7366e-005     8.463e-009     
  1.1             1.2191e-009     1.9486e-005     1.0882e-008    
  1.15            1.963e-010      2.1505e-005     8.354e-009     
  1.2             4.754e-010      2.3401e-005     8.539e-009     
  1.25            8.443e-010      2.5154e-005     8.729e-009     
  1.3             -1.2426e-009    2.6869e-005     5.579e-009     
  1.35            -2.1965e-009    2.8407e-005     5.865e-009     
  1.4             -1.1253e-009    2.989e-005      -9.756e-009    
  1.45            7.15e-011       3.122e-005      -9.235e-009    
  1.5             -3.486e-010     3.2515e-005     -1.0088e-008   
  1.55            -7.275e-010     3.3726e-005     -8.898e-009    
  1.6             -1.1746e-009    3.4853e-005     -9.914e-009    
  1.65            1.79e-011       3.5885e-005     -9.56e-009     
  1.7             -3.878e-010     3.6879e-005     -1.0022e-008   
  1.75            1.1939e-009     3.7769e-005     -9.707e-009    
  1.8             1.4879e-009     3.8662e-005     -1.3494e-008   
END_DB

BEGIN_DB
 ICCAP_VAR VS         0              
 ICCAP_VAR VB         0              
 ICCAP_VAR VD         1.8            

 #VG              IG              ID              IB             
  0               1.1851e-009     9.574e-010      -8.885e-009    
  0.05            2.0542e-009     1.0077e-009     -1.0781e-008   
  0.1             -1.351e-009     1.2548e-009     1.0597e-008    
  0.15            -3.827e-010     -1.8572e-009    2.512e-009     
  0.2             1.178e-009      -9.553e-010     -9.913e-009    
  0.25            2.1746e-009     2.0038e-009     -1.0269e-008   
  0.3             7.502e-010      5.716e-009      9.42e-009      
  0.35            -2.3995e-009    1.6265e-008     -1.9083e-008   
  0.4             1.5284e-009     6.8713e-008     -1.3236e-008   
  0.45            -2.0281e-009    2.3928e-007     7.876e-009     
  0.5             -2.96e-010      6.9702e-007     -1.0947e-008   
  0.55            1.608e-009      1.678e-006      4.196e-009     
  0.6             4.583e-010      3.4216e-006     5.567e-009     
  0.65            -2.1779e-009    6.1981e-006     1.244e-009     
  0.7             -1.1605e-009    9.8854e-006     -1.6568e-008   
  0.75            2.3834e-009     1.4376e-005     -1.8464e-008   
  0.8             2.2235e-009     1.9707e-005     -4.336e-009    
  0.85            1.6858e-009     2.5623e-005     -7.396e-009    
  0.9             1.1841e-009     3.1994e-005     -1.5248e-008   
  0.95            1.0948e-009     3.8789e-005     -1.7604e-008   
  1               1.1654e-009     4.5846e-005     -2.0121e-008   
  1.05            1.1897e-009     5.3204e-005     -2.6557e-008   
  1.1             1.3913e-009     6.0707e-005     -3.2015e-008   
  1.15            1.0948e-009     6.8336e-005     -2.113e-008    
  1.2             1.1304e-009     7.604e-005      -2.0724e-008   
  1.25            1.1898e-009     8.3786e-005     -2.5761e-008   
  1.3             1.6813e-009     9.1652e-005     -2.996e-008    
  1.35            1.1692e-009     9.9519e-005     -1.9947e-008   
  1.4             1.0982e-009     0.000107337     -2.0249e-008   
  1.45            1.1887e-009     0.00011524      -2.0648e-008   
  1.5             1.5406e-009     0.00012312      -3.0121e-008   
  1.55            1.1232e-009     0.00013096      -1.9592e-008   
  1.6             1.1114e-009     0.00013873      -1.9083e-008   
  1.65            1.1824e-009     0.00014645      -2.166e-008    
  1.7             1.1911e-009     0.00015421      -2.5883e-008   
  1.75            1.2683e-009     0.00016191      -3.0916e-008   
  1.8             1.0878e-009     0.00016957      -1.7388e-008   
END_DB

BEGIN_DB
 ICCAP_VAR VS         0              
 ICCAP_VAR VB         -0.9           
 ICCAP_VAR VD         0.1            

 #VG              IG              ID              IB             
  0               -1.1693e-009    -1.05e-009      9.815e-009     
  0.05            -1.643e-009     2.554e-010      1.4872e-008    
  0.1             -1.3103e-009    -1.2514e-009    -1.0794e-008   
  0.15            1.043e-010      -1.7778e-009    -9.975e-009    
  0.2             -5.67e-011      -1.8664e-009    -1.0173e-008   
  0.25            -2.634e-010     -1.8823e-009    -9.733e-009    
  0.3             -3.711e-010     -1.9096e-009    -9.089e-009    
  0.35            1.1742e-009     -1.1398e-009    -9.751e-009    
  0.4             2.0123e-009     1.162e-009      -1.0359e-008   
  0.45            7.531e-010      2.4074e-009     1.0411e-008    
  0.5             9.282e-010      4.9768e-009     1.0967e-008    
  0.55            -1.2318e-009    1.4948e-008     -9.933e-009    
  0.6             -2.0136e-009    6.3047e-008     7.354e-009     
  0.65            2.235e-010      2.1265e-007     -9.193e-009    
  0.7             5.61e-010       5.7681e-007     8.046e-009     
  0.75            -1.2274e-009    1.3401e-006     -8.783e-009    
  0.8             -1.9138e-009    2.5654e-006     8.106e-009     
  0.85            -3.682e-010     4.2608e-006     -9.559e-009    
  0.9             1.1891e-009     6.3204e-006     -9.876e-009    
  0.95            1.5138e-009     8.6624e-006     -1.3333e-008   
  1               1.5047e-009     1.11013e-005    1.203e-008     
  1.05            -2.3726e-009    1.3525e-005     8.709e-009     
  1.1             1.1894e-009     1.5815e-005     -1.0808e-008   
  1.15            1.0982e-009     1.8013e-005     -3.359e-009    
  1.2             1.1277e-009     2.0086e-005     -2.834e-009    
  1.25            1.1887e-009     2.204e-005      -7.229e-009    
  1.3             1.1786e-009     2.3876e-005     -1.1762e-008   
  1.35            1.0935e-009     2.5516e-005     -3.356e-009    
  1.4             1.1355e-009     2.7146e-005     -2.886e-009    
  1.45            1.1878e-009     2.8677e-005     -8.015e-009    
  1.5             1.6418e-009     3.0025e-005     -1.2288e-008   
  1.55            1.43e-009       3.1393e-005     1.1788e-008    
  1.6             3.368e-010      3.2621e-005     8.653e-009     
  1.65            6.335e-010      3.3706e-005     8.203e-009     
  1.7             1.0606e-009     3.4813e-005     1.0601e-008    
  1.75            1.4734e-009     3.583e-005      1.1975e-008    
  1.8             3.673e-010      3.6766e-005     8.661e-009     
END_DB

BEGIN_DB
 ICCAP_VAR VS         0              
 ICCAP_VAR VB         -0.9           
 ICCAP_VAR VD         1.8            

 #VG              IG              ID              IB             
  0               1.2096e-009     1.0431e-009     -1.1051e-008   
  0.05            2.2227e-009     1.043e-009      -2.662e-009    
  0.1             1.398e-010      1.7902e-009     8.644e-009     
  0.15            -1.2521e-009    7.069e-010      8.541e-009     
  0.2             -7.686e-010     -1.7085e-009    5.482e-009     
  0.25            1.1888e-009     -1.051e-009     -1.1037e-008   
  0.3             1.9534e-009     1.9556e-009     -1.2601e-008   
  0.35            9.218e-010      5.4922e-009     1.089e-008     
  0.4             -1.8864e-009    1.657e-008      -6.773e-009    
  0.45            1.4491e-009     7.1908e-008     -1.3936e-008   
  0.5             7.579e-010      2.5242e-007     -1.7215e-008   
  0.55            1.1971e-009     7.3481e-007     9.883e-009     
  0.6             -1.2443e-009    1.7958e-006     -1.1895e-008   
  0.65            -1.2231e-009    3.6484e-006     2.108e-009     
  0.7             -1.7911e-009    6.4457e-006     4.018e-009     
  0.75            -2.2775e-009    1.01812e-005    -1.5998e-008   
  0.8             1.3788e-009     1.482e-005      -1.9701e-008   
  0.85            1.0954e-009     2.023e-005      -1.3949e-008   
  0.9             1.1322e-009     2.6238e-005     -1.501e-008    
  0.95            1.191e-009      3.2724e-005     -2.1289e-008   
  1               1.6587e-009     3.9647e-005     -2.6941e-008   
  1.05            1.1619e-009     4.6832e-005     -1.7745e-008   
  1.1             1.0997e-009     5.4153e-005     -1.9268e-008   
  1.15            1.1704e-009     6.1656e-005     -2.1572e-008   
  1.2             1.1831e-009     6.9343e-005     -2.7377e-008   
  1.25            1.3578e-009     7.7061e-005     -3.2477e-008   
  1.3             1.0925e-009     8.4875e-005     -2.1073e-008   
  1.35            1.1355e-009     9.2677e-005     -2.068e-008    
  1.4             1.189e-009      0.0001005       -2.5369e-008   
  1.45            1.6138e-009     0.000108409     -2.9588e-008   
  1.5             1.135e-009      0.00011629      -1.3767e-008   
  1.55            1.1128e-009     0.00012415      -1.9489e-008   
  1.6             1.1802e-009     0.00013193      -2.1965e-008   
  1.65            1.188e-009      0.00013976      -2.6177e-008   
  1.7             1.2663e-009     0.0001475       -3.128e-008    
  1.75            1.0886e-009     0.00015527      -1.7982e-008   
  1.8             1.1525e-009     0.0001629       -1.7851e-008   
END_DB

BEGIN_DB
 ICCAP_VAR VS         0              
 ICCAP_VAR VB         -1.8           
 ICCAP_VAR VD         0.1            

 #VG              IG              ID              IB             
  0               1.0963e-009     9.76e-010       -9.886e-009    
  0.05            1.6664e-009     9.167e-010      -4.171e-009    
  0.1             -1.2457e-009    8.208e-010      8.204e-009     
  0.15            -9.499e-010     -1.624e-009     5.366e-009     
  0.2             1.1892e-009     -4.8e-011       -1.2239e-008   
  0.25            1.1894e-009     -1.721e-010     -1.4338e-008   
  0.3             2.02e-009       9.999e-010      -3.41e-009     
  0.35            -1.2168e-009    1.2337e-009     1.0502e-008    
  0.4             1.1892e-009     -1.468e-009     9.756e-009     
  0.45            2.06e-009       1.3101e-009     -3.385e-009    
  0.5             8.118e-010      2.9847e-009     1.0709e-008    
  0.55            9.944e-010      7.7614e-009     1.1255e-008    
  0.6             -1.2279e-009    2.7343e-008     -1.0083e-008   
  0.65            -1.9154e-009    1.06517e-007    8.042e-009     
  0.7             3.335e-010      3.2901e-007     -9.735e-009    
  0.75            6.241e-010      8.2618e-007     8.137e-009     
  0.8             -1.2554e-009    1.7793e-006     -9.464e-009    
  0.85            -1.24e-009      3.2174e-006     5.132e-009     
  0.9             -2.1632e-009    5.119e-006      6.253e-009     
  0.95            -2.126e-010     7.3066e-006     -9.936e-009    
  1               -5.555e-010     9.7363e-006     -9.243e-009    
  1.05            1.7391e-009     1.2144e-005     -8.814e-009    
  1.1             6.074e-010      1.447e-005      8.204e-009     
  1.15            1.0355e-009     1.6733e-005     9.581e-009     
  1.2             1.4608e-009     1.8915e-005     1.2214e-008    
  1.25            3.587e-010      2.0938e-005     8.973e-009     
  1.3             6.653e-010      2.2798e-005     8.319e-009     
  1.35            1.1082e-009     2.4565e-005     1.0536e-008    
  1.4             1.5233e-009     2.6172e-005     1.3369e-008    
  1.45            3.997e-010      2.7782e-005     8.815e-009     
  1.5             7.343e-010      2.9203e-005     8.464e-009     
  1.55            1.178e-009      3.0556e-005     1.052e-008     
  1.6             1.5805e-009     3.1832e-005     1.2889e-008    
  1.65            4.428e-010      3.3004e-005     8.693e-009     
  1.7             7.914e-010      3.4083e-005     8.626e-009     
  1.75            -1.2465e-009    3.5147e-005     5.612e-009     
  1.8             -1.2102e-009    3.6117e-005     5.467e-009     
END_DB

BEGIN_DB
 ICCAP_VAR VS         0              
 ICCAP_VAR VB         -1.8           
 ICCAP_VAR VD         1.8            

 #VG              IG              ID              IB             
  0               1.0948e-009     1.7066e-009     -1.0545e-008   
  0.05            2.3734e-009     1.7237e-009     -4.433e-009    
  0.1             1.3633e-009     1.7249e-009     1.2412e-008    
  0.15            1.185e-010      2.4625e-009     7.887e-009     
  0.2             2.545e-010      2.5529e-009     7.931e-009     
  0.25            4.118e-010      2.6412e-009     7.411e-009     
  0.3             4.811e-010      3.0382e-009     7.803e-009     
  0.35            6.285e-010      4.6855e-009     9.059e-009     
  0.4             1.1602e-009     1.1362e-008     -1.5503e-008   
  0.45            1.1066e-009     4.469e-008      -3.489e-009    
  0.5             1.1083e-009     1.6153e-007     3.279e-009     
  0.55            1.174e-009      5.073e-007      -7.082e-009    
  0.6             1.6524e-009     1.3145e-006     4.48e-009      
  0.65            5.339e-010      2.7943e-006     5.032e-009     
  0.7             -2.0652e-009    5.2797e-006     1.672e-009     
  0.75            -1.2529e-009    8.7088e-006     -1.6927e-008   
  0.8             2.3371e-009     1.3026e-005     -1.7486e-008   
  0.85            1.8144e-009     1.8192e-005     2.824e-009     
  0.9             -2.3455e-009    2.4019e-005     -2.005e-008    
  0.95            -2.3809e-009    3.036e-005      -1.7525e-008   
  1               -2.0043e-009    3.7121e-005     -1.9595e-008   
  1.05            -1.4693e-009    4.4224e-005     -1.9372e-008   
  1.1             -2.3823e-009    5.1438e-005     -2.4382e-008   
  1.15            -2.3354e-009    5.8894e-005     -2.0827e-008   
  1.2             -1.8799e-009    6.6532e-005     -2.3001e-008   
  1.25            -1.397e-009     7.4252e-005     -2.0692e-008   
  1.3             -2.3985e-009    8.1947e-005     -2.4703e-008   
  1.35            -2.2751e-009    8.9743e-005     -2.169e-008    
  1.4             -1.7581e-009    9.7633e-005     -2.3594e-008   
  1.45            -1.3362e-009    0.000105425     -1.9722e-008   
  1.5             -2.4434e-009    0.000113213     -2.3064e-008   
  1.55            -1.2818e-009    0.00012119      -2.776e-008    
  1.6             -2.3694e-009    0.00012892      -2.0792e-008   
  1.65            -1.9963e-009    0.00013671      -2.1137e-008   
  1.7             -1.4655e-009    0.00014447      -1.9364e-008   
  1.75            -2.3819e-009    0.00015214      -2.3026e-008   
  1.8             -2.3315e-009    0.00015983      -1.8346e-008   
END_DB

