! VERSION = 6.00
BEGIN_HEADER
 ICCAP_INPUTS
  VG         V  B GROUND SMU4 0.001 LIN        2    0          1.8        6    0.36      
  VS         V  E GROUND SMU2 0.1 CON        0
  VD         V  S GROUND SMU1 0.1 LIN        1    0          1.8        37   0.05      
  VB         V  C GROUND SMU3 0.1 LIN        3    0          -0.9       2    -0.9      
 ICCAP_OUTPUTS
  ID         I  S GROUND SMU1 B
  IB         I  C GROUND SMU3 B
  IG         I  B GROUND SMU4 B
END_HEADER

BEGIN_DB
 ICCAP_VAR VG         0              
 ICCAP_VAR VS         0              
 ICCAP_VAR VB         0              

 #VD              ID              IB              IG             
  0               1.0346e-009     1.0973e-008     1.1256e-009    
  0.05            -6.035e-010     -1.7566e-008    2.2782e-009    
  0.1             2.0496e-009     -3.766e-009     1.2029e-009    
  0.15            4.058e-010      1.3401e-008     -2.2834e-009   
  0.2             -2.0505e-009    1.355e-009      -1.1708e-009   
  0.25            -1.1087e-009    -2.5156e-008    1.3855e-009    
  0.3             2.2608e-009     -8.361e-009     9.842e-010     
  0.35            9.409e-010      2.6154e-008     -1.4588e-009   
  0.4             -2.2075e-009    8.735e-009      -9.466e-010    
  0.45            -1.6536e-009    -1.1994e-008    1.6163e-009    
  0.5             2.3215e-009     -8.358e-009     7.7e-010       
  0.55            2.306e-009      8.677e-009      9.129e-010     
  0.6             1.7411e-009     1.2604e-008     -1.512e-009    
  0.65            -1.3928e-009    7.441e-009      -1.7539e-009   
  0.7             -2.1491e-009    -1.1105e-008    -4.187e-010    
  0.75            -2.2099e-009    -1.0371e-008    -6.238e-010    
  0.8             -1.4806e-009    -1.6888e-008    1.223e-009     
  0.85            -1.105e-010     -1.1975e-008    2.7997e-009    
  0.9             1.4151e-009     2.0055e-008     -1.2922e-009   
  0.95            1.022e-010      1.073e-008      -2.6442e-009   
  1               -1.4732e-009    -1.7231e-008    2.1681e-009    
  1.05            1.983e-009      -4.923e-009     1.2765e-009    
  1.1             1.9508e-009     1.0872e-008     -6.2e-011      
  1.15            9.549e-010      2.6684e-008     -1.4449e-009   
  1.2             -2.2075e-009    8.824e-009      -9.68e-010     
  1.25            -1.6621e-009    -1.1781e-008    1.5833e-009    
  1.3             2.3274e-009     -8.36e-009      7.879e-010     
  1.35            2.3049e-009     8.763e-009      9.316e-010     
  1.4             9.02e-010       2.5908e-008     -1.4897e-009   
  1.45            -1.3655e-009    7.636e-009      -1.7705e-009   
  1.5             -2.1582e-009    -1.0946e-008    -4.478e-010    
  1.55            -1.3722e-009    -2.0092e-008    1.2537e-009    
  1.6             2.9e-011        -9.815e-009     2.8349e-009    
  1.65            2.3079e-009     -2.32e-010      6.894e-010     
  1.7             1.5388e-009     1.6601e-008     -1.7709e-009   
  1.75            -1.6577e-009    4.034e-009      -1.5257e-009   
  1.8             -1.3976e-009    -1.9509e-008    1.2479e-009    
END_DB

BEGIN_DB
 ICCAP_VAR VG         0.36           
 ICCAP_VAR VS         0              
 ICCAP_VAR VB         0              

 #VD              ID              IB              IG             
  0               -1.1395e-009    -8.224e-009     -1.2415e-009   
  0.05            7.177e-010      1.2177e-008     -2.4591e-009   
  0.1             -1.4719e-009    7.42e-010       -2.37e-011     
  0.15            -1.5233e-009    -1.1007e-008    -2.354e-010    
  0.2             -4.197e-010     -1.0931e-008    1.4294e-009    
  0.25            1.6223e-009     -8.348e-009     2.6633e-009    
  0.3             1.7213e-009     2.6692e-008     -1.4265e-009   
  0.35            4.961e-010      9.044e-009      -1.3699e-009   
  0.4             6.849e-010      1.0639e-008     -1.3326e-009   
  0.45            8.796e-010      1.1531e-008     -1.2955e-009   
  0.5             1.0914e-009     1.061e-008      -2.6546e-009   
  0.55            -4.028e-010     -1.7851e-008    2.2109e-009    
  0.6             2.1898e-009     -4.473e-009     2.2692e-009    
  0.65            3.435e-009      8.747e-009      9.828e-010     
  0.7             3.0851e-009     1.1711e-008     -1.4528e-009   
  0.75            1.085e-009      8.583e-009      -1.3822e-009   
  0.8             1.3137e-009     1.028e-008      -1.3429e-009   
  0.85            1.5383e-009     1.1556e-008     -1.3053e-009   
  0.9             1.7776e-009     1.0905e-008     -2.6794e-009   
  0.95            2.5186e-009     -1.8894e-008    2.2617e-009    
  1               2.5515e-009     -3.697e-009     1.9792e-009    
  1.05            2.5917e-009     -6.371e-009     1.724e-009     
  1.1             2.6344e-009     -8.45e-009      1.5168e-009    
  1.15            2.6768e-009     -8.148e-009     1.3814e-009    
  1.2             2.7134e-009     -8.277e-009     1.3015e-009    
  1.25            2.7474e-009     -8.652e-009     1.2525e-009    
  1.3             2.7991e-009     -1.0008e-008    2.8331e-009    
  1.35            3.7631e-009     -2.8e-010       2.7864e-009    
  1.4             4.6364e-009     1.9345e-008     -1.2837e-009   
  1.45            3.5891e-009     1.0904e-008     -2.6226e-009   
  1.5             1.4988e-009     -9.931e-009     -1.1166e-009   
  1.55            2.7346e-009     -2.5607e-008    1.4188e-009    
  1.6             4.2929e-009     -8.226e-009     1.3188e-009    
  1.65            4.4259e-009     -8.657e-009     1.2634e-009    
  1.7             4.5569e-009     -9.551e-009     2.8342e-009    
  1.75            5.5759e-009     -2.8e-011       2.7996e-009    
  1.8             6.577e-009      2.0462e-008     -1.2957e-009   
END_DB

BEGIN_DB
 ICCAP_VAR VG         0.72           
 ICCAP_VAR VS         0              
 ICCAP_VAR VB         0              

 #VD              ID              IB              IG             
  0               1.0021e-008     2.6043e-008     9.395e-010     
  0.05            2.1047e-006     -1.0533e-008    -1.9277e-009   
  0.1             3.1976e-006     1.6337e-008     -1.7466e-009   
  0.15            3.6704e-006     1.0514e-008     1.9208e-009    
  0.2             4.0126e-006     -1.2084e-008    1.4258e-009    
  0.25            4.2745e-006     -1.2049e-008    1.4044e-009    
  0.3             4.535e-006      -1.0781e-008    -8.959e-010    
  0.35            4.7843e-006     2.346e-008      -1.4509e-009   
  0.4             4.9222e-006     1.0297e-008     7.591e-010     
  0.45            5.0897e-006     -2.1921e-008    1.5505e-009    
  0.5             5.3126e-006     -1.0943e-008    -7.614e-010    
  0.55            5.5476e-006     2.0113e-008     -1.5635e-009   
  0.6             5.7175e-006     1.0439e-008     5.91e-010      
  0.65            5.861e-006      -1.9141e-008    1.7587e-009    
  0.7             6.049e-006      -1.0903e-008    -5.766e-010    
  0.75            6.3283e-006     1.6727e-008     -1.7425e-009   
  0.8             6.4162e-006     1.0083e-008     1.9253e-009    
  0.85            6.6104e-006     -1.2131e-008    1.4133e-009    
  0.9             6.8927e-006     -1.0476e-008    -8.808e-010    
  0.95            7.1392e-006     2.3368e-008     -1.4544e-009   
  1               7.2501e-006     1.0095e-008     7.396e-010     
  1.05            7.4232e-006     -2.1388e-008    1.57e-009      
  1.1             7.661e-006      -1.1011e-008    -7.455e-010    
  1.15            7.938e-006      1.9951e-008     -1.5755e-009   
  1.2             8.0997e-006     1.0451e-008     5.708e-010     
  1.25            8.2412e-006     -1.8805e-008    1.774e-009     
  1.3             8.4878e-006     -1.099e-008     -5.506e-010    
  1.35            8.7923e-006     1.6288e-008     -1.7589e-009   
  1.4             8.8898e-006     9.971e-009      1.9089e-009    
  1.45            9.1023e-006     -1.2615e-008    1.4274e-009    
  1.5             9.4107e-006     -1.1255e-008    -8.659e-010    
  1.55            9.6939e-006     2.195e-008      -1.4619e-009   
  1.6             9.9364e-006     8.93e-009       -2.4465e-009   
  1.65            1.01805e-005    8.67e-009       -2.2631e-009   
  1.7             1.04042e-005    8.775e-009      -2.0573e-009   
  1.75            1.06271e-005    9.89e-009       -1.8494e-009   
  1.8             1.08519e-005    1.0956e-008     -1.6659e-009   
END_DB

BEGIN_DB
 ICCAP_VAR VG         1.08           
 ICCAP_VAR VS         0              
 ICCAP_VAR VB         0              

 #VD              ID              IB              IG             
  0               3.009e-008      -2.5266e-008    -9.345e-010    
  0.05            1.2634e-005     1.0845e-008     -1.78e-010     
  0.1             2.3373e-005     1.693e-008      -1.6646e-009   
  0.15            3.187e-005      1.0022e-008     8.224e-010     
  0.2             3.8284e-005     -2.6136e-008    1.2745e-009    
  0.25            4.3015e-005     -1.6049e-008    1.6968e-009    
  0.3             4.6466e-005     -1.0077e-008    -9.432e-010    
  0.35            4.893e-005      2.7808e-008     -1.3254e-009   
  0.4             5.0634e-005     1.0481e-008     4.48e-010      
  0.45            5.1836e-005     -2.2051e-008    1.4628e-009    
  0.5             5.3005e-005     -2.54e-008      1.2468e-009    
  0.55            5.4078e-005     -1.1224e-008    -5.81e-010     
  0.6             5.5154e-005     2.3816e-008     -1.4096e-009   
  0.65            5.601e-005      1.4233e-008     -1.8558e-009   
  0.7             5.6697e-005     1.0313e-008     6.992e-010     
  0.75            5.7317e-005     -2.5705e-008    1.313e-009     
  0.8             5.8129e-005     -1.9698e-008    1.9048e-009    
  0.85            5.8948e-005     -1.0616e-008    -8.378e-010    
  0.9             5.9778e-005     2.7163e-008     -1.3462e-009   
  0.95            6.0466e-005     2.1203e-008     -1.6831e-009   
  1               6.1155e-005     2.6299e-008     -1.3573e-009   
  1.05            6.1829e-005     2.2928e-008     -1.2612e-009   
  1.1             6.2485e-005     2.67e-008       -1.3475e-009   
  1.15            6.3136e-005     2.1922e-008     -1.7213e-009   
  1.2             6.3605e-005     9.862e-009      7.976e-010     
  1.25            6.4136e-005     -2.6047e-008    1.2753e-009    
  1.3             6.4802e-005     -1.7308e-008    1.7495e-009    
  1.35            6.5574e-005     -1.0884e-008    -9.202e-010    
  1.4             6.6296e-005     2.7252e-008     -1.3239e-009   
  1.45            6.6888e-005     2.0256e-008     -1.4729e-009   
  1.5             6.7226e-005     7.902e-009      1.0014e-009    
  1.55            6.7868e-005     -2.5671e-008    2.1868e-009    
  1.6             6.8567e-005     -1.4837e-008    -6.908e-010    
  1.65            6.9305e-005     2.259e-009      -1.3266e-009   
  1.7             6.9949e-005     2.842e-009      -2.6269e-009   
  1.75            7.0531e-005     8.33e-010       -2.0718e-009   
  1.8             7.0905e-005     -7.228e-009     2.0581e-009    
END_DB

BEGIN_DB
 ICCAP_VAR VG         1.44           
 ICCAP_VAR VS         0              
 ICCAP_VAR VB         0              

 #VD              ID              IB              IG             
  0               4.754e-008      -2.3408e-008    -7.809e-010    
  0.05            2.0139e-005     1.3554e-008     -5.575e-010    
  0.1             3.8827e-005     2.297e-008      -1.4197e-009   
  0.15            5.5565e-005     1.4359e-008     -1.8989e-009   
  0.2             7.0091e-005     1.0536e-008     6.918e-010     
  0.25            8.2331e-005     -2.4803e-008    1.3137e-009    
  0.3             9.244e-005      -2.0663e-008    1.9399e-009    
  0.35            0.000100599     -1.1047e-008    -8.272e-010    
  0.4             0.000107066     2.6613e-008     -1.3451e-009   
  0.45            0.000112018     2.2025e-008     -1.7157e-009   
  0.5             0.00011567      1.1056e-008     2.0035e-009    
  0.55            0.00011859      -1.1095e-008    1.23e-010      
  0.6             0.0001213       1.1222e-008     -2.4336e-009   
  0.65            0.00012325      2.7656e-008     -1.3208e-009   
  0.7             0.00012496      2.4032e-008     -1.8189e-009   
  0.75            0.00012623      1.0274e-008     1.9886e-009    
  0.8             0.00012755      -1.8411e-008    1.7108e-009    
  0.85            0.00012897      -1.1292e-008    -7.385e-010    
  0.9             0.00013029      2.1079e-008     -1.4669e-009   
  0.95            0.00013122      1.0169e-008     8.093e-010     
  1               0.0001321       -2.3452e-008    1.37e-009      
  1.05            0.0001334       -1.0098e-008    -1.0116e-009   
  1.1             0.00013444      2.6352e-008     -1.3513e-009   
  1.15            0.00013538      1.424e-008      -1.9063e-009   
  1.2             0.00013607      1.0418e-008     1.9319e-009    
  1.25            0.00013697      -1.7866e-008    1.7993e-009    
  1.3             0.00013794      -1.151e-008     -6.752e-010    
  1.35            0.00013901      1.9653e-008     -1.5159e-009   
  1.4             0.00013971      1.0007e-008     7.605e-010     
  1.45            0.00014034      -2.3176e-008    1.4097e-009    
  1.5             0.00014144      -1.1272e-008    -9.617e-010    
  1.55            0.00014232      7.045e-009      -1.3195e-009   
  1.6             0.00014313      1.4515e-008     -1.6512e-009   
  1.65            0.00014399      6.8e-009        -2.5776e-009   
  1.7             0.00014477      5.325e-009      -2.284e-009    
  1.75            0.00014555      4.197e-009      -1.8761e-009   
  1.8             0.0001462       -2.1248e-008    -2.6786e-009   
END_DB

BEGIN_DB
 ICCAP_VAR VG         1.8            
 ICCAP_VAR VS         0              
 ICCAP_VAR VB         0              

 #VD              ID              IB              IG             
  0               6.0492e-008     1.4331e-008     -1.308e-010    
  0.05            2.4626e-005     2.728e-008      -1.3197e-009   
  0.1             4.8164e-005     1.9373e-008     -1.6239e-009   
  0.15            7.0205e-005     2.6966e-008     -1.3563e-009   
  0.2             9.0437e-005     2.1507e-008     -1.7076e-009   
  0.25            0.000108647     9.741e-009      7.955e-010     
  0.3             0.00012477      -2.465e-008     -9.179e-010    
  0.35            0.00013886      2.5777e-008     -1.3825e-009   
  0.4             0.00015069      9.051e-009      9.869e-010     
  0.45            0.00016075      -2.5978e-008    1.2949e-009    
  0.5             0.00016929      -9.186e-009     -1.1958e-009   
  0.55            0.00017615      2.7153e-008     -1.3189e-009   
  0.6             0.00018147      9.479e-009      1.2611e-009    
  0.65            0.00018616      -2.1708e-008    2.0705e-009    
  0.7             0.00018995      -1.1056e-008    -4.603e-010    
  0.75            0.00019325      1.6688e-008     -1.6864e-009   
  0.8             0.00019583      1.063e-008      5.809e-010     
  0.85            0.00019792      -1.9787e-008    1.5842e-009    
  0.9             0.00020004      -1.095e-008     -8.146e-010    
  0.95            0.00020194      2.3734e-008     -1.4225e-009   
  1               0.0002034       9.785e-009      8.809e-010     
  1.05            0.00020486      -2.551e-008     1.3409e-009    
  1.1             0.00020627      -2.5519e-008    1.2587e-009    
  1.15            0.00020764      -1.962e-008     1.9238e-009    
  1.2             0.00020897      -1.1171e-008    -5.633e-010    
  1.25            0.00021033      1.8306e-008     -1.5863e-009   
  1.3             0.00021143      1.0419e-008     6.749e-010     
  1.35            0.00021239      -2.1589e-008    1.4972e-009    
  1.4             0.00021363      -1.0719e-008    -8.838e-010    
  1.45            0.0002148       2.4927e-008     -1.3933e-009   
  1.5             0.00021559      8.818e-009      9.516e-010     
  1.55            0.00021657      -2.6732e-008    1.3056e-009    
  1.6             0.0002179       -1.117e-008     -1.1593e-009   
  1.65            0.00021882      8.161e-009      -2.6729e-009   
  1.7             0.00021979      6.819e-009      -2.494e-009    
  1.75            0.00022071      5.462e-009      -2.1411e-009   
  1.8             0.00022161      5.279e-009      -1.735e-009    
END_DB

BEGIN_DB
 ICCAP_VAR VG         0              
 ICCAP_VAR VS         0              
 ICCAP_VAR VB         -0.9           

 #VD              ID              IB              IG             
  0               8.317e-010      2.2449e-008     9.299e-010     
  0.05            -1.314e-009     -2.1807e-008    1.2799e-009    
  0.1             2.0835e-009     -9.291e-009     1.1936e-009    
  0.15            1.1258e-009     2.6408e-008     -1.3671e-009   
  0.2             -2.0631e-009    1.1074e-008     -1.1698e-009   
  0.25            -1.791e-009     -1.1558e-008    2.677e-010     
  0.3             -8.764e-010     -2.3842e-008    1.6741e-009    
  0.35            2.3158e-009     -8.551e-009     7.236e-010     
  0.4             1.5715e-009     1.573e-008      -1.7152e-009   
  0.45            -2.1166e-009    -6.636e-009     -1.098e-009    
  0.5             -1.7447e-009    -1.1674e-008    1.4437e-009    
  0.55            2.2966e-009     -8.281e-009     9.25e-010      
  0.6             1.7461e-009     1.2643e-008     -1.5066e-009   
  0.65            -1.3785e-009    7.621e-009      -1.7736e-009   
  0.7             -2.1524e-009    -1.1096e-008    -4.342e-010    
  0.75            -1.3787e-009    -1.9995e-008    2.3535e-009    
  0.8             2.099e-009      -3.134e-009     1.1449e-009    
  0.85            1.0898e-009     2.5988e-008     -1.3778e-009   
  0.9             -2.0798e-009    1.0622e-008     -1.1225e-009   
  0.95            -1.7555e-009    -1.1623e-008    1.4226e-009    
  1               2.2806e-009     -8.302e-009     9.384e-010     
  1.05            9.03e-010       2.5543e-008     -1.4914e-009   
  1.1             -1.3645e-009    8.055e-009      -1.788e-009    
  1.15            -2.16e-009      -1.1015e-008    -4.613e-010    
  1.2             -2.2151e-009    -1.0629e-008    -6.665e-010    
  1.25            -1.5127e-009    -1.6206e-008    2.0689e-009    
  1.3             1.8879e-009     -6.062e-009     1.3294e-009    
  1.35            1.961e-009      1.0444e-008     -1.13e-011     
  1.4             9.966e-010      2.5913e-008     -1.4185e-009   
  1.45            -2.1579e-009    9.596e-009      -1.0142e-009   
  1.5             -2.0217e-009    -1.0385e-008    -1.165e-009    
  1.55            -1.1071e-009    -2.4766e-008    1.3865e-009    
  1.6             2.2544e-009     -8.396e-009     9.792e-010     
  1.65            1.7868e-009     1.208e-008      -1.4578e-009   
  1.7             -2.1934e-009    8.549e-009      -9.411e-010    
  1.75            -1.6497e-009    -1.2273e-008    1.6272e-009    
  1.8             2.3153e-009     -8.742e-009     7.766e-010     
END_DB

BEGIN_DB
 ICCAP_VAR VG         0.36           
 ICCAP_VAR VS         0              
 ICCAP_VAR VB         -0.9           

 #VD              ID              IB              IG             
  0               7.942e-010      2.7121e-008     7.808e-010     
  0.05            -1.5173e-009    -1.4827e-008    2.0149e-009    
  0.1             1.884e-009      -5.979e-009     1.3593e-009    
  0.15            2.004e-009      1.0797e-008     1.97e-011      
  0.2             2.0868e-009     1.048e-008      1.941e-010     
  0.25            2.1834e-009     1.0386e-008     3.776e-010     
  0.3             1.3085e-009     2.3165e-008     -1.3256e-009   
  0.35            1.29e-011       1.166e-008      -1.2875e-009   
  0.4             1.528e-010      1.1304e-008     -2.6448e-009   
  0.45            -2.0918e-009    -9.927e-009     -1.1044e-009   
  0.5             -1.0091e-009    -2.6027e-008    1.4227e-009    
  0.55            2.3574e-009     -8.191e-009     9.206e-010     
