! VERSION = 6.00
BEGIN_HEADER
 ICCAP_INPUTS
  VG         V  B GROUND SMU4 0.001 LIN        2    0          1.8        6    0.36      
  VS         V  E GROUND SMU2 0.1 CON        0
  VD         V  S GROUND SMU1 0.1 LIN        1    0          1.8        37   0.05      
  VB         V  C GROUND SMU3 0.1 LIN        3    0          -0.9       2    -0.9      
 ICCAP_OUTPUTS
  ID         I  S GROUND SMU1 B
  IB         I  C GROUND SMU3 B
  IG         I  B GROUND SMU4 B
END_HEADER

BEGIN_DB
 ICCAP_VAR VG         0              
 ICCAP_VAR VS         0              
 ICCAP_VAR VB         0              

 #VD              ID              IB              IG             
  0               -1.2203e-009    1.1332e-008     -1.348e-009    
  0.05            -1.8838e-009    1.1525e-008     -1.3458e-009   
  0.1             -1.2512e-009    -2.4381e-008    1.3254e-009    
  0.15            2.1693e-009     -8.629e-009     1.1204e-009    
  0.2             1.8961e-009     1.078e-008      -1.3912e-009   
  0.25            -2.1227e-009    9.748e-009      -1.0811e-009   
  0.3             -1.7366e-009    -1.1207e-008    1.4714e-009    
  0.35            2.3153e-009     -7.902e-009     9.052e-010     
  0.4             1.7289e-009     1.241e-008      -1.5334e-009   
  0.45            -1.4153e-009    6.678e-009      -1.7383e-009   
  0.5             -2.1539e-009    -1.2247e-008    -3.765e-010    
  0.55            -2.2051e-009    -1.1895e-008    -5.926e-010    
  0.6             -2.222e-009     -1.0936e-008    -7.725e-010    
  0.65            -2.2069e-009    -9.754e-009     -9.043e-010    
  0.7             -1.6225e-009    -1.2092e-008    1.7086e-009    
  0.75            1.6007e-009     -8.69e-009      1.5994e-009    
  0.8             2.1431e-009     1.1695e-008     2.559e-010     
  0.85            2.2293e-009     1.1487e-008     4.448e-010     
  0.9             1.3352e-009     2.337e-008      -1.3375e-009   
  0.95            5.8e-012        1.1418e-008     -2.6786e-009   
  1               -1.393e-009     -2.0793e-008    1.2894e-009    
  1.05            3.78e-011       -1.0482e-008    2.8461e-009    
  1.1             1.4821e-009     -3.25e-010      1.7176e-009    
  1.15            2.2018e-009     1.1667e-008     3.75e-010      
  1.2             1.2847e-009     2.46e-008       -1.3482e-009   
  1.25            -1.8822e-009    1.1367e-008     -1.3401e-009   
  1.3             -1.9197e-009    -1.1493e-008    1.38e-010      
  1.35            -9.946e-010     -2.5289e-008    1.5045e-009    
  1.4             2.3245e-009     -8.026e-009     8.695e-010     
  1.45            1.6978e-009     1.3173e-008     -1.568e-009    
  1.5             -1.4499e-009    6.361e-009      -1.7053e-009   
  1.55            -2.1388e-009    -1.231e-008     -3.243e-010    
  1.6             -2.1953e-009    -1.2078e-008    -5.374e-010    
  1.65            -1.4274e-009    -1.9371e-008    2.2872e-009    
  1.7             2.0623e-009     -4.252e-009     1.2163e-009    
  1.75            1.9548e-009     1.0925e-008     -1.307e-010    
  1.8             9.212e-010      2.6034e-008     -1.4734e-009   
END_DB

BEGIN_DB
 ICCAP_VAR VG         0.36           
 ICCAP_VAR VS         0              
 ICCAP_VAR VB         0              

 #VD              ID              IB              IG             
  0               -7.224e-010     -2.4563e-008    -7.14e-010     
  0.05            2.9098e-009     1.5799e-008     -1.745e-009    
  0.1             1.1522e-009     4.449e-009      -1.5412e-009   
  0.15            1.3887e-009     6.451e-009      -1.4278e-009   
  0.2             1.6077e-009     8.634e-009      -1.3767e-009   
  0.25            1.8325e-009     1.0074e-008     -1.3491e-009   
  0.3             2.0668e-009     1.1329e-008     -1.3267e-009   
  0.35            2.3171e-009     1.1395e-008     -2.6769e-009   
  0.4             2.4219e-009     -2.0129e-008    1.278e-009     
  0.45            2.4291e-009     -1.095e-008     2.8453e-009    
  0.5             3.3495e-009     -5.96e-010      2.776e-009     
  0.55            4.2e-009        1.9079e-008     -1.9055e-009   
  0.6             2.3084e-009     3.496e-009      -1.6616e-009   
  0.65            2.5545e-009     5.164e-009      -1.4975e-009   
  0.7             2.8275e-009     6.931e-009      -1.405e-009    
  0.75            3.0872e-009     9.028e-009      -1.3653e-009   
  0.8             3.3715e-009     1.0517e-008     -1.341e-009    
  0.85            3.6642e-009     1.1356e-008     -1.315e-009    
  0.9             3.9628e-009     1.1372e-008     -2.6559e-009   
  0.95            2.4766e-009     -1.8821e-008    1.2714e-009    
  1               4.0337e-009     -1.1793e-008    2.836e-009     
  1.05            5.7402e-009     2.2372e-008     -1.3206e-009   
  1.1             4.7166e-009     1.1436e-008     -2.6658e-009   
  1.15            2.7271e-009     -1.1504e-008    2.36e-011      
  1.2             2.8522e-009     -1.1928e-008    -1.88e-010     
  1.25            3.0273e-009     -1.1902e-008    -4.112e-010    
  1.3             3.2334e-009     -1.1265e-008    -6.21e-010     
  1.35            4.194e-009      -1.7933e-008    1.2671e-009    
  1.4             5.8004e-009     -1.2408e-008    2.826e-009     
  1.45            7.6874e-009     2.1508e-008     -1.3194e-009   
  1.5             6.7976e-009     1.1471e-008     -2.6609e-009   
  1.55            4.8029e-009     -1.1672e-008    -1.31e-011     
  1.6             5.0594e-009     -1.2007e-008    -2.283e-010    
  1.65            5.3509e-009     -1.187e-008     -4.507e-010    
  1.7             5.6811e-009     -1.1006e-008    -6.669e-010    
  1.75            6.7376e-009     -1.7115e-008    1.2634e-009    
  1.8             8.4553e-009     -1.3124e-008    2.8146e-009    
END_DB

BEGIN_DB
 ICCAP_VAR VG         0.72           
 ICCAP_VAR VS         0              
 ICCAP_VAR VB         0              

 #VD              ID              IB              IG             
  0               -8.68e-009      2.2554e-008     3.155e-010     
  0.05            5.1771e-006     2.2552e-008     2.712e-009     
  0.1             7.7793e-006     -1.1248e-008    1.954e-010     
  0.15            9.3057e-006     1.1293e-008     -2.6025e-009   
  0.2             1.00527e-005    1.2389e-008     -1.3918e-009   
  0.25            1.06459e-005    2.6854e-008     -1.361e-009    
  0.3             1.08436e-005    9.952e-009      9.7e-010       
  0.35            1.1315e-005     -9.658e-009     2.7783e-009    
  0.4             1.1666e-005     -1.126e-008     -8.54e-011     
  0.45            1.2207e-005     1.7144e-008     -1.781e-009    
  0.5             1.2416e-005     1.092e-008      7.757e-010     
  0.55            1.2704e-005     -2.5839e-008    1.3201e-009    
  0.6             1.3087e-005     -1.1509e-008    -3.315e-010    
  0.65            1.3619e-005     2.0433e-008     -1.5534e-009   
  0.7             1.3743e-005     1.0036e-008     9.27e-010      
  0.75            1.412e-005      -2.506e-008     1.2833e-009    
  0.8             1.4518e-005     -1.2082e-008    -5.775e-010    
  0.85            1.506e-005      2.4388e-008     -1.4258e-009   
  0.9             1.5448e-005     2.6526e-008     -1.3222e-009   
  0.95            1.5667e-005     1.1531e-008     5.775e-010     
  1               1.5875e-005     -2.4709e-008    1.4022e-009    
  1.05            1.6284e-005     -2.3155e-008    1.2666e-009    
  1.1             1.6721e-005     -1.2003e-008    -7.219e-010    
  1.15            1.7268e-005     2.6008e-008     -1.3831e-009   
  1.2             1.7659e-005     2.4904e-008     -1.3041e-009   
  1.25            1.7848e-005     1.1233e-008     6.996e-010     
  1.3             1.8108e-005     -2.5864e-008    1.3451e-009    
  1.35            1.8541e-005     -1.1761e-008    -2.29e-010     
  1.4             1.915e-005      1.8431e-008     -1.6407e-009   
  1.45            1.9588e-005     2.6305e-008     -1.3589e-009   
  1.5             1.9951e-005     1.8099e-008     -1.5903e-009   
  1.55            2.0402e-005     1.0409e-008     -2.2265e-009   
  1.6             2.049e-005      6.98e-009       1.9723e-009    
  1.65            2.091e-005      -1.5938e-008    -6.33e-011     
  1.7             2.1608e-005     9.689e-009      -1.7994e-009   
  1.75            2.2089e-005     1.697e-009      -2.4488e-009   
  1.8             2.2321e-005     -2.0666e-008    -2.6764e-009   
END_DB

BEGIN_DB
 ICCAP_VAR VG         1.08           
 ICCAP_VAR VS         0              
 ICCAP_VAR VB         0              

 #VD              ID              IB              IG             
  0               -6.2285e-008    2.6972e-008     9.637e-010     
  0.05            3.1942e-005     -1.1565e-008    8.42e-011      
  0.1             5.8408e-005     -1.7008e-008    1.9943e-009    
  0.15            7.9359e-005     -1.1138e-008    -8.371e-010    
  0.2             9.4964e-005     2.7107e-008     -1.3604e-009   
  0.25            0.000105919     1.1018e-008     2.926e-010     
  0.3             0.000113161     -1.9223e-008    1.6861e-009    
  0.35            0.00011895      -1.122e-008     -2.5803e-009   
  0.4             0.00012274      1.0413e-008     7.813e-010     
  0.45            0.00012537      -2.3102e-008    1.4484e-009    
  0.5             0.00012826      -1.03e-008      -9.69e-010     
  0.55            0.00013052      2.6631e-008     -1.3776e-009   
  0.6             0.00013178      9.073e-009      1.0278e-009    
  0.65            0.00013355      -2.6337e-008    1.2987e-009    
  0.7             0.00013521      -2.3655e-008    1.2498e-009    
  0.75            0.00013683      -1.156e-008     -4.487e-010    
  0.8             0.00013882      1.6962e-008     -1.7689e-009   
  0.85            0.00014007      1.1239e-008     5.751e-010     
  0.9             0.00014102      -1.9421e-008    1.6714e-009    
  0.95            0.00014278      -1.1274e-008    -8.051e-010    
  1               0.0001444       2.2988e-008     -1.461e-009    
  1.05            0.00014578      2.6936e-008     -1.3641e-009   
  1.1             0.00014716      2.7499e-008     -1.3174e-009   
  1.15            0.0001485       2.269e-008      -1.7493e-009   
  1.2             0.00014953      1.1198e-008     5.947e-010     
  1.25            0.00015039      -1.9835e-008    1.6449e-009    
  1.3             0.000152        -1.1415e-008    -8.208e-010    
  1.35            0.00015353      2.2688e-008     -1.4495e-009   
  1.4             0.00015482      2.6325e-008     -1.3611e-009   
  1.45            0.00015614      1.3123e-008     -1.9305e-009   
  1.5             0.00015667      7.282e-009      1.9667e-009    
  1.55            0.00015783      -1.6438e-008    1.851e-010     
  1.6             0.00015987      3.437e-009      -2.5245e-009   
  1.65            0.00016113      9.08e-010       -2.1888e-009   
  1.7             0.00016139      -6.982e-009     1.7978e-009    
  1.75            0.00016278      -3.9485e-008    1.4464e-009    
  1.8             0.00016442      -4.8198e-008    -2.2542e-009   
END_DB

BEGIN_DB
 ICCAP_VAR VG         1.44           
 ICCAP_VAR VS         0              
 ICCAP_VAR VB         0              

 #VD              ID              IB              IG             
  0               -8.9207e-008    -9.49e-009      -3.168e-010    
  0.05            5.301e-005      2.4831e-008     -1.1278e-009   
  0.1             0.000101472     1.1411e-008     -2.611e-009    
  0.15            0.00014398      1.1326e-008     2.0756e-009    
  0.2             0.00017987      -1.9377e-008    1.6469e-009    
  0.25            0.00020964      -1.1421e-008    -8.153e-010    
  0.3             0.00023349      2.3344e-008     -1.4468e-009   
  0.35            0.00025209      2.7434e-008     -1.365e-009    
  0.4             0.00026645      2.7602e-008     -1.3159e-009   
  0.45            0.00027739      2.2048e-008     -1.7151e-009   
  0.5             0.00028573      1.1143e-008     6.131e-010     
  0.55            0.00029183      -1.9982e-008    1.6131e-009    
  0.6             0.00029729      -1.1071e-008    -8.338e-010    
  0.65            0.0003019       2.3923e-008     -1.4413e-009   
  0.7             0.00030562      2.761e-008      -1.3625e-009   
  0.75            0.00030878      2.7319e-008     -1.3127e-009   
  0.8             0.00031154      1.1123e-008     3.46e-010      
  0.85            0.00031353      -1.6714e-008    1.9767e-009    
  0.9             0.00031617      -1.1814e-008    -5.847e-010    
  0.95            0.00031898      1.8549e-008     -1.6262e-009   
  1               0.00032097      1.0935e-008     6.849e-010     
  1.05            0.00032267      -2.1515e-008    1.5363e-009    
  1.1             0.00032512      -1.0614e-008    -8.933e-010    
  1.15            0.00032735      2.5565e-008     -1.4102e-009   
  1.2             0.00032873      9.354e-009      9.627e-010     
  1.25            0.00033057      -2.6239e-008    1.3311e-009    
  1.3             0.00033316      -9.537e-009     -1.1666e-009   
  1.35            0.00033496      2.7844e-008     -1.3416e-009   
  1.4             0.00033674      1.6206e-008     -1.707e-009    
  1.45            0.00033827      9.664e-009      6.186e-010     
  1.5             0.00033954      -2.2615e-008    1.6262e-009    
  1.55            0.00034166      -1.5648e-008    -8.357e-010    
  1.6             0.00034364      -2.63e-010      -1.3654e-009   
  1.65            0.00034488      -3.599e-009     2.4679e-009    
  1.7             0.00034652      -2.9277e-008    -6.448e-010    
  1.75            0.00034857      -2.1695e-008    -1.4153e-009   
  1.8             0.00034984      -3.0518e-008    2.3484e-009    
END_DB

BEGIN_DB
 ICCAP_VAR VG         1.8            
 ICCAP_VAR VS         0              
 ICCAP_VAR VB         0              

 #VD              ID              IB              IG             
  0               -1.02074e-007   -1.072e-008     -1.4222e-009   
  0.05            6.6393e-005     -1.5301e-008    5.655e-010     
  0.1             0.00012927      -2.436e-008     -9.105e-010    
  0.15            0.0001872       2.5897e-008     -1.4002e-009   
  0.2             0.00023869      9.344e-009      9.762e-010     
  0.25            0.00028399      -2.6248e-008    1.3252e-009    
  0.3             0.00032321      -9.295e-009     -1.1873e-009   
  0.35            0.00035618      2.8432e-008     -1.3364e-009   
  0.4             0.00038367      2.4577e-008     -1.2806e-009   
  0.45            0.00040615      1.1259e-008     5.194e-010     
  0.5             0.00042429      -1.8553e-008    1.749e-009     
  0.55            0.00043942      -1.1527e-008    -7.528e-010    
  0.6             0.00045182      2.1609e-008     -1.4923e-009   
  0.65            0.00046136      1.0102e-008     8.179e-010     
  0.7             0.00046903      -2.4336e-008    1.411e-009     
  0.75            0.00047572      -2.668e-008     1.3051e-009    
  0.8             0.00048146      -2.3316e-008    1.253e-009     
  0.85            0.00048632      -1.1684e-008    -4.647e-010    
  0.9             0.00049103      1.6694e-008     -1.7468e-009   
  0.95            0.00049467      1.1274e-008     5.873e-010     
  1               0.00049768      -1.9732e-008    1.6464e-009    
  1.05            0.00050114      -1.1177e-008    -8.178e-010    
  1.1             0.00050438      2.3323e-008     -1.45e-009     
  1.15            0.00050681      1.007e-008      8.847e-010     
  1.2             0.00050919      -2.5686e-008    1.3712e-009    
  1.25            0.00051247      -9.907e-009     -1.0835e-009   
  1.3             0.000515        2.7819e-008     -1.3582e-009   
  1.35            0.00051736      2.6492e-008     -1.3091e-009   
  1.4             0.00051957      1.9994e-008     -1.6507e-009   
  1.45            0.00052165      1.0003e-008     6.765e-010     
  1.5             0.00052335      -2.2918e-008    1.5571e-009    
  1.55            0.00052587      -1.4216e-008    -8.819e-010    
  1.6             0.00052825      2.106e-009      -1.3551e-009   
  1.65            0.00053024      7.023e-009      -1.8429e-009   
  1.7             0.000532        -2.2888e-008    -2.1282e-009   
  1.75            0.00053421      -9.037e-009     1.458e-010     
  1.8             0.00053562      -4.5249e-008    2.3118e-009    
END_DB

BEGIN_DB
 ICCAP_VAR VG         0              
 ICCAP_VAR VS         0              
 ICCAP_VAR VB         -0.9           

 #VD              ID              IB              IG             
  0               -6.705e-010     -2.1374e-008    -5.491e-010    
  0.05            5.449e-010      1.5765e-008     -2.1797e-009   
  0.1             -1.9784e-009    2.342e-009      -1.3162e-009   
  0.15            -1.2315e-009    -2.6039e-008    1.3338e-009    
  0.2             2.2419e-009     -8.564e-009     1.1125e-009    
  0.25            1.0595e-009     2.8276e-008     -1.3988e-009   
  0.3             -2.1726e-009    9.892e-009      -1.076e-009    
  0.35            -1.7237e-009    -1.1468e-008    1.4844e-009    
  0.4             2.3406e-009     -8.339e-009     9.012e-010     
  0.45            1.7319e-009     1.2723e-008     -1.5412e-009   
  0.5             -1.4316e-009    7.289e-009      -1.7416e-009   
  0.55            -2.1364e-009    -1.1877e-008    -3.927e-010    
  0.6             -2.1887e-009    -1.1345e-008    -6.041e-010    
  0.65            -2.2133e-009    -1.0396e-008    -7.919e-010    
  0.7             -2.2143e-009    -9.515e-009     -9.322e-010    
  0.75            -1.6359e-009    -1.2008e-008    1.684e-009     
  0.8             1.5903e-009     -8.747e-009     1.6506e-009    
  0.85            2.1385e-009     1.1359e-008     2.951e-010     
  0.9             2.2227e-009     1.0624e-008     4.913e-010     
  0.95            1.3866e-009     2.3344e-008     -1.3217e-009   
  1               5.37e-011       1.1469e-008     -2.6866e-009   
  1.05            -1.992e-009     -1.1756e-008    4.6e-012       
  1.1             -2.0881e-009    -1.1988e-008    -2.085e-010    
  1.15            -2.1456e-009    -1.1787e-008    -4.346e-010    
  1.2             -2.195e-009     -1.1179e-008    -6.477e-010    
  1.25            -2.218e-009     -1.0258e-008    -8.165e-010    
  1.3             -2.2094e-009    -9.427e-009     -9.557e-010    
  1.35            -1.6479e-009    -1.1931e-008    1.6427e-009    
  1.4             2.3309e-009     -8.359e-009     7.865e-010     
  1.45            1.6268e-009     1.5354e-008     -1.7063e-009   
  1.5             -1.5972e-009    5.531e-009      -1.6215e-009   
  1.55            -2.0915e-009    -1.19e-008      -2.001e-010    
  1.6             -2.1494e-009    -1.1749e-008    -4.26e-010     
  1.65            -2.1955e-009    -1.1278e-008    -6.444e-010    
  1.7             -2.2146e-009    -1.031e-008     -8.194e-010    
  1.75            -2.2067e-009    -9.486e-009     -9.54e-010     
  1.8             -1.6483e-009    -1.2038e-008    1.6592e-009    
END_DB

BEGIN_DB
 ICCAP_VAR VG         0.36           
 ICCAP_VAR VS         0              
 ICCAP_VAR VB         -0.9           

 #VD              ID              IB              IG             
  0               1.3573e-009     -1.1895e-008    1.321e-009     
  0.05            2.2482e-009     -8.673e-009     1.1365e-009    
  0.1             1.9326e-009     1.1024e-008     -2.097e-010    
  0.15            9.08e-010       2.4665e-008     -1.5702e-009   
  0.2             -2.1682e-009    6.54e-009       -8.471e-010    
  0.25            -1.5391e-009    -1.3116e-008    1.8333e-009    
  0.3             1.7817e-009     -8.723e-009     1.5342e-009    
  0.35            1.5344e-009     1.0303e-008     1.7152e-009    
  0.4             2.2417e-009     1.1174e-008     3.738e-010     
  0.45            2.3366e-009     1.0281e-008     5.676e-010     
  0.5             1.5248e-009     2.1033e-008     -1.3117e-009   
  0.55            2.121e-010      1.1796e-008     -2.6725e-009   
