! VERSION = 6.00
BEGIN_HEADER
 ICCAP_INPUTS
  VG         V  B GROUND SMU4 0.001 LIN        1    0          1.8        37   0.05      
  VS         V  E GROUND SMU2 0.1 CON        0
  VB         V  C GROUND SMU3 0.1 LIN        3    0          -1.8       3    -0.9      
  VD         V  S GROUND SMU1 0.1 LIN        2    0.1        1.8        2    1.7       
 ICCAP_OUTPUTS
  IG         I  B GROUND SMU4 B
  ID         I  S GROUND SMU1 B
  IB         I  C GROUND SMU3 B
END_HEADER

BEGIN_DB
 ICCAP_VAR VS         0              
 ICCAP_VAR VB         0              
 ICCAP_VAR VD         0.1            

 #VG              IG              ID              IB             
  0               -1.4166e-009    -1.4478e-009    1.1333e-008    
  0.05            -1.1304e-009    -2.2248e-009    1.0551e-008    
  0.1             1.4816e-009     -1.8e-009       -1.1586e-008   
  0.15            9.408e-010      2.4147e-009     -8.405e-009    
  0.2             -1.5604e-009    1.858e-009      1.2355e-008    
  0.25            2.092e-010      -1.6345e-009    7.491e-009     
  0.3             2.9162e-009     2.1081e-009     -2.4636e-008   
  0.35            2.8938e-009     6.0562e-009     -3.75e-010     
  0.4             -2.3046e-009    1.8704e-008     -2.3826e-008   
  0.45            -1.688e-009     6.4402e-008     2.183e-009     
  0.5             1.0886e-009     1.7582e-007     -1.8243e-008   
  0.55            1.4813e-009     3.8901e-007     1.0061e-008    
  0.6             1.9279e-009     7.2873e-007     1.0916e-008    
  0.65            6.33e-010       1.1682e-006     5.8e-010       
  0.7             1.0016e-009     1.6404e-006     9.453e-009     
  0.75            -1.743e-010     2.1472e-006     1.1746e-008    
  0.8             -1.4293e-009    2.6535e-006     2.5496e-008    
  0.85            -1.3476e-009    3.1496e-006     1.018e-008     
  0.9             -2.5866e-009    3.6397e-006     1.1533e-008    
  0.95            -1.9854e-009    4.1107e-006     8.21e-010      
  1               -1.5037e-009    4.5761e-006     3.327e-009     
  1.05            -1.3779e-009    5.0284e-006     8.468e-009     
  1.1             -2.7106e-009    5.4705e-006     1.1596e-008    
  1.15            -2.2642e-009    5.8883e-006     6.01e-010      
  1.2             -1.6574e-009    6.3003e-006     2.19e-009      
  1.25            -1.4078e-009    6.6981e-006     5.925e-009     
  1.3             -1.3327e-009    7.0854e-006     1.08e-008      
  1.35            -2.5171e-009    7.4512e-006     1.1659e-008    
  1.4             -1.9e-009       7.7928e-006     1.387e-009     
  1.45            -1.4696e-009    8.1377e-006     4.004e-009     
  1.5             -1.3674e-009    8.4531e-006     9.163e-009     
  1.55            -2.6752e-009    8.7666e-006     1.1578e-008    
  1.6             -2.1718e-009    9.0607e-006     5.71e-010      
  1.65            -1.5949e-009    9.3385e-006     2.427e-009     
  1.7             -1.3975e-009    9.5961e-006     6.692e-009     
  1.75            -1.3226e-009    9.8388e-006     1.126e-008     
  1.8             -2.4487e-009    1.00937e-005    1.2023e-008    
END_DB

BEGIN_DB
 ICCAP_VAR VS         0              
 ICCAP_VAR VB         0              
 ICCAP_VAR VD         1.8            

 #VG              IG              ID              IB             
  0               -1.4747e-009    -1.626e-009     -5.987e-009    
  0.05            -1.8698e-009    -1.3624e-009    9.108e-009     
  0.1             -5.507e-010     -2.2389e-009    -1.1648e-008   
  0.15            -7.514e-010     -2.2626e-009    -1.0773e-008   
  0.2             -8.949e-010     -2.1849e-009    -9.786e-009    
  0.25            1.8088e-009     -1.1888e-009    -1.2681e-008   
  0.3             1.5627e-009     2.7053e-009     -8.659e-009    
  0.35            2.8644e-009     1.065e-008      2.0383e-008    
  0.4             2.0504e-009     3.6277e-008     1.0599e-008    
  0.45            -1.3936e-009    1.10783e-007    2.7667e-008    
  0.5             1.1253e-009     2.7465e-007     -1.8819e-008   
  0.55            -3.56e-011      6.1864e-007     1.0822e-008    
  0.6             -2.7332e-009    1.1779e-006     -1.1013e-008   
  0.65            -1.2964e-009    1.9745e-006     -1.0137e-008   
  0.7             -1.7031e-009    3.0006e-006     -1.1421e-008   
  0.75            -1.9754e-009    4.2312e-006     -1.1335e-008   
  0.8             -9.793e-010     5.6993e-006     -1.1337e-008   
  0.85            -1.3584e-009    7.4035e-006     -1.0646e-008   
  0.9             -1.31e-010      9.217e-006      -1.2471e-008   
  0.95            -6.573e-010     1.12979e-005    -1.2519e-008   
  1               1.7215e-009     1.352e-005      -2.0884e-008   
  1.05            6.157e-010      1.6031e-005     1.0936e-008    
  1.1             -1.667e-009     1.8657e-005     2.0036e-008    
  1.15            -1.408e-009     2.1424e-005     5.469e-009     
  1.2             -1.3355e-009    2.4365e-005     1.0495e-008    
  1.25            -2.5325e-009    2.7446e-005     1.1603e-008    
  1.3             -1.9107e-009    3.0621e-005     1.143e-009     
  1.35            -1.4737e-009    3.3957e-005     3.729e-009     
  1.4             -1.3686e-009    3.7408e-005     8.899e-009     
  1.45            -2.6925e-009    4.0952e-005     1.1538e-008    
  1.5             -2.2093e-009    4.4553e-005     5.78e-010      
  1.55            -1.6138e-009    4.8285e-005     2.349e-009     
  1.6             -1.3993e-009    5.2092e-005     6.508e-009     
  1.65            -1.3274e-009    5.5975e-005     1.082e-008     
  1.7             -2.4875e-009    5.9903e-005     1.188e-008     
  1.75            -1.8423e-009    6.3844e-005     8.96e-010      
  1.8             -1.4497e-009    6.7878e-005     3.658e-009     
END_DB

BEGIN_DB
 ICCAP_VAR VS         0              
 ICCAP_VAR VB         -0.9           
 ICCAP_VAR VD         0.1            

 #VG              IG              ID              IB             
  0               -2.3921e-009    -2.2937e-009    -4.04e-010     
  0.05            -1.2111e-009    -2.1714e-009    1.92e-009      
  0.1             2.799e-010      -1.857e-009     -1.1565e-008   
  0.15            1.7426e-009     -9.146e-010     -2.3331e-008   
  0.2             1.6369e-009     1.6771e-009     -8.519e-009    
  0.25            -2.2e-012       2.0506e-009     1.0509e-008    
  0.3             -1.4508e-009    1.0654e-009     2.8193e-008    
  0.35            -1.0397e-009    -2.1418e-009    9.564e-009     
  0.4             1.2485e-009     -9.275e-010     -1.0333e-008   
  0.45            2.8116e-009     3.0519e-009     -1.4428e-008   
  0.5             -1.3384e-009    1.342e-008      -1.1815e-008   
  0.55            -2.5516e-009    4.8578e-008     1.16e-008      
  0.6             6.844e-010      1.3581e-007     -1.3662e-008   
  0.65            -1.5995e-009    3.1395e-007     1.8347e-008    
  0.7             -1.3984e-009    5.9982e-007     6.509e-009     
  0.75            -1.3237e-009    9.8506e-007     1.1033e-008    
  0.8             -2.7613e-009    1.4194e-006     -2.697e-008    
  0.85            -1.1152e-009    1.8917e-006     -9.403e-009    
  0.9             1.572e-010      2.3551e-006     -1.1478e-008   
  0.95            -3.327e-010     2.8367e-006     -1.1849e-008   
  1               -8.14e-010      3.3113e-006     -1.1408e-008   
  1.05            1.6091e-009     3.7665e-006     -1.4564e-008   
  1.1             1.3392e-009     4.2221e-006     -8.319e-009    
  1.15            1.2598e-009     4.6573e-006     -8.869e-009    
  1.2             2.5902e-009     5.0832e-006     -1.4121e-008   
  1.25            1.8696e-009     5.5004e-006     -3.044e-009    
  1.3             1.4086e-009     5.8953e-006     -8.581e-009    
  1.35            1.2963e-009     6.2778e-006     -8.332e-009    
  1.4             2.8103e-009     6.6398e-006     -1.1678e-008   
  1.45            5.272e-010      7.0076e-006     1.1283e-008    
  1.5             9.268e-010      7.3447e-006     1.0027e-008    
  1.55            -1.4311e-009    7.6635e-006     1.2626e-008    
  1.6             -1.3545e-009    7.9739e-006     9.714e-009     
  1.65            -2.633e-009     8.2659e-006     1.1436e-008    
  1.7             -2.0436e-009    8.5385e-006     9.32e-010      
  1.75            -1.5268e-009    8.8071e-006     3.208e-009     
  1.8             -1.3839e-009    9.0568e-006     7.509e-009     
END_DB

BEGIN_DB
 ICCAP_VAR VS         0              
 ICCAP_VAR VB         -0.9           
 ICCAP_VAR VD         1.8            

 #VG              IG              ID              IB             
  0               -1.3761e-009    -1.3042e-009    1.1068e-008    
  0.05            -1.2962e-009    -2.085e-009     1.1505e-008    
  0.1             2.095e-010      -1.9095e-009    -1.145e-008    
  0.15            1.6493e-009     -9.715e-010     -2.4546e-008   
  0.2             1.7267e-009     1.5839e-009     -8.503e-009    
  0.25            3.347e-010      2.2387e-009     1.1377e-008    
  0.3             5.311e-010      2.3567e-009     1.0624e-008    
  0.35            -1.3475e-009    1.6751e-009     2.2951e-008    
  0.4             -1.3117e-009    1.3136e-009     1.1313e-008    
  0.45            -2.6574e-009    6.2958e-009     1.2291e-008    
  0.5             2.8361e-009     2.4714e-008     1.0846e-008    
  0.55            1.3886e-009     8.0086e-008     1.0341e-008    
  0.6             2.0529e-009     2.1337e-007     -9.976e-009    
  0.65            1.4808e-009     4.7811e-007     -7.56e-009     
  0.7             1.309e-009      9.3749e-007     -8.675e-009    
  0.75            2.7068e-009     1.6365e-006     2.2862e-008    
  0.8             7.454e-010      2.5731e-006     1.0385e-008    
  0.85            -1.5566e-009    3.7466e-006     1.6401e-008    
  0.9             -1.3839e-009    5.1313e-006     7.139e-009     
  0.95            -1.308e-009     6.7402e-006     1.095e-008     
  1               -2.3848e-009    8.5594e-006     1.2002e-008    
  1.05            -1.7498e-009    1.05604e-005    1.414e-009     
  1.1             9.24e-010       1.2736e-005     -2.0724e-008   
  1.15            -1.4336e-009    1.5154e-005     1.2439e-008    
  1.2             -1.3527e-009    1.7738e-005     9.827e-009     
  1.25            -2.624e-009     2.0485e-005     1.1307e-008    
  1.3             -2.0512e-009    2.335e-005      4.86e-010      
  1.35            -1.5334e-009    2.6379e-005     2.911e-009     
  1.4             -1.3828e-009    2.9554e-005     7.527e-009     
  1.45            -1.3076e-009    3.2846e-005     1.1508e-008    
  1.5             -2.3693e-009    3.6245e-005     1.2475e-008    
  1.55            -1.734e-009     3.9716e-005     2.031e-009     
  1.6             -1.4199e-009    4.3314e-005     5.331e-009     
  1.65            -1.3447e-009    4.7011e-005     1.0001e-008    
  1.7             -2.5985e-009    5.0765e-005     1.1225e-008    
  1.75            -2.0179e-009    5.4537e-005     7.62e-010      
  1.8             -1.5143e-009    5.8412e-005     3.377e-009     
END_DB

BEGIN_DB
 ICCAP_VAR VS         0              
 ICCAP_VAR VB         -1.8           
 ICCAP_VAR VD         0.1            

 #VG              IG              ID              IB             
  0               9.37e-011       -5.303e-010     -1.0827e-008   
  0.05            -1.115e-010     -2.1227e-009    -1.1815e-008   
  0.1             -3.274e-010     -2.1978e-009    -1.1976e-008   
  0.15            -5.391e-010     -2.2505e-009    -1.1659e-008   
  0.2             -7.436e-010     -2.2921e-009    -1.0991e-008   
  0.25            -8.855e-010     -2.2985e-009    -1.0032e-008   
  0.3             1.8474e-009     -1.6559e-009    -1.2955e-008   
  0.35            1.583e-009      1.7823e-009     -8.698e-009    
  0.4             1.7576e-009     1.5896e-009     1.0656e-008    
  0.45            3.662e-010      2.5875e-009     1.1298e-008    
  0.5             5.541e-010      4.1156e-009     1.0911e-008    
  0.55            7.285e-010      1.05234e-008    1.0061e-008    
  0.6             -2.678e-009     2.9301e-008     -1.7578e-008   
  0.65            -8.486e-010     8.7777e-008     -1.153e-008    
  0.7             -2.5503e-009    2.1359e-007     9.723e-009     
  0.75            -1.9502e-009    4.3219e-007     8.7e-010       
  0.8             -1.486e-009     7.5257e-007     3.732e-009     
  0.85            -1.3155e-009    1.1507e-006     -1.0401e-008   
  0.9             -2.4252e-009    1.5902e-006     1.2178e-008    
  0.95            -1.7886e-009    2.0454e-006     1.545e-009     
  1               -1.4344e-009    2.5121e-006     4.787e-009     
  1.05            -1.3525e-009    2.9775e-006     9.552e-009     
  1.1             -2.6345e-009    3.4355e-006     1.1309e-008    
  1.15            -2.0887e-009    3.8767e-006     4.84e-010      
  1.2             -1.5511e-009    4.3158e-006     2.913e-009     
  1.25            -1.3858e-009    4.7393e-006     7.388e-009     
  1.3             -1.3127e-009    5.1504e-006     1.1373e-008    
  1.35            -2.4075e-009    5.5476e-006     1.2203e-008    
  1.4             -1.7728e-009    5.9225e-006     1.658e-009     
  1.45            -1.4297e-009    6.2917e-006     4.867e-009     
  1.5             -1.3525e-009    6.6404e-006     9.779e-009     
  1.55            -2.6358e-009    6.9801e-006     1.1247e-008    
  1.6             -2.0717e-009    7.2986e-006     7.8e-010       
  1.65            -1.5415e-009    7.6053e-006     2.95e-009      
  1.7             -1.3829e-009    7.8968e-006     7.437e-009     
  1.75            -2.7383e-009    8.1741e-006     1.1426e-008    
  1.8             1.9595e-009     8.4336e-006     -2.0356e-008   
END_DB

BEGIN_DB
 ICCAP_VAR VS         0              
 ICCAP_VAR VB         -1.8           
 ICCAP_VAR VD         1.8            

 #VG              IG              ID              IB             
  0               5.936e-010      6.95e-010       2.4448e-008    
  0.05            1.6535e-009     -1.7111e-009    -1.1717e-008   
  0.1             1.7189e-009     1.5817e-009     -8.713e-009    
  0.15            3.344e-010      2.2243e-009     1.1292e-008    
  0.2             5.264e-010      2.313e-009      1.0597e-008    
  0.25            -1.3422e-009    1.4385e-009     2.295e-008     
  0.3             -1.3063e-009    6.92e-011       1.1226e-008    
  0.35            -2.6556e-009    2.336e-010      1.2295e-008    
  0.4             -1.0049e-009    -2.18e-009      5.39e-010      
  0.45            1.6256e-009     -1.1623e-009    -1.175e-008    
  0.5             1.45e-009       3.2477e-009     -8.77e-009     
  0.55            2.7259e-009     1.4377e-008     1.6421e-008    
  0.6             7.748e-010      5.0629e-008     1.0651e-008    
  0.65            -1.7617e-009    1.3827e-007     2.7913e-008    
  0.7             -6.671e-010     3.2514e-007     -1.2044e-008   
  0.75            1.81e-009       6.659e-007      -1.8341e-008   
  0.8             2.3336e-009     1.2178e-006     1.3439e-008    
  0.85            -1.3212e-009    2.0115e-006     2.5619e-008    
  0.9             -2.4473e-009    3.0267e-006     1.1657e-008    
  0.95            -7.606e-010     4.2429e-006     -1.2156e-008   
  1               -1.1119e-009    5.731e-006      -1.031e-008    
  1.05            1.67e-010       7.3671e-006     -1.1822e-008   
  1.1             1.3868e-009     9.2582e-006     -2.5485e-008   
  1.15            1.2837e-009     1.13412e-005    -8.786e-009    
  1.2             -1.3627e-009    1.3708e-005     -4.39e-009     
  1.25            -2.6826e-009    1.6181e-005     1.1246e-008    
  1.3             -2.1739e-009    1.8793e-005     7.19e-010      
  1.35            -1.5911e-009    2.1603e-005     2.489e-009     
  1.4             -1.3896e-009    2.4555e-005     6.554e-009     
  1.45            -1.3181e-009    2.764e-005      1.098e-008     
  1.5             -2.4641e-009    3.0858e-005     1.1928e-008    
  1.55            -1.8169e-009    3.4161e-005     1.549e-009     
  1.6             -1.4386e-009    3.7601e-005     4.668e-009     
  1.65            -1.3538e-009    4.1125e-005     9.421e-009     
  1.7             -2.6466e-009    4.4752e-005     1.1205e-008    
  1.75            -2.1076e-009    4.84e-005       8.85e-010      
  1.8             -1.5523e-009    5.2157e-005     2.881e-009     
END_DB

