! VERSION = 6.00
BEGIN_HEADER
 ICCAP_INPUTS
  VG         V  B GROUND SMU4 0.001 LIN        1    0          1.8        37   0.05      
  VS         V  E GROUND SMU2 0.1 CON        0
  VB         V  C GROUND SMU3 0.1 LIN        3    0          -1.8       3    -0.9      
  VD         V  S GROUND SMU1 0.1 LIN        2    0.1        1.8        2    1.7       
 ICCAP_OUTPUTS
  IG         I  B GROUND SMU4 B
  ID         I  S GROUND SMU1 B
  IB         I  C GROUND SMU3 B
END_HEADER

BEGIN_DB
 ICCAP_VAR VS         0              
 ICCAP_VAR VB         0              
 ICCAP_VAR VD         0.1            

 #VG              IG              ID              IB             
  0               1.2443e-009     1.1884e-009     -1.0742e-008   
  0.05            1.2218e-009     2.0395e-009     -9.64e-009     
  0.1             -2.2884e-009    4.482e-010      1.4291e-008    
  0.15            -4.775e-010     -1.9934e-009    -1.136e-008    
  0.2             1.2993e-009     -5.904e-010     -1.0659e-008   
  0.25            1.2491e-009     2.8817e-009     -8.451e-009    
  0.3             2.7154e-009     1.3234e-008     2.6909e-008    
  0.35            4.114e-010      5.558e-008      1.0482e-008    
  0.4             2.7854e-009     1.9219e-007     -1.1407e-008   
  0.45            2.5436e-009     5.2608e-007     -1.42e-010     
  0.5             2.7844e-009     1.1485e-006     2.7169e-008    
  0.55            2.6624e-009     2.0552e-006     1.93e-010      
  0.6             4.947e-010      3.1749e-006     1.0584e-008    
  0.65            -1.7306e-009    4.406e-006      2.2405e-008    
  0.7             -1.3829e-009    5.6724e-006     4.548e-009     
  0.75            -1.2967e-009    6.9677e-006     9.18e-009      
  0.8             -2.5285e-009    8.2686e-006     1.1026e-008    
  0.85            -2.0257e-009    9.5482e-006     5.43e-010      
  0.9             -1.5137e-009    1.08267e-005    2.671e-009     
  0.95            1.2671e-009     1.2063e-005     1.358e-009     
  1               2.7778e-009     1.3295e-005     -8.777e-009    
  1.05            2.4414e-009     1.4526e-005     -1.67e-010     
  1.1             1.7947e-009     1.5704e-005     -2.538e-009    
  1.15            1.3506e-009     1.6847e-005     -8.287e-009    
  1.2             2.7783e-009     1.796e-005      -8.488e-009    
  1.25            -1.8579e-009    1.9065e-005     1.4852e-008    
  1.3             -1.4239e-009    2.0091e-005     3.491e-009     
  1.35            -1.3133e-009    2.108e-005      7.971e-009     
  1.4             -2.5889e-009    2.2036e-005     1.1373e-008    
  1.45            -2.1569e-009    2.2927e-005     4.01e-010      
  1.5             -1.585e-009     2.379e-005      2.352e-009     
  1.55            -1.348e-009     2.4611e-005     5.251e-009     
  1.6             -1.28e-009      2.5388e-005     9.871e-009     
  1.65            -2.4479e-009    2.6125e-005     1.1286e-008    
  1.7             -1.8664e-009    2.6795e-005     9.38e-010      
  1.75            -1.4307e-009    2.7441e-005     3.572e-009     
  1.8             -1.3168e-009    2.8046e-005     7.763e-009     
END_DB

BEGIN_DB
 ICCAP_VAR VS         0              
 ICCAP_VAR VB         0              
 ICCAP_VAR VD         1.8            

 #VG              IG              ID              IB             
  0               -2.2309e-009    -2.1392e-009    1.3143e-008    
  0.05            -1.1894e-009    -1.9986e-009    1.72e-009      
  0.1             2.477e-010      -1.7363e-009    -1.139e-008    
  0.15            1.6462e-009     -7.199e-010     -2.3236e-008   
  0.2             2.4575e-009     1.6385e-009     -8.729e-009    
  0.25            2.383e-010      5.0569e-009     1.0613e-008    
  0.3             -2.4372e-009    1.2997e-008     -2.5726e-008   
  0.35            -1.8493e-009    6.0685e-008     9.45e-010      
  0.4             3.927e-010      2.2494e-007     -1.0039e-008   
  0.45            -1.8274e-009    6.2885e-007     1.3975e-008    
  0.5             -1.952e-009     1.3672e-006     -1.2853e-008   
  0.55            -9.744e-010     2.5694e-006     -1.1419e-008   
  0.6             -1.3442e-009    4.2757e-006     -1.0955e-008   
  0.65            -1.547e-010     6.4038e-006     -1.3164e-008   
  0.7             -6.398e-010     9.1379e-006     -1.3125e-008   
  0.75            1.767e-009      1.2355e-005     -1.7611e-008   
  0.8             -2.4954e-009    1.6287e-005     9.579e-009     
  0.85            -1.9174e-009    2.0589e-005     -6.58e-010     
  0.9             -9.402e-010     2.547e-005      -1.151e-008    
  0.95            -1.2925e-009    3.0961e-005     -1.0309e-008   
  1               -1.026e-010     3.6695e-005     -1.2114e-008   
  1.05            -5.864e-010     4.315e-005      -1.1769e-008   
  1.1             -9.636e-010     5.015e-005      -1.0495e-008   
  1.15            -1.3227e-009    5.7651e-005     -9.664e-009    
  1.2             -1.355e-010     6.5248e-005     -1.1554e-008   
  1.25            -6.253e-010     7.3576e-005     -1.1478e-008   
  1.3             -9.86e-010      8.2408e-005     -1.0125e-008   
  1.35            2.398e-010      9.1277e-005     -1.1497e-008   
  1.4             1.3949e-009     0.000100756     -2.3836e-008   
  1.45            1.2405e-009     0.000110601     -8.428e-009    
  1.5             1.2533e-009     0.00012073      -6.995e-009    
  1.55            2.7634e-009     0.00013121      -9.532e-009    
  1.6             3.649e-010      0.0001423       1.0562e-008    
  1.65            -1.2685e-009    0.0001535       2.4172e-008    
  1.7             -2.3463e-009    0.00016489      1.1404e-008    
  1.75            -1.7346e-009    0.00017636      1.47e-009      
  1.8             -1.3987e-009    0.00018822      3.941e-009     
END_DB

BEGIN_DB
 ICCAP_VAR VS         0              
 ICCAP_VAR VB         -0.9           
 ICCAP_VAR VD         0.1            

 #VG              IG              ID              IB             
  0               -1.3544e-009    -1.2693e-009    1.0657e-008    
  0.05            -1.1333e-009    -2.0495e-009    1.0752e-008    
  0.1             1.3892e-009     -1.7332e-009    -1.1476e-008   
  0.15            9.32e-010       2.2753e-009     -8.499e-009    
  0.2             -1.4684e-009    1.7297e-009     1.1964e-008    
  0.25            -8.689e-010     -2.1551e-009    7.212e-009     
  0.3             1.7184e-009     -1.5035e-009    -1.2219e-008   
  0.35            2.4201e-009     1.4315e-009     -8.408e-009    
  0.4             1.1992e-009     4.2054e-009     9.696e-009     
  0.45            2.3596e-009     1.1094e-008     1.03e-008      
  0.5             1.698e-009      5.375e-008      -3.175e-009    
  0.55            -1.2068e-009    2.0033e-007     1.9312e-008    
  0.6             2.4267e-009     5.5082e-007     -2.5832e-008   
  0.65            2.3224e-009     1.1927e-006     1.5091e-008    
  0.7             2.844e-010      2.1116e-006     1.0542e-008    
  0.75            7.008e-010      3.1834e-006     1.0152e-008    
  0.8             -1.5012e-009    4.3731e-006     1.6301e-008    
  0.85            -1.3383e-009    5.6022e-006     6.789e-009     
  0.9             -2.6404e-009    6.8486e-006     1.1227e-008    
  0.95            1.8869e-009     8.0688e-006     -1.9045e-008   
  1               1.4116e-009     9.3092e-006     -7.452e-009    
  1.05            1.2419e-009     1.05326e-005    -8.465e-009    
  1.1             -1.5732e-009    1.176e-005      -8.627e-009    
  1.15            -1.3584e-009    1.2936e-005     5.583e-009     
  1.2             -1.2697e-009    1.4082e-005     1.0503e-008    
  1.25            -2.3864e-009    1.5201e-005     1.0846e-008    
  1.3             -1.8089e-009    1.626e-005      1.039e-009     
  1.35            -1.4296e-009    1.7294e-005     3.391e-009     
  1.4             -1.3186e-009    1.8288e-005     8.258e-009     
  1.45            -2.6031e-009    1.9239e-005     1.1662e-008    
  1.5             -3.819e-010     2.0124e-005     -1.129e-008    
  1.55            -8.171e-010     2.0993e-005     -1.0608e-008   
  1.6             -1.153e-009     2.1826e-005     -9.296e-009    
  1.65            1.2778e-009     2.2579e-005     -2.6262e-008   
  1.7             2.7973e-009     2.3311e-005     -8.931e-009    
  1.75            -1.6957e-009    2.4023e-005     2.1441e-008    
  1.8             -1.3863e-009    2.4664e-005     4.417e-009     
END_DB

BEGIN_DB
 ICCAP_VAR VS         0              
 ICCAP_VAR VB         -0.9           
 ICCAP_VAR VD         1.8            

 #VG              IG              ID              IB             
  0               1.2347e-009     1.1623e-009     9.129e-009     
  0.05            2.8041e-009     2e-013          -1.1171e-008   
  0.1             7.177e-010      2.2827e-009     -3.82e-010     
  0.15            -1.7113e-009    1.5469e-009     1.5334e-008    
  0.2             -1.5234e-009    -1.5865e-009    4.031e-009     
  0.25            -1.028e-010     -1.9551e-009    -1.1374e-008   
  0.3             -2.892e-010     -1.9581e-009    -1.1429e-008   
  0.35            1.3846e-009     -5.626e-010     -1.0954e-008   
  0.4             1.3057e-009     2.7989e-009     -8.478e-009    
  0.45            -2.2933e-009    1.1765e-008     -2.4131e-008   
  0.5             -1.7025e-009    5.951e-008      1.698e-009     
  0.55            6.259e-010      2.265e-007      -1.3379e-008   
  0.6             -1.5414e-009    6.4734e-007     1.7255e-008    
  0.65            -2.1071e-009    1.4189e-006     -1.4798e-008   
  0.7             -1.1762e-009    2.6846e-006     -9.983e-009    
  0.75            1.2692e-009     4.3728e-006     -2.7329e-008   
  0.8             2.7888e-009     6.6238e-006     -1.0272e-008   
  0.85            2.3598e-009     9.4611e-006     -1.414e-009    
  0.9             -2.6174e-009    1.2844e-005     7.819e-009     
  0.95            -1.2942e-009    1.6849e-005     -1.0576e-008   
  1               -9.66e-011      2.1169e-005     -1.2232e-008   
  1.05            -5.846e-010     2.6184e-005     -1.1984e-008   
  1.1             1.7842e-009     3.1673e-005     -1.8228e-008   
  1.15            1.3527e-009     3.7676e-005     -8.331e-009    
  1.2             1.2368e-009     4.4179e-005     -8.491e-009    
  1.25            2.6997e-009     5.1147e-005     -1.0988e-008   
  1.3             1.3452e-009     5.8537e-005     1.0216e-008    
  1.35            2.528e-010      6.6721e-005     1.0838e-008    
  1.4             6.662e-010      7.4986e-005     1.0387e-008    
  1.45            -1.5136e-009    8.3797e-005     1.6909e-008    
  1.5             -1.3405e-009    9.291e-005      5.987e-009     
  1.55            -2.6512e-009    0.000102383     1.0757e-008    
  1.6             1.9485e-009     0.000111953     -2.0816e-008   
  1.65            9.758e-010      0.00012204      2.7122e-008    
  1.7             -1.3478e-009    0.0001327       2.6261e-008    
  1.75            -1.2751e-009    0.00014339      1.0324e-008    
  1.8             -2.4113e-009    0.00015437      1.1444e-008    
END_DB

BEGIN_DB
 ICCAP_VAR VS         0              
 ICCAP_VAR VB         -1.8           
 ICCAP_VAR VD         0.1            

 #VG              IG              ID              IB             
  0               8.568e-010      8.242e-010      -1.1347e-008   
  0.05            1.2393e-009     -1.3883e-009    -1.926e-008    
  0.1             2.8075e-009     6.7e-012        -1.0819e-008   
  0.15            7.063e-010      2.2701e-009     -1.08e-010     
  0.2             -1.7452e-009    1.5221e-009     1.5978e-008    
  0.25            -1.5111e-009    -1.635e-009     3.925e-009     
  0.3             2.3584e-009     -1.3584e-009    -2.0586e-008   
  0.35            1.1518e-009     2.1238e-009     -3.139e-009    
  0.4             -1.3583e-009    1.1443e-009     2.7998e-008    
  0.45            -1.327e-009     1.54e-010       9.988e-009     
  0.5             -1.3011e-009    1.9411e-009     1.1491e-008    
  0.55            2.7911e-009     1.1185e-008     1.0827e-008    
  0.6             -1.679e-009     4.9783e-008     2.1436e-008    
  0.65            9.767e-010      1.7877e-007     -1.6837e-008   
  0.7             -1.653e-010     5.2089e-007     1.1225e-008    
  0.75            -1.2919e-009    1.134e-006      -1.1134e-008   
  0.8             -2.4851e-009    2.0049e-006     1.1127e-008    
  0.85            -1.9141e-009    3.0355e-006     6.19e-010      
  0.9             -1.448e-009     4.1727e-006     3.127e-009     
  0.95            -1.3249e-009    5.3658e-006     7.113e-009     
  1               -2.627e-009     6.5767e-006     1.1393e-008    
  1.05            -3.155e-010     7.7625e-006     -1.1398e-008   
  1.1             -7.751e-010     8.9714e-006     -1.1061e-008   
  1.15            1.5483e-009     1.01403e-005    -1.4182e-008   
  1.2             1.2759e-009     1.13069e-005    -8.717e-009    
  1.25            -1.254e-010     1.2456e-005     -8.863e-009    
  1.3             -1.3557e-009    1.3565e-005     2.5569e-008    
  1.35            -2.6539e-009    1.4623e-005     9.676e-009     
  1.4             2.1137e-009     1.5626e-005     -2.3052e-008   
  1.45            1.4933e-009     1.6608e-005     -5.684e-009    
  1.5             1.2673e-009     1.7549e-005     -8.589e-009    
  1.55            2.7906e-009     1.8439e-005     -8.687e-009    
  1.6             -1.712e-009     1.9323e-005     2.2256e-008    
  1.65            -1.3723e-009    2.0127e-005     4.379e-009     
  1.7             -1.2938e-009    2.0898e-005     9.137e-009     
  1.75            -2.5335e-009    2.1626e-005     1.1227e-008    
  1.8             -2.0197e-009    2.2299e-005     3.11e-010      
END_DB

BEGIN_DB
 ICCAP_VAR VS         0              
 ICCAP_VAR VB         -1.8           
 ICCAP_VAR VD         1.8            

 #VG              IG              ID              IB             
  0               2.7805e-009     3.2663e-009     1.5883e-008    
  0.05            2.7881e-009     2.0163e-009     -9.55e-010     
  0.1             2.7359e-009     1.993e-009      -1.39e-009     
  0.15            -1.7716e-009    1.8764e-009     1.9148e-008    
  0.2             2.5665e-009     1.9463e-009     -8e-009        
  0.25            -1.6616e-009    2.7438e-009     1.3543e-008    
  0.3             -1.4917e-009    6.543e-010      3.884e-009     
  0.35            -1.3976e-009    7.583e-010      5.795e-009     
  0.4             -1.3479e-009    9.209e-010      7.491e-009     
  0.45            -1.3186e-009    1.3545e-009     9.038e-009     
  0.5             -1.2934e-009    3.2787e-009     1.0114e-008    
  0.55            2.348e-009      1.3442e-008     1.0462e-008    
  0.6             -1.7103e-009    5.5832e-008     2.0861e-008    
  0.65            5.463e-010      2.0334e-007     -1.3224e-008   
  0.7             9.058e-010      5.7821e-007     8.373e-009     
  0.75            -1.288e-009     1.3426e-006     -1.2633e-008   
  0.8             -2.4835e-009    2.549e-006      9.369e-009     
  0.85            -1.9435e-009    4.2342e-006     -1.13e-009     
  0.9             -9.358e-010     6.462e-006      -1.2327e-008   
  0.95            -1.3007e-009    9.2828e-006     -1.1146e-008   
  1               2.5958e-009     1.2526e-005     -1.3109e-008   
  1.05            -2.3771e-009    1.6493e-005     9.754e-009     
  1.1             -1.5739e-009    2.0923e-005     -1.1757e-008   
  1.15            -4.342e-010     2.5748e-005     -1.2622e-008   
  1.2             -8.497e-010     3.1264e-005     -1.2278e-008   
  1.25            -1.1922e-009    3.7332e-005     -1.0414e-008   
  1.3             -1.5925e-009    4.3811e-005     -1.1442e-008   
  1.35            -4.599e-010     5.0558e-005     -1.2369e-008   
  1.4             -8.619e-010     5.7999e-005     -1.1875e-008   
  1.45            -1.2094e-009    6.593e-005      -1.0352e-008   
  1.5             -1.6053e-009    7.4157e-005     -1.1437e-008   
  1.55            -4.75e-010      8.2538e-005     -1.2367e-008   
  1.6             -8.75e-010      9.1595e-005     -1.1446e-008   
  1.65            -1.2292e-009    0.00010105      -1.0412e-008   
  1.7             -1.6263e-009    0.000110692     -1.243e-008    
  1.75            -2.6284e-009    0.00012046      -1.1075e-008   
  1.8             -9.18e-010      0.0001307       -1.1272e-008   
END_DB

