! VERSION = 6.00
BEGIN_HEADER
 ICCAP_INPUTS
  VG         V  B GROUND SMU4 0.001 LIN        1    0          1.8        37   0.05      
  VS         V  E GROUND SMU3 0.1 CON        0
  VB         V  C GROUND SMU1 0.1 LIN        3    0          -1.8       3    -0.9      
  VD         V  S GROUND SMU2 0.1 LIN        2    0.1        1.8        2    1.7       
 ICCAP_OUTPUTS
  IG         I  B GROUND SMU4 B
  ID         I  S GROUND SMU2 B
  IB         I  C GROUND SMU1 B
END_HEADER

BEGIN_DB
 ICCAP_VAR VS         0              
 ICCAP_VAR VB         0              
 ICCAP_VAR VD         0.1            

 #VG              IG              ID              IB             
  0               -6.519e-010     2.513e-010      -6.735e-009    
  0.05            -2.4866e-009    -1.8143e-009    4.693e-009     
  0.1             2.661e-009      -4.258e-010     -1.3287e-008   
  0.15            -1.3798e-009    3.42e-009       8.531e-009     
  0.2             -5.86e-010      -3.4774e-009    -9.607e-009    
  0.25            2.2266e-009     4.0313e-009     -1.7008e-008   
  0.3             2.6172e-009     1.3735e-008     1.5179e-008    
  0.35            8.987e-010      5.8176e-008     8.899e-009     
  0.4             8.14e-010       2.4503e-007     -1.5007e-008   
  0.45            -2.5127e-009    1.0215e-006     -1.703e-008    
  0.5             2.725e-009      3.9766e-006     -6.815e-009    
  0.55            1.9056e-009     1.174e-005      -1.3469e-008   
  0.6             -1.4463e-009    2.9283e-005     1.7117e-008    
  0.65            -9.769e-010     5.7859e-005     -9.254e-009    
  0.7             2.7204e-009     9.487e-005      -7.206e-009    
  0.75            1.657e-009      0.00014141      1.5661e-008    
  0.8             -1.8206e-009    0.00019111      1.566e-008     
  0.85            2.6873e-009     0.00023881      -1.2935e-008   
  0.9             2.54e-011       0.0002875       7.688e-009     
  0.95            -2.0974e-009    0.00033236      1.3916e-008    
  1               1.7138e-009     0.00037343      -1.7715e-008   
  1.05            -2.3617e-009    0.00041355      1.1584e-008    
  1.1             1.9278e-009     0.00044851      -1.6629e-008   
  1.15            -1.3804e-009    0.00048313      1.4368e-008    
  1.2             -1.0342e-009    0.00051377      -8.878e-009    
  1.25            2.7057e-009     0.00054099      -7.176e-009    
  1.3             -6.88e-011      0.00056778      7.775e-009     
  1.35            -2.2317e-009    0.00059104      1.2721e-008    
  1.4             1.6804e-009     0.00061223      -1.7072e-008   
  1.45            8.123e-010      0.00063277      9.02e-009      
  1.5             -2.6034e-009    0.00065135      7.199e-009     
  1.55            2.117e-010      0.00066807      -1.0076e-008   
  1.6             2.5843e-009     0.00068307      -1.0901e-008   
  1.65            -1.8729e-009    0.00069763      1.5214e-008    
  1.7             2.6936e-009     0.00071095      -1.374e-008    
  1.75            8e-013          0.00072339      7.553e-009     
  1.8             -2.1356e-009    0.00073394      1.3444e-008    
END_DB

BEGIN_DB
 ICCAP_VAR VS         0              
 ICCAP_VAR VB         0              
 ICCAP_VAR VD         1.8            

 #VG              IG              ID              IB             
  0               1.0305e-009     1.729e-009      1.1316e-008    
  0.05            -2.4488e-009    5.326e-010      1.2501e-008    
  0.1             2.6523e-009     -4.072e-010     -1.3246e-008   
  0.15            -2.5032e-009    6.232e-010      1.1596e-008    
  0.2             2.6831e-009     2.51e-009       -1.1221e-008   
  0.25            -2.5398e-009    5.69e-009       1.1035e-008    
  0.3             2.7079e-009     2.4163e-008     1.9374e-008    
  0.35            2.5963e-009     1.0734e-007     7.555e-009     
  0.4             -1.8142e-009    4.8799e-007     1.011e-009     
  0.45            1.8044e-009     1.9892e-006     7.266e-009     
  0.5             -1.5702e-009    8.0906e-006     1.0239e-008    
  0.55            1.5094e-009     2.2276e-005     -1.5931e-008   
  0.6             2.3243e-009     5.2665e-005     -2.3289e-008   
  0.65            5.036e-010      0.000106163     -3.9731e-008   
  0.7             1.5157e-009     0.00018132      -4.8135e-008   
  0.75            7.291e-010      0.00028514      -8.2939e-008   
  0.8             1.0846e-009     0.00040493      -1.1914e-007   
  0.85            2.6966e-009     0.00054193      -1.0399e-007   
  0.9             2.293e-010      0.00069374      -8.844e-008    
  0.95            7.19e-011       0.00085712      -8.647e-008    
  1               2.4135e-009     0.00102655      -1.1405e-007   
  1.05            1.0671e-009     0.0012103       -1.0108e-007   
  1.1             -2.4419e-009    0.0013986       -7.4152e-008   
  1.15            -1.6895e-009    0.0015908       -8.344e-008    
  1.2             2.158e-010      0.0017795       -7.536e-008    
  1.25            2.5851e-009     0.0019774       -6.8172e-008   
  1.3             1.6681e-009     0.0021759       -3.9619e-008   
  1.35            -2.4041e-009    0.0023865       -3.0941e-008   
  1.4             -1.7313e-009    0.0025914       -4.3571e-008   
  1.45            1.794e-010      0.0027893       -3.7844e-008   
  1.5             2.5446e-009     0.0029954       -3.6098e-008   
  1.55            1.7166e-009     0.0032002       -1.0731e-008   
  1.6             -2.6199e-009    0.0034118       -2.1723e-008   
  1.65            -1.1174e-009    0.0036207       -2.0982e-008   
  1.7             2.268e-009      0.0038224       -3.2531e-008   
  1.75            -2.0969e-009    0.0040308       -1.6241e-008   
  1.8             -3.622e-010     0.0042356       -1.6242e-008   
END_DB

BEGIN_DB
 ICCAP_VAR VS         0              
 ICCAP_VAR VB         -0.9           
 ICCAP_VAR VD         0.1            

 #VG              IG              ID              IB             
  0               -1.2743e-009    -2.4864e-009    -5.997e-009    
  0.05            -7.391e-010     -4.0339e-009    -9.376e-009    
  0.1             2.259e-009      1.7582e-009     -4.267e-009    
  0.15            -1.5695e-009    1.4941e-009     1.8623e-008    
  0.2             1.9811e-009     -2.823e-009     -1.4698e-008   
  0.25            -1.9266e-009    1.2118e-009     1.6861e-008    
  0.3             2.1784e-009     -1.0984e-009    -1.7165e-008   
  0.35            -2.0847e-009    1.7392e-009     1.6322e-008    
  0.4             1.9246e-009     4.7058e-009     -1.7079e-008   
  0.45            2.6886e-009     1.9263e-008     1.6509e-008    
  0.5             -1.4691e-009    1.05502e-007    1.6798e-008    
  0.55            1.2739e-009     4.212e-007      -1.7538e-008   
  0.6             -1.5631e-009    1.9495e-006     -7.13e-009     
  0.65            2.6914e-009     6.9352e-006     -1.2874e-008   
  0.7             5.077e-010      1.9013e-005     -1.5163e-008   
  0.75            -1.3974e-009    4.2591e-005     1.7707e-008    
  0.8             2.351e-009      7.6431e-005     -1.4566e-008   
  0.85            -3.359e-010     0.0001224       -1.5618e-008   
  0.9             1.7913e-009     0.00016985      -1.7137e-008   
  0.95            -2.3945e-009    0.0002211       1.1243e-008    
  1               2.0017e-009     0.00026798      -1.6579e-008   
  1.05            -1.412e-009     0.00031546      1.5573e-008    
  1.1             -1.0002e-009    0.00035853      -9.043e-009    
  1.15            2.7162e-009     0.00039722      -7.281e-009    
  1.2             -2.3289e-009    0.00043466      1.1711e-008    
  1.25            1.8717e-009     0.00046736      -1.6869e-008   
  1.3             -2.4255e-009    0.00049913      1.1073e-008    
  1.35            2.0764e-009     0.00052641      -1.6077e-008   
  1.4             -1.4571e-009    0.0005533       1.6761e-008    
  1.45            -9.655e-010     0.00057675      -9.231e-009    
  1.5             2.7138e-009     0.0005978       -6.814e-009    
  1.55            -1.377e-010     0.00061847      8.776e-009     
  1.6             -2.3166e-009    0.00063625      1.1912e-008    
  1.65            1.8479e-009     0.00065242      -1.6895e-008   
  1.7             -2.4194e-009    0.00066824      1.1118e-008    
  1.75            2.0569e-009     0.00068179      -1.6238e-008   
  1.8             -1.4473e-009    0.0006955       1.6362e-008    
END_DB

BEGIN_DB
 ICCAP_VAR VS         0              
 ICCAP_VAR VB         -0.9           
 ICCAP_VAR VD         1.8            

 #VG              IG              ID              IB             
  0               -1.792e-010     1.1604e-009     1.6163e-008    
  0.05            -2.591e-009     -5.29e-011      9.8e-009       
  0.1             1.936e-009      -2.8365e-009    -1.4195e-008   
  0.15            -1.9039e-009    1.2075e-009     1.6549e-008    
  0.2             2.1694e-009     -1.2347e-009    -1.6927e-008   
  0.25            -2.0854e-009    1.1182e-009     1.6252e-008    
  0.3             2.3576e-009     -6.125e-010     -1.6731e-008   
  0.35            -2.2502e-009    3.2241e-009     1.5187e-008    
  0.4             2.7157e-009     1.3128e-008     1.2966e-008    
  0.45            -1.3201e-009    7.0696e-008     1.2658e-008    
  0.5             -1.2443e-009    3.0683e-007     1.6494e-008    
  0.55            2.5922e-009     1.32e-006       1.6333e-008    
  0.6             -1.7631e-009    5.7492e-006     1.1789e-008    
  0.65            -5.258e-010     1.7049e-005     2.706e-009     
  0.7             1.4949e-009     4.3622e-005     -3.9354e-008   
  0.75            2.3304e-009     9.2654e-005     -3.0392e-008   
  0.8             2.5228e-009     0.0001676       -4.6209e-008   
  0.85            1.7332e-009     0.00026559      -5.9376e-008   
  0.9             -1.288e-010     0.00039138      -7.0075e-008   
  0.95            7.35e-010       0.00052954      -8.2328e-008   
  1               7.23e-010       0.00068374      -8.3981e-008   
  1.05            7.686e-010      0.00085066      -8.3131e-008   
  1.1             2.631e-009      0.0010233       -8.8547e-008   
  1.15            2.7016e-009     0.0012087       -6.7096e-008   
  1.2             1.3905e-009     0.0013929       -5.9264e-008   
  1.25            -1.5309e-009    0.0015949       -4.05e-008     
  1.3             -2.1876e-009    0.0017893       -5.8913e-008   
  1.35            -4.879e-010     0.0019897       -5.3684e-008   
  1.4             1.5457e-009     0.00219         -5.4718e-008   
  1.45            2.302e-009      0.0023969       -2.4839e-008   
  1.5             4.729e-010      0.0026041       -1.693e-008    
  1.55            -2.482e-009     0.00281         -2.3575e-008   
  1.6             -1.6221e-009    0.0030213       -2.6033e-008   
  1.65            2.6614e-009     0.003221        -2.6328e-008   
  1.7             -2.0882e-009    0.0034353       1.338e-009     
  1.75            -1.905e-009     0.0036402       -1.9058e-008   
  1.8             -6.8e-011       0.0038436       -1.635e-008    
END_DB

BEGIN_DB
 ICCAP_VAR VS         0              
 ICCAP_VAR VB         -1.8           
 ICCAP_VAR VD         0.1            

 #VG              IG              ID              IB             
  0               -1.347e-010     1.2481e-009     1.6128e-008    
  0.05            -2.5772e-009    2.81e-011       1.0375e-008    
  0.1             1.833e-009      -2.8836e-009    -1.2489e-008   
  0.15            -1.819e-009     1.258e-009      1.6518e-008    
  0.2             2.0875e-009     -1.3055e-009    -1.6654e-008   
  0.25            -2.0254e-009    1.0817e-009     1.6075e-008    
  0.3             2.3049e-009     -1.1101e-009    -1.663e-008    
  0.35            -2.2121e-009    9.61e-010       1.5289e-008    
  0.4             2.4807e-009     -6.103e-010     -1.5722e-008   
  0.45            -2.3617e-009    2.3561e-009     1.3839e-008    
  0.5             1.0448e-009     1.3426e-008     1.2811e-008    
  0.55            2.1275e-009     4.8146e-008     -1.5566e-008   
  0.6             -8.223e-010     2.1469e-007     1.2802e-008    
  0.65            2.7008e-009     9.7454e-007     -7.135e-009    
  0.7             -2.2087e-009    3.6462e-006     -1.5355e-008   
  0.75            2.5439e-009     1.1665e-005     -9.361e-009    
  0.8             -1.7765e-009    2.9858e-005     1.5351e-008    
  0.85            2.691e-009      5.8629e-005     -1.2274e-008   
  0.9             -2.1716e-009    0.000100037     1.3137e-008    
  0.95            -4.712e-010     0.00014797      -1.6552e-008   
  1               1.5665e-009     0.00019637      -1.6361e-008   
  1.05            -2.3143e-009    0.00024706      1.2315e-008    
  1.1             1.8146e-009     0.00029276      -1.6737e-008   
  1.15            -2.4336e-009    0.00033835      1.1437e-008    
  1.2             2.0573e-009     0.00037794      -1.5928e-008   
  1.25            -1.446e-009     0.00041684      1.6275e-008    
  1.3             2.4467e-009     0.00045016      -1.3947e-008   
  1.35            -1.62e-009      0.0004825       1.5995e-008    
  1.4             -8.545e-010     0.0005114       -9.574e-009    
  1.45            2.7086e-009     0.00053723      -6.937e-009    
  1.5             -1.31e-009      0.00056213      1.2132e-008    
  1.55            2.2285e-009     0.00058299      -1.5308e-008   
  1.6             -1.5783e-009    0.00060401      1.9687e-008    
  1.65            2.5547e-009     0.00062173      -1.2418e-008   
  1.7             -1.7854e-009    0.00063896      1.5473e-008    
  1.75            2.6508e-009     0.00065405      -9.514e-009    
  1.8             -1.9939e-009    0.00066857      1.4222e-008    
END_DB

BEGIN_DB
 ICCAP_VAR VS         0              
 ICCAP_VAR VB         -1.8           
 ICCAP_VAR VD         1.8            

 #VG              IG              ID              IB             
  0               -2.748e-010     1.0187e-009     -9.4e-009      
  0.05            -2.5905e-009    -2.152e-010     8.586e-009     
  0.1             2.1483e-009     -2.7133e-009    -1.7023e-008   
  0.15            -2.0856e-009    1.0363e-009     1.5322e-008    
  0.2             2.5184e-009     -2.4108e-009    -2.2531e-008   
  0.25            -2.3995e-009    7.082e-010      1.3815e-008    
  0.3             2.6374e-009     -6.094e-010     -1.4654e-008   
  0.35            -2.4946e-009    8.149e-010      1.3055e-008    
  0.4             2.6938e-009     2.9355e-009     -1.3378e-008   
  0.45            1.8908e-009     1.0143e-008     -6.909e-009    
  0.5             -2.4884e-009    4.9184e-008     1.111e-008     
  0.55            -5.11e-010      2.2499e-007     1.0375e-008    
  0.6             1.4856e-009     1.0516e-006     -1.68e-008     
  0.65            -2.2396e-009    3.8353e-006     -1.5232e-008   
  0.7             2.5874e-009     1.2608e-005     -1.5191e-008   
  0.75            -1.6894e-009    3.5756e-005     5.235e-009     
  0.8             -2.0816e-009    7.7948e-005     -3.8137e-008   
  0.85            -2.5491e-009    0.00014699      -5.3494e-008   
  0.9             -1.5077e-009    0.00024447      -6.7725e-008   
  0.95            2.719e-009      0.00035862      -8.2905e-008   
  1               1.4109e-009     0.00049228      -6.7562e-008   
  1.05            -1.4606e-009    0.00065168      -6.1027e-008   
  1.1             -2.2273e-009    0.00081374      -8.3509e-008   
  1.15            -5.217e-010     0.00098943      -8.242e-008    
  1.2             -7.919e-010     0.0011724       -4.186e-008    
  1.25            -2.5726e-009    0.0013631       -5.6501e-008   
  1.3             -9.945e-010     0.0015563       -6.1711e-008   
  1.35            2.5078e-009     0.0017494       -6.9374e-008   
  1.4             1.769e-009      0.0019498       -3.134e-008    
  1.45            -8.74e-011      0.0021578       -2.619e-008    
  1.5             -1.8967e-009    0.0023619       -2.7758e-008   
  1.55            -1.9777e-009    0.0025662       -3.2416e-008   
  1.6             -2.035e-010     0.002772        -2.9088e-008   
  1.65            2.0159e-009     0.0029767       -3.2287e-008   
  1.7             2.0643e-009     0.0031868       -6.06e-009     
  1.75            -2.27e-009      0.0033951       -1.8295e-008   
  1.8             -5.689e-010     0.0036022       -1.9373e-008   
END_DB

