! VERSION = 6.00
BEGIN_HEADER
 ICCAP_INPUTS
  VG         V  B GROUND SMU4 0.001 LIN        2    0          1.8        6    0.36      
  VS         V  E GROUND SMU2 0.1 CON        0
  VD         V  S GROUND SMU1 0.1 LIN        1    0          1.8        37   0.05      
  VB         V  C GROUND SMU3 0.1 LIN        3    0          -0.9       2    -0.9      
 ICCAP_OUTPUTS
  ID         I  S GROUND SMU1 B
  IB         I  C GROUND SMU3 B
  IG         I  B GROUND SMU4 B
END_HEADER

BEGIN_DB
 ICCAP_VAR VG         0              
 ICCAP_VAR VS         0              
 ICCAP_VAR VB         0              

 #VD              ID              IB              IG             
  0               8.319e-010      2.7537e-008     8.591e-010     
  0.05            -1.4485e-009    -2.0121e-008    1.2812e-009    
  0.1             -1.62e-011      -1.163e-008     2.8708e-009    
  0.15            2.3366e-009     -5.17e-010      7.553e-010     
  0.2             1.6171e-009     1.6559e-008     -1.7912e-009   
  0.25            -1.6943e-009    4.922e-009      -1.5811e-009   
  0.3             -1.4327e-009    -2.1084e-008    1.2821e-009    
  0.35            1.23e-011       -1.1124e-008    2.8705e-009    
  0.4             1.4918e-009     -2.85e-010      1.7572e-009    
  0.45            2.202e-009      1.1232e-008     3.75e-010      
  0.5             2.2814e-009     1.0444e-008     5.584e-010     
  0.55            2.3329e-009     9.576e-009      7.284e-010     
  0.6             1.5837e-009     1.729e-008      -1.2894e-009   
  0.65            2.435e-010      1.2471e-008     -2.5836e-009   
  0.7             -2.2137e-009    6.16e-010       -1.0082e-009   
  0.75            -1.6835e-009    -1.1828e-008    1.5978e-009    
  0.8             2.3478e-009     -8.639e-009     8.151e-010     
  0.85            1.6708e-009     1.4821e-008     -1.6891e-009   
  0.9             -1.5971e-009    5.521e-009      -1.6486e-009   
  0.95            -1.4868e-009    -1.9225e-008    2.2848e-009    
  1               2.0812e-009     -5.151e-009     1.2826e-009    
  1.05            1.2079e-009     2.7501e-008     -1.3749e-009   
  1.1             -2.0829e-009    1.1293e-008     -1.2241e-009   
  1.15            -1.9173e-009    -1.1682e-008    -1.3818e-009   
  1.2             -1.2794e-009    -2.5164e-008    1.3253e-009    
  1.25            2.2144e-009     -8.942e-009     1.1482e-009    
  1.3             1.9109e-009     1.1023e-008     -2.211e-010    
  1.35            8.582e-010      2.4124e-008     -1.6102e-009   
  1.4             -1.5158e-009    6.406e-009      -1.7134e-009   
  1.45            -2.1334e-009    -1.2024e-008    -3e-010        
  1.5             -2.1871e-009    -1.1681e-008    -5.109e-010    
  1.55            -2.2259e-009    -1.091e-008     -7.094e-010    
  1.6             -2.2365e-009    -1.0003e-008    -8.486e-010    
  1.65            -1.5971e-009    -1.3757e-008    1.8825e-009    
  1.7             1.7785e-009     -8.377e-009     1.4013e-009    
  1.75            1.5413e-009     1.0745e-008     1.3887e-009    
  1.8             2.1763e-009     1.1439e-008     1.573e-010     
END_DB

BEGIN_DB
 ICCAP_VAR VG         0.36           
 ICCAP_VAR VS         0              
 ICCAP_VAR VB         0              

 #VD              ID              IB              IG             
  0               -7.259e-010     -2.0851e-008    -5.883e-010    
  0.05            3.0739e-009     1.2739e-008     -1.5684e-009   
  0.1             1.229e-009      6.67e-009       -1.444e-009    
  0.15            1.4847e-009     9.086e-009      -1.3902e-009   
  0.2             1.6859e-009     1.0542e-008     -1.3637e-009   
  0.25            1.952e-009      1.1644e-008     -1.336e-009    
  0.3             2.2533e-009     1.1429e-008     -2.705e-009    
  0.35            2.336e-009      -2.0957e-008    1.2846e-009    
  0.4             2.1449e-009     -1.1228e-008    2.8726e-009    
  0.45            2.8461e-009     -4.34e-010      2.841e-009     
  0.5             3.9867e-009     2.0592e-008     -1.3165e-009   
  0.55            2.7644e-009     1.1623e-008     -2.6724e-009   
  0.6             1.5346e-009     7.99e-010       -2.5435e-009   
  0.65            1.9764e-009     9.34e-010       -2.3486e-009   
  0.7             2.1712e-009     1.754e-009      -2.1049e-009   
  0.75            2.3904e-009     2.709e-009      -1.8556e-009   
  0.8             2.6589e-009     4.281e-009      -1.6396e-009   
  0.85            2.9313e-009     5.723e-009      -1.4904e-009   
  0.9             3.1942e-009     8.05e-009       -1.4102e-009   
  0.95            3.5125e-009     9.84e-009       -1.3724e-009   
  1               3.7004e-009     1.1169e-008     -1.3448e-009   
  1.05            4.0191e-009     1.1599e-008     -1.3175e-009   
  1.1             4.2913e-009     1.1576e-008     -2.681e-009    
  1.15            2.623e-009      -1.9208e-008    1.2698e-009    
  1.2             3.9441e-009     -1.2273e-008    2.8606e-009    
  1.25            5.5051e-009     2.3178e-008     -1.3284e-009   
  1.3             4.8933e-009     1.146e-008      -2.6958e-009   
  1.35            3.3562e-009     -2.07e-008      1.2793e-009    
  1.4             5.0562e-009     -1.144e-008     2.8633e-009    
  1.45            6.5921e-009     2.4358e-008     -1.3409e-009   
  1.5             5.7187e-009     1.1301e-008     -2.7077e-009   
  1.55            4.0831e-009     -2.197e-008     1.2891e-009    
  1.6             5.3885e-009     -1.0381e-008    2.8649e-009    
  1.65            6.7405e-009     -6.3e-011       2.8423e-009    
  1.7             7.1348e-009     2.1699e-008     -1.3198e-009   
  1.75            6.646e-009      1.1576e-008     -2.6787e-009   
  1.8             4.0588e-009     -9.508e-009     -1.0877e-009   
END_DB

BEGIN_DB
 ICCAP_VAR VG         0.72           
 ICCAP_VAR VS         0              
 ICCAP_VAR VB         0              

 #VD              ID              IB              IG             
  0               3.932e-009      1.1512e-008     1.192e-009     
  0.05            4.5599e-006     -5.029e-009     -1.0369e-009   
  0.1             7.0756e-006     2.5659e-008     -1.4004e-009   
  0.15            8.1048e-006     1.0039e-008     9.021e-010     
  0.2             8.9183e-006     -2.3405e-008    1.4407e-009    
  0.25            9.3234e-006     -1.1154e-008    -8.877e-010    
  0.3             9.985e-006      2.2232e-008     -1.4791e-009   
  0.35            9.9382e-006     1.0977e-008     7.488e-010     
  0.4             1.03878e-005    -2.0059e-008    1.6211e-009    
  0.45            1.06889e-005    -1.1841e-008    -7.362e-010    
  0.5             1.12414e-005    1.8539e-008     2.924e-010     
  0.55            1.1297e-005     -1.6314e-008    6.094e-010     
  0.6             1.175e-005      -2.4154e-008    1.4079e-009    
  0.65            1.2002e-005     -1.1594e-008    -1.106e-010    
  0.7             1.2564e-005     1.64e-008       -1.8226e-009   
  0.75            1.2506e-005     1.047e-008      7.931e-010     
  0.8             1.3011e-005     -2.6141e-008    1.3258e-009    
  0.85            1.3419e-005     -1.0492e-008    -1.4419e-009   
  0.9             1.389e-005      1.8246e-008     -1.5919e-009   
  0.95            1.3717e-005     9.594e-009      9.456e-010     
  1               1.4406e-005     -2.6052e-008    1.2848e-009    
  1.05            1.4541e-005     -1.1964e-008    -5.804e-010    
  1.1             1.5194e-005     2.3291e-008     -1.4495e-009   
  1.15            1.5615e-005     2.7828e-008     -1.3312e-009   
  1.2             1.5689e-005     1.1353e-008     5.751e-010     
  1.25            1.6174e-005     -2.3953e-008    1.427e-009     
  1.3             1.6473e-005     -2.4602e-008    1.2666e-009    
  1.35            1.6703e-005     -1.206e-008     -7.112e-010    
  1.4             1.7773e-005     2.5251e-008     -1.4042e-009   
  1.45            1.7732e-005     1.5533e-008     -1.7938e-009   
  1.5             1.81e-005       1.0407e-008     -2.4719e-009   
  1.55            1.8499e-005     1.5272e-008     -1.7414e-009   
  1.6             1.8943e-005     8.966e-009      -2.4296e-009   
  1.65            1.9668e-005     1.3358e-008     -1.688e-009    
  1.7             1.9715e-005     5.856e-009      -2.3743e-009   
  1.75            2.0274e-005     1.672e-009      -1.3047e-009   
  1.8             2.0043e-005     -6.488e-009     2.8566e-009    
END_DB

BEGIN_DB
 ICCAP_VAR VG         1.08           
 ICCAP_VAR VS         0              
 ICCAP_VAR VB         0              

 #VD              ID              IB              IG             
  0               -5.2027e-008    -1.1824e-008    -7.1e-010      
  0.05            2.9946e-005     1.4735e-008     -6.752e-010    
  0.1             5.4986e-005     2.518e-008      -1.4162e-009   
  0.15            7.4589e-005     2.6743e-008     -1.3168e-009   
  0.2             8.89e-005       1.1202e-008     6.613e-010     
  0.25            9.9311e-005     -2.5456e-008    1.3797e-009    
  0.3             0.00010685      -2.2693e-008    1.2519e-009    
  0.35            0.000112106     -1.1486e-008    -7.831e-010    
  0.4             0.00011627      1.7703e-008     5.152e-010     
  0.45            0.00011908      -1.8458e-008    1.7596e-009    
  0.5             0.00012169      -1.1662e-008    -7.567e-010    
  0.55            0.00012421      2.1422e-008     -1.5037e-009   
  0.6             0.00012559      1.0259e-008     8.157e-010     
  0.65            0.00012778      -2.404e-008     1.4252e-009    
  0.7             0.00012955      -2.655e-008     1.3132e-009    
  0.75            0.00013114      -2.4039e-008    1.2623e-009    
  0.8             0.00013263      -1.1808e-008    -4.496e-010    
  0.85            0.00013465      1.6488e-008     -1.7801e-009   
  0.9             0.00013575      1.1372e-008     5.755e-010     
  0.95            0.00013688      -1.9076e-008    1.6812e-009    
  1               0.00013934      -1.1397e-008    -8.012e-010    
  1.05            0.00014043      2.27e-008       -1.4704e-009   
  1.1             0.00014209      2.7005e-008     -1.3802e-009   
  1.15            0.00014342      2.7995e-008     -1.3345e-009   
  1.2             0.00014453      2.3089e-008     -1.7634e-009   
  1.25            0.00014537      1.1255e-008     5.867e-010     
  1.3             0.0001466       -1.9603e-008    1.6712e-009    
  1.35            0.00014801      -1.1847e-008    -8.083e-010    
  1.4             0.00014995      2.1803e-008     -1.4648e-009   
  1.45            0.00015109      1.054e-008      -2.3664e-009   
  1.5             0.00015234      1.1368e-008     -1.9654e-009   
  1.55            0.0001527       5.691e-009      1.9649e-009    
  1.6             0.00015434      -1.9586e-008    2.029e-010     
  1.65            0.00015638      -8.66e-010      -2.5731e-009   
  1.7             0.00015626      -8.386e-009     1.5021e-009    
  1.75            0.00015849      -4.5178e-008    1.805e-009     
  1.8             0.00015975      -4.9787e-008    -2.0334e-009   
END_DB

BEGIN_DB
 ICCAP_VAR VG         1.44           
 ICCAP_VAR VS         0              
 ICCAP_VAR VB         0              

 #VD              ID              IB              IG             
  0               -8.5616e-008    4.628e-009      1.4934e-009    
  0.05            5.0979e-005     1.04e-008       -1.5895e-009   
  0.1             9.7422e-005     9.538e-009      9.328e-010     
  0.15            0.00013866      -2.6954e-008    -1.1525e-009   
  0.2             0.00017335      2.8792e-008     -1.3565e-009   
  0.25            0.00020184      2.5737e-008     -1.3039e-009   
  0.3             0.00022381      1.1136e-008     1.4773e-009    
  0.35            0.0002423       -1.8219e-008    1.8273e-009    
  0.4             0.00025606      -1.1838e-008    -7.155e-010    
  0.45            0.00026719      2.0468e-008     -1.5374e-009   
  0.5             0.00027511      1.0469e-008     7.851e-010     
  0.55            0.00028177      -2.3291e-008    1.4503e-009    
  0.6             0.00028725      -1.0204e-008    -9.785e-010    
  0.65            0.00029214      2.6982e-008     -1.3904e-009   
  0.7             0.0002948       8.989e-009      1.0415e-009    
  0.75            0.00029849      -2.6704e-008    1.3142e-009    
  0.8             0.00030151      -2.3788e-008    1.2611e-009    
  0.85            0.00030422      -1.1866e-008    -4.59e-010     
  0.9             0.00030739      1.6708e-008     -1.7587e-009   
  0.95            0.00030944      1.1377e-008     5.827e-010     
  1               0.00031162      -1.9332e-008    1.6657e-009    
  1.05            0.0003139       -1.1282e-008    -8.156e-010    
  1.1             0.00031665      2.3013e-008     -1.4603e-009   
  1.15            0.0003186       2.7507e-008     -1.3799e-009   
  1.2             0.00032071      2.7896e-008     -1.3326e-009   
  1.25            0.00032267      2.2254e-008     -1.7361e-009   
  1.3             0.00032419      1.1118e-008     6.07e-010      
  1.35            0.00032587      -2.0194e-008    1.6386e-009    
  1.4             0.00032793      -1.2052e-008    -8.307e-010    
  1.45            0.00033027      2.1965e-008     -1.4477e-009   
  1.5             0.00033202      9.854e-009      -2.334e-009    
  1.55            0.00033386      1.0222e-008     -1.9169e-009   
  1.6             0.00033556      4.049e-009      -1.2942e-009   
  1.65            0.00033657      -3.882e-009     2.775e-009     
  1.7             0.00033881      -2.7719e-008    -1.0263e-009   
  1.75            0.00034103      5.65e-010       -1.3793e-009   
  1.8             0.00034182      -3.2024e-008    2.469e-009     
END_DB

BEGIN_DB
 ICCAP_VAR VG         1.8            
 ICCAP_VAR VS         0              
 ICCAP_VAR VB         0              

 #VD              ID              IB              IG             
  0               -9.9962e-008    2.7635e-008     1.973e-009     
  0.05            6.4402e-005     1.1473e-008     -6.57e-011     
  0.1             0.00012551      1.5956e-008     4.04e-010      
  0.15            0.00018155      -1.7394e-008    1.8952e-009    
  0.2             0.00023169      -1.1955e-008    -6.642e-010    
  0.25            0.00027585      1.9391e-008     -1.5736e-009   
  0.3             0.00031346      1.0786e-008     7.45e-010      
  0.35            0.00034535      -2.2518e-008    1.4794e-009    
  0.4             0.0003722       -1.0414e-008    -9.483e-010    
  0.45            0.00039442      2.6435e-008     -1.3987e-009   
  0.5             0.00041194      9.039e-009      1.0141e-009    
  0.55            0.00042678      -2.6545e-008    1.325e-009     
  0.6             0.0004388       -2.4486e-008    1.2697e-009    
  0.65            0.00044855      -1.1938e-008    -4.171e-010    
  0.7             0.00045717      1.6026e-008     -1.8093e-009   
  0.75            0.00046354      1.1382e-008     5.615e-010     
  0.8             0.00046906      -1.8532e-008    1.7071e-009    
  0.85            0.00047407      -1.168e-008     -7.798e-010    
  0.9             0.00047879      2.2028e-008     -1.4776e-009   
  0.95            0.00048231      1.0372e-008     8.545e-010     
  1               0.0004858       -2.4707e-008    1.3973e-009    
  1.05            0.00048953      -1.0009e-008    -1.0507e-009   
  1.1             0.00049285      2.7664e-008     -1.3749e-009   
  1.15            0.00049587      2.7574e-008     -1.3277e-009   
  1.2             0.00049864      2.1647e-008     -1.7062e-009   
  1.25            0.00050084      1.117e-008      6.285e-010     
  1.3             0.00050314      -2.0107e-008    1.6039e-009    
  1.35            0.00050592      -1.1383e-008    -8.534e-010    
  1.4             0.00050871      2.3179e-008     -1.436e-009    
  1.45            0.00051112      2.663e-008      -1.3684e-009   
  1.5             0.0005134       1.3263e-008     -1.8745e-009   
  1.55            0.00051482      6.72e-009       2.0153e-009    
  1.6             0.00051729      -1.6867e-008    1.506e-010     
  1.65            0.00052018      3.164e-009      -2.5069e-009   
  1.7             0.00052195      -2.06e-010      -2.1401e-009   
  1.75            0.00052319      -9.47e-009      1.8494e-009    
  1.8             0.00052551      -4.2681e-008    2.933e-010     
END_DB

BEGIN_DB
 ICCAP_VAR VG         0              
 ICCAP_VAR VS         0              
 ICCAP_VAR VB         -0.9           

 #VD              ID              IB              IG             
  0               1.4134e-009     -1.1977e-008    1.3422e-009    
  0.05            2.2624e-009     -8.598e-009     1.1092e-009    
  0.1             1.0574e-009     2.8228e-008     -1.4121e-009   
  0.15            -2.1957e-009    9.96e-009       -1.0762e-009   
  0.2             -1.7236e-009    -1.1502e-008    1.4905e-009    
  0.25            2.353e-009      -8.646e-009     9.042e-010     
  0.3             1.7448e-009     1.2642e-008     -1.5554e-009   
  0.35            -1.4459e-009    7.253e-009      -1.7624e-009   
  0.4             -2.1512e-009    -1.1856e-008    -3.986e-010    
  0.45            -2.2043e-009    -1.1033e-008    -6.03e-010     
  0.5             -1.4886e-009    -1.8695e-008    1.2699e-009    
  0.55            -9.67e-011      -1.278e-008     2.8568e-009    
  0.6             1.4382e-009     2.172e-008      -1.3201e-009   
  0.65            1.144e-010      1.1609e-008     -2.6841e-009   
  0.7             -2.0382e-009    -1.1953e-008    -5.87e-011     
  0.75            -2.1242e-009    -1.2052e-008    -2.784e-010    
  0.8             -2.1749e-009    -1.135e-008     -5.055e-010    
  0.85            -2.2206e-009    -1.0333e-008    -7.271e-010    
  0.9             -1.5486e-009    -1.5933e-008    2.0857e-009    
  0.95            1.9348e-009     -7.039e-009     1.3966e-009    
  1               1.3064e-009     2.5764e-008     -1.3531e-009   
  1.05            -1.9461e-009    1.1921e-008     -1.3717e-009   
  1.1             -1.937e-009     -1.1816e-008    1.088e-010     
  1.15            -1.019e-009     -2.5835e-008    1.4947e-009    
  1.2             2.3553e-009     -8.48e-009      9.021e-010     
  1.25            1.7529e-009     1.2781e-008     -1.5565e-009   
  1.3             -1.4427e-009    6.621e-009      -1.7532e-009   
  1.35            -2.1479e-009    -1.1814e-008    -3.963e-010    
  1.4             -2.2027e-009    -1.0856e-008    -6.172e-010    
  1.45            -1.4977e-009    -1.8281e-008    1.271e-009     
  1.5             -9.35e-011      -1.2828e-008    2.8659e-009    
  1.55            1.4363e-009     2.164e-008      -1.322e-009    
  1.6             1.079e-010      1.1816e-008     -2.6888e-009   
  1.65            -1.4889e-009    -1.8389e-008    1.2707e-009    
  1.7             -9.18e-011      -1.2898e-008    2.865e-009     
  1.75            1.4305e-009     2.1763e-008     -1.3212e-009   
  1.8             1.054e-010      1.165e-008      -2.683e-009    
END_DB

BEGIN_DB
 ICCAP_VAR VG         0.36           
 ICCAP_VAR VS         0              
 ICCAP_VAR VB         -0.9           

 #VD              ID              IB              IG             
  0               9.334e-010      1.6236e-008     1.0483e-009    
  0.05            -9.64e-010      -2.5401e-008    1.5415e-009    
  0.1             1.4768e-009     -8.27e-009      1.7883e-009    
  0.15            2.2659e-009     1.0975e-008     4.437e-010     
  0.2             1.4146e-009     2.4426e-008     -1.3387e-009   
  0.25            8.19e-011       1.1563e-008     -2.6979e-009   
  0.3             -1.3698e-009    -2.1212e-008    1.2826e-009    
  0.35            6.51e-011       -1.1108e-008    2.8655e-009    
  0.4             1.5291e-009     -4.2e-010       1.7708e-009    
  0.45            2.2805e-009     1.1154e-008     4.264e-010     
  0.5             2.368e-009      1.0434e-008     6.114e-010     
  0.55            1.5769e-009     2.029e-008      -1.3082e-009   
