! VERSION = 6.00
BEGIN_HEADER
 ICCAP_INPUTS
  VG         V  B GROUND SMU4 0.001 LIN        2    0          1.8        6    0.36      
  VS         V  E GROUND SMU2 0.1 CON        0
  VD         V  S GROUND SMU1 0.1 LIN        1    0          1.8        37   0.05      
  VB         V  C GROUND SMU3 0.1 LIN        3    0          -0.9       2    -0.9      
 ICCAP_OUTPUTS
  ID         I  S GROUND SMU1 B
  IB         I  C GROUND SMU3 B
  IG         I  B GROUND SMU4 B
END_HEADER

BEGIN_DB
 ICCAP_VAR VG         0              
 ICCAP_VAR VS         0              
 ICCAP_VAR VB         0              

 #VD              ID              IB              IG             
  0               1.3358e-009     5.626e-009      1.3022e-009    
  0.05            2.2041e-009     -8.523e-009     1.0391e-009    
  0.1             9.792e-010      2.7086e-008     -1.392e-009    
  0.15            -2.1369e-009    8.769e-009      -9.797e-010    
  0.2             -2.0571e-009    -1.0088e-008    -1.1111e-009   
  0.25            -1.0282e-009    -2.5673e-008    1.394e-009     
  0.3             2.2764e-009     -8.392e-009     8.996e-010     
  0.35            1.6978e-009     1.2002e-008     -1.486e-009    
  0.4             -2.156e-009     6.59e-009       -8.395e-010    
  0.45            -1.5565e-009    -1.2525e-008    1.7708e-009    
  0.5             2.2317e-009     -8.087e-009     6.082e-010     
  0.55            1.4411e-009     1.8636e-008     -1.2711e-009   
  0.6             1.476e-010      1.1337e-008     -2.5962e-009   
  0.65            -2.0606e-009    -9.723e-009     -1.0993e-009   
  0.7             -1.0101e-009    -2.5828e-008    1.4031e-009    
  0.75            2.2782e-009     -8.289e-009     8.897e-010     
  0.8             1.6895e-009     1.2129e-008     -1.5016e-009   
  0.85            -2.156e-009     6.438e-009      -8.272e-010    
  0.9             -1.5504e-009    -1.2816e-008    1.7987e-009    
  0.95            1.6991e-009     -8.038e-009     1.4633e-009    
  1               1.9023e-009     1.0209e-008     -1.145e-010    
  1.05            9.003e-010      2.5756e-008     -1.4479e-009   
  1.1             -2.1543e-009    7.441e-009      -8.809e-010    
  1.15            -1.5793e-009    -1.1843e-008    1.6899e-009    
  1.2             2.247e-009      -8.465e-009     6.639e-010     
  1.25            1.4872e-009     1.692e-008      -1.8022e-009   
  1.3             -1.6883e-009    3.71e-009       -1.4666e-009   
  1.35            -1.3178e-009    -2.1804e-008    2.425e-009     
  1.4             2.1528e-009     -2.751e-009     1.1055e-009    
  1.45            1.0315e-009     2.7601e-008     -1.367e-009    
  1.5             -2.1076e-009    9.538e-009      -1.0401e-009   
  1.55            -9.617e-010     -2.5352e-008    1.4632e-009    
  1.6             2.282e-009      -8.275e-009     8.356e-010     
  1.65            2.2497e-009     8.81e-009       9.621e-010     
  1.7             1.7467e-009     1.1412e-008     -1.4394e-009   
  1.75            -2.1498e-009    7.405e-009      -8.999e-010    
  1.8             -1.5839e-009    -1.1885e-008    1.6656e-009    
END_DB

BEGIN_DB
 ICCAP_VAR VG         0.36           
 ICCAP_VAR VS         0              
 ICCAP_VAR VB         0              

 #VD              ID              IB              IG             
  0               1.2394e-009     -1.4427e-008    1.5572e-009    
  0.05            6.1993e-008     -9.763e-009     -2.1409e-009   
  0.1             7.381e-008      1.1125e-008     -1.257e-010    
  0.15            7.2521e-008     -8.556e-009     2.7905e-009    
  0.2             7.1816e-008     -1.0367e-008    -9.266e-010    
  0.25            7.6675e-008     1.8716e-008     -1.5692e-009   
  0.3             7.6731e-008     1.0667e-008     2.962e-010     
  0.35            7.5206e-008     -1.3036e-008    2.5499e-009    
  0.4             7.402e-008      -1.1679e-008    2.871e-010     
  0.45            7.6274e-008     9.099e-009      -1.3018e-009   
  0.5             7.659e-008      9.268e-009      9.302e-010     
  0.55            7.6224e-008     -2.0114e-008    1.5517e-009    
  0.6             7.6067e-008     -1.9323e-008    1.8675e-009    
  0.65            7.4992e-008     -1.1481e-008    -1.45e-010     
  0.7             7.9292e-008     1.1187e-008     -2.5138e-009   
  0.75            8.1024e-008     1.4934e-008     -1.45e-009     
  0.8             7.7799e-008     9.81e-009       1.9329e-009    
  0.85            7.7049e-008     -1.4488e-008    1.5882e-009    
  0.9             7.5744e-008     -1.1227e-008    -3.928e-010    
  0.95            8.0941e-008     1.1787e-008     -2.3005e-009   
  1               8.1954e-008     1.1962e-008     -1.3681e-009   
  1.05            8.0554e-008     1.0575e-008     6.469e-010     
  1.1             7.9333e-008     -1.5836e-008    2.038e-009     
  1.15            7.75e-008       -1.129e-008     -1.6363e-009   
  1.2             8.1252e-008     1.1709e-008     -2.5809e-009   
  1.25            8.3121e-008     1.7439e-008     -1.5253e-009   
  1.3             8.3445e-008     2.327e-008      -1.791e-009    
  1.35            8.2658e-008     1.3714e-008     -1.9406e-009   
  1.4             8.3748e-008     2.7452e-008     -1.3193e-009   
  1.45            8.097e-008      9.736e-009      8.678e-010     
  1.5             8.0249e-008     -1.8883e-008    1.6487e-009    
  1.55            8.0151e-008     -2.1289e-008    1.997e-009     
  1.6             8.0435e-008     -2.5473e-008    2.367e-009     
  1.65            7.9645e-008     -1.1306e-008    1.659e-010     
  1.7             8.2323e-008     1.0054e-008     -2.6489e-009   
  1.75            8.1932e-008     9.718e-009      8.406e-010     
  1.8             8.1331e-008     -1.8721e-008    1.689e-009     
END_DB

BEGIN_DB
 ICCAP_VAR VG         0.72           
 ICCAP_VAR VS         0              
 ICCAP_VAR VB         0              

 #VD              ID              IB              IG             
  0               9.954e-009      -1.1271e-008    1.5093e-009    
  0.05            3.4757e-006     1.0141e-008     2.7893e-009    
  0.1             6.1555e-006     -1.3979e-008    1.5455e-009    
  0.15            8.0678e-006     -1.1443e-008    -7.209e-010    
  0.2             9.2455e-006     1.8525e-008     -1.5772e-009   
  0.25            9.7567e-006     1.085e-008      5.453e-010     
  0.3             9.8853e-006     -1.7975e-008    1.814e-009     
  0.35            9.9611e-006     -1.7855e-008    1.7877e-009    
  0.4             9.9951e-006     -1.7509e-008    1.7492e-009    
  0.45            1.00209e-005    -1.7073e-008    1.7341e-009    
  0.5             1.00545e-005    -1.1443e-008    -5.711e-010    
  0.55            1.01357e-005    1.6287e-008     -1.7384e-009   
  0.6             1.00714e-005    1.0571e-008     1.8921e-009    
  0.65            1.00885e-005    -1.1785e-008    1.3946e-009    
  0.7             1.0155e-005     -1.0921e-008    -8.567e-010    
  0.75            1.02105e-005    2.1844e-008     -1.4419e-009   
  0.8             1.01791e-005    1.0688e-008     7.061e-010     
  0.85            1.01541e-005    -1.9763e-008    1.5781e-009    
  0.9             1.01989e-005    -1.1477e-008    -6.901e-010    
  0.95            1.02652e-005    1.7981e-008     -1.606e-009    
  1               1.02545e-005    1.0727e-008     5.207e-010     
  1.05            1.02114e-005    -1.7591e-008    1.8548e-009    
  1.1             1.02345e-005    -1.8555e-008    1.8323e-009    
  1.15            1.02462e-005    -1.8177e-008    1.7991e-009    
  1.2             1.02553e-005    -1.78e-008      1.7755e-009    
  1.25            1.0273e-005     -1.1387e-008    -5.353e-010    
  1.3             1.0348e-005     1.5875e-008     -1.7813e-009   
  1.35            1.02689e-005    1.0583e-008     1.8629e-009    
  1.4             1.02829e-005    -1.1949e-008    1.4142e-009    
  1.45            1.0338e-005     -1.1172e-008    -8.32e-010     
  1.5             1.03872e-005    2.1033e-008     -1.4595e-009   
  1.55            1.03534e-005    1.0535e-008     6.779e-010     
  1.6             1.03203e-005    -1.9847e-008    1.615e-009     
  1.65            1.0359e-005     -1.2089e-008    -6.64e-010     
  1.7             1.04222e-005    1.697e-008      -1.6361e-009   
  1.75            1.0353e-005     9.369e-009      1.9655e-009    
  1.8             1.03502e-005    -1.3085e-008    2.476e-010     
END_DB

BEGIN_DB
 ICCAP_VAR VG         1.08           
 ICCAP_VAR VS         0              
 ICCAP_VAR VB         0              

 #VD              ID              IB              IG             
  0               1.473e-008      -2.3918e-008    -9.966e-010    
  0.05            7.9826e-006     1.1244e-008     1.7795e-009    
  0.1             1.5228e-005     -1.5198e-008    1.8324e-009    
  0.15            2.172e-005      -1.9665e-008    1.5745e-009    
  0.2             2.7449e-005     -2.5482e-008    1.2567e-009    
  0.25            3.2445e-005     -1.1189e-008    -4.301e-010    
  0.3             3.6702e-005     2.0779e-008     -1.4853e-009   
  0.35            4.0002e-005     9.016e-009      9.67e-010      
  0.4             4.2601e-005     -2.3775e-008    1.2251e-009    
  0.45            4.4448e-005     -1.1518e-008    -6.362e-010    
  0.5             4.5636e-005     2.4189e-008     -1.39e-009     
  0.55            4.6159e-005     1.5503e-008     -1.8159e-009   
  0.6             4.6307e-005     1.0269e-008     7.273e-010     
  0.65            4.6329e-005     -2.5084e-008    1.2929e-009    
  0.7             4.6659e-005     -9.918e-009     -1.3598e-009   
  0.75            4.6666e-005     1.9008e-008     -1.6005e-009   
  0.8             4.6737e-005     2.6307e-008     -1.3337e-009   
  0.85            4.6782e-005     2.1875e-008     -1.6989e-009   
  0.9             4.6698e-005     9.885e-009      7.976e-010     
  0.95            4.6664e-005     -2.5524e-008    1.2652e-009    
  1               4.6759e-005     -1.1184e-008    -3.777e-010    
  1.05            4.6932e-005     1.9962e-008     -1.5153e-009   
  1.1             4.6803e-005     9.227e-009      9.334e-010     
  1.15            4.6829e-005     -2.4541e-008    1.2311e-009    
  1.2             4.692e-005      -1.1397e-008    -5.89e-010     
  1.25            4.7084e-005     2.3333e-008     -1.406e-009    
  1.3             4.7124e-005     2.6406e-008     -1.2913e-009   
  1.35            4.7075e-005     1.0819e-008     5.684e-010     
  1.4             4.6966e-005     -2.3513e-008    1.374e-009     
  1.45            4.7024e-005     -2.3392e-008    2.167e-009     
  1.5             4.7113e-005     -1.1522e-008    -6.862e-010    
  1.55            4.7235e-005     7.798e-009      -1.3175e-009   
  1.6             4.7273e-005     1.9562e-008     -1.6047e-009   
  1.65            4.7151e-005     9.817e-009      8.645e-010     
  1.7             4.7128e-005     -2.5521e-008    2.43e-009      
  1.75            4.721e-005      -1.1425e-008    -4.783e-010    
  1.8             4.7368e-005     2.1326e-008     -1.4563e-009   
END_DB

BEGIN_DB
 ICCAP_VAR VG         1.44           
 ICCAP_VAR VS         0              
 ICCAP_VAR VB         0              

 #VD              ID              IB              IG             
  0               2.7624e-008     1.7938e-008     5.226e-010     
  0.05            1.1666e-005     -1.9495e-008    8.125e-010     
  0.1             2.2734e-005     -2.6077e-008    1.2662e-009    
  0.15            3.3197e-005     -1.6875e-008    1.7157e-009    
  0.2             4.3069e-005     -1.0634e-008    -9.087e-010    
  0.25            5.2321e-005     2.7434e-008     -1.322e-009    
  0.3             6.0868e-005     1.8457e-008     -1.5609e-009   
  0.35            6.8679e-005     9.81e-009       8.779e-010     
  0.4             7.5835e-005     -2.5759e-008    2.4001e-009    
  0.45            8.2304e-005     -1.7822e-008    1.7794e-009    
  0.5             8.8107e-005     -1.0886e-008    -8.803e-010    
  0.55            9.3152e-005     2.7315e-008     -1.3275e-009   
  0.6             9.7353e-005     1.9664e-008     -1.6075e-009   
  0.65            0.000100654     9.999e-009      8.474e-010     
  0.7             0.000103224     -2.5933e-008    2.456e-009     
  0.75            0.000105137     -1.8645e-008    1.8305e-009    
  0.8             0.000106435     -1.103e-008     -8.481e-010    
  0.85            0.000107215     2.712e-008      -1.3323e-009   
  0.9             0.000107566     2.0971e-008     -1.6552e-009   
  0.95            0.000107579     1.0205e-008     8.166e-010     
  1               0.000107612     -2.5941e-008    1.2653e-009    
  1.05            0.000107751     -1.6704e-008    1.7085e-009    
  1.1             0.000107999     -1.0642e-008    -9.12e-010     
  1.15            0.000108182     2.7597e-008     -1.3212e-009   
  1.2             0.000107824     9.385e-009      1.4006e-009    
  1.25            0.000108031     -1.2757e-008    1.4955e-009    
  1.3             0.000108092     -2.5701e-008    2.3947e-009    
  1.35            0.000108198     -1.7663e-008    1.7673e-009    
  1.4             0.000108396     -1.085e-008     -8.825e-010    
  1.45            0.000108559     2.737e-008      -1.3271e-009   
  1.5             0.000108593     1.9504e-008     -1.5954e-009   
  1.55            0.000108446     1.0025e-008     8.516e-010     
  1.6             0.000108421     -2.6028e-008    1.254e-009     
  1.65            0.000108552     -1.1301e-008    -4.615e-010    
  1.7             0.000108783     2.1387e-008     -1.4535e-009   
  1.75            0.000108554     9.001e-009      9.878e-010     
  1.8             0.000108635     -2.346e-008     1.2256e-009    
END_DB

BEGIN_DB
 ICCAP_VAR VG         1.8            
 ICCAP_VAR VS         0              
 ICCAP_VAR VB         0              

 #VD              ID              IB              IG             
  0               2.9961e-008     -2.5306e-008    -8.591e-010    
  0.05            1.4223e-005     1.1885e-008     -2.978e-010    
  0.1             2.805e-005      1.8975e-008     -1.5506e-009   
  0.15            4.1413e-005     2.7177e-008     -1.3349e-009   
  0.2             5.4318e-005     2.0566e-008     -1.643e-009    
  0.25            6.6777e-005     2.6301e-008     -1.3487e-009   
  0.3             7.8726e-005     2.2901e-008     -1.7561e-009   
  0.35            9.0115e-005     1.0328e-008     7.362e-010     
  0.4             0.000100978     -2.5678e-008    1.2899e-009    
  0.45            0.000111319     -1.8745e-008    1.8245e-009    
  0.5             0.00012113      -1.1571e-008    -2.4635e-009   
  0.55            0.00013024      1.0797e-008     5.914e-010     
  0.6             0.00013868      -1.9884e-008    1.564e-009     
  0.65            0.00014662      -1.0924e-008    -8.068e-010    
  0.7             0.00015388      2.3267e-008     -1.4085e-009   
  0.75            0.00016036      2.6917e-008     -1.3406e-009   
  0.8             0.00016621      2.6479e-008     -1.2986e-009   
  0.85            0.00017125      2.1074e-008     -1.6667e-009   
  0.9             0.0001755       1.0893e-008     5.722e-010     
  0.95            0.00017883      -1.9804e-008    1.586e-009     
  1               0.00018181      -1.1251e-008    -7.913e-010    
  1.05            0.00018397      2.297e-008      -1.4159e-009   
  1.1             0.00018519      9.994e-009      8.436e-010     
  1.15            0.00018589      -2.5028e-008    1.3367e-009    
  1.2             0.00018674      -1.0044e-008    -1.029e-009    
  1.25            0.00018703      2.7219e-008     -1.3386e-009   
  1.3             0.00018723      1.4451e-008     -1.8293e-009   
  1.35            0.0001871       9.762e-009      1.9342e-009    
  1.4             0.0001872       -1.7998e-008    1.7492e-009    
  1.45            0.00018741      -1.1533e-008    -6.757e-010    
  1.5             0.00018769      2.0223e-008     -1.4917e-009   
  1.55            0.00018765      1.017e-008      7.4e-010       
  1.6             0.00018754      -2.3061e-008    1.4128e-009    
  1.65            0.00018789      -1.0122e-008    -9.287e-010    
  1.7             0.00018813      2.6049e-008     -1.3576e-009   
  1.75            0.00018782      9.052e-009      9.793e-010     
  1.8             0.00018784      -2.6027e-008    1.2769e-009    
END_DB

BEGIN_DB
 ICCAP_VAR VG         0              
 ICCAP_VAR VS         0              
 ICCAP_VAR VB         -0.9           

 #VD              ID              IB              IG             
  0               -7.613e-010     -2.4549e-008    -7.323e-010    
  0.05            1.4953e-009     1.6403e-008     -1.7825e-009   
  0.1             -1.6708e-009    3.897e-009      -1.4783e-009   
  0.15            -1.3364e-009    -2.1268e-008    1.2472e-009    
  0.2             2.0102e-009     -9.938e-009     1.2326e-009    
  0.25            1.1427e-009     2.6841e-008     -1.3384e-009   
  0.3             -2.003e-009     1.0854e-008     -1.1758e-009   
  0.35            -1.0806e-009    -2.6106e-008    1.3477e-009    
  0.4             2.2499e-009     -8.355e-009     9.625e-010     
  0.45            9.168e-010      2.6517e-008     -1.4361e-009   
  0.5             -2.1545e-009    7.61e-009       -9.066e-010    
  0.55            -1.5943e-009    -1.1734e-008    1.6375e-009    
  0.6             2.2646e-009     -8.71e-009      6.969e-010     
  0.65            1.5165e-009     1.5816e-008     -1.7308e-009   
  0.7             -1.6219e-009    3.899e-009      -1.5098e-009   
  0.75            -1.9664e-009    -1.132e-008     -7.15e-011     
  0.8             -2.0468e-009    -1.1328e-008    -2.708e-010    
  0.85            -2.0975e-009    -1.1055e-008    -4.564e-010    
  0.9             -1.3484e-009    -2.041e-008     1.2468e-009    
  0.95            4.32e-011       -1.0227e-008    2.804e-009     
  1               2.2528e-009     -1.02e-010      6.6e-010       
  1.05            1.4783e-009     1.701e-008      -1.257e-009    
  1.1             2.003e-010      1.182e-008      -2.5596e-009   
  1.15            -2.1499e-009    6.02e-010       -9.421e-010    
  1.2             -1.6109e-009    -1.151e-008     1.584e-009     
  1.25            2.2786e-009     -8.466e-009     7.374e-010     
  1.3             1.5521e-009     1.4963e-008     -1.6773e-009   
  1.35            -1.5656e-009    4.256e-009      -1.5506e-009   
  1.4             -1.9906e-009    -1.1302e-008    -1.221e-010    
  1.45            -2.058e-009     -1.1394e-008    -3.17e-010     
  1.5             -2.1064e-009    -1.0715e-008    -5.112e-010    
  1.55            -2.1473e-009    -9.962e-009     -6.98e-010     
  1.6             -1.4852e-009    -1.512e-008     2.0128e-009    
  1.65            1.8801e-009     -5.994e-009     1.3256e-009    
  1.7             1.95e-009       1.0939e-008     -5.9e-012      
  1.75            9.825e-010      2.7325e-008     -1.3989e-009   
  1.8             -2.1291e-009    8.75e-009       -9.763e-010    
END_DB

BEGIN_DB
 ICCAP_VAR VG         0.36           
 ICCAP_VAR VS         0              
 ICCAP_VAR VB         -0.9           

 #VD              ID              IB              IG             
  0               -1.7756e-009    -2.867e-009     -1.6165e-009   
  0.05            5.29e-011       5.068e-009      -1.4624e-009   
  0.1             2.212e-010      7.045e-009      -1.3841e-009   
  0.15            3.33e-010       8.781e-009      -1.3422e-009   
  0.2             4.523e-010      1.0344e-008     -1.3142e-009   
  0.25            5.681e-010      1.1484e-008     -1.288e-009    
  0.3             6.941e-010      1.1222e-008     -2.6256e-009   
  0.35            -7.825e-010     -1.9732e-008    1.2334e-009    
  0.4             1.4666e-009     -1.0682e-008    2.7862e-009    
  0.45            2.0176e-009     -1e-011         1.704e-009     
  0.5             2.7342e-009     1.072e-008      3.691e-010     
  0.55            2.8124e-009     9.922e-009      5.397e-010     
