! VERSION = 6.00
BEGIN_HEADER
 ICCAP_INPUTS
  VG         V  B GROUND SMU4 0.001 LIN        2    0          1.8        6    0.36      
  VS         V  E GROUND SMU2 0.1 CON        0
  VD         V  S GROUND SMU1 0.1 LIN        1    0          1.8        37   0.05      
  VB         V  C GROUND SMU3 0.1 LIN        3    0          -0.9       2    -0.9      
 ICCAP_OUTPUTS
  ID         I  S GROUND SMU1 B
  IB         I  C GROUND SMU3 B
  IG         I  B GROUND SMU4 B
END_HEADER

BEGIN_DB
 ICCAP_VAR VG         0              
 ICCAP_VAR VS         0              
 ICCAP_VAR VB         0              

 #VD              ID              IB              IG             
  0               -2.2113e-009    1.5199e-008     -2.2736e-009   
  0.05            -2.0484e-009    1.649e-009      -1.2048e-009   
  0.1             -1.8296e-009    -1.1353e-008    2.436e-010     
  0.15            -9.025e-010     -2.3692e-008    1.6308e-009    
  0.2             2.3308e-009     -8.453e-009     7.652e-010     
  0.25            1.6152e-009     1.4738e-008     -1.6785e-009   
  0.3             -1.5742e-009    4.837e-009      -1.6197e-009   
  0.35            -2.0944e-009    -1.1063e-008    -2e-010        
  0.4             -2.1601e-009    -1.1036e-008    -4.152e-010    
  0.45            -1.3868e-009    -2.0864e-008    1.2602e-009    
  0.5             3.51e-011       -1.0029e-008    2.8317e-009    
  0.55            2.316e-009      -2.86e-010      6.905e-010     
  0.6             1.545e-009      1.6655e-008     -1.781e-009    
  0.65            -2.1604e-009    -6.933e-009     -1.0728e-009   
  0.7             -1.7452e-009    -1.1356e-008    1.4554e-009    
  0.75            2.3297e-009     -8.3e-009       9.044e-010     
  0.8             1.7415e-009     1.2306e-008     -1.5174e-009   
  0.85            -1.404e-009     6.907e-009      -1.7637e-009   
  0.9             -2.1533e-009    -1.1193e-008    -4.172e-010    
  0.95            -2.2082e-009    -1.0665e-008    -6.271e-010    
  1               -2.2313e-009    -1.0088e-008    -8.131e-010    
  1.05            -1.6035e-009    -1.3316e-008    1.8509e-009    
  1.1             1.7289e-009     -8.179e-009     1.4976e-009    
  1.15            1.9562e-009     1.0421e-008     -7.84e-011     
  1.2             9.513e-010      2.6078e-008     -1.4498e-009   
  1.25            -2.2146e-009    8.477e-009      -9.581e-010    
  1.3             -1.6766e-009    -1.1689e-008    1.5987e-009    
  1.35            2.3368e-009     -8.313e-009     7.935e-010     
  1.4             1.6359e-009     1.4242e-008     -1.6447e-009   
  1.45            -1.5392e-009    5.168e-009      -1.6538e-009   
  1.5             -2.1087e-009    -1.1091e-008    -2.408e-010    
  1.55            -2.1687e-009    -1.1103e-008    -4.671e-010    
  1.6             -2.2177e-009    -1.0519e-008    -6.777e-010    
  1.65            -2.2293e-009    -9.993e-009     -8.454e-010    
  1.7             -1.6188e-009    -1.2722e-008    1.7846e-009    
  1.75            1.675e-009      -8.423e-009     1.5386e-009    
  1.8             1.9726e-009     9.953e-009      -4.69e-011     
END_DB

BEGIN_DB
 ICCAP_VAR VG         0.36           
 ICCAP_VAR VS         0              
 ICCAP_VAR VB         0              

 #VD              ID              IB              IG             
  0               -8.889e-010     -1.9582e-008    -1.0342e-009   
  0.05            2.705e-009      2.7391e-008     -1.3861e-009   
  0.1             1.8374e-009     9.85e-009       -1.3457e-009   
  0.15            2.1916e-009     1.1437e-008     -1.3167e-009   
  0.2             2.5298e-009     1.1077e-008     -1.2807e-009   
  0.25            2.8654e-009     1.1806e-008     -2.591e-009    
  0.3             1.9662e-009     3.51e-010       -2.4038e-009   
  0.35            2.1957e-009     1.155e-009      -2.1693e-009   
  0.4             2.4508e-009     2.15e-009       -1.8893e-009   
  0.45            2.7903e-009     3.584e-009      -1.6474e-009   
  0.5             3.009e-009      5.355e-009      -1.4854e-009   
  0.55            3.3043e-009     7.547e-009      -1.3948e-009   
  0.6             3.5971e-009     9.336e-009      -1.3542e-009   
  0.65            3.9089e-009     1.0945e-008     -1.3262e-009   
  0.7             4.2435e-009     1.1055e-008     -2.6823e-009   
  0.75            2.8644e-009     -2.11e-008      1.2592e-009    
  0.8             4.4472e-009     -1.0244e-008    2.8279e-009    
  0.85            5.4029e-009     -2.09e-010      2.7807e-009    
  0.9             6.3707e-009     1.9207e-008     -1.2928e-009   
  0.95            5.3646e-009     1.1753e-008     -2.6112e-009   
  1               4.5165e-009     6.29e-010       -2.4502e-009   
  1.05            4.7691e-009     1.173e-009      -2.2218e-009   
  1.1             5.0802e-009     2.203e-009      -1.9478e-009   
  1.15            5.4386e-009     3.289e-009      -1.6919e-009   
  1.2             5.8225e-009     4.923e-009      -1.5102e-009   
  1.25            6.2215e-009     6.947e-009      -1.4067e-009   
  1.3             6.6663e-009     9.088e-009      -1.3623e-009   
  1.35            7.1234e-009     1.0732e-008     -1.3286e-009   
  1.4             7.6021e-009     1.1311e-008     -1.2978e-009   
  1.45            8.0977e-009     1.1349e-008     -2.639e-009    
  1.5             7.4527e-009     5.85e-010       -2.4954e-009   
  1.55            7.8287e-009     8.42e-010       -2.2816e-009   
  1.6             8.2944e-009     1.886e-009      -2.0084e-009   
  1.65            8.9042e-009     2.888e-009      -1.7556e-009   
  1.7             1.0814e-008     -1.6999e-008    1.9835e-009    
  1.75            1.1334e-008     -2.5158e-008    2.8171e-009    
  1.8             1.1768e-008     -1.004e-008     2.8308e-009    
END_DB

BEGIN_DB
 ICCAP_VAR VG         0.72           
 ICCAP_VAR VS         0              
 ICCAP_VAR VB         0              

 #VD              ID              IB              IG             
  0               1.4692e-008     5.193e-009      1.3925e-009    
  0.05            3.0706e-006     1.0438e-008     1.4055e-009    
  0.1             4.6241e-006     -2.4582e-008    1.3225e-009    
  0.15            5.542e-006      -1.0164e-008    -1.0187e-009   
  0.2             6.1594e-006     2.4894e-008     -1.387e-009    
  0.25            6.6047e-006     2.6237e-008     -1.3565e-009   
  0.3             6.8256e-006     9.24e-009       1.0045e-009    
  0.35            7.1961e-006     -2.4711e-008    1.3275e-009    
  0.4             7.6368e-006     -1.0246e-008    -1.0127e-009   
  0.45            8.0208e-006     2.4716e-008     -1.3911e-009   
  0.5             8.3381e-006     2.6224e-008     -1.3585e-009   
  0.55            8.4855e-006     9.261e-009      1.003e-009     
  0.6             8.8285e-006     -2.4546e-008    1.328e-009     
  0.65            9.2784e-006     -1.0348e-008    -1.0026e-009   
  0.7             9.6656e-006     2.4855e-008     -1.3922e-009   
  0.75            9.9747e-006     2.6011e-008     -1.3586e-009   
  0.8             1.011e-005      9.321e-009      9.984e-010     
  0.85            1.04784e-005    -2.4652e-008    1.3352e-009    
  0.9             1.09518e-005    -1.0283e-008    -9.96e-010     
  0.95            1.13678e-005    2.4718e-008     -1.3938e-009   
  1               1.1715e-005     -5.363e-009     -1.3107e-009   
  1.05            1.1934e-005     1.0925e-008     6.116e-010     
  1.1             1.2202e-005     -2.4049e-008    1.3724e-009    
  1.15            1.26e-005       -2.208e-008     2.0936e-009    
  1.2             1.2999e-005     -1.1498e-008    -7.609e-010    
  1.25            1.3506e-005     2.5446e-008     -1.3756e-009   
  1.3             1.3547e-005     8.507e-009      1.242e-009     
  1.35            1.405e-005      -1.7209e-008    1.7507e-009    
  1.4             1.4393e-005     -1.1747e-008    2.482e-010     
  1.45            1.5017e-005     1.1542e-008     -2.2786e-009   
  1.5             1.5153e-005     9.302e-009      1.9518e-009    
  1.55            1.5545e-005     -1.2919e-008    -4.07e-011     
  1.6             1.6171e-005     1.2891e-008     -1.8425e-009   
  1.65            1.659e-005      6.83e-009       -2.469e-009    
  1.7             1.6966e-005     1.0727e-008     -1.7616e-009   
  1.75            1.741e-005      3.015e-009      -2.4078e-009   
  1.8             1.7668e-005     -1.8272e-008    -2.6766e-009   
END_DB

BEGIN_DB
 ICCAP_VAR VG         1.08           
 ICCAP_VAR VS         0              
 ICCAP_VAR VB         0              

 #VD              ID              IB              IG             
  0               6.3235e-008     2.3505e-008     1.0036e-009    
  0.05            2.4283e-005     -8.782e-009     -6.73e-011     
  0.1             4.4178e-005     -1.5139e-008    2.1957e-009    
  0.15            5.9732e-005     -1.1437e-008    -6.998e-010    
  0.2             7.1351e-005     8.111e-009      -1.3375e-009   
  0.25            7.9595e-005     1.0516e-008     4.09e-010      
  0.3             8.5156e-005     -2.0922e-008    1.5216e-009    
  0.35            8.943e-005      -2.5486e-008    1.2583e-009    
  0.4             9.2823e-005     -1.1311e-008    -5.399e-010    
  0.45            9.5672e-005     2.2576e-008     -1.4394e-009   
  0.5             9.7889e-005     2.6886e-008     -1.3174e-009   
  0.55            9.9653e-005     1.0817e-008     5.575e-010     
  0.6             0.000101028     -2.3166e-008    1.3983e-009    
  0.65            0.000102749     -2.3631e-008    1.2373e-009    
  0.7             0.000104473     -1.1431e-008    -7.006e-010    
  0.75            0.000106217     2.4881e-008     -1.3875e-009   
  0.8             0.000107662     1.6988e-008     -1.7446e-009   
  0.85            0.000108771     9.996e-009      8.014e-010     
  0.9             0.000109955     -2.5612e-008    1.2854e-009    
  0.95            0.000111464     -1.1156e-008    -3.937e-010    
  1               0.000113137     2.0123e-008     -1.5192e-009   
  1.05            0.00011403      9.242e-009      -1.531e-010    
  1.1             0.00011577      1.3388e-008     -2.0811e-009   
  1.15            0.00011709      2.4051e-008     -1.8569e-009   
  1.2             0.00011777      1.0315e-008     1.9917e-009    
  1.25            0.00011899      -1.1204e-008    1.538e-010     
  1.3             0.00012091      1.0781e-008     -2.4601e-009   
  1.35            0.00012218      2.6651e-008     -1.333e-009    
  1.4             0.0001233       1.6598e-008     -1.7099e-009   
  1.45            0.00012452      2.0504e-008     -1.4573e-009   
  1.5             0.00012582      9.246e-009      -2.3335e-009   
  1.55            0.00012694      1.0052e-008     -1.9292e-009   
  1.6             0.0001282       3.792e-009      -2.6718e-009   
  1.65            0.00012943      1.47e-010       -2.5128e-009   
  1.7             0.00013058      -3.68e-009      -2.1837e-009   
  1.75            0.00013109      -1.3221e-008    1.7855e-009    
  1.8             0.0001323       -4.6496e-008    1.4293e-009    
END_DB

BEGIN_DB
 ICCAP_VAR VG         1.44           
 ICCAP_VAR VS         0              
 ICCAP_VAR VB         0              

 #VD              ID              IB              IG             
  0               9.4065e-008     2.7383e-008     8.534e-010     
  0.05            4.1749e-005     -1.4052e-008    3.315e-010     
  0.1             7.9763e-005     -1.9726e-008    1.5814e-009    
  0.15            0.00011315      -2.5817e-008    1.2767e-009    
  0.2             0.00014182      -2.1401e-008    -1.4553e-009   
  0.25            0.00016524      2.3004e-008     -1.2758e-009   
  0.3             0.00018389      1.077e-008      5.215e-010     
  0.35            0.00019844      -1.874e-008     1.6798e-009    
  0.4             0.00021017      -1.118e-008     -7.637e-010    
  0.45            0.00021935      2.1761e-008     -1.4535e-009   
  0.5             0.0002263       2.6053e-008     -1.3648e-009   
  0.55            0.00023122      8.758e-009      1.0499e-009    
  0.6             0.00023563      -2.5867e-008    1.2733e-009    
  0.65            0.00023959      -2.1647e-008    2.0432e-009    
  0.7             0.00024272      -1.1353e-008    -5.138e-010    
  0.75            0.00024609      1.7675e-008     -1.6606e-009   
  0.8             0.00024841      1.0892e-008     6.324e-010     
  0.85            0.00025041      -2.0067e-008    1.5516e-009    
  0.9             0.00025295      -1.1086e-008    -8.529e-010    
  0.95            0.00025545      2.3725e-008     -1.4113e-009   
  1               0.00025696      9.822e-009      9.202e-010     
  1.05            0.00025865      -2.4902e-008    1.3167e-009    
  1.1             0.00026127      -9.477e-009     -1.1315e-009   
  1.15            0.0002632       2.7335e-008     -1.339e-009    
  1.2             0.00026426      8.595e-009      1.1957e-009    
  1.25            0.00026614      -2.4036e-008    2.2416e-009    
  1.3             0.00026809      -2.1072e-008    1.9852e-009    
  1.35            0.00026991      -1.1797e-008    -5.548e-010    
  1.4             0.00027197      1.7641e-008     -1.6256e-009   
  1.45            0.00027355      1.4208e-008     -1.4835e-009   
  1.5             0.00027526      8.871e-009      -2.4058e-009   
  1.55            0.00027696      9.91e-009       -2.0213e-009   
  1.6             0.00027848      1.1654e-008     -1.6386e-009   
  1.65            0.00028017      9.7e-010        -2.5594e-009   
  1.7             0.00028174      -3.455e-009     -2.2551e-009   
  1.75            0.00028248      -1.2787e-008    1.72e-009      
  1.8             0.00028404      -4.6961e-008    1.4595e-009    
END_DB

BEGIN_DB
 ICCAP_VAR VG         1.8            
 ICCAP_VAR VS         0              
 ICCAP_VAR VB         0              

 #VD              ID              IB              IG             
  0               1.09808e-007    2.6897e-008     1.2484e-009    
  0.05            5.2632e-005     2.259e-008      -1.0361e-009   
  0.1             0.000102466     2.6239e-008     -1.3139e-009   
  0.15            0.00014822      2.0487e-008     1.5138e-009    
  0.2             0.0001895       -1.6159e-008    1.6993e-009    
  0.25            0.000226        -1.1284e-008    -7.55e-010     
  0.3             0.00025755      2.1889e-008     -1.4681e-009   
  0.35            0.00028428      2.5659e-008     -1.3659e-009   
  0.4             0.00030639      8.899e-009      1.0479e-009    
  0.45            0.00032498      -2.5613e-008    1.2711e-009    
  0.5             0.00034034      -2.1678e-008    2.0572e-009    
  0.55            0.00035281      -1.1237e-008    -5.08e-010     
  0.6             0.00036323      1.7816e-008     -1.6748e-009   
  0.65            0.0003714       1.0886e-008     6.312e-010     
  0.7             0.00037797      -2.042e-008     1.5541e-009    
  0.75            0.00038402      -1.0711e-008    -8.508e-010    
  0.8             0.00038912      2.3717e-008     -1.4113e-009   
  0.85            0.00039331      2.6824e-008     -1.3437e-009   
  0.9             0.00039705      1.5952e-008     -1.8014e-009   
  0.95            0.00040031      1.0721e-008     5.273e-010     
  1               0.00040289      -1.9266e-008    1.6762e-009    
  1.05            0.00040605      -1.1191e-008    -7.701e-010    
  1.1             0.000409        2.2122e-008     -1.456e-009    
  1.15            0.00041165      2.5964e-008     -1.3608e-009   
  1.2             0.00041336      8.848e-009      1.0615e-009    
  1.25            0.00041571      -2.5579e-008    1.2687e-009    
  1.3             0.00041806      -2.1487e-008    2.0184e-009    
  1.35            0.00042043      -1.1642e-008    -5.272e-010    
  1.4             0.00042295      1.7516e-008     -1.649e-009    
  1.45            0.00042471      9.804e-009      6.491e-010     
  1.5             0.00042634      -2.2381e-008    1.5324e-009    
  1.55            0.00042869      -1.3359e-008    -8.652e-010    
  1.6             0.00043081      2.805e-009      -1.3438e-009   
  1.65            0.00043279      8.422e-009      -1.8121e-009   
  1.7             0.0004347       -1.84e-010      -2.6432e-009   
  1.75            0.00043658      -6.481e-009     -2.4248e-009   
  1.8             0.00043753      -1.5711e-008    1.5858e-009    
END_DB

BEGIN_DB
 ICCAP_VAR VG         0              
 ICCAP_VAR VS         0              
 ICCAP_VAR VB         -0.9           

 #VD              ID              IB              IG             
  0               -2.664e-010     -2.0054e-008    9.7e-012       
  0.05            1.0251e-009     2.6734e-008     -1.406e-009    
  0.1             -2.1715e-009    9.45e-009       -1.053e-009    
  0.15            -1.7332e-009    -1.1323e-008    1.472e-009     
  0.2             2.3249e-009     -8.29e-009      8.925e-010     
  0.25            1.734e-009      1.2416e-008     -1.5365e-009   
  0.3             -1.4251e-009    6.912e-009      -1.7658e-009   
  0.35            -2.1636e-009    -1.1344e-008    -3.978e-010    
  0.4             -2.2118e-009    -1.056e-008     -6.284e-010    
  0.45            -1.5123e-009    -1.7566e-008    1.2307e-009    
  0.5             -1.22e-010      -1.2597e-008    2.796e-009     
  0.55            1.4599e-009     2.0113e-008     -1.2952e-009   
  0.6             1.309e-010      1.1354e-008     -2.6208e-009   
  0.65            -2.2165e-009    4.93e-010       -9.252e-010    
  0.7             -1.6635e-009    -1.1729e-008    1.6301e-009    
  0.75            2.33e-009       -8.544e-009     7.622e-010     
  0.8             1.6154e-009     1.4484e-008     -1.6792e-009   
  0.85            -1.5808e-009    5.161e-009      -1.6372e-009   
  0.9             -1.5004e-009    -1.7736e-008    2.1815e-009    
  0.95            2.0056e-009     -5.245e-009     1.3076e-009    
  1               5.114e-010      1.5583e-008     -2.1785e-009   
  1.05            -1.9835e-009    2.357e-009      -1.2976e-009   
  1.1             -1.2336e-009    -2.5079e-008    1.3082e-009    
  1.15            2.2153e-009     -8.431e-009     1.1018e-009    
  1.2             1.0569e-009     2.756e-008      -1.3868e-009   
  1.25            -2.1659e-009    9.841e-009      -1.0865e-009   
  1.3             -1.7586e-009    -1.1135e-008    1.4213e-009    
  1.35            2.3279e-009     -8.383e-009     9.243e-010     
  1.4             1.7642e-009     1.1718e-008     -1.4854e-009   
  1.45            -1.3635e-009    7.313e-009      -1.7929e-009   
  1.5             -2.1694e-009    -1.1336e-008    -4.662e-010    
  1.55            -2.2189e-009    -1.0604e-008    -6.765e-010    
  1.6             -1.5374e-009    -1.5738e-008    2.06e-009      
  1.65            1.908e-009      -6.178e-009     1.372e-009     
  1.7             2.0165e-009     1.0687e-008     3.42e-011      
  1.75            2.1099e-009     1.0602e-008     2.245e-010     
  1.8             2.2057e-009     1.0451e-008     4.2e-010       
END_DB

BEGIN_DB
 ICCAP_VAR VG         0.36           
 ICCAP_VAR VS         0              
 ICCAP_VAR VB         -0.9           

 #VD              ID              IB              IG             
  0               1.2375e-009     -1.113e-008     1.2654e-009    
  0.05            2.1273e-009     -9.75e-009      1.2643e-009    
  0.1             5.438e-010      1.4567e-008     -2.2697e-009   
  0.15            -1.9547e-009    2.142e-009      -1.2439e-009   
  0.2             -1.0902e-009    -2.5692e-008    1.3294e-009    
  0.25            2.3605e-009     -8.389e-009     1.0609e-009    
  0.3             2.2082e-009     9.701e-009      1.221e-009     
  0.35            5.524e-010      1.4097e-008     -2.3306e-009   
  0.4             -1.9466e-009    1.604e-009      -1.2007e-009   
  0.45            -1.0074e-009    -2.5861e-008    1.3494e-009    
  0.5             1.3756e-009     -8.262e-009     1.9785e-009    
  0.55            1.1566e-009     2.6365e-008     -1.4209e-009   
