! VERSION = 6.00
BEGIN_HEADER
 ICCAP_INPUTS
  VG         V  B GROUND SMU4 0.001 LIN        1    0          1.8        37   0.05      
  VS         V  E GROUND SMU2 0.1 CON        0
  VB         V  C GROUND SMU3 0.1 LIN        3    0          -1.8       3    -0.9      
  VD         V  S GROUND SMU1 0.1 LIN        2    0.1        1.8        2    1.7       
 ICCAP_OUTPUTS
  IG         I  B GROUND SMU4 B
  ID         I  S GROUND SMU1 B
  IB         I  C GROUND SMU3 B
END_HEADER

BEGIN_DB
 ICCAP_VAR VS         0              
 ICCAP_VAR VB         0              
 ICCAP_VAR VD         0.1            

 #VG              IG              ID              IB             
  0               -8.89e-011      4.602e-010      -1.8298e-008   
  0.05            7.1e-011        1.7907e-009     8.576e-009     
  0.1             2.362e-010      1.8649e-009     8.554e-009     
  0.15            -1.2519e-009    8.104e-010      8.285e-009     
  0.2             -9.157e-010     -1.7071e-009    5.246e-009     
  0.25            1.1894e-009     -1.5829e-009    -8.769e-009    
  0.3             2.0989e-009     1.0703e-009     -3.15e-009     
  0.35            8.649e-010      1.779e-009      1.0039e-008    
  0.4             -1.2536e-009    2.3573e-009     5.77e-009      
  0.45            -1.2449e-009    3.1865e-009     5.454e-009     
  0.5             1.1698e-009     1.404e-008      1.0806e-008    
  0.55            1.1113e-009     5.0777e-008     -2.621e-009    
  0.6             7.19e-011       1.6418e-007     5.496e-009     
  0.65            -3.625e-010     4.7783e-007     -9.568e-009    
  0.7             -1.4289e-009    1.1435e-006     -3.816e-009    
  0.75            -3.246e-010     2.2692e-006     -9.924e-009    
  0.8             -7.145e-010     3.8775e-006     -8.95e-009     
  0.85            -1.1768e-009    5.8227e-006     -9.977e-009    
  0.9             -8.1e-012       7.9047e-006     -9.22e-009     
  0.95            -4.115e-010     1.01567e-005    -9.683e-009    
  1               2.2572e-009     1.2406e-005     -9.195e-009    
  1.05            9.774e-010      1.4561e-005     9.436e-009     
  1.1             1.4196e-009     1.6758e-005     1.2023e-008    
  1.15            3.495e-010      1.8856e-005     9.003e-009     
  1.2             6.556e-010      2.0819e-005     8.263e-009     
  1.25            1.0836e-009     2.272e-005      9.989e-009     
  1.3             1.5256e-009     2.4567e-005     1.2595e-008    
  1.35            4.263e-010      2.6275e-005     8.825e-009     
  1.4             7.585e-010      2.7879e-005     8.495e-009     
  1.45            1.203e-009      2.9424e-005     1.0765e-008    
  1.5             1.988e-010      3.0909e-005     8.106e-009     
  1.55            4.798e-010      3.2252e-005     8.453e-009     
  1.6             8.679e-010      3.3528e-005     8.977e-009     
  1.65            1.3216e-009     3.4759e-005     1.1564e-008    
  1.7             2.817e-010      3.5916e-005     8.582e-009     
  1.75            5.658e-010      3.6978e-005     8.206e-009     
  1.8             9.822e-010      3.7981e-005     1.0417e-008    
END_DB

BEGIN_DB
 ICCAP_VAR VS         0              
 ICCAP_VAR VB         0              
 ICCAP_VAR VD         1.8            

 #VG              IG              ID              IB             
  0               -1.2277e-009    -1.082e-009     8.37e-009      
  0.05            -1.4024e-009    -1.1947e-009    9.426e-009     
  0.1             -3.72e-011      -1.8854e-009    -9.868e-009    
  0.15            -2.263e-010     -1.9421e-009    -9.323e-009    
  0.2             -3.765e-010     -1.9368e-009    -8.967e-009    
  0.25            1.189e-009      -1.1318e-009    -9.788e-009    
  0.3             2.162e-009      1.4147e-009     -1.0757e-008   
  0.35            7.981e-010      3.215e-009      9.622e-009     
  0.4             9.857e-010      8.1668e-009     1.0958e-008    
  0.45            -2.3981e-009    2.6354e-008     -2.0625e-008   
  0.5             -8.215e-010     1.00431e-007    -9.289e-009    
  0.55            -1.9774e-009    3.2959e-007     7.931e-009     
  0.6             -3.274e-010     9.2686e-007     -1.0991e-008   
  0.65            1.4945e-009     2.1965e-006     3.366e-009     
  0.7             -2.1013e-009    4.4747e-006     3.449e-009     
  0.75            -1.2493e-009    7.7643e-006     -1.5031e-008   
  0.8             2.3646e-009     1.2001e-005     -1.5505e-008   
  0.85            -2.4443e-009    1.7147e-005     -1.4453e-008   
  0.9             -1.5926e-009    2.2947e-005     -2.0458e-008   
  0.95            -1.9945e-009    2.9276e-005     -2.0475e-008   
  1               -2.3095e-009    3.6005e-005     -2.0845e-008   
  1.05            -2.4125e-009    4.3034e-005     -1.7883e-008   
  1.1             -2.1889e-009    5.0318e-005     -1.7021e-008   
  1.15            -2.0841e-009    5.7733e-005     -2.3267e-008   
  1.2             -2.3575e-009    6.5311e-005     -2.206e-008    
  1.25            -2.4027e-009    7.2977e-005     -1.8036e-008   
  1.3             -2.0697e-009    8.0754e-005     -1.8459e-008   
  1.35            -2.177e-009     8.8519e-005     -2.3458e-008   
  1.4             -2.389e-009     9.6373e-005     -2.1429e-008   
  1.45            -2.3728e-009    0.0001042       -1.6646e-008   
  1.5             -1.8669e-009    0.000112063     -2.3515e-008   
  1.55            -1.7878e-009    0.00012002      -2.4015e-008   
  1.6             -2.3012e-009    0.00012785      -2.176e-008    
  1.65            -2.4203e-009    0.00013568      -1.7626e-008   
  1.7             -2.2105e-009    0.00014348      -1.5101e-008   
  1.75            -2.0752e-009    0.00015128      -2.0935e-008   
  1.8             -2.347e-009     0.00015904      -1.9191e-008   
END_DB

BEGIN_DB
 ICCAP_VAR VS         0              
 ICCAP_VAR VB         -0.9           
 ICCAP_VAR VD         0.1            

 #VG              IG              ID              IB             
  0               1.1614e-009     9.497e-010      4.96e-009      
  0.05            1.9454e-009     9.922e-010      -9.454e-009    
  0.1             -1.2279e-009    1.1657e-009     1.0005e-008    
  0.15            -1.3477e-009    -1.25e-009      8.11e-009      
  0.2             5.68e-011       -1.8372e-009    -9.718e-009    
  0.25            -1.422e-010     -1.9124e-009    -9.873e-009    
  0.3             -3.13e-010      -1.9546e-009    -9.295e-009    
  0.35            -4.365e-010     -1.9679e-009    -8.949e-009    
  0.4             -6.227e-010     -1.8758e-009    -9.203e-009    
  0.45            1.195e-009      -1.2249e-009    -8.944e-009    
  0.5             1.7947e-009     1.6948e-009     -1.3711e-008   
  0.55            1.0719e-009     4.1947e-009     1.1359e-008    
  0.6             -1.247e-009     1.1102e-008     -9.204e-009    
  0.65            -2.2245e-009    4.6799e-008     5.694e-009     
  0.7             2.429e-010      1.6054e-007     -8.633e-009    
  0.75            5.435e-010      4.6198e-007     8.215e-009     
  0.8             1.6379e-009     1.1405e-006     6.195e-009     
  0.85            5.212e-010      2.2826e-006     8.159e-009     
  0.9             9.022e-010      3.8879e-006     9.998e-009     
  0.95            -1.2411e-009    5.9398e-006     6.066e-009     
  1               -2.1624e-009    8.138e-006      6.255e-009     
  1.05            -2.463e-010     1.03787e-005    -9.616e-009    
  1.1             2.3926e-009     1.2665e-005     -8.768e-009    
  1.15            7.551e-010      1.4839e-005     8.882e-009     
  1.2             1.1965e-009     1.7011e-005     1.077e-008     
  1.25            1.735e-010      1.9126e-005     7.942e-009     
  1.3             4.797e-010      2.1063e-005     8.267e-009     
  1.35            8.57e-010       2.2916e-005     9.014e-009     
  1.4             1.2886e-009     2.4709e-005     1.1275e-008    
  1.45            2.583e-010      2.6407e-005     8.305e-009     
  1.5             5.497e-010      2.7966e-005     8.14e-009      
  1.55            9.545e-010      2.9438e-005     1.0282e-008    
  1.6             1.3931e-009     3.0857e-005     1.1584e-008    
  1.65            3.298e-010      3.2183e-005     8.474e-009     
  1.7             6.241e-010      3.3399e-005     8.266e-009     
  1.75            1.0504e-009     3.4559e-005     1.0673e-008    
  1.8             1.4823e-009     3.5669e-005     1.1634e-008    
END_DB

BEGIN_DB
 ICCAP_VAR VS         0              
 ICCAP_VAR VB         -0.9           
 ICCAP_VAR VD         1.8            

 #VG              IG              ID              IB             
  0               -1.1668e-009    -1.0545e-009    1.0755e-008    
  0.05            -1.255e-009     -1.3382e-009    1.058e-009     
  0.1             1.793e-010      -1.7976e-009    -9.494e-009    
  0.15            -3.06e-011      -1.8733e-009    -9.687e-009    
  0.2             -2.171e-010     -1.9427e-009    -9.27e-009     
  0.25            1.1633e-009     -1.1045e-009    -1.2337e-008   
  0.3             1.9244e-009     1.0385e-009     -9.014e-009    
  0.35            6.282e-010      1.9963e-009     9.679e-009     
  0.4             8.028e-010      2.6182e-009     1.0796e-008    
  0.45            9.721e-010      5.7838e-009     1.1068e-008    
  0.5             -1.2475e-009    1.7829e-008     -9.231e-009    
  0.55            -2.2172e-009    7.2515e-008     5.91e-009      
  0.6             -1.2682e-009    2.5012e-007     -3.355e-009    
  0.65            -1.2447e-009    7.4771e-007     4.216e-009     
  0.7             1.1723e-009     1.8295e-006     6.468e-009     
  0.75            1.1945e-009     3.872e-006      -1.2839e-008   
  0.8             1.3551e-009     6.988e-006      -1.9082e-008   
  0.85            1.1033e-009     1.11949e-005    -9.216e-009    
  0.9             -1.2522e-009    1.642e-005      5.422e-009     
  0.95            -1.2237e-009    2.2249e-005     -3.357e-009    
  1               -1.831e-009     2.8574e-005     -1.636e-009    
  1.05            -2.2828e-009    3.5301e-005     -2.0498e-008   
  1.1             -2.4189e-009    4.2356e-005     -1.751e-008    
  1.15            -2.2325e-009    4.9642e-005     -1.6265e-008   
  1.2             -2.0728e-009    5.7139e-005     -2.2842e-008   
  1.25            -2.3256e-009    6.4695e-005     -2.1666e-008   
  1.3             -2.4164e-009    7.2378e-005     -1.7718e-008   
  1.35            -2.1086e-009    8.0174e-005     -1.7939e-008   
  1.4             -2.1436e-009    8.7946e-005     -2.3156e-008   
  1.45            -2.3685e-009    9.5792e-005     -2.0862e-008   
  1.5             -2.3868e-009    0.000103622     -1.6392e-008   
  1.55            -1.8438e-009    0.000111475     -2.3011e-008   
  1.6             -1.829e-009     0.00011945      -2.3294e-008   
  1.65            -2.2722e-009    0.00012726      -2.1267e-008   
  1.7             -2.4238e-009    0.00013509      -1.7278e-008   
  1.75            -2.235e-009     0.00014287      -1.4977e-008   
  1.8             -2.0674e-009    0.00015067      -2.0504e-008   
END_DB

BEGIN_DB
 ICCAP_VAR VS         0              
 ICCAP_VAR VB         -1.8           
 ICCAP_VAR VD         0.1            

 #VG              IG              ID              IB             
  0               1.2262e-009     1.0447e-009     1.4346e-008    
  0.05            1.1386e-009     -6.318e-010     -2.2065e-008   
  0.1             2.2909e-009     1.0493e-009     -2.547e-009    
  0.15            1.1595e-009     1.2481e-009     1.1439e-008    
  0.2             1.3403e-009     1.0759e-009     1.2417e-008    
  0.25            9.32e-011       1.8055e-009     8.374e-009     
  0.3             2.569e-010      1.884e-009      8.391e-009     
  0.35            -1.2557e-009    8.368e-010      8.233e-009     
  0.4             -9.514e-010     -1.6356e-009    5.597e-009     
  0.45            1.1865e-009     -1.5777e-009    -9.067e-009    
  0.5             2.1109e-009     1.2205e-009     -2.894e-009    
  0.55            8.986e-010      2.3933e-009     9.952e-009     
  0.6             -1.2587e-009    5.4167e-009     6.093e-009     
  0.65            1.2953e-009     1.6381e-008     1.0001e-008    
  0.7             1.1054e-009     6.1489e-008     -2.827e-009    
  0.75            1.1171e-009     2.0316e-007     4.086e-009     
  0.8             1.1798e-009     5.8059e-007     -5.667e-009    
  0.85            1.8481e-009     1.3735e-006     8.524e-009     
  0.9             7.732e-010      2.625e-006      8.591e-009     
  0.95            1.2206e-009     4.3734e-006     1.0558e-008    
  1               2.031e-010      6.4734e-006     8.072e-009     
  1.05            4.942e-010      8.6685e-006     8.557e-009     
  1.1             8.754e-010      1.09458e-005    9.785e-009     
  1.15            -1.6374e-009    1.3264e-005     1.0768e-008    
  1.2             1.1955e-009     1.5445e-005     -9.932e-009    
  1.25            1.3015e-009     1.7555e-005     -1.6075e-008   
  1.3             1.1095e-009     1.9621e-005     -2.891e-009    
  1.35            1.1545e-009     2.1542e-005     -3.219e-009    
  1.4             1.195e-009      2.3387e-005     -9.072e-009    
  1.45            1.4657e-009     2.512e-005      -1.3774e-008   
  1.5             5.816e-010      2.6754e-005     8.431e-009     
  1.55            9.986e-010      2.828e-005      9.257e-009     
  1.6             1.443e-009      2.9753e-005     1.165e-008     
  1.65            3.559e-010      3.1113e-005     8.785e-009     
  1.7             6.73e-010       3.2372e-005     8.45e-009      
  1.75            1.1126e-009     3.3575e-005     9.824e-009     
  1.8             1.5321e-009     3.4717e-005     1.2053e-008    
END_DB

BEGIN_DB
 ICCAP_VAR VS         0              
 ICCAP_VAR VB         -1.8           
 ICCAP_VAR VD         1.8            

 #VG              IG              ID              IB             
  0               1.1858e-009     1.0037e-009     -9.439e-009    
  0.05            1.1934e-009     -1.51e-010      -1.3661e-008   
  0.1             1.995e-009      1.0012e-009     -3.316e-009    
  0.15            -1.2101e-009    1.2131e-009     1.0366e-008    
  0.2             -1.3931e-009    -1.1826e-009    8.634e-009     
  0.25            -2.89e-011      -1.8881e-009    -9.417e-009    
  0.3             -2.457e-010     -1.9212e-009    -9.079e-009    
  0.35            2.3889e-009     1.139e-009      -3.233e-009    
  0.4             1.3296e-009     1.5339e-009     1.2723e-008    
  0.45            8.53e-011       3.8291e-009     8.401e-009     
  0.5             2.344e-010      1.08281e-008    8.649e-009     
  0.55            -2.0478e-009    3.5783e-008     -8.462e-009    
  0.6             -1.2885e-009    1.3608e-007     1.1038e-008    
  0.65            -1.2475e-009    4.4252e-007     4.134e-009     
  0.7             1.47e-009       1.1969e-006     9.365e-009     
  0.75            1.1275e-009     2.758e-006      -5.492e-009    
  0.8             1.1354e-009     5.362e-006      -6.368e-009    
  0.85            1.1812e-009     9.0593e-006     -1.2685e-008   
  0.9             -1.3086e-009    1.3839e-005     -9.431e-009    
  0.95            -1.8172e-009    1.9346e-005     -1.8704e-008   
  1               -2.2023e-009    2.5476e-005     -1.8592e-008   
  1.05            -2.4124e-009    3.2079e-005     -1.7752e-008   
  1.1             -2.363e-009     3.9011e-005     -1.4326e-008   
  1.15            -1.9428e-009    4.6207e-005     -2.2943e-008   
  1.2             -2.256e-009     5.3581e-005     -2.1773e-008   
  1.25            -2.4402e-009    6.1125e-005     -1.8841e-008   
  1.3             -2.2525e-009    6.8761e-005     -1.6281e-008   
  1.35            -2.0232e-009    7.6475e-005     -2.3083e-008   
  1.4             -2.3255e-009    8.4232e-005     -2.1695e-008   
  1.45            -2.4282e-009    9.2007e-005     -1.8033e-008   
  1.5             -2.1234e-009    9.9883e-005     -1.7127e-008   
  1.55            -2.1206e-009    0.000107689     -2.2566e-008   
  1.6             -1.3044e-009    0.00011568      -2.2898e-008   
  1.65            -2.425e-009     0.00012341      -1.6492e-008   
  1.7             -1.7521e-009    0.00013121      -2.1894e-008   
  1.75            -2.1553e-009    0.000139        -2.0944e-008   
  1.8             -2.3879e-009    0.00014677      -1.8327e-008   
END_DB

