! VERSION = 6.00
BEGIN_HEADER
 ICCAP_INPUTS
  VG         V  B GROUND SMU4 0.001 LIN        2    0          1.8        6    0.36      
  VS         V  E GROUND SMU2 0.1 CON        0
  VD         V  S GROUND SMU1 0.1 LIN        1    0          1.8        37   0.05      
  VB         V  C GROUND SMU3 0.1 LIN        3    0          -0.9       2    -0.9      
 ICCAP_OUTPUTS
  ID         I  S GROUND SMU1 B
  IB         I  C GROUND SMU3 B
  IG         I  B GROUND SMU4 B
END_HEADER

BEGIN_DB
 ICCAP_VAR VG         0              
 ICCAP_VAR VS         0              
 ICCAP_VAR VB         0              

 #VD              ID              IB              IG             
  0               -1.3485e-009    1.1283e-008     -1.3855e-009   
  0.05            -2.105e-009     1.1457e-008     -1.261e-009    
  0.1             -1.8908e-009    -1.1606e-008    2.203e-010     
  0.15            -9.613e-010     -2.4287e-008    1.6521e-009    
  0.2             1.5629e-009     -8.58e-009      1.7386e-009    
  0.25            2.2356e-009     1.1301e-008     3.634e-010     
  0.3             2.3284e-009     1.0831e-008     5.631e-010     
  0.35            2.3885e-009     9.895e-009      7.488e-010     
  0.4             1.6332e-009     1.6386e-008     -1.7965e-009   
  0.45            -1.6912e-009    4.971e-009      -1.617e-009    
  0.5             -1.4975e-009    -1.9752e-008    1.2861e-009    
  0.55            -4.38e-011      -1.1829e-008    2.9036e-009    
  0.6             1.431e-009      2.3016e-008     -1.3431e-009   
  0.65            5.72e-011       1.1336e-008     -2.7291e-009   
  0.7             -1.5023e-009    -1.9877e-008    1.2854e-009    
  0.75            -5.62e-011      -1.1984e-008    2.9034e-009    
  0.8             1.4376e-009     2.2872e-008     -1.3402e-009   
  0.85            6.43e-011       1.1193e-008     -1.3031e-009   
  0.9             2.289e-010      1.2493e-008     -2.621e-009    
  0.95            -2.2574e-009    7.59e-010       -1.0293e-009   
  1               -1.7441e-009    -1.1774e-008    1.5766e-009    
  1.05            2.402e-009      -8.544e-009     8.692e-010     
  1.1             2.3618e-009     9.18e-009       1.0183e-009    
  1.15            1.8584e-009     1.1598e-008     -1.4842e-009   
  1.2             -1.3678e-009    9.203e-009      -1.8683e-009   
  1.25            -2.2517e-009    -1.1695e-008    -5.513e-010    
  1.3             -2.2828e-009    -1.0762e-008    -7.678e-010    
  1.35            -2.2841e-009    -9.859e-009     -9.139e-010    
  1.4             -1.676e-009     -1.2474e-008    1.757e-009     
  1.45            1.6639e-009     -8.671e-009     1.6527e-009    
  1.5             2.0525e-009     1.0654e-008     6.8e-012       
  1.55            1.056e-009      2.7642e-008     -1.4367e-009   
  1.6             -2.2361e-009    1.0108e-008     -1.0686e-009   
  1.65            -1.7704e-009    -1.1609e-008    1.5316e-009    
  1.7             2.3976e-009     -8.354e-009     9.038e-010     
  1.75            1.7719e-009     1.295e-008      -1.5881e-009   
  1.8             -1.4864e-009    7.247e-009      -1.7732e-009   
END_DB

BEGIN_DB
 ICCAP_VAR VG         0.36           
 ICCAP_VAR VS         0              
 ICCAP_VAR VB         0              

 #VD              ID              IB              IG             
  0               6.816e-010      -1.2107e-008    9.048e-010     
  0.05            1.0961e-008     1.1046e-008     2.5795e-009    
  0.1             1.1995e-008     -1.1918e-008    1.9601e-009    
  0.15            1.2314e-008     -1.1848e-008    1.4643e-009    
  0.2             1.0663e-008     -1.1776e-008    -6.686e-010    
  0.25            1.3086e-008     1.3415e-008     -2.0689e-009   
  0.3             1.4931e-008     1.1245e-008     -2.16e-011     
  0.35            1.429e-008      -9.122e-009     2.8983e-009    
  0.4             1.0681e-008     -1.0173e-008    -1.0719e-009   
  0.45            1.4118e-008     2.2221e-008     -1.527e-009    
  0.5             1.5349e-008     1.0458e-008     2.014e-009     
  0.55            1.2682e-008     -1.516e-008     1.6689e-009    
  0.6             1.2862e-008     -2.0422e-008    1.9913e-009    
  0.65            1.2213e-008     -1.1778e-008    -1.357e-010    
  0.7             1.3749e-008     1.1292e-008     -2.6127e-009   
  0.75            1.5704e-008     1.5731e-008     -1.5108e-009   
  0.8             1.5828e-008     1.0087e-008     2.0324e-009    
  0.85            1.3158e-008     -1.479e-008     1.6421e-009    
  0.9             1.2369e-008     -1.16e-008      -4.464e-010    
  0.95            1.4312e-008     1.2156e-008     -2.3315e-009   
  1               1.5552e-008     2.6787e-008     -1.4125e-009   
  1.05            1.6749e-008     1.0706e-008     7.385e-010     
  1.1             1.4604e-008     -1.6881e-008    2.021e-009     
  1.15            1.2983e-008     -1.1773e-008    -1.129e-010    
  1.2             1.4382e-008     1.1405e-008     -2.6335e-009   
  1.25            1.6422e-008     1.587e-008      -1.5238e-009   
  1.3             1.6408e-008     9.996e-009      2.0179e-009    
  1.35            1.3841e-008     -1.5043e-008    1.6664e-009    
  1.4             1.2887e-008     -1.1612e-008    -4.264e-010    
  1.45            1.4893e-008     1.1953e-008     -2.358e-009    
  1.5             1.6817e-008     1.2284e-008     -2.029e-010    
  1.55            1.572e-008      -8.502e-009     1.2791e-009    
  1.6             1.4452e-008     -2.5901e-008    1.3013e-009    
  1.65            1.4647e-008     -2.6506e-008    1.3232e-009    
  1.7             1.2598e-008     -1.0458e-008    -9.567e-010    
  1.75            1.5774e-008     1.9134e-008     -1.6444e-009   
  1.8             1.6932e-008     1.1104e-008     3.008e-010     
END_DB

BEGIN_DB
 ICCAP_VAR VG         0.72           
 ICCAP_VAR VS         0              
 ICCAP_VAR VB         0              

 #VD              ID              IB              IG             
  0               -1.2734e-009    1.8214e-008     -1.3214e-009   
  0.05            1.1207e-006     -3.076e-009     -9.524e-010    
  0.1             1.9648e-006     2.4199e-008     -1.4629e-009   
  0.15            2.5234e-006     1.0258e-008     8.239e-010     
  0.2             2.8481e-006     -2.2265e-008    1.5527e-009    
  0.25            3.0372e-006     -1.1259e-008    -8.233e-010    
  0.3             3.1417e-006     2.0986e-008     -1.5652e-009   
  0.35            3.1818e-006     1.0946e-008     6.775e-010     
  0.4             3.2002e-006     -1.9891e-008    1.7432e-009    
  0.45            3.2343e-006     -1.1671e-008    -6.704e-010    
  0.5             3.2812e-006     1.8309e-008     -1.735e-009    
  0.55            3.2768e-006     1.0133e-008     2.0415e-009    
  0.6             3.2926e-006     -1.2059e-008    2.528e-010     
  0.65            3.3486e-006     1.1495e-008     -2.6952e-009   
  0.7             3.3244e-006     9.184e-009      1.2211e-009    
  0.75            3.3527e-006     -2.5613e-008    1.3031e-009    
  0.8             3.3729e-006     -2.3644e-008    1.2698e-009    
  0.85            3.3888e-006     -1.1603e-008    -2.52e-010     
  0.9             3.438e-006      1.2757e-008     -2.1813e-009   
  0.95            3.4506e-006     1.456e-008      -1.9512e-009   
  1               3.4685e-006     2.4767e-008     -1.3026e-009   
  1.05            3.4754e-006     1.0901e-008     3.43e-010      
  1.1             3.4642e-006     -1.5686e-008    2.2101e-009    
  1.15            3.4706e-006     -1.154e-008     -2.934e-010    
  1.2             3.5171e-006     1.3188e-008     -2.1418e-009   
  1.25            3.5301e-006     2.6487e-008     -1.3299e-009   
  1.3             3.5433e-006     2.4187e-008     -1.2978e-009   
  1.35            3.557e-006      2.0877e-008     -1.6854e-009   
  1.4             3.5593e-006     1.1056e-008     5.392e-010     
  1.45            3.5475e-006     -1.827e-008     1.937e-009     
  1.5             3.5626e-006     -1.1606e-008    -5.049e-010    
  1.55            3.5996e-006     1.5787e-008     -1.8941e-009   
  1.6             3.5766e-006     1.066e-008      1.9247e-009    
  1.65            3.5868e-006     -1.3092e-008    1.5042e-009    
  1.7             3.615e-006      -1.1644e-008    -8.67e-010     
  1.75            3.6404e-006     2.1935e-008     -1.5283e-009   
  1.8             3.6331e-006     1.0224e-008     7.285e-010     
END_DB

BEGIN_DB
 ICCAP_VAR VG         1.08           
 ICCAP_VAR VS         0              
 ICCAP_VAR VB         0              

 #VD              ID              IB              IG             
  0               -1.7804e-009    -2.1272e-008    -2.2e-012      
  0.05            2.8923e-006     2.5098e-008     2.8491e-009    
  0.1             5.4935e-006     -1.2042e-008    2.847e-010     
  0.15            7.8418e-006     1.1648e-008     -2.7187e-009   
  0.2             9.8424e-006     9.129e-009      1.1909e-009    
  0.25            1.1603e-005     -1.8154e-008    7.406e-010     
  0.3             1.3008e-005     -2.6029e-008    1.3625e-009    
  0.35            1.4153e-005     -1.1829e-008    -2.913e-010    
  0.4             1.5041e-005     1.9211e-008     -1.637e-009    
  0.45            1.5648e-005     2.758e-008      -1.3831e-009   
  0.5             1.6034e-005     1.1131e-008     3.407e-010     
  0.55            1.6234e-005     -2.0345e-008    1.6408e-009    
  0.6             1.6403e-005     -2.6635e-008    1.3195e-009    
  0.65            1.654e-005      -1.1789e-008    -4.715e-010    
  0.7             1.6688e-005     2.2088e-008     -1.51e-009     
  0.75            1.6697e-005     9.094e-009      1.0422e-009    
  0.8             1.6779e-005     -2.3675e-008    1.2785e-009    
  0.85            1.6866e-005     -1.1564e-008    -7.285e-010    
  0.9             1.6976e-005     2.6535e-008     -1.4181e-009   
  0.95            1.6935e-005     9.182e-009      1.2175e-009    
  1               1.7029e-005     -1.8611e-008    1.8713e-009    
  1.05            1.7114e-005     -1.0579e-008    -9.091e-010    
  1.1             1.7204e-005     2.8338e-008     -1.3794e-009   
  1.15            1.7239e-005     1.117e-008      3.843e-010     
  1.2             1.7223e-005     -2.102e-008     1.5901e-009    
  1.25            1.7275e-005     -2.6491e-008    1.312e-009     
  1.3             1.7337e-005     -1.1719e-008    -5.258e-010    
  1.35            1.7439e-005     2.3153e-008     -1.4846e-009   
  1.4             1.7403e-005     9.008e-009      1.076e-009     
  1.45            1.7462e-005     -2.2841e-008    1.2691e-009    
  1.5             1.7524e-005     -1.1449e-008    -7.744e-010    
  1.55            1.7612e-005     2.7102e-008     -1.4087e-009   
  1.6             1.7546e-005     9.408e-009      1.2591e-009    
  1.65            1.7623e-005     -1.7686e-008    1.8158e-009    
  1.7             1.7699e-005     -1.0431e-008    -9.4e-010      
  1.75            1.7765e-005     2.8074e-008     -1.3699e-009   
  1.8             1.7789e-005     1.0845e-008     4.259e-010     
END_DB

BEGIN_DB
 ICCAP_VAR VG         1.44           
 ICCAP_VAR VS         0              
 ICCAP_VAR VB         0              

 #VD              ID              IB              IG             
  0               -1.1742e-008    -2.1542e-008    -1.07e-009     
  0.05            4.3704e-006     1.1191e-008     1.8184e-009    
  0.1             8.5033e-006     -1.3658e-008    1.5705e-009    
  0.15            1.2424e-005     -1.1393e-008    2.8315e-009    
  0.2             1.6055e-005     -1.2195e-008    1.461e-009     
  0.25            1.945e-005      -2.5491e-008    1.2889e-009    
  0.3             2.2567e-005     -1.1851e-008    -6.72e-010     
  0.35            2.5437e-005     2.52e-008       -1.4202e-009   
  0.4             2.7991e-005     2.6864e-008     -1.3257e-009   
  0.45            3.0234e-005     1.1039e-008     6.735e-010     
  0.5             3.2156e-005     -2.5591e-008    1.3737e-009    
  0.55            3.3833e-005     -1.1686e-008    -1.983e-010    
  0.6             3.5265e-005     1.7453e-008     -1.7092e-009   
  0.65            3.6321e-005     1.0403e-008     8.711e-010     
  0.7             3.7125e-005     -2.6961e-008    1.3146e-009    
  0.75            3.7761e-005     -1.1794e-008    -4.652e-010    
  0.8             3.8268e-005     2.1634e-008     -1.5001e-009   
  0.85            3.8496e-005     9.383e-009      1.041e-009     
  0.9             3.8742e-005     -2.4523e-008    1.2785e-009    
  0.95            3.895e-005      -1.1805e-008    -7.272e-010    
  1               3.9171e-005     2.601e-008      -1.4097e-009   
  1.05            3.9161e-005     9.04e-009       1.2204e-009    
  1.1             3.933e-005      -1.914e-008     1.8843e-009    
  1.15            3.9484e-005     -1.1106e-008    -9.078e-010    
  1.2             3.9635e-005     2.8259e-008     -1.3739e-009   
  1.25            3.971e-005      1.1121e-008     3.819e-010     
  1.3             3.9719e-005     -2.0577e-008    1.5847e-009    
  1.35            3.9815e-005     -2.6837e-008    1.3078e-009    
  1.4             3.993e-005      -1.1762e-008    -5.186e-010    
  1.45            4.0082e-005     2.2734e-008     -1.4773e-009   
  1.5             4.0059e-005     8.982e-009      1.0746e-009    
  1.55            4.0169e-005     -2.358e-008     1.2719e-009    
  1.6             4.0274e-005     -1.1635e-008    -7.648e-010    
  1.65            4.0412e-005     2.6771e-008     -1.3995e-009   
  1.7             4.0484e-005     2.5119e-008     -1.3105e-009   
  1.75            4.0506e-005     1.0719e-008     7.582e-010     
  1.8             4.0513e-005     -2.6604e-008    1.3481e-009    
END_DB

BEGIN_DB
 ICCAP_VAR VG         1.8            
 ICCAP_VAR VS         0              
 ICCAP_VAR VB         0              

 #VD              ID              IB              IG             
  0               -1.0281e-008    -1.1366e-008    -5.699e-010    
  0.05            5.4669e-006     1.8209e-008     2.5121e-009    
  0.1             1.07657e-005    -1.1832e-008    -5.004e-010    
  0.15            1.5887e-005     1.2883e-008     -4.539e-010    
  0.2             2.0806e-005     2.1937e-008     -1.4981e-009   
  0.25            2.5493e-005     9.339e-009      1.0261e-009    
  0.3             2.9966e-005     -2.4173e-008    1.2885e-009    
  0.35            3.4223e-005     -1.1874e-008    -7.165e-010    
  0.4             3.8241e-005     2.6557e-008     -1.4101e-009   
  0.45            4.1992e-005     2.5503e-008     -1.3272e-009   
  0.5             4.5462e-005     1.1048e-008     7.098e-010     
  0.55            4.8646e-005     -2.654e-008     1.3662e-009    
  0.6             5.1603e-005     -1.1819e-008    -2.425e-010    
  0.65            5.4309e-005     1.8334e-008     -1.6512e-009   
  0.7             5.6702e-005     2.8352e-008     -1.3864e-009   
  0.75            5.8785e-005     1.117e-008      2.981e-010     
  0.8             6.0527e-005     -1.9822e-008    1.6609e-009    
  0.85            6.2054e-005     -2.7153e-008    1.3266e-009    
  0.9             6.3333e-005     -1.1822e-008    -4.289e-010    
  0.95            6.4414e-005     2.1551e-008     -1.5156e-009   
  1               6.511e-005      9.472e-009      1.0093e-009    
  1.05            6.5721e-005     -2.4728e-008    1.2919e-009    
  1.1             6.6213e-005     -1.1992e-008    -6.898e-010    
  1.15            6.6628e-005     7.763e-009      -1.3732e-009   
  1.2             6.6899e-005     1.1228e-008     3.92e-010      
  1.25            6.7032e-005     -2.1377e-008    1.5638e-009    
  1.3             6.7226e-005     -2.6931e-008    1.3108e-009    
  1.35            6.7429e-005     -1.1898e-008    -5.265e-010    
  1.4             6.7664e-005     2.3274e-008     -1.4682e-009   
  1.45            6.7678e-005     9.257e-009      1.0747e-009    
  1.5             6.7849e-005     -2.2676e-008    1.2766e-009    
  1.55            6.8015e-005     -1.1696e-008    -7.753e-010    
  1.6             6.8207e-005     2.7377e-008     -1.3971e-009   
  1.65            6.8314e-005     1.1062e-008     2.057e-010     
  1.7             6.8325e-005     -1.8708e-008    1.7865e-009    
  1.75            6.8514e-005     -1.065e-008     -9.482e-010    
  1.8             6.867e-005      2.8593e-008     -1.3685e-009   
END_DB

BEGIN_DB
 ICCAP_VAR VG         0              
 ICCAP_VAR VS         0              
 ICCAP_VAR VB         -0.9           

 #VD              ID              IB              IG             
  0               -9.107e-010     -2.4642e-008    -9.579e-010    
  0.05            1.2832e-009     2.5668e-008     -1.3728e-009   
  0.1             -1.9947e-009    1.1731e-008     -1.3426e-009   
  0.15            -1.276e-009     -2.5593e-008    1.3448e-009    
  0.2             2.2548e-009     -8.674e-009     1.1549e-009    
  0.25            1.9465e-009     1.1031e-008     -2.131e-010    
  0.3             8.914e-010      2.5818e-008     -1.5517e-009   
  0.35            -1.4456e-009    7.012e-009      -1.7629e-009   
  0.4             -2.2075e-009    -1.1845e-008    -4.04e-010     
  0.45            -2.2676e-009    -1.0931e-008    -6.37e-010     
  0.5             -1.5298e-009    -1.7277e-008    1.2817e-009    
  0.55            -1.313e-010     -1.2889e-008    2.8978e-009    
  0.6             1.4864e-009     1.9992e-008     -1.3347e-009   
  0.65            1.324e-010      1.1524e-008     -2.7116e-009   
  0.7             -1.2906e-009    6.74e-010       -1.8982e-009   
  0.75            -2.2698e-009    -1.0829e-008    -6.632e-010    
  0.8             -2.2959e-009    -1.0291e-008    -8.425e-010    
  0.85            -1.6322e-009    -1.288e-008     1.8481e-009    
  0.9             1.7447e-009     -8.461e-009     1.556e-009     
  0.95            1.4813e-009     1.0362e-008     1.7467e-009    
  1               2.2433e-009     1.1238e-008     3.923e-010     
  1.05            2.339e-009      1.0546e-008     5.965e-010     
  1.1             1.4969e-009     1.9583e-008     -1.33e-009     
  1.15            1.511e-010      1.1714e-008     -2.6961e-009   
  1.2             -1.2827e-009    6.99e-010       -1.911e-009    
  1.25            -2.272e-009     -1.0642e-008    -6.872e-010    
  1.3             -1.5543e-009    -1.633e-008     1.2713e-009    
  1.35            -1.738e-010     -1.3417e-008    2.879e-009     
  1.4             2.1164e-009     1.1226e-008     1.451e-010     
  1.45            2.2176e-009     1.1237e-008     3.489e-010     
  1.5             2.3126e-009     1.0665e-008     5.501e-010     
  1.55            2.386e-009      9.843e-009      7.41e-010      
  1.6             1.6174e-009     1.5724e-008     -1.7596e-009   
  1.65            -1.6658e-009    4.797e-009      -1.6083e-009   
  1.7             -2.1285e-009    -1.1837e-008    -1.624e-010    
  1.75            -2.1981e-009    -1.1818e-008    -4e-010        
  1.8             -2.2553e-009    -1.0789e-008    -6.348e-010    
END_DB

BEGIN_DB
 ICCAP_VAR VG         0.36           
 ICCAP_VAR VS         0              
 ICCAP_VAR VB         -0.9           

 #VD              ID              IB              IG             
  0               7.881e-010      2.8577e-008     7.389e-010     
  0.05            -1.3056e-009    -1.4012e-008    1.9425e-009    
  0.1             1.4441e-009     -8.1e-009       2.4593e-009    
  0.15            2.4744e-009     1.1202e-008     1.309e-010     
  0.2             2.5861e-009     1.127e-008      3.387e-010     
  0.25            2.6829e-009     1.0796e-008     5.457e-010     
  0.3             2.7611e-009     9.959e-009      7.342e-010     
  0.35            2.0034e-009     1.6157e-008     -1.7814e-009   
  0.4             -1.3624e-009    4.73e-009       1.5036e-009    
  0.45            1.4197e-009     -8.056e-009     2.6989e-009    
  0.5             2.6864e-009     1.1017e-008     4.937e-010     
  0.55            2.7725e-009     1.0248e-008     6.91e-010      
