! VERSION = 6.00
BEGIN_HEADER
 ICCAP_INPUTS
  VG         V  B GROUND SMU4 0.001 LIN        2    0          1.8        6    0.36      
  VS         V  E GROUND SMU2 0.1 CON        0
  VD         V  S GROUND SMU1 0.1 LIN        1    0          1.8        37   0.05      
  VB         V  C GROUND SMU3 0.1 LIN        3    0          -0.9       2    -0.9      
 ICCAP_OUTPUTS
  ID         I  S GROUND SMU1 B
  IB         I  C GROUND SMU3 B
  IG         I  B GROUND SMU4 B
END_HEADER

BEGIN_DB
 ICCAP_VAR VG         0              
 ICCAP_VAR VS         0              
 ICCAP_VAR VB         0              

 #VD              ID              IB              IG             
  0               -1.4086e-009    1.1033e-008     -1.3991e-009   
  0.05            -2.1763e-009    1.0551e-008     -1.1429e-009   
  0.1             -1.7882e-009    -1.1538e-008    3.209e-010     
  0.15            -8.469e-010     -2.1932e-008    1.8087e-009    
  0.2             1.7284e-009     -8.689e-009     1.588e-009     
  0.25            1.4715e-009     1.0088e-008     1.77e-009      
  0.3             2.2604e-009     1.0983e-008     4.073e-010     
  0.35            1.3652e-009     2.5047e-008     -1.3518e-009   
  0.4             1.66e-011       1.1382e-008     -1.3182e-009   
  0.45            1.578e-010      1.197e-008      -2.6922e-009   
  0.5             -2.247e-009     8.1e-010        -9.473e-010    
  0.55            -1.6614e-009    -1.1999e-008    1.6724e-009    
  0.6             1.6078e-009     -8.724e-009     1.6834e-009    
  0.65            2.2226e-009     1.1231e-008     3.117e-010     
  0.7             2.305e-009      1.0604e-008     5.082e-010     
  0.75            2.3726e-009     1.0174e-008     6.964e-010     
  0.8             2.401e-009      9.26e-009       8.638e-010     
  0.85            1.7355e-009     1.3427e-008     -1.6298e-009   
  0.9             -1.5165e-009    6.283e-009      -1.7136e-009   
  0.95            -2.1483e-009    -1.1812e-008    -2.945e-010    
  1               -2.1989e-009    -1.1644e-008    -5.212e-010    
  1.05            -2.2372e-009    -1.0431e-008    -7.379e-010    
  1.1             -1.5566e-009    -1.6004e-008    1.2478e-009    
  1.15            -1.872e-010     -1.4006e-008    2.8364e-009    
  1.2             2.1606e-009     1.1136e-008     1.859e-010     
  1.25            2.2534e-009     1.1028e-008     3.813e-010     
  1.3             2.3303e-009     1.0214e-008     5.789e-010     
  1.35            1.4934e-009     2.1134e-008     -1.3255e-009   
  1.4             1.408e-010      1.1633e-008     -2.7057e-009   
  1.45            -2.2458e-009    6.77e-010       -9.248e-010    
  1.5             -1.6469e-009    -1.2181e-008    1.707e-009     
  1.55            1.6396e-009     -8.644e-009     1.6541e-009    
  1.6             2.209e-009      1.1253e-008     2.847e-010     
  1.65            2.2946e-009     1.0871e-008     4.853e-010     
  1.7             1.4256e-009     2.3429e-008     -1.3386e-009   
  1.75            7.39e-011       1.1588e-008     -1.3023e-009   
  1.8             2.336e-010      1.2579e-008     -2.6543e-009   
END_DB

BEGIN_DB
 ICCAP_VAR VG         0.36           
 ICCAP_VAR VS         0              
 ICCAP_VAR VB         0              

 #VD              ID              IB              IG             
  0               -4.773e-010     -1.1616e-008    -1.2123e-009   
  0.05            3.5987e-008     -8.799e-009     -1.7335e-009   
  0.1             4.1904e-008     2.6281e-008     -1.3187e-009   
  0.15            4.6118e-008     2.7743e-008     -1.3356e-009   
  0.2             4.7377e-008     -9.715e-009     2.6897e-009    
  0.25            4.9157e-008     -1.2402e-008    3.16e-010      
  0.3             5.4348e-008     9.271e-009      -1.348e-009    
  0.35            5.8796e-008     9.906e-009      9.674e-010     
  0.4             6.1427e-008     -2.0148e-008    1.633e-009     
  0.45            6.3016e-008     -1.1591e-008    -4.417e-010    
  0.5             7.2458e-008     1.2852e-008     -2.3472e-009   
  0.55            7.7807e-008     1.1962e-008     -1.868e-010    
  0.6             7.8016e-008     -8.478e-009     2.8861e-009    
  0.65            8.1437e-008     -1.1065e-008    -9.166e-010    
  0.7             9.1787e-008     1.8521e-008     -1.696e-009    
  0.75            9.6407e-008     1.0974e-008     2.628e-010     
  0.8             9.9193e-008     -1.2795e-008    2.694e-009     
  0.85            1.03646e-007    -1.2496e-008    3.11e-010      
  0.9             1.08264e-007    -1.1679e-008    -2.084e-010    
  0.95            1.1859e-007     9.989e-009      -1.366e-009    
  1               1.2253e-007     8.943e-009      1.1848e-009    
  1.05            1.3095e-007     -2.5637e-008    1.2799e-009    
  1.1             1.3577e-007     -1.1725e-008    -2.954e-010    
  1.15            1.5194e-007     1.5302e-008     -1.9616e-009   
  1.2             1.5289e-007     1.0252e-008     2.0088e-009    
  1.25            1.629e-007      -1.8381e-008    1.8433e-009    
  1.3             1.705e-007      -1.1745e-008    -7.18e-010     
  1.35            1.8954e-007     2.0812e-008     -1.5547e-009   
  1.4             1.921e-007      1.0449e-008     8.062e-010     
  1.45            2.0237e-007     -2.3474e-008    1.4434e-009    
  1.5             2.1464e-007     -1.0293e-008    -9.985e-010    
  1.55            2.3569e-007     2.6662e-008     -1.3928e-009   
  1.6             2.3386e-007     8.962e-009      1.0771e-009    
  1.65            2.5098e-007     -2.6755e-008    1.3053e-009    
  1.7             2.636e-007      -1.1928e-008    -1.419e-010    
  1.75            2.9214e-007     1.3679e-008     -2.1576e-009   
  1.8             3.0723e-007     1.7104e-008     -1.7553e-009   
END_DB

BEGIN_DB
 ICCAP_VAR VG         0.72           
 ICCAP_VAR VS         0              
 ICCAP_VAR VB         0              

 #VD              ID              IB              IG             
  0               -1.10404e-007   -1.022e-008     -1.4085e-009   
  0.05            5.7082e-005     -1.6736e-008    6.563e-010     
  0.1             8.8373e-005     -2.5259e-008    1.3823e-009    
  0.15            0.000106175     -2.2915e-008    2.1042e-009    
  0.2             0.00011715      -1.2551e-008    -7.498e-010    
  0.25            0.00012361      -8.658e-009     1.3571e-009    
  0.3             0.0001296       -2.6699e-008    1.2909e-009    
  0.35            0.00013496      -1.1874e-008    -2.618e-010    
  0.4             0.0001417       1.4752e-008     -2.0121e-009   
  0.45            0.00014403      1.0363e-008     1.9764e-009    
  0.5             0.00014893      -1.7457e-008    1.887e-009     
  0.55            0.00015379      -1.1947e-008    -6.784e-010    
  0.6             0.0001599       1.9961e-008     -1.5704e-009   
  0.65            0.00016313      1.0633e-008     7.729e-010     
  0.7             0.00016667      -2.275e-008     1.4652e-009    
  0.75            0.00017235      -1.0288e-008    -9.695e-010    
  0.8             0.00017803      2.668e-008      -1.3999e-009   
  0.85            0.00017957      9.042e-009      1.0548e-009    
  0.9             0.00018417      -2.7061e-008    1.316e-009     
  0.95            0.00018899      -2.4163e-008    1.2647e-009    
  1               0.00019414      -1.181e-008     -4.572e-010    
  1.05            0.00020053      1.677e-008      -1.7728e-009   
  1.1             0.00020428      1.1173e-008     5.964e-010     
  1.15            0.00020711      -1.9652e-008    1.6556e-009    
  1.2             0.00021287      -1.178e-008     -8.287e-010    
  1.25            0.00021917      2.2534e-008     -1.4633e-009   
  1.3             0.00022416      2.6374e-008     -1.3815e-009   
  1.35            0.00022867      1.2436e-008     -1.9398e-009   
  1.4             0.0002305       5.831e-009      2.0221e-009    
  1.45            0.00023494      -1.9594e-008    1.757e-010     
  1.5             0.00024337      -1.93e-009      -2.5626e-009   
  1.55            0.00024321      -1.1051e-008    1.5657e-009    
  1.6             0.00025038      -5.006e-008     1.73e-009      
  1.65            0.00025626      -6.0267e-008    -2.1005e-009   
  1.7             0.00026239      -6.148e-008     6.65e-011      
  1.75            0.00026662      -1.0325e-007    -2.4153e-009   
  1.8             0.00026846      -1.3255e-007    1.6924e-009    
END_DB

BEGIN_DB
 ICCAP_VAR VG         1.08           
 ICCAP_VAR VS         0              
 ICCAP_VAR VB         0              

 #VD              ID              IB              IG             
  0               -1.1396e-007    2.1176e-008     -1.3099e-009   
  0.05            0.00026265      3.671e-009      -1.3638e-009   
  0.1             0.0004823       8.951e-009      1.2121e-009    
  0.15            0.00065726      -2.5333e-008    1.2756e-009    
  0.2             0.00079146      -9.89e-009      -1.4474e-009   
  0.25            0.00088536      2.4879e-008     -1.3018e-009   
  0.3             0.00095134      1.112e-008      5.035e-010     
  0.35            0.00099561      -1.8757e-008    1.7987e-009    
  0.4             0.00103233      -1.1829e-008    -7.524e-010    
  0.45            0.00106115      2.1463e-008     -1.5323e-009   
  0.5             0.00108061      1.0592e-008     8.364e-010     
  0.55            0.00109708      -2.395e-008     1.4259e-009    
  0.6             0.00111757      -1.0423e-008    -1.0294e-009   
  0.65            0.0011323       2.7088e-008     -3.837e-010    
  0.7             0.0011449       -1.1552e-008    -1.046e-010    
  0.75            0.0011636       1.3889e-008     -2.2056e-009   
  0.8             0.0011762       1.7374e-008     -1.7926e-009   
  0.85            0.0011875       1.117e-008      6.035e-010     
  0.9             0.0011971       -1.9712e-008    1.6633e-009    
  0.95            0.001212        -1.1528e-008    -8.274e-010    
  1               0.0012262       2.33e-008       -1.471e-009    
  1.05            0.0012342       1.012e-008      9.123e-010     
  1.1             0.001245        -2.541e-008     1.372e-009     
  1.15            0.0012612       -1.0317e-008    -1.1065e-009   
  1.2             0.001273        2.7426e-008     -1.3717e-009   
  1.25            0.0012838       1.5462e-008     -1.8555e-009   
  1.3             0.0012949       1.8907e-008     -1.5486e-009   
  1.35            0.0013065       7.752e-009      -2.4896e-009   
  1.4             0.001317        6.721e-009      -2.1097e-009   
  1.45            0.0013258       -2.0429e-008    -2.7233e-009   
  1.5             0.0013336       -1.3671e-008    9.957e-010     
  1.55            0.0013438       -6.4944e-008    1.3324e-009    
  1.6             0.0013577       -7.0976e-008    -2.5181e-009   
  1.65            0.0013689       -8.633e-008     5.947e-010     
  1.7             0.001375        -1.5952e-007    9.66e-011      
  1.75            0.0013914       -2.0648e-007    -2.4481e-009   
  1.8             0.0013939       -3.0414e-007    1.6719e-009    
END_DB

BEGIN_DB
 ICCAP_VAR VG         1.44           
 ICCAP_VAR VS         0              
 ICCAP_VAR VB         0              

 #VD              ID              IB              IG             
  0               -1.2233e-007    -8.514e-009     2.756e-009     
  0.05            0.00040376      9.972e-009      2.7356e-009    
  0.1             0.00077503      -1.0309e-008    -9.384e-010    
  0.15            0.00110232      8.436e-009      -1.3676e-009   
  0.2             0.00138         -9.958e-009     -2.4704e-009   
  0.25            0.0016079       2.8596e-008     -1.3554e-009   
  0.3             0.0017906       2.3515e-008     -1.2925e-009   
  0.35            0.0019339       1.1196e-008     5.56e-010      
  0.4             0.0020421       -1.9008e-008    1.694e-009     
  0.45            0.0021301       -1.1369e-008    -7.974e-010    
  0.5             0.0021988       2.2763e-008     -1.482e-009    
  0.55            0.0022513       2.7878e-008     -1.3963e-009   
  0.6             0.0022876       9.013e-009      1.108e-009     
  0.65            0.0023224       -2.7096e-008    1.3101e-009    
  0.7             0.0023529       -1.1985e-008    -1.839e-010    
  0.75            0.0023824       1.3767e-008     -2.08e-009     
  0.8             0.0024054       2.393e-008      -1.8391e-009   
  0.85            0.0024221       1.038e-008      2.066e-009     
  0.9             0.0024407       -1.8464e-008    1.7276e-009    
  0.95            0.002461        -1.1578e-008    -7.783e-010    
  1               0.0024814       2.229e-008      -1.4975e-009   
  1.05            0.0024957       1.0259e-008     8.578e-010     
  1.1             0.00251         -2.535e-008     1.4057e-009    
  1.15            0.0025302       -1.0457e-008    -1.0517e-009   
  1.2             0.0025464       2.7926e-008     -1.3893e-009   
  1.25            0.0025612       1.3851e-008     -1.9126e-009   
  1.3             0.0025717       8.677e-009      2.0155e-009    
  1.35            0.002585        -1.5044e-008    1.687e-010     
  1.4             0.0026051       5.642e-009      -2.5652e-009   
  1.45            0.0026188       2.408e-009      -2.178e-009    
  1.5             0.0026263       -8.295e-009     1.8522e-009    
  1.55            0.0026405       -4.4187e-008    3.12e-010      
  1.6             0.002659        -4.0959e-008    -2.6949e-009   
  1.65            0.0026638       -7.4219e-008    1.4126e-009    
  1.7             0.0026819       -1.2759e-007    1.2652e-009    
  1.75            0.0026957       -2.0416e-007    -2.6747e-009   
  1.8             0.0027065       -2.8058e-007    9.048e-010     
END_DB

BEGIN_DB
 ICCAP_VAR VG         1.8            
 ICCAP_VAR VS         0              
 ICCAP_VAR VB         0              

 #VD              ID              IB              IG             
  0               -9.709e-007     -1.0485e-008    -7.453e-010    
  0.05            0.00048744      -5.474e-009     1.3328e-009    
  0.1             0.00094995      -2.5484e-008    1.2776e-009    
  0.15            0.0013768       1.2507e-008     2.1945e-009    
  0.2             0.0017586       -2.0406e-008    1.9323e-009    
  0.25            0.0020942       -1.2034e-008    -6.358e-010    
  0.3             0.0023843       1.9218e-008     -1.5967e-009   
  0.35            0.0026286       1.0914e-008     7.451e-010     
  0.4             0.0028316       -2.2135e-008    1.4827e-009    
  0.45            0.0030024       -1.0755e-008    -9.502e-010    
  0.5             0.0031424       2.6533e-008     -1.4072e-009   
  0.55            0.0032518       9.387e-009      1.0306e-009    
  0.6             0.0033431       -2.6995e-008    1.3238e-009    
  0.65            0.0034181       -2.4951e-008    1.2715e-009    
  0.7             0.0034802       -1.1878e-008    -4.194e-010    
  0.75            0.0035343       1.6373e-008     -1.8195e-009   
  0.8             0.0035767       1.1235e-008     5.675e-010     
  0.85            0.00361         -1.8867e-008    1.6896e-009    
  0.9             0.0036444       -1.1633e-008    -8.049e-010    
  0.95            0.0036758       2.269e-008      -1.4785e-009   
  1               0.0036995       1.0173e-008     8.836e-010     
  1.05            0.0037214       -2.5263e-008    1.3829e-009    
  1.1             0.0037444       -2.7305e-008    1.3025e-009    
  1.15            0.0037664       -1.1985e-008    -1.915e-010    
  1.2             0.0037912       1.4094e-008     -2.0897e-009   
  1.25            0.0038054       1.013e-008      1.9227e-009    
  1.3             0.0038242       -1.2839e-008    2.576e-010     
  1.35            0.0038473       9.263e-009      -2.6517e-009   
  1.4             0.0038643       8.645e-009      -2.3415e-009   
  1.45            0.0038805       7.434e-009      -1.9082e-009   
  1.5             0.0038953       -1.915e-008     -2.7354e-009   
  1.55            0.0039075       -1.358e-008     1.0924e-009    
  1.6             0.003924        -6.4119e-008    1.3092e-009    
  1.65            0.0039417       -6.7658e-008    -2.5833e-009   
  1.7             0.0039569       -8.2449e-008    7.164e-010     
  1.75            0.0039696       -1.4423e-007    2.4822e-009    
  1.8             0.003988        -2.2646e-007    -1.8003e-009   
END_DB

BEGIN_DB
 ICCAP_VAR VG         0              
 ICCAP_VAR VS         0              
 ICCAP_VAR VB         -0.9           

 #VD              ID              IB              IG             
  0               1.3723e-009     5.771e-009      1.3244e-009    
  0.05            2.2499e-009     -9.162e-009     1.1887e-009    
  0.1             1.1463e-009     2.8789e-008     -1.4023e-009   
  0.15            -2.1776e-009    1.051e-008      -1.1489e-009   
  0.2             -1.7938e-009    -1.1635e-008    3.206e-010     
  0.25            -8.577e-010     -2.206e-008     1.7989e-009    
  0.3             1.7108e-009     -8.641e-009     1.608e-009     
  0.35            1.4619e-009     9.922e-009      1.7876e-009    
  0.4             2.2691e-009     1.091e-008      4.309e-010     
  0.45            1.3816e-009     2.4527e-008     -1.3521e-009   
  0.5             3.07e-011       1.154e-008      -1.3103e-009   
  0.55            1.854e-010      1.2249e-008     -2.6842e-009   
  0.6             -1.492e-010     9.06e-010       -2.5232e-009   
  0.65            -2.1963e-009    1.476e-009      -1.1247e-009   
  0.7             -1.7779e-009    -1.1578e-008    1.4542e-009    
  0.75            2.3935e-009     -8.431e-009     9.594e-010     
  0.8             1.8211e-009     1.2056e-008     -1.5257e-009   
  0.85            -1.3908e-009    7.74e-009       -1.8057e-009   
  0.9             -2.1862e-009    -1.1768e-008    -4.499e-010    
  0.95            -2.2308e-009    -1.1154e-008    -6.761e-010    
  1               -2.2504e-009    -1.0249e-008    -8.489e-010    
  1.05            -1.6111e-009    -1.3418e-008    1.8437e-009    
  1.1             1.7545e-009     -8.499e-009     1.5716e-009    
  1.15            1.4961e-009     9.922e-009      1.7606e-009    
  1.2             2.2618e-009     1.1086e-008     3.874e-010     
  1.25            2.3462e-009     1.0179e-008     5.858e-010     
  1.3             1.5237e-009     2.0528e-008     -1.3228e-009   
  1.35            1.845e-010      1.1876e-008     -2.6997e-009   
  1.4             -2.2002e-009    8.04e-010       -9.417e-010    
  1.45            -1.5874e-009    -1.2033e-008    1.6865e-009    
  1.5             1.7123e-009     -8.714e-009     1.6849e-009    
  1.55            2.3845e-009     1.1031e-008     3.095e-010     
  1.6             2.5414e-009     1.0409e-008     5.146e-010     
  1.65            1.794e-009      2.229e-008      -1.3371e-009   
  1.7             5.867e-010      1.1026e-008     -2.7267e-009   
  1.75            -8.511e-010     -1.0584e-008    1.2523e-009    
  1.8             1.8359e-009     -1.5082e-008    2.8437e-009    
END_DB

BEGIN_DB
 ICCAP_VAR VG         0.36           
 ICCAP_VAR VS         0              
 ICCAP_VAR VB         -0.9           

 #VD              ID              IB              IG             
  0               -1.2047e-009    1.0577e-008     -1.3441e-009   
  0.05            1.3066e-009     1.1563e-008     -1.307e-009    
  0.1             1.8303e-009     1.2435e-008     -2.661e-009    
  0.15            9.91e-010       7.53e-010       -2.4878e-009   
  0.2             1.2964e-009     1.792e-009      -2.241e-009    
  0.25            1.6411e-009     2.522e-009      -1.9569e-009   
  0.3             2.0152e-009     3.9e-009        -1.6974e-009   
  0.35            2.4467e-009     5.584e-009      -1.5236e-009   
  0.4             2.9057e-009     7.922e-009      -1.4216e-009   
  0.45            3.3834e-009     9.68e-009       -1.3806e-009   
  0.5             3.9255e-009     1.1314e-008     -1.3502e-009   
  0.55            4.5167e-009     1.1435e-008     -1.3152e-009   
