! VERSION = 6.00
BEGIN_HEADER
 ICCAP_INPUTS
  VG         V  B GROUND SMU4 0.001 LIN        1    0          1.8        37   0.05      
  VS         V  E GROUND SMU2 0.1 CON        0
  VB         V  C GROUND SMU3 0.1 LIN        3    0          -1.8       3    -0.9      
  VD         V  S GROUND SMU1 0.1 LIN        2    0.1        1.8        2    1.7       
 ICCAP_OUTPUTS
  IG         I  B GROUND SMU4 B
  ID         I  S GROUND SMU1 B
  IB         I  C GROUND SMU3 B
END_HEADER

BEGIN_DB
 ICCAP_VAR VS         0              
 ICCAP_VAR VB         0              
 ICCAP_VAR VD         0.1            

 #VG              IG              ID              IB             
  0               8.35e-010       8.153e-010      2.815e-008     
  0.05            1.2621e-009     -1.5464e-009    -1.6634e-008   
  0.1             2.8665e-009     -1.632e-010     -1.3186e-008   
  0.15            -1.3148e-009    1.5134e-009     1.9591e-008    
  0.2             -2.6653e-009    1.777e-010      1.1758e-008    
  0.25            -9.71e-010      -2.228e-009     9.09e-010      
  0.3             1.6407e-009     -1.545e-009     -1.2017e-008   
  0.35            2.5878e-009     1.6665e-009     -8.47e-009     
  0.4             3.64e-010       4.9213e-009     1.1063e-008    
  0.45            2.0755e-009     1.2074e-008     8.939e-009     
  0.5             1.4774e-009     4.9788e-008     -7.255e-009    
  0.55            -9.87e-010      1.8831e-007     1.3488e-008    
  0.6             -1.3798e-009    6.214e-007      -9.636e-009    
  0.65            1.3067e-009     1.6116e-006     1.1094e-008    
  0.7             2.8572e-009     3.5308e-006     -1.0046e-008   
  0.75            4.216e-010      6.6718e-006     1.1239e-008    
  0.8             -1.2964e-009    1.09116e-005    2.4213e-008    
  0.85            1.5048e-009     1.5901e-005     9.224e-009     
  0.9             1.3029e-009     2.1646e-005     -8.323e-009    
  0.95            2.8433e-009     2.7752e-005     -1.0342e-008   
  1               1.3468e-009     3.4001e-005     9.419e-009     
  1.05            2.338e-010      4.0545e-005     1.1217e-008    
  1.1             7.038e-010      4.6682e-005     1.0913e-008    
  1.15            -1.5587e-009    5.2713e-005     1.7557e-008    
  1.2             -1.3792e-009    5.8536e-005     7.508e-009     
  1.25            -2.7134e-009    6.4085e-005     1.152e-008     
  1.3             -1.3266e-009    6.9384e-005     -9.672e-009    
  1.35            1.2907e-009     7.4219e-005     -2.5717e-008   
  1.4             2.7907e-009     7.8918e-005     -1.1351e-008   
  1.45            5.339e-010      8.3481e-005     1.1167e-008    
  1.5             -1.7254e-009    8.7706e-005     2.183e-008     
  1.55            -1.4121e-009    9.1664e-005     5.466e-009     
  1.6             -1.3269e-009    9.539e-005      1.0307e-008    
  1.65            -2.5243e-009    9.891e-005      1.1265e-008    
  1.7             -1.8882e-009    0.000102109     1.23e-009      
  1.75            -1.4589e-009    0.000105207     4.025e-009     
  1.8             -1.3539e-009    0.00010808      9.395e-009     
END_DB

BEGIN_DB
 ICCAP_VAR VS         0              
 ICCAP_VAR VB         0              
 ICCAP_VAR VD         1.8            

 #VG              IG              ID              IB             
  0               1.2324e-009     1.1517e-009     1.0921e-008    
  0.05            2.7789e-009     -2.827e-010     -1.3977e-008   
  0.1             2.662e-010      2.1603e-009     1.1143e-008    
  0.15            4.712e-010      2.2688e-009     1.0636e-008    
  0.2             -1.3395e-009    1.4369e-009     2.3053e-008    
  0.25            -1.2943e-009    2.204e-010      1.122e-008     
  0.3             -2.621e-009     9.453e-010      1.1924e-008    
  0.35            -2.4053e-009    2.2663e-009     5.6e-010       
  0.4             2.4972e-009     1.4198e-008     2.6511e-008    
  0.45            1.8064e-009     5.5099e-008     -3.207e-009    
  0.5             -2.7291e-009    2.1121e-007     1.0829e-008    
  0.55            4.34e-011       7.2263e-007     -1.2689e-008   
  0.6             2.887e-009      2.0805e-006     2.6115e-008    
  0.65            2.7393e-009     4.9293e-006     -4.028e-009    
  0.7             2.1203e-009     9.8898e-006     -7.915e-009    
  0.75            -2.1263e-009    1.7768e-005     -6.737e-009    
  0.8             -2.6024e-009    2.8101e-005     -2.1961e-008   
  0.85            -2.7478e-009    4.1273e-005     -2.2645e-008   
  0.9             -2.5327e-009    5.6814e-005     -2.1231e-008   
  0.95            -1.9219e-009    7.4424e-005     -2.3454e-008   
  1               -1.4765e-009    9.3513e-005     -2.3198e-008   
  1.05            -1.359e-009     0.000113813     -1.9917e-008   
  1.1             -1.707e-010     0.00013471      -4.4649e-008   
  1.15            -7.201e-010     0.00015678      -4.281e-008    
  1.2             -1.0835e-009    0.00017978      -4.1368e-008   
  1.25            -1.4965e-009    0.00020298      -4.3184e-008   
  1.3             -1.8557e-009    0.00022603      -4.2902e-008   
  1.35            -2.1273e-009    0.00024942      -4.061e-008    
  1.4             -2.4831e-009    0.00027314      -3.9215e-008   
  1.45            -2.704e-009     0.00029698      -3.6759e-008   
  1.5             -2.6841e-009    0.00032078      -3.0463e-008   
  1.55            -2.2057e-009    0.00034489      -2.7211e-008   
  1.6             -1.6183e-009    0.00036879      -2.4714e-008   
  1.65            -1.3946e-009    0.00039276      -1.9356e-008   
  1.7             -2.5946e-009    0.00041626      -2.4873e-008   
  1.75            -2.0136e-009    0.0004401       -2.2537e-008   
  1.8             -1.5176e-009    0.00046372      -1.9206e-008   
END_DB

BEGIN_DB
 ICCAP_VAR VS         0              
 ICCAP_VAR VB         -0.9           
 ICCAP_VAR VD         0.1            

 #VG              IG              ID              IB             
  0               2.6267e-009     2.3831e-009     -1.536e-008    
  0.05            1.0966e-009     2.3e-009        -2.247e-009    
  0.1             -1.432e-009     1.0548e-009     2.7936e-008    
  0.15            -1.0724e-009    -2.222e-009     1.0096e-008    
  0.2             1.51e-009       -1.7549e-009    -1.1722e-008   
  0.25            9.136e-010      2.3849e-009     -8.493e-009    
  0.3             -1.5495e-009    1.7776e-009     1.2719e-008    
  0.35            -1.7827e-009    -1.4161e-009    7.608e-009     
  0.4             -4.364e-010     -2.121e-009     -1.1709e-008   
  0.45            -6.646e-010     -1.9536e-009    -1.0956e-008   
  0.5             2.149e-009      2.0415e-009     -1.7257e-008   
  0.55            1.8465e-009     6.8395e-009     -6.292e-009    
  0.6             -2.501e-009     2.9055e-008     -1.0577e-008   
  0.65            8.375e-010      1.195e-007      -1.4585e-008   
  0.7             1.1926e-009     4.0922e-007     8.924e-009     
  0.75            -1.3068e-009    1.2226e-006     -1.0269e-008   
  0.8             -2.3879e-009    2.866e-006      1.1921e-008    
  0.85            -1.7388e-009    5.5687e-006     1.73e-009      
  0.9             -1.4209e-009    9.4957e-006     5.242e-009     
  0.95            1.4931e-009     1.4331e-005     9.537e-009     
  1               1.3016e-009     2.0024e-005     -8.521e-009    
  1.05            2.8252e-009     2.6115e-005     -1.0657e-008   
  1.1             1.3714e-009     3.2374e-005     1.0389e-008    
  1.15            2.594e-010      3.892e-005      1.1411e-008    
  1.2             7.288e-010      4.5055e-005     1.056e-008     
  1.25            -1.5266e-009    5.1101e-005     1.6405e-008    
  1.3             -1.3744e-009    5.6901e-005     8.06e-009      
  1.35            -2.6985e-009    6.2424e-005     1.1912e-008    
  1.4             -1.3549e-009    6.7657e-005     -9.51e-009     
  1.45            1.284e-009      7.242e-005      -2.5209e-008   
  1.5             2.7485e-009     7.7055e-005     -1.2023e-008   
  1.55            5.74e-010       8.1528e-005     1.1287e-008    
  1.6             9.623e-010      8.5566e-005     9.516e-009     
  1.65            -1.937e-010     8.947e-005      1.2213e-008    
  1.7             -1.4225e-009    9.3143e-005     2.5591e-008    
  1.75            -1.3317e-009    9.6516e-005     1.0182e-008    
  1.8             -2.5404e-009    9.9714e-005     1.1495e-008    
END_DB

BEGIN_DB
 ICCAP_VAR VS         0              
 ICCAP_VAR VB         -0.9           
 ICCAP_VAR VD         1.8            

 #VG              IG              ID              IB             
  0               -1.1069e-009    -1.0467e-009    -1.508e-008    
  0.05            -1.6536e-009    8.388e-010      2.3293e-008    
  0.1             -1.6993e-009    -1.5474e-009    5.902e-009     
  0.15            -2.996e-010     -2.1529e-009    -1.1994e-008   
  0.2             -5.308e-010     -2.209e-009     -1.159e-008    
  0.25            -7.498e-010     -2.2452e-009    -1.0568e-008   
  0.3             2.0548e-009     -1.5412e-009    -1.5373e-008   
  0.35            2.4124e-009     1.2912e-009     -7.601e-009    
  0.4             -1.3305e-009    2.374e-009      2.1567e-008    
  0.45            -2.6927e-009    4.3875e-009     1.156e-008     
  0.5             2.8297e-009     1.9428e-008     2.7463e-008    
  0.55            4.504e-010      8.1094e-008     1.1289e-008    
  0.6             2.8322e-009     3.0104e-007     -1.1165e-008   
  0.65            -1.5971e-009    1.00798e-006    1.7868e-008    
  0.7             1.2753e-009     2.6821e-006     6.759e-009     
  0.75            2.6836e-009     6.0487e-006     -1.7222e-008   
  0.8             -1.9196e-009    1.2017e-005     -6.032e-009    
  0.85            -1.8979e-009    2.0527e-005     -2.164e-008    
  0.9             -2.196e-009     3.1908e-005     -2.3288e-008   
  0.95            -2.5449e-009    4.6075e-005     -2.575e-008    
  1               -2.7194e-009    6.2442e-005     -2.6979e-008   
  1.05            -2.6444e-009    8.0613e-005     -2.4425e-008   
  1.1             -2.1004e-009    0.00010031      -2.4996e-008   
  1.15            -2.1029e-009    0.00012106      -3.8444e-008   
  1.2             -1.5411e-009    0.00014277      -2.5666e-008   
  1.25            -1.379e-009     0.00016509      -2.1625e-008   
  1.3             -2.5349e-009    0.00018759      -2.9576e-008   
  1.35            -1.9112e-009    0.00021086      -2.8226e-008   
  1.4             -1.4616e-009    0.00023433      -2.52e-008     
  1.45            -1.3602e-009    0.00025791      -1.9519e-008   
  1.5             -2.3964e-009    0.00028141      -2.7279e-008   
  1.55            -1.7509e-009    0.00030531      -2.5338e-008   
  1.6             -1.4201e-009    0.00032916      -2.1279e-008   
  1.65            -2.6881e-009    0.00035272      -2.7065e-008   
  1.7             -2.2258e-009    0.00037652      -2.3774e-008   
  1.75            -1.618e-009     0.00040022      -2.0764e-008   
  1.8             -2.7309e-009    0.00042371      -2.8098e-008   
END_DB

BEGIN_DB
 ICCAP_VAR VS         0              
 ICCAP_VAR VB         -1.8           
 ICCAP_VAR VD         0.1            

 #VG              IG              ID              IB             
  0               8.078e-010      8.035e-010      2.8176e-008    
  0.05            2.0926e-009     -1.5635e-009    -1.5901e-008   
  0.1             1.4271e-009     1.9415e-009     -7.257e-009    
  0.15            -1.3511e-009    1.3346e-009     2.5235e-008    
  0.2             -1.3165e-009    -6.6e-012       1.1288e-008    
  0.25            -2.6848e-009    1.408e-010      1.1552e-008    
  0.3             -1.8971e-009    -1.2937e-009    6.31e-010      
  0.35            -6.671e-010     -2.2481e-009    -1.1228e-008   
  0.4             -8.361e-010     -2.2645e-009    -1.0241e-008   
  0.45            1.8792e-009     -1.5757e-009    -1.3466e-008   
  0.5             2.4784e-009     1.2941e-009     -8.664e-009    
  0.55            1.2396e-009     3.1852e-009     1.0057e-008    
  0.6             -1.3813e-009    6.3896e-009     2.8039e-008    
  0.65            2.0478e-009     2.4499e-008     2.0759e-008    
  0.7             1.4727e-009     9.9554e-008     -7.292e-009    
  0.75            -1.4381e-009    3.6438e-007     2.3171e-008    
  0.8             -2.479e-010     1.03635e-006    -1.1602e-008   
  0.85            1.4703e-009     2.452e-006      1.0086e-008    
  0.9             1.2939e-009     4.9071e-006     -8.205e-009    
  0.95            2.8315e-009     8.5302e-006     -1.0553e-008   
  1               -2.5674e-009    1.3381e-005     1.0974e-008    
  1.05            -6.876e-010     1.8921e-005     -1.1757e-008   
  1.1             1.7364e-009     2.4913e-005     -1.6964e-008   
  1.15            1.3532e-009     3.1184e-005     -8.817e-009    
  1.2             1.2606e-009     3.744e-005      -8.397e-009    
  1.25            2.6403e-009     4.3655e-005     -1.3166e-008   
  1.3             2.4935e-009     4.9742e-005     7.76e-009      
  1.35            4.76e-010       5.5586e-005     1.1101e-008    
  1.4             -1.2853e-009    6.1101e-005     2.3399e-008    
  1.45            -2.269e-009     6.633e-005      1.2712e-008    
  1.5             -1.6337e-009    7.1195e-005     2.314e-009     
  1.55            -1.3888e-009    7.5839e-005     6.001e-009     
  1.6             -1.3118e-009    8.019e-005      1.0776e-008    
  1.65            -2.4607e-009    8.4298e-005     1.1728e-008    
  1.7             -1.8025e-009    8.8061e-005     1.558e-009     
  1.75            -1.4297e-009    9.1646e-005     4.646e-009     
  1.8             -1.3372e-009    9.5013e-005     9.55e-009      
END_DB

BEGIN_DB
 ICCAP_VAR VS         0              
 ICCAP_VAR VB         -1.8           
 ICCAP_VAR VD         1.8            

 #VG              IG              ID              IB             
  0               1.1979e-009     1.1174e-009     1.1202e-008    
  0.05            2.6142e-009     -4.512e-010     -1.5085e-008   
  0.1             1.1218e-009     2.2934e-009     -2.896e-009    
  0.15            -1.4192e-009    1.0724e-009     2.844e-008     
  0.2             -1.0967e-009    -2.2217e-009    1.0174e-008    
  0.25            1.4901e-009     -1.7653e-009    -1.17e-008     
  0.3             9.297e-010      2.3997e-009     -8.256e-009    
  0.35            -1.5419e-009    1.8386e-009     1.2503e-008    
  0.4             2.002e-010      -1.6029e-009    7.377e-009     
  0.45            2.3688e-009     2.0663e-009     -1.191e-008    
  0.5             2.0543e-009     6.7138e-009     -4.563e-009    
  0.55            -1.4058e-009    2.5125e-008     -4.226e-009    
  0.6             -2.6877e-009    1.1406e-007     1.031e-008     
  0.65            -2.2036e-009    4.2445e-007     3.42e-010      
  0.7             -1.7468e-009    1.3247e-006     -9.704e-009    
  0.75            -2.0137e-009    3.3688e-006     -1.2266e-008   
  0.8             -1.05e-009      7.3501e-006     -1.4552e-008   
  0.85            2.6438e-009     1.3646e-005     -1.9388e-008   
  0.9             2.8938e-009     2.286e-005      -5.388e-009    
  0.95            2.7341e-009     3.4935e-005     -1.4674e-008   
  1               2.066e-009      4.9509e-005     -1.9394e-008   
  1.05            1.4948e-009     6.6256e-005     -2.7752e-008   
  1.1             1.31e-009       8.4733e-005     -3.1759e-008   
  1.15            2.861e-009      0.000104429     -3.5683e-008   
  1.2             2.8997e-009     0.00012541      -1.8723e-008   
  1.25            2.5305e-009     0.00014739      -2.8274e-008   
  1.3             1.8216e-009     0.0001696       -3.159e-008    
  1.35            1.3965e-009     0.00019239      -3.706e-008    
  1.4             1.2793e-009     0.0002155       -3.7078e-008   
  1.45            2.7392e-009     0.0002387       -4.0606e-008   
  1.5             2.0493e-009     0.00026242      -2.9357e-008   
  1.55            1.4859e-009     0.00028606      -3.4072e-008   
  1.6             1.3093e-009     0.00030957      -3.4593e-008   
  1.65            2.854e-009      0.00033321      -3.5824e-008   
  1.7             2.3139e-009     0.00035712      -2.519e-008    
  1.75            1.6235e-009     0.00038069      -2.8142e-008   
  1.8             1.3441e-009     0.00040419      -3.099e-008    
END_DB

