! VERSION = 6.00
BEGIN_HEADER
 ICCAP_INPUTS
  VG         V  B GROUND SMU4 0.001 LIN        1    0          1.8        37   0.05      
  VS         V  E GROUND SMU2 0.1 CON        0
  VB         V  C GROUND SMU3 0.1 LIN        3    0          -1.8       3    -0.9      
  VD         V  S GROUND SMU1 0.1 LIN        2    0.1        1.8        2    1.7       
 ICCAP_OUTPUTS
  IG         I  B GROUND SMU4 B
  ID         I  S GROUND SMU1 B
  IB         I  C GROUND SMU3 B
END_HEADER

BEGIN_DB
 ICCAP_VAR VS         0              
 ICCAP_VAR VB         0              
 ICCAP_VAR VD         0.1            

 #VG              IG              ID              IB             
  0               -1.0637e-009    -9.903e-010     -1.5814e-008   
  0.05            -1.4798e-009    9.475e-010      2.634e-008     
  0.1             -9.383e-010     -2.2075e-009    8.571e-009     
  0.15            1.6955e-009     -1.6332e-009    -1.2464e-008   
  0.2             1.6436e-009     1.6172e-009     -8.738e-009    
  0.25            2.797e-010      2.2028e-009     1.1272e-008    
  0.3             4.707e-010      2.4885e-009     1.1069e-008    
  0.35            6.451e-010      3.4654e-009     1.0399e-008    
  0.4             -1.2928e-009    6.8345e-009     1.9373e-008    
  0.45            1.5332e-009     2.1744e-008     7.453e-009     
  0.5             1.2947e-009     9.2912e-008     -8.345e-009    
  0.55            -1.7231e-009    3.5002e-007     2.7611e-008    
  0.6             -6.265e-010     1.10036e-006    -1.1812e-008   
  0.65            1.2638e-009     2.8442e-006     1.0667e-008    
  0.7             2.7381e-009     6.0365e-006     -1.1708e-008   
  0.75            5.269e-010      1.09507e-005    1.1264e-008    
  0.8             -2.6688e-009    1.7089e-005     1.0976e-008    
  0.85            -9.548e-010     2.4147e-005     -1.0733e-008   
  0.9             2.924e-010      3.145e-005      -1.2317e-008   
  0.95            1.4766e-009     3.9098e-005     -2.225e-008    
  1               1.2842e-009     4.6694e-005     -8.454e-009    
  1.05            2.8116e-009     5.4047e-005     -1.0036e-008   
  1.1             3.895e-010      6.1377e-005     1.1035e-008    
  1.15            8.135e-010      6.8115e-005     1.0278e-008    
  1.2             -1.4633e-009    7.4687e-005     1.4832e-008    
  1.25            -1.3379e-009    8.0912e-005     8.506e-009     
  1.3             -2.637e-009     8.6783e-005     1.1313e-008    
  1.35            -2.1868e-009    9.2237e-005     7.07e-010      
  1.4             -1.6097e-009    9.7458e-005     2.393e-009     
  1.45            -1.3751e-009    0.000102364     6.236e-009     
  1.5             -1.2969e-009    0.000106956     1.0576e-008    
  1.55            -2.4603e-009    0.000111302     1.1539e-008    
  1.6             -1.6589e-009    0.00011548      5.3e-010       
  1.65            -1.3845e-009    0.00011924      6.002e-009     
  1.7             -1.306e-009     0.00012284      1.0242e-008    
  1.75            -2.487e-009     0.00012622      1.1218e-008    
  1.8             -1.8957e-009    0.0001293       1.126e-009     
END_DB

BEGIN_DB
 ICCAP_VAR VS         0              
 ICCAP_VAR VB         0              
 ICCAP_VAR VD         1.8            

 #VG              IG              ID              IB             
  0               -1.3428e-009    -1.2442e-009    1.074e-008     
  0.05            -1.3289e-009    -1.9594e-009    1.1666e-008    
  0.1             1.519e-010      -1.8804e-009    -1.1662e-008   
  0.15            1.5697e-009     -9.585e-010     -2.5065e-008   
  0.2             1.7503e-009     1.5406e-009     -8.422e-009    
  0.25            3.928e-010      2.4896e-009     1.1183e-008    
  0.3             5.686e-010      3.6279e-009     1.0608e-008    
  0.35            -1.3101e-009    7.8772e-009     2.1567e-008    
  0.4             2.5555e-009     2.9e-008        2.7112e-008    
  0.45            2.8531e-009     1.2069e-007     -1.2e-008      
  0.5             2.6419e-009     4.6711e-007     -8.07e-010     
  0.55            1.9376e-009     1.5496e-006     9.753e-009     
  0.6             -2.418e-009     4.3775e-006     7.989e-009     
  0.65            -1.6179e-009    9.6824e-006     -1.7661e-008   
  0.7             2.8532e-009     1.792e-005      -2.1901e-008   
  0.75            2.6724e-009     2.9635e-005     -1.642e-008    
  0.8             2.0768e-009     4.4367e-005     -2.2428e-008   
  0.85            1.495e-009      6.1827e-005     -3.2551e-008   
  0.9             1.2946e-009     8.1411e-005     -3.8082e-008   
  0.95            2.828e-009      0.000102706     -4.2482e-008   
  1               1.247e-009      0.00012563      -2.6986e-008   
  1.05            2.6358e-009     0.00014941      -5.1244e-008   
  1.1             1.9938e-009     0.00017415      -4.1508e-008   
  1.15            1.4569e-009     0.00019919      -4.8136e-008   
  1.2             1.2823e-009     0.00022465      -4.9566e-008   
  1.25            2.8053e-009     0.00025036      -5.1473e-008   
  1.3             2.3277e-009     0.00027664      -4.1951e-008   
  1.35            1.6671e-009     0.00030265      -4.5142e-008   
  1.4             1.3368e-009     0.00032882      -4.8561e-008   
  1.45            2.8558e-009     0.00035464      -4.7543e-008   
  1.5             2.6074e-009     0.00038112      -3.845e-008    
  1.55            1.9755e-009     0.00040707      -3.8932e-008   
  1.6             1.4474e-009     0.00043305      -4.3382e-008   
  1.65            1.2806e-009     0.00045878      -4.2605e-008   
  1.7             2.7978e-009     0.00048437      -4.3467e-008   
  1.75            2.3056e-009     0.00051026      -3.242e-008    
  1.8             1.6498e-009     0.0005356       -3.5213e-008   
END_DB

BEGIN_DB
 ICCAP_VAR VS         0              
 ICCAP_VAR VB         -0.9           
 ICCAP_VAR VD         0.1            

 #VG              IG              ID              IB             
  0               -1.3445e-009    -1.2402e-009    1.0731e-008    
  0.05            -1.32e-009      -1.9554e-009    1.152e-008     
  0.1             1.546e-010      -1.8846e-009    -1.1538e-008   
  0.15            1.5595e-009     -9.695e-010     -2.4948e-008   
  0.2             8.373e-010      2.3334e-009     -8.521e-009    
  0.25            9.677e-010      2.3093e-009     9.005e-009     
  0.3             -1.4965e-009    1.7876e-009     1.2062e-008    
  0.35            -9.133e-010     -2.1807e-009    8.175e-009     
  0.4             1.7333e-009     -1.4921e-009    -1.2547e-008   
  0.45            2.4984e-009     1.6871e-009     -8.812e-009    
  0.5             2.467e-010      5.1933e-009     1.132e-008     
  0.55            -1.8012e-009    1.337e-008      -1.5691e-008   
  0.6             -1.4263e-009    6.4244e-008     4.524e-009     
  0.65            1.3228e-009     2.4894e-007     -2.2731e-008   
  0.7             2.155e-010      8.6321e-007     1.1097e-008    
  0.75            -2.5271e-009    2.3433e-006     -1.9705e-008   
  0.8             -1.9818e-009    5.2876e-006     5.39e-010      
  0.85            -1.4962e-009    9.8832e-006     3.265e-009     
  0.9             1.9427e-009     1.5798e-005     5.266e-009     
  0.95            1.4208e-009     2.2783e-005     -8.203e-009    
  1               1.2751e-009     3.0292e-005     -8.396e-009    
  1.05            2.7727e-009     3.7933e-005     -1.0856e-008   
  1.1             4.661e-010      4.5774e-005     1.1208e-008    
  1.15            8.614e-010      5.3086e-005     1.0306e-008    
  1.2             1.1978e-009     6.0114e-005     8.957e-009     
  1.25            -1.336e-009     6.7206e-005     2.796e-008     
  1.3             -2.5948e-009    7.3681e-005     1.1484e-008    
  1.35            -2.0948e-009    7.9702e-005     6.49e-010      
  1.4             -1.557e-009     8.5484e-005     2.517e-009     
  1.45            -1.3657e-009    9.0923e-005     7.135e-009     
  1.5             -1.2899e-009    9.6037e-005     1.1053e-008    
  1.55            -2.3809e-009    0.000100828     1.2023e-008    
  1.6             -1.7798e-009    0.000105264     1.426e-009     
  1.65            -1.4203e-009    0.000109465     4.864e-009     
  1.7             -1.3251e-009    0.00011341      9.55e-009      
  1.75            -1.7298e-009    0.00011721      9.137e-009     
  1.8             -1.4002e-009    0.00012064      5.231e-009     
END_DB

BEGIN_DB
 ICCAP_VAR VS         0              
 ICCAP_VAR VB         -0.9           
 ICCAP_VAR VD         1.8            

 #VG              IG              ID              IB             
  0               2.4514e-009     2.3185e-009     -1.2597e-008   
  0.05            1.1566e-009     2.1796e-009     -3.638e-009    
  0.1             -1.969e-010     1.8958e-009     1.0904e-008    
  0.15            -1.554e-009     8.717e-010      2.4643e-008    
  0.2             -1.7269e-009    -1.4438e-009    7.03e-009      
  0.25            -3.584e-010     -2.1051e-009    -1.1962e-008   
  0.3             -5.62e-010      -2.0805e-009    -1.1218e-008   
  0.35            1.3148e-009     -7.799e-010     -1.0361e-008   
  0.4             1.2781e-009     2.3992e-009     -8.697e-009    
  0.45            2.6919e-009     1.1899e-008     2.78e-008      
  0.5             5.487e-010      5.2643e-008     1.1293e-008    
  0.55            2.8321e-009     2.1775e-007     -1.2313e-008   
  0.6             2.7085e-009     8.2038e-007     -1.025e-009    
  0.65            1.6092e-009     2.5161e-006     7.749e-009     
  0.7             -2.6559e-009    6.5605e-006     6.473e-009     
  0.75            1.4633e-009     1.323e-005      -1.9018e-008   
  0.8             1.2858e-009     2.3412e-005     -2.1252e-008   
  0.85            2.802e-009      3.6818e-005     -2.7616e-008   
  0.9             2.3356e-009     5.3437e-005     -2.2939e-008   
  0.95            1.6792e-009     7.2267e-005     -3.0792e-008   
  1               1.335e-009      9.3096e-005     -3.8619e-008   
  1.05            1.6713e-009     0.00011562      -4.1146e-008   
  1.1             1.3296e-009     0.00013906      -4.3897e-008   
  1.15            2.8465e-009     0.00016318      -4.5251e-008   
  1.2             2.5879e-009     0.0001885       -3.8166e-008   
  1.25            1.9348e-009     0.00021376      -4.0856e-008   
  1.3             1.4244e-009     0.0002395       -4.6823e-008   
  1.35            1.2787e-009     0.00026538      -4.7275e-008   
  1.4             2.7728e-009     0.00029129      -4.9263e-008   
  1.45            2.2454e-009     0.0003176       -3.8821e-008   
  1.5             1.6065e-009     0.00034365      -4.2459e-008   
  1.55            1.313e-009      0.00036964      -4.5066e-008   
  1.6             2.8444e-009     0.00039545      -4.3895e-008   
  1.65            2.5264e-009     0.0004218       -3.4744e-008   
  1.7             1.8668e-009     0.00044741      -3.5616e-008   
  1.75            1.3968e-009     0.00047299      -4.0179e-008   
  1.8             2.8233e-009     0.00049844      -3.8896e-008   
END_DB

BEGIN_DB
 ICCAP_VAR VS         0              
 ICCAP_VAR VB         -1.8           
 ICCAP_VAR VD         0.1            

 #VG              IG              ID              IB             
  0               8.838e-010      8.13e-010       2.6682e-008    
  0.05            1.2719e-009     -1.4277e-009    -2.0026e-008   
  0.1             2.8444e-009     -1.13e-011      -1.1323e-008   
  0.15            9.53e-010       2.3114e-009     8.858e-009     
  0.2             -1.4926e-009    1.776e-009      1.2012e-008    
  0.25            -9.105e-010     -2.2037e-009    8.42e-009      
  0.3             1.7183e-009     -1.6226e-009    -1.2423e-008   
  0.35            1.6263e-009     1.6198e-009     -8.772e-009    
  0.4             2.713e-010      2.1424e-009     1.145e-008     
  0.45            4.59e-010       2.3265e-009     1.1045e-008    
  0.5             6.44e-010       2.8861e-009     1.0287e-008    
  0.55            -1.9047e-009    4.5564e-009     1.9031e-008    
  0.6             2.7131e-009     1.5041e-008     1.0812e-008    
  0.65            5.488e-010      6.5639e-008     1.143e-008     
  0.7             2.8139e-009     2.4844e-007     -1.1537e-008   
  0.75            -1.6674e-009    8.3902e-007     2.1033e-008    
  0.8             -2.4128e-009    2.2519e-006     -1.8291e-008   
  0.85            -4.823e-010     5.0291e-006     -1.1804e-008   
  0.9             -9.009e-010     9.5382e-006     -1.0962e-008   
  0.95            2.8368e-009     1.5462e-005     -9.839e-009    
  1               -1.7837e-009    2.2559e-005     2.3415e-008    
  1.05            -1.4114e-009    3.0044e-005     4.855e-009     
  1.1             -1.3224e-009    3.776e-005      9.786e-009     
  1.15            -2.5546e-009    4.5389e-005     1.1462e-008    
  1.2             -2.0121e-009    5.2748e-005     3.67e-010      
  1.25            -1.5013e-009    5.9873e-005     3.131e-009     
  1.3             -1.3495e-009    6.6684e-005     8.088e-009     
  1.35            -2.652e-009     7.3141e-005     1.1517e-008    
  1.4             -1.3069e-009    7.9238e-005     -9.47e-009     
  1.45            -1.014e-010     8.477e-005      -1.1525e-008   
  1.5             -6.321e-010     9.019e-005      -1.1982e-008   
  1.55            -1.0009e-009    9.53e-005       -1.0405e-008   
  1.6             2.338e-010      9.9867e-005     -1.175e-008    
  1.65            1.4108e-009     0.000104332     -2.3754e-008   
  1.7             1.2699e-009     0.000108469     -8.311e-009    
  1.75            2.7433e-009     0.000112351     -1.1171e-008   
  1.8             1.4414e-009     0.00011605      2.3456e-008    
END_DB

BEGIN_DB
 ICCAP_VAR VS         0              
 ICCAP_VAR VB         -1.8           
 ICCAP_VAR VD         1.8            

 #VG              IG              ID              IB             
  0               -8.079e-010     -8.248e-010     -2.6069e-008   
  0.05            -1.3021e-009    1.4581e-009     2.0408e-008    
  0.1             -2.6357e-009    1.291e-010      1.1573e-008    
  0.15            -9.144e-010     -2.203e-009     5.76e-010      
  0.2             1.7019e-009     -1.6255e-009    -1.2326e-008   
  0.25            1.6314e-009     1.6202e-009     -8.809e-009    
  0.3             2.829e-010      2.1593e-009     1.1362e-008    
  0.35            4.698e-010      2.3772e-009     1.0818e-008    
  0.4             -1.3206e-009    2.1843e-009     2.3827e-008    
  0.45            -2.6742e-009    4.083e-009      1.1396e-008    
  0.5             2.7051e-009     1.925e-008      1.0321e-008    
  0.55            5.73e-010       8.6704e-008     1.119e-008     
  0.6             2.8086e-009     3.4831e-007     -1.144e-008    
  0.65            1.1292e-009     1.2159e-006     3.314e-009     
  0.7             -2.1494e-009    3.6395e-006     1.0026e-008    
  0.75            -1.7703e-009    8.4221e-006     -1.7707e-008   
  0.8             2.7346e-009     1.6238e-005     -1.947e-008    
  0.85            2.1707e-009     2.7459e-005     -1.5331e-008   
  0.9             1.5334e-009     4.191e-005      -2.5018e-008   
  0.95            1.2978e-009     5.9153e-005     -3.1712e-008   
  1               2.8326e-009     7.8596e-005     -3.6382e-008   
  1.05            2.436e-009      0.000100227     -3.0968e-008   
  1.1             2.639e-009      0.00012281      -3.067e-008    
  1.15            1.9728e-009     0.0001468       -3.7272e-008   
  1.2             1.4337e-009     0.00017134      -4.442e-008    
  1.25            1.2765e-009     0.00019641      -4.5816e-008   
  1.3             2.7786e-009     0.00022179      -4.8854e-008   
  1.35            2.2552e-009     0.00024781      -3.9342e-008   
  1.4             1.5878e-009     0.00027368      -4.3349e-008   
  1.45            1.3091e-009     0.00029956      -4.6372e-008   
  1.5             2.844e-009      0.00032546      -4.5922e-008   
  1.55            2.498e-009      0.00035172      -3.6812e-008   
  1.6             1.8133e-009     0.00037749      -3.8234e-008   
  1.65            1.3681e-009     0.00040335      -4.3049e-008   
  1.7             2.833e-009      0.00042902      -4.1548e-008   
  1.75            2.6936e-009     0.00045496      -3.2154e-008   
  1.8             2.0895e-009     0.00048037      -3.2302e-008   
END_DB

