! VERSION = 6.00
BEGIN_HEADER
 ICCAP_INPUTS
  VG         V  B GROUND SMU4 0.001 LIN        2    0          1.8        6    0.36      
  VS         V  E GROUND SMU2 0.1 CON        0
  VD         V  S GROUND SMU1 0.1 LIN        1    0          1.8        37   0.05      
  VB         V  C GROUND SMU3 0.1 LIN        3    0          -0.9       2    -0.9      
 ICCAP_OUTPUTS
  ID         I  S GROUND SMU1 B
  IB         I  C GROUND SMU3 B
  IG         I  B GROUND SMU4 B
END_HEADER

BEGIN_DB
 ICCAP_VAR VG         0              
 ICCAP_VAR VS         0              
 ICCAP_VAR VB         0              

 #VD              ID              IB              IG             
  0               8.468e-010      2.6837e-008     9.046e-010     
  0.05            -1.4361e-009    -2.1495e-008    1.2905e-009    
  0.1             2.72e-011       -1.0985e-008    1.2558e-009    
  0.15            -1.499e-010     -1.3668e-008    2.8601e-009    
  0.2             2.1375e-009     1.0969e-008     1.318e-010     
  0.25            2.2358e-009     1.1178e-008     3.178e-010     
  0.3             2.3178e-009     1.0564e-008     5.202e-010     
  0.35            1.4415e-009     2.2942e-008     -1.3389e-009   
  0.4             8.18e-011       1.1266e-008     -1.3005e-009   
  0.45            2.376e-010      1.2662e-008     -2.637e-009    
  0.5             -2.2508e-009    4.68e-010       -1.0087e-009   
  0.55            -1.7152e-009    -1.1747e-008    1.5947e-009    
  0.6             1.5224e-009     -8.608e-009     1.7637e-009    
  0.65            2.2633e-009     1.1074e-008     3.899e-010     
  0.7             2.3445e-009     1.0636e-008     5.829e-010     
  0.75            2.3906e-009     9.826e-009      7.623e-010     
  0.8             1.6413e-009     1.6215e-008     -1.2908e-009   
  0.85            2.957e-010      1.3174e-008     -2.5876e-009   
  0.9             -2.2325e-009    9.86e-010       -1.0624e-009   
  0.95            -1.7517e-009    -1.1578e-008    1.523e-009     
  1               2.4028e-009     -8.253e-009     8.963e-010     
  1.05            1.7624e-009     1.309e-008      -1.6172e-009   
  1.1             -1.5093e-009    6.642e-009      -1.7533e-009   
  1.15            -2.1817e-009    -1.183e-008     -3.323e-010    
  1.2             -2.2329e-009    -1.1301e-008    -5.574e-010    
  1.25            -2.2654e-009    -1.0488e-008    -7.657e-010    
  1.3             -1.5838e-009    -1.5811e-008    1.246e-009     
  1.35            -2.118e-010     -1.4231e-008    2.8263e-009    
  1.4             2.1792e-009     1.105e-008      1.927e-010     
  1.45            2.2705e-009     1.1058e-008     3.876e-010     
  1.5             2.3501e-009     1.0297e-008     5.877e-010     
  1.55            1.5026e-009     2.1298e-008     -1.3282e-009   
  1.6             1.367e-010      1.1776e-008     -2.7062e-009   
  1.65            -1.313e-009     5.17e-010       -1.8949e-009   
  1.7             -2.2379e-009    -1.1197e-008    -6.075e-010    
  1.75            -1.5032e-009    -1.9162e-008    1.2721e-009    
  1.8             -6.29e-011      -1.2479e-008    2.8861e-009    
END_DB

BEGIN_DB
 ICCAP_VAR VG         0.36           
 ICCAP_VAR VS         0              
 ICCAP_VAR VB         0              

 #VD              ID              IB              IG             
  0               1.3207e-009     -1.1624e-008    1.4277e-009    
  0.05            3.42e-008       -1.1408e-008    -2.5636e-009   
  0.1             4.3345e-008     8.997e-009      1.2017e-009    
  0.15            4.6482e-008     -2.5058e-008    1.3844e-009    
  0.2             4.8468e-008     -1.164e-008     -7.695e-010    
  0.25            5.7541e-008     1.5758e-008     -1.9424e-009   
  0.3             6.3138e-008     2.8344e-008     -1.3554e-009   
  0.35            6.5805e-008     9.865e-009      9.703e-010     
  0.4             6.9795e-008     -2.0235e-008    1.6124e-009    
  0.45            7.3085e-008     -1.1586e-008    -4.533e-010    
  0.5             8.412e-008      1.2905e-008     -2.3494e-009   
  0.55            9.1126e-008     1.1729e-008     -1.809e-010    
  0.6             9.2778e-008     -8.538e-009     1.2701e-009    
  0.65            9.9954e-008     -2.6213e-008    1.2887e-009    
  0.7             1.07112e-007    -2.6648e-008    1.3072e-009    
  0.75            1.1338e-007     1.1038e-008     -2.7528e-009   
  0.8             1.2858e-007     1.6669e-008     -1.5383e-009   
  0.85            1.3149e-007     1.038e-008      8.184e-010     
  0.9             1.4022e-007     -2.373e-008     1.4335e-009    
  0.95            1.4972e-007     -2.6361e-008    1.3168e-009    
  1               1.6091e-007     -9.509e-009     -1.2591e-009   
  1.05            1.7798e-007     2.8096e-008     -1.3451e-009   
  1.1             1.8975e-007     2.3456e-008     -1.2916e-009   
  1.15            1.9523e-007     1.1109e-008     5.829e-010     
  1.2             2.0615e-007     -1.9539e-008    1.6884e-009    
  1.25            2.1873e-007     -1.1383e-008    -8.122e-010    
  1.3             2.4404e-007     2.2783e-008     -1.4828e-009   
  1.35            2.6126e-007     2.6945e-008     -1.3862e-009   
  1.4             2.7734e-007     2.7775e-008     -1.3412e-009   
  1.45            2.941e-007      2.2627e-008     -1.7712e-009   
  1.5             3.0236e-007     1.0977e-008     6.132e-010     
  1.55            3.1902e-007     -2.0188e-008    1.649e-009     
  1.6             3.403e-007      -1.1467e-008    -8.385e-010    
  1.65            3.7694e-007     2.3073e-008     -1.4633e-009   
  1.7             4.0159e-007     2.6906e-008     -1.3791e-009   
  1.75            4.2555e-007     2.6936e-008     -1.3322e-009   
  1.8             4.5095e-007     1.9169e-008     -1.5898e-009   
END_DB

BEGIN_DB
 ICCAP_VAR VG         0.72           
 ICCAP_VAR VS         0              
 ICCAP_VAR VB         0              

 #VD              ID              IB              IG             
  0               -1.15205e-007   -1.6061e-008    -1.7176e-009   
  0.05            5.4697e-005     -1.2937e-008    1.951e-010     
  0.1             8.4263e-005     -1.8502e-008    1.827e-009     
  0.15            0.000101904     -1.0727e-008    -9.343e-010    
  0.2             0.000112521     2.8217e-008     -1.3627e-009   
  0.25            0.00011695      2.2593e-008     1.5227e-009    
  0.3             0.00012412      -1.8099e-008    1.8149e-009    
  0.35            0.00012947      -1.1678e-008    -7.321e-010    
  0.4             0.00013576      2.1128e-008     -1.5405e-009   
  0.45            0.00013902      1.0362e-008     8.133e-010     
  0.5             0.00014305      -2.3766e-008    1.4333e-009    
  0.55            0.00014738      -2.6308e-008    1.3143e-009    
  0.6             0.00015431      -9.523e-009     -1.265e-009    
  0.65            0.00015872      2.8023e-008     -1.3421e-009   
  0.7             0.00016286      1.0816e-008     2.832e-010     
  0.75            0.00016545      -1.6581e-008    2.1151e-009    
  0.8             0.00017036      -1.1694e-008    -5.094e-010    
  0.85            0.00017656      1.8143e-008     -1.7269e-009   
  0.9             0.00017981      1.0977e-008     6.426e-010     
  0.95            0.00018313      -2.0462e-008    1.6045e-009    
  1               0.00018888      -1.1512e-008    -8.608e-010    
  1.05            0.00019476      2.4274e-008     -1.4453e-009   
  1.1             0.00019702      1.0091e-008     9.421e-010     
  1.15            0.00020123      -2.5784e-008    1.3519e-009    
  1.2             0.00020834      -1.026e-008     -1.146e-009    
  1.25            0.00021301      2.7616e-008     -1.3663e-009   
  1.3             0.00021747      1.552e-008      -1.7938e-009   
  1.35            0.00022204      1.8956e-008     -1.5096e-009   
  1.4             0.0002273       7.093e-009      -2.4477e-009   
  1.45            0.00023185      6.242e-009      -2.0485e-009   
  1.5             0.00023523      -2.039e-008     -2.7338e-009   
  1.55            0.00023837      -1.2215e-008    1.0194e-009    
  1.6             0.00024294      -6.0336e-008    1.3225e-009    
  1.65            0.00024959      -5.9017e-008    -2.5428e-009   
  1.7             0.00025459      -6.2186e-008    6.294e-010     
  1.75            0.0002589       -1.1242e-007    6.921e-010     
  1.8             0.00026289      -1.6619e-007    1.5404e-009    
END_DB

BEGIN_DB
 ICCAP_VAR VG         1.08           
 ICCAP_VAR VS         0              
 ICCAP_VAR VB         0              

 #VD              ID              IB              IG             
  0               -1.1932e-007    -3.7e-011       4.411e-010     
  0.05            0.00024499      1.2268e-008     1.9568e-009    
  0.1             0.00045293      -1.8029e-008    1.9186e-009    
  0.15            0.00061951      -1.1771e-008    -6.574e-010    
  0.2             0.00074584      1.9988e-008     -1.5881e-009   
  0.25            0.00083525      1.0671e-008     7.679e-010     
  0.3             0.00089678      -2.2658e-008    1.4754e-009    
  0.35            0.00094498      -1.065e-008     -9.666e-010    
  0.4             0.00097939      2.6281e-008     -1.4021e-009   
  0.45            0.00100045      9.279e-009      1.0463e-009    
  0.5             0.0010209       -2.6281e-008    1.3135e-009    
  0.55            0.00103951      -2.3831e-008    1.2592e-009    
  0.6             0.00105578      -1.1568e-008    -4.545e-010    
  0.65            0.00107352      1.7702e-008     -1.7777e-009   
  0.7             0.00108611      1.1104e-008     5.998e-010     
  0.75            0.00109648      -1.9983e-008    1.6512e-009    
  0.8             0.00111135      -1.1522e-008    -8.308e-010    
  0.85            0.00112593      2.3383e-008     -1.4664e-009   
  0.9             0.0011362       -1.1417e-008    1.415e-010     
  0.95            0.0011508       1.1641e-008     -2.5042e-009   
  1               0.0011618       2.8164e-008     -1.3543e-009   
  1.05            0.0011735       2.4585e-008     -1.2994e-009   
  1.1             0.0011832       1.0929e-008     5.174e-010     
  1.15            0.0011907       -1.9307e-008    1.7631e-009    
  1.2             0.0012038       -1.1968e-008    -7.654e-010    
  1.25            0.0012166       2.0899e-008     -1.5069e-009   
  1.3             0.0012283       1.0241e-008     -2.4392e-009   
  1.35            0.0012379       1.0901e-008     -2.0349e-009   
  1.4             0.0012476       1.2251e-008     -1.6556e-009   
  1.45            0.0012588       -7.98e-010      -2.6046e-009   
  1.5             0.0012617       -9.757e-009     1.5154e-009    
  1.55            0.0012748       -5.3362e-008    1.8393e-009    
  1.6             0.0012874       -6.6422e-008    -2.0588e-009   
  1.65            0.0012988       -7.8119e-008    -1e-012        
  1.7             0.001307        -1.4376e-007    2.6883e-009    
  1.75            0.0013203       -2.1289e-007    -1.6853e-009   
  1.8             0.0013292       -2.7217e-007    -1.6127e-009   
END_DB

BEGIN_DB
 ICCAP_VAR VG         1.44           
 ICCAP_VAR VS         0              
 ICCAP_VAR VB         0              

 #VD              ID              IB              IG             
  0               -1.2216e-007    1.1744e-008     -1.2021e-009   
  0.05            0.00036718      9.058e-009      -1.7208e-009   
  0.1             0.00070724      1.0955e-008     6.478e-010     
  0.15            0.00101088      -2.0424e-008    1.5927e-009    
  0.2             0.001273        9.143e-009      2.9022e-009    
  0.25            0.0014925       -1.1806e-008    2.734e-010     
  0.3             0.0016734       1.1155e-008     -2.6542e-009   
  0.35            0.0018105       9.909e-009      1.4585e-009    
  0.4             0.0019229       -1.9695e-008    1.9043e-009    
  0.45            0.0020089       -1.1808e-008    -6.658e-010    
  0.5             0.0020763       2.009e-008      -1.5827e-009   
  0.55            0.0021258       1.0787e-008     7.683e-010     
  0.6             0.0021648       -2.2815e-008    1.4689e-009    
  0.65            0.0022009       -1.0857e-008    -9.725e-010    
  0.7             0.0022309       2.6465e-008     -1.4009e-009   
  0.75            0.0022504       9.396e-009      1.0555e-009    
  0.8             0.0022728       -2.6638e-008    1.3122e-009    
  0.85            0.0022934       -2.3787e-008    2.1815e-009    
  0.9             0.002313        -1.1705e-008    -4.771e-010    
  0.95            0.0023343       1.7581e-008     -1.7648e-009   
  1               0.0023508       1.1133e-008     6.184e-010     
  1.05            0.0023632       -1.9842e-008    1.6308e-009    
  1.1             0.0023822       -1.1298e-008    -8.422e-010    
  1.15            0.0023998       2.3594e-008     -1.4526e-009   
  1.2             0.0024143       2.7353e-008     -1.3753e-009   
  1.25            0.0024287       1.5335e-008     -1.8919e-009   
  1.3             0.0024387       8.748e-009      2.0479e-009    
  1.35            0.0024516       -1.4024e-008    1.429e-010     
  1.4             0.0024714       6.795e-009      -2.516e-009    
  1.45            0.0024845       5.344e-009      -2.1313e-009   
  1.5             0.0024953       -2.2003e-008    -2.7257e-009   
  1.55            0.0025059       -1.6284e-008    9.77e-010      
  1.6             0.0025187       -6.8921e-008    1.3389e-009    
  1.65            0.0025339       -7.7638e-008    -2.5106e-009   
  1.7             0.0025467       -9.6978e-008    5.783e-010     
  1.75            0.0025582       -1.5414e-007    9.78e-011      
  1.8             0.0025743       -2.344e-007     -2.4497e-009   
END_DB

BEGIN_DB
 ICCAP_VAR VG         1.8            
 ICCAP_VAR VS         0              
 ICCAP_VAR VB         0              

 #VD              ID              IB              IG             
  0               -1.284e-007     1.1182e-008     -1.0524e-009   
  0.05            0.0004352       1.2569e-008     2.69e-011      
  0.1             0.0008518       -1.4509e-008    2.5014e-009    
  0.15            0.0012423       3.903e-009      1.3356e-009    
  0.2             0.0015988       -9.688e-009     -1.1819e-009   
  0.25            0.0019177       2.8366e-008     -1.358e-009    
  0.3             0.0021973       1.768e-008      -1.7342e-009   
  0.35            0.002438        1.1126e-008     6.42e-010      
  0.4             0.0026399       -2.0397e-008    1.6012e-009    
  0.45            0.0028114       -1.151e-008     -8.623e-010    
  0.5             0.0029532       2.4272e-008     -1.4423e-009   
  0.55            0.0030654       1.0037e-008     9.474e-010     
  0.6             0.0031573       -2.5947e-008    1.3501e-009    
  0.65            0.0032371       -9.797e-009     -1.1622e-009   
  0.7             0.0032995       2.8294e-008     -1.3654e-009   
  0.75            0.0033453       9.106e-009      1.2454e-009    
  0.8             0.0033901       -2.484e-008     1.2757e-009    
  0.85            0.003427        -1.1591e-008    -3.837e-010    
  0.9             0.0034625       1.6491e-008     -1.849e-009    
  0.95            0.0034879       9.806e-009      2.0778e-009    
  1               0.0035131       -1.9078e-008    1.7151e-009    
  1.05            0.0035391       -1.1537e-008    -7.939e-010    
  1.1             0.0035636       2.2499e-008     -1.486e-009    
  1.15            0.003585        2.7144e-008     -1.3859e-009   
  1.2             0.0036051       2.7878e-008     -1.3413e-009   
  1.25            0.0036235       2.2121e-008     -1.7544e-009   
  1.3             0.00364         1.0411e-008     6.182e-010     
  1.35            0.0036542       -2.1339e-008    1.6243e-009    
  1.4             0.003674        -1.4028e-008    -8.5e-010      
  1.45            0.0036923       1.699e-009      -1.3804e-009   
  1.5             0.0037086       6.231e-009      -1.9356e-009   
  1.55            0.0037222       -2.196e-008     -2.7459e-009   
  1.6             0.0037347       -1.7715e-008    1.0889e-009    
  1.65            0.0037497       -7.0324e-008    1.3046e-009    
  1.7             0.0037676       -7.7825e-008    -2.6021e-009   
  1.75            0.0037819       -9.7905e-008    -1.4258e-009   
  1.8             0.0037963       -1.5704e-007    -2.5883e-009   
END_DB

BEGIN_DB
 ICCAP_VAR VG         0              
 ICCAP_VAR VS         0              
 ICCAP_VAR VB         -0.9           

 #VD              ID              IB              IG             
  0               -1.6794e-009    -4.354e-009     -1.4275e-009   
  0.05            -2.2124e-009    9.917e-009      -1.0803e-009   
  0.1             -1.7675e-009    -1.1529e-008    1.4921e-009    
  0.15            2.391e-009      -8.268e-009     9.358e-010     
  0.2             1.8061e-009     1.2267e-008     -1.5449e-009   
  0.25            -1.4207e-009    7.998e-009      -1.8108e-009   
  0.3             -2.2148e-009    -1.1868e-008    -4.604e-010    
  0.35            -2.2626e-009    -1.1153e-008    -6.96e-010     
  0.4             -2.2629e-009    -1.0267e-008    -8.673e-010    
  0.45            -1.6435e-009    -1.3121e-008    1.8052e-009    
  0.5             1.7096e-009     -8.69e-009      1.625e-009     
  0.55            1.4466e-009     1.0365e-008     1.8215e-009    
  0.6             2.2916e-009     1.1066e-008     4.62e-010      
  0.65            2.3687e-009     1.0386e-008     6.644e-010     
  0.7             2.3988e-009     9.403e-009      8.401e-010     
  0.75            2.3718e-009     9.051e-009      9.952e-010     
  0.8             1.8586e-009     1.1646e-008     -1.4914e-009   
  0.85            -1.3538e-009    8.892e-009      -1.8587e-009   
  0.9             -2.2386e-009    -1.164e-008     -5.536e-010    
  0.95            -2.2683e-009    -1.0585e-008    -7.687e-010    
  1               -2.2617e-009    -9.604e-009     -9.295e-010    
  1.05            -1.677e-009     -1.216e-008     1.6954e-009    
  1.1             1.603e-009      -8.64e-009      1.7035e-009    
  1.15            2.2393e-009     1.1189e-008     3.398e-010     
  1.2             2.3322e-009     1.0533e-008     5.439e-010     
  1.25            1.4916e-009     2.1738e-008     -1.3324e-009   
  1.3             1.442e-010      1.1479e-008     -2.7047e-009   
  1.35            -2.2307e-009    5.39e-010       -9.261e-010    
  1.4             -1.6208e-009    -1.2151e-008    1.6967e-009    
  1.45            1.6775e-009     -8.617e-009     1.6966e-009    
  1.5             2.3472e-009     1.1105e-008     3.272e-010     
  1.55            2.492e-009      1.0746e-008     5.484e-010     
  1.6             2.636e-009      9.703e-009      7.36e-010      
  1.65            1.9945e-009     1.6143e-008     -1.8088e-009   
  1.7             -1.2436e-009    4.46e-009       1.4938e-009    
  1.75            1.7507e-009     -9.126e-009     2.7234e-009    
  1.8             1.2315e-009     1.1295e-008     -2.6435e-009   
END_DB

BEGIN_DB
 ICCAP_VAR VG         0.36           
 ICCAP_VAR VS         0              
 ICCAP_VAR VB         -0.9           

 #VD              ID              IB              IG             
  0               -6.809e-010     -2.309e-008     -5.868e-010    
  0.05            2.9918e-009     1.2083e-008     -1.5533e-009   
  0.1             1.1963e-009     7.524e-009      -1.4333e-009   
  0.15            1.5874e-009     9.623e-009      -1.3839e-009   
  0.2             1.9878e-009     1.1127e-008     -1.3547e-009   
  0.25            2.4124e-009     1.1425e-008     -1.32e-009     
  0.3             2.8943e-009     1.2121e-008     -2.6839e-009   
  0.35            2.1936e-009     6.17e-010       -2.5257e-009   
  0.4             2.6379e-009     1.186e-009      -2.2917e-009   
  0.45            3.1598e-009     2.493e-009      -2.0058e-009   
  0.5             3.7376e-009     3.477e-009      -1.7313e-009   
  0.55            4.3807e-009     5.439e-009      -1.5413e-009   
