! VERSION = 6.00
BEGIN_HEADER
 ICCAP_INPUTS
  VG         V  B GROUND SMU4 0.001 LIN        2    0          1.8        6    0.36      
  VS         V  E GROUND SMU2 0.1 CON        0
  VD         V  S GROUND SMU1 0.1 LIN        1    0          1.8        37   0.05      
  VB         V  C GROUND SMU3 0.1 LIN        3    0          -0.9       2    -0.9      
 ICCAP_OUTPUTS
  ID         I  S GROUND SMU1 B
  IB         I  C GROUND SMU3 B
  IG         I  B GROUND SMU4 B
END_HEADER

BEGIN_DB
 ICCAP_VAR VG         0              
 ICCAP_VAR VS         0              
 ICCAP_VAR VB         0              

 #VD              ID              IB              IG             
  0               8.618e-010      2.5912e-008     9.032e-010     
  0.05            -1.3934e-009    -2.1442e-008    1.283e-009     
  0.1             3.1e-011        -1.0813e-008    1.247e-009     
  0.15            -1.555e-010     -1.3486e-008    2.8181e-009    
  0.2             2.0886e-009     1.114e-008      1.524e-010     
  0.25            2.1895e-009     1.1137e-008     3.516e-010     
  0.3             2.2856e-009     1.0832e-008     5.55e-010      
  0.35            2.3453e-009     9.907e-009      7.352e-010     
  0.4             1.6028e-009     1.6433e-008     -1.773e-009    
  0.45            -1.6333e-009    4.957e-009      -1.6013e-009   
  0.5             -1.4526e-009    -1.9681e-008    1.2688e-009    
  0.55            -5.39e-011      -1.22e-008      2.8573e-009    
  0.6             1.4194e-009     2.2518e-008     -1.3182e-009   
  0.65            1.009e-010      1.1343e-008     -2.6758e-009   
  0.7             -2.1413e-009    -9.584e-009     -1.0943e-009   
  0.75            -1.731e-009     -1.174e-008     1.4694e-009    
  0.8             2.3512e-009     -8.551e-009     9.368e-010     
  0.85            1.7763e-009     1.232e-008      -1.5219e-009   
  0.9             -2.209e-009     7.723e-009      -9.104e-010    
  0.95            -1.6252e-009    -1.258e-008     1.7245e-009    
  1               1.623e-009      -8.875e-009     1.6432e-009    
  1.05            2.1646e-009     1.1221e-008     2.971e-010     
  1.1             2.2631e-009     1.0843e-008     4.949e-010     
  1.15            2.3337e-009     1.0117e-008     6.9e-010       
  1.2             1.566e-009      1.7642e-008     -1.8395e-009   
  1.25            -1.6895e-009    4.598e-009      -1.5609e-009   
  1.3             -1.422e-009     -2.0783e-008    1.2766e-009    
  1.35            -3.9e-012       -1.1456e-008    2.8606e-009    
  1.4             1.4413e-009     -3.99e-010      1.7945e-009    
  1.45            2.24e-009       1.0898e-008     4.589e-010     
  1.5             1.3804e-009     2.3745e-008     -1.3265e-009   
  1.55            5.83e-011       1.1142e-008     -1.2872e-009   
  1.6             2.201e-010      1.2129e-008     -2.6013e-009   
  1.65            -2.1899e-009    7.94e-010       -1.0025e-009   
  1.7             -1.675e-009     -1.1861e-008    1.5823e-009    
  1.75            2.3564e-009     -8.63e-009      8.526e-010     
  1.8             2.3218e-009     8.937e-009      9.99e-010      
END_DB

BEGIN_DB
 ICCAP_VAR VG         0.36           
 ICCAP_VAR VS         0              
 ICCAP_VAR VB         0              

 #VD              ID              IB              IG             
  0               1.2421e-009     5.505e-009      1.3207e-009    
  0.05            2.6058e-008     -1.128e-008     -2.5116e-009   
  0.1             3.2655e-008     8.853e-009      1.188e-009     
  0.15            3.2871e-008     -2.5132e-008    1.3683e-009    
  0.2             3.2133e-008     -1.1578e-008    -7.885e-010    
  0.25            3.7575e-008     1.5588e-008     -1.866e-009    
  0.3             4.0043e-008     2.8057e-008     -1.3324e-009   
  0.35            4.0672e-008     9.481e-009      9.858e-010     
  0.4             4.0858e-008     -2.0953e-008    1.5589e-009    
  0.45            4.1669e-008     -1.9108e-008    1.8563e-009    
  0.5             4.3698e-008     -2.4173e-008    1.2607e-009    
  0.55            4.3573e-008     -9.544e-009     -1.1465e-009   
  0.6             4.9847e-008     2.3596e-008     -1.4393e-009   
  0.65            5.072e-008      1.1267e-008     5.772e-010     
  0.7             5.1442e-008     -1.5305e-008    2.2707e-009    
  0.75            5.118e-008      -1.1493e-008    5.78e-011      
  0.8             5.5919e-008     1.136e-008      -2.6778e-009   
  0.85            5.7415e-008     9.455e-009      9.842e-010     
  0.9             5.8455e-008     -2.1069e-008    1.5529e-009    
  0.95            5.7933e-008     -1.1843e-008    -5.133e-010    
  1               6.5106e-008     1.2789e-008     -2.2411e-009   
  1.05            6.7982e-008     1.1408e-008     -1.283e-010    
  1.1             6.6614e-008     -8.619e-009     2.865e-009     
  1.15            6.6708e-008     -1.0542e-008    -9.646e-010    
  1.2             7.4055e-008     1.9069e-008     -1.5958e-009   
  1.25            7.3128e-008     1.1099e-008     1.8685e-009    
  1.3             7.4841e-008     -1.796e-008     1.8047e-009    
  1.35            7.7719e-008     -2.3494e-008    2.1555e-009    
  1.4             7.8582e-008     -1.1588e-008    -1.08e-011     
  1.45            8.5096e-008     1.1504e-008     -2.6538e-009   
  1.5             8.9654e-008     1.8102e-008     -1.5643e-009   
  1.55            8.7579e-008     1.0916e-008     1.9024e-009    
  1.6             8.9976e-008     -1.7244e-008    1.7565e-009    
  1.65            9.3126e-008     -2.2971e-008    2.1081e-009    
  1.7             9.396e-008      -1.1789e-008    -4.66e-011     
  1.75            1.02891e-007    1.1383e-008     -2.6352e-009   
  1.8             1.06962e-007    1.7227e-008     -1.5373e-009   
END_DB

BEGIN_DB
 ICCAP_VAR VG         0.72           
 ICCAP_VAR VS         0              
 ICCAP_VAR VB         0              

 #VD              ID              IB              IG             
  0               -8.5893e-008    1.4106e-008     3.835e-010     
  0.05            4.5182e-005     -2.2937e-008    1.0203e-009    
  0.1             7.0381e-005     -2.4565e-008    1.2651e-009    
  0.15            8.3662e-005     -1.1698e-008    -7.157e-010    
  0.2             9.1191e-005     2.5831e-008     -1.399e-009    
  0.25            9.5428e-005     2.5914e-008     -1.2991e-009   
  0.3             9.76e-005       1.0868e-008     7.154e-010     
  0.35            9.9435e-005     -2.5712e-008    1.3501e-009    
  0.4             0.000102089     -2.1112e-008    1.981e-009     
  0.45            0.000104639     -1.104e-008     -8.507e-010    
  0.5             0.000107617     2.7379e-008     -1.3647e-009   
  0.55            0.000109167     1.1061e-008     3.266e-010     
  0.6             0.000109853     -1.9758e-008    1.6544e-009    
  0.65            0.000111812     -2.6396e-008    1.303e-009     
  0.7             0.00011447      1.1673e-008     -1.054e-009    
  0.75            0.0001172       1.9827e-008     -1.6257e-009   
  0.8             0.00011817      1.0996e-008     7.131e-010     
  0.85            0.00011901      -2.1853e-008    1.519e-009     
  0.9             0.00012189      -1.0879e-008    -9.242e-010    
  0.95            0.00012463      2.5711e-008     -1.403e-009    
  1               0.00012451      9.505e-009      9.986e-010     
  1.05            0.00012633      -2.6206e-008    1.3193e-009    
  1.1             0.00012973      -9.548e-009     -1.2201e-009   
  1.15            0.00013165      2.7885e-008     -1.3332e-009   
  1.2             0.00013342      2.3774e-008     -1.813e-009    
  1.25            0.00013426      1.0997e-008     5.584e-010     
  1.3             0.00013503      -1.9877e-008    1.6938e-009    
  1.35            0.00013711      -1.2322e-008    -7.993e-010    
  1.4             0.00014007      2.0673e-008     -1.4673e-009   
  1.45            0.00014204      8.678e-009      -2.3474e-009   
  1.5             0.00014365      8.759e-009      -1.9449e-009   
  1.55            0.0001453       1.362e-009      -2.6943e-009   
  1.6             0.00014719      -3.731e-009     -2.5235e-009   
  1.65            0.00014566      -1.1578e-008    1.5338e-009    
  1.7             0.00014903      -5.0354e-008    1.729e-009     
  1.75            0.00015113      -5.7542e-008    -2.0655e-009   
  1.8             0.00015365      -5.5605e-008    5.99e-011      
END_DB

BEGIN_DB
 ICCAP_VAR VG         1.08           
 ICCAP_VAR VS         0              
 ICCAP_VAR VB         0              

 #VD              ID              IB              IG             
  0               9.1754e-007     -2.3098e-008    1.2013e-009    
  0.05            0.00017768      -8.787e-009     1.2596e-009    
  0.1             0.00033159      -1.1715e-008    -4.202e-010    
  0.15            0.00045944      1.6843e-008     -1.8023e-009   
  0.2             0.00055897      1.1246e-008     5.643e-010     
  0.25            0.00063111      -1.937e-008     1.6849e-009    
  0.3             0.0006845       -1.1386e-008    -8.052e-010    
  0.35            0.00072151      2.3044e-008     -1.4632e-009   
  0.4             0.00074663      2.7141e-008     -1.3709e-009   
  0.45            0.00076434      2.7311e-008     -1.32e-009     
  0.5             0.00077745      1.1069e-008     3.329e-010     
  0.55            0.00078526      -1.6971e-008    2.0269e-009    
  0.6             0.00079497      -1.1843e-008    -5.805e-010    
  0.65            0.00080559      1.872e-008      -1.6407e-009   
  0.7             0.0008121       1.1073e-008     6.992e-010     
  0.75            0.00081674      -2.164e-008     1.5309e-009    
  0.8             0.00082576      -1.104e-008     -9.105e-010    
  0.85            0.00083341      2.5391e-008     -1.4073e-009   
  0.9             0.00083631      9.653e-009      9.843e-010     
  0.95            0.00084209      -2.5887e-008    1.324e-009     
  1               0.00084889      -2.4529e-008    1.2655e-009    
  1.05            0.00085474      -1.8421e-008    1.814e-009     
  1.1             0.00086103      -1.1779e-008    -7.24e-010     
  1.15            0.00086807      2.1089e-008     -1.5191e-009   
  1.2             0.00087174      1.0594e-008     8.089e-010     
  1.25            0.00087511      -2.4263e-008    1.4244e-009    
  1.3             0.00088338      -1.047e-008     -1.0134e-009   
  1.35            0.00088954      2.6249e-008     -1.3739e-009   
  1.4             0.00089444      1.2753e-008     -1.9616e-009   
  1.45            0.00089604      7.044e-009      1.9542e-009    
  1.5             0.00090066      -1.7886e-008    1.93e-010      
  1.55            0.00091024      1.39e-010       -2.5385e-009   
  1.6             0.00090913      -7.611e-009     1.5184e-009    
  1.65            0.00091608      -4.8502e-008    1.7529e-009    
  1.7             0.00092293      -5.955e-008     -2.0551e-009   
  1.75            0.00092876      -6.6002e-008    4.59e-011      
  1.8             0.00093228      -1.3188e-007    6.414e-010     
END_DB

BEGIN_DB
 ICCAP_VAR VG         1.44           
 ICCAP_VAR VS         0              
 ICCAP_VAR VB         0              

 #VD              ID              IB              IG             
  0               9.5856e-007     -2.645e-008     1.2514e-009    
  0.05            0.00025486      -6.711e-009     1.3055e-009    
  0.1             0.00049452      -2.3406e-008    1.2533e-009    
  0.15            0.00071527      -1.1911e-008    -4.87e-010     
  0.2             0.00091417      1.7368e-008     -1.735e-009    
  0.25            0.00108688      1.1273e-008     6.229e-010     
  0.3             0.0012336       -9.351e-009     1.3113e-009    
  0.35            0.0013563       -2.2496e-008    1.2496e-009    
  0.4             0.0014542       -1.1888e-008    -5.161e-010    
  0.45            0.0015333       1.7703e-008     -1.7021e-009   
  0.5             0.0015917       1.1185e-008     6.468e-010     
  0.55            0.0016336       -2.0402e-008    1.5933e-009    
  0.6             0.0016707       -1.086e-008     -8.645e-010    
  0.65            0.0016986       2.4239e-008     -1.4285e-009   
  0.7             0.001719        9.596e-009      9.402e-010     
  0.75            0.0017356       -2.5787e-008    1.3443e-009    
  0.8             0.0017547       -9.347e-009     -1.1505e-009   
  0.85            0.0017671       2.8098e-008     -1.3485e-009   
  0.9             0.0017789       2.5583e-008     -1.2957e-009   
  0.95            0.0017886       1.1279e-008     4.773e-010     
  1               0.0017948       -1.8379e-008    1.8161e-009    
  1.05            0.0018052       -1.1724e-008    -7.267e-010    
  1.1             0.0018178       2.0778e-008     -1.5232e-009   
  1.15            0.0018243       1.0265e-008     8.093e-010     
  1.2             0.0018312       -2.3823e-008    1.4293e-009    
  1.25            0.0018432       -1.017e-008     -1.0073e-009   
  1.3             0.0018521       2.671e-008      -1.3774e-009   
  1.35            0.0018594       2.7612e-008     -1.328e-009    
  1.4             0.0018661       2.228e-008      -1.7589e-009   
  1.45            0.0018721       9.892e-009      5.995e-010     
  1.5             0.0018777       -2.2462e-008    1.6475e-009    
  1.55            0.0018857       -1.6154e-008    -8.3e-010      
  1.6             0.0018955       -2.251e-009     -1.3689e-009   
  1.65            0.0018995       -8.013e-009     2.4774e-009    
  1.7             0.0019071       -3.8058e-008    -6.441e-010    
  1.75            0.0019158       -2.3443e-008    -1.5866e-009   
  1.8             0.0019197       -5.8761e-008    2.1997e-009    
END_DB

BEGIN_DB
 ICCAP_VAR VG         1.8            
 ICCAP_VAR VS         0              
 ICCAP_VAR VB         0              

 #VD              ID              IB              IG             
  0               9.6933e-007     2.138e-009      -2.5039e-009   
  0.05            0.00029735      -1.1987e-008    -2.4871e-009   
  0.1             0.00058525      1.128e-008      6.076e-010     
  0.15            0.0008604       -1.9757e-008    1.6289e-009    
  0.2             0.00111942      -1.1146e-008    -8.388e-010    
  0.25            0.0013607       1.5734e-008     1.951e-010     
  0.3             0.0015814       1.1351e-008     -2.5518e-009   
  0.35            0.0017789       1.1129e-008     -1.9e-011      
  0.4             0.0019524       -1.3962e-008    2.5486e-009    
  0.45            0.0021049       -2.5286e-008    1.2777e-009    
  0.5             0.0022373       -1.1918e-008    -3.522e-010    
  0.55            0.0023501       1.5338e-008     -1.8721e-009   
  0.6             0.0024377       1.0656e-008     2.0145e-009    
  0.65            0.0025111       -1.1518e-008    1.413e-010     
  0.7             0.002575        1.1621e-008     -2.4865e-009   
  0.75            0.0026214       1.1104e-008     3.61e-011      
  0.8             0.0026563       -1.4534e-008    2.4716e-009    
  0.85            0.0026905       -1.1903e-008    -2.266e-010    
  0.9             0.0027195       1.4103e-008     -2.0142e-009   
  0.95            0.0027391       1.0799e-008     1.9281e-009    
  1               0.0027585       -1.7357e-008    1.9037e-009    
  1.05            0.0027757       -1.1966e-008    -6.577e-010    
  1.1             0.002794        1.9636e-008     -1.5701e-009   
  1.15            0.0028078       1.0657e-008     7.575e-010     
  1.2             0.0028189       -2.2574e-008    1.4766e-009    
  1.25            0.0028311       -1.0278e-008    -9.594e-010    
  1.3             0.002846        2.6278e-008     -1.3908e-009   
  1.35            0.0028515       8.843e-009      1.0316e-009    
  1.4             0.0028612       -2.6801e-008    1.3135e-009    
  1.45            0.0028739       -1.2229e-008    -1.114e-010    
  1.5             0.0028867       1.2291e-008     -2.17e-009     
  1.55            0.0028949       1.4956e-008     -1.7425e-009   
  1.6             0.0029073       8.062e-009      -2.6437e-009   
  1.65            0.0029164       5.825e-009      -2.3824e-009   
  1.7             0.002926        3.233e-009      -1.9716e-009   
  1.75            0.0029342       -7.14e-009      4.329e-010     
  1.8             0.0029406       -4.8612e-008    1.8607e-009    
END_DB

BEGIN_DB
 ICCAP_VAR VG         0              
 ICCAP_VAR VS         0              
 ICCAP_VAR VB         -0.9           

 #VD              ID              IB              IG             
  0               8.726e-010      2.5266e-008     8.722e-010     
  0.05            -1.4297e-009    -1.9899e-008    1.2807e-009    
  0.1             -1.38e-011      -1.1462e-008    2.8793e-009    
  0.15            1.3911e-009     2.2936e-008     -1.3301e-009   
  0.2             7.24e-011       1.1441e-008     -2.7043e-009   
  0.25            -1.9939e-009    -1.174e-008     1.5e-012       
  0.3             -2.0975e-009    -1.1923e-008    -2.309e-010    
  0.35            -2.1578e-009    -1.1611e-008    -4.652e-010    
  0.4             -2.2097e-009    -1.0709e-008    -6.921e-010    
  0.45            -1.5132e-009    -1.6705e-008    1.2534e-009    
  0.5             -1.597e-010     -1.3496e-008    2.8387e-009    
  0.55            2.0965e-009     1.128e-008      1.539e-010     
  0.6             2.1935e-009     1.119e-008      3.545e-010     
  0.65            2.2867e-009     1.0364e-008     5.561e-010     
  0.7             1.4456e-009     2.1172e-008     -1.315e-009    
  0.75            1.28e-010       1.1538e-008     -2.6739e-009   
  0.8             -2.2252e-009    6.35e-010       -9.149e-010    
  0.85            -1.627e-009     -1.2079e-008    1.7041e-009    
  0.9             1.6048e-009     -8.51e-009      1.6365e-009    
  0.95            2.1627e-009     1.1337e-008     3.025e-010     
  1               2.2535e-009     1.0907e-008     5.006e-010     
  1.05            2.331e-009      1.0045e-008     6.941e-010     
  1.1             1.5588e-009     1.7427e-008     -1.8353e-009   
  1.15            -1.6989e-009    4.279e-009      -1.5476e-009   
  1.2             -2.0425e-009    -1.1806e-008    -9.95e-011     
  1.25            -2.118e-009     -1.1934e-008    -3.325e-010    
  1.3             -2.1742e-009    -1.1248e-008    -5.539e-010    
  1.35            -2.2139e-009    -1.0263e-008    -7.7e-010      
  1.4             -2.2176e-009    -9.377e-009     -9.192e-010    
  1.45            -1.626e-009     -1.2297e-008    1.7048e-009    
  1.5             1.6116e-009     -8.692e-009     1.641e-009     
  1.55            2.1637e-009     1.1363e-008     2.98e-010      
  1.6             2.2537e-009     1.0638e-008     5.033e-010     
  1.65            2.33e-009       1.0014e-008     6.946e-010     
  1.7             1.5617e-009     1.7513e-008     -1.8299e-009   
  1.75            -1.7007e-009    4.443e-009      -1.5482e-009   
  1.8             -1.4107e-009    -2.1137e-008    1.2813e-009    
END_DB

BEGIN_DB
 ICCAP_VAR VG         0.36           
 ICCAP_VAR VS         0              
 ICCAP_VAR VB         -0.9           

 #VD              ID              IB              IG             
  0               6.389e-010      2.3567e-008     4.473e-010     
  0.05            -3.475e-010     -2.0027e-008    2.0488e-009    
  0.1             1.5697e-009     -6.787e-009     2.3819e-009    
  0.15            2.5581e-009     1.1079e-008     4.62e-011      
  0.2             2.6953e-009     1.139e-008      2.412e-010     
  0.25            2.8318e-009     1.0993e-008     4.491e-010     
  0.3             2.032e-009      2.3304e-008     -1.3337e-009   
  0.35            7.703e-010      1.1143e-008     -2.7079e-009   
  0.4             -6.682e-010     -2.0055e-008    1.2827e-009    
  0.45            1.6686e-009     -1.1338e-008    2.8653e-009    
  0.5             2.2648e-009     2.3092e-008     -1.3344e-009   
  0.55            1.0116e-009     1.1187e-008     -2.6958e-009   
