! VERSION = 6.00
BEGIN_HEADER
 ICCAP_INPUTS
  VG         V  B GROUND SMU4 0.001 LIN        2    0          1.8        6    0.36      
  VS         V  E GROUND SMU2 0.1 CON        0
  VD         V  S GROUND SMU1 0.1 LIN        1    0          1.8        37   0.05      
  VB         V  C GROUND SMU3 0.1 LIN        3    0          -0.9       2    -0.9      
 ICCAP_OUTPUTS
  ID         I  S GROUND SMU1 B
  IB         I  C GROUND SMU3 B
  IG         I  B GROUND SMU4 B
END_HEADER

BEGIN_DB
 ICCAP_VAR VG         0              
 ICCAP_VAR VS         0              
 ICCAP_VAR VB         0              

 #VD              ID              IB              IG             
  0               -1.0681e-009    8.444e-009      -1.1911e-009   
  0.05            1.621e-010      1.2267e-008     -1.8512e-009   
  0.1             -1.9302e-009    -9.121e-009     -2.171e-010    
  0.15            -1.1245e-009    -1.2562e-008    1.1462e-009    
  0.2             9.731e-010      -9.108e-009     1.9222e-009    
  0.25            1.1211e-009     9.811e-009      -1.2231e-009   
  0.3             -1.279e-009     8.262e-009      -1.3155e-009   
  0.35            -1.8171e-009    -9.724e-009     9.09e-011      
  0.4             -1.8837e-009    -9.871e-009     -1.167e-010    
  0.45            -1.9253e-009    -9.308e-009     -3.032e-010    
  0.5             -1.944e-009     -8.92e-009      -4.304e-010    
  0.55            -1.8857e-009    -9.19e-009      -6.092e-010    
  0.6             -1.352e-009     -8.925e-009     1.1874e-009    
  0.65            -1.634e-010     -1.3573e-008    1.1914e-009    
  0.7             9.966e-010      -3.295e-009     1.9928e-009    
  0.75            1.2058e-009     1.0564e-008     -1.2121e-009   
  0.8             -1.1829e-009    9.289e-009      -1.3995e-009   
  0.85            -1.8685e-009    -9.65e-009      -4.39e-011     
  0.9             -1.9258e-009    -9.189e-009     -2.411e-010    
  0.95            -1.1311e-009    -1.2259e-008    1.1477e-009    
  1               9.781e-010      -9.276e-009     1.9258e-009    
  1.05            1.1304e-009     9.03e-009       -1.219e-009    
  1.1             -1.2586e-009    8.22e-009       -1.3258e-009   
  1.15            -1.8278e-009    -9.76e-009      7.26e-011      
  1.2             -1.8845e-009    -9.788e-009     -1.453e-010    
  1.25            -1.9311e-009    -9.234e-009     -3.074e-010    
  1.3             -1.9404e-009    -8.926e-009     -4.518e-010    
  1.35            -1.8791e-009    -9.608e-009     -6.24e-010     
  1.4             -1.3643e-009    -8.91e-009      1.1862e-009    
  1.45            -1.671e-010     -1.3867e-008    1.19e-009      
  1.5             9.982e-010      -3.504e-009     2.0149e-009    
  1.55            1.2263e-009     1.0994e-008     -1.1985e-009   
  1.6             -1.1747e-009    9.594e-009      -1.4149e-009   
  1.65            -1.1927e-009    -1.0099e-008    1.1609e-009    
  1.7             9.972e-010      -1.0427e-008    2.0323e-009    
  1.75            1.2426e-009     9.629e-009      -1.2e-009      
  1.8             -1.1593e-009    9.941e-009      -1.4238e-009   
END_DB

BEGIN_DB
 ICCAP_VAR VG         0.36           
 ICCAP_VAR VS         0              
 ICCAP_VAR VB         0              

 #VD              ID              IB              IG             
  0               -9.935e-010     -1.2858e-008    -1.1199e-009   
  0.05            1.1692e-009     3.631e-009      -1.2592e-009   
  0.1             1.8575e-009     5.16e-009       -1.2485e-009   
  0.15            2.3075e-009     5.351e-009      -1.2399e-009   
  0.2             2.7384e-009     5.872e-009      -1.2278e-009   
  0.25            3.1796e-009     7.593e-009      -1.2126e-009   
  0.3             3.5998e-009     9.31e-009       -2.0857e-009   
  0.35            1.9186e-009     -9.685e-009     -3.83e-011     
  0.4             2.1475e-009     -9.181e-009     -2.431e-010    
  0.45            2.3622e-009     -8.79e-009      -3.781e-010    
  0.5             2.6478e-009     -8.974e-009     -5.311e-010    
  0.55            3.0117e-009     -1.0333e-008    -7.023e-010    
  0.6             3.4265e-009     -1.0157e-008    -8.999e-010    
  0.65            3.7993e-009     -8.971e-009     1.181e-009     
  0.7             6.4964e-009     -3.24e-009      1.1686e-009    
  0.75            6.6971e-009     -2.636e-009     1.104e-009     
  0.8             6.8819e-009     -2.724e-009     1.0989e-009    
  0.85            7.1005e-009     -4.141e-009     1.1227e-009    
  0.9             7.3138e-009     -7.014e-009     1.1516e-009    
  0.95            7.4821e-009     -9.151e-009     1.1779e-009    
  1               7.6832e-009     -1.0445e-008    1.1871e-009    
  1.05            7.8909e-009     -1.262e-008     1.1893e-009    
  1.1             8.1434e-009     -1.5217e-008    1.6431e-009    
  1.15            1.00131e-008    1.168e-008      1.1849e-009    
  1.2             1.08644e-008    8.014e-009      -2.13e-011     
  1.25            1.13969e-008    8.546e-009      1.371e-010     
  1.3             9.602e-009      -9.873e-009     -1.2145e-009   
  1.35            1.3326e-008     9.182e-009      8.702e-010     
  1.4             1.2505e-008     -2.692e-009     1.1326e-009    
  1.45            9.367e-009      -8.975e-009     -6.597e-010    
  1.5             1.1237e-008     1.748e-009      -1.2562e-009   
  1.55            1.4766e-008     8.839e-009      3.683e-010     
  1.6             1.4193e-008     -1.3346e-008    1.4805e-009    
  1.65            1.2964e-008     -9.011e-009     2.455e-010     
  1.7             1.462e-008      5.552e-009      -1.2127e-009   
  1.75            1.8182e-008     9.249e-009      9.288e-010     
  1.8             1.7957e-008     -2.749e-009     1.141e-009     
END_DB

BEGIN_DB
 ICCAP_VAR VG         0.72           
 ICCAP_VAR VS         0              
 ICCAP_VAR VB         0              

 #VD              ID              IB              IG             
  0               -1.8711e-009    5.343e-009      7.45e-011      
  0.05            2.2432e-006     -9.486e-009     -1.8142e-009   
  0.1             3.5795e-006     5.71e-009       -1.2349e-009   
  0.15            4.2488e-006     9.264e-009      8.043e-010     
  0.2             4.7055e-006     -3.986e-009     1.1628e-009    
  0.25            5.0455e-006     -9.144e-009     -6e-012        
  0.3             5.3583e-006     1.0405e-008     -1.679e-009    
  0.35            5.5325e-006     1.1735e-008     1.3977e-009    
  0.4             5.7403e-006     -9.967e-009     1.1905e-009    
  0.45            5.9899e-006     -9.543e-009     -3.328e-010    
  0.5             6.2191e-006     6.18e-010       -1.2618e-009   
  0.55            6.3632e-006     8.349e-009      4.279e-010     
  0.6             6.5456e-006     -3.05e-009      1.0902e-009    
  0.65            6.7455e-006     -1.0847e-008    1.1927e-009    
  0.7             6.9669e-006     -1.0217e-008    -1.5372e-009   
  0.75            7.1929e-006     1.1543e-008     -1.5882e-009   
  0.8             7.3153e-006     1.2091e-008     1.4649e-009    
  0.85            7.4765e-006     -9.395e-009     1.1864e-009    
  0.9             7.7218e-006     -9.742e-009     -3.935e-010    
  0.95            7.936e-006      1.378e-009      -1.2532e-009   
  1               8.0465e-006     8.477e-009      5.197e-010     
  1.05            8.2209e-006     -2.726e-009     1.0988e-009    
  1.1             8.5125e-006     -8.903e-009     -7.089e-010    
  1.15            8.6854e-006     4.212e-009      -1.2374e-009   
  1.2             8.7417e-006     8.537e-009      7.664e-010     
  1.25            8.9462e-006     -3.572e-009     1.1556e-009    
  1.3             9.1559e-006     -1.4343e-008    1.174e-009     
  1.35            9.4564e-006     -1.0095e-008    -1.223e-009    
  1.4             9.6415e-006     5.842e-009      -2.1802e-009   
  1.45            9.6712e-006     9.092e-009      1.0046e-009    
  1.5             9.8929e-006     -7.465e-009     1.1822e-009    
  1.55            1.01425e-005    -1.0809e-008    -2.215e-010    
  1.6             1.03994e-005    1.2134e-008     -1.4628e-009   
  1.65            1.05711e-005    5.516e-009      1.688e-010     
  1.7             1.06881e-005    -1.6715e-008    1.4907e-009    
  1.75            1.09468e-005    -1.5064e-008    -1.507e-009    
  1.8             1.11857e-005    4.287e-009      -1.6423e-009   
END_DB

BEGIN_DB
 ICCAP_VAR VG         1.08           
 ICCAP_VAR VS         0              
 ICCAP_VAR VB         0              

 #VD              ID              IB              IG             
  0               -2.47e-008      -9.218e-009     1.1193e-009    
  0.05            9.6344e-006     9.851e-009      1.1874e-009    
  0.1             1.7883e-005     -9.801e-009     2.3205e-009    
  0.15            2.4544e-005     -9.734e-009     1.187e-009     
  0.2             2.9866e-005     -8.761e-009     -6.832e-010    
  0.25            3.3796e-005     5.384e-009      -1.2155e-009   
  0.3             3.659e-005      1.2007e-008     1.492e-009     
  0.35            3.8641e-005     -1.7496e-008    1.1839e-009    
  0.4             4.04e-005       -8.683e-009     -6.417e-010    
  0.45            4.1629e-005     5.427e-009      -1.2187e-009   
  0.5             4.2515e-005     1.1794e-008     1.4639e-009    
  0.55            4.3334e-005     -1.681e-008     1.2094e-009    
  0.6             4.4308e-005     -8.913e-009     -6.008e-010    
  0.65            4.5049e-005     5.491e-009      -1.222e-009    
  0.7             4.5579e-005     1.2017e-008     1.4229e-009    
  0.75            4.6178e-005     -1.6115e-008    1.2557e-009    
  0.8             4.6986e-005     -9.08e-009      -5.566e-010    
  0.85            4.7606e-005     5.524e-009      -1.2258e-009   
  0.9             4.8023e-005     1.1771e-008     1.3816e-009    
  0.95            4.8554e-005     -1.5571e-008    1.2888e-009    
  1               4.9283e-005     -9.229e-009     -5.329e-010    
  1.05            4.978e-005      5.42e-009       -1.2281e-009   
  1.1             5.0284e-005     8.87e-009       3.46e-010      
  1.15            5.0725e-005     -2.877e-009     1.1267e-009    
  1.2             5.1307e-005     -9.742e-009     -1.76e-010     
  1.25            5.1913e-005     2.76e-009       -1.2489e-009   
  1.3             5.2171e-005     8.949e-009      9.237e-010     
  1.35            5.273e-005      -1.1358e-008    1.1836e-009    
  1.4             5.3405e-005     -9.45e-009      -5.69e-010     
  1.45            5.3904e-005     4.825e-009      -1.2242e-009   
  1.5             5.4206e-005     1.0738e-008     1.3897e-009    
  1.55            5.4648e-005     -1.0583e-008    1.0955e-009    
  1.6             5.5365e-005     -1.2469e-008    -1.0555e-009   
  1.65            5.577e-005      3.788e-009      -1.9192e-009   
  1.7             5.6253e-005     -1.229e-009     -1.2237e-009   
  1.75            5.6609e-005     -3.952e-009     2.3669e-009    
  1.8             5.72e-005       -2.3978e-008    -1.1409e-009   
END_DB

BEGIN_DB
 ICCAP_VAR VG         1.44           
 ICCAP_VAR VS         0              
 ICCAP_VAR VB         0              

 #VD              ID              IB              IG             
  0               -3.7037e-008    -9.464e-009     3.453e-010     
  0.05            1.5009e-005     1.1293e-008     -2.87e-010     
  0.1             2.8882e-005     3.316e-009      -1.2439e-009   
  0.15            4.1245e-005     9.672e-009      1.0254e-009    
  0.2             5.2004e-005     -9.795e-009     1.1857e-009    
  0.25            6.1236e-005     -8.883e-009     -6.641e-010    
  0.3             6.8769e-005     5.474e-009      -1.2141e-009   
  0.35            7.481e-005      1.226e-008      1.4823e-009    
  0.4             7.9861e-005     -3.383e-009     1.1481e-009    
  0.45            8.3842e-005     -9.884e-009     -3.093e-010    
  0.5             8.6997e-005     3.892e-009      -1.2415e-009   
  0.55            8.9235e-005     9.863e-009      1.0698e-009    
  0.6             9.1259e-005     -9.454e-009     1.1853e-009    
  0.65            9.313e-005      -8.825e-009     -7.078e-010    
  0.7             9.4526e-005     5.369e-009      -1.2114e-009   
  0.75            9.5408e-005     1.2483e-008     1.5153e-009    
  0.8             9.6446e-005     -1.7946e-008    1.1696e-009    
  0.85            9.7933e-005     -8.91e-009      -6.628e-010    
  0.9             9.8886e-005     5.438e-009      -1.2141e-009   
  0.95            9.9446e-005     1.2185e-008     1.4762e-009    
  1               0.000100443     -1.7208e-008    1.1953e-009    
  1.05            0.000101496     -8.837e-009     -6.225e-010    
  1.1             0.0001023       5.289e-009      -1.2195e-009   
  1.15            0.000102916     1.1963e-008     1.4397e-009    
  1.2             0.000103603     -1.6406e-008    1.2277e-009    
  1.25            0.000104378     -9.045e-009     -5.84e-010     
  1.3             0.000105278     5.439e-009      -1.2223e-009   
  1.35            0.000105797     1.1667e-008     1.3969e-009    
  1.4             0.000106435     -1.6051e-008    1.2677e-009    
  1.45            0.000107297     -9.691e-009     -5.437e-010    
  1.5             0.000107983     4.721e-009      -1.2255e-009   
  1.55            0.000108501     7.434e-009      3.497e-010     
  1.6             0.000109038     -2.4045e-008    1.0937e-009    
  1.65            0.000109945     -1.3505e-008    -1.0207e-009   
  1.7             0.000110454     1.957e-009      -1.9548e-009   
  1.75            0.000111018     -1.9089e-008    -1.7586e-009   
  1.8             0.000111625     -1.6519e-008    -2.286e-009    
END_DB

BEGIN_DB
 ICCAP_VAR VG         1.8            
 ICCAP_VAR VS         0              
 ICCAP_VAR VB         0              

 #VD              ID              IB              IG             
  0               -4.1788e-008    1.395e-008      1.2083e-009    
  0.05            1.8457e-005     -2.716e-009     -1.2789e-009   
  0.1             3.6045e-005     8.15e-009       6.501e-010     
  0.15            5.2451e-005     -7.264e-009     1.1844e-009    
  0.2             6.743e-005      -8.869e-009     -5.423e-010    
  0.25            8.0858e-005     5.479e-009      -1.2235e-009   
  0.3             9.2583e-005     1.1774e-008     1.359e-009     
  0.35            0.000102798     -1.5047e-008    1.3019e-009    
  0.4             0.000111611     -9.055e-009     -5.105e-010    
  0.45            0.00011908      5.045e-009      -1.3366e-009   
  0.5             0.00012522      8.337e-009      3.615e-010     
  0.55            0.00013027      -2.88e-009      1.0966e-009    
  0.6             0.00013466      -8.943e-009     -7.727e-010    
  0.65            0.00013817      5.652e-009      -1.2257e-009   
  0.7             0.00014086      9.883e-009      1.0799e-009    
  0.75            0.00014335      -1.2856e-008    1.1777e-009    
  0.8             0.00014553      -9.789e-009     -2.884e-010    
  0.85            0.00014742      1.262e-009      -1.2576e-009   
  0.9             0.00014883      8.129e-009      5.57e-010      
  0.95            0.00015027      -3.085e-009     1.1396e-009    
  1               0.0001516       -1.3423e-008    1.1756e-009    
  1.05            0.00015292      -9.777e-009     -2.791e-010    
  1.1             0.00015411      1.087e-009      -1.2585e-009   
  1.15            0.00015522      8.163e-009      5.53e-010      
  1.2             0.00015602      -2.978e-009     1.1366e-009    
  1.25            0.00015707      -9.176e-009     4.25e-011      
  1.3             0.00015816      1.1649e-008     -1.5651e-009   
  1.35            0.0001592       7.834e-009      1.839e-010     
  1.4             0.00015974      -1.5428e-008    1.3069e-009    
  1.45            0.0001609       -1.0178e-008    -3.078e-010    
  1.5             0.00016167      8.42e-010       -1.255e-009    
  1.55            0.00016221      7.076e-009      5.808e-010     
  1.6             0.00016322      -2.3475e-008    1.1015e-009    
  1.65            0.00016415      -1.1692e-008    -8.411e-010    
  1.7             0.00016491      1.017e-009      -1.2215e-009   
  1.75            0.00016567      -1.035e-009     -1.2065e-009   
  1.8             0.00016631      -2.445e-009     2.3972e-009    
END_DB

BEGIN_DB
 ICCAP_VAR VG         0              
 ICCAP_VAR VS         0              
 ICCAP_VAR VB         -0.9           

 #VD              ID              IB              IG             
  0               -1.0788e-009    -1.8815e-008    -1.2287e-009   
  0.05            -1.4591e-009    6.471e-009      -1.1469e-009   
  0.1             -1.7312e-009    -9.095e-009     1.114e-009     
  0.15            9.403e-010      -6.745e-009     1.7955e-009    
  0.2             9.775e-010      8.216e-009      -1.2301e-009   
  0.25            -1.4585e-009    6.332e-009      -1.1503e-009   
  0.3             -1.7288e-009    -9.113e-009     1.1137e-009    
  0.35            9.4e-010        -6.925e-009     1.7964e-009    
  0.4             9.776e-010      8.29e-009       -1.2305e-009   
  0.45            -1.4616e-009    6.193e-009      -1.1527e-009   
  0.5             -1.7238e-009    -9.026e-009     1.1131e-009    
  0.55            9.393e-010      -6.841e-009     1.7923e-009    
  0.6             9.713e-010      8.316e-009      -1.2313e-009   
  0.65            -1.4641e-009    6.227e-009      -1.1451e-009   
  0.7             -1.7237e-009    -9.005e-009     1.114e-009     
  0.75            9.401e-010      -6.855e-009     1.7906e-009    
  0.8             9.725e-010      8.399e-009      -1.2319e-009   
  0.85            -1.4673e-009    6.342e-009      -1.138e-009    
  0.9             -1.7222e-009    -9.056e-009     1.1138e-009    
  0.95            9.397e-010      -6.755e-009     1.7886e-009    
  1               9.704e-010      8.322e-009      -1.2311e-009   
  1.05            -1.4752e-009    6.407e-009      -1.1415e-009   
  1.1             -1.7214e-009    -9.042e-009     1.1122e-009    
  1.15            9.378e-010      -6.524e-009     1.7897e-009    
  1.2             9.704e-010      8.352e-009      -1.2322e-009   
  1.25            -1.4692e-009    6.14e-009       -1.1365e-009   
  1.3             -1.7181e-009    -9.114e-009     1.1117e-009    
  1.35            9.381e-010      -6.491e-009     1.7825e-009    
  1.4             9.661e-010      8.274e-009      -1.2294e-009   
  1.45            -1.4737e-009    6.352e-009      -1.1351e-009   
  1.5             -1.7125e-009    -9.035e-009     1.1125e-009    
  1.55            9.407e-010      -6.783e-009     1.7844e-009    
  1.6             9.69e-010       8.27e-009       -1.2312e-009   
  1.65            -1.4744e-009    6.202e-009      -1.1282e-009   
  1.7             -1.7103e-009    -9.1e-009       1.1111e-009    
  1.75            9.48e-010       -6.415e-009     1.781e-009     
  1.8             9.743e-010      8.241e-009      -1.2316e-009   
END_DB

BEGIN_DB
 ICCAP_VAR VG         0.36           
 ICCAP_VAR VS         0              
 ICCAP_VAR VB         -0.9           

 #VD              ID              IB              IG             
  0               9.679e-010      -9.026e-009     -2.2432e-009   
  0.05            -1.6448e-009    -9.608e-009     1.813e-010     
  0.1             -1.6671e-009    -9.78e-009      -1.21e-011     
  0.15            -5.344e-010     -9.291e-009     1.092e-009     
  0.2             1.3163e-009     -2.999e-009     2.3469e-009    
  0.25            1.4227e-009     1.2188e-008     1.298e-009     
  0.3             2.112e-009      8.446e-009      6.74e-011      
  0.35            2.248e-009      8.582e-009      1.97e-010      
  0.4             2.33e-009       8.14e-009       3.372e-010     
  0.45            2.3814e-009     8.154e-009      4.357e-010     
  0.5             2.3747e-009     9.243e-009      5.695e-010     
  0.55            2.3048e-009     1.0459e-008     7.279e-010     
