! VERSION = 6.00
BEGIN_HEADER
 ICCAP_INPUTS
  VG         V  B GROUND SMU4 0.001 LIN        1    0          1.8        37   0.05      
  VS         V  E GROUND SMU3 0.1 CON        0
  VB         V  C GROUND SMU1 0.1 LIN        3    0          -1.8       3    -0.9      
  VD         V  S GROUND SMU2 0.1 LIN        2    0.1        1.8        2    1.7       
 ICCAP_OUTPUTS
  IG         I  B GROUND SMU4 B
  ID         I  S GROUND SMU2 B
  IB         I  C GROUND SMU1 B
END_HEADER

BEGIN_DB
 ICCAP_VAR VS         0              
 ICCAP_VAR VB         0              
 ICCAP_VAR VD         0.1            

 #VG              IG              ID              IB             
  0               -1.3541e-009    -8.44e-011      -8.217e-009    
  0.05            2.7115e-009     -2.943e-010     -1.1362e-008   
  0.1             -2.5675e-009    2.101e-010      1.1164e-008    
  0.15            1.6702e-009     -2.8305e-009    -1.1018e-008   
  0.2             -1.8594e-009    3.4054e-009     1.7317e-008    
  0.25            1.6667e-009     4.0639e-009     -1.8221e-008   
  0.3             -9.603e-010     1.3788e-008     1.1966e-008    
  0.35            -1.8825e-009    5.8176e-008     1.686e-009     
  0.4             1.07e-009       2.6693e-007     -1.6578e-008   
  0.45            2.6804e-009     1.128e-006      1.5193e-008    
  0.5             -1.4453e-009    4.604e-006      1.6889e-008    
  0.55            -9.558e-010     1.2818e-005     1.7043e-008    
  0.6             2.7299e-009     3.0263e-005     -6.818e-009    
  0.65            -2.4138e-009    6.017e-005      1.157e-008     
  0.7             2.2369e-009     9.8479e-005     -2.2e-008      
  0.75            4.715e-010      0.00014677      1.5811e-008    
  0.8             -1.4504e-009    0.00019486      1.7018e-008    
  0.85            2.4212e-009     0.00024168      -1.3873e-008   
  0.9             -1.6208e-009    0.00028909      1.6005e-008    
  0.95            2.5764e-009     0.00033137      -1.1529e-008   
  1               -1.8366e-009    0.00037287      1.4693e-008    
  1.05            2.714e-009      0.00040952      -1.3346e-008   
  1.1             -2.2187e-009    0.00044444      1.265e-008     
  1.15            1.9196e-009     0.00047524      -1.9873e-008   
  1.2             -2.4775e-009    0.00050475      1.0992e-008    
  1.25            2.1678e-009     0.00053015      -1.5142e-008   
  1.3             -1.5459e-009    0.00055524      1.8518e-008    
  1.35            2.5322e-009     0.00057641      -1.2597e-008   
  1.4             -1.7578e-009    0.00059711      1.5365e-008    
  1.45            2.7007e-009     0.00061564      -1.2193e-008   
  1.5             -2.1594e-009    0.00063259      1.3196e-008    
  1.55            1.8371e-009     0.00064782      -1.8799e-008   
  1.6             -2.4464e-009    0.00066238      1.1347e-008    
  1.65            2.095e-009      0.00067504      -1.565e-008    
  1.7             -2.5294e-009    0.00068755      1.0439e-008    
  1.75            2.3199e-009     0.00069803      -1.4538e-008   
  1.8             -1.5115e-009    0.0007086       1.638e-008     
END_DB

BEGIN_DB
 ICCAP_VAR VS         0              
 ICCAP_VAR VB         0              
 ICCAP_VAR VD         1.8            

 #VG              IG              ID              IB             
  0               -1.706e-010     1.2217e-009     1.6538e-008    
  0.05            -2.5923e-009    -2.94e-011      9.952e-009     
  0.1             1.9446e-009     -2.7927e-009    -1.4201e-008   
  0.15            -1.9087e-009    1.4767e-009     1.6878e-008    
  0.2             2.181e-009      2.2e-011        -1.7277e-008   
  0.25            -2.1014e-009    6.6089e-009     1.6185e-008    
  0.3             2.3184e-009     2.5139e-008     1.1053e-008    
  0.35            -5.717e-010     1.0906e-007     1.0553e-008    
  0.4             1.4519e-009     5.4137e-007     -1.8101e-008   
  0.45            -2.0112e-009    2.0857e-006     -1.2462e-008   
  0.5             -1.9367e-009    7.5106e-006     -1.5109e-008   
  0.55            2.6357e-009     2.2096e-005     -2.3517e-008   
  0.6             9.363e-010      5.3269e-005     -2.1297e-008   
  0.65            -2.2735e-009    0.000109078     -2.4878e-008   
  0.7             -2.6237e-009    0.00018835      -7.4041e-008   
  0.75            -1.1921e-009    0.00029115      -9.0514e-008   
  0.8             -1.232e-010     0.00041246      -1.1348e-007   
  0.85            8.836e-010      0.00055204      -1.08953e-007  
  0.9             -1.6883e-009    0.00071069      -1.0911e-007   
  0.95            2.6222e-009     0.00087055      -1.0811e-007   
  1               -2.4838e-009    0.00104891      -9.3963e-008   
  1.05            1.0393e-009     0.0012314       -7.5972e-008   
  1.1             2.6489e-009     0.0014196       -7.6423e-008   
  1.15            1.5591e-009     0.0016079       -5.8113e-008   
  1.2             -1.3541e-009    0.0018148       -4.3543e-008   
  1.25            -2.3514e-009    0.0020125       -5.5525e-008   
  1.3             -6.582e-010     0.0022163       -5.0574e-008   
  1.35            2.6952e-009     0.0024176       -5.1731e-008   
  1.4             1.438e-009      0.0026214       -2.0788e-008   
  1.45            -1.4832e-009    0.0028378       -5.793e-009    
  1.5             -2.2278e-009    0.0030435       -2.5387e-008   
  1.55            -5.178e-010     0.0032517       -2.4882e-008   
  1.6             1.5063e-009     0.0034581       -2.8624e-008   
  1.65            -2.2667e-009    0.0036735       3.131e-009     
  1.7             -1.829e-009     0.0038819       -1.6739e-008   
  1.75            6.28e-011       0.0040847       -1.3868e-008   
  1.8             2.4265e-009     0.0042913       -1.9069e-008   
END_DB

BEGIN_DB
 ICCAP_VAR VS         0              
 ICCAP_VAR VB         -0.9           
 ICCAP_VAR VD         0.1            

 #VG              IG              ID              IB             
  0               2.361e-010      -1.2223e-009    -1.666e-008    
  0.05            2.7115e-009     1.734e-010      -7.295e-009    
  0.1             -1.9373e-009    1.184e-009      1.668e-008     
  0.15            2.2152e-009     -1.2246e-009    -1.712e-008    
  0.2             -2.1322e-009    1.0056e-009     1.6108e-008    
  0.25            2.3895e-009     -9.808e-010     -1.6745e-008   
  0.3             -2.2916e-009    9.73e-010       1.4786e-008    
  0.35            2.5305e-009     6.4e-011        -1.5394e-008   
  0.4             -2.4077e-009    7.6617e-009     7.774e-009     
  0.45            1.7323e-009     2.5377e-008     6.074e-009     
  0.5             -1.196e-010     1.0806e-007     -6.936e-009    
  0.55            2.0982e-009     5.4705e-007     -1.6477e-008   
  0.6             -2.3129e-009    2.1405e-006     -1.6693e-008   
  0.65            2.4428e-009     7.6905e-006     -1.3662e-008   
  0.7             8.182e-010      2.0699e-005     -1.7072e-008   
  0.75            -2.606e-009     4.6005e-005     7.33e-009      
  0.8             2.288e-010      8.1103e-005     -1.0397e-008   
  0.85            1.8068e-009     0.00012698      -7.149e-009    
  0.9             -2.4036e-009    0.00017692      1.1193e-008    
  0.95            2.0484e-009     0.00022423      -1.6587e-008   
  1               -1.4591e-009    0.00027297      1.6484e-008    
  1.05            2.4217e-009     0.00031626      -1.3883e-008   
  1.1             -1.6362e-009    0.00035859      1.6565e-008    
  1.15            2.5526e-009     0.00039546      -1.1505e-008   
  1.2             -1.834e-009     0.00043124      1.5762e-008    
  1.25            2.683e-009      0.00046263      -1.357e-008    
  1.3             -2.2035e-009    0.00049222      1.2973e-008    
  1.35            1.6693e-009     0.00051782      -1.708e-008    
  1.4             -2.3413e-009    0.00054266      1.1739e-008    
  1.45            1.9184e-009     0.0005641       -1.6982e-008   
  1.5             -1.3882e-009    0.00058521      1.4569e-008    
  1.55            2.3324e-009     0.00060255      -1.4849e-008   
  1.6             -1.5373e-009    0.00061993      1.6678e-008    
  1.65            2.4813e-009     0.00063489      -1.3176e-008   
  1.7             -1.7296e-009    0.00064939      1.6206e-008    
  1.75            -8.069e-010     0.00066235      -9.927e-009    
  1.8             2.7115e-009     0.000674        -7.312e-009    
END_DB

BEGIN_DB
 ICCAP_VAR VS         0              
 ICCAP_VAR VB         -0.9           
 ICCAP_VAR VD         1.8            

 #VG              IG              ID              IB             
  0               7.821e-010      2.028e-010      -6.787e-009    
  0.05            2.2726e-009     1.7617e-009     -4.396e-009    
  0.1             -1.5576e-009    1.5003e-009     1.8706e-008    
  0.15            1.9706e-009     -2.8297e-009    -1.4593e-008   
  0.2             -1.919e-009     1.2077e-009     1.6748e-008    
  0.25            2.1765e-009     -1.1451e-009    -1.716e-008    
  0.3             -2.0923e-009    1.4559e-009     1.6153e-008    
  0.35            2.3369e-009     3.4761e-009     -1.6657e-008   
  0.4             2.55e-009       1.297e-008      1.4049e-008    
  0.45            -1.8825e-009    6.6032e-008     1.5159e-008    
  0.5             -8.835e-010     3.0048e-007     1.2959e-008    
  0.55            2.1059e-009     1.3683e-006     1.0615e-008    
  0.6             -2.4964e-009    5.8751e-006     5.829e-009     
  0.65            -1.878e-010     1.7858e-005     1.17e-010      
  0.7             2.0189e-009     4.5623e-005     -3.8884e-008   
  0.75            2.0859e-009     9.6662e-005     -2.9499e-008   
  0.8             2.7009e-009     0.000174        -4.6062e-008   
  0.85            1.3524e-009     0.00027424      -5.9667e-008   
  0.9             -1.5896e-009    0.00040403      -5.6778e-008   
  0.95            -2.1614e-009    0.00054478      -8.8438e-008   
  1               -4.497e-010     0.00070224      -9.1468e-008   
  1.05            1.6168e-009     0.00086973      -9.5982e-008   
  1.1             2.2751e-009     0.00104978      -6.6746e-008   
  1.15            2.6547e-009     0.0012336       -6.2767e-008   
  1.2             9.865e-010      0.001426        -5.1376e-008   
  1.25            -2.1901e-009    0.0016272       -2.8429e-008   
  1.3             -1.8687e-009    0.0018263       -5.3574e-008   
  1.35            1.03e-011       0.0020242       -4.5672e-008   
  1.4             2.3219e-009     0.0022291       -4.6775e-008   
  1.45            1.9099e-009     0.0024369       -1.759e-008    
  1.5             3e-011          0.0026496       -1.3555e-008   
  1.55            -2.6083e-009    0.0028581       -2.2253e-008   
  1.6             -1.2151e-009    0.0030699       -2.1677e-008   
  1.65            2.0874e-009     0.0032735       -3.2639e-008   
  1.7             -2.1908e-009    0.0034866       -1.6236e-008   
  1.75            -4.813e-010     0.0036959       -1.7151e-008   
  1.8             1.5651e-009     0.0039025       -2.2882e-008   
END_DB

BEGIN_DB
 ICCAP_VAR VS         0              
 ICCAP_VAR VB         -1.8           
 ICCAP_VAR VD         0.1            

 #VG              IG              ID              IB             
  0               -1.2611e-009    -2.707e-010     -8.985e-009    
  0.05            2.6258e-009     -5.535e-010     -1.4204e-008   
  0.1             -2.482e-009     3.994e-010      1.1887e-008    
  0.15            2.6688e-009     -3.297e-010     -1.2065e-008   
  0.2             -2.531e-009     2.132e-010      1.1034e-008    
  0.25            1.609e-009      -3.0094e-009    -1.038e-008    
  0.3             -1.8094e-009    2.8359e-009     1.6536e-008    
  0.35            2.2585e-009     -2.5906e-009    -1.9219e-008   
  0.4             -2.1654e-009    1.3199e-009     1.5745e-008    
  0.45            2.4013e-009     3.1138e-009     -1.6421e-008   
  0.5             2.6539e-009     1.1564e-008     1.5987e-008    
  0.55            -1.5759e-009    5.8516e-008     1.6638e-008    
  0.6             5.495e-010      2.6274e-007     -1.0107e-008   
  0.65            2.3901e-009     1.1442e-006     1.5708e-008    
  0.7             1.4303e-009     4.5472e-006     -1.7118e-008   
  0.75            1.8201e-009     1.3159e-005     -1.5738e-008   
  0.8             -1.568e-009     3.2889e-005     1.6647e-008    
  0.85            -8.998e-010     6.4615e-005     -9.67e-009     
  0.9             2.7058e-009     0.00010512      -6.797e-009    
  0.95            5.806e-010      0.00015455      1.6627e-008    
  1               -2.6137e-009    0.00020451      5.25e-009      
  1.05            -1.0655e-009    0.00025278      -8.484e-009    
  1.1             2.692e-009      0.000297        -7.247e-009    
  1.15            -4.51e-011      0.00034071      7.573e-009     
  1.2             -2.2004e-009    0.0003796       1.3069e-008    
  1.25            1.6504e-009     0.0004146       -1.6883e-008   
  1.3             -2.3275e-009    0.00044815      1.1927e-008    
  1.35            1.8852e-009     0.00047699      -1.7031e-008   
  1.4             -2.4265e-009    0.00050501      1.1062e-008    
  1.45            2.0989e-009     0.0005289       -1.6401e-008   
  1.5             -1.481e-009     0.00055237      1.7139e-008    
  1.55            2.4415e-009     0.00057183      -1.3773e-008   
  1.6             -1.6423e-009    0.00059115      1.6404e-008    
  1.65            2.5512e-009     0.00060782      -1.1805e-008   
  1.7             -1.8316e-009    0.00062389      1.5735e-008    
  1.75            2.674e-009      0.00063828      -1.3141e-008   
  1.8             1.84e-011       0.00065167      7.595e-009     
END_DB

BEGIN_DB
 ICCAP_VAR VS         0              
 ICCAP_VAR VB         -1.8           
 ICCAP_VAR VD         1.8            

 #VG              IG              ID              IB             
  0               1.503e-009      -1.013e-010     8.364e-009     
  0.05            -1.7194e-009    2.9177e-009     1.5039e-008    
  0.1             2.1735e-009     -2.724e-009     -1.7629e-008   
  0.15            -2.091e-009     1.0361e-009     1.6275e-008    
  0.2             2.3552e-009     -1.0577e-009    -1.6685e-008   
  0.25            -2.252e-009     8.704e-010      1.5095e-008    
  0.3             2.4997e-009     -7.994e-010     -1.5728e-008   
  0.35            -2.3697e-009    9.286e-010      1.3564e-008    
  0.4             1.972e-010      -2.0494e-009    -8.065e-009    
  0.45            2.7109e-009     7.7899e-009     -7.602e-009    
  0.5             2.6319e-009     3.9317e-008     1.5611e-008    
  0.55            -2.1362e-009    1.9674e-007     1.6596e-008    
  0.6             2.5993e-009     1.02345e-006    -1.1355e-008   
  0.65            -1.8899e-009    4.0478e-006     -1.2212e-008   
  0.7             -2.851e-010     1.3823e-005     3.446e-009     
  0.75            1.8855e-009     3.7204e-005     -3.4644e-008   
  0.8             2.1513e-009     8.2522e-005     -2.3431e-008   
  0.85            2.6582e-009     0.00015414      -3.8752e-008   
  0.9             1.5347e-009     0.00024915      -5.1303e-008   
  0.95            -1.3747e-009    0.00037584      -5.3985e-008   
  1               -2.3359e-009    0.00051412      -8.0247e-008   
  1.05            -6.451e-010     0.00066991      -8.3992e-008   
  1.1             2.6898e-009     0.0008352       -8.9807e-008   
  1.15            1.4287e-009     0.00101028      -5.9875e-008   
  1.2             -2.609e-009     0.0012006       -6.8538e-008   
  1.25            -1.026e-009     0.0013942       -6.3023e-008   
  1.3             2.4197e-009     0.0015862       -6.9219e-008   
  1.35            1.8348e-009     0.0017855       -3.2032e-008   
  1.4             -5e-011         0.0019942       -2.6754e-008   
  1.45            -1.8437e-009    0.0021993       -2.7978e-008   
  1.5             -2.0112e-009    0.0024047       -3.2412e-008   
  1.55            -2.379e-010     0.0026105       -2.881e-008    
  1.6             1.9578e-009     0.0028181       -3.2915e-008   
  1.65            2.1175e-009     0.0030304       -5.479e-009    
  1.7             -2.3083e-009    0.0032411       -1.773e-008    
  1.75            -6.088e-010     0.0034505       -1.8427e-008   
  1.8             1.3874e-009     0.0036563       -2.4376e-008   
END_DB

