! VERSION = 6.00
BEGIN_HEADER
 ICCAP_INPUTS
  VG         V  B GROUND SMU4 0.001 LIN        2    0          1.8        6    0.36      
  VS         V  E GROUND SMU2 0.1 CON        0
  VD         V  S GROUND SMU1 0.1 LIN        1    0          1.8        37   0.05      
  VB         V  C GROUND SMU3 0.1 LIN        3    0          -0.9       2    -0.9      
 ICCAP_OUTPUTS
  ID         I  S GROUND SMU1 B
  IB         I  C GROUND SMU3 B
  IG         I  B GROUND SMU4 B
END_HEADER

BEGIN_DB
 ICCAP_VAR VG         0              
 ICCAP_VAR VS         0              
 ICCAP_VAR VB         0              

 #VD              ID              IB              IG             
  0               7.85e-011       2.2871e-008     7.777e-010     
  0.05            -1.015e-010     -1.0527e-008    2.7298e-009    
  0.1             2.2117e-009     -1.191e-009     7.795e-010     
  0.15            1.5485e-009     1.5161e-008     -1.6442e-009   
  0.2             -2.1086e-009    5.151e-009      -7.394e-010    
  0.25            -1.5063e-009    -1.5579e-008    1.999e-009     
  0.3             2.1373e-009     -6.685e-009     5.242e-010     
  0.35            5.852e-010      1.6205e-008     -2.033e-009    
  0.4             -2.0521e-009    3.287e-009      -4.345e-010    
  0.45            -5.294e-010     -1.5419e-008    2.4079e-009    
  0.5             1.26e-010       1.1343e-008     -2.5611e-009   
  0.55            -1.4216e-009    -1.8991e-008    2.2319e-009    
  0.6             2.0737e-009     -4.901e-009     3.777e-010     
  0.65            4.695e-010      1.4071e-008     -2.2225e-009   
  0.7             -1.9519e-009    2.659e-009      -1.2119e-009   
  0.75            -1.1371e-009    -2.4167e-008    2.6625e-009    
  0.8             7.917e-010      2.0675e-008     -1.6362e-009   
  0.85            -2.1093e-009    5.159e-009      -7.496e-010    
  0.9             -1.5126e-009    -1.5422e-008    1.9856e-009    
  0.95            2.1388e-009     -6.976e-009     5.35e-010      
  1               5.957e-010      1.6491e-008     -2.0216e-009   
  1.05            -2.0536e-009    3.347e-009      -4.438e-010    
  1.1             -5.36e-010      -1.5652e-008    2.3971e-009    
  1.15            2.0116e-009     -3.585e-009     2.605e-010     
  1.2             1.1649e-009     2.568e-008      -2.3529e-009   
  1.25            -2.0254e-009    1.877e-009      -1.1129e-009   
  1.3             -1.6937e-009    -1.0443e-008    2.6581e-009    
  1.35            1.4735e-009     1.7879e-008     -1.7956e-009   
  1.4             -2.0916e-009    4.434e-009      -6.173e-010    
  1.45            -1.4444e-009    -1.8241e-008    2.1791e-009    
  1.5             2.0899e-009     -5.185e-009     4.056e-010     
  1.55            5.015e-010      1.4741e-008     -2.1795e-009   
  1.6             -1.0382e-009    -2.3756e-008    2.717e-009     
  1.65            2.2122e-009     -1.441e-009     8.192e-010     
  1.7             1.5817e-009     1.4411e-008     -1.5962e-009   
  1.75            -2.1082e-009    5.684e-009      -7.864e-010    
  1.8             -1.5307e-009    -1.478e-008     1.9331e-009    
END_DB

BEGIN_DB
 ICCAP_VAR VG         0.36           
 ICCAP_VAR VS         0              
 ICCAP_VAR VB         0              

 #VD              ID              IB              IG             
  0               -5.901e-010     -1.5522e-008    -9.446e-010    
  0.05            1.1308e-008     -8.493e-009     2.7298e-009    
  0.1             1.0278e-008     -9.288e-009     -9.705e-010    
  0.15            1.3716e-008     1.8385e-008     -1.5175e-009   
  0.2             1.3948e-008     1.6786e-008     -1.6368e-009   
  0.25            1.4046e-008     1.5147e-008     -1.7647e-009   
  0.3             1.4066e-008     1.3973e-008     -1.9126e-009   
  0.35            1.4891e-008     2.5628e-008     -2.2207e-009   
  0.4             1.4825e-008     2.3968e-008     -2.4506e-009   
  0.45            1.4938e-008     2.0473e-008     -1.3864e-009   
  0.5             1.5908e-008     8.965e-009      1.9308e-009    
  0.55            1.3448e-008     -1.4114e-008    2.7177e-009    
  0.6             1.3511e-008     -1.6625e-008    1.6803e-009    
  0.65            1.4586e-008     -1.7262e-008    1.8346e-009    
  0.7             1.4102e-008     -2.3134e-008    2.198e-009     
  0.75            1.4402e-008     -2.414e-008     2.4947e-009    
  0.8             1.3832e-008     -1.1032e-008    1.757e-010     
  0.85            1.4512e-008     9.188e-009      -2.5984e-009   
  0.9             1.5396e-008     1.4028e-008     -1.88e-009     
  0.95            1.53e-008       1.3156e-008     -2.0303e-009   
  1               1.611e-008      2.5161e-008     -2.3111e-009   
  1.05            1.6037e-008     2.2891e-008     -2.5034e-009   
  1.1             1.5993e-008     1.9079e-008     -1.4502e-009   
  1.15            1.7027e-008     8.933e-009      1.8576e-009    
  1.2             1.4302e-008     -1.5794e-008    1.6508e-009    
  1.25            1.5367e-008     -1.7428e-008    1.7981e-009    
  1.3             1.4772e-008     -2.2852e-008    2.1563e-009    
  1.35            1.5046e-008     -2.4184e-008    2.4633e-009    
  1.4             1.5271e-008     -2.2736e-008    2.6619e-009    
  1.45            1.4525e-008     -1.3401e-008    2.7052e-009    
  1.5             1.4554e-008     -1.5661e-008    2.7265e-009    
  1.55            1.333e-008      -9.139e-009     -1.0017e-009   
  1.6             1.6366e-008     1.8934e-008     -1.4735e-009   
  1.65            1.6341e-008     1.736e-008      -1.5803e-009   
  1.7             1.6285e-008     1.5873e-008     -1.7035e-009   
  1.75            1.622e-008      1.4362e-008     -1.8559e-009   
  1.8             1.681e-008      2.6047e-008     -2.168e-009    
END_DB

BEGIN_DB
 ICCAP_VAR VG         0.72           
 ICCAP_VAR VS         0              
 ICCAP_VAR VB         0              

 #VD              ID              IB              IG             
  0               2.5358e-009     1.0901e-008     1.0785e-009    
  0.05            1.2469e-006     4.39e-009       1.1096e-009    
  0.1             2.1809e-006     -2.4439e-008    2.5105e-009    
  0.15            2.8196e-006     -1.0381e-008    -1.67e-011     
  0.2             3.2321e-006     1.1298e-008     -2.4103e-009   
  0.25            3.4314e-006     2.5293e-008     -2.3858e-009   
  0.3             3.5185e-006     1.0498e-008     -2.67e-011     
  0.35            3.5411e-006     -1.0417e-008    2.6462e-009    
  0.4             3.5807e-006     -2.376e-008     2.6276e-009    
  0.45            3.6116e-006     -2.4025e-008    2.6067e-009    
  0.5             3.6386e-006     -2.4272e-008    2.584e-009     
  0.55            3.6604e-006     -1.0373e-008    4.12e-011      
  0.6             3.7204e-006     1.1597e-008     -2.4751e-009   
  0.65            3.7408e-006     2.4734e-008     -2.4486e-009   
  0.7             3.7609e-006     2.4853e-008     -2.4301e-009   
  0.75            3.7788e-006     2.5014e-008     -2.3978e-009   
  0.8             3.7973e-006     2.5407e-008     -2.3794e-009   
  0.85            3.813e-006      2.5568e-008     -2.352e-009    
  0.9             3.831e-006      2.5702e-008     -2.3248e-009   
  0.95            3.8451e-006     2.6008e-008     -2.2913e-009   
  1               3.8597e-006     2.6183e-008     -2.2584e-009   
  1.05            3.8753e-006     2.6304e-008     -2.2304e-009   
  1.1             3.8874e-006     2.636e-008      -2.195e-009    
  1.15            3.9009e-006     2.6457e-008     -2.1601e-009   
  1.2             3.9144e-006     2.6323e-008     -2.124e-009    
  1.25            3.9259e-006     2.6207e-008     -2.0824e-009   
  1.3             3.9372e-006     2.5989e-008     -2.0455e-009   
  1.35            3.948e-006      1.414e-008      -1.8188e-009   
  1.4             3.9557e-006     1.6467e-008     -1.6096e-009   
  1.45            3.9347e-006     8.721e-009      1.9314e-009    
  1.5             3.9418e-006     -1.0744e-008    1.727e-010     
  1.55            3.9883e-006     1.1217e-008     -2.5599e-009   
  1.6             3.9982e-006     2.1769e-008     -1.329e-009    
  1.65            4.0074e-006     2.4408e-008     -2.4568e-009   
  1.7             4.0183e-006     2.4452e-008     -2.4325e-009   
  1.75            4.0256e-006     2.4548e-008     -2.4157e-009   
  1.8             4.0376e-006     1.0904e-008     -2.2393e-009   
END_DB

BEGIN_DB
 ICCAP_VAR VG         1.08           
 ICCAP_VAR VS         0              
 ICCAP_VAR VB         0              

 #VD              ID              IB              IG             
  0               8.918e-009      2.3663e-008     2.5404e-009    
  0.05            3.1217e-006     1.6814e-008     2.3629e-009    
  0.1             5.9406e-006     -2.4047e-008    2.545e-009     
  0.15            8.4508e-006     -2.4146e-008    2.5181e-009    
  0.2             1.06514e-005    -2.4164e-008    2.4886e-009    
  0.25            1.2528e-005     -2.405e-008     1.1912e-009    
  0.3             1.4104e-005     -1.1913e-008    2.5136e-009    
  0.35            1.5369e-005     -1.7611e-008    1.7647e-009    
  0.4             1.6321e-005     -2.3822e-008    2.5859e-009    
  0.45            1.7015e-005     -2.1394e-008    2.0702e-009    
  0.5             1.7467e-005     -1.3466e-008    2.713e-009     
  0.55            1.7752e-005     -2.4067e-008    2.3565e-009    
  0.6             1.7953e-005     -1.7355e-008    1.756e-009     
  0.65            1.8069e-005     -2.3983e-008    2.5836e-009    
  0.7             1.8179e-005     -1.6592e-008    1.8705e-009    
  0.75            1.826e-005      -1.1878e-008    2.6399e-009    
  0.8             1.8343e-005     -2.2681e-008    2.1745e-009    
  0.85            1.8404e-005     -2.0612e-008    2.7389e-009    
  0.9             1.8467e-005     -1.066e-008     -2.23e-011     
  0.95            1.8609e-005     1.3731e-008     -1.899e-009    
  1               1.866e-005      2.2534e-008     -1.3488e-009   
  1.05            1.8717e-005     1.427e-008      -1.8232e-009   
  1.1             1.877e-005      2.332e-008      -2.5187e-009   
  1.15            1.8823e-005     1.3367e-008     -1.9258e-009   
  1.2             1.8866e-005     2.2073e-008     -1.3576e-009   
  1.25            1.8831e-005     7.951e-009      1.0852e-009    
  1.3             1.887e-005      -1.0005e-008    2.6368e-009    
  1.35            1.8934e-005     -2.2437e-008    2.1672e-009    
  1.4             1.8968e-005     -2.0838e-008    2.7351e-009    
  1.45            1.9011e-005     -2.4249e-008    2.4394e-009    
  1.5             1.9054e-005     -1.8317e-008    1.6642e-009    
  1.55            1.9088e-005     -2.4117e-008    2.5168e-009    
  1.6             1.9129e-005     -1.7466e-008    1.7796e-009    
  1.65            1.9159e-005     -2.397e-008     2.5937e-009    
  1.7             1.9201e-005     -1.6323e-008    1.8887e-009    
  1.75            1.9234e-005     -1.219e-008     2.6517e-009    
  1.8             1.9268e-005     -2.3018e-008    2.191e-009     
END_DB

BEGIN_DB
 ICCAP_VAR VG         1.44           
 ICCAP_VAR VS         0              
 ICCAP_VAR VB         0              

 #VD              ID              IB              IG             
  0               1.338e-008      2.4943e-008     8.103e-010     
  0.05            4.672e-006      -1.078e-008     -1.9088e-009   
  0.1             9.1062e-006     1.5453e-008     -1.6838e-009   
  0.15            1.3261e-005     1.6415e-008     -8.355e-010    
  0.2             1.7172e-005     2.5421e-008     -2.3848e-009   
  0.25            2.0797e-005     1.5682e-008     -1.6851e-009   
  0.3             2.4135e-005     2.4725e-008     -2.4562e-009   
  0.35            2.7176e-005     1.429e-008      -1.7888e-009   
  0.4             2.9896e-005     9.199e-009      7.408e-010     
  0.45            3.2293e-005     -2.3982e-008    2.5753e-009    
  0.5             3.4417e-005     -1.6373e-008    1.8576e-009    
  0.55            3.6217e-005     -1.1754e-008    2.6361e-009    
  0.6             3.7721e-005     -2.258e-008     2.1613e-009    
  0.65            3.8958e-005     -1.0064e-008    -6.965e-010    
  0.7             3.9946e-005     2.3922e-008     -2.4999e-009   
  0.75            4.0648e-005     1.3492e-008     -1.8885e-009   
  0.8             4.1114e-005     9.4e-009        6.826e-010     
  0.85            4.1413e-005     -2.3649e-008    2.6326e-009    
  0.9             4.1685e-005     -2.2572e-008    2.1525e-009    
  0.95            4.1918e-005     -1.006e-008     -6.96e-010     
  1               4.2141e-005     2.3746e-008     -2.495e-009    
  1.05            4.2283e-005     1.3637e-008     -1.8806e-009   
  1.1             4.2369e-005     9.442e-009      6.858e-010     
  1.15            4.2414e-005     -2.35e-008      2.6246e-009    
  1.2             4.2541e-005     -1.5688e-008    1.9599e-009    
  1.25            4.2688e-005     -9.771e-009     -8.247e-010    
  1.3             4.283e-005      2.4709e-008     -2.3792e-009   
  1.35            4.2917e-005     1.5712e-008     -1.7154e-009   
  1.4             4.3011e-005     2.4173e-008     -2.4486e-009   
  1.45            4.3089e-005     1.4379e-008     -1.8126e-009   
  1.5             4.3168e-005     2.3215e-008     -2.4984e-009   
  1.55            4.3257e-005     2.5174e-008     -2.0862e-009   
  1.6             4.3233e-005     8.862e-009      1.96e-009      
  1.65            4.329e-005      -2.1639e-008    2.7022e-009    
  1.7             4.3366e-005     -2.372e-008     2.354e-009     
  1.75            4.3454e-005     -1.7806e-008    1.7717e-009    
  1.8             4.3495e-005     -2.3364e-008    2.5684e-009    
END_DB

BEGIN_DB
 ICCAP_VAR VG         1.8            
 ICCAP_VAR VS         0              
 ICCAP_VAR VB         0              

 #VD              ID              IB              IG             
  0               1.5218e-008     2.3945e-008     8.379e-010     
  0.05            5.804e-006      -9.347e-009     -1.8422e-009   
  0.1             1.1426e-005     1.3335e-008     -1.6003e-009   
  0.15            1.6844e-005     1.3956e-008     -1.8204e-009   
  0.2             2.2043e-005     9.312e-009      7.129e-010     
  0.25            2.7018e-005     -2.4018e-008    2.6101e-009    
  0.3             3.1764e-005     -1.6025e-008    1.9043e-009    
  0.35            3.6273e-005     -9.545e-009     -8.535e-010    
  0.4             4.0539e-005     2.539e-008      -2.3758e-009   
  0.45            4.4515e-005     1.5766e-008     -1.6546e-009   
  0.5             4.8222e-005     2.4746e-008     -2.4477e-009   
  0.55            5.1632e-005     1.454e-008      -1.7695e-009   
  0.6             5.4727e-005     9.152e-009      7.542e-010     
  0.65            5.7523e-005     -2.4261e-008    2.584e-009     
  0.7             6.0054e-005     -2.1576e-008    2.0388e-009    
  0.75            6.23e-005       -9.911e-009     -7.855e-010    
  0.8             6.4275e-005     2.4806e-008     -2.4556e-009   
  0.85            6.592e-005      1.4467e-008     -1.7763e-009   
  0.9             6.7246e-005     9.165e-009      7.546e-010     
  0.95            6.8297e-005     -2.4155e-008    2.5895e-009    
  1               6.9174e-005     -1.6511e-008    1.8353e-009    
  1.05            6.9829e-005     -2.3533e-008    2.6505e-009    
  1.1             7.0349e-005     -2.303e-008     2.1658e-009    
  1.15            7.0774e-005     -1.0137e-008    -6.978e-010    
  1.2             7.1137e-005     2.3751e-008     -2.5117e-009   
  1.25            7.1394e-005     1.3518e-008     -1.8853e-009   
  1.3             7.1559e-005     9.548e-009      6.762e-010     
  1.35            7.1662e-005     -2.3657e-008    2.6545e-009    
  1.4             7.1843e-005     -1.5378e-008    1.972e-009     
  1.45            7.2044e-005     -9.779e-009     -8.217e-010    
  1.5             7.2242e-005     2.5216e-008     -2.4147e-009   
  1.55            7.2371e-005     1.5044e-008     -1.7153e-009   
  1.6             7.2501e-005     2.4187e-008     -2.4795e-009   
  1.65            7.2622e-005     1.399e-008      -1.8112e-009   
  1.7             7.2683e-005     9.357e-009      7.219e-010     
  1.75            7.2726e-005     -2.4063e-008    2.6137e-009    
  1.8             7.2851e-005     -2.2423e-008    2.0917e-009    
END_DB

BEGIN_DB
 ICCAP_VAR VG         0              
 ICCAP_VAR VS         0              
 ICCAP_VAR VB         -0.9           

 #VD              ID              IB              IG             
  0               1.3688e-009     -1.0128e-008    1.2594e-009    
  0.05            2.1577e-009     -8.653e-009     1.0543e-009    
  0.1             9.916e-010      2.5724e-008     -1.3301e-009   
  0.15            -2.0881e-009    9.053e-009      -1.0207e-009   
  0.2             -1.6318e-009    -1.0814e-008    2.723e-009     
  0.25            1.3704e-009     2.0294e-008     -1.9495e-009   
  0.3             -2.0499e-009    3.359e-009      -4.727e-010    
  0.35            -1.3469e-009    -2.0573e-008    2.348e-009     
  0.4             2.0122e-009     -3.933e-009     2.803e-010     
  0.45            2.0998e-009     9.336e-009      4.467e-010     
  0.5             5.245e-010      1.4524e-008     -2.1144e-009   
  0.55            -1.8922e-009    2.978e-009      -1.269e-009    
  0.6             -1.18e-009      -2.4584e-008    2.6171e-009    
  0.65            2.0257e-009     9.629e-009      2.976e-010     
  0.7             2.1083e-009     9.234e-009      4.721e-010     
  0.75            5.422e-010      1.493e-008      -2.0894e-009   
  0.8             -1.8753e-009    2.949e-009      -1.2897e-009   
  0.85            -1.1994e-009    -2.4135e-008    2.5957e-009    
  0.9             2.0388e-009     9.601e-009      3.169e-010     
  0.95            2.1184e-009     9.184e-009      4.949e-010     
  1               5.568e-010      1.5401e-008     -2.0511e-009   
  1.05            -2.0355e-009    3.241e-009      -3.982e-010    
  1.1             -1.3025e-009    -2.1869e-008    2.4401e-009    
  1.15            9.38e-010       2.4799e-008     -1.3865e-009   
  1.2             -2.1075e-009    7.675e-009      -9.455e-010    
  1.25            -1.5976e-009    -1.1258e-008    2.7432e-009    
  1.3             2.2088e-009     -1.353e-009     7.53e-010      
  1.35            7.634e-010      2.0162e-008     -1.6585e-009   
  1.4             -2.1042e-009    4.576e-009      -7.006e-010    
  1.45            -1.4798e-009    -1.5594e-008    2.0345e-009    
  1.5             2.1089e-009     -5.88e-009      4.814e-010     
  1.55            5.545e-010      1.5236e-008     -2.0582e-009   
  1.6             -2.0318e-009    3.104e-009      -3.891e-010    
  1.65            -2.0805e-009    -9.538e-009     -5.887e-010    
  1.7             -1.413e-009     -1.818e-008     2.1999e-009    
  1.75            2.0612e-009     -4.829e-009     3.741e-010     
  1.8             4.657e-010      1.3687e-008     -2.2061e-009   
END_DB

BEGIN_DB
 ICCAP_VAR VG         0.36           
 ICCAP_VAR VS         0              
 ICCAP_VAR VB         -0.9           

 #VD              ID              IB              IG             
  0               7.413e-010      2.0378e-008     8.599e-010     
  0.05            -9.472e-010     -2.4441e-008    2.6232e-009    
  0.1             2.3116e-009     9.701e-009      2.945e-010     
  0.15            2.3959e-009     9.377e-009      4.756e-010     
  0.2             8.4e-010        1.5366e-008     -2.1009e-009   
  0.25            -1.7432e-009    3.275e-009      -3.752e-010    
  0.3             -1.7864e-009    -9.691e-009     -5.695e-010    
  0.35            -3.576e-010     -1.6701e-008    2.244e-009     
  0.4             2.2793e-009     -4.835e-009     1.2411e-009    
  0.45            7.808e-010      1.39e-008       -2.2357e-009   
  0.5             -1.6964e-009    2.703e-009      -2.667e-010    
  0.55            -1.7513e-009    -1.0146e-008    -4.627e-010    
