! VERSION = 6.00
BEGIN_HEADER
 ICCAP_INPUTS
  VG         V  B GROUND SMU4 0.001 LIN        1    0          1.8        37   0.05      
  VS         V  E GROUND SMU2 0.1 CON        0
  VB         V  C GROUND SMU3 0.1 LIN        3    0          -1.8       3    -0.9      
  VD         V  S GROUND SMU1 0.1 LIN        2    0.1        1.8        2    1.7       
 ICCAP_OUTPUTS
  IG         I  B GROUND SMU4 B
  ID         I  S GROUND SMU1 B
  IB         I  C GROUND SMU3 B
END_HEADER

BEGIN_DB
 ICCAP_VAR VS         0              
 ICCAP_VAR VB         0              
 ICCAP_VAR VD         0.1            

 #VG              IG              ID              IB             
  0               -9.701e-010     -9.353e-010     -1.4055e-008   
  0.05            -1.5907e-009    8.041e-010      2.1018e-008    
  0.1             -7.72e-010      -2.105e-009     5.288e-009     
  0.15            1.9408e-009     -1.4972e-009    -1.4627e-008   
  0.2             1.3957e-009     1.8726e-009     -7.056e-009    
  0.25            -1.9747e-009    1.0898e-009     1.6438e-008    
  0.3             -1.7024e-009    1.6858e-009     3.429e-009     
  0.35            1.9916e-009     1.0475e-008     -1.6195e-008   
  0.4             2.418e-009      3.7111e-008     -6.601e-009    
  0.45            -2.0439e-009    1.1362e-007     1.7864e-008    
  0.5             2.2071e-009     2.8764e-007     -2.3381e-008   
  0.55            2.3456e-009     5.8219e-007     -4.972e-009    
  0.6             -1.404e-009     9.9765e-007     1.9748e-008    
  0.65            -1.51e-009      1.4725e-006     -8.732e-009    
  0.7             1.9155e-009     1.972e-006      -1.9982e-008   
  0.75            2.4551e-009     2.5021e-006     -7.264e-009    
  0.8             6.216e-010      3.0469e-006     9.713e-009     
  0.85            -1.5403e-009    3.5862e-006     1.9358e-008    
  0.9             -2.5264e-009    4.1131e-006     5.893e-009     
  0.95            2.5593e-009     4.6254e-006     -2.3728e-008   
  1               -1.3734e-009    5.1519e-006     1.4772e-008    
  1.05            -2.5762e-009    5.6562e-006     7.876e-009     
  1.1             2.3562e-009     6.1364e-006     -2.4247e-008   
  1.15            1.6799e-009     6.6177e-006     -3.912e-009    
  1.2             2.5488e-009     7.0805e-006     -8.751e-009    
  1.25            -2.3982e-009    7.5421e-006     2.4524e-008    
  1.3             -1.8352e-009    7.9704e-006     1.732e-009     
  1.35            -1.3657e-009    8.3896e-006     3.983e-009     
  1.4             -2.5784e-009    8.7939e-006     8.223e-009     
  1.45            -9.965e-010     9.1768e-006     -9.278e-009    
  1.5             2.6677e-009     9.5423e-006     -2.2783e-008   
  1.55            -1.3872e-009    9.9046e-006     2.0348e-008    
  1.6             -2.5779e-009    1.02399e-005    7.665e-009     
  1.65            -9.843e-010     1.05572e-005    -9.387e-009    
  1.7             1.828e-010      1.08534e-005    -1.0968e-008   
  1.75            2.7095e-009     1.11484e-005    -2.1439e-008   
  1.8             -4.329e-010     1.1419e-005     1.8819e-008    
END_DB

BEGIN_DB
 ICCAP_VAR VS         0              
 ICCAP_VAR VB         0              
 ICCAP_VAR VD         1.8            

 #VG              IG              ID              IB             
  0               2.4976e-009     2.2099e-009     -1.4758e-008   
  0.05            -1.4329e-009    9.015e-010      2.3361e-008    
  0.1             -9.04e-010      -2.0925e-009    7.07e-009      
  0.15            1.6854e-009     -1.5568e-009    -1.1972e-008   
  0.2             7.163e-010      2.313e-009      -8.996e-009    
  0.25            -1.7254e-009    1.3252e-009     1.9378e-008    
  0.3             -1.4954e-009    2.3034e-009     4.664e-009     
  0.35            2.7128e-009     1.2805e-008     2.0049e-008    
  0.4             2.6259e-009     4.6939e-008     -6.96e-010     
  0.45            2.4206e-009     1.4992e-007     -1.0463e-008   
  0.5             -1.3344e-009    3.9387e-007     2.1535e-008    
  0.55            -2.589e-009     8.2547e-007     8.457e-009     
  0.6             -1.2286e-009    1.4882e-006     -8.301e-009    
  0.65            2.3955e-009     2.3577e-006     -2.4968e-008   
  0.7             1.7092e-009     3.485e-006      -4.154e-009    
  0.75            2.537e-009      4.8416e-006     -9.532e-009    
  0.8             -2.2869e-009    6.4806e-006     1.0619e-008    
  0.85            -1.6702e-009    8.2833e-006     1.715e-009     
  0.9             -2.4704e-009    1.03244e-005    4.31e-009      
  0.95            2.6493e-009     1.2536e-005     -1.0511e-008   
  1               -2.2177e-009    1.5034e-005     2.5696e-008    
  1.05            -1.6072e-009    1.7657e-005     2.405e-009     
  1.1             -2.4938e-009    2.0479e-005     5.103e-009     
  1.15            -8.085e-010     2.3441e-005     -1.0058e-008   
  1.2             2.7106e-009     2.6556e-005     -1.3978e-008   
  1.25            -1.4778e-009    2.9928e-005     1.8169e-008    
  1.3             -2.5414e-009    3.3357e-005     6.186e-009     
  1.35            2.5031e-009     3.682e-005      -2.4338e-008   
  1.4             6.637e-010      4.0553e-005     9.593e-009     
  1.45            -1.4888e-009    4.437e-005      1.7953e-008    
  1.5             -2.5405e-009    4.8238e-005     6.334e-009     
  1.55            -9.006e-010     5.2161e-005     -9.777e-009    
  1.6             2.6669e-009     5.6126e-005     -1.2122e-008   
  1.65            -1.4914e-009    6.0328e-005     1.8224e-008    
  1.7             -2.5404e-009    6.4487e-005     6.284e-009     
  1.75            2.5059e-009     6.8591e-005     -2.4053e-008   
  1.8             6.587e-010      7.2907e-005     9.639e-009     
END_DB

BEGIN_DB
 ICCAP_VAR VS         0              
 ICCAP_VAR VB         -0.9           
 ICCAP_VAR VD         0.1            

 #VG              IG              ID              IB             
  0               8.452e-010      -4.221e-010     -4.936e-009    
  0.05            2.5669e-009     -1.2103e-009    -2.3853e-008   
  0.1             3.403e-010      2.0616e-009     9.766e-009     
  0.15            -2.2389e-009    4.454e-010      1.3842e-008    
  0.2             -1.191e-009     -1.9582e-009    2.564e-009     
  0.25            2.6578e-009     -1.1147e-009    -2.4447e-008   
  0.3             -1.6172e-009    8.247e-010      2.0463e-008    
  0.35            2.654e-009      -1.4815e-009    5.208e-009     
  0.4             -1.6052e-009    1.9041e-009     2.0731e-008    
  0.45            -1.4094e-009    5.1315e-009     5.193e-009     
  0.5             2.3422e-009     2.2674e-008     8.437e-009     
  0.55            1.652e-009      7.9236e-008     -4.07e-009     
  0.6             -1.1681e-009    2.1006e-007     1.7328e-008    
  0.65            2.4652e-009     4.4403e-007     -2.4213e-008   
  0.7             6.878e-010      7.9507e-007     9.616e-009     
  0.75            -2.2975e-009    1.2244e-006     -1.6877e-008   
  0.8             1.6809e-009     1.699e-006      -1.6631e-008   
  0.85            2.5585e-009     2.2043e-006     -8.832e-009    
  0.9             -2.3823e-009    2.7328e-006     2.5107e-008    
  0.95            -1.7948e-009    3.2486e-006     1.901e-009     
  1               -1.3397e-009    3.7674e-006     4.238e-009     
  1.05            -2.5816e-009    4.2796e-006     8.475e-009     
  1.1             2.2775e-009     4.7697e-006     -2.4074e-008   
  1.15            1.5915e-009     5.2646e-006     -4.387e-009    
  1.2             2.5882e-009     5.7419e-006     -8.963e-009    
  1.25            -2.3275e-009    6.22e-006       2.5305e-008    
  1.3             -1.7338e-009    6.6653e-006     2.152e-009     
  1.35            -2.4467e-009    7.1016e-006     4.538e-009     
  1.4             2.6808e-009     7.5098e-006     -1.2006e-008   
  1.45            -1.3825e-009    7.9284e-006     2.0052e-008    
  1.5             -2.5647e-009    8.3137e-006     7.685e-009     
  1.55            -9.741e-010     8.6806e-006     -9.232e-009    
  1.6             1.876e-010      9.026e-006      -1.0888e-008   
  1.65            2.7135e-009     9.369e-006      -8.953e-009    
  1.7             -1.4334e-009    9.6989e-006     1.8827e-008    
  1.75            -2.539e-009     1.00032e-005    6.871e-009     
  1.8             2.4714e-009     1.02877e-005    -2.4354e-008   
END_DB

BEGIN_DB
 ICCAP_VAR VS         0              
 ICCAP_VAR VB         -0.9           
 ICCAP_VAR VD         1.8            

 #VG              IG              ID              IB             
  0               -2.2084e-009    -2.0852e-009    -1.191e-009    
  0.05            -1.2198e-009    -1.9462e-009    2.946e-009     
  0.1             2.6521e-009     -1.1441e-009    -2.4545e-008   
  0.15            -1.6001e-009    8.03e-010       2.0642e-008    
  0.2             -7.737e-010     -2.11e-009      5.223e-009     
  0.25            1.9317e-009     -1.5114e-009    -1.4499e-008   
  0.3             5.609e-010      2.1917e-009     -7.145e-009    
  0.35            -1.9559e-009    1.6224e-009     2.0808e-008    
  0.4             -1.6818e-009    7.932e-010      3.545e-009     
  0.45            -1.4703e-009    6.371e-009      4.682e-009     
  0.5             2.0666e-009     2.9807e-008     2.1642e-008    
  0.55            2.3882e-009     1.01801e-007    -6.086e-009    
  0.6             2.1471e-009     2.7452e-007     1.676e-009     
  0.65            2.3737e-009     6.106e-007      -5.686e-009    
  0.7             -2.5868e-009    1.1649e-006     -2.3959e-008   
  0.75            2.3069e-009     1.9358e-006     -2.4398e-008   
  0.8             1.6293e-009     2.9595e-006     -4.815e-009    
  0.85            2.5773e-009     4.222e-006      -9.509e-009    
  0.9             -2.2095e-009    5.7734e-006     1.141e-008     
  0.95            -1.6038e-009    7.5106e-006     2.13e-009      
  1               -2.4969e-009    9.4861e-006     4.942e-009     
  1.05            -2.2212e-009    1.1691e-005     -3.861e-009    
  1.1             -1.6115e-009    1.4075e-005     2.283e-009     
  1.15            -2.4953e-009    1.6684e-005     5.101e-009     
  1.2             2.084e-010      1.9399e-005     -1.1437e-008   
  1.25            2.7114e-009     2.2355e-005     -2.0918e-008   
  1.3             2.3492e-009     2.5499e-005     -1.556e-009    
  1.35            1.6947e-009     2.8744e-005     -3.806e-009    
  1.4             2.5584e-009     3.2139e-005     -8.816e-009    
  1.45            -2.2638e-009    3.5773e-005     1.1474e-008    
  1.5             -1.6589e-009    3.9392e-005     2.336e-009     
  1.55            -2.4728e-009    4.3141e-005     4.892e-009     
  1.6             -7.617e-010     4.6941e-005     -1.0102e-008   
  1.65            1.5771e-009     5.0822e-005     -1.4964e-008   
  1.7             2.6218e-009     5.482e-005      -9.138e-009    
  1.75            -2.2764e-009    5.8984e-005     2.5446e-008    
  1.8             -1.683e-009     6.308e-005      2.402e-009     
END_DB

BEGIN_DB
 ICCAP_VAR VS         0              
 ICCAP_VAR VB         -1.8           
 ICCAP_VAR VD         0.1            

 #VG              IG              ID              IB             
  0               7.218e-010      6.714e-010      2.5729e-008    
  0.05            2.1549e-009     -1.4379e-009    -1.7184e-008   
  0.1             4.128e-010      2.076e-009      -5.09e-009     
  0.15            -2.158e-009     4.972e-010      1.4103e-008    
  0.2             -1.2389e-009    -1.9239e-009    2.846e-009     
  0.25            2.6476e-009     -1.1641e-009    -2.4847e-008   
  0.3             2.751e-010      2.0192e-009     9.664e-009     
  0.35            4.477e-010      2.1057e-009     9.376e-009     
  0.4             -2.1154e-009    5.939e-010      1.4387e-008    
  0.45            -3.491e-010     -1.618e-009     3.176e-009     
  0.5             1.5395e-009     2.6354e-009     -9.89e-009     
  0.55            2.6698e-009     1.1931e-008     1.8141e-008    
  0.6             -2.1837e-009    4.425e-008      2.6382e-008    
  0.65            9.374e-010      1.2721e-007     -1.5157e-008   
  0.7             -2.3859e-009    2.9857e-007     1.1254e-008    
  0.75            -1.7984e-009    5.6877e-007     1.976e-009     
  0.8             -1.333e-009     9.4058e-007     4.359e-009     
  0.85            -1.5529e-009    1.3827e-006     -8.713e-009    
  0.9             1.8183e-009     1.8494e-006     -1.8466e-008   
  0.95            2.522e-009      2.3491e-006     -8.153e-009    
  1               -2.3395e-009    2.8704e-006     1.1194e-008    
  1.05            -1.7361e-009    3.3744e-006     1.951e-009     
  1.1             -2.4078e-009    3.8802e-006     4.204e-009     
  1.15            2.7243e-009     4.3645e-006     -1.2445e-008   
  1.2             -1.4e-009       4.8671e-006     1.9269e-008    
  1.25            -2.5356e-009    5.3416e-006     6.968e-009     
  1.3             -9.218e-010     5.7989e-006     -9.418e-009    
  1.35            2.6666e-009     6.2366e-006     -1.1348e-008   
  1.4             -2.5381e-009    6.6837e-006     2.1062e-008    
  1.45            1.8186e-009     7.0913e-006     -1.8369e-008   
  1.5             2.5248e-009     7.4921e-006     -8.342e-009    
  1.55            -2.4366e-009    7.8805e-006     1.2936e-008    
  1.6             -1.9018e-009    8.2453e-006     1.755e-009     
  1.65            -1.376e-009     8.5971e-006     3.784e-009     
  1.7             -2.5285e-009    8.9336e-006     6.9e-009       
  1.75            -9.238e-010     9.247e-006      -9.296e-009    
  1.8             2.6638e-009     9.5396e-006     -1.1252e-008   
END_DB

BEGIN_DB
 ICCAP_VAR VS         0              
 ICCAP_VAR VB         -1.8           
 ICCAP_VAR VD         1.8            

 #VG              IG              ID              IB             
  0               1.1465e-009     1.1887e-009     -1.0121e-008   
  0.05            2.731e-009      -6.58e-011      -1.0231e-008   
  0.1             7.459e-010      2.2068e-009     -1.322e-009    
  0.15            -1.7015e-009    1.5233e-009     1.6001e-008    
  0.2             -6.929e-010     -2.0911e-009    4.945e-009     
  0.25            2.0721e-009     -1.4754e-009    -1.6562e-008   
  0.3             4.802e-010      2.1198e-009     -6.074e-009    
  0.35            -2.0879e-009    5.737e-010      1.5501e-008    
  0.4             -3.783e-010     -1.9409e-009    3.266e-009     
  0.45            2.4684e-009     -7.837e-010     -2.2486e-008   
  0.5             -2.5665e-009    3.0252e-009     1.1313e-008    
  0.55            2.3394e-009     1.3211e-008     8.806e-009     
  0.6             1.6554e-009     5.511e-008      -4.06e-009     
  0.65            -8.731e-010     1.6338e-007     1.2607e-008    
  0.7             2.6988e-009     3.9478e-007     -1.251e-008    
  0.75            -1.5217e-009    8.171e-007      1.9038e-008    
  0.8             -2.1555e-009    1.4391e-006     -1.548e-008    
  0.85            1.9484e-009     2.2975e-006     -2.0676e-008   
  0.9             2.4688e-009     3.4019e-006     -7.638e-009    
  0.95            -2.4071e-009    4.7975e-006     1.0738e-008    
  1               -1.8664e-009    6.39e-006       1.206e-009     
  1.05            -1.3585e-009    8.235e-006      3.591e-009     
  1.1             -2.5497e-009    1.03065e-005    7.591e-009     
  1.15            7.738e-010      1.2561e-005     -1.747e-008    
  1.2             -1.3841e-009    1.5079e-005     1.9617e-008    
  1.25            -2.546e-009     1.7759e-005     7.336e-009     
  1.3             2.4371e-009     2.0546e-005     -2.4632e-008   
  1.35            1.7608e-009     2.3578e-005     -3.598e-009    
  1.4             2.5422e-009     2.6756e-005     -8.676e-009    
  1.45            -2.3039e-009    3.017e-005      1.1229e-008    
  1.5             -1.7033e-009    3.3594e-005     2.149e-009     
  1.55            -2.428e-009     3.7173e-005     4.616e-009     
  1.6             -6.897e-010     4.0805e-005     -1.0283e-008   
  1.65            1.6566e-009     4.4547e-005     -1.6048e-008   
  1.7             2.5945e-009     4.8391e-005     -8.937e-009    
  1.75            -2.3437e-009    5.2436e-005     2.518e-008     
  1.8             -1.7595e-009    5.6405e-005     1.854e-009     
END_DB

