! VERSION = 6.00
BEGIN_HEADER
 ICCAP_INPUTS
  VG         V  B GROUND SMU4 0.001 LIN        1    0          1.8        37   0.05      
  VS         V  E GROUND SMU3 0.1 CON        0
  VB         V  C GROUND SMU1 0.1 LIN        3    0          -1.8       3    -0.9      
  VD         V  S GROUND SMU2 0.1 LIN        2    0.1        1.8        2    1.7       
 ICCAP_OUTPUTS
  IG         I  B GROUND SMU4 B
  ID         I  S GROUND SMU2 B
  IB         I  C GROUND SMU1 B
END_HEADER

BEGIN_DB
 ICCAP_VAR VS         0              
 ICCAP_VAR VB         0              
 ICCAP_VAR VD         0.1            

 #VG              IG              ID              IB             
  0               1.913e-010      -1.2828e-009    -1.6487e-008   
  0.05            2.7285e-009     8.34e-011       -7.603e-009    
  0.1             -1.8626e-009    1.2755e-009     1.682e-008     
  0.15            2.1235e-009     -1.2279e-009    -1.6807e-008   
  0.2             -2.0541e-009    1.4659e-009     1.6209e-008    
  0.25            2.3254e-009     6.738e-010      -1.6622e-008   
  0.3             2.6871e-009     1.049e-008      -1.5406e-008   
  0.35            -1.482e-009     3.8157e-008     1.6836e-008    
  0.4             2.715e-009      1.4233e-007     -9.789e-009    
  0.45            -2.2747e-009    4.4102e-007     1.207e-008     
  0.5             1.7862e-009     1.05429e-006    -1.6837e-008   
  0.55            -2.3837e-009    2.1259e-006     -1.6592e-008   
  0.6             2.3569e-009     3.5751e-006     -1.4422e-008   
  0.65            1.9029e-009     5.3515e-006     8.824e-009     
  0.7             -1.4814e-009    7.3439e-006     1.6998e-008    
  0.75            2.4499e-009     9.3033e-006     -1.3618e-008   
  0.8             -3.201e-010     1.1373e-005     1.6239e-008    
  0.85            -2.1776e-009    1.3454e-005     1.276e-008     
  0.9             1.6373e-009     1.5419e-005     -1.6975e-008   
  0.95            -2.3207e-009    1.7461e-005     1.1705e-008    
  1               1.86e-009       1.9365e-005     -1.6754e-008   
  1.05            -2.4228e-009    2.1328e-005     1.1174e-008    
  1.1             2.0824e-009     2.3138e-005     -1.5927e-008   
  1.15            -1.4746e-009    2.5017e-005     1.686e-008     
  1.2             -9.739e-010     2.6752e-005     -9.392e-009    
  1.25            2.7297e-009     2.8425e-005     -7.307e-009    
  1.3             -2.3794e-009    3.0114e-005     1.1286e-008    
  1.35            1.9957e-009     3.1654e-005     -1.6623e-008   
  1.4             -1.4166e-009    3.3253e-005     1.5419e-008    
  1.45            2.3763e-009     3.465e-005      -1.4242e-008   
  1.5             -1.559e-009     3.6101e-005     1.6644e-008    
  1.55            2.5102e-009     3.7399e-005     -1.2695e-008   
  1.6             -1.7341e-009    3.8728e-005     1.5827e-008    
  1.65            -8.241e-010     3.9946e-005     -9.737e-009    
  1.7             2.7144e-009     4.1098e-005     -7.638e-009    
  1.75            -1.3675e-009    4.2262e-005     1.4052e-008    
  1.8             -1.0638e-009    4.3274e-005     -8.755e-009    
END_DB

BEGIN_DB
 ICCAP_VAR VS         0              
 ICCAP_VAR VB         0              
 ICCAP_VAR VD         1.8            

 #VG              IG              ID              IB             
  0               -1.326e-010     1.232e-009      4.757e-009     
  0.05            -2.5787e-009    5.51e-011       1.0793e-008    
  0.1             1.8231e-009     -2.8944e-009    -1.2324e-008   
  0.15            -1.9772e-009    2.7444e-009     1.9982e-008    
  0.2             2.433e-009      -2.0466e-009    -2.1346e-008   
  0.25            -2.3105e-009    3.1641e-009     1.4319e-008    
  0.3             2.7278e-009     1.2739e-008     -1.5991e-008   
  0.35            -2.2985e-009    5.1002e-008     1.2367e-008    
  0.4             -1.079e-009     1.9727e-007     1.471e-008     
  0.45            2.7252e-009     6.2332e-007     -8.178e-009    
  0.5             -2.5855e-009    1.5908e-006     -1.9056e-008   
  0.55            -1.0555e-009    3.2713e-006     -1.0017e-008   
  0.6             2.4208e-009     5.7161e-006     -2.5043e-008   
  0.65            -1.5681e-009    9.1605e-006     1.2946e-008    
  0.7             1.5381e-009     1.3305e-005     2.504e-009     
  0.75            -2.2762e-009    1.8572e-005     9.269e-009     
  0.8             -4.366e-010     2.4486e-005     -1.3176e-008   
  0.85            1.6477e-009     3.1284e-005     -1.9138e-008   
  0.9             -2.3485e-009    3.9198e-005     9.563e-009     
  0.95            2.0888e-009     4.7499e-005     -2.382e-008    
  1               -2.5193e-009    5.7009e-005     8.647e-009     
  1.05            -9.9e-011       6.6787e-005     -1.0111e-008   
  1.1             2.191e-009      7.745e-005      -1.6564e-008   
  1.15            -1.3946e-009    8.9129e-005     1.629e-008     
  1.2             -1.0259e-009    0.000101076     -9.492e-009    
  1.25            2.7301e-009     0.000113352     -7.983e-009    
  1.3             1.5795e-009     0.00012625      1.7462e-008    
  1.35            -1.9541e-009    0.00014044      1.3884e-008    
  1.4             1.5561e-009     0.00015421      -1.4899e-008   
  1.45            -2.2931e-009    0.00016904      1.247e-008     
  1.5             1.7527e-009     0.00018353      -1.6234e-008   
  1.55            -2.4102e-009    0.00019916      1.1707e-008    
  1.6             1.9695e-009     0.00021427      -1.5859e-008   
  1.65            -2.4883e-009    0.0002305       1.1233e-008    
  1.7             2.1844e-009     0.00024612      -1.5331e-008   
  1.75            -1.5249e-009    0.00026288      1.8232e-008    
  1.8             2.5148e-009     0.0002788       -1.3177e-008   
END_DB

BEGIN_DB
 ICCAP_VAR VS         0              
 ICCAP_VAR VB         -0.9           
 ICCAP_VAR VD         0.1            

 #VG              IG              ID              IB             
  0               4.012e-010      -8.352e-010     -1.4481e-008   
  0.05            2.6487e-009     4.273e-010      -6.889e-009    
  0.1             -2.2429e-009    9.025e-010      1.4658e-008    
  0.15            2.5002e-009     -9.24e-010      -1.5571e-008   
  0.2             -2.3625e-009    7.474e-010      1.3806e-008    
  0.25            1.489e-010      -3.4204e-009    -8.305e-009    
  0.3             2.7199e-009     1.561e-010      -8.627e-009    
  0.35            -1.7412e-009    3.7183e-009     1.5159e-008    
  0.4             2.7231e-009     4.6866e-009     -1.7982e-008   
  0.45            1.866e-009      2.4727e-008     1.7407e-008    
  0.5             -2.4572e-009    9.5948e-008     1.1628e-008    
  0.55            2.1721e-009     3.1114e-007     -1.5405e-008   
  0.6             -2.4806e-009    8.0154e-007     1.1151e-008    
  0.65            2.2901e-009     1.6545e-006     1.2746e-008    
  0.7             -1.4592e-009    2.9602e-006     1.6401e-008    
  0.75            2.4592e-009     4.5204e-006     -1.3983e-008   
  0.8             -1.6031e-009    6.3853e-006     1.562e-008     
  0.85            2.5737e-009     8.2555e-006     -1.2443e-008   
  0.9             -1.7769e-009    1.02792e-005    1.4886e-008    
  0.95            -1.8322e-009    1.2257e-005     1.8605e-008    
  1               1.6719e-009     1.4181e-005     -1.6131e-008   
  1.05            -2.3616e-009    1.6178e-005     1.2254e-008    
  1.1             2.1058e-009     1.8041e-005     -2.1804e-008   
  1.15            -1.4619e-009    1.9964e-005     1.6598e-008    
  1.2             2.4599e-009     2.1717e-005     -1.4155e-008   
  1.25            -1.6049e-009    2.3537e-005     1.5662e-008    
  1.3             -8.916e-010     2.5238e-005     -9.518e-009    
  1.35            2.7095e-009     2.687e-005      -6.817e-009    
  1.4             -2.4775e-009    2.8504e-005     1.1541e-008    
  1.45            2.1474e-009     2.9998e-005     -1.5637e-008   
  1.5             -1.4911e-009    3.154e-005      1.749e-008     
  1.55            2.4883e-009     3.2884e-005     -1.3816e-008   
  1.6             -1.6397e-009    3.4279e-005     1.5397e-008    
  1.65            2.5935e-009     3.5533e-005     -1.2002e-008   
  1.7             -1.8048e-009    3.6796e-005     1.4702e-008    
  1.75            2.7084e-009     3.7941e-005     -1.2346e-008   
  1.8             -2.1664e-009    3.9075e-005     1.3355e-008    
END_DB

BEGIN_DB
 ICCAP_VAR VS         0              
 ICCAP_VAR VB         -0.9           
 ICCAP_VAR VD         1.8            

 #VG              IG              ID              IB             
  0               3.614e-010      -9.386e-010     -1.4964e-008   
  0.05            2.6787e-009     3.378e-010      -6.948e-009    
  0.1             -2.1458e-009    1.001e-009      1.5609e-008    
  0.15            2.4108e-009     -1.0436e-009    -1.6278e-008   
  0.2             -2.2849e-009    8.641e-010      1.4827e-008    
  0.25            2.5282e-009     -8.263e-010     -1.5557e-008   
  0.3             -2.384e-009     8.96e-010       1.3818e-008    
  0.35            2.6095e-009     4.517e-010      -1.47e-008     
  0.4             -2.4562e-009    6.5831e-009     1.2537e-008    
  0.45            2.7122e-009     3.2178e-008     1.8861e-008    
  0.5             -5.565e-010     1.2641e-007     1.0416e-008    
  0.55            1.4746e-009     4.3176e-007     -1.7275e-008   
  0.6             2.1437e-009     1.1635e-006     1.1871e-008    
  0.65            -2.4832e-009    2.5484e-006     9.589e-009     
  0.7             2.4013e-009     4.6274e-006     -2.3623e-008   
  0.75            -1.5571e-009    7.7025e-006     1.4339e-008    
  0.8             2.0533e-009     1.1529e-005     2.763e-009     
  0.85            -2.4815e-009    1.6477e-005     8.675e-009     
  0.9             -1.32e-010      2.2068e-005     -1.0625e-008   
  0.95            2.1346e-009     2.8691e-005     -1.7955e-008   
  1               -2.508e-009     3.6421e-005     8.703e-009     
  1.05            2.4653e-009     4.453e-005      -2.3285e-008   
  1.1             -1.6357e-009    5.3895e-005     1.5102e-008    
  1.15            -8.852e-010     6.371e-005      -1.0558e-008   
  1.2             2.7141e-009     7.4149e-005     -7.448e-009    
  1.25            -2.4601e-009    8.5758e-005     1.0381e-008    
  1.3             -1.836e-010     9.7418e-005     -9.143e-009    
  1.35            2.0638e-009     0.000109846     -1.6416e-008   
  1.4             4.141e-010      0.00012311      1.5095e-008    
  1.45            -1.5308e-009    0.00013678      1.6276e-008    
  1.5             -9.436e-010     0.00015061      -9.362e-009    
  1.55            2.7163e-009     0.00016478      -6.901e-009    
  1.6             -2.4128e-009    0.00018002      9.8e-009       
  1.65            2.031e-009      0.00019472      -1.6312e-008   
  1.7             -1.4255e-009    0.00021058      1.5798e-008    
  1.75            2.3957e-009     0.00022577      -1.4433e-008   
  1.8             -1.5538e-009    0.00024219      1.6251e-008    
END_DB

BEGIN_DB
 ICCAP_VAR VS         0              
 ICCAP_VAR VB         -1.8           
 ICCAP_VAR VD         0.1            

 #VG              IG              ID              IB             
  0               1.2846e-009     1.724e-010      1.0201e-008    
  0.05            6.451e-010      4.2043e-009     9.145e-009     
  0.1             2.6917e-009     -3.76e-010      -1.2249e-008   
  0.15            -2.5393e-009    2.526e-010      1.1522e-008    
  0.2             2.7095e-009     -1.783e-010     -9.783e-009    
  0.25            -1.5877e-009    3.0454e-009     1.2504e-008    
  0.3             2.0226e-009     -2.8207e-009    -1.5189e-008   
  0.35            -1.9527e-009    1.2534e-009     1.6275e-008    
  0.4             2.2134e-009     -9.07e-010      -1.6794e-008   
  0.45            -2.1186e-009    3.0089e-009     1.5674e-008    
  0.5             2.7152e-009     1.2231e-008     -1.5008e-008   
  0.55            -2.4728e-009    4.9938e-008     1.0938e-008    
  0.6             2.2328e-009     1.8294e-007     -1.3986e-008   
  0.65            -2.4245e-009    5.1208e-007     1.1178e-008    
  0.7             6.6e-011        1.1434e-006     9.178e-009     
  0.75            -2.0501e-009    2.1748e-006     1.4141e-008    
  0.8             1.6878e-009     3.5303e-006     -1.6794e-008   
  0.85            -2.3414e-009    5.2295e-006     1.1759e-008    
  0.9             1.8885e-009     6.9962e-006     -1.669e-008    
  0.95            -2.4337e-009    8.9506e-006     1.127e-008     
  1               2.0914e-009     1.08351e-005    -1.6194e-008   
  1.05            7.574e-010      1.2804e-005     -1.6743e-008   
  1.1             -2.6166e-009    1.4749e-005     6.814e-009     
  1.15            2.6725e-009     1.6597e-005     -1.1589e-008   
  1.2             -2.0776e-009    1.8493e-005     1.3749e-008    
  1.25            1.7109e-009     2.027e-005      -1.7228e-008   
  1.3             -2.356e-009     2.2061e-005     1.1648e-008    
  1.35            1.9155e-009     2.3713e-005     -1.6583e-008   
  1.4             -2.4466e-009    2.5404e-005     1.1032e-008    
  1.45            2.1234e-009     2.6946e-005     -1.5905e-008   
  1.5             -1.4918e-009    2.8523e-005     1.7318e-008    
  1.55            2.4535e-009     2.9928e-005     -1.3766e-008   
  1.6             -1.6452e-009    3.1371e-005     1.6217e-008    
  1.65            -8.754e-010     3.2699e-005     -9.614e-009    
  1.7             2.7183e-009     3.3956e-005     -7.289e-009    
  1.75            -2.4708e-009    3.5203e-005     1.0983e-008    
  1.8             2.1935e-009     3.6319e-005     -1.5735e-008   
END_DB

BEGIN_DB
 ICCAP_VAR VS         0              
 ICCAP_VAR VB         -1.8           
 ICCAP_VAR VD         1.8            

 #VG              IG              ID              IB             
  0               7.337e-010      3.56e-011       -7.314e-009    
  0.05            2.3763e-009     1.7621e-009     -5.861e-009    
  0.1             -2.5716e-009    1.102e-010      1.0884e-008    
  0.15            1.7388e-009     -2.9623e-009    -1.1783e-008   
  0.2             -1.9023e-009    2.7292e-009     1.86e-008      
  0.25            2.1686e-009     -1.2715e-009    -1.701e-008    
  0.3             -2.0779e-009    1.0719e-009     1.596e-008     
  0.35            2.3385e-009     -1.0306e-009    -1.6738e-008   
  0.4             -2.222e-009     1.3406e-009     1.4943e-008    
  0.45            2.1114e-009     3.7841e-009     -1.6898e-008   
  0.5             -8.509e-010     1.3971e-008     1.528e-008     
  0.55            -1.3646e-009    6.5748e-008     4.289e-009     
  0.6             -2.0901e-009    2.456e-007      1.8469e-008    
  0.65            2.6436e-009     7.0675e-007     -2.0098e-008   
  0.7             -2.5717e-009    1.6962e-006     -1.0328e-008   
  0.75            9.11e-011       3.292e-006      -9.318e-009    
  0.8             2.4562e-009     5.7273e-006     -1.4918e-008   
  0.85            -1.6524e-009    9.163e-006      1.4956e-008    
  0.9             -9.676e-010     1.3407e-005     1.5567e-008    
  0.95            2.5097e-009     1.8508e-005     -2.296e-008    
  1               -1.7316e-009    2.481e-005      1.444e-008     
  1.05            -8.252e-010     3.1793e-005     -1.1084e-008   
  1.1             2.7129e-009     3.9545e-005     -8.449e-009    
  1.15            -2.4975e-009    4.8529e-005     9.681e-009     
  1.2             2.2683e-009     5.7776e-005     -1.6027e-008   
  1.25            1.955e-009      6.8069e-005     8.009e-009     
  1.3             -1.4e-009       7.9282e-005     1.7173e-008    
  1.35            -1.0303e-009    9.0824e-005     -9.175e-009    
  1.4             2.7164e-009     0.000102712     -7.386e-009    
  1.45            -1.6336e-009    0.000116        -1.6429e-008   
  1.5             2.6708e-009     0.00012877      -1.1563e-008   
  1.55            -2.0879e-009    0.00014289      1.3428e-008    
  1.6             1.7193e-009     0.00015673      -1.7476e-008   
  1.65            8.064e-010      0.00017141      9.098e-009     
  1.7             -2.6103e-009    0.00018652      7.189e-009     
  1.75            2.6378e-009     0.00020128      -9.407e-009    
  1.8             -1.9771e-009    0.00021722      1.4344e-008    
END_DB

