! VERSION = 6.00
BEGIN_HEADER
 ICCAP_INPUTS
  VG         V  B GROUND SMU4 0.001 LIN        1    0          1.8        37   0.05      
  VS         V  E GROUND SMU2 0.1 CON        0
  VB         V  C GROUND SMU3 0.1 LIN        3    0          -1.8       3    -0.9      
  VD         V  S GROUND SMU1 0.1 LIN        2    0.1        1.8        2    1.7       
 ICCAP_OUTPUTS
  IG         I  B GROUND SMU4 B
  ID         I  S GROUND SMU1 B
  IB         I  C GROUND SMU3 B
END_HEADER

BEGIN_DB
 ICCAP_VAR VS         0              
 ICCAP_VAR VB         0              
 ICCAP_VAR VD         0.1            

 #VG              IG              ID              IB             
  0               -1.239e-010     -3.573e-010     -9.48e-009     
  0.05            -1.4935e-009    9.594e-010      2.6254e-008    
  0.1             -9.646e-010     -2.2453e-009    8.461e-009     
  0.15            1.6558e-009     -1.6454e-009    -1.1989e-008   
  0.2             1.7108e-009     1.7289e-009     -8.446e-009    
  0.25            3.728e-010      2.9627e-009     1.1223e-008    
  0.3             5.777e-010      5.5706e-009     1.0155e-008    
  0.35            -2.1875e-009    1.3231e-008     -2.2529e-008   
  0.4             -1.5903e-009    6.2522e-008     2.446e-009     
  0.45            1.1781e-009     2.6239e-007     -1.8768e-008   
  0.5             -1.7969e-009    1.1022e-006     -1.1501e-008   
  0.55            -1.4199e-009    4.0323e-006     4.578e-009     
  0.6             2.8774e-009     1.2062e-005     -9.48e-009     
  0.65            -1.7524e-009    3.0022e-005     2.2674e-008    
  0.7             -1.4088e-009    5.9205e-005     5.298e-009     
  0.75            -1.3301e-009    0.000100066     9.917e-009     
  0.8             -1.433e-009     0.00014907      1.1649e-008    
  0.85            -1.344e-009     0.00020282      9.606e-009     
  0.9             -2.582e-009     0.00025811      1.1339e-008    
  0.95            -1.9845e-009    0.00031301      8.51e-010      
  1               -1.4855e-009    0.000367        3.448e-009     
  1.05            -1.3597e-009    0.00041855      8.348e-009     
  1.1             -2.6634e-009    0.00046807      1.1613e-008    
  1.15            -2.1535e-009    0.00051374      7.94e-010      
  1.2             -1.565e-009     0.00055776      2.627e-009     
  1.25            -1.3781e-009    0.00059915      6.846e-009     
  1.3             -2.705e-009     0.0006376       1.1364e-008    
  1.35            1.904e-009      0.00067275      -1.9389e-008   
  1.4             1.4044e-009     0.00070651      -8.657e-009    
  1.45            1.2846e-009     0.00073777      -8.438e-009    
  1.5             2.7436e-009     0.00076699      -1.2234e-008   
  1.55            5.96e-010       0.00079479      1.1354e-008    
  1.6             9.773e-010      0.00081967      9.425e-009     
  1.65            -1.683e-010     0.00084341      1.1606e-008    
  1.7             -1.4071e-009    0.00086589      2.5503e-008    
  1.75            -1.3269e-009    0.00088624      1.0201e-008    
  1.8             -2.5014e-009    0.00090532      1.1621e-008    
END_DB

BEGIN_DB
 ICCAP_VAR VS         0              
 ICCAP_VAR VB         0              
 ICCAP_VAR VD         1.8            

 #VG              IG              ID              IB             
  0               -7.589e-010     -8.013e-010     1.1033e-008    
  0.05            -1.8178e-009    1.6053e-009     1.6791e-008    
  0.1             -1.5907e-009    -1.6562e-009    4.773e-009     
  0.15            -1.462e-010     -1.8826e-009    -1.1918e-008   
  0.2             1.5151e-009     -5.07e-011      -1.1848e-008   
  0.25            1.3769e-009     4.7373e-009     -8.446e-009    
  0.3             2.8696e-009     2.0993e-008     1.1315e-008    
  0.35            -1.7183e-009    9.4792e-008     2.1665e-008    
  0.4             -2.5922e-009    3.9527e-007     9.823e-009     
  0.45            -1.8685e-009    1.6672e-006     -1.136e-008    
  0.5             -8.543e-010     6.0929e-006     -1.8414e-008   
  0.55            2.4068e-009     1.8566e-005     -2.9209e-008   
  0.6             2.7091e-009     4.6568e-005     -2.7612e-008   
  0.65            2.8802e-009     9.6842e-005     -6.2559e-008   
  0.7             8.03e-010       0.00017242      -9.979e-008    
  0.75            1.6905e-009     0.00026982      -1.4925e-007   
  0.8             1.3403e-009     0.00038757      -1.7491e-007   
  0.85            2.8794e-009     0.00052102      -2.0443e-007   
  0.9             2.5335e-009     0.00066943      -2.2132e-007   
  0.95            1.8371e-009     0.0008248       -2.4363e-007   
  1               1.3885e-009     0.00098734      -2.6424e-007   
  1.05            -2.3546e-009    0.0011611       -2.7596e-007   
  1.1             -1.7141e-009    0.0013316       -2.706e-007    
  1.15            -1.4056e-009    0.0015057       -2.6983e-007   
  1.2             -1.3254e-009    0.0016823       -2.6456e-007   
  1.25            -2.4901e-009    0.0018598       -2.6114e-007   
  1.3             -1.8719e-009    0.0020358       -2.6709e-007   
  1.35            -1.4496e-009    0.0022134       -2.5768e-007   
  1.4             -1.346e-009     0.0023915       -2.4517e-007   
  1.45            -2.5937e-009    0.0025691       -2.3514e-007   
  1.5             -2.0343e-009    0.0027436       -2.3695e-007   
  1.55            -1.5119e-009    0.0029202       -2.2514e-007   
  1.6             -1.3663e-009    0.0030954       -2.1022e-007   
  1.65            -2.6704e-009    0.0032703       -1.9737e-007   
  1.7             -2.1977e-009    0.0034405       -1.9818e-007   
  1.75            -1.6084e-009    0.0036129       -1.8701e-007   
  1.8             -1.3825e-009    0.0037841       -1.7332e-007   
END_DB

BEGIN_DB
 ICCAP_VAR VS         0              
 ICCAP_VAR VB         -0.9           
 ICCAP_VAR VD         0.1            

 #VG              IG              ID              IB             
  0               -1.0049e-009    -9.41e-010      -1.7949e-008   
  0.05            -1.3845e-009    1.1907e-009     2.7294e-008    
  0.1             -1.2278e-009    -2.091e-009     1.1372e-008    
  0.15            1.3865e-009     -1.1861e-009    -2.6048e-008   
  0.2             1.0521e-009     2.3227e-009     -8.711e-009    
  0.25            1.2106e-009     2.1818e-009     9.71e-009      
  0.3             -1.3905e-009    1.2565e-009     2.7548e-008    
  0.35            -1.3581e-009    2.628e-010      1.1031e-008    
  0.4             -1.3238e-009    2.0351e-009     1.1502e-008    
  0.45            2.0624e-009     9.71e-009       -2.3704e-008   
  0.5             1.4813e-009     4.1294e-008     -7.092e-009    
  0.55            -1.4347e-009    2.0472e-007     2.2725e-008    
  0.6             1.2757e-009     8.5591e-007     -2.3304e-008   
  0.65            2.8606e-009     3.2262e-006     2.6262e-008    
  0.7             9.958e-010      1.3153e-005     -2.2463e-008   
  0.75            -1.3897e-009    2.7223e-005     2.6537e-008    
  0.8             -1.3126e-009    6.0976e-005     1.1033e-008    
  0.85            -2.3913e-009    9.5376e-005     1.1847e-008    
  0.9             -1.4813e-009    0.00014405      1.02e-009      
  0.95            -1.3582e-009    0.00019768      8.872e-009     
  1               -2.6359e-009    0.00025359      1.1533e-008    
  1.05            -2.1249e-009    0.00030848      6.73e-010      
  1.1             -1.5597e-009    0.00036256      2.374e-009     
  1.15            -1.3786e-009    0.0004139       7.296e-009     
  1.2             -2.6977e-009    0.00046285      1.1451e-008    
  1.25            -1.2986e-009    0.00050907      -9.447e-009    
  1.3             -8.05e-011      0.00055076      -1.1495e-008   
  1.35            -6.318e-010     0.00059149      -1.2063e-008   
  1.4             -1.0148e-009    0.00062963      -1.039e-008    
  1.45            2.208e-010      0.0006635       -1.1659e-008   
  1.5             1.4168e-009     0.00069645      -2.4199e-008   
  1.55            1.2848e-009     0.000727        -8.569e-009    
  1.6             2.7309e-009     0.00075526      -1.1934e-008   
  1.65            5.763e-010      0.00078204      1.1418e-008    
  1.7             9.623e-010      0.0008052       9.511e-009     
  1.75            -1.878e-010     0.00082864      1.1968e-008    
  1.8             -1.4182e-009    0.00085018      2.5223e-008    
END_DB

BEGIN_DB
 ICCAP_VAR VS         0              
 ICCAP_VAR VB         -0.9           
 ICCAP_VAR VD         1.8            

 #VG              IG              ID              IB             
  0               4.636e-010      5.897e-010      -1.1796e-008   
  0.05            2.1144e-009     -7.481e-010     -1.9013e-008   
  0.1             1.4135e-009     1.9499e-009     -7.042e-009    
  0.15            -1.3532e-009    1.3472e-009     2.4833e-008    
  0.2             -1.3167e-009    6.51e-011       1.1428e-008    
  0.25            -2.6559e-009    4.928e-010      1.1604e-008    
  0.3             -2.4853e-009    7.716e-010      5.08e-010      
  0.35            -2.2412e-009    7.1773e-009     1.073e-009     
  0.4             2.4957e-009     3.8156e-008     2.656e-008     
  0.45            -2.6852e-009    1.7499e-007     1.0682e-008    
  0.5             -1.3326e-009    8.1601e-007     -1.0807e-008   
  0.55            2.3861e-009     3.2153e-006     1.077e-008     
  0.6             -1.9e-012       1.1397e-005     -2.1069e-008   
  0.65            4.75e-010       3.1758e-005     -1.4457e-008   
  0.7             8.826e-010      7.1234e-005     -3.9403e-008   
  0.75            1.2991e-009     0.00013441      -5.2821e-008   
  0.8             7.462e-010      0.00022632      -1.1068e-007   
  0.85            1.6186e-009     0.0003366       -1.6085e-007   
  0.9             1.3238e-009     0.00046559      -1.8423e-007   
  0.95            2.8644e-009     0.00060777      -2.1059e-007   
  1               2.4498e-009     0.0007632       -2.2278e-007   
  1.05            1.7557e-009     0.00092406      -2.4187e-007   
  1.1             1.3631e-009     0.00109061      -2.5834e-007   
  1.15            -1.438e-009     0.0012663       -2.7577e-007   
  1.2             -1.3404e-009    0.0014395       -2.5069e-007   
  1.25            -2.569e-009     0.0016151       -2.5e-007      
  1.3             -1.9711e-009    0.0017899       -2.5887e-007   
  1.35            -1.4877e-009    0.0019668       -2.5244e-007   
  1.4             -1.3588e-009    0.0021444       -2.416e-007    
  1.45            -2.6498e-009    0.0023214       -2.3214e-007   
  1.5             -2.1452e-009    0.0024962       -2.3541e-007   
  1.55            -1.5755e-009    0.0026729       -2.2544e-007   
  1.6             -1.3801e-009    0.0028483       -2.1184e-007   
  1.65            -2.6995e-009    0.003023        -1.9858e-007   
  1.7             -2.3125e-009    0.003194        -1.9993e-007   
  1.75            -1.6907e-009    0.0033668       -1.8964e-007   
  1.8             -1.4056e-009    0.0035382       -1.7668e-007   
END_DB

BEGIN_DB
 ICCAP_VAR VS         0              
 ICCAP_VAR VB         -1.8           
 ICCAP_VAR VD         0.1            

 #VG              IG              ID              IB             
  0               -9.31e-010      -8.91e-010      -2.405e-008    
  0.05            -1.3587e-009    1.3245e-009     2.4721e-008    
  0.1             -1.3254e-009    -9e-012         1.1679e-008    
  0.15            -2.6643e-009    1.522e-010      1.1775e-008    
  0.2             -9.576e-010     -2.2596e-009    8.85e-010      
  0.25            1.6451e-009     -1.687e-009     -1.167e-008    
  0.3             1.7212e-009     1.5523e-009     -8.616e-009    
  0.35            3.702e-010      2.2623e-009     1.1395e-008    
  0.4             5.805e-010      2.607e-009      1.0567e-008    
  0.45            7.648e-010      3.893e-009      9.486e-009     
  0.5             -1.7211e-009    9.383e-009      1.5257e-008    
  0.55            2.6878e-009     3.7224e-008     1.0562e-008    
  0.6             -9.193e-010     1.7369e-007     1.2876e-008    
  0.65            1.4513e-009     7.6189e-007     -1.1955e-008   
  0.7             2.6969e-009     3.0089e-006     2.4002e-008    
  0.75            8.065e-010      9.8439e-006     1.069e-008     
  0.8             -2.7285e-009    2.5409e-005     1.0103e-008    
  0.85            1.2763e-009     5.2514e-005     -2.3328e-008   
  0.9             2.6315e-009     9.1199e-005     -1.336e-008    
  0.95            2.5195e-009     0.00014044      1.1485e-008    
  1               5.651e-010      0.00019478      1.1518e-008    
  1.05            9.588e-010      0.00024932      9.468e-009     
  1.1             -1.93e-010      0.00030538      1.1902e-008    
  1.15            -1.413e-009     0.00035954      2.5543e-008    
  1.2             -1.3369e-009    0.00041083      1.0249e-008    
  1.25            -2.5178e-009    0.00045971      1.1619e-008    
  1.3             -1.8786e-009    0.00050475      1.071e-009     
  1.35            -1.4464e-009    0.00054751      3.834e-009     
  1.4             -1.3582e-009    0.00058754      9.346e-009     
  1.45            -2.623e-009     0.0006248       1.1693e-008    
  1.5             -2.0435e-009    0.00065898      6.63e-010      
  1.55            -1.5073e-009    0.00069125      2.907e-009     
  1.6             -1.3719e-009    0.00072128      7.793e-009     
  1.65            -2.6894e-009    0.0007492       1.1862e-008    
  1.7             -2.2075e-009    0.00077452      7.72e-010      
  1.75            -1.601e-009     0.00079851      2.129e-009     
  1.8             -1.3873e-009    0.00082092      6.319e-009     
END_DB

BEGIN_DB
 ICCAP_VAR VS         0              
 ICCAP_VAR VB         -1.8           
 ICCAP_VAR VD         1.8            

 #VG              IG              ID              IB             
  0               8.367e-010      8.495e-010      2.7136e-008    
  0.05            1.2776e-009     -1.525e-009     -1.742e-008    
  0.1             2.8721e-009     -1.446e-010     -1.3148e-008   
  0.15            -1.323e-009     1.502e-009      2.0095e-008    
  0.2             -2.6716e-009    1.816e-010      1.1787e-008    
  0.25            -9.632e-010     -2.1641e-009    7.36e-010      
  0.3             1.6415e-009     -1.1966e-009    -1.1791e-008   
  0.35            1.4455e-009     2.8361e-009     -8.405e-009    
  0.4             2.8889e-009     1.3043e-008     2.3879e-008    
  0.45            2.6605e-009     5.8812e-008     -6.03e-010     
  0.5             -1.4069e-009    2.8321e-007     -4.75e-010     
  0.55            2.6132e-009     1.1983e-006     1.7769e-008    
  0.6             1.9169e-009     4.7039e-006     -7.993e-009    
  0.65            -1.6086e-009    1.5861e-005     -1.4653e-008   
  0.7             -1.389e-009     4.1519e-005     -2.5307e-008   
  0.75            -2.7196e-009    8.9321e-005     -4.5982e-008   
  0.8             -1.3321e-009    0.00016224      -9.7143e-008   
  0.85            1.3033e-009     0.00025503      -1.1145e-007   
  0.9             1.7516e-009     0.00037286      -1.4157e-007   
  0.95            2.1613e-009     0.00050893      -1.7163e-007   
  1               2.4323e-009     0.00065615      -1.9615e-007   
  1.05            2.735e-009      0.00081211      -2.148e-007    
  1.1             2.8871e-009     0.00097577      -2.3644e-007   
  1.15            -1.9193e-009    0.0011457       -2.4765e-007   
  1.2             -1.4653e-009    0.0013173       -2.4944e-007   
  1.25            -1.3594e-009    0.0014914       -2.4656e-007   
  1.3             -2.6491e-009    0.0016671       -2.4412e-007   
  1.35            -2.0915e-009    0.0018415       -2.5272e-007   
  1.4             -1.537e-009     0.0020181       -2.4629e-007   
  1.45            -1.375e-009     0.0021947       -2.355e-007    
  1.5             -2.7013e-009    0.0023717       -2.2482e-007   
  1.55            -2.2557e-009    0.0025453       -2.2807e-007   
  1.6             -1.6313e-009    0.0027207       -2.1835e-007   
  1.65            -1.3931e-009    0.0028951       -2.0578e-007   
  1.7             -1.3137e-009    0.0030681       -1.917e-007    
  1.75            -2.4218e-009    0.0032402       -1.8161e-007   
  1.8             -1.763e-009     0.0034103       -1.8304e-007   
END_DB

