! VERSION = 6.00
BEGIN_HEADER
 ICCAP_INPUTS
  VG         V  B GROUND SMU4 0.001 LIN        2    0          1.8        6    0.36      
  VS         V  E GROUND SMU2 0.1 CON        0
  VD         V  S GROUND SMU1 0.1 LIN        1    0          1.8        37   0.05      
  VB         V  C GROUND SMU3 0.1 LIN        3    0          -0.9       2    -0.9      
 ICCAP_OUTPUTS
  ID         I  S GROUND SMU1 B
  IB         I  C GROUND SMU3 B
  IG         I  B GROUND SMU4 B
END_HEADER

BEGIN_DB
 ICCAP_VAR VG         0              
 ICCAP_VAR VS         0              
 ICCAP_VAR VB         0              

 #VD              ID              IB              IG             
  0               1.024e-009      -1.0858e-008    1.0871e-009    
  0.05            -8.182e-010     -2.0861e-008    1.9395e-009    
  0.1             1.84e-009       -8.052e-009     1.5019e-009    
  0.15            1.5895e-009     1.0629e-008     1.6691e-009    
  0.2             2.1803e-009     1.142e-008      2.862e-010     
  0.25            2.266e-009      1.0793e-008     4.683e-010     
  0.3             1.3907e-009     2.3601e-008     -1.3548e-009   
  0.35            2.37e-011       1.1559e-008     -1.3184e-009   
  0.4             1.704e-010      1.2035e-008     -2.6716e-009   
  0.45            -2.2712e-009    7.66e-010       -9.566e-010    
  0.5             -1.6852e-009    -1.2177e-008    1.704e-009     
  0.55            1.6204e-009     -8.731e-009     1.6713e-009    
  0.6             2.1771e-009     1.1445e-008     2.801e-010     
  0.65            2.2633e-009     1.1e-008        4.612e-010     
  0.7             2.3461e-009     1.0153e-008     6.401e-010     
  0.75            2.3866e-009     9.377e-009      8.061e-010     
  0.8             2.3878e-009     8.781e-009      9.41e-010      
  0.85            1.7962e-009     1.2492e-008     -1.5542e-009   
  0.9             -1.4556e-009    7.427e-009      -1.778e-009    
  0.95            -2.1907e-009    -1.1944e-008    -3.895e-010    
  1               -2.2398e-009    -1.1047e-008    -5.992e-010    
  1.05            -2.2732e-009    -1.0111e-008    -7.843e-010    
  1.1             -1.5954e-009    -1.4944e-008    1.2517e-009    
  1.15            -2.405e-010     -1.4137e-008    2.8185e-009    
  1.2             2.2569e-009     9.457e-009      1.1371e-009    
  1.25            1.9241e-009     1.1181e-008     -1.4276e-009   
  1.3             -2.2292e-009    1.0289e-008     -1.0841e-009   
  1.35            -1.7606e-009    -1.1578e-008    1.5275e-009    
  1.4             2.3925e-009     -8.298e-009     8.897e-010     
  1.45            2.3523e-009     8.985e-009      1.0248e-009    
  1.5             2.2337e-009     9.586e-009      1.1645e-009    
  1.55            1.9445e-009     1.1167e-008     -2.149e-010    
  1.6             8.78e-010       2.4802e-008     -1.5993e-009   
  1.65            -1.5087e-009    6.8e-009        -1.7323e-009   
  1.7             -2.1728e-009    -1.2072e-008    -3.2e-010      
  1.75            -2.224e-009     -1.1511e-008    -5.326e-010    
  1.8             -2.2707e-009    -1.0737e-008    -7.327e-010    
END_DB

BEGIN_DB
 ICCAP_VAR VG         0.36           
 ICCAP_VAR VS         0              
 ICCAP_VAR VB         0              

 #VD              ID              IB              IG             
  0               -6.922e-010     -2.587e-008     -8.194e-010    
  0.05            8.0303e-009     1.9711e-008     -1.3148e-009   
  0.1             8.4986e-009     1.1421e-008     -2.6645e-009   
  0.15            8.1738e-009     7.36e-010       -2.5073e-009   
  0.2             1.0408e-008     -1.1267e-008    2.7929e-009    
  0.25            1.119e-008      -9.504e-009     1.7321e-009    
  0.3             1.1577e-008     -2.1618e-008    2.7689e-009    
  0.35            1.1378e-008     -1.3564e-008    2.2607e-009    
  0.4             1.166e-008      -1.1839e-008    1.6684e-009    
  0.45            1.2061e-008     -1.1703e-008    1.3599e-009    
  0.5             1.0537e-008     -1.13e-008      -8.623e-010    
  0.55            1.3885e-008     1.6905e-008     -1.7935e-009   
  0.6             1.5029e-008     2.6559e-008     -1.3354e-009   
  0.65            1.7253e-008     9.124e-009      1.0386e-009    
  0.7             1.49e-008       -2.2671e-008    1.5433e-009    
  0.75            1.3426e-008     -1.1799e-008    -5.705e-010    
  0.8             1.6021e-008     1.2714e-008     -2.191e-009    
  0.85            1.9333e-008     1.0926e-008     1.4366e-009    
  0.9             1.6409e-008     -2.579e-008     1.3112e-009    
  0.95            1.4947e-008     -1.0287e-008    -9.856e-010    
  1               1.887e-008      2.0005e-008     -1.6209e-009   
  1.05            2.0263e-008     1.0688e-008     1.9005e-009    
  1.1             1.8068e-008     -1.768e-008     1.8344e-009    
  1.15            1.8759e-008     -2.2985e-008    1.266e-009     
  1.2             1.7195e-008     -9.42e-009      -1.1719e-009   
  1.25            2.1455e-008     2.4348e-008     -1.4667e-009   
  1.3             2.2976e-008     1.1114e-008     5.768e-010     
  1.35            2.1555e-008     -1.5034e-008    2.2791e-009    
  1.4             2.1703e-008     -2.6062e-008    1.3282e-009    
  1.45            2.0061e-008     -1.0571e-008    -9.316e-010    
  1.5             2.3936e-008     1.8732e-008     -1.6828e-009   
  1.55            2.5212e-008     1.1077e-008     2.654e-010     
  1.6             2.4532e-008     -1.2597e-008    2.6716e-009    
  1.65            2.3187e-008     -1.2575e-008    3.077e-010     
  1.7             2.4538e-008     9.612e-009      -1.3556e-009   
  1.75            2.7631e-008     9.784e-009      9.509e-010     
  1.8             2.5732e-008     -2.0667e-008    1.6631e-009    
END_DB

BEGIN_DB
 ICCAP_VAR VG         0.72           
 ICCAP_VAR VS         0              
 ICCAP_VAR VB         0              

 #VD              ID              IB              IG             
  0               -1.6144e-009    1.1218e-008     -2.7278e-009   
  0.05            1.1679e-006     9.666e-009      2.8654e-009    
  0.1             1.9838e-006     -1.2287e-008    3.041e-010     
  0.15            2.5051e-006     1.1142e-008     -2.7121e-009   
  0.2             2.7666e-006     1.4963e-008     -1.4867e-009   
  0.25            2.8914e-006     1.0861e-008     7.772e-010     
  0.3             2.961e-006      -2.0571e-008    1.6066e-009    
  0.35            3.0382e-006     -1.1715e-008    -7.73e-010     
  0.4             3.1103e-006     1.8896e-008     -1.6238e-009   
  0.45            3.1474e-006     1.1316e-008     6.021e-010     
  0.5             3.1708e-006     -1.8272e-008    1.8527e-009    
  0.55            3.2305e-006     -1.0761e-008    -1.9656e-009   
  0.6             3.2817e-006     1.6193e-008     -1.8458e-009   
  0.65            3.2881e-006     1.0853e-008     1.9547e-009    
  0.7             3.3241e-006     -1.2311e-008    1.4613e-009    
  0.75            3.3719e-006     -1.1278e-008    -8.863e-010    
  0.8             3.4257e-006     2.1923e-008     -1.4999e-009   
  0.85            3.4386e-006     1.1038e-008     7.455e-010     
  0.9             3.4514e-006     -1.9788e-008    1.6434e-009    
  0.95            3.4912e-006     -1.1791e-008    -7.364e-010    
  1               3.541e-006      1.8507e-008     -1.6576e-009   
  1.05            3.5591e-006     1.1368e-008     5.623e-010     
  1.1             3.5653e-006     -1.7748e-008    1.9169e-009    
  1.15            3.5945e-006     -1.1845e-008    -5.225e-010    
  1.2             3.6507e-006     1.5686e-008     -1.8989e-009   
  1.25            3.6362e-006     1.0917e-008     1.9164e-009    
  1.3             3.6602e-006     -1.2661e-008    1.4894e-009    
  1.35            3.7e-006        -1.1432e-008    -8.598e-010    
  1.4             3.7423e-006     2.1222e-008     -1.5233e-009   
  1.45            3.7491e-006     1.0995e-008     7.104e-010     
  1.5             3.7516e-006     -1.948e-008     1.6937e-009    
  1.55            3.7837e-006     -1.1974e-008    -6.936e-010    
  1.6             3.832e-006      1.7776e-008     -1.6949e-009   
  1.65            3.8204e-006     1.019e-008      2.0551e-009    
  1.7             3.8323e-006     -1.2287e-008    2.425e-010     
  1.75            3.8968e-006     1.0873e-008     -2.6967e-009   
  1.8             3.9062e-006     1.2187e-008     -1.4465e-009   
END_DB

BEGIN_DB
 ICCAP_VAR VG         1.08           
 ICCAP_VAR VS         0              
 ICCAP_VAR VB         0              

 #VD              ID              IB              IG             
  0               -1.8425e-009    -2.17e-008      3.56e-011      
  0.05            3.0762e-006     2.6973e-008     2.8871e-009    
  0.1             5.832e-006      -1.2541e-008    1.4763e-009    
  0.15            8.2954e-006     -1.1196e-008    -8.803e-010    
  0.2             1.0427e-005     2.1825e-008     -1.5122e-009   
  0.25            1.221e-005      1.1249e-008     -2.6751e-009   
  0.3             1.3657e-005     1.6419e-008     -1.5347e-009   
  0.35            1.472e-005      9.335e-009      1.0241e-009    
  0.4             1.5503e-005     -2.4789e-008    1.285e-009     
  0.45            1.6047e-005     -1.1839e-008    -6.895e-010    
  0.5             1.6444e-005     2.5431e-008     -1.4309e-009   
  0.55            1.6694e-005     2.6513e-008     -1.3253e-009   
  0.6             1.6844e-005     1.1161e-008     6.735e-010     
  0.65            1.6943e-005     -2.5291e-008    1.3921e-009    
  0.7             1.7089e-005     -2.2404e-008    2.1082e-009    
  0.75            1.7222e-005     -1.1601e-008    -8.056e-010    
  0.8             1.7377e-005     2.7062e-008     -1.3996e-009   
  0.85            1.7478e-005     2.397e-008      -1.8537e-009   
  0.9             1.7536e-005     1.0784e-008     7.858e-010     
  0.95            1.7586e-005     -2.621e-008     1.3448e-009    
  1               1.7775e-005     -9.891e-009     -1.4449e-009   
  1.05            1.7835e-005     1.8512e-008     -1.6159e-009   
  1.1             1.7857e-005     9.854e-009      9.493e-010     
  1.15            1.7924e-005     -2.6144e-008    1.2992e-009    
  1.2             1.8025e-005     -1.1989e-008    -5.713e-010    
  1.25            1.8152e-005     2.3546e-008     -1.4697e-009   
  1.3             1.823e-005      2.7673e-008     -1.3441e-009   
  1.35            1.8274e-005     1.1272e-008     5.779e-010     
  1.4             1.8279e-005     -2.4039e-008    1.4436e-009    
  1.45            1.8358e-005     -2.4389e-008    1.2791e-009    
  1.5             1.8442e-005     -1.1775e-008    -7.187e-010    
  1.55            1.8555e-005     2.5835e-008     -1.4236e-009   
  1.6             1.8622e-005     2.6063e-008     -1.3212e-009   
  1.65            1.8644e-005     1.0968e-008     6.992e-010     
  1.7             1.8651e-005     -2.5727e-008    1.379e-009     
  1.75            1.8728e-005     -1.2194e-008    -2.118e-010    
  1.8             1.8844e-005     1.7198e-008     -1.7195e-009   
END_DB

BEGIN_DB
 ICCAP_VAR VG         1.44           
 ICCAP_VAR VS         0              
 ICCAP_VAR VB         0              

 #VD              ID              IB              IG             
  0               -1.0516e-008    -2.6487e-008    -1.3014e-009   
  0.05            4.6431e-006     1.633e-009      8.167e-010     
  0.1             9.0324e-006     -2.161e-008     1.5488e-009    
  0.15            1.3182e-005     -1.1633e-008    2.7526e-009    
  0.2             1.7031e-005     -1.4e-008       1.5818e-009    
  0.25            2.0612e-005     -2.6415e-008    1.3074e-009    
  0.3             2.3893e-005     -1.1866e-008    -5.329e-010    
  0.35            2.6898e-005     2.3048e-008     -1.4905e-009   
  0.4             2.95e-005       9.004e-009      1.0724e-009    
  0.45            3.1843e-005     -2.3101e-008    1.2698e-009    
  0.5             3.3862e-005     -1.1464e-008    -7.641e-010    
  0.55            3.5573e-005     2.6634e-008     -1.4138e-009   
  0.6             3.6818e-005     9.306e-009      1.2397e-009    
  0.65            3.7899e-005     -1.8405e-008    1.8614e-009    
  0.7             3.8726e-005     -1.0823e-008    -9.24e-010     
  0.75            3.9345e-005     2.8175e-008     -1.3746e-009   
  0.8             3.9748e-005     1.1156e-008     3.977e-010     
  0.85            3.9988e-005     -2.0976e-008    1.5964e-009    
  0.9             4.0358e-005     -1e-008         -1.0872e-009   
  0.95            4.0592e-005     2.6774e-008     -1.3354e-009   
  1               4.075e-005      1.1218e-008     6.105e-010     
  1.05            4.0847e-005     -2.4759e-008    1.4302e-009    
  1.1             4.1037e-005     -2.3366e-008    1.2712e-009    
  1.15            4.1223e-005     -1.1636e-008    -7.474e-010    
  1.2             4.1439e-005     2.6435e-008     -1.4171e-009   
  1.25            4.1439e-005     8.948e-009      1.2243e-009    
  1.3             4.1633e-005     -1.8548e-008    1.8818e-009    
  1.35            4.1806e-005     -1.1011e-008    -9.122e-010    
  1.4             4.1978e-005     2.7807e-008     -1.3749e-009   
  1.45            4.2081e-005     1.1031e-008     3.821e-010     
  1.5             4.2104e-005     -2.0861e-008    1.6206e-009    
  1.55            4.222e-005      -2.5975e-008    1.3079e-009    
  1.6             4.2361e-005     -1.1641e-008    -4.977e-010    
  1.65            4.2547e-005     2.2671e-008     -1.5181e-009   
  1.7             4.2538e-005     9.133e-009      1.052e-009     
  1.75            4.2662e-005     -2.3291e-008    1.271e-009     
  1.8             4.279e-005      -1.1573e-008    -7.377e-010    
END_DB

BEGIN_DB
 ICCAP_VAR VG         1.8            
 ICCAP_VAR VS         0              
 ICCAP_VAR VB         0              

 #VD              ID              IB              IG             
  0               -1.4687e-008    -2.1816e-008    -1.0669e-009   
  0.05            5.7864e-006     1.0939e-008     1.7686e-009    
  0.1             1.13839e-005    -1.5352e-008    1.6612e-009    
  0.15            1.6806e-005     -1.1727e-008    2.6054e-009    
  0.2             2.1992e-005     -1.9417e-008    1.8855e-009    
  0.25            2.6974e-005     -1.0748e-008    -9.156e-010    
  0.3             3.1715e-005     2.7649e-008     -1.3658e-009   
  0.35            3.619e-005      1.1039e-008     3.919e-010     
  0.4             4.0364e-005     -2.0642e-008    1.6055e-009    
  0.45            4.43e-005       -2.6093e-008    1.3043e-009    
  0.5             4.7963e-005     -1.1755e-008    -5.069e-010    
  0.55            5.1352e-005     2.2206e-008     -1.5038e-009   
  0.6             5.4357e-005     9.021e-009      1.0571e-009    
  0.65            5.7107e-005     -2.3794e-008    1.2705e-009    
  0.7             5.9553e-005     -1.1698e-008    -7.438e-010    
  0.75            6.1717e-005     2.5966e-008     -1.4124e-009   
  0.8             6.3407e-005     9.152e-009      1.2222e-009    
  0.85            6.4949e-005     -1.9342e-008    1.8989e-009    
  0.9             6.6211e-005     -1.0732e-008    -9.098e-010    
  0.95            6.7228e-005     2.782e-008      -1.3689e-009   
  1               6.7966e-005     1.1117e-008     3.808e-010     
  1.05            6.8455e-005     -2.0232e-008    1.6109e-009    
  1.1             6.8915e-005     -2.6321e-008    1.306e-009     
  1.15            6.9322e-005     -1.1788e-008    -4.919e-010    
  1.2             6.9724e-005     2.2049e-008     -1.5064e-009   
  1.25            6.9878e-005     9.137e-009      1.0522e-009    
  1.3             7.014e-005      -2.4042e-008    1.2719e-009    
  1.35            7.041e-005      -1.1648e-008    -7.364e-010    
  1.4             7.0699e-005     2.5619e-008     -1.4154e-009   
  1.45            7.0727e-005     9.139e-009      1.2172e-009    
  1.5             7.0974e-005     -1.9391e-008    1.9116e-009    
  1.55            7.1205e-005     -1.0818e-008    -9.007e-010    
  1.6             7.1426e-005     2.7788e-008     -1.3702e-009   
  1.65            7.1574e-005     1.1085e-008     3.665e-010     
  1.7             7.1628e-005     -2.0228e-008    1.6256e-009    
  1.75            7.1784e-005     -2.6372e-008    1.3084e-009    
  1.8             7.1966e-005     -1.1738e-008    -4.882e-010    
END_DB

BEGIN_DB
 ICCAP_VAR VG         0              
 ICCAP_VAR VS         0              
 ICCAP_VAR VB         -0.9           

 #VD              ID              IB              IG             
  0               -1.3291e-009    1.0974e-008     -1.3803e-009   
  0.05            -2.0753e-009    1.1505e-008     -1.2628e-009   
  0.1             -1.1961e-009    -2.5982e-008    1.3931e-009    
  0.15            2.3231e-009     -8.59e-009      1.0608e-009    
  0.2             1.0171e-009     2.7339e-008     -1.4589e-009   
  0.25            -2.2465e-009    9.626e-009      -1.0173e-009   
  0.3             -2.1445e-009    -9.829e-009     -1.1708e-009   
  0.35            -1.8158e-009    -1.1747e-008    2.98e-010      
  0.4             -8.851e-010     -2.2759e-008    1.7977e-009    
  0.45            1.6983e-009     -8.701e-009     1.6019e-009    
  0.5             2.0198e-009     9.944e-009      -2.41e-011     
  0.55            2.112e-009      1.1162e-008     1.471e-010     
  0.6             2.2045e-009     1.11e-008       3.386e-010     
  0.65            2.2977e-009     1.0389e-008     5.256e-010     
  0.7             1.4309e-009     2.2187e-008     -1.3357e-009   
  0.75            7.7e-011        1.1513e-008     -1.2943e-009   
  0.8             2.383e-010      1.2449e-008     -2.6209e-009   
  0.85            -2.2522e-009    7.69e-010       -1.0246e-009   
  0.9             -1.722e-009     -1.1831e-008    1.5892e-009    
  0.95            2.3868e-009     -8.584e-009     8.466e-010     
  1               2.3651e-009     9.09e-009       9.844e-010     
  1.05            9.555e-010      2.641e-008      -1.502e-009    
  1.1             -1.3913e-009    8.465e-009      -1.8307e-009   
  1.15            -2.2091e-009    -1.1399e-008    -4.93e-010     
  1.2             -2.2586e-009    -1.0381e-008    -7.082e-010    
  1.25            -1.5647e-009    -1.6689e-008    1.2622e-009    
  1.3             -1.683e-010     -1.3433e-008    2.8608e-009    
  1.35            2.1084e-009     1.1172e-008     1.365e-010     
  1.4             2.2013e-009     1.1263e-008     3.266e-010     
  1.45            2.2902e-009     1.0525e-008     5.143e-010     
  1.5             1.423e-009      2.2659e-008     -1.3388e-009   
  1.55            7.67e-011       1.1475e-008     -1.2977e-009   
  1.6             2.306e-010      1.2487e-008     -2.6331e-009   
  1.65            -2.255e-009     8.91e-010       -1.0154e-009   
  1.7             -1.7176e-009    -1.1734e-008    1.5997e-009    
  1.75            2.3883e-009     -8.471e-009     8.363e-010     
  1.8             2.3768e-009     8.969e-009      9.832e-010     
END_DB

BEGIN_DB
 ICCAP_VAR VG         0.36           
 ICCAP_VAR VS         0              
 ICCAP_VAR VB         -0.9           

 #VD              ID              IB              IG             
  0               -1.3053e-009    -8.566e-009     -1.3744e-009   
  0.05            9.28e-011       1.1512e-008     -1.3451e-009   
  0.1             2.695e-010      1.13e-008       -1.3123e-009   
  0.15            4.499e-010      1.215e-008      -2.6393e-009   
  0.2             -1.6911e-009    7.3e-010        1.161e-010     
  0.25            -1.8003e-009    -1.1792e-008    -7.79e-011     
  0.3             -1.8618e-009    -1.2093e-008    -2.976e-010    
  0.35            -1.8958e-009    -1.169e-008     -5.27e-010     
  0.4             -9.038e-010     -1.0865e-008    1.3509e-009    
  0.45            1.5787e-009     -8.664e-009     2.118e-009     
  0.5             2.7583e-009     9.891e-009      7.68e-010      
  0.55            2.0545e-009     1.6122e-008     -1.7782e-009   
