! VERSION = 6.00
BEGIN_HEADER
 ICCAP_INPUTS
  VG         V  B GROUND SMU4 0.001 LIN        2    0          1.8        6    0.36      
  VS         V  E GROUND SMU3 0.1 CON        0
  VD         V  S GROUND SMU2 0.1 LIN        1    0          1.8        37   0.05      
  VB         V  C GROUND SMU1 0.1 LIN        3    0          -0.9       2    -0.9      
 ICCAP_OUTPUTS
  ID         I  S GROUND SMU2 B
  IB         I  C GROUND SMU1 B
  IG         I  B GROUND SMU4 B
END_HEADER

BEGIN_DB
 ICCAP_VAR VG         0              
 ICCAP_VAR VS         0              
 ICCAP_VAR VB         0              

 #VD              ID              IB              IG             
  0               2.6275e-009     4.518e-009      1.2309e-009    
  0.05            4.2279e-009     8.89e-009       6.871e-010     
  0.1             -4.0347e-009    -9.651e-009     -7.171e-010    
  0.15            1.7621e-009     -4.063e-009     2.2524e-009    
  0.2             1.4904e-009     1.851e-008      -1.5889e-009   
  0.25            -2.8296e-009    -1.5092e-008    1.9979e-009    
  0.3             1.1889e-009     1.6798e-008     -1.9257e-009   
  0.35            -1.2408e-009    -1.7171e-008    2.1651e-009    
  0.4             1.0544e-009     1.6469e-008     -2.0681e-009   
  0.45            -1.0943e-009    -1.6885e-008    2.3217e-009    
  0.5             9.264e-010      1.5482e-008     -2.2045e-009   
  0.55            -9.246e-010     -1.6217e-008    2.4408e-009    
  0.6             7.688e-010      1.4357e-008     -2.3059e-009   
  0.65            -3.491e-009     -8.471e-009     1.303e-010     
  0.7             -2.48e-011      -8.69e-009      2.7159e-009    
  0.75            2.9596e-009     1.4532e-008     -1.6873e-009   
  0.8             -2.748e-009     -1.6858e-008    2.1185e-009    
  0.85            1.102e-009      1.6608e-008     -2.0319e-009   
  0.9             -1.1287e-009    -1.703e-008     2.2801e-009    
  0.95            9.604e-010      1.5682e-008     -2.1658e-009   
  1               -9.667e-010     -1.6534e-008    2.4079e-009    
  1.05            3.7169e-009     8.328e-009      -6.69e-011     
  1.1             1.659e-010      1.0778e-008     -2.5519e-009   
  1.15            -2.9697e-009    -1.124e-008     1.6712e-009    
  1.2             2.8198e-009     1.7186e-008     -1.8399e-009   
  1.25            -1.2944e-009    -1.7025e-008    2.0695e-009    
  1.3             1.1515e-009     1.6618e-008     -1.9907e-009   
  1.35            -1.1611e-009    -1.7181e-008    2.2343e-009    
  1.4             1.0117e-009     1.608e-008      -2.1315e-009   
  1.45            -1.0033e-009    -1.6659e-008    2.378e-009     
  1.5             8.731e-010      1.5124e-008     -2.2552e-009   
  1.55            -8.306e-010     -1.5785e-008    2.485e-009     
  1.6             7.345e-010      1.3931e-008     -2.3558e-009   
  1.65            -6.636e-010     -1.4957e-008    2.5692e-009    
  1.7             5.855e-010      1.2894e-008     -2.4269e-009   
  1.75            -4.817e-010     -1.3846e-008    2.6354e-009    
  1.8             4.366e-010      1.1902e-008     -2.4912e-009   
END_DB

BEGIN_DB
 ICCAP_VAR VG         0.36           
 ICCAP_VAR VS         0              
 ICCAP_VAR VB         0              

 #VD              ID              IB              IG             
  0               4.22e-009       -1.6774e-008    2.712e-009     
  0.05            1.07086e-007    -8.537e-009     2.6655e-009    
  0.1             1.3417e-007     1.8776e-008     -1.4858e-009   
  0.15            1.5259e-007     4.589e-009      -2.5989e-009   
  0.2             1.7052e-007     1.6461e-008     -1.4947e-009   
  0.25            1.8599e-007     1.6208e-008     -1.6228e-009   
  0.3             2.0217e-007     1.5875e-008     -1.7697e-009   
  0.35            2.1946e-007     1.4961e-008     -1.9193e-009   
  0.4             2.3955e-007     1.3697e-008     -1.3586e-009   
  0.45            2.5835e-007     1.6621e-008     -1.4626e-009   
  0.5             2.7969e-007     1.6352e-008     -1.5864e-009   
  0.55            3.0248e-007     1.604e-008      -1.7292e-009   
  0.6             3.2646e-007     1.5398e-008     -1.8768e-009   
  0.65            3.5365e-007     1.3044e-008     -1.3393e-009   
  0.7             3.8142e-007     1.6857e-008     -1.4282e-009   
  0.75            4.1124e-007     1.6513e-008     -1.5452e-009   
  0.8             4.4445e-007     1.6271e-008     -1.6841e-009   
  0.85            4.7773e-007     1.5695e-008     -1.8364e-009   
  0.9             5.1439e-007     1.2549e-008     -1.3229e-009   
  0.95            5.5459e-007     1.7256e-008     -1.4037e-009   
  1               5.9664e-007     1.683e-008      -1.5124e-009   
  1.05            6.4155e-007     1.6523e-008     -1.6415e-009   
  1.1             6.8972e-007     1.5957e-008     -1.7863e-009   
  1.15            7.4131e-007     1.5028e-008     -1.9298e-009   
  1.2             7.9435e-007     1.4024e-008     -1.3702e-009   
  1.25            8.5607e-007     1.6679e-008     -1.4665e-009   
  1.3             9.1922e-007     1.6369e-008     -1.5889e-009   
  1.35            9.8633e-007     1.6142e-008     -1.7364e-009   
  1.4             1.05793e-006    1.529e-008      -1.8836e-009   
  1.45            1.12764e-006    1.3158e-008     -1.345e-009    
  1.5             1.2042e-006     -4.113e-009     -9.879e-010    
  1.55            1.2836e-006     -1.4954e-008    1.5007e-009    
  1.6             1.3735e-006     -1.7837e-008    1.9001e-009    
  1.65            1.4688e-006     -1.3996e-008    2.6759e-009    
  1.7             1.572e-006      -2.3005e-008    2.531e-009     
  1.75            1.6913e-006     -2.4814e-008    2.1783e-009    
  1.8             1.814e-006      -1.9993e-008    1.6624e-009    
END_DB

BEGIN_DB
 ICCAP_VAR VG         0.72           
 ICCAP_VAR VS         0              
 ICCAP_VAR VB         0              

 #VD              ID              IB              IG             
  0               4.7092e-008     -1.4122e-008    2.4449e-009    
  0.05            0.00018678      1.319e-008      1.516e-010     
  0.1             0.00029324      9.142e-009      7.752e-010     
  0.15            0.00035453      1.8177e-008     -1.5066e-009   
  0.2             0.0003902       1.6494e-008     -1.6339e-009   
  0.25            0.00041483      1.5911e-008     -1.7769e-009   
  0.3             0.00043556      1.5063e-008     -1.926e-009    
  0.35            0.00045355      1.3833e-008     -1.3666e-009   
  0.4             0.00047091      1.6838e-008     -1.4599e-009   
  0.45            0.00048706      1.6508e-008     -1.5743e-009   
  0.5             0.00050334      1.616e-008      -1.7115e-009   
  0.55            0.00051929      1.5578e-008     -1.8534e-009   
  0.6             0.00053529      1.2813e-008     -1.3284e-009   
  0.65            0.00055114      1.7023e-008     -1.409e-009    
  0.7             0.00056671      1.6575e-008     -1.5178e-009   
  0.75            0.00058264      1.6324e-008     -1.6452e-009   
  0.8             0.00059843      1.5894e-008     -1.7915e-009   
  0.85            0.0006143       1.5117e-008     -1.9339e-009   
  0.9             0.00063036      1.401e-008      -1.364e-009    
  0.95            0.00064614      1.6653e-008     -1.4597e-009   
  1               0.00066215      1.6415e-008     -1.5767e-009   
  1.05            0.00067803      1.5972e-008     -1.7165e-009   
  1.1             0.00069433      1.5335e-008     -1.8628e-009   
  1.15            0.00071042      1.2337e-008     -1.3301e-009   
  1.2             0.00072686      1.5869e-008     -1.4062e-009   
  1.25            0.00074272      1.4465e-008     -1.5237e-009   
  1.3             0.00075961      1.2392e-008     -1.6545e-009   
  1.35            0.00077588      8.037e-009      -1.7938e-009   
  1.4             0.00079206      8.61e-010       -1.9441e-009   
  1.45            0.00080943      -1.0827e-008    -1.3682e-009   
  1.5             0.00082478      -3.4649e-008    8.4e-012       
  1.55            0.00083676      -6.4183e-008    2.7036e-009    
  1.6             0.00085499      -1.1753e-007    7.29e-011      
  1.65            0.00087074      -1.5569e-007    2.7006e-009    
  1.7             0.00088466      -2.5413e-007    2.6114e-009    
  1.75            0.00090352      -3.5632e-007    2.15e-009      
  1.8             0.00092042      -4.773e-007     2.6817e-009    
END_DB

BEGIN_DB
 ICCAP_VAR VG         1.08           
 ICCAP_VAR VS         0              
 ICCAP_VAR VB         0              

 #VD              ID              IB              IG             
  0               7.0961e-008     -1.209e-008     -1.102e-010    
  0.05            0.00059476      4.608e-009      -2.0584e-009   
  0.1             0.00113559      1.5963e-008     -1.4383e-009   
  0.15            0.0016075       8.531e-009      2.6177e-009    
  0.2             0.0020072       -8.836e-009     2.6645e-009    
  0.25            0.0023269       -7.949e-009     2.6884e-009    
  0.3             0.00257         -7.363e-009     2.7003e-009    
  0.35            0.0027484       -7.018e-009     2.705e-009     
  0.4             0.0028769       -6.725e-009     2.7004e-009    
  0.45            0.0029717       -6.983e-009     2.6939e-009    
  0.5             0.0030447       -7.468e-009     2.6773e-009    
  0.55            0.0031048       -7.643e-009     2.6533e-009    
  0.6             0.0031556       -1.6701e-008    1.409e-009     
  0.65            0.0032021       -1.6238e-008    1.5418e-009    
  0.7             0.0032451       -1.6333e-008    1.703e-009     
  0.75            0.0032859       -1.6381e-008    1.8715e-009    
  0.8             0.0033248       -1.6096e-008    2.0357e-009    
  0.85            0.0033622       -1.1348e-008    2.6761e-009    
  0.9             0.0033958       -7.464e-009     2.6952e-009    
  0.95            0.0034331       -6.924e-009     2.6996e-009    
  1               0.0034684       -6.65e-009      2.7057e-009    
  1.05            0.0035032       -6.756e-009     2.7016e-009    
  1.1             0.0035375       -7.302e-009     2.684e-009     
  1.15            0.0035713       -7.766e-009     2.6661e-009    
  1.2             0.0036042       -7.753e-009     2.6354e-009    
  1.25            0.0036366       -1.694e-008     1.4813e-009    
  1.3             0.0036688       -1.7714e-008    1.632e-009     
  1.35            0.0037009       -1.1154e-008    1.297e-010     
  1.4             0.0037513       -1.428e-008     -1.5407e-009   
  1.45            0.0037717       -1.9363e-008    -2.0019e-009   
  1.5             0.0038046       -2.166e-008     -2.2692e-009   
  1.55            0.0038406       -1.8184e-008    -1.6842e-009   
  1.6             0.0038717       -5.9238e-008    -2.4457e-009   
  1.65            0.0038956       -1.0933e-007    -2.5181e-009   
  1.7             0.003933        -1.639e-007     -2.2149e-009   
  1.75            0.0039632       -2.7419e-007    -1.5851e-009   
  1.8             0.0039937       -4.3614e-007    -1.605e-010    
END_DB

BEGIN_DB
 ICCAP_VAR VG         1.44           
 ICCAP_VAR VS         0              
 ICCAP_VAR VB         0              

 #VD              ID              IB              IG             
  0               7.1499e-008     -1.4638e-008    4.26e-011      
  0.05            0.00074242      5.796e-009      -1.7994e-009   
  0.1             0.00146         8.796e-009      2.6206e-009    
  0.15            0.0021514       -9.082e-009     2.6648e-009    
  0.2             0.0028086       -8.202e-009     2.6904e-009    
  0.25            0.0034238       -7.213e-009     2.705e-009     
  0.3             0.0039903       -6.832e-009     2.7051e-009    
  0.35            0.0044994       -6.62e-009      2.7052e-009    
  0.4             0.0049479       -7.009e-009     2.6942e-009    
  0.45            0.0053317       -7.479e-009     2.6755e-009    
  0.5             0.0056497       -7.632e-009     2.6483e-009    
  0.55            0.0059052       -1.6661e-008    1.4153e-009    
  0.6             0.006109        -1.613e-008     1.537e-009     
  0.65            0.0062691       -1.616e-008     1.7038e-009    
  0.7             0.0063956       -1.6116e-008    1.875e-009     
  0.75            0.0064979       -1.5995e-008    2.0446e-009    
  0.8             0.0065822       -1.1345e-008    2.6819e-009    
  0.85            0.0066528       -7.484e-009     2.6992e-009    
  0.9             0.0067183       -7.234e-009     2.7065e-009    
  0.95            0.0067773       -6.789e-009     2.7045e-009    
  1               0.0068317       -6.768e-009     2.695e-009     
  1.05            0.0068838       -7.261e-009     2.6835e-009    
  1.1             0.0069332       -7.725e-009     2.6617e-009    
  1.15            0.0069811       -7.512e-009     2.6305e-009    
  1.2             0.0070258       -1.6466e-008    1.4745e-009    
  1.25            0.0070705       -1.6221e-008    1.6285e-009    
  1.3             0.0071138       -1.6411e-008    1.7891e-009    
  1.35            0.0071562       -1.6519e-008    1.9678e-009    
  1.4             0.0071971       -1.1406e-008    2.665e-009     
  1.45            0.007239        -2.461e-008     2.2673e-009    
  1.5             0.0072796       -1.8443e-008    1.5314e-009    
  1.55            0.0073172       -1.5767e-008    9.12e-011      
  1.6             0.0073655       -1.9186e-008    -2.5956e-009   
  1.65            0.0074079       -8.893e-009     -1.2935e-009   
  1.7             0.0074433       -4.0317e-008    1.104e-010     
  1.75            0.0074753       -8.0597e-008    2.7039e-009    
  1.8             0.0075136       -1.229e-007     6.714e-010     
END_DB

BEGIN_DB
 ICCAP_VAR VG         1.8            
 ICCAP_VAR VS         0              
 ICCAP_VAR VB         0              

 #VD              ID              IB              IG             
  0               6.982e-008      1.5816e-008     -5.013e-010    
  0.05            0.0008052       -7.646e-009     2.659e-009     
  0.1             0.001596        -6.76e-009      -2.5887e-009   
  0.15            0.0023747       5.612e-009      -2.5917e-009   
  0.2             0.0031363       4.952e-009      -2.5897e-009   
  0.25            0.0038766       1.6276e-008     -1.4121e-009   
  0.3             0.0045923       1.5945e-008     -1.5229e-009   
  0.35            0.0052771       1.5716e-008     -1.6547e-009   
  0.4             0.0059297       1.5226e-008     -1.7992e-009   
  0.45            0.0065434       1.4849e-008     -1.942e-009    
  0.5             0.0071139       1.3918e-008     -1.3643e-009   
  0.55            0.007634        1.6131e-008     -1.4595e-009   
  0.6             0.0081039       1.5847e-008     -1.5822e-009   
  0.65            0.0085202       1.5463e-008     -1.7165e-009   
  0.7             0.0088816       1.5093e-008     -1.8645e-009   
  0.75            0.00919         1.4542e-008     -2.0135e-009   
  0.8             0.0094472       1.4978e-008     -1.4038e-009   
  0.85            0.0096604       1.5895e-008     -1.5169e-009   
  0.9             0.0098352       1.5712e-008     -1.6412e-009   
  0.95            0.00998         1.5416e-008     -1.7901e-009   
  1               0.0101007       1.4801e-008     -1.9342e-009   
  1.05            0.0102024       1.3573e-008     -1.3619e-009   
  1.1             0.0102907       1.6141e-008     -1.4566e-009   
  1.15            0.010369        1.5874e-008     -1.5753e-009   
  1.2             0.0104393       1.5604e-008     -1.7112e-009   
  1.25            0.0105043       1.5094e-008     -1.8546e-009   
  1.3             0.0105652       1.4307e-008     -2e-009        
  1.35            0.0106225       1.4708e-008     -1.3997e-009   
  1.4             0.0106766       1.5962e-008     -1.503e-009    
  1.45            0.0107294       1.5611e-008     -1.6315e-009   
  1.5             0.0107808       1.4902e-008     -1.7725e-009   
  1.55            0.010829        1.3699e-008     -1.9181e-009   
  1.6             0.0108775       1.1992e-008     -2.0579e-009   
  1.65            0.0109232       9.269e-009      -2.1849e-009   
  1.7             0.0109685       4.346e-009      -2.2974e-009   
  1.75            0.0110059       -2.2403e-008    -2.3875e-009   
  1.8             0.0110531       -2.5211e-008    -1.6233e-009   
END_DB

BEGIN_DB
 ICCAP_VAR VG         0              
 ICCAP_VAR VS         0              
 ICCAP_VAR VB         -0.9           

 #VD              ID              IB              IG             
  0               6.989e-010      2.888e-009      -3.256e-010    
  0.05            -2.779e-010     7.767e-009      -2.5919e-009   
  0.1             -3.9725e-009    -8.636e-009     -8.093e-010    
  0.15            1.7669e-009     -5.363e-009     2.3443e-009    
  0.2             6.69e-011       1.0955e-008     -2.5575e-009   
  0.25            -2.9348e-009    -1.1174e-008    1.7218e-009    
  0.3             2.7242e-009     1.7759e-008     -1.8681e-009   
  0.35            -2.5992e-009    -1.9908e-008    2.3073e-009    
  0.4             9.327e-010      1.5279e-008     -2.1819e-009   
  0.45            -9.833e-010     -1.614e-008     2.4166e-009    
  0.5             8.406e-010      1.4792e-008     -2.283e-009    
  0.55            -8.648e-010     -1.5713e-008    2.5079e-009    
  0.6             7.198e-010      1.4087e-008     -2.3625e-009   
  0.65            -7.372e-010     -1.5314e-008    2.5823e-009    
  0.7             6.081e-010      1.3559e-008     -2.4305e-009   
  0.75            -5.958e-010     -1.4386e-008    2.6322e-009    
  0.8             4.92e-010       1.2716e-008     -2.4763e-009   
  0.85            -4.585e-010     -1.3503e-008    2.6679e-009    
  0.9             3.664e-010      1.2277e-008     -2.5117e-009   
  0.95            -3.241e-010     -1.2094e-008    2.6924e-009    
  1               2.463e-010      1.1882e-008     -2.5386e-009   
  1.05            -1.867e-010     -1.0531e-008    2.6991e-009    
  1.1             1.32e-010       1.1355e-008     -2.5541e-009   
  1.15            -2.9678e-009    -1.0493e-008    1.6462e-009    
  1.2             2.7725e-009     1.6485e-008     -1.8139e-009   
  1.25            -2.6425e-009    -1.9069e-008    2.2562e-009    
  1.3             9.88e-010       1.5371e-008     -2.137e-009    
  1.35            -1.0363e-009    -1.608e-008     2.3723e-009    
  1.4             8.803e-010      1.4865e-008     -2.2439e-009   
  1.45            -9.091e-010     -1.5912e-008    2.4699e-009    
  1.5             7.656e-010      1.4455e-008     -2.326e-009    
  1.55            -7.84e-010      -1.5608e-008    2.5488e-009    
  1.6             6.59e-010       1.3814e-008     -2.4097e-009   
  1.65            -6.544e-010     -1.4913e-008    2.6167e-009    
  1.7             5.454e-010      1.3262e-008     -2.4606e-009   
  1.75            -5.146e-010     -1.4244e-008    2.6553e-009    
  1.8             4.222e-010      1.2419e-008     -2.4992e-009   
END_DB

BEGIN_DB
 ICCAP_VAR VG         0.36           
 ICCAP_VAR VS         0              
 ICCAP_VAR VB         -0.9           

 #VD              ID              IB              IG             
  0               7.257e-010      -9.759e-009     -3.771e-010    
  0.05            5.0188e-009     7.12e-009       -2.595e-009    
  0.1             1.1676e-008     1.1336e-008     8.875e-010     
  0.15            1.0633e-008     1.4201e-008     1.9247e-009    
  0.2             1.1615e-008     4.631e-009      1.2785e-009    
  0.25            1.286e-008      -1.6012e-008    1.5472e-009    
  0.3             1.308e-008      -1.4304e-008    2.39e-009      
  0.35            1.5679e-008     -7.379e-009     2.6968e-009    
  0.4             1.7772e-008     -7.513e-009     2.6561e-009    
  0.45            1.8035e-008     -1.6017e-008    2.0304e-009    
  0.5             2.1522e-008     -1.0607e-008    2.6262e-009    
  0.55            2.4844e-008     -6.775e-009     2.6971e-009    
