! VERSION = 6.00
BEGIN_HEADER
 ICCAP_INPUTS
  VG         V  B GROUND SMU4 0.001 LIN        1    0          1.8        37   0.05      
  VS         V  E GROUND SMU2 0.1 CON        0
  VB         V  C GROUND SMU3 0.1 LIN        3    0          -1.8       3    -0.9      
  VD         V  S GROUND SMU1 0.1 LIN        2    0.1        1.8        2    1.7       
 ICCAP_OUTPUTS
  IG         I  B GROUND SMU4 B
  ID         I  S GROUND SMU1 B
  IB         I  C GROUND SMU3 B
END_HEADER

BEGIN_DB
 ICCAP_VAR VS         0              
 ICCAP_VAR VB         0              
 ICCAP_VAR VD         0.1            

 #VG              IG              ID              IB             
  0               1.4043e-009     1.527e-009      -1.2028e-008   
  0.05            1.0309e-009     2.3577e-009     -8.493e-009    
  0.1             1.1708e-009     2.2277e-009     1.0784e-008    
  0.15            -1.4112e-009    1.1494e-009     2.8571e-008    
  0.2             -1.1231e-009    -2.046e-009     1.0575e-008    
  0.25            1.4784e-009     -1.1477e-009    -1.1878e-008   
  0.3             1.3761e-009     3.0562e-009     -8.438e-009    
  0.35            2.8975e-009     1.2905e-008     2.679e-008     
  0.4             -1.7888e-009    5.7113e-008     2.2805e-008    
  0.45            1.0015e-009     2.2663e-007     -1.6502e-008   
  0.5             -1.63e-010      9.7466e-007     1.2122e-008    
  0.55            -2.7406e-009    3.3982e-006     -2.6804e-008   
  0.6             1.2652e-009     1.01773e-005    -2.3164e-008   
  0.65            -1.384e-010     2.4765e-005     -8.85e-009     
  0.7             -1.4121e-009    4.8738e-005     2.6619e-008    
  0.75            -1.3286e-009    8.1209e-005     1.0464e-008    
  0.8             -1.309e-009     0.00012047      6.834e-009     
  0.85            -2.417e-009     0.00016315      1.1941e-008    
  0.9             -1.7764e-009    0.00020701      1.839e-009     
  0.95            -1.4364e-009    0.00025163      4.728e-009     
  1               -1.348e-009     0.00029536      9.719e-009     
  1.05            -2.6238e-009    0.00033801      1.158e-008     
  1.1             -2.0466e-009    0.00037848      8.86e-010      
  1.15            -1.5299e-009    0.00041741      2.806e-009     
  1.2             -1.3817e-009    0.00045458      7.086e-009     
  1.25            -1.2948e-009    0.00048958      1.1613e-008    
  1.3             -2.3548e-009    0.00052271      1.2013e-008    
  1.35            -1.7199e-009    0.00055334      2.021e-009     
  1.4             -1.4231e-009    0.00058261      4.879e-009     
  1.45            -1.3395e-009    0.00061003      1.0064e-008    
  1.5             -2.5801e-009    0.00063575      1.1543e-008    
  1.55            -1.9834e-009    0.00065927      6.57e-010      
  1.6             -1.5043e-009    0.00068173      3.096e-009     
  1.65            -1.3761e-009    0.00070271      7.873e-009     
  1.7             -2.7164e-009    0.00072219      1.1877e-008    
  1.75            -1.3219e-009    0.00074036      -9.633e-009    
  1.8             1.2963e-009     0.00075673      -2.5935e-008   
END_DB

BEGIN_DB
 ICCAP_VAR VS         0              
 ICCAP_VAR VB         0              
 ICCAP_VAR VD         1.8            

 #VG              IG              ID              IB             
  0               -1.1e-010       1.882e-010      9.628e-009     
  0.05            -3.291e-010     -2.1367e-009    -1.1992e-008   
  0.1             -5.404e-010     -2.1749e-009    -1.1236e-008   
  0.15            -7.417e-010     -2.1532e-009    -1.0155e-008   
  0.2             1.2555e-009     -1.1739e-009    -1.5821e-008   
  0.25            2.8387e-009     2.5388e-009     -1.3887e-008   
  0.3             1.443e-010      9.6547e-009     1.1287e-008    
  0.35            -2.6018e-009    3.33e-008       -2.6894e-008   
  0.4             -2.68e-009      1.5262e-007     1.0397e-008    
  0.45            -2.2224e-009    6.6445e-007     -2.28e-010     
  0.5             -5.475e-010     2.5616e-006     -3.339e-009    
  0.55            -9.548e-010     8.669e-006      -1.777e-008    
  0.6             2.3832e-009     2.3645e-005     -2.9287e-008   
  0.65            2.6631e-009     5.3893e-005     -2.2911e-008   
  0.7             2.8814e-009     0.000103996     -4.6987e-008   
  0.75            1.2827e-009     0.00017401      -6.3531e-008   
  0.8             1.3895e-009     0.00026524      -1.03619e-007  
  0.85            -1.4465e-009    0.00037142      -1.0181e-007   
  0.9             -1.3532e-009    0.00049262      -1.1731e-007   
  0.95            -2.6491e-009    0.00062378      -1.2611e-007   
  1               -2.1109e-009    0.00076051      -1.4464e-007   
  1.05            -1.5641e-009    0.000905        -1.473e-007    
  1.1             -1.3856e-009    0.00105407      -1.4488e-007   
  1.15            1.2763e-009     0.0012032       -1.2278e-007   
  1.2             2.7277e-009     0.0013565       -1.6154e-007   
  1.25            2.0662e-009     0.001514        -1.4715e-007   
  1.3             1.5016e-009     0.0016716       -1.4725e-007   
  1.35            1.3114e-009     0.0018296       -1.4316e-007   
  1.4             2.8668e-009     0.0019867       -1.3842e-007   
  1.45            2.399e-009      0.0021472       -1.2287e-007   
  1.5             1.7111e-009     0.0023051       -1.1927e-007   
  1.55            1.3678e-009     0.0024629       -1.1718e-007   
  1.6             1.2659e-009     0.0026198       -1.1038e-007   
  1.65            2.6616e-009     0.0027766       -1.082e-007    
  1.7             -1.6711e-009    0.0029371       -7.1111e-008   
  1.75            -8.734e-010     0.0030907       -9.7843e-008   
  1.8             -1.2808e-009    0.0032483       -5.3986e-008   
END_DB

BEGIN_DB
 ICCAP_VAR VS         0              
 ICCAP_VAR VB         -0.9           
 ICCAP_VAR VD         0.1            

 #VG              IG              ID              IB             
  0               1.3025e-009     1.2589e-009     -1.1126e-008   
  0.05            1.2697e-009     5.84e-011       -1.0369e-008   
  0.1             2.8751e-009     -1.046e-010     -1.2924e-008   
  0.15            -1.3277e-009    1.4517e-009     2.1244e-008    
  0.2             -2.6986e-009    1.047e-010      1.1584e-008    
  0.25            -1.1011e-009    -2.1847e-009    -9.741e-009    
  0.3             1.4949e-009     -1.718e-009     -1.1691e-008   
  0.35            1.8361e-009     1.5325e-009     -8.292e-009    
  0.4             4.897e-010      2.9319e-009     1.0648e-008    
  0.45            -1.339e-009     4.8764e-009     2.3205e-008    
  0.5             2.8684e-009     1.7883e-008     1.1169e-008    
  0.55            3.691e-010      8.5215e-008     1.1288e-008    
  0.6             2.8867e-009     3.808e-007      -1.1838e-008   
  0.65            1.7809e-009     1.5645e-006     1.126e-008     
  0.7             6.954e-010      5.661e-006      1.1045e-008    
  0.75            -2.7244e-009    1.5849e-005     1.0136e-008    
  0.8             -4.19e-011      3.4969e-005     -1.1703e-008   
  0.85            -5.78e-010      6.4101e-005     -1.2004e-008   
  0.9             -9.706e-010     0.000101449     -1.0159e-008   
  0.95            -1.8217e-009    0.00014349      -1.2742e-008   
  1               -7.866e-010     0.00018691      -1.1461e-008   
  1.05            1.634e-009      0.00023097      -1.4907e-008   
  1.1             1.3381e-009     0.00027512      -8.421e-009    
  1.15            2.8905e-009     0.00031736      -8.851e-009    
  1.2             -1.8004e-009    0.00035974      2.3458e-008    
  1.25            -1.4323e-009    0.0003985       4.381e-009     
  1.3             -1.343e-009     0.00043542      9.506e-009     
  1.35            -2.6236e-009    0.00047028      1.1485e-008    
  1.4             -2.0651e-009    0.0005025       6.53e-010      
  1.45            -1.5378e-009    0.00053308      2.893e-009     
  1.5             -1.3762e-009    0.00056189      7.327e-009     
  1.55            -1.2935e-009    0.00058863      1.1316e-008    
  1.6             -2.3605e-009    0.00061382      1.2161e-008    
  1.65            -1.7275e-009    0.00063689      2e-009         
  1.7             -1.4166e-009    0.00065858      5.032e-009     
  1.75            -1.3335e-009    0.00067897      9.893e-009     
  1.8             -2.5878e-009    0.00069785      1.1409e-008    
END_DB

BEGIN_DB
 ICCAP_VAR VS         0              
 ICCAP_VAR VB         -0.9           
 ICCAP_VAR VD         1.8            

 #VG              IG              ID              IB             
  0               4.77e-011       2.78e-010       1.0249e-008    
  0.05            -1.643e-010     -2.0874e-009    -1.2023e-008   
  0.1             -3.806e-010     -2.1486e-009    -1.1768e-008   
  0.15            -5.853e-010     -2.2014e-009    -1.1343e-008   
  0.2             -7.773e-010     -2.2357e-009    -1.0395e-008   
  0.25            1.2435e-009     -1.5347e-009    -1.4962e-008   
  0.3             2.8082e-009     -4.62e-011      -1.3941e-008   
  0.35            2e-010          3.0447e-009     1.1312e-008    
  0.4             3.88e-010       6.8631e-009     1.1049e-008    
  0.45            1.2554e-009     2.4512e-008     1.1222e-008    
  0.5             -1.4031e-009    1.162e-007      1.043e-008     
  0.55            -1.3218e-009    5.4532e-007     9.898e-009     
  0.6             2.1265e-009     2.1844e-006     9.412e-009     
  0.65            9.96e-010       7.6763e-006     2.884e-009     
  0.7             2.7102e-009     2.2221e-005     -2.2207e-008   
  0.75            2.0672e-009     5.244e-005      -3.0486e-008   
  0.8             1.4996e-009     0.000103059     -5.3446e-008   
  0.85            1.5372e-009     0.00017525      -6.7582e-008   
  0.9             1.5322e-009     0.00026808      -9.4052e-008   
  0.95            -1.2651e-009    0.00037709      -9.06e-008     
  1               1.3096e-009     0.00049743      -1.3981e-007   
  1.05            2.8495e-009     0.00062814      -1.3239e-007   
  1.1             2.3583e-009     0.00076913      -1.2927e-007   
  1.15            1.682e-009      0.00091393      -1.3649e-007   
  1.2             1.3541e-009     0.00106349      -1.4211e-007   
  1.25            -1.5932e-009    0.0012201       -1.5454e-007   
  1.3             -1.3858e-009    0.0013747       -1.237e-007    
  1.35            -1.3036e-009    0.0015317       -1.1543e-007   
  1.4             1.4099e-009     0.0016836       -1.4722e-007   
  1.45            1.2811e-009     0.0018423       -1.2551e-007   
  1.5             2.7647e-009     0.0019984       -1.2325e-007   
  1.55            2.1415e-009     0.0021583       -1.0698e-007   
  1.6             1.5372e-009     0.0023151       -1.0591e-007   
  1.65            1.3192e-009     0.0024718       -1.0199e-007   
  1.7             2.8753e-009     0.0026271       -9.729e-008    
  1.75            -2.0442e-009    0.0027883       -6.8276e-008   
  1.8             -1.5156e-009    0.0029424       -7.325e-008    
END_DB

BEGIN_DB
 ICCAP_VAR VS         0              
 ICCAP_VAR VB         -1.8           
 ICCAP_VAR VD         0.1            

 #VG              IG              ID              IB             
  0               1.2997e-009     1.2835e-009     -1.1394e-008   
  0.05            2.8762e-009     7.1e-011        -1.0084e-008   
  0.1             1.6875e-009     1.5978e-009     -2.85e-010     
  0.15            3.21e-010       2.193e-009      1.1248e-008    
  0.2             5.163e-010      2.2827e-009     1.0796e-008    
  0.25            7.053e-010      2.3509e-009     9.916e-009     
  0.3             -1.8646e-009    1.5727e-009     1.8022e-008    
  0.35            -1.5452e-009    -1.7371e-009    4.38e-009      
  0.4             -6.52e-011      -1.9931e-009    -1.1725e-008   
  0.45            -2.955e-010     -1.8317e-009    -1.1928e-008   
  0.5             1.6735e-009     2.0658e-009     -1.1473e-008   
  0.55            1.4806e-009     8.239e-009      -8.529e-009    
  0.6             -2.1576e-009    4.1369e-008     -9.544e-009    
  0.65            8.24e-010       1.9541e-007     -1.4758e-008   
  0.7             -1.472e-009     9.0394e-007     1.4735e-008    
  0.75            -2.6054e-009    3.4214e-006     -2.1688e-008   
  0.8             -7.783e-010     1.06482e-005    -1.157e-008    
  0.85            2.8195e-009     2.6005e-005     -1.0974e-008   
  0.9             2.0071e-009     5.1153e-005     1.024e-008     
  0.95            -1.3756e-009    8.6266e-005     2.6965e-008    
  1               -1.4678e-009    0.00012648      1.1266e-008    
  1.05            -1.3478e-009    0.00017004      9.194e-009     
  1.1             -2.6401e-009    0.00021484      1.1423e-008    
  1.15            -2.1443e-009    0.00025836      6.38e-010      
  1.2             -1.5825e-009    0.00030138      2.568e-009     
  1.25            -1.376e-009     0.0003426       7.093e-009     
  1.3             -2.7073e-009    0.00038178      1.1249e-008    
  1.35            1.9857e-009     0.00041788      -2.0804e-008   
  1.4             1.4405e-009     0.0004527       -8.071e-009    
  1.45            1.2864e-009     0.00048533      -8.388e-009    
  1.5             2.7968e-009     0.00051587      -1.1066e-008   
  1.55            4.941e-010      0.00054526      1.1223e-008    
  1.6             8.944e-010      0.0005716       1.012e-008     
  1.65            -1.4315e-009    0.00059662      1.341e-008     
  1.7             -1.3354e-009    0.00062021      9.667e-009     
  1.75            -2.5862e-009    0.00064195      1.1343e-008    
  1.8             -2.0374e-009    0.00066176      6.12e-010      
END_DB

BEGIN_DB
 ICCAP_VAR VS         0              
 ICCAP_VAR VB         -1.8           
 ICCAP_VAR VD         1.8            

 #VG              IG              ID              IB             
  0               2.46e-011       2.605e-010      1.0779e-008    
  0.05            -2.065e-010     -2.1053e-009    -1.1924e-008   
  0.1             -4.387e-010     -2.168e-009     -1.1735e-008   
  0.15            -6.551e-010     -2.2186e-009    -1.108e-008    
  0.2             -8.258e-010     -2.2421e-009    -1.0195e-008   
  0.25            -9.678e-010     -2.2272e-009    -9.259e-009    
  0.3             1.6583e-009     -1.6408e-009    -1.2095e-008   
  0.35            1.6987e-009     1.7178e-009     -8.649e-009    
  0.4             3.39e-010       2.9435e-009     1.1225e-008    
  0.45            5.358e-010      6.1339e-009     1.044e-008     
  0.5             2.8525e-009     2.083e-008      1.1126e-008    
  0.55            3.895e-010      1.02762e-007    1.1e-008       
  0.6             2.8658e-009     4.7132e-007     -1.245e-008    
  0.65            1.4513e-009     1.9426e-006     6.437e-009     
  0.7             -1.715e-009     7.4351e-006     1.1806e-008    
  0.75            2.4287e-009     2.1232e-005     -2.5699e-008   
  0.8             1.7495e-009     5.0636e-005     -3.1051e-008   
  0.85            1.359e-009      0.000100493     -5.2797e-008   
  0.9             1.3254e-009     0.0001722       -6.8271e-008   
  0.95            2.8715e-009     0.00026321      -8.8637e-008   
  1               -1.02e-009      0.00037376      -9.59e-008     
  1.05            9.11e-011       0.00049368      -1.189e-007    
  1.1             -4.262e-010     0.00062644      -1.2816e-007   
  1.15            -8.722e-010     0.00076715      -1.3342e-007   
  1.2             -1.2379e-009    0.00091472      -1.3495e-007   
  1.25            -1.6467e-009    0.00106424      -1.3824e-007   
  1.3             1.0323e-009     0.0012138       -1.4041e-007   
  1.35            1.3103e-009     0.0013661       -1.4954e-007   
  1.4             2.8521e-009     0.0015203       -1.2938e-007   
  1.45            2.4302e-009     0.0016786       -1.1642e-007   
  1.5             1.7495e-009     0.001835        -1.1455e-007   
  1.55            1.3634e-009     0.001992        -1.1427e-007   
  1.6             1.2595e-009     0.0021477       -1.0843e-007   
  1.65            2.6542e-009     0.0023045       -1.0723e-007   
  1.7             -1.6813e-009    0.0024655       -6.9893e-008   
  1.75            -8.521e-010     0.0026188       -9.9407e-008   
  1.8             -1.7524e-009    0.0027759       -5.5243e-008   
END_DB

