! VERSION = 6.00
BEGIN_HEADER
 ICCAP_INPUTS
  VG         V  B GROUND SMU4 0.001 LIN        1    0          1.8        37   0.05      
  VS         V  E GROUND SMU2 0.1 CON        0
  VB         V  C GROUND SMU3 0.1 LIN        3    0          -1.8       3    -0.9      
  VD         V  S GROUND SMU1 0.1 LIN        2    0.1        1.8        2    1.7       
 ICCAP_OUTPUTS
  IG         I  B GROUND SMU4 B
  ID         I  S GROUND SMU1 B
  IB         I  C GROUND SMU3 B
END_HEADER

BEGIN_DB
 ICCAP_VAR VS         0              
 ICCAP_VAR VB         0              
 ICCAP_VAR VD         0.1            

 #VG              IG              ID              IB             
  0               1.0426e-009     9.643e-010      1.7342e-008    
  0.05            1.5568e-009     -1.0161e-009    -2.533e-008    
  0.1             8.806e-010      2.4077e-009     -8.673e-009    
  0.15            1.0232e-009     2.383e-009      9.032e-009     
  0.2             -1.4853e-009    1.953e-009      1.1619e-008    
  0.25            -1.4123e-009    1.261e-010      8.885e-009     
  0.3             -1.3721e-009    1.9653e-009     1.0533e-008    
  0.35            -1.3425e-009    9.336e-009      1.1292e-008    
  0.4             2.9062e-009     3.4721e-008     1.1114e-008    
  0.45            -1.8283e-009    1.06501e-007    2.3871e-008    
  0.5             1.026e-009      2.5357e-007     -1.7283e-008   
  0.55            -1.3934e-009    5.1689e-007     2.685e-008     
  0.6             -1.3132e-009    8.708e-007      1.0983e-008    
  0.65            -2.7516e-009    1.2909e-006     -2.6375e-008   
  0.7             1.2715e-009     1.7571e-006     -2.3822e-008   
  0.75            2.6938e-009     2.2468e-006     -1.2949e-008   
  0.8             2.4857e-009     2.7557e-006     8.099e-009     
  0.85            1.4733e-009     3.2509e-006     9.942e-009     
  0.9             1.917e-009      3.7572e-006     1.1029e-008    
  0.95            8.079e-010      4.256e-006      1.0874e-008    
  1               -1.4945e-009    4.7467e-006     1.5283e-008    
  1.05            -1.3638e-009    5.2266e-006     8.748e-009     
  1.1             -2.6808e-009    5.696e-006      1.1294e-008    
  1.15            -2.2022e-009    6.143e-006      6.95e-010      
  1.2             -1.6099e-009    6.5874e-006     2.399e-009     
  1.25            -1.3913e-009    7.0187e-006     6.722e-009     
  1.3             -1.3114e-009    7.4326e-006     1.1022e-008    
  1.35            -2.4296e-009    7.8356e-006     1.2038e-008    
  1.4             -1.7896e-009    8.2168e-006     1.903e-009     
  1.45            -1.4299e-009    8.59e-006       4.975e-009     
  1.5             -1.3403e-009    8.948e-006      9.807e-009     
  1.55            -2.5926e-009    9.2913e-006     1.1239e-008    
  1.6             -2.0086e-009    9.6102e-006     6.76e-010      
  1.65            -1.5108e-009    9.9225e-006     3.473e-009     
  1.7             -1.3661e-009    1.02201e-005    8.353e-009     
  1.75            -2.6966e-009    1.05059e-005    1.1447e-008    
  1.8             -2.2499e-009    1.0767e-005     7.55e-010      
END_DB

BEGIN_DB
 ICCAP_VAR VS         0              
 ICCAP_VAR VB         0              
 ICCAP_VAR VD         1.8            

 #VG              IG              ID              IB             
  0               5.577e-010      6.729e-010      2.3607e-008    
  0.05            2.344e-009      -6.597e-010     -1.7982e-008   
  0.1             1.2867e-009     2.1257e-009     -4.804e-009    
  0.15            -2.3235e-009    5.017e-010      1.4941e-008    
  0.2             -5.634e-010     -2.1334e-009    -1.1438e-008   
  0.25            1.3372e-009     -7.3e-010       -1.0456e-008   
  0.3             1.297e-009      2.7366e-009     -8.878e-009    
  0.35            2.6929e-009     1.2356e-008     2.818e-008     
  0.4             6.135e-010      4.5567e-008     1.1271e-008    
  0.45            -2.7079e-009    1.3534e-007     1.1031e-008    
  0.5             -2.2883e-009    3.4667e-007     5.18e-010      
  0.55            -1.6708e-009    7.3248e-007     1.789e-009     
  0.6             2.687e-009      1.3173e-006     2.0662e-008    
  0.65            6.186e-010      2.136e-006      1.0719e-008    
  0.7             -1.6438e-009    3.1751e-006     1.935e-008     
  0.75            -1.3954e-009    4.4183e-006     5.658e-009     
  0.8             -1.3265e-009    5.8855e-006     1.0302e-008    
  0.85            -2.4588e-009    7.5677e-006     1.1049e-008    
  0.9             -1.8259e-009    9.4239e-006     6.53e-010      
  0.95            2.0771e-009     1.1465e-005     -1.3571e-008   
  1               9.315e-010      1.3737e-005     9.857e-009     
  1.05            -2.405e-010     1.623e-005      1.2125e-008    
  1.1             -1.4451e-009    1.8869e-005     2.3945e-008    
  1.15            -1.3506e-009    2.165e-005      9.408e-009     
  1.2             -2.6138e-009    2.4616e-005     1.1166e-008    
  1.25            -2.0373e-009    2.768e-005      5.55e-010      
  1.3             -1.5212e-009    3.0914e-005     3.067e-009     
  1.35            -1.375e-009     3.4274e-005     7.922e-009     
  1.4             -2.7117e-009    3.777e-005      1.137e-008     
  1.45            -2.2731e-009    4.1301e-005     6.94e-010      
  1.5             -1.6536e-009    4.4992e-005     2.147e-009     
  1.55            -1.4005e-009    4.8768e-005     6.016e-009     
  1.6             -1.329e-009     5.2627e-005     1.0871e-008    
  1.65            -2.4829e-009    5.6563e-005     1.159e-008     
  1.7             -1.854e-009     6.0505e-005     1.39e-009      
  1.75            -1.4452e-009    6.4547e-005     4.419e-009     
  1.8             -1.3519e-009    6.8649e-005     9.542e-009     
END_DB

BEGIN_DB
 ICCAP_VAR VS         0              
 ICCAP_VAR VB         -0.9           
 ICCAP_VAR VD         0.1            

 #VG              IG              ID              IB             
  0               1.042e-009      9.235e-010      1.9422e-008    
  0.05            1.4134e-009     -1.1495e-009    -2.6512e-008   
  0.1             1.0138e-009     2.3683e-009     -8.548e-009    
  0.15            -1.4872e-009    9.808e-010      2.6841e-008    
  0.2             -1.8629e-009    -1.3666e-009    8.739e-009     
  0.25            -5.451e-010     -2.2336e-009    -1.1381e-008   
  0.3             -7.59e-010      -2.2333e-009    -1.0467e-008   
  0.35            1.2555e-009     -1.3462e-009    -1.5772e-008   
  0.4             2.8243e-009     2.1523e-009     -1.4023e-008   
  0.45            1.149e-009      8.3414e-009     9.648e-009     
  0.5             -2.744e-009     2.3146e-008     -2.3425e-008   
  0.55            1.2619e-009     7.5732e-008     -2.2531e-008   
  0.6             -1.9622e-009    1.9379e-007     2.5757e-008    
  0.65            -9.658e-010     4.0539e-007     -1.0432e-008   
  0.7             2.915e-010      7.0273e-007     -1.2072e-008   
  0.75            -1.267e-010     1.08377e-006    -1.1571e-008   
  0.8             1.4683e-009     1.514e-006      1.0174e-008    
  0.85            1.2976e-009     1.9815e-006     -8.585e-009    
  0.9             2.8316e-009     2.458e-006      -1.059e-008    
  0.95            4.734e-010      2.9588e-006     1.1185e-008    
  1               -1.2963e-009    3.4465e-006     2.3821e-008    
  1.05            -2.3006e-009    3.9288e-006     1.2609e-008    
  1.1             -1.675e-009     4.3976e-006     2.16e-009      
  1.15            -1.4031e-009    4.862e-006      6.046e-009     
  1.2             -1.3271e-009    5.316e-006      1.0653e-008    
  1.25            -2.5016e-009    5.7615e-006     1.1433e-008    
  1.3             -1.8812e-009    6.1841e-006     1.16e-009      
  1.35            -1.4598e-009    6.6004e-006     4.279e-009     
  1.4             -1.3557e-009    7.0017e-006     9.346e-009     
  1.45            -2.6423e-009    7.3898e-006     1.1213e-008    
  1.5             -2.1123e-009    7.7563e-006     6.81e-010      
  1.55            -1.5625e-009    8.1128e-006     2.943e-009     
  1.6             -1.3802e-009    8.4562e-006     7.659e-009     
  1.65            -2.7259e-009    8.784e-006      1.1299e-008    
  1.7             -3.113e-010     9.0867e-006     -1.169e-008    
  1.75            -8.12e-010      9.3859e-006     -1.1541e-008   
  1.8             1.5931e-009     9.6626e-006     -1.4467e-008   
END_DB

BEGIN_DB
 ICCAP_VAR VS         0              
 ICCAP_VAR VB         -0.9           
 ICCAP_VAR VD         1.8            

 #VG              IG              ID              IB             
  0               8.264e-010      8.635e-010      -1.1843e-008   
  0.05            1.2739e-009     -1.5499e-009    -1.6933e-008   
  0.1             2.8887e-009     -1.46e-010      -1.3075e-008   
  0.15            1.16e-010       2.0958e-009     1.1233e-008    
  0.2             3.088e-010      2.1961e-009     1.1223e-008    
  0.25            5.053e-010      2.2959e-009     1.075e-008     
  0.3             6.903e-010      2.4211e-009     1.0038e-008    
  0.35            8.546e-010      2.7134e-009     9.189e-009     
  0.4             1e-009          4.0216e-009     9.029e-009     
  0.45            -1.4919e-009    9.9528e-009     1.1751e-008    
  0.5             1.6043e-009     3.1634e-008     1.1063e-008    
  0.55            1.3321e-009     1.01962e-007    -8.666e-009    
  0.6             -1.2407e-009    2.6772e-007     1.8361e-008    
  0.65            -1.6559e-009    5.8103e-007     -1.1999e-008   
  0.7             -5.189e-010     1.0728e-006     -1.2189e-008   
  0.75            2.396e-009      1.7887e-006     1.4423e-008    
  0.8             -1.7896e-009    2.7429e-006     2.2982e-008    
  0.85            -1.429e-009     3.8973e-006     4.628e-009     
  0.9             -1.3501e-009    5.2876e-006     9.685e-009     
  0.95            -2.5998e-009    6.8995e-006     1.1021e-008    
  1               -2.0022e-009    8.698e-006      3.06e-010      
  1.05            -1.4974e-009    1.07254e-005    3.044e-009     
  1.1             2.2968e-009     1.2925e-005     -1.1728e-008   
  1.15            -1.3292e-009    1.5382e-005     2.6596e-008    
  1.2             -2.4955e-009    1.7978e-005     1.153e-008     
  1.25            -1.8453e-009    2.0708e-005     1.459e-009     
  1.3             -1.4442e-009    2.3625e-005     4.211e-009     
  1.35            -1.3565e-009    2.6693e-005     9.445e-009     
  1.4             -2.6409e-009    2.9912e-005     1.1302e-008    
  1.45            -2.0822e-009    3.3196e-005     7.86e-010      
  1.5             -1.5347e-009    3.6651e-005     3.029e-009     
  1.55            -1.3808e-009    4.021e-005      7.586e-009     
  1.6             -2.7274e-009    4.3864e-005     1.1456e-008    
  1.65            -1.3207e-009    4.7617e-005     -9.511e-009    
  1.7             1.3e-009        5.1299e-005     -2.6383e-008   
  1.75            2.8284e-009     5.5144e-005     -1.1169e-008   
  1.8             1.4107e-009     5.9056e-005     1.0664e-008    
END_DB

BEGIN_DB
 ICCAP_VAR VS         0              
 ICCAP_VAR VB         -1.8           
 ICCAP_VAR VD         0.1            

 #VG              IG              ID              IB             
  0               1.637e-010      3.678e-010      8.95e-009      
  0.05            -6.4e-012       -2.0615e-009    -1.1619e-008   
  0.1             -2.331e-010     -2.1553e-009    -1.1786e-008   
  0.15            -4.734e-010     -2.216e-009     -1.1639e-008   
  0.2             -6.943e-010     -2.2635e-009    -1.113e-008    
  0.25            -8.594e-010     -2.279e-009     -1.0272e-008   
  0.3             1.862e-009      -1.64e-009      -1.3439e-008   
  0.35            1.5819e-009     1.7786e-009     -8.66e-009     
  0.4             1.7624e-009     1.5977e-009     1.0643e-008    
  0.45            3.954e-010      2.7849e-009     1.1188e-008    
  0.5             6.049e-010      5.1578e-009     1.0548e-008    
  0.55            -2.0147e-009    1.1699e-008     -1.9352e-008   
  0.6             -1.5027e-009    4.4729e-008     3.457e-009     
  0.65            1.521e-009      1.2552e-007     -2.5322e-008   
  0.7             1.966e-009      2.7842e-007     1.0769e-008    
  0.75            8.507e-010      5.2037e-007     1.0616e-008    
  0.8             1.2077e-009     8.3968e-007     8.906e-009     
  0.85            -1.3424e-009    1.242e-006      -1.1531e-008   
  0.9             -2.5841e-009    1.6794e-006     1.1215e-008    
  0.95            -1.983e-009     2.1352e-006     1.04e-009      
  1               -1.4893e-009    2.6088e-006     3.78e-009      
  1.05            -1.3657e-009    3.0859e-006     8.606e-009     
  1.1             -2.6885e-009    3.5627e-006     1.1626e-008    
  1.15            -2.2096e-009    4.025e-006      7.53e-010      
  1.2             -1.606e-009     4.4852e-006     2.554e-009     
  1.25            -1.3878e-009    4.9362e-006     6.469e-009     
  1.3             -1.3142e-009    5.3746e-006     1.0961e-008    
  1.35            -2.4301e-009    5.8e-006        1.2098e-008    
  1.4             -1.779e-009     6.206e-006      1.55e-009      
  1.45            -1.4259e-009    6.6024e-006     4.894e-009     
  1.5             -1.3461e-009    6.9864e-006     9.794e-009     
  1.55            -2.5937e-009    7.3555e-006     1.1269e-008    
  1.6             -1.9855e-009    7.7026e-006     1.047e-009     
  1.65            -1.4899e-009    8.0402e-006     3.577e-009     
  1.7             -1.3712e-009    8.3625e-006     8.543e-009     
  1.75            -2.7019e-009    8.6725e-006     1.165e-008     
  1.8             -2.2069e-009    8.9583e-006     7.05e-010      
END_DB

BEGIN_DB
 ICCAP_VAR VS         0              
 ICCAP_VAR VB         -1.8           
 ICCAP_VAR VD         1.8            

 #VG              IG              ID              IB             
  0               2.4465e-009     2.3994e-009     -1.4993e-008   
  0.05            1.2295e-009     2.1916e-009     -4.085e-009    
  0.1             -1.3953e-009    1.1785e-009     2.8008e-008    
  0.15            -1.2157e-009    -2.1433e-009    1.1091e-008    
  0.2             2.612e-010      -1.8506e-009    -1.1552e-008   
  0.25            1.7156e-009     -9.271e-010     -2.3573e-008   
  0.3             1.6898e-009     1.6213e-009     -8.926e-009    
  0.35            3.189e-010      2.2304e-009     1.1286e-008    
  0.4             5.287e-010      2.4233e-009     1.08e-008      
  0.45            7.207e-010      3.0579e-009     1.0046e-008    
  0.5             -1.2956e-009    5.3197e-009     1.738e-008     
  0.55            1.2781e-009     1.7143e-008     1.107e-008     
  0.6             2.727e-009      5.9035e-008     -1.2435e-008   
  0.65            -3.54e-011      1.6407e-007     9.536e-009     
  0.7             -5.772e-010     3.8412e-007     -1.1958e-008   
  0.75            -9.957e-010     7.6757e-007     -1.0567e-008   
  0.8             1.2781e-009     1.3309e-006     1.0488e-008    
  0.85            2.7181e-009     2.1142e-006     -1.3222e-008   
  0.9             6.329e-010      3.1488e-006     1.0853e-008    
  0.95            -1.6368e-009    4.4025e-006     1.9393e-008    
  1               -1.3907e-009    5.8716e-006     6.192e-009     
  1.05            -1.3153e-009    7.571e-006      1.0707e-008    
  1.1             -2.437e-009     9.4814e-006     1.1869e-008    
  1.15            -1.289e-010     1.1577e-005     -9.003e-009    
  1.2             -1.4035e-009    1.3901e-005     2.6394e-008    
  1.25            -1.3239e-009    1.6384e-005     1.0524e-008    
  1.3             -2.4856e-009    1.9057e-005     1.1761e-008    
  1.35            -1.8141e-009    2.1863e-005     1.446e-009     
  1.4             -1.4365e-009    2.485e-005      4.551e-009     
  1.45            -1.3492e-009    2.7972e-005     9.746e-009     
  1.5             -2.614e-009     3.1233e-005     1.1449e-008    
  1.55            -2.0087e-009    3.457e-005      8.54e-010      
  1.6             -1.5062e-009    3.8055e-005     3.341e-009     
  1.65            -1.3735e-009    4.1644e-005     8.132e-009     
  1.7             -2.7039e-009    4.5321e-005     1.1803e-008    
  1.75            -2.2055e-009    4.9033e-005     8.58e-010      
  1.8             -1.6031e-009    5.2859e-005     2.342e-009     
END_DB

