! VERSION = 6.00
BEGIN_HEADER
 ICCAP_INPUTS
  VG         V  B GROUND SMU4 0.001 LIN        2    0          1.8        6    0.36      
  VS         V  E GROUND SMU3 0.1 CON        0
  VD         V  S GROUND SMU2 0.1 LIN        1    0          1.8        37   0.05      
  VB         V  C GROUND SMU1 0.1 LIN        3    0          -0.9       2    -0.9      
 ICCAP_OUTPUTS
  ID         I  S GROUND SMU2 B
  IB         I  C GROUND SMU1 B
  IG         I  B GROUND SMU4 B
END_HEADER

BEGIN_DB
 ICCAP_VAR VG         0              
 ICCAP_VAR VS         0              
 ICCAP_VAR VB         0              

 #VD              ID              IB              IG             
  0               6.348e-010      -9.939e-009     -4.639e-010    
  0.05            -5.107e-010     6.768e-009      -2.5906e-009   
  0.1             -8.998e-010     -1.5731e-008    2.5015e-009    
  0.15            7.205e-010      1.3939e-008     -2.3603e-009   
  0.2             -3.4103e-009    -8.163e-009     1.59e-010      
  0.25            3.12e-011       -8.101e-009     2.7136e-009    
  0.3             2.8408e-009     1.6414e-008     -1.7915e-009   
  0.35            -2.692e-009     -1.8637e-008    2.2491e-009    
  0.4             1.0045e-009     1.5629e-008     -2.1436e-009   
  0.45            -1.0465e-009    -1.6255e-008    2.4038e-009    
  0.5             8.429e-010      1.4675e-008     -2.2816e-009   
  0.55            -8.626e-010     -1.5408e-008    2.519e-009     
  0.6             6.836e-010      1.3748e-008     -2.3866e-009   
  0.65            -3.3689e-009    -8.116e-009     1.794e-010     
  0.7             5.83e-011       -7.983e-009     2.7151e-009    
  0.75            2.7989e-009     1.7249e-008     -1.8319e-009   
  0.8             -1.3435e-009    -1.6819e-008    2.0872e-009    
  0.85            1.1347e-009     1.6182e-008     -2.0028e-009   
  0.9             -1.201e-009     -1.6664e-008    2.2683e-009    
  0.95            9.82e-010       1.5418e-008     -2.1666e-009   
  1               -1.0151e-009    -1.6308e-008    2.4247e-009    
  1.05            8.254e-010      1.4684e-008     -2.2965e-009   
  1.1             -8.302e-010     -1.5304e-008    2.5408e-009    
  1.15            6.515e-010      1.332e-008      -2.3952e-009   
  1.2             -6.35e-010      -1.4213e-008    2.622e-009     
  1.25            3.4072e-009     7.864e-009      -2.4747e-009   
  1.3             -4.313e-010     -1.2701e-008    2.6788e-009    
  1.35            3.097e-010      1.1367e-008     -2.5243e-009   
  1.4             -2.306e-010     -1.0488e-008    2.7027e-009    
  1.45            1.427e-010      1.081e-008      -2.5557e-009   
  1.5             -2.9619e-009    -1.1486e-008    1.722e-009     
  1.55            2.7311e-009     1.856e-008      -1.8994e-009   
  1.6             -1.2971e-009    -1.6703e-008    2.166e-009     
  1.65            1.0798e-009     1.6005e-008     -2.0678e-009   
  1.7             -1.1336e-009    -1.6694e-008    2.332e-009     
  1.75            9.267e-010      1.5356e-008     -2.2136e-009   
  1.8             -9.514e-010     -1.5948e-008    2.4746e-009    
END_DB

BEGIN_DB
 ICCAP_VAR VG         0.36           
 ICCAP_VAR VS         0              
 ICCAP_VAR VB         0              

 #VD              ID              IB              IG             
  0               -9.674e-010     -4.946e-009     3.524e-010     
  0.05            3.4558e-009     -6.892e-009     2.6848e-009    
  0.1             3.2725e-009     1.5579e-008     -2.1633e-009   
  0.15            3.663e-009      -1.7e-008       2.0282e-009    
  0.2             3.8291e-009     1.6292e-008     -1.9761e-009   
  0.25            3.9028e-009     -1.7582e-008    1.7879e-009    
  0.3             5.3303e-009     8.236e-009      1.7431e-009    
  0.35            6.1767e-009     1.4439e-008     -1.6867e-009   
  0.4             4.34e-009       -1.918e-008     1.4711e-009    
  0.45            3.8041e-009     1.1074e-008     -2.5493e-009   
  0.5             3.4372e-009     -1.1164e-008    2.6558e-009    
  0.55            4.4765e-009     1.1798e-008     -2.5022e-009   
  0.6             3.709e-009      -9.099e-009     2.5714e-009    
  0.65            8.584e-009      1.8164e-008     -1.658e-010    
  0.7             7.614e-009      1.2379e-008     1.162e-010     
  0.75            8.533e-009      1.5269e-008     4.063e-010     
  0.8             9.399e-009      1.9774e-008     5.756e-010     
  0.85            7.6e-009        1.4579e-008     -1.3846e-009   
  0.9             8.839e-009      1.1912e-008     5.29e-011      
  0.95            9.722e-009      1.456e-008      3.491e-010     
  1               1.1076e-008     1.6776e-008     6.338e-010     
  1.05            1.2119e-008     1.1253e-008     8.917e-010     
  1.1             1.0032e-008     1.3784e-008     2.6913e-009    
  1.15            1.0495e-008     1.4288e-008     1.919e-009     
  1.2             1.0745e-008     4.965e-009      1.325e-009     
  1.25            1.1278e-008     -1.6107e-008    1.624e-009     
  1.3             1.1392e-008     -1.5227e-008    2.6234e-009    
  1.35            1.1943e-008     -6.968e-009     2.7163e-009    
  1.4             1.2779e-008     -1.6892e-008    2.5252e-009    
  1.45            1.2397e-008     -1.3728e-008    2.4733e-009    
  1.5             1.3748e-008     -7.437e-009     2.7151e-009    
  1.55            1.4561e-008     -7.9e-009       2.6361e-009    
  1.6             1.3729e-008     -1.5511e-008    2.1968e-009    
  1.65            1.5717e-008     -8.514e-009     2.6624e-009    
  1.7             1.667e-008      -7.412e-009     2.7065e-009    
  1.75            1.5808e-008     -1.7008e-008    1.8434e-009    
  1.8             1.4804e-008     -1.8233e-008    1.7914e-009    
END_DB

BEGIN_DB
 ICCAP_VAR VG         0.72           
 ICCAP_VAR VS         0              
 ICCAP_VAR VB         0              

 #VD              ID              IB              IG             
  0               7.007e-009      -1.2782e-008    -1.7444e-009   
  0.05            7.6787e-006     4.796e-009      1.2618e-009    
  0.1             1.1755e-005     6.033e-009      1.511e-009     
  0.15            1.3866e-005     -1.773e-008     2.701e-009     
  0.2             1.5151e-005     -9.336e-009     2.6455e-009    
  0.25            1.6136e-005     -1.2098e-008    2.5519e-009    
  0.3             1.705e-005      -1.4687e-008    1.5464e-009    
  0.35            1.7781e-005     -1.7701e-008    2.7038e-009    
  0.4             1.8473e-005     -8.624e-009     2.6639e-009    
  0.45            1.9207e-005     -1.1539e-008    2.5643e-009    
  0.5             2e-005          -1.5288e-008    1.5879e-009    
  0.55            2.0662e-005     -1.7368e-008    2.7066e-009    
  0.6             2.1305e-005     -8.359e-009     2.6692e-009    
  0.65            2.2015e-005     -1.1282e-008    2.5877e-009    
  0.7             2.2835e-005     -1.5802e-008    1.6393e-009    
  0.75            2.3466e-005     -1.7164e-008    1.4055e-009    
  0.8             2.4171e-005     -1.8645e-008    2.6776e-009    
  0.85            2.4831e-005     -1.0645e-008    2.608e-009     
  0.9             2.5669e-005     -1.6685e-008    1.6824e-009    
  0.95            2.6313e-005     -1.6957e-008    1.4372e-009    
  1               2.7016e-005     -1.8378e-008    2.6863e-009    
  1.05            2.7697e-005     -1.0208e-008    2.6187e-009    
  1.1             2.8431e-005     -1.2904e-008    2.5006e-009    
  1.15            2.9261e-005     -1.3479e-008    2.697e-009     
  1.2             2.9888e-005     -9.093e-009     2.6495e-009    
  1.25            3.0663e-005     -1.215e-008     2.5515e-009    
  1.3             3.1509e-005     -1.4898e-008    1.5494e-009    
  1.35            3.2216e-005     -1.8165e-008    2.7017e-009    
  1.4             3.3068e-005     -2.2588e-008    2.1458e-009    
  1.45            3.3779e-005     -1.8234e-008    1.8789e-009    
  1.5             3.4539e-005     -1.0577e-008    5e-013         
  1.55            3.5738e-005     -1.3166e-008    -1.8387e-009   
  1.6             3.6664e-005     4.1e-009        -2.4959e-009   
  1.65            3.7468e-005     2.296e-009      -2.4116e-009   
  1.7             3.8277e-005     -8.92e-010      -2.2778e-009   
  1.75            3.8865e-005     -1.8086e-008    -2.3623e-009   
  1.8             3.9954e-005     -7.239e-009     -1.5083e-009   
END_DB

BEGIN_DB
 ICCAP_VAR VG         1.08           
 ICCAP_VAR VS         0              
 ICCAP_VAR VB         0              

 #VD              ID              IB              IG             
  0               3.5993e-008     1.6575e-008     9.244e-010     
  0.05            4.7319e-005     -7.667e-009     -1.4151e-009   
  0.1             8.7564e-005     1.9405e-008     -1.3003e-009   
  0.15            0.00012031      1.0851e-008     -1.13e-010     
  0.2             0.00014564      1.7557e-008     -1.4998e-009   
  0.25            0.00016431      1.679e-008      -1.6306e-009   
  0.3             0.00017783      1.6022e-008     -1.7804e-009   
  0.35            0.0001876       1.5138e-008     -1.933e-009    
  0.4             0.00019477      1.4395e-008     -1.3974e-009   
  0.45            0.00020047      1.721e-008      -1.494e-009    
  0.5             0.00020504      1.6662e-008     -1.6377e-009   
  0.55            0.00020903      1.5991e-008     -1.7885e-009   
  0.6             0.00021253      1.4984e-008     -1.9382e-009   
  0.65            0.00021576      1.4366e-008     -1.3927e-009   
  0.7             0.00021888      1.7019e-008     -1.4985e-009   
  0.75            0.00022181      1.6769e-008     -1.6318e-009   
  0.8             0.00022465      1.6135e-008     -1.783e-009    
  0.85            0.00022739      1.499e-008      -1.9344e-009   
  0.9             0.0002301       1.4487e-008     -1.388e-009    
  0.95            0.00023261      1.7109e-008     -1.4981e-009   
  1               0.0002352       1.6645e-008     -1.6277e-009   
  1.05            0.00023766      1.6086e-008     -1.7783e-009   
  1.1             0.00024016      1.5104e-008     -1.9325e-009   
  1.15            0.00024257      1.4363e-008     -1.3877e-009   
  1.2             0.00024498      1.7008e-008     -1.4931e-009   
  1.25            0.00024736      1.6627e-008     -1.6313e-009   
  1.3             0.0002497       1.5567e-008     -1.7829e-009   
  1.35            0.00025202      1.4293e-008     -1.9334e-009   
  1.4             0.00025438      1.2625e-008     -2.0728e-009   
  1.45            0.00025666      1.0547e-008     -2.2105e-009   
  1.5             0.00025894      7.496e-009      -2.3181e-009   
  1.55            0.00026122      3.775e-009      -2.4102e-009   
  1.6             0.00026284      -1.9048e-008    -2.2727e-009   
  1.65            0.00026529      -2.3827e-008    -2.6444e-009   
  1.7             0.00026784      -1.0352e-008    -1.3661e-009   
  1.75            0.00026992      -3.4549e-008    5.23e-011      
  1.8             0.00027144      -5.7645e-008    2.7477e-009    
END_DB

BEGIN_DB
 ICCAP_VAR VG         1.44           
 ICCAP_VAR VS         0              
 ICCAP_VAR VB         0              

 #VD              ID              IB              IG             
  0               5.3608e-008     1.1824e-008     1.0622e-009    
  0.05            7.432e-005      -1.6853e-008    6.906e-010     
  0.1             0.0001436       -1.5891e-008    -3.571e-010    
  0.15            0.00020691      -9.39e-009      -9.897e-010    
  0.2             0.0002629       1.675e-009      -1.8683e-009   
  0.25            0.00031121      1.4095e-008     -2.0408e-009   
  0.3             0.00035175      1.6414e-008     -1.4669e-009   
  0.35            0.00038476      1.6843e-008     -1.5909e-009   
  0.4             0.00041128      1.6364e-008     -1.7381e-009   
  0.45            0.00043225      1.5398e-008     -1.8932e-009   
  0.5             0.0004487       1.3792e-008     -1.368e-009    
  0.55            0.00046159      1.7218e-008     -1.4654e-009   
  0.6             0.00047191      1.6625e-008     -1.5911e-009   
  0.65            0.00048036      1.6067e-008     -1.7356e-009   
  0.7             0.00048736      1.5167e-008     -1.8894e-009   
  0.75            0.00049355      1.3732e-008     -1.3662e-009   
  0.8             0.00049887      1.7306e-008     -1.4631e-009   
  0.85            0.00050374      1.6671e-008     -1.587e-009    
  0.9             0.00050827      1.615e-008      -1.7315e-009   
  0.95            0.00051261      1.5179e-008     -1.8933e-009   
  1               0.00051656      1.3682e-008     -1.3623e-009   
  1.05            0.00052053      1.7248e-008     -1.4654e-009   
  1.1             0.00052423      1.6607e-008     -1.5846e-009   
  1.15            0.00052782      1.6085e-008     -1.7395e-009   
  1.2             0.00053099      1.5387e-008     -1.892e-009    
  1.25            0.00053452      1.3625e-008     -1.3667e-009   
  1.3             0.00053772      1.6936e-008     -1.4626e-009   
  1.35            0.00054095      1.6105e-008     -1.5909e-009   
  1.4             0.00054415      1.5257e-008     -1.7345e-009   
  1.45            0.00054736      1.3536e-008     -1.8878e-009   
  1.5             0.00055057      1.1014e-008     -2.0376e-009   
  1.55            0.00055366      7.915e-009      -2.1745e-009   
  1.6             0.0005567       3.735e-009      -2.2912e-009   
  1.65            0.00055906      -2.0735e-008    -2.3889e-009   
  1.7             0.0005625       -1.9763e-008    -1.6802e-009   
  1.75            0.0005655       -2.2872e-008    -2.4449e-009   
  1.8             0.00056841      -2.5782e-008    -1.9999e-009   
END_DB

BEGIN_DB
 ICCAP_VAR VG         1.8            
 ICCAP_VAR VS         0              
 ICCAP_VAR VB         0              

 #VD              ID              IB              IG             
  0               6.1549e-008     -1.1808e-008    -1.1429e-009   
  0.05            9.0119e-005     -1.4033e-008    1.8882e-009    
  0.1             0.00017667      -8.454e-009     1.422e-010     
  0.15            0.00025876      -1.6259e-008    1.6258e-009    
  0.2             0.00033514      -1.7016e-008    1.804e-009     
  0.25            0.00040518      -1.6793e-008    1.9934e-009    
  0.3             0.00046827      -1.1288e-008    2.6794e-009    
  0.35            0.00052396      -7.826e-009     2.7145e-009    
  0.4             0.00057259      -7.412e-009     2.7331e-009    
  0.45            0.00061432      -6.847e-009     2.7433e-009    
  0.5             0.00064968      -7.058e-009     2.7465e-009    
  0.55            0.00067926      -7.653e-009     2.7353e-009    
  0.6             0.00070376      -8.134e-009     2.7066e-009    
  0.65            0.00072391      -1.7772e-008    1.4148e-009    
  0.7             0.00074049      -1.7081e-008    1.5589e-009    
  0.75            0.00075428      -1.7184e-008    1.7292e-009    
  0.8             0.00076568      -1.6912e-008    1.9098e-009    
  0.85            0.00077545      -1.0564e-008    2.18e-010      
  0.9             0.00078381      -1.7062e-008    1.5847e-009    
  0.95            0.0007912       -1.7297e-008    1.7593e-009    
  1               0.00079778      -1.7025e-008    1.9415e-009    
  1.05            0.00080375      -1.0783e-008    2.365e-010     
  1.1             0.00080918      -1.7232e-008    1.6129e-009    
  1.15            0.00081437      -1.7127e-008    1.801e-009     
  1.2             0.00081927      -1.6837e-008    1.9806e-009    
  1.25            0.00082385      -1.5939e-008    2.1472e-009    
  1.3             0.00082827      -1.3282e-008    2.7116e-009    
  1.35            0.00083237      -7.775e-009     2.734e-009     
  1.4             0.00083658      -7.498e-009     2.7455e-009    
  1.45            0.00084053      -8.059e-009     2.7471e-009    
  1.5             0.00084444      -9.127e-009     2.7328e-009    
  1.55            0.00084822      -1.1037e-008    2.706e-009     
  1.6             0.00085187      -2.2697e-008    1.4028e-009    
  1.65            0.00085541      -1.6335e-008    -3.63e-011     
  1.7             0.00086046      -2.2067e-008    -1.7124e-009   
  1.75            0.00086327      -2.2609e-008    -2.5895e-009   
  1.8             0.0008671       -9.246e-009     -2.3908e-009   
END_DB

BEGIN_DB
 ICCAP_VAR VG         0              
 ICCAP_VAR VS         0              
 ICCAP_VAR VB         -0.9           

 #VD              ID              IB              IG             
  0               -1.927e-010     7.505e-009      1.6309e-009    
  0.05            2.8508e-009     1.6798e-008     -1.8259e-009   
  0.1             -1.3813e-009    -1.7257e-008    2.0524e-009    
  0.15            1.1886e-009     1.6689e-008     -1.9749e-009   
  0.2             -1.2529e-009    -1.719e-008     2.2133e-009    
  0.25            1.0569e-009     1.6259e-008     -2.1184e-009   
  0.3             -1.1064e-009    -1.6807e-008    2.3618e-009    
  0.35            9.266e-010      1.5475e-008     -2.2394e-009   
  0.4             -9.485e-010     -1.6077e-008    2.4872e-009    
  0.45            7.774e-010      1.4179e-008     -2.344e-009    
  0.5             -3.5078e-009    -8.462e-009     1.248e-010     
  0.55            -3.82e-011      -8.608e-009     2.7447e-009    
  0.6             2.953e-009      1.4913e-008     -1.7249e-009   
  0.65            -2.7795e-009    -1.7318e-008    2.1606e-009    
  0.7             1.1069e-009     1.6611e-008     -2.0654e-009   
  0.75            -1.1699e-009    -1.6924e-008    2.3111e-009    
  0.8             9.727e-010      1.5819e-008     -2.2003e-009   
  0.85            -1.0061e-009    -1.6385e-008    2.4482e-009    
  0.9             8.373e-010      1.4786e-008     -2.311e-009    
  0.95            -8.499e-010     -1.5692e-008    2.5496e-009    
  1               6.919e-010      1.3611e-008     -2.4045e-009   
  1.05            -6.875e-010     -1.4738e-008    2.6251e-009    
  1.1             3.4755e-009     7.69e-009       -2.4754e-009   
  1.15            -3.2815e-009    -8.011e-009     2.6803e-009    
  1.2             3.97e-010       1.2123e-008     -2.53e-009     
  1.25            -3.368e-010     -1.1737e-008    2.7129e-009    
  1.3             2.459e-010      1.1206e-008     -2.5597e-009   
  1.35            -3.0559e-009    -1.0373e-008    1.5985e-009    
  1.4             2.8835e-009     1.608e-008      -1.7831e-009   
  1.45            -2.7257e-009    -1.8268e-008    2.2291e-009    
  1.5             1.0547e-009     1.6163e-008     -2.1303e-009   
  1.55            -1.1052e-009    -1.6536e-008    2.3799e-009    
  1.6             9.195e-010      1.5166e-008     -2.2523e-009   
  1.65            -9.471e-010     -1.5963e-008    2.4984e-009    
  1.7             7.783e-010      1.4235e-008     -2.3562e-009   
  1.75            -3.508e-009     -8.452e-009     1.292e-010     
  1.8             -3.43e-011      -8.482e-009     2.741e-009     
END_DB

BEGIN_DB
 ICCAP_VAR VG         0.36           
 ICCAP_VAR VS         0              
 ICCAP_VAR VB         -0.9           

 #VD              ID              IB              IG             
  0               -5.27e-010      5.601e-009      7.389e-010     
  0.05            1.821e-009      -5.812e-009     2.3908e-009    
  0.1             1.905e-010      1.0906e-008     -2.579e-009    
  0.15            -2.9149e-009    -1.142e-008     1.7201e-009    
  0.2             2.8595e-009     1.8192e-008     -1.9017e-009   
  0.25            -1.2257e-009    -1.6739e-008    2.1456e-009    
  0.3             1.2335e-009     1.6202e-008     -2.0488e-009   
  0.35            -1.079e-009     -1.6766e-008    2.3006e-009    
  0.4             1.1294e-009     1.5898e-008     -2.1819e-009   
  0.45            -9.056e-010     -1.6445e-008    2.428e-009     
  0.5             1.0199e-009     1.4962e-008     -2.2945e-009   
  0.55            -7.076e-010     -1.579e-008     2.5363e-009    
