! VERSION = 6.00
BEGIN_HEADER
 ICCAP_INPUTS
  VG         V  B GROUND SMU4 0.001 LIN        2    0          1.8        6    0.36      
  VS         V  E GROUND SMU2 0.1 CON        0
  VD         V  S GROUND SMU1 0.1 LIN        1    0          1.8        37   0.05      
  VB         V  C GROUND SMU3 0.1 LIN        3    0          -0.9       2    -0.9      
 ICCAP_OUTPUTS
  ID         I  S GROUND SMU1 B
  IB         I  C GROUND SMU3 B
  IG         I  B GROUND SMU4 B
END_HEADER

BEGIN_DB
 ICCAP_VAR VG         0              
 ICCAP_VAR VS         0              
 ICCAP_VAR VB         0              

 #VD              ID              IB              IG             
  0               1.5878e-009     3.701e-009      1.346e-009     
  0.05            2.2661e-009     -8.543e-009     1.0971e-009    
  0.1             1.0525e-009     2.7936e-008     -1.4121e-009   
  0.15            -2.1801e-009    1.0199e-008     -1.0691e-009   
  0.2             -1.7266e-009    -1.1482e-008    1.4894e-009    
  0.25            2.3646e-009     -8.488e-009     9.09e-010      
  0.3             1.7633e-009     1.259e-008      -1.5463e-009   
  0.35            -1.4188e-009    7.489e-009      -1.7626e-009   
  0.4             -2.1597e-009    -1.1958e-008    -4.135e-010    
  0.45            -2.2128e-009    -1.1489e-008    -6.374e-010    
  0.5             -2.2346e-009    -1.0538e-008    -8.166e-010    
  0.55            -2.2182e-009    -9.489e-009     -9.619e-010    
  0.6             -1.6625e-009    -1.1809e-008    1.628e-009     
  0.65            1.5386e-009     -8.758e-009     1.7069e-009    
  0.7             2.1986e-009     1.1385e-008     3.52e-010      
  0.75            2.288e-009      1.0638e-008     5.542e-010     
  0.8             1.4543e-009     2.136e-008      -1.3232e-009   
  0.85            1.197e-010      1.1316e-008     -2.6782e-009   
  0.9             -2.2307e-009    6.1e-010        -9.095e-010    
  0.95            -1.6318e-009    -1.2226e-008    1.71e-009      
  1               1.6126e-009     -8.739e-009     1.6403e-009    
  1.05            2.1619e-009     1.1451e-008     2.824e-010     
  1.1             2.256e-009      1.0983e-008     4.861e-010     
  1.15            1.4055e-009     2.2939e-008     -1.3366e-009   
  1.2             6.45e-011       1.1208e-008     -2.7011e-009   
  1.25            -1.4502e-009    -1.958e-008     1.2793e-009    
  1.3             -4.05e-011      -1.1797e-008    2.8704e-009    
  1.35            1.4188e-009     2.2643e-008     -1.3337e-009   
  1.4             7.31e-011       1.142e-008      -2.6913e-009   
  1.45            -2.0139e-009    -1.1836e-008    -1.61e-011     
  1.5             -2.1107e-009    -1.2147e-008    -2.497e-010    
  1.55            -2.1758e-009    -1.1799e-008    -4.847e-010    
  1.6             -2.2234e-009    -1.087e-008     -7.081e-010    
  1.65            -1.5243e-009    -1.6534e-008    1.2616e-009    
  1.7             -1.713e-010     -1.3663e-008    2.8189e-009    
  1.75            2.2591e-009     9.895e-009      1.0952e-009    
  1.8             1.0591e-009     2.7962e-008     -1.4109e-009   
END_DB

BEGIN_DB
 ICCAP_VAR VG         0.36           
 ICCAP_VAR VS         0              
 ICCAP_VAR VB         0              

 #VD              ID              IB              IG             
  0               1.2522e-009     -1.1672e-008    1.3128e-009    
  0.05            1.2193e-008     -8.511e-009     -1.8578e-009   
  0.1             1.8706e-008     2.075e-008      -1.6802e-009   
  0.15            2.0251e-008     1.134e-008      2.389e-010     
  0.2             2.0259e-008     -1.2788e-008    2.7001e-009    
  0.25            1.9369e-008     -1.2067e-008    1.4484e-009    
  0.3             1.9209e-008     -1.1985e-008    -6.619e-010    
  0.35            2.2928e-008     1.3341e-008     -2.0446e-009   
  0.4             2.5258e-008     1.1253e-008     -2.85e-011     
  0.45            2.5122e-008     -9.268e-009     2.8729e-009    
  0.5             2.2747e-008     -1e-008         -1.0629e-009   
  0.55            2.7677e-008     2.1856e-008     -1.497e-009    
  0.6             2.8481e-008     1.0533e-008     1.9898e-009    
  0.65            2.7515e-008     -1.4789e-008    1.6418e-009    
  0.7             2.7308e-008     -1.1958e-008    -4.236e-010    
  0.75            3.1292e-008     1.2246e-008     -2.3416e-009   
  0.8             3.389e-008      1.217e-008      -2.045e-010    
  0.85            3.3049e-008     -8.593e-009     1.2767e-009    
  0.9             3.3433e-008     -2.6535e-008    1.2979e-009    
  0.95            3.4524e-008     -2.6882e-008    1.3169e-009    
  1               3.393e-008      -1.0463e-008    -9.452e-010    
  1.05            3.9091e-008     1.8609e-008     -1.6196e-009   
  1.1             4.0721e-008     1.1356e-008     3.055e-010     
  1.15            4.0371e-008     -1.3319e-008    2.6251e-009    
  1.2             3.9803e-008     -1.1706e-008    2.768e-010     
  1.25            4.2152e-008     9.754e-009      -1.3437e-009   
  1.3             4.4785e-008     9.253e-009      9.819e-010     
  1.35            4.4819e-008     -2.106e-008     1.5588e-009    
  1.4             4.3706e-008     -1.2068e-008    -5.076e-010    
  1.45            4.9006e-008     1.2583e-008     -2.2441e-009   
  1.5             5.143e-008      2.7392e-008     -1.389e-009    
  1.55            5.1573e-008     1.0511e-008     7.772e-010     
  1.6             5.1773e-008     -1.7495e-008    1.9112e-009    
  1.65            5.2794e-008     -2.4964e-008    1.2808e-009    
  1.7             5.4117e-008     -2.6308e-008    1.2968e-009    
  1.75            5.4549e-008     -1.0362e-008    -1.026e-009    
  1.8             6.0406e-008     2.0674e-008     -1.5262e-009   
END_DB

BEGIN_DB
 ICCAP_VAR VG         0.72           
 ICCAP_VAR VS         0              
 ICCAP_VAR VB         0              

 #VD              ID              IB              IG             
  0               -8.9472e-008    -5.4e-010       -2.5239e-009   
  0.05            4.0963e-005     -9.628e-009     2.8331e-009    
  0.1             6.2625e-005     -2.5986e-008    1.2902e-009    
  0.15            7.4066e-005     -1.2057e-008    -5.975e-010    
  0.2             8.0972e-005     2.4888e-008     -1.4402e-009   
  0.25            8.5031e-005     2.6879e-008     -1.3319e-009   
  0.3             8.7261e-005     1.1264e-008     6.059e-010     
  0.35            8.8988e-005     -2.544e-008     1.4079e-009    
  0.4             9.162e-005      -2.2756e-008    1.2609e-009    
  0.45            9.4126e-005     -1.1627e-008    -7.667e-010    
  0.5             9.7453e-005     2.7276e-008     -1.3957e-009   
  0.55            9.9603e-005     2.405e-008      -1.2986e-009   
  0.6             0.000101631     2.7531e-008     -1.3853e-009   
  0.65            0.00010366      2.2647e-008     -1.7634e-009   
  0.7             0.000104406     1.0301e-008     8.091e-010     
  0.75            0.000105863     -2.6776e-008    1.3275e-009    
  0.8             0.000108029     -1.1813e-008    -3.889e-010    
  0.85            0.000111353     2.0708e-008     -1.5378e-009   
  0.9             0.000111471     9.426e-009      9.82e-010      
  0.95            0.00011369      -2.4827e-008    1.2821e-009    
  1               0.0001173       -2.6709e-008    -1.1359e-009   
  1.05            0.00011936      2.8385e-008     -1.3599e-009   
  1.1             0.00011839      9.146e-009      1.2071e-009    
  1.15            0.00012124      -2.4411e-008    1.2777e-009    
  1.2             0.00012309      -1.2008e-008    -3.898e-010    
  1.25            0.00012649      1.5201e-008     -1.8123e-009   
  1.3             0.00012828      1.892e-008      -1.6273e-009   
  1.35            0.00012947      9.933e-009      6.89e-010      
  1.4             0.00013034      -2.4382e-008    1.5339e-009    
  1.45            0.00013314      -1.4877e-008    -9.053e-010    
  1.5             0.00013568      1.679e-009      -1.3633e-009   
  1.55            0.00013607      -5.09e-010      2.532e-009     
  1.6             0.0001383       -2.7795e-008    -7.554e-010    
  1.65            0.00014082      -1.8642e-008    -1.3951e-009   
  1.7             0.00014161      -2.6262e-008    2.4117e-009    
  1.75            0.00014341      -6.1979e-008    -5.354e-010    
  1.8             0.00014713      -5.1467e-008    -1.6593e-009   
END_DB

BEGIN_DB
 ICCAP_VAR VG         1.08           
 ICCAP_VAR VS         0              
 ICCAP_VAR VB         0              

 #VD              ID              IB              IG             
  0               9.2327e-007     1.1451e-008     -8.696e-010    
  0.05            0.00020283      1.7326e-008     4.9e-010       
  0.1             0.00037427      -1.8484e-008    1.7796e-009    
  0.15            0.00051342      -1.1827e-008    -7.521e-010    
  0.2             0.00061982      2.1479e-008     -1.497e-009    
  0.25            0.00069544      1.0535e-008     8.276e-010     
  0.3             0.000748        -2.4409e-008    1.4065e-009    
  0.35            0.00078788      -1.0175e-008    -1.0365e-009   
  0.4             0.00081532      2.7727e-008     -1.3743e-009   
  0.45            0.0008348       2.7886e-008     -1.329e-009    
  0.5             0.00084953      2.1896e-008     -1.7056e-009   
  0.55            0.00086098      1.1331e-008     6.342e-010     
  0.6             0.000869        -2.0289e-008    1.5871e-009    
  0.65            0.0008813       -1.1318e-008    -8.607e-010    
  0.7             0.00089259      2.4445e-008     -1.425e-009    
  0.75            0.00089802      9.881e-009      9.336e-010     
  0.8             0.00090535      -2.618e-008     1.3453e-009    
  0.85            0.00091386      -2.6065e-008    1.2829e-009    
  0.9             0.00092181      -1.9661e-008    1.8956e-009    
  0.95            0.00093046      -1.204e-008     -6.704e-010    
  1               0.00093991      1.9654e-008     -1.5539e-009   
  1.05            0.00094555      1.0864e-008     7.615e-010     
  1.1             0.0009504       -2.3149e-008    1.4566e-009    
  1.15            0.00096027      -1.0594e-008    -9.71e-010     
  1.2             0.00096781      2.6831e-008     -1.3869e-009   
  1.25            0.00097037      8.702e-009      1.0396e-009    
  1.3             0.00097726      -2.7599e-008    1.3098e-009    
  1.35            0.00098872      -1.0926e-008    -1.2782e-009   
  1.4             0.00099491      8.832e-009      -2.6732e-009   
  1.45            0.00100103      6.158e-009      -2.4343e-009   
  1.5             0.0010062       3.473e-009      -2.0211e-009   
  1.55            0.00101055      -2.3963e-008    -2.6941e-009   
  1.6             0.00101425      -1.9651e-008    1e-009         
  1.65            0.00101954      -7.3339e-008    1.3233e-009    
  1.7             0.00102845      -8.1422e-008    -2.4988e-009   
  1.75            0.0010342       -1.2179e-007    -4.321e-010    
  1.8             0.0010418       -1.4658e-007    -1.7677e-009   
END_DB

BEGIN_DB
 ICCAP_VAR VG         1.44           
 ICCAP_VAR VS         0              
 ICCAP_VAR VB         0              

 #VD              ID              IB              IG             
  0               9.7431e-007     -1.5529e-008    1.7799e-009    
  0.05            0.0003212       1.42e-010       2.2421e-009    
  0.1             0.00061781      -1.1619e-008    -3.965e-010    
  0.15            0.00088389      1.6382e-008     -1.7971e-009   
  0.2             0.00111285      1.1373e-008     5.395e-010     
  0.25            0.0013061       -1.8225e-008    -1.4622e-009   
  0.3             0.0014642       2.7317e-008     -1.3714e-009   
  0.35            0.0015903       2.702e-008      -1.3279e-009   
  0.4             0.0016891       2.1535e-008     -1.6972e-009   
  0.45            0.0017645       1.1345e-008     6.223e-010     
  0.5             0.0018202       -2.1101e-008    1.5991e-009    
  0.55            0.0018675       -1.1277e-008    -8.587e-010    
  0.6             0.0019045       2.5083e-008     -1.4239e-009   
  0.65            0.0019283       9.996e-009      9.336e-010     
  0.7             0.0019499       -2.6007e-008    1.3422e-009    
  0.75            0.0019741       -9.824e-009     -1.1476e-009   
  0.8             0.0019904       2.7766e-008     -1.3494e-009   
  0.85            0.0020059       2.4558e-008     -1.8762e-009   
  0.9             0.0020156       1.0606e-008     1.994e-009     
  0.95            0.0020276       -1.1425e-008    1.664e-010     
  1               0.0020452       1.1134e-008     -2.472e-009    
  1.05            0.002055        1.0714e-008     7.6e-012       
  1.1             0.0020615       -1.4223e-008    2.4444e-009    
  1.15            0.0020736       -2.3654e-008    2.1983e-009    
  1.2             0.0020841       -1.1732e-008    -4.103e-010    
  1.25            0.0020977       1.6979e-008     -1.7656e-009   
  1.3             0.0021058       1.1017e-008     5.595e-010     
  1.35            0.0021121       -2.1236e-008    1.6671e-009    
  1.4             0.0021242       -1.377e-008     -8.101e-010    
  1.45            0.0021346       2.741e-009      -1.3718e-009   
  1.5             0.0021435       8.243e-009      -1.9188e-009   
  1.55            0.0021525       -5.84e-010      -2.7027e-009   
  1.6             0.0021546       -1.0389e-008    1.2442e-009    
  1.65            0.0021654       -5.5527e-008    2.1666e-009    
  1.7             0.0021765       -6.43e-008      -1.8853e-009   
  1.75            0.002185        -7.1653e-008    -2.05e-010     
  1.8             0.0021905       -1.1931e-007    2.709e-009     
END_DB

BEGIN_DB
 ICCAP_VAR VG         1.8            
 ICCAP_VAR VS         0              
 ICCAP_VAR VB         0              

 #VD              ID              IB              IG             
  0               -1.1641e-007    9.8e-009        -3.983e-010    
  0.05            0.0003928       2.8434e-008     1.0917e-009    
  0.1             0.00076767      -2.6833e-008    1.3009e-009    
  0.15            0.00111707      -2.206e-008     2.0337e-009    
  0.2             0.0014349       4.212e-009      1.3282e-009    
  0.25            0.0017201       -9.572e-009     -1.1982e-009   
  0.3             0.0019689       2.8475e-008     -1.3476e-009   
  0.35            0.0021814       9.309e-009      1.2708e-009    
  0.4             0.0023649       -2.3585e-008    2.1644e-009    
  0.45            0.0025185       -1.9812e-008    1.8924e-009    
  0.5             0.0026464       -1.1975e-008    -6.655e-010    
  0.55            0.0027525       1.9728e-008     -1.5543e-009   
  0.6             0.0028364       1.0947e-008     7.681e-010     
  0.65            0.0029032       -2.306e-008     1.4528e-009    
  0.7             0.0029591       -2.6586e-008    1.3256e-009    
  0.75            0.0030095       -9.528e-009     -1.2228e-009   
  0.8             0.0030464       2.854e-008      -1.3443e-009   
  0.85            0.0030773       1.1247e-008     2.696e-010     
  0.9             0.0031001       -1.5896e-008    2.1139e-009    
  0.95            0.0031243       -1.1985e-008    -5.022e-010    
  1               0.0031474       1.7474e-008     -1.6913e-009   
  1.05            0.0031648       1.1359e-008     6.43e-010      
  1.1             0.0031787       -2.0557e-008    1.5744e-009    
  1.15            0.0031944       -1.2054e-008    3.19e-010      
  1.2             0.0032138       1.152e-008      -2.6637e-009   
  1.25            0.0032275       2.7186e-008     -1.3817e-009   
  1.3             0.0032352       8.899e-009      1.0739e-009    
  1.35            0.003248        -2.7224e-008    1.304e-009     
  1.4             0.0032609       -1.2751e-008    -1.819e-010    
  1.45            0.0032767       1.1563e-008     -2.0739e-009   
  1.5             0.0032879       1.3959e-008     -1.663e-009    
  1.55            0.0032994       5.381e-009      -2.6164e-009   
  1.6             0.0033099       1.731e-009      -2.2917e-009   
  1.65            0.0033141       -7.222e-009     1.7424e-009    
  1.7             0.0033254       -4.294e-008     1.4844e-009    
  1.75            0.0033374       -5.877e-008     -2.2357e-009   
  1.8             0.0033482       -6.5805e-008    2.828e-010     
END_DB

BEGIN_DB
 ICCAP_VAR VG         0              
 ICCAP_VAR VS         0              
 ICCAP_VAR VB         -0.9           

 #VD              ID              IB              IG             
  0               5.859e-010      -1.192e-008     -1.511e-010    
  0.05            9.435e-010      2.6707e-008     -1.5009e-009   
  0.1             -2.2307e-009    8.144e-009      -9.424e-010    
  0.15            -1.6469e-009    -1.1908e-008    1.6528e-009    
  0.2             1.5555e-009     -8.459e-009     1.6928e-009    
  0.25            2.1889e-009     1.1318e-008     3.497e-010     
  0.3             2.2828e-009     1.0569e-008     5.6e-010       
  0.35            2.3539e-009     9.526e-009      7.496e-010     
  0.4             1.6213e-009     1.5499e-008     -1.7289e-009   
  0.45            -1.5986e-009    5.214e-009      -1.6278e-009   
  0.5             -2.0873e-009    -1.2007e-008    -2.073e-010    
  0.55            -2.1549e-009    -1.1609e-008    -4.407e-010    
  0.6             -2.2065e-009    -1.0562e-008    -6.803e-010    
  0.65            -1.5238e-009    -1.6334e-008    1.256e-009     
  0.7             -1.691e-010     -1.3686e-008    2.8344e-009    
  0.75            2.0944e-009     1.1375e-008     1.615e-010     
  0.8             2.195e-009      1.1117e-008     3.756e-010     
  0.85            2.2945e-009     1.0194e-008     5.841e-010     
  0.9             1.482e-009      1.9979e-008     -1.3168e-009   
  0.95            1.654e-010      1.1873e-008     -2.6603e-009   
  1               -2.2235e-009    7.26e-010       -9.58e-010     
  1.05            -1.66e-009      -1.1726e-008    1.6284e-009    
  1.1             2.3646e-009     -8.368e-009     8.124e-010     
  1.15            1.6776e-009     1.4179e-008     -1.6475e-009   
  1.2             -1.5153e-009    6.013e-009      -1.6893e-009   
  1.25            -2.1159e-009    -1.1943e-008    -2.993e-010    
  1.3             -2.1779e-009    -1.1331e-008    -5.393e-010    
  1.35            -2.2227e-009    -1.0309e-008    -7.618e-010    
  1.4             -1.558e-009     -1.4833e-008    1.9908e-009    
  1.45            1.8496e-009     -7.844e-009     1.4649e-009    
  1.5             1.5758e-009     1.061e-008      1.6547e-009    
  1.55            2.172e-009      1.1308e-008     3.209e-010     
  1.6             2.2699e-009     1.0479e-008     5.361e-010     
  1.65            1.4401e-009     2.1427e-008     -1.3259e-009   
  1.7             1.215e-010      1.1486e-008     -2.6865e-009   
  1.75            -2.0376e-009    -1.1904e-008    -8.63e-011     
  1.8             -2.1251e-009    -1.1964e-008    -3.217e-010    
END_DB

BEGIN_DB
 ICCAP_VAR VG         0.36           
 ICCAP_VAR VS         0              
 ICCAP_VAR VB         -0.9           

 #VD              ID              IB              IG             
  0               -8.55e-010      1.2701e-008     -8.687e-010    
  0.05            1.5904e-009     2.2774e-008     -1.3285e-009   
  0.1             3.196e-010      1.1506e-008     -2.7009e-009   
  0.15            -1.7612e-009    -1.1759e-008    -2.35e-011     
  0.2             -1.8361e-009    -1.1989e-008    -2.581e-010    
  0.25            -1.8766e-009    -1.1455e-008    -5.045e-010    
  0.3             -9.136e-010     -1.0488e-008    1.3348e-009    
  0.35            1.5256e-009     -8.682e-009     2.1e-009       
  0.4             2.7117e-009     9.329e-009      7.865e-010     
  0.45            2.0433e-009     1.4872e-008     -1.6921e-009   
  0.5             -1.3457e-009    5.506e-009      3.119e-010     
  0.55            -4.13e-010      -2.2348e-008    1.7831e-009    
