! VERSION = 6.00
BEGIN_HEADER
 ICCAP_INPUTS
  VG         V  B GROUND SMU4 0.001 LIN        1    0          1.8        37   0.05      
  VS         V  E GROUND SMU2 0.1 CON        0
  VB         V  C GROUND SMU3 0.1 LIN        3    0          -1.8       3    -0.9      
  VD         V  S GROUND SMU1 0.1 LIN        2    0.1        1.8        2    1.7       
 ICCAP_OUTPUTS
  IG         I  B GROUND SMU4 B
  ID         I  S GROUND SMU1 B
  IB         I  C GROUND SMU3 B
END_HEADER

BEGIN_DB
 ICCAP_VAR VS         0              
 ICCAP_VAR VB         0              
 ICCAP_VAR VD         0.1            

 #VG              IG              ID              IB             
  0               -2.4607e-009    -2.1996e-009    -5.9e-011      
  0.05            -1.1001e-009    -2.1404e-009    1.238e-009     
  0.1             1.4622e-009     -1.7052e-009    -1.1337e-008   
  0.15            9.177e-010      2.4e-009        -8.082e-009    
  0.2             -1.5275e-009    2.0016e-009     1.2388e-008    
  0.25            -1.4214e-009    7.595e-010      7.263e-009     
  0.3             -1.3715e-009    4.8484e-009     9.371e-009     
  0.35            2.1482e-009     2.2549e-008     2.2426e-008    
  0.4             1.5223e-009     9.5576e-008     -6.17e-009     
  0.45            -1.3034e-009    4.2045e-007     2.038e-008     
  0.5             2.2702e-009     1.6301e-006     9.802e-009     
  0.55            1.5959e-009     5.4635e-006     -5.129e-009    
  0.6             -1.8469e-009    1.589e-005      -7.844e-009    
  0.65            -1.4248e-009    3.5321e-005     4.148e-009     
  0.7             -1.3363e-009    6.5278e-005     9.242e-009     
  0.75            -2.6089e-009    0.00010346      1.1433e-008    
  0.8             -1.6822e-009    0.00014703      6.56e-010      
  0.85            -1.3886e-009    0.00019282      5.386e-009     
  0.9             -1.3161e-009    0.00023883      1.0225e-008    
  0.95            -2.5138e-009    0.00028428      1.1376e-008    
  1               -1.9167e-009    0.00032743      1.035e-009     
  1.05            -1.4573e-009    0.00036904      3.54e-009      
  1.1             -1.3453e-009    0.00040849      8.385e-009     
  1.15            -2.6407e-009    0.00044551      1.1677e-008    
  1.2             -2.1919e-009    0.00047983      5.69e-010      
  1.25            -1.5971e-009    0.0005124       2.379e-009     
  1.3             -1.375e-009     0.00054275      5.887e-009     
  1.35            -2.6915e-009    0.00057091      1.065e-008     
  1.4             2.0607e-009     0.00059664      -2.2417e-008   
  1.45            1.4679e-009     0.00062105      -6.972e-009    
  1.5             1.2905e-009     0.00064358      -8.164e-009    
  1.55            2.8165e-009     0.00066462      -1.0023e-008   
  1.6             -1.6213e-009    0.00068462      2.0128e-008    
  1.65            -1.3742e-009    0.00070277      5.817e-009     
  1.7             -2.6902e-009    0.00071946      1.069e-008     
  1.75            -1.1774e-009    0.00073503      -9.429e-009    
  1.8             1.3057e-009     0.00074914      -2.6455e-008   
END_DB

BEGIN_DB
 ICCAP_VAR VS         0              
 ICCAP_VAR VB         0              
 ICCAP_VAR VD         1.8            

 #VG              IG              ID              IB             
  0               -1.0331e-009    -9.539e-010     -1.7051e-008   
  0.05            -1.4331e-009    1.01e-009       2.7338e-008    
  0.1             -9.979e-010     -2.1412e-009    9.34e-009      
  0.15            1.5816e-009     -1.4733e-009    -1.1611e-008   
  0.2             2.5781e-009     1.853e-009      -8.324e-009    
  0.25            3.822e-010      5.9489e-009     1.1165e-008    
  0.3             2.0646e-009     1.847e-008      2.0972e-008    
  0.35            1.4804e-009     7.9199e-008     -7.07e-009     
  0.4             2.7042e-009     3.3907e-007     -1.2316e-008   
  0.45            -1.9505e-009    1.4391e-006     -1.2253e-008   
  0.5             -1.8443e-009    4.9953e-006     -1.6639e-008   
  0.55            2.7391e-009     1.5065e-005     -2.2181e-008   
  0.6             2.1568e-009     3.8007e-005     -2.7149e-008   
  0.65            1.5308e-009     7.9841e-005     -5.1147e-008   
  0.7             1.3715e-009     0.00014403      -7.1111e-008   
  0.75            1.4387e-009     0.0002302       -1.00533e-007  
  0.8             1.414e-010      0.00033457      -1.069e-007    
  0.85            -3.469e-010     0.00045281      -1.381e-007    
  0.9             -8.208e-010     0.00058546      -1.4985e-007   
  0.95            -1.1712e-009    0.00072874      -1.5565e-007   
  1               -1.5709e-009    0.00087756      -1.6072e-007   
  1.05            -1.8755e-009    0.00102923      -1.6251e-007   
  1.1             1.6054e-009     0.0011846       -1.4814e-007   
  1.15            1.3161e-009     0.001345        -1.5468e-007   
  1.2             2.8538e-009     0.0015062       -1.4949e-007   
  1.25            2.5106e-009     0.0016733       -1.3511e-007   
  1.3             1.8386e-009     0.0018372       -1.3018e-007   
  1.35            1.3788e-009     0.002003        -1.2803e-007   
  1.4             2.8408e-009     0.0021693       -1.2014e-007   
  1.45            2.7128e-009     0.002336        -1.0437e-007   
  1.5             2.107e-009      0.0025011       -9.797e-008    
  1.55            1.5062e-009     0.0026656       -9.537e-008    
  1.6             -1.3258e-009    0.002834        -5.4189e-008   
  1.65            -2.5518e-009    0.002998        -6.3778e-008   
  1.7             -1.9775e-009    0.0031584       -6.7876e-008   
  1.75            -1.484e-009     0.0033204       -5.9466e-008   
  1.8             -1.3496e-009    0.0034818       -4.9026e-008   
END_DB

BEGIN_DB
 ICCAP_VAR VS         0              
 ICCAP_VAR VB         -0.9           
 ICCAP_VAR VD         0.1            

 #VG              IG              ID              IB             
  0               -1.371e-009     -1.3138e-009    1.133e-008     
  0.05            -1.1591e-009    -2.0837e-009    1.0999e-008    
  0.1             2.857e-010      -1.7628e-009    -1.1348e-008   
  0.15            1.7303e-009     -8.522e-010     -2.3389e-008   
  0.2             1.584e-009      1.642e-009      -8.651e-009    
  0.25            -1.11e-011      2.0094e-009     1.0735e-008    
  0.3             -1.4112e-009    1.0787e-009     2.7828e-008    
  0.35            -1.3676e-009    3.14e-011       9.563e-009     
  0.4             -1.3408e-009    1.4488e-009     1.0959e-008    
  0.45            -1.3151e-009    7.9279e-009     1.1458e-008    
  0.5             2.8601e-009     3.8661e-008     1.1414e-008    
  0.55            -2.884e-010     1.79e-007       1.1261e-008    
  0.6             -7.804e-010     8.1884e-007     -1.152e-008    
  0.65            2.8186e-009     3.177e-006      2.7648e-008    
  0.7             2.0175e-009     1.01671e-005    1.0239e-008    
  0.75            -2.6311e-009    2.608e-005      1.1283e-008    
  0.8             -8.621e-010     5.2769e-005     -1.0955e-008   
  0.85            1.4932e-009     8.8194e-005     -1.2774e-008   
  0.9             2.036e-009      0.00013129      -8.462e-009    
  0.95            1.4581e-009     0.00017698      -7.029e-009    
  1               1.2877e-009     0.0002233       -8.305e-009    
  1.05            2.8121e-009     0.00026872      -1.0071e-008   
  1.1             4.091e-010      0.0003139       1.122e-008     
  1.15            8.294e-010      0.00035516      1.018e-008     
  1.2             1.1694e-009     0.00039376      8.911e-009     
  1.25            -1.338e-009     0.00043211      2.8268e-008    
  1.3             -2.6155e-009    0.00046671      1.146e-008     
  1.35            -2.0897e-009    0.00049832      8.29e-010      
  1.4             -1.5356e-009    0.00052831      2.602e-009     
  1.45            -1.3636e-009    0.00055625      6.691e-009     
  1.5             -2.6951e-009    0.00058191      1.1119e-008    
  1.55            1.961e-009      0.00060532      -2.0561e-008   
  1.6             1.4193e-009     0.00062755      -7.665e-009    
  1.65            1.2782e-009     0.00064787      -8.344e-009    
  1.7             2.7849e-009     0.00066679      -1.061e-008    
  1.75            4.677e-010      0.00068478      1.1272e-008    
  1.8             -1.7784e-009    0.0007012       2.3386e-008    
END_DB

BEGIN_DB
 ICCAP_VAR VS         0              
 ICCAP_VAR VB         -0.9           
 ICCAP_VAR VD         1.8            

 #VG              IG              ID              IB             
  0               2.8476e-009     -6.917e-010     -2.2969e-008   
  0.05            -1.3262e-009    1.3991e-009     2.3102e-008    
  0.1             -2.6818e-009    6.48e-011       1.1429e-008    
  0.15            1.2759e-009     -1.4092e-009    -2.0582e-008   
  0.2             2.8556e-009     2.04e-011       -1.1462e-008   
  0.25            9.564e-010      2.4401e-009     8.785e-009     
  0.3             -1.497e-009     2.3692e-009     1.2024e-008    
  0.35            -1.4037e-009    2.7521e-009     7.942e-009     
  0.4             2.5483e-009     1.6293e-008     2.7443e-008    
  0.45            1.8808e-009     7.5483e-008     -2.833e-009    
  0.5             1.2684e-009     3.4551e-007     3.48e-010      
  0.55            2.8405e-009     1.4419e-006     2.6653e-008    
  0.6             2.7104e-009     5.3525e-006     -5.111e-009    
  0.65            -1.314e-009     1.7e-005        -4.447e-009    
  0.7             -2.1592e-009    4.2658e-005     -2.5416e-008   
  0.75            -1.5848e-009    8.9247e-005     -4.2206e-008   
  0.8             -1.9618e-009    0.00015901      -6.5469e-008   
  0.85            1.5652e-009     0.00024863      -9.5872e-008   
  0.9             1.2616e-009     0.00035772      -1.02444e-007  
  0.95            2.6935e-009     0.00047956      -1.2948e-007   
  1               2.058e-009      0.00061611      -1.2847e-007   
  1.05            1.4778e-009     0.00075959      -1.3967e-007   
  1.1             1.2953e-009     0.00091016      -1.4398e-007   
  1.15            2.8218e-009     0.00106428      -1.4553e-007   
  1.2             -7.087e-010     0.0012276       -1.0938e-007   
  1.25            -1.5162e-009    0.0013905       -1.1319e-007   
  1.3             -1.3576e-009    0.0015544       -1.1693e-007   
  1.35            1.5729e-009     0.0017135       -1.388e-007    
  1.4             1.3116e-009     0.0018793       -1.2033e-007   
  1.45            2.848e-009      0.0020426       -1.1395e-007   
  1.5             2.493e-009      0.0022104       -9.852e-008    
  1.55            1.8066e-009     0.0023748       -9.418e-008    
  1.6             -1.367e-009     0.002543        -5.6772e-008   
  1.65            -2.6839e-009    0.0027073       -6.6118e-008   
  1.7             -2.3532e-009    0.0028684       -7.0481e-008   
  1.75            -1.7508e-009    0.0030311       -6.3344e-008   
  1.8             -1.4068e-009    0.0031927       -5.4812e-008   
END_DB

BEGIN_DB
 ICCAP_VAR VS         0              
 ICCAP_VAR VB         -1.8           
 ICCAP_VAR VD         0.1            

 #VG              IG              ID              IB             
  0               1.338e-009      1.4146e-009     -1.1942e-008   
  0.05            1.0884e-009     2.263e-009      -8.51e-009     
  0.1             -1.4102e-009    1.8742e-009     1.1099e-008    
  0.15            -1.0415e-009    -2.1638e-009    9.621e-009     
  0.2             1.5365e-009     -1.6788e-009    -1.1495e-008   
  0.25            8.582e-010      2.3487e-009     -8.541e-009    
  0.3             9.9e-010        2.3287e-009     8.852e-009     
  0.35            -1.47e-009      9.916e-010      2.6395e-008    
  0.4             -9.372e-010     -2.0225e-009    8.413e-009     
  0.45            1.6819e-009     -7.46e-010      -1.2143e-008   
  0.5             1.477e-009      4.9173e-009     -8.845e-009    
  0.55            -1.3238e-009    2.276e-008      -1.1765e-008   
  0.6             -1.154e-010     1.1864e-007     -8.482e-009    
  0.65            -1.3816e-009    5.542e-007      2.6248e-008    
  0.7             -2.6464e-009    2.2184e-006     -2.4976e-008   
  0.75            -9.122e-010     7.6035e-006     -1.0979e-008   
  0.8             2.8487e-009     2.0469e-005     -1.058e-008    
  0.85            2.7025e-009     4.4126e-005     -2.04e-010     
  0.9             5.62e-010       7.8388e-005     1.1361e-008    
  0.95            8.727e-010      0.00011944      2.5314e-008    
  1               -1.4204e-009    0.00016516      1.3388e-008    
  1.05            -1.3316e-009    0.00021184      9.582e-009     
  1.1             -2.5904e-009    0.00025783      1.1518e-008    
  1.15            -2.0634e-009    0.0003014       6.41e-010      
  1.2             -1.5253e-009    0.00034355      2.667e-009     
  1.25            -1.3592e-009    0.00038321      7.338e-009     
  1.3             -2.6777e-009    0.00042038      1.13e-008      
  1.35            1.9459e-009     0.00045421      -2.043e-008    
  1.4             1.4141e-009     0.00048636      -8.058e-009    
  1.45            1.2801e-009     0.0005161       -8.455e-009    
  1.5             2.7847e-009     0.00054375      -1.0992e-008   
  1.55            4.718e-010      0.00057017      1.1292e-008    
  1.6             -1.7924e-009    0.0005942       2.3708e-008    
  1.65            -1.4141e-009    0.00061609      4.477e-009     
  1.7             -1.3281e-009    0.00063647      9.413e-009     
  1.75            -2.5922e-009    0.00065543      1.1441e-008    
  1.8             -2.0582e-009    0.00067256      6.51e-010      
END_DB

BEGIN_DB
 ICCAP_VAR VS         0              
 ICCAP_VAR VB         -1.8           
 ICCAP_VAR VD         1.8            

 #VG              IG              ID              IB             
  0               -8.89e-010      -8.136e-010     1.2056e-008    
  0.05            -1.3274e-009    1.3738e-009     2.3519e-008    
  0.1             -2.6895e-009    5.42e-011       1.1305e-008    
  0.15            1.2788e-009     -1.3997e-009    -2.101e-008    
  0.2             2.855e-009      2.54e-011       -1.1021e-008   
  0.25            1.7454e-009     1.5008e-009     -2.69e-010     
  0.3             4.029e-010      2.3023e-009     1.1154e-008    
  0.35            5.791e-010      2.8493e-009     1.0271e-008    
  0.4             7.47e-010       5.3235e-009     9.482e-009     
  0.45            -1.5165e-009    1.4902e-008     -1.2094e-008   
  0.5             -1.358e-009     7.9816e-008     7.074e-009     
  0.55            -2.6406e-009    3.6463e-007     1.036e-008     
  0.6             -1.7565e-009    1.5673e-006     -1.0221e-008   
  0.65            -2.0074e-009    5.7027e-006     -1.4929e-008   
  0.7             2.2431e-009     1.7403e-005     -2.4284e-008   
  0.75            1.5867e-009     4.383e-005      -3.1093e-008   
  0.8             1.3161e-009     9.1091e-005     -5.2086e-008   
  0.85            1.2996e-009     0.00016136      -7.1157e-008   
  0.9             1.76e-009       0.00025465      -9.4853e-008   
  0.95            1.287e-009      0.00036509      -9.9728e-008   
  1               2.8057e-009     0.00048757      -1.2318e-007   
  1.05            2.3177e-009     0.0006252       -1.2283e-007   
  1.1             1.648e-009      0.00076929      -1.3222e-007   
  1.15            1.3291e-009     0.00091977      -1.3851e-007   
  1.2             2.8549e-009     0.0010742       -1.3832e-007   
  1.25            -1.4433e-009    0.0012387       -1.4575e-007   
  1.3             -1.3383e-009    0.0014002       -1.1438e-007   
  1.35            1.4639e-009     0.0015585       -1.409e-007    
  1.4             1.2892e-009     0.001722        -1.2096e-007   
  1.45            2.8133e-009     0.0018855       -1.1639e-007   
  1.5             2.3328e-009     0.0020519       -1.0058e-007   
  1.55            1.6573e-009     0.0022158       -9.748e-008    
  1.6             1.3328e-009     0.0023798       -9.497e-008    
  1.65            2.8532e-009     0.0025419       -8.827e-008    
  1.7             -2.2337e-009    0.0027105       -6.0521e-008   
  1.75            -1.6235e-009    0.0028713       -6.5076e-008   
  1.8             -1.3751e-009    0.0030326       -5.58e-008     
END_DB

