! VERSION = 6.00
BEGIN_HEADER
 ICCAP_INPUTS
  VU1        V  E GROUND SMU2 0.1 CON        0
  VU2        V  S GROUND SMU3 0.1 CON        0
  V2         V  B GROUND SMU1 0.015 CON        0
  V1         V  C GROUND SMU4 0.015 LIN        1    -1         1          201  0.01      
 ICCAP_OUTPUTS
  I1         I  C GROUND SMU4 B
  I2         I  B GROUND SMU1 B
END_HEADER

BEGIN_DB
 ICCAP_VAR VU1        0              
 ICCAP_VAR VU2        0              
 ICCAP_VAR V2         0              

 #V1              I1              I2             
  -1              -0.00012566     0.00012572     
  -0.99           -0.00012515     0.00012461     
  -0.98           -0.00012387     0.00012397     
  -0.97           -0.00012195     0.0001226      
  -0.96           -0.00012017     0.00012059     
  -0.95           -0.00011901     0.0001197      
  -0.94           -0.00011765     0.00011775     
  -0.93           -0.00011696     0.00011651     
  -0.92           -0.00011623     0.00011591     
  -0.91           -0.00011481     0.00011428     
  -0.9            -0.00011368     0.00011366     
  -0.89           -0.00011186     0.00011237     
  -0.88           -0.00011003     0.00011052     
  -0.87           -0.00010883     0.00010878     
  -0.86           -0.00010825     0.00010776     
  -0.85           -0.0001073      0.0001072      
  -0.84           -0.00010567     0.00010608     
  -0.83           -0.00010377     0.00010436     
  -0.82           -0.0001024      0.00010253     
  -0.81           -0.00010166     0.00010131     
  -0.8            -0.00010086     0.00010061     
  -0.79           -9.9401e-005    9.9363e-005    
  -0.78           -9.8375e-005    9.8216e-005    
  -0.77           -9.6847e-005    9.7115e-005    
  -0.76           -9.5e-005       9.5528e-005    
  -0.75           -9.358e-005     9.3681e-005    
  -0.74           -9.2618e-005    9.2338e-005    
  -0.73           -9.19e-005      9.1411e-005    
  -0.72           -9.0742e-005    9.0666e-005    
  -0.71           -8.9145e-005    8.9461e-005    
  -0.7            -8.737e-005     8.782e-005     
  -0.69           -8.605e-005     8.6098e-005    
  -0.68           -8.5142e-005    8.4823e-005    
  -0.67           -8.4311e-005    8.3954e-005    
  -0.66           -8.3032e-005    8.3066e-005    
  -0.65           -8.139e-005     8.1744e-005    
  -0.64           -7.9771e-005    8.007e-005     
  -0.63           -7.8559e-005    7.8506e-005    
  -0.62           -7.7724e-005    7.7349e-005    
  -0.61           -7.6757e-005    7.6535e-005    
  -0.6            -7.5384e-005    7.4984e-005    
  -0.59           -7.423e-005     7.417e-005     
  -0.58           -7.2701e-005    7.296e-005     
  -0.57           -7.1039e-005    7.1392e-005    
  -0.56           -6.9722e-005    6.9766e-005    
  -0.55           -6.8763e-005    6.8508e-005    
  -0.54           -6.785e-005     6.7565e-005    
  -0.53           -6.6594e-005    6.6609e-005    
  -0.52           -6.5026e-005    6.5313e-005    
  -0.51           -6.3494e-005    6.3739e-005    
  -0.5            -6.2267e-005    6.2227e-005    
  -0.49           -6.1347e-005    6.106e-005     
  -0.48           -6.031e-005     6.0133e-005    
  -0.47           -5.897e-005     5.866e-005     
  -0.46           -5.7798e-005    5.7738e-005    
  -0.45           -5.6364e-005    5.6548e-005    
  -0.44           -5.4764e-005    5.5059e-005    
  -0.43           -5.3462e-005    5.3511e-005    
  -0.42           -5.2416e-005    5.2238e-005    
  -0.41           -5.1452e-005    5.122e-005     
  -0.4            -5.021e-005     5.0214e-005    
  -0.39           -4.8732e-005    4.8943e-005    
  -0.38           -4.7245e-005    4.7449e-005    
  -0.37           -4.6024e-005    4.6006e-005    
  -0.36           -4.4997e-005    4.4797e-005    
  -0.35           -4.393e-005     4.379e-005     
  -0.34           -4.2625e-005    4.2679e-005    
  -0.33           -4.1138e-005    4.1355e-005    
  -0.32           -3.976e-005     3.9875e-005    
  -0.31           -3.8554e-005    3.8763e-005    
  -0.3            -3.7263e-005    3.7303e-005    
  -0.29           -3.6159e-005    3.604e-005     
  -0.28           -3.5108e-005    3.4943e-005    
  -0.27           -3.3871e-005    3.3869e-005    
  -0.26           -3.2471e-005    3.2603e-005    
  -0.25           -3.1059e-005    3.1198e-005    
  -0.24           -2.9818e-005    2.9821e-005    
  -0.23           -2.8704e-005    2.8591e-005    
  -0.22           -2.7577e-005    2.7481e-005    
  -0.21           -2.6307e-005    2.6335e-005    
  -0.2            -2.4934e-005    2.5061e-005    
  -0.19           -2.3588e-005    2.3668e-005    
  -0.18           -2.2362e-005    2.2347e-005    
  -0.17           -2.1242e-005    2.1133e-005    
  -0.16           -2.0062e-005    2.0013e-005    
  -0.15           -1.8785e-005    1.8695e-005    
  -0.14           -1.7549e-005    1.7543e-005    
  -0.13           -1.6229e-005    1.6291e-005    
  -0.12           -1.4903e-005    1.4977e-005    
  -0.11           -1.3648e-005    1.3658e-005    
  -0.1            -1.2459e-005    1.2415e-005    
  -0.09           -1.1263e-005    1.1224e-005    
  -0.08           -1.0003e-005    1.0017e-005    
  -0.07           -8.7689e-006    8.6785e-006    
  -0.06           -7.4849e-006    7.5079e-006    
  -0.05           -6.1945e-006    6.2198e-006    
  -0.04           -4.9492e-006    4.9459e-006    
  -0.03           -3.7354e-006    3.7185e-006    
  -0.02           -2.4927e-006    2.4894e-006    
  -0.01           -1.2328e-006    1.2349e-006    
  0               1.2206e-008     -1.4291e-008   
  0.01            1.2687e-006     -1.2694e-006   
  0.02            2.5208e-006     -2.5245e-006   
  0.03            3.7385e-006     -3.7629e-006   
  0.04            4.9801e-006     -4.9834e-006   
  0.05            6.257e-006      -6.2292e-006   
  0.06            7.544e-006      -7.5094e-006   
  0.07            8.7838e-006     -8.7354e-006   
  0.08            1.0048e-005     -1.00416e-005  
  0.09            1.12437e-005    -1.12965e-005  
  0.1             1.2517e-005     -1.2484e-005   
  0.11            1.3685e-005     -1.3746e-005   
  0.12            1.4921e-005     -1.4922e-005   
  0.13            1.6241e-005     -1.6165e-005   
  0.14            1.7575e-005     -1.7492e-005   
  0.15            1.8831e-005     -1.8829e-005   
  0.16            1.9985e-005     -2.0068e-005   
  0.17            2.1143e-005     -2.1218e-005   
  0.18            2.2401e-005     -2.2375e-005   
  0.19            2.3768e-005     -2.365e-005    
  0.2             2.5108e-005     -2.5025e-005   
  0.21            2.6337e-005     -2.6185e-005   
  0.22            2.7633e-005     -2.7594e-005   
  0.23            2.8797e-005     -2.8887e-005   
  0.24            2.9865e-005     -3.0017e-005   
  0.25            3.1081e-005     -3.1102e-005   
  0.26            3.2466e-005     -3.233e-005    
  0.27            3.3899e-005     -3.3736e-005   
  0.28            3.5161e-005     -3.5155e-005   
  0.29            3.6252e-005     -3.6395e-005   
  0.3             3.7325e-005     -3.7472e-005   
  0.31            3.859e-005      -3.8562e-005   
  0.32            4.0039e-005     -3.9847e-005   
  0.33            4.1457e-005     -4.13e-005     
  0.34            4.2652e-005     -4.2405e-005   
  0.35            4.3991e-005     -4.3924e-005   
  0.36            4.5129e-005     -4.5248e-005   
  0.37            4.6091e-005     -4.6344e-005   
  0.38            4.7277e-005     -4.7316e-005   
  0.39            4.8702e-005     -4.8523e-005   
  0.4             5.024e-005      -4.9979e-005   
  0.41            5.1537e-005     -5.1498e-005   
  0.42            5.2571e-005     -5.2771e-005   
  0.43            5.3557e-005     -5.3793e-005   
  0.44            5.4808e-005     -5.4792e-005   
  0.45            5.6304e-005     -5.6067e-005   
  0.46            5.7826e-005     -5.7596e-005   
  0.47            5.9042e-005     -5.9082e-005   
  0.48            6.0009e-005     -6.029e-005    
  0.49            6.1024e-005     -6.1215e-005   
  0.5             6.2343e-005     -6.2684e-005   
  0.51            6.3502e-005     -6.3569e-005   
  0.52            6.4981e-005     -6.4763e-005   
  0.53            6.6621e-005     -6.6263e-005   
  0.54            6.7948e-005     -6.7892e-005   
  0.55            6.8943e-005     -6.9189e-005   
  0.56            6.9829e-005     -7.0156e-005   
  0.57            7.1051e-005     -7.1062e-005   
  0.58            7.2631e-005     -7.2318e-005   
  0.59            7.424e-005      -7.3933e-005   
  0.6             7.5477e-005     -7.5513e-005   
  0.61            7.6376e-005     -7.6728e-005   
  0.62            7.7326e-005     -7.7599e-005   
  0.63            7.8639e-005     -7.8551e-005   
  0.64            8.0333e-005     -7.9923e-005   
  0.65            8.1876e-005     -8.1658e-005   
  0.66            8.3079e-005     -8.2627e-005   
  0.67            8.4421e-005     -8.4358e-005   
  0.68            8.5389e-005     -8.5686e-005   
  0.69            8.617e-005      -8.6605e-005   
  0.7             8.7357e-005     -8.7397e-005   
  0.71            8.8981e-005     -8.8632e-005   
  0.72            9.072e-005      -9.0293e-005   
  0.73            9.2015e-005     -9.2003e-005   
  0.74            9.2873e-005     -9.325e-005    
  0.75            9.3687e-005     -9.4054e-005   
  0.76            9.4995e-005     -9.4919e-005   
  0.77            9.6728e-005     -9.6272e-005   
  0.78            9.8417e-005     -9.8064e-005   
  0.79            9.9601e-005     -9.971e-005    
  0.8             0.00010051      -0.000100834   
  0.81            0.00010199      -0.00010138    
  0.82            0.00010356      -0.00010331    
  0.83            0.00010458      -0.00010478    
  0.84            0.00010515      -0.00010564    
  0.85            0.00010632      -0.0001063     
  0.86            0.00010816      -0.00010762    
  0.87            0.00010995      -0.00010947    
  0.88            0.00011111      -0.00011041    
  0.89            0.00011253      -0.00011238    
  0.9             0.00011333      -0.00011368    
  0.91            0.00011401      -0.00011441    
  0.92            0.00011536      -0.00011514    
  0.93            0.00011725      -0.00011659    
  0.94            0.00011896      -0.00011866    
  0.95            0.00011997      -0.0001202     
  0.96            0.00012047      -0.00012103    
  0.97            0.00012161      -0.00012161    
  0.98            0.00012345      -0.00012289    
  0.99            0.00012536      -0.0001248     
  1               0.00012654      -0.00012662    
END_DB

