! VERSION = 6.00
BEGIN_HEADER
 ICCAP_INPUTS
  VU1        V  E GROUND SMU2 0.1 CON        0
  VU2        V  S GROUND SMU3 0.1 CON        0
  V2         V  B GROUND SMU1 0.015 CON        0
  V1         V  C GROUND SMU4 0.015 LIN        1    -1         1          201  0.01      
 ICCAP_OUTPUTS
  I1         I  C GROUND SMU4 B
  I2         I  B GROUND SMU1 B
END_HEADER

BEGIN_DB
 ICCAP_VAR VU1        0              
 ICCAP_VAR VU2        0              
 ICCAP_VAR V2         0              

 #V1              I1              I2             
  -1              -0.00012862     0.00012871     
  -0.99           -0.00012756     0.0001274      
  -0.98           -0.00012689     0.00012646     
  -0.97           -0.00012568     0.00012572     
  -0.96           -0.00012396     0.00012441     
  -0.95           -0.00012216     0.00012262     
  -0.94           -0.00012096     0.00012092     
  -0.93           -0.00012022     0.00011982     
  -0.92           -0.00011918     0.00011912     
  -0.91           -0.00011761     0.00011796     
  -0.9            -0.00011576     0.00011629     
  -0.89           -0.00011438     0.00011453     
  -0.88           -0.00011354     0.00011324     
  -0.87           -0.00011263     0.00011246     
  -0.86           -0.00011128     0.00011089     
  -0.85           -0.00011006     0.0001101      
  -0.84           -0.00010838     0.0001088      
  -0.83           -0.00010665     0.00010706     
  -0.82           -0.00010543     0.00010544     
  -0.81           -0.00010463     0.00010432     
  -0.8            -0.00010357     0.00010354     
  -0.79           -0.00010204     0.00010237     
  -0.78           -0.00010026     0.00010072     
  -0.77           -9.8939e-005    9.9672e-005    
  -0.76           -9.7935e-005    9.7681e-005    
  -0.75           -9.7046e-005    9.6699e-005    
  -0.74           -9.5777e-005    9.5773e-005    
  -0.73           -9.4182e-005    9.4468e-005    
  -0.72           -9.2527e-005    9.2813e-005    
  -0.71           -9.1254e-005    9.1229e-005    
  -0.7            -9.0308e-005    9e-005         
  -0.69           -8.9293e-005    8.9076e-005    
  -0.68           -8.793e-005     8.8011e-005    
  -0.67           -8.627e-005     8.6612e-005    
  -0.66           -8.4766e-005    8.4943e-005    
  -0.65           -8.3531e-005    8.3876e-005    
  -0.64           -8.2179e-005    8.2231e-005    
  -0.63           -8.1127e-005    8.0914e-005    
  -0.62           -8.0176e-005    7.9909e-005    
  -0.61           -7.8903e-005    7.8901e-005    
  -0.6            -7.7339e-005    7.7583e-005    
  -0.59           -7.5762e-005    7.6009e-005    
  -0.58           -7.4489e-005    7.4481e-005    
  -0.57           -7.3473e-005    7.324e-005     
  -0.56           -7.243e-005     7.2252e-005    
  -0.55           -7.1082e-005    7.1141e-005    
  -0.54           -6.9505e-005    6.9777e-005    
  -0.53           -6.8044e-005    6.8208e-005    
  -0.52           -6.6818e-005    6.7102e-005    
  -0.51           -6.546e-005     6.5516e-005    
  -0.5            -6.4341e-005    6.4188e-005    
  -0.49           -6.3329e-005    6.3097e-005    
  -0.48           -6.2073e-005    6.2059e-005    
  -0.47           -6.0603e-005    6.0774e-005    
  -0.46           -5.9059e-005    5.928e-005     
  -0.45           -5.7763e-005    5.7786e-005    
  -0.44           -5.6665e-005    5.6508e-005    
  -0.43           -5.5581e-005    5.5416e-005    
  -0.42           -5.427e-005     5.43e-005      
  -0.41           -5.2781e-005    5.2974e-005    
  -0.4            -5.1323e-005    5.1457e-005    
  -0.39           -5.0079e-005    5.0042e-005    
  -0.38           -4.8995e-005    4.8816e-005    
  -0.37           -4.7837e-005    4.7753e-005    
  -0.36           -4.6504e-005    4.6334e-005    
  -0.35           -4.5244e-005    4.5226e-005    
  -0.34           -4.3824e-005    4.3943e-005    
  -0.33           -4.2351e-005    4.2514e-005    
  -0.32           -4.1051e-005    4.1066e-005    
  -0.31           -3.9891e-005    3.9788e-005    
  -0.3            -3.8755e-005    3.8639e-005    
  -0.29           -3.7456e-005    3.7476e-005    
  -0.28           -3.6039e-005    3.6165e-005    
  -0.27           -3.4633e-005    3.473e-005     
  -0.26           -3.3364e-005    3.3349e-005    
  -0.25           -3.221e-005     3.2097e-005    
  -0.24           -3.1011e-005    3.0961e-005    
  -0.23           -2.969e-005     2.9586e-005    
  -0.22           -2.8423e-005    2.8413e-005    
  -0.21           -2.705e-005     2.713e-005     
  -0.2            -2.5659e-005    2.5759e-005    
  -0.19           -2.4359e-005    2.4377e-005    
  -0.18           -2.3145e-005    2.309e-005     
  -0.17           -2.194e-005     2.1878e-005    
  -0.16           -2.0657e-005    2.0669e-005    
  -0.15           -1.9298e-005    1.9363e-005    
  -0.14           -1.7944e-005    1.8001e-005    
  -0.13           -1.6661e-005    1.6663e-005    
  -0.12           -1.5448e-005    1.5404e-005    
  -0.11           -1.4199e-005    1.4178e-005    
  -0.1            -1.2889e-005    1.2851e-005    
  -0.09           -1.1611e-005    1.161e-005     
  -0.08           -1.0289e-005    1.032e-005     
  -0.07           -9.0242e-006    8.9726e-006    
  -0.06           -7.6992e-006    7.7218e-006    
  -0.05           -6.3928e-006    6.3983e-006    
  -0.04           -5.1219e-006    5.1136e-006    
  -0.03           -3.86e-006      3.8538e-006    
  -0.02           -2.565e-006     2.5681e-006    
  -0.01           -1.2669e-006    1.2675e-006    
  0               1.3959e-008     -1.5232e-008   
  0.01            1.3089e-006     -1.3084e-006   
  0.02            2.5967e-006     -2.6039e-006   
  0.03            3.8615e-006     -3.8781e-006   
  0.04            5.1484e-006     -5.1462e-006   
  0.05            6.4579e-006     -6.435e-006    
  0.06            7.7733e-006     -7.764e-006    
  0.07            9.039e-006      -9.0596e-006   
  0.08            1.02808e-005    -1.03244e-005  
  0.09            1.1576e-005     -1.163e-005    
  0.1             1.2852e-005     -1.2854e-005   
  0.11            1.4159e-005     -1.412e-005    
  0.12            1.552e-005      -1.5445e-005   
  0.13            1.6827e-005     -1.6808e-005   
  0.14            1.8072e-005     -1.8116e-005   
  0.15            1.928e-005      -1.9347e-005   
  0.16            2.0547e-005     -2.0546e-005   
  0.17            2.1911e-005     -2.1831e-005   
  0.18            2.3287e-005     -2.3199e-005   
  0.19            2.4578e-005     -2.4577e-005   
  0.2             2.5766e-005     -2.5848e-005   
  0.21            2.697e-005      -2.7046e-005   
  0.22            2.8275e-005     -2.8245e-005   
  0.23            2.9681e-005     -2.9563e-005   
  0.24            3.1048e-005     -3.0975e-005   
  0.25            3.2324e-005     -3.218e-005    
  0.26            3.3644e-005     -3.3614e-005   
  0.27            3.4843e-005     -3.4933e-005   
  0.28            3.5981e-005     -3.6115e-005   
  0.29            3.7241e-005     -3.7248e-005   
  0.3             3.8656e-005     -3.8526e-005   
  0.31            4.0099e-005     -3.9958e-005   
  0.32            4.1395e-005     -4.1393e-005   
  0.33            4.2529e-005     -4.2665e-005   
  0.34            4.3672e-005     -4.3793e-005   
  0.35            4.4985e-005     -4.4948e-005   
  0.36            4.6443e-005     -4.6265e-005   
  0.37            4.7866e-005     -4.7746e-005   
  0.38            4.9128e-005     -4.8911e-005   
  0.39            5.0475e-005     -5.0428e-005   
  0.4             5.1639e-005     -5.1761e-005   
  0.41            5.2683e-005     -5.2891e-005   
  0.42            5.3933e-005     -5.3956e-005   
  0.43            5.5395e-005     -5.5226e-005   
  0.44            5.6918e-005     -5.6712e-005   
  0.45            5.8233e-005     -5.8213e-005   
  0.46            5.9314e-005     -5.9491e-005   
  0.47            6.0389e-005     -6.0561e-005   
  0.48            6.1688e-005     -6.1659e-005   
  0.49            6.3211e-005     -6.2983e-005   
  0.5             6.4703e-005     -6.4516e-005   
  0.51            6.5963e-005     -6.6003e-005   
  0.52            6.6986e-005     -6.723e-005    
  0.53            6.809e-005      -6.8224e-005   
  0.54            6.9424e-005     -6.9698e-005   
  0.55            7.0664e-005     -7.0702e-005   
  0.56            7.2167e-005     -7.195e-005    
  0.57            7.3764e-005     -7.3491e-005   
  0.58            7.5087e-005     -7.5068e-005   
  0.59            7.6118e-005     -7.6344e-005   
  0.6             7.7127e-005     -7.7366e-005   
  0.61            7.8445e-005     -7.8402e-005   
  0.62            8.0028e-005     -7.9744e-005   
  0.63            8.1574e-005     -8.1353e-005   
  0.64            8.2814e-005     -8.2874e-005   
  0.65            8.3771e-005     -8.408e-005    
  0.66            8.4846e-005     -8.5001e-005   
  0.67            8.6201e-005     -8.6531e-005   
  0.68            8.7412e-005     -8.7457e-005   
  0.69            8.8964e-005     -8.8711e-005   
  0.7             9.0634e-005     -9.0307e-005   
  0.71            9.1963e-005     -9.195e-005    
  0.72            9.2934e-005     -9.3218e-005   
  0.73            9.3886e-005     -9.4172e-005   
  0.74            9.5204e-005     -9.5172e-005   
  0.75            9.686e-005      -9.6514e-005   
  0.76            9.8464e-005     -9.8184e-005   
  0.77            9.9701e-005     -9.9774e-005   
  0.78            0.00010075      -0.000100972   
  0.79            0.0001022       -0.00010172    
  0.8             0.00010372      -0.00010351    
  0.81            0.00010483      -0.00010494    
  0.82            0.0001056       -0.00010591    
  0.83            0.00010684      -0.00010678    
  0.84            0.00010856      -0.00010811    
  0.85            0.00011024      -0.00010986    
  0.86            0.00011144      -0.00011089    
  0.87            0.00011285      -0.00011269    
  0.88            0.00011373      -0.00011401    
  0.89            0.00011459      -0.00011484    
  0.9             0.00011601      -0.00011579    
  0.91            0.00011781      -0.00011725    
  0.92            0.00011938      -0.00011916    
  0.93            0.00012037      -0.00012058    
  0.94            0.00012112      -0.00012148    
  0.95            0.00012236      -0.00012228    
  0.96            0.00012415      -0.00012364    
  0.97            0.00012589      -0.0001255     
  0.98            0.00012712      -0.00012649    
  0.99            0.00012849      -0.00012835    
  1               0.00012932      -0.00012963    
END_DB

