! VERSION = 6.00
BEGIN_HEADER
 ICCAP_INPUTS
  VU1        V  E GROUND SMU2 0.1 CON        0
  VU2        V  S GROUND SMU3 0.1 CON        0
  V2         V  B GROUND SMU1 0.015 CON        0
  V1         V  C GROUND SMU4 0.015 LIN        1    -0.5       0.5        101  0.01      
 ICCAP_OUTPUTS
  I1         I  C GROUND SMU4 B
  I2         I  B GROUND SMU1 B
END_HEADER

BEGIN_DB
 ICCAP_VAR VU1        0              
 ICCAP_VAR VU2        0              
 ICCAP_VAR V2         0              

 #V1              I1              I2             
  -0.5            -0.00089832     0.00089847     
  -0.49           -0.00087818     0.00087839     
  -0.48           -0.00085817     0.000858       
  -0.47           -0.00083863     0.00083833     
  -0.46           -0.00081877     0.00081884     
  -0.45           -0.00079877     0.00079926     
  -0.44           -0.0007788      0.00077901     
  -0.43           -0.00075916     0.00075976     
  -0.42           -0.00073974     0.00073979     
  -0.41           -0.00072079     0.00072067     
  -0.4            -0.00070201     0.00070191     
  -0.39           -0.0006827      0.00068294     
  -0.38           -0.00066334     0.00066383     
  -0.37           -0.00064431     0.00064459     
  -0.36           -0.00062575     0.00062566     
  -0.35           -0.00060747     0.00060728     
  -0.34           -0.00058888     0.00058902     
  -0.33           -0.00057019     0.00057053     
  -0.32           -0.0005518      0.00055201     
  -0.31           -0.0005336      0.00053395     
  -0.3            -0.00051527     0.00051534     
  -0.29           -0.00049751     0.00049735     
  -0.28           -0.00047984     0.00047983     
  -0.27           -0.00046179     0.00046198     
  -0.26           -0.0004438      0.00044411     
  -0.25           -0.00042589     0.00042608     
  -0.24           -0.00040849     0.00040844     
  -0.23           -0.00039111     0.00039103     
  -0.22           -0.00037359     0.0003737      
  -0.21           -0.00035603     0.00035625     
  -0.2            -0.00033865     0.0003388      
  -0.19           -0.00032127     0.00032157     
  -0.18           -0.00030405     0.00030411     
  -0.17           -0.00028693     0.00028692     
  -0.16           -0.00027003     0.00027012     
  -0.15           -0.00025286     0.00025286     
  -0.14           -0.00023587     0.00023594     
  -0.13           -0.00021872     0.0002189      
  -0.12           -0.00020177     0.00020192     
  -0.11           -0.00018485     0.00018491     
  -0.1            -0.00016799     0.00016796     
  -0.09           -0.00015114     0.00015116     
  -0.08           -0.00013418     0.00013429     
  -0.07           -0.00011737     0.00011749     
  -0.06           -0.00010055     0.00010061     
  -0.05           -8.3687e-005    8.3733e-005    
  -0.04           -6.6895e-005    6.6877e-005    
  -0.03           -5.0186e-005    5.0211e-005    
  -0.02           -3.3345e-005    3.3356e-005    
  -0.01           -1.6508e-005    1.6519e-005    
  0               1.9977e-008     7.4332e-007    
  0.01            1.7043e-005     -1.7045e-005   
  0.02            3.394e-005      -3.389e-005    
  0.03            5.0683e-005     -5.0669e-005   
  0.04            6.7547e-005     -6.7573e-005   
  0.05            8.4387e-005     -8.4448e-005   
  0.06            0.00010156      -0.000101325   
  0.07            0.00011844      -0.00011833    
  0.08            0.00013539      -0.00013537    
  0.09            0.00015238      -0.00015236    
  0.1             0.00016946      -0.00016947    
  0.11            0.00018639      -0.00018637    
  0.12            0.00020373      -0.00020355    
  0.13            0.00022103      -0.00022077    
  0.14            0.00023833      -0.00023808    
  0.15            0.00025567      -0.00025558    
  0.16            0.00027281      -0.00027284    
  0.17            0.00029005      -0.00029013    
  0.18            0.00030755      -0.00030742    
  0.19            0.00032528      -0.00032503    
  0.2             0.00034292      -0.00034276    
  0.21            0.00036047      -0.00036047    
  0.22            0.00037798      -0.00037808    
  0.23            0.0003958       -0.00039571    
  0.24            0.00041375      -0.00041352    
  0.25            0.00043183      -0.00043161    
  0.26            0.00045         -0.00044964    
  0.27            0.00046814      -0.000468      
  0.28            0.0004861       -0.00048629    
  0.29            0.00050399      -0.00050421    
  0.3             0.00052244      -0.00052267    
  0.31            0.00054094      -0.00054087    
  0.32            0.00055973      -0.00055935    
  0.33            0.00057858      -0.00057828    
  0.34            0.00059725      -0.00059725    
  0.35            0.00061582      -0.00061599    
  0.36            0.0006345       -0.00063449    
  0.37            0.00065353      -0.0006533     
  0.38            0.00067313      -0.0006727     
  0.39            0.0006924       -0.00069224    
  0.4             0.00071138      -0.00071153    
  0.41            0.00073033      -0.00073055    
  0.42            0.00074999      -0.0007503     
  0.43            0.00076945      -0.00076951    
  0.44            0.00078958      -0.00078921    
  0.45            0.00080986      -0.00080936    
  0.46            0.00082959      -0.00082956    
  0.47            0.00084913      -0.00084948    
  0.48            0.00086902      -0.000869      
  0.49            0.00088961      -0.00088928    
  0.5             0.00091045      -0.00090984    
END_DB

