! VERSION = 6.00
BEGIN_HEADER
 ICCAP_INPUTS
  VU1        V  E GROUND SMU2 0.1 CON        0
  VU2        V  S GROUND SMU3 0.1 CON        0
  V2         V  B GROUND SMU1 0.015 CON        0
  V1         V  C GROUND SMU4 0.015 LIN        1    -1         1          201  0.01      
 ICCAP_OUTPUTS
  I1         I  C GROUND SMU4 B
  I2         I  B GROUND SMU1 B
END_HEADER

BEGIN_DB
 ICCAP_VAR VU1        0              
 ICCAP_VAR VU2        0              
 ICCAP_VAR V2         0              

 #V1              I1              I2             
  -1              -0.00093716     0.00093702     
  -0.99           -0.00092921     0.0009283      
  -0.98           -0.00091948     0.00091771     
  -0.97           -0.00090983     0.00090995     
  -0.96           -0.00089861     0.00090015     
  -0.95           -0.0008877      0.00088891     
  -0.94           -0.00087861     0.00088042     
  -0.93           -0.00086855     0.00086895     
  -0.92           -0.00086069     0.00085938     
  -0.91           -0.00085268     0.00085166     
  -0.9            -0.00084299     0.00084345     
  -0.89           -0.00083155     0.00083326     
  -0.88           -0.00082099     0.0008217      
  -0.87           -0.00081264     0.00081186     
  -0.86           -0.00080504     0.00080367     
  -0.85           -0.00079581     0.00079595     
  -0.84           -0.00078476     0.0007862      
  -0.83           -0.00077382     0.0007749      
  -0.82           -0.00076482     0.00076646     
  -0.81           -0.00075499     0.00075532     
  -0.8            -0.00074698     0.00074581     
  -0.79           -0.00073896     0.00073804     
  -0.78           -0.00072934     0.00072793     
  -0.77           -0.00072022     0.0007201      
  -0.76           -0.00070955     0.00071072     
  -0.75           -0.00069857     0.00069983     
  -0.74           -0.00068935     0.00068919     
  -0.73           -0.00068152     0.0006803      
  -0.72           -0.00067301     0.00067247     
  -0.71           -0.00066283     0.00066355     
  -0.7            -0.0006518      0.00065325     
  -0.69           -0.00064219     0.00064231     
  -0.68           -0.00063367     0.00063292     
  -0.67           -0.00062552     0.00062449     
  -0.66           -0.00061608     0.00061631     
  -0.65           -0.00060532     0.00060649     
  -0.64           -0.000595       0.00059565     
  -0.63           -0.00058631     0.00058579     
  -0.62           -0.00057846     0.0005774      
  -0.61           -0.0005692      0.00056931     
  -0.6            -0.00055882     0.0005598      
  -0.59           -0.00054845     0.00054927     
  -0.58           -0.00053933     0.00054048     
  -0.57           -0.0005298      0.00053006     
  -0.56           -0.0005213      0.00052063     
  -0.55           -0.00051282     0.00051226     
  -0.54           -0.00050341     0.00050364     
  -0.53           -0.00049284     0.00049393     
  -0.52           -0.0004828      0.00048316     
  -0.51           -0.00047408     0.0004737      
  -0.5            -0.00046588     0.00046509     
  -0.49           -0.00045658     0.00045669     
  -0.48           -0.00044635     0.00044725     
  -0.47           -0.00043625     0.0004368      
  -0.46           -0.00042713     0.000428       
  -0.45           -0.00041766     0.00041778     
  -0.44           -0.00040909     0.00040848     
  -0.43           -0.00040045     0.00040008     
  -0.42           -0.00039086     0.00039018     
  -0.41           -0.00038181     0.0003818      
  -0.4            -0.00037182     0.00037247     
  -0.39           -0.00036177     0.00036234     
  -0.38           -0.00035248     0.00035242     
  -0.37           -0.00034404     0.00034349     
  -0.36           -0.00033506     0.00033493     
  -0.35           -0.00032539     0.00032581     
  -0.34           -0.00031529     0.00031596     
  -0.33           -0.00030598     0.00030605     
  -0.32           -0.00029719     0.0002968      
  -0.31           -0.00028843     0.00028826     
  -0.3            -0.00027895     0.00027854     
  -0.29           -0.00026971     0.0002698      
  -0.28           -0.00026002     0.00026051     
  -0.27           -0.0002502      0.00025059     
  -0.26           -0.00024103     0.00024162     
  -0.25           -0.00023157     0.00023171     
  -0.24           -0.00022274     0.00022249     
  -0.23           -0.00021385     0.00021362     
  -0.22           -0.00020447     0.00020462     
  -0.21           -0.0001947      0.0001952      
  -0.2            -0.00018522     0.0001855      
  -0.19           -0.0001761      0.00017602     
  -0.18           -0.00016719     0.00016697     
  -0.17           -0.0001579      0.00015802     
  -0.16           -0.00014842     0.00014874     
  -0.15           -0.00013882     0.00013907     
  -0.14           -0.00012965     0.00013002     
  -0.13           -0.00012029     0.0001204      
  -0.12           -0.00011124     0.00011117     
  -0.11           -0.0001021      0.0001021      
  -0.1            -9.2819e-005    9.2509e-005    
  -0.09           -8.3375e-005    8.3516e-005    
  -0.08           -7.3934e-005    7.4034e-005    
  -0.07           -6.4733e-005    6.4726e-005    
  -0.06           -5.559e-005     5.547e-005     
  -0.05           -4.6337e-005    4.6313e-005    
  -0.04           -3.6983e-005    3.693e-005     
  -0.03           -2.7771e-005    2.7771e-005    
  -0.02           -1.8425e-005    1.8452e-005    
  -0.01           -9.1294e-006    9.1015e-006    
  0               8.8303e-008     -9.6924e-008   
  0.01            9.4104e-006     -9.4522e-006   
  0.02            1.8698e-005     -1.8726e-005   
  0.03            2.799e-005      -2.7902e-005   
  0.04            3.7315e-005     -3.7294e-005   
  0.05            4.6573e-005     -4.6614e-005   
  0.06            5.5746e-005     -5.587e-005    
  0.07            6.4932e-005     -6.4939e-005   
  0.08            7.4313e-005     -7.419e-005    
  0.09            8.3791e-005     -8.3616e-005   
  0.1             9.3128e-005     -9.3081e-005   
  0.11            0.00010221      -0.000102342   
  0.12            0.00011162      -0.00011131    
  0.13            0.00012109      -0.00012086    
  0.14            0.0001304       -0.00013002    
  0.15            0.00013976      -0.00013964    
  0.16            0.00014872      -0.00014885    
  0.17            0.00015773      -0.00015792    
  0.18            0.00016711      -0.00016733    
  0.19            0.00017633      -0.00017632    
  0.2             0.0001859       -0.0001855     
  0.21            0.00019562      -0.00019521    
  0.22            0.00020485      -0.00020484    
  0.23            0.00021363      -0.000214      
  0.24            0.00022263      -0.00022266    
  0.25            0.00023225      -0.00023185    
  0.26            0.00024216      -0.00024159    
  0.27            0.00025154      -0.00025144    
  0.28            0.00026035      -0.00026073    
  0.29            0.00026913      -0.00026932    
  0.3             0.00027848      -0.000279      
  0.31            0.00028772      -0.00028766    
  0.32            0.00029768      -0.00029711    
  0.33            0.00030749      -0.00030695    
  0.34            0.00031673      -0.00031594    
  0.35            0.00032625      -0.00032602    
  0.36            0.00033498      -0.0003354     
  0.37            0.00034355      -0.00034395    
  0.38            0.00035302      -0.00035273    
  0.39            0.00036306      -0.00036227    
  0.4             0.00037289      -0.00037259    
  0.41            0.0003818       -0.00038217    
  0.42            0.00039021      -0.00039081    
  0.43            0.00039937      -0.00039938    
  0.44            0.00040957      -0.00040878    
  0.45            0.00041964      -0.00041893    
  0.46            0.00042881      -0.00042782    
  0.47            0.00043833      -0.00043812    
  0.48            0.00044696      -0.00044752    
  0.49            0.00045542      -0.00045602    
  0.5             0.00046496      -0.00046464    
  0.51            0.00047539      -0.00047429    
  0.52            0.00048527      -0.00048486    
  0.53            0.00049409      -0.00049459    
  0.54            0.00050206      -0.00050299    
  0.55            0.00051147      -0.0005114     
  0.56            0.00052182      -0.00052088    
  0.57            0.00053217      -0.00053146    
  0.58            0.00054147      -0.00054017    
  0.59            0.00055089      -0.00055077    
  0.6             0.00055931      -0.00056009    
  0.61            0.00056756      -0.00056836    
  0.62            0.0005772       -0.00057835    
  0.63            0.00058631      -0.00058632    
  0.64            0.00059671      -0.00059565    
  0.65            0.00060737      -0.00060629    
  0.66            0.00061663      -0.00061686    
  0.67            0.00062443      -0.00062566    
  0.68            0.00063324      -0.00063349    
  0.69            0.00064349      -0.00064264    
  0.7             0.00065452      -0.000653      
  0.71            0.00066394      -0.00066381    
  0.72            0.00067199      -0.00067315    
  0.73            0.0006803       -0.00068101    
  0.74            0.00068991      -0.00069114    
  0.75            0.00069913      -0.00069914    
  0.76            0.00070975      -0.00070857    
  0.77            0.00072053      -0.00071939    
  0.78            0.00072985      -0.00072999    
  0.79            0.00073762      -0.00073894    
  0.8             0.00074612      -0.00074652    
  0.81            0.00075628      -0.00075531    
  0.82            0.00076762      -0.00076605    
  0.83            0.00077758      -0.00077738    
  0.84            0.00078562      -0.00078673    
  0.85            0.00079349      -0.0007946     
  0.86            0.00080338      -0.00080489    
  0.87            0.00081233      -0.00081244    
  0.88            0.00082319      -0.00082196    
  0.89            0.00083434      -0.00083292    
  0.9             0.00084374      -0.00084398    
  0.91            0.00085144      -0.00085297    
  0.92            0.00085985      -0.00086044    
  0.93            0.00087023      -0.00086917    
  0.94            0.00088175      -0.00087995    
  0.95            0.00089153      -0.00089133    
  0.96            0.00089927      -0.00090056    
  0.97            0.00090731      -0.00090838    
  0.98            0.00091719      -0.00091897    
  0.99            0.00092629      -0.00092645    
  1               0.00093754      -0.00093616    
END_DB

