! VERSION = 6.00
BEGIN_HEADER
 ICCAP_INPUTS
  VU1        V  E GROUND SMU2 0.1 CON        0
  VU2        V  S GROUND SMU3 0.1 CON        0
  V2         V  B GROUND SMU1 0.015 CON        0
  V1         V  C GROUND SMU4 0.015 LIN        1    -1         1          201  0.01      
 ICCAP_OUTPUTS
  I1         I  C GROUND SMU4 B
  I2         I  B GROUND SMU1 B
END_HEADER

BEGIN_DB
 ICCAP_VAR VU1        0              
 ICCAP_VAR VU2        0              
 ICCAP_VAR V2         0              

 #V1              I1              I2             
  -1              -0.0002586      0.00025866     
  -0.99           -0.00025658     0.00025618     
  -0.98           -0.00025467     0.00025427     
  -0.97           -0.00025198     0.0002522      
  -0.96           -0.00024862     0.00024934     
  -0.95           -0.00024566     0.00024596     
  -0.94           -0.00024339     0.00024314     
  -0.93           -0.00024158     0.00024104     
  -0.92           -0.00023905     0.00023912     
  -0.91           -0.00023587     0.00023647     
  -0.9            -0.00023271     0.00023319     
  -0.89           -0.00023024     0.00023094     
  -0.88           -0.00022751     0.00022769     
  -0.87           -0.00022542     0.00022507     
  -0.86           -0.00022341     0.00022307     
  -0.85           -0.00022072     0.00022096     
  -0.84           -0.00021746     0.00021812     
  -0.83           -0.00021455     0.00021481     
  -0.82           -0.0002123      0.00021207     
  -0.81           -0.00021035     0.00020994     
  -0.8            -0.00020779     0.00020791     
  -0.79           -0.00020469     0.00020521     
  -0.78           -0.00020164     0.00020206     
  -0.77           -0.00019914     0.00019977     
  -0.76           -0.00019643     0.00019659     
  -0.75           -0.00019431     0.000194       
  -0.74           -0.0001922      0.00019194     
  -0.73           -0.00018953     0.00018973     
  -0.72           -0.00018633     0.00018692     
  -0.71           -0.00018347     0.00018372     
  -0.7            -0.00018119     0.00018101     
  -0.69           -0.00017914     0.00017879     
  -0.68           -0.00017657     0.00017668     
  -0.67           -0.00017356     0.00017403     
  -0.66           -0.00017058     0.00017095     
  -0.65           -0.00016808     0.00016861     
  -0.64           -0.00016538     0.00016552     
  -0.63           -0.00016316     0.00016294     
  -0.62           -0.000161       0.00016084     
  -0.61           -0.00015832     0.00015797     
  -0.6            -0.0001558      0.00015586     
  -0.59           -0.00015289     0.00015326     
  -0.58           -0.00014988     0.00015028     
  -0.57           -0.00014733     0.00014736     
  -0.56           -0.00014516     0.00014488     
  -0.55           -0.00014282     0.00014274     
  -0.54           -0.00014007     0.0001403      
  -0.53           -0.00013702     0.00013749     
  -0.52           -0.00013434     0.00013449     
  -0.51           -0.00013203     0.00013188     
  -0.5            -0.00012979     0.00012964     
  -0.49           -0.00012716     0.00012733     
  -0.48           -0.00012419     0.00012462     
  -0.47           -0.00012139     0.0001216      
  -0.46           -0.00011899     0.00011891     
  -0.45           -0.00011678     0.00011659     
  -0.44           -0.0001142      0.00011431     
  -0.43           -0.00011132     0.00011165     
  -0.42           -0.00010848     0.00010875     
  -0.41           -0.00010593     0.00010634     
  -0.4            -0.00010333     0.00010344     
  -0.39           -0.00010096     0.00010086     
  -0.38           -9.8633e-005    9.839e-005     
  -0.37           -9.605e-005     9.6072e-005    
  -0.36           -9.3237e-005    9.3438e-005    
  -0.35           -9.0428e-005    9.0607e-005    
  -0.34           -8.7861e-005    8.7841e-005    
  -0.33           -8.5502e-005    8.5302e-005    
  -0.32           -8.3082e-005    8.2972e-005    
  -0.31           -8.042e-005     8.0224e-005    
  -0.3            -7.7884e-005    7.7854e-005    
  -0.29           -7.5155e-005    7.5283e-005    
  -0.28           -7.2362e-005    7.2553e-005    
  -0.27           -6.9738e-005    6.9771e-005    
  -0.26           -6.728e-005     6.7173e-005    
  -0.25           -6.4861e-005    6.4726e-005    
  -0.24           -6.2283e-005    6.2299e-005    
  -0.23           -5.955e-005     5.9681e-005    
  -0.22           -5.6822e-005    5.6936e-005    
  -0.21           -5.4238e-005    5.4235e-005    
  -0.2            -5.1796e-005    5.1687e-005    
  -0.19           -4.9306e-005    4.9249e-005    
  -0.18           -4.6682e-005    4.6719e-005    
  -0.17           -4.3952e-005    4.4076e-005    
  -0.16           -4.131e-005     4.1381e-005    
  -0.15           -3.875e-005     3.8859e-005    
  -0.14           -3.6135e-005    3.616e-005     
  -0.13           -3.3606e-005    3.3567e-005    
  -0.12           -3.1121e-005    3.1058e-005    
  -0.11           -2.8525e-005    2.8534e-005    
  -0.1            -2.5871e-005    2.5928e-005    
  -0.09           -2.3216e-005    2.327e-005     
  -0.08           -2.0625e-005    2.0633e-005    
  -0.07           -1.8098e-005    1.8071e-005    
  -0.06           -1.5538e-005    1.5537e-005    
  -0.05           -1.2928e-005    1.2951e-005    
  -0.04           -1.0291e-005    1.0332e-005    
  -0.03           -7.7414e-006    7.732e-006     
  -0.02           -5.1294e-006    5.1376e-006    
  -0.01           -2.5393e-006    2.5379e-006    
  0               3.2913e-008     -2.9205e-008   
  0.01            2.629e-006      -2.6204e-006   
  0.02            5.2096e-006     -5.2076e-006   
  0.03            7.7922e-006     -7.7762e-006   
  0.04            1.04173e-005    -1.03874e-005  
  0.05            1.3023e-005     -1.2958e-005   
  0.06            1.5629e-005     -1.5614e-005   
  0.07            1.8166e-005     -1.8198e-005   
  0.08            2.0711e-005     -2.0748e-005   
  0.09            2.3306e-005     -2.3292e-005   
  0.1             2.5962e-005     -2.589e-005    
  0.11            2.8597e-005     -2.8522e-005   
  0.12            3.1184e-005     -3.1193e-005   
  0.13            3.3699e-005     -3.3772e-005   
  0.14            3.6225e-005     -3.6259e-005   
  0.15            3.8829e-005     -3.893e-005    
  0.16            4.1381e-005     -4.1388e-005   
  0.17            4.4061e-005     -4.3962e-005   
  0.18            4.6784e-005     -4.6661e-005   
  0.19            4.9392e-005     -4.938e-005    
  0.2             5.1856e-005     -5.1958e-005   
  0.21            5.4321e-005     -5.4427e-005   
  0.22            5.6924e-005     -5.6898e-005   
  0.23            5.966e-005      -5.9514e-005   
  0.24            6.2365e-005     -6.2231e-005   
  0.25            6.4941e-005     -6.4964e-005   
  0.26            6.7369e-005     -6.7525e-005   
  0.27            6.9831e-005     -6.9915e-005   
  0.28            7.2455e-005     -7.2642e-005   
  0.29            7.4985e-005     -7.5006e-005   
  0.3             7.7734e-005     -7.7574e-005   
  0.31            8.0544e-005     -8.0345e-005   
  0.32            8.3171e-005     -8.315e-005    
  0.33            8.5552e-005     -8.5725e-005   
  0.34            8.7936e-005     -8.8114e-005   
  0.35            9.0544e-005     -9.0515e-005   
  0.36            9.3358e-005     -9.3135e-005   
  0.37            9.6143e-005     -9.595e-005    
  0.38            9.8708e-005     -9.8747e-005   
  0.39            0.00010116      -0.000101285   
  0.4             0.00010389      -0.00010349    
  0.41            0.0001066       -0.00010643    
  0.42            0.00010906      -0.00010913    
  0.43            0.0001113       -0.00011149    
  0.44            0.00011387      -0.00011378    
  0.45            0.00011677      -0.00011641    
  0.46            0.00011962      -0.00011932    
  0.47            0.00012217      -0.00012174    
  0.48            0.00012484      -0.00012469    
  0.49            0.0001271       -0.00012729    
  0.5             0.00012938      -0.00012954    
  0.51            0.00013205      -0.0001323     
  0.52            0.00013456      -0.0001345     
  0.53            0.00013747      -0.0001371     
  0.54            0.00014038      -0.00014001    
  0.55            0.00014295      -0.00014291    
  0.56            0.00014512      -0.00014542    
  0.57            0.0001475       -0.00014753    
  0.58            0.0001503       -0.00014997    
  0.59            0.00015337      -0.00015288    
  0.6             0.00015603      -0.0001559     
  0.61            0.00015822      -0.00015846    
  0.62            0.00016047      -0.00016064    
  0.63            0.00016312      -0.00016346    
  0.64            0.00016562      -0.00016556    
  0.65            0.0001686       -0.00016816    
  0.66            0.00017165      -0.00017119    
  0.67            0.00017417      -0.00017416    
  0.68            0.00017624      -0.00017659    
  0.69            0.00017854      -0.0001786     
  0.7             0.00018143      -0.00018106    
  0.71            0.00018462      -0.00018407    
  0.72            0.00018725      -0.00018713    
  0.73            0.00018936      -0.00018968    
  0.74            0.00019155      -0.00019177    
  0.75            0.00019423      -0.00019464    
  0.76            0.0001967       -0.00019666    
  0.77            0.00019976      -0.00019927    
  0.78            0.00020287      -0.00020236    
  0.79            0.00020539      -0.00020543    
  0.8             0.00020736      -0.00020781    
  0.81            0.00020964      -0.00020969    
  0.82            0.00021257      -0.00021213    
  0.83            0.00021585      -0.0002152     
  0.84            0.00021849      -0.00021837    
  0.85            0.00022054      -0.00022093    
  0.86            0.00022264      -0.00022291    
  0.87            0.00022534      -0.00022585    
  0.88            0.00022779      -0.00022776    
  0.89            0.00023097      -0.0002304     
  0.9             0.00023416      -0.00023359    
  0.91            0.00023665      -0.00023588    
  0.92            0.00023939      -0.00023924    
  0.93            0.00024149      -0.00024185    
  0.94            0.00024342      -0.00024383    
  0.95            0.0002461       -0.00024588    
  0.96            0.00024942      -0.00024867    
  0.97            0.00025242      -0.0002521     
  0.98            0.00025471      -0.00025494    
  0.99            0.00025648      -0.00025709    
  1               0.00025895      -0.00025892    
END_DB

