! VERSION = 6.00
BEGIN_HEADER
 ICCAP_INPUTS
  VU1        V  E GROUND SMU2 0.1 CON        0
  VU2        V  S GROUND SMU3 0.1 CON        0
  V2         V  B GROUND SMU4 0.015 CON        0
  V1         V  C GROUND SMU1 0.015 LIN        1    -1         1          201  0.01      
 ICCAP_OUTPUTS
  I1         I  C GROUND SMU1 B
  I2         I  B GROUND SMU4 B
END_HEADER

BEGIN_DB
 ICCAP_VAR VU1        0              
 ICCAP_VAR VU2        0              
 ICCAP_VAR V2         0              

 #V1              I1              I2             
  -1              -0.00012837     0.00012853     
  -0.99           -0.00012723     0.00012782     
  -0.98           -0.00012647     0.00012663     
  -0.97           -0.00012515     0.00012488     
  -0.96           -0.00012336     0.00012312     
  -0.95           -0.00012235     0.00012194     
  -0.94           -0.00012049     0.00012053     
  -0.93           -0.00011919     0.00011963     
  -0.92           -0.00011837     0.00011882     
  -0.91           -0.00011744     0.00011745     
  -0.9            -0.00011598     0.00011565     
  -0.89           -0.00011414     0.0001141      
  -0.88           -0.0001127      0.00011307     
  -0.87           -0.00011176     0.00011229     
  -0.86           -0.0001109      0.00011105     
  -0.85           -0.00010959     0.00010935     
  -0.84           -0.00010787     0.0001077      
  -0.83           -0.00010681     0.00010647     
  -0.82           -0.00010505     0.00010509     
  -0.81           -0.00010376     0.00010415     
  -0.8            -0.00010285     0.00010324     
  -0.79           -0.00010185     0.00010191     
  -0.78           -0.00010047     0.00010018     
  -0.77           -9.9137e-005    9.8624e-005    
  -0.76           -9.7834e-005    9.7439e-005    
  -0.75           -9.6109e-005    9.6029e-005    
  -0.74           -9.4757e-005    9.4988e-005    
  -0.73           -9.3726e-005    9.4098e-005    
  -0.72           -9.2812e-005    9.2871e-005    
  -0.71           -9.1552e-005    9.1313e-005    
  -0.7            -8.9962e-005    8.9661e-005    
  -0.69           -8.8356e-005    8.8362e-005    
  -0.68           -8.7094e-005    8.7373e-005    
  -0.67           -8.6123e-005    8.6385e-005    
  -0.66           -8.5093e-005    8.5058e-005    
  -0.65           -8.3747e-005    8.347e-005     
  -0.64           -8.2141e-005    8.1932e-005    
  -0.63           -8.105e-005     8.0726e-005    
  -0.62           -7.9416e-005    7.9353e-005    
  -0.61           -7.8066e-005    7.8255e-005    
  -0.6            -7.6996e-005    7.7303e-005    
  -0.59           -7.6029e-005    7.6082e-005    
  -0.58           -7.4768e-005    7.4581e-005    
  -0.57           -7.3243e-005    7.2989e-005    
  -0.56           -7.1692e-005    7.1679e-005    
  -0.55           -7.041e-005     7.0626e-005    
  -0.54           -6.9364e-005    6.9589e-005    
  -0.53           -6.8305e-005    6.8293e-005    
  -0.52           -6.698e-005     6.6764e-005    
  -0.51           -6.5447e-005    6.5272e-005    
  -0.5            -6.3986e-005    6.404e-005     
  -0.49           -6.2754e-005    6.2986e-005    
  -0.48           -6.1727e-005    6.187e-005     
  -0.47           -6.0286e-005    6.054e-005     
  -0.46           -5.9254e-005    5.9301e-005    
  -0.45           -5.8013e-005    5.7873e-005    
  -0.44           -5.6544e-005    5.6339e-005    
  -0.43           -5.5044e-005    5.5019e-005    
  -0.42           -5.3747e-005    5.39e-005      
  -0.41           -5.2632e-005    5.2822e-005    
  -0.4            -5.1537e-005    5.1551e-005    
  -0.39           -5.0248e-005    5.0102e-005    
  -0.38           -4.8781e-005    4.8644e-005    
  -0.37           -4.7347e-005    4.7376e-005    
  -0.36           -4.61e-005      4.6268e-005    
  -0.35           -4.4983e-005    4.5114e-005    
  -0.34           -4.3822e-005    4.3794e-005    
  -0.33           -4.2492e-005    4.2345e-005    
  -0.32           -4.1025e-005    4.0953e-005    
  -0.31           -3.9849e-005    3.9695e-005    
  -0.3            -3.8412e-005    3.8395e-005    
  -0.29           -3.7102e-005    3.721e-005     
  -0.28           -3.5931e-005    3.6075e-005    
  -0.27           -3.479e-005     3.4812e-005    
  -0.26           -3.3503e-005    3.3414e-005    
  -0.25           -3.2099e-005    3.2004e-005    
  -0.24           -3.0721e-005    3.0733e-005    
  -0.23           -2.9448e-005    2.955e-005     
  -0.22           -2.8262e-005    2.8356e-005    
  -0.21           -2.7072e-005    2.7062e-005    
  -0.2            -2.5761e-005    2.5678e-005    
  -0.19           -2.4374e-005    2.432e-005     
  -0.18           -2.3158e-005    2.3068e-005    
  -0.17           -2.177e-005     2.1762e-005    
  -0.16           -2.048e-005     2.054e-005     
  -0.15           -1.9253e-005    1.934e-005     
  -0.14           -1.8041e-005    1.8063e-005    
  -0.13           -1.6767e-005    1.6728e-005    
  -0.12           -1.5425e-005    1.5378e-005    
  -0.11           -1.4087e-005    1.4095e-005    
  -0.1            -1.2817e-005    1.2866e-005    
  -0.09           -1.1574e-005    1.162e-005     
  -0.08           -1.0318e-005    1.0324e-005    
  -0.07           -8.977e-006     9.0455e-006    
  -0.06           -7.754e-006     7.7291e-006    
  -0.05           -6.4361e-006    6.4159e-006    
  -0.04           -5.1416e-006    5.1469e-006    
  -0.03           -3.8645e-006    3.8866e-006    
  -0.02           -2.5937e-006    2.5963e-006    
  -0.01           -1.3154e-006    1.3093e-006    
  0               -2.3594e-008    2.1004e-008    
  0.01            1.2702e-006     -1.2656e-006   
  0.02            2.5507e-006     -2.5468e-006   
  0.03            3.8367e-006     -3.8229e-006   
  0.04            5.1055e-006     -5.0926e-006   
  0.05            6.3644e-006     -6.3739e-006   
  0.06            7.6716e-006     -7.696e-006    
  0.07            8.9929e-006     -8.9914e-006   
  0.08            1.02682e-005    -1.0236e-005   
  0.09            1.156e-005      -1.1562e-005   
  0.1             1.2863e-005     -1.2828e-005   
  0.11            1.4107e-005     -1.4045e-005   
  0.12            1.5332e-005     -1.5311e-005   
  0.13            1.6604e-005     -1.6633e-005   
  0.14            1.7931e-005     -1.7985e-005   
  0.15            1.929e-005      -1.9285e-005   
  0.16            2.0581e-005     -2.0521e-005   
  0.17            2.1791e-005     -2.1708e-005   
  0.18            2.2996e-005     -2.299e-005    
  0.19            2.4286e-005     -2.4349e-005   
  0.2             2.5653e-005     -2.5716e-005   
  0.21            2.7019e-005     -2.6998e-005   
  0.22            2.8294e-005     -2.8188e-005   
  0.23            2.9452e-005     -2.9374e-005   
  0.24            3.0824e-005     -3.0688e-005   
  0.25            3.1968e-005     -3.1929e-005   
  0.26            3.3216e-005     -3.3281e-005   
  0.27            3.4591e-005     -3.4713e-005   
  0.28            3.6026e-005     -3.6038e-005   
  0.29            3.7334e-005     -3.7232e-005   
  0.3             3.8494e-005     -3.8355e-005   
  0.31            3.9642e-005     -3.9613e-005   
  0.32            4.0922e-005     -4.1024e-005   
  0.33            4.2342e-005     -4.2464e-005   
  0.34            4.3775e-005     -4.3759e-005   
  0.35            4.5049e-005     -4.4903e-005   
  0.36            4.6156e-005     -4.6021e-005   
  0.37            4.7313e-005     -4.7325e-005   
  0.38            4.8633e-005     -4.8802e-005   
  0.39            5.0117e-005     -5.0218e-005   
  0.4             5.127e-005      -5.1464e-005   
  0.41            5.2787e-005     -5.2817e-005   
  0.42            5.4105e-005     -5.3968e-005   
  0.43            5.5236e-005     -5.5021e-005   
  0.44            5.6313e-005     -5.6264e-005   
  0.45            5.7565e-005     -5.7704e-005   
  0.46            5.9044e-005     -5.9235e-005   
  0.47            6.0544e-005     -6.0539e-005   
  0.48            6.1814e-005     -6.1625e-005   
  0.49            6.2895e-005     -6.269e-005    
  0.5             6.3982e-005     -6.3993e-005   
  0.51            6.53e-005       -6.5515e-005   
  0.52            6.6859e-005     -6.7008e-005   
  0.53            6.7956e-005     -6.8215e-005   
  0.54            6.9548e-005     -6.9609e-005   
  0.55            7.0907e-005     -7.0746e-005   
  0.56            7.2014e-005     -7.1718e-005   
  0.57            7.2994e-005     -7.2934e-005   
  0.58            7.4235e-005     -7.441e-005    
  0.59            7.5762e-005     -7.602e-005    
  0.6             7.7338e-005     -7.736e-005    
  0.61            7.8624e-005     -7.8399e-005   
  0.62            7.9653e-005     -7.9394e-005   
  0.63            8.0676e-005     -8.0687e-005   
  0.64            8.1998e-005     -8.2246e-005   
  0.65            8.3595e-005     -8.3807e-005   
  0.66            8.5136e-005     -8.5072e-005   
  0.67            8.634e-005      -8.6022e-005   
  0.68            8.7273e-005     -8.7073e-005   
  0.69            8.8805e-005     -8.8445e-005   
  0.7             8.9714e-005     -8.9632e-005   
  0.71            9.094e-005      -9.1152e-005   
  0.72            9.2512e-005     -9.2839e-005   
  0.73            9.4158e-005     -9.418e-005    
  0.74            9.5456e-005     -9.519e-005    
  0.75            9.6434e-005     -9.6116e-005   
  0.76            9.7391e-005     -9.7393e-005   
  0.77            9.8723e-005     -9.9026e-005   
  0.78            0.000100392     -0.000100653   
  0.79            0.000101968     -0.000101888   
  0.8             0.000103175     -0.000102802   
  0.81            0.000104042     -0.00010379    
  0.82            0.000105625     -0.0001056     
  0.83            0.00010675      -0.00010703    
  0.84            0.00010847      -0.0001084     
  0.85            0.00010974      -0.0001093     
  0.86            0.00011058      -0.00011022    
  0.87            0.00011215      -0.00011159    
  0.88            0.00011293      -0.00011277    
  0.89            0.00011421      -0.00011445    
  0.9             0.00011596      -0.00011618    
  0.91            0.00011759      -0.00011742    
  0.92            0.00011875      -0.00011821    
  0.93            0.00011948      -0.0001192     
  0.94            0.00012059      -0.00012075    
  0.95            0.00012224      -0.00012263    
  0.96            0.00012405      -0.00012397    
  0.97            0.00012532      -0.00012483    
  0.98            0.00012611      -0.0001257     
  0.99            0.00012771      -0.00012709    
  1               0.00012842      -0.00012824    
END_DB

