! VERSION = 6.00
BEGIN_HEADER
 ICCAP_INPUTS
  VU1        V  E GROUND SMU2 0.1 CON        0
  VU2        V  S GROUND SMU3 0.1 CON        0
  V2         V  B GROUND SMU1 0.015 CON        0
  V1         V  C GROUND SMU4 0.015 LIN        1    -1         1          201  0.01      
 ICCAP_OUTPUTS
  I1         I  C GROUND SMU4 B
  I2         I  B GROUND SMU1 B
END_HEADER

BEGIN_DB
 ICCAP_VAR VU1        0              
 ICCAP_VAR VU2        0              
 ICCAP_VAR V2         0              

 #V1              I1              I2             
  -1              -0.00014705     0.00014724     
  -0.99           -0.0001452      0.00014546     
  -0.98           -0.00014436     0.00014379     
  -0.97           -0.00014384     0.00014308     
  -0.96           -0.00014233     0.00014248     
  -0.95           -0.00013981     0.00014074     
  -0.94           -0.00013764     0.00013814     
  -0.93           -0.00013648     0.00013617     
  -0.92           -0.000136       0.00013517     
  -0.91           -0.00013481     0.00013471     
  -0.9            -0.00013257     0.00013327     
  -0.89           -0.00013014     0.00013092     
  -0.88           -0.0001287      0.00012867     
  -0.87           -0.0001281      0.00012738     
  -0.86           -0.00012716     0.00012695     
  -0.85           -0.00012523     0.00012572     
  -0.84           -0.00012268     0.00012358     
  -0.83           -0.00012105     0.0001212      
  -0.82           -0.00012028     0.00011973     
  -0.81           -0.00011954     0.00011906     
  -0.8            -0.00011783     0.0001171      
  -0.79           -0.00011653     0.00011651     
  -0.78           -0.0001144      0.000115       
  -0.77           -0.00011215     0.00011277     
  -0.76           -0.00011076     0.0001107      
  -0.75           -0.00011009     0.00010945     
  -0.74           -0.00010902     0.00010884     
  -0.73           -0.00010714     0.00010757     
  -0.72           -0.00010478     0.00010557     
  -0.71           -0.00010321     0.00010332     
  -0.7            -0.00010231     0.00010187     
  -0.69           -0.00010145     0.00010109     
  -0.68           -9.9667e-005    9.9704e-005    
  -0.67           -9.8532e-005    9.8293e-005    
  -0.66           -9.6731e-005    9.7045e-005    
  -0.65           -9.4508e-005    9.5172e-005    
  -0.64           -9.2823e-005    9.2983e-005    
  -0.63           -9.1686e-005    9.1368e-005    
  -0.62           -9.0936e-005    9.0335e-005    
  -0.61           -8.9572e-005    8.9496e-005    
  -0.6            -8.7656e-005    8.8057e-005    
  -0.59           -8.5558e-005    8.6091e-005    
  -0.58           -8.4057e-005    8.4085e-005    
  -0.57           -8.3025e-005    8.2619e-005    
  -0.56           -8.2085e-005    8.1651e-005    
  -0.55           -8.0554e-005    8.061e-005     
  -0.54           -7.8591e-005    7.9062e-005    
  -0.53           -7.6742e-005    7.7081e-005    
  -0.52           -7.5347e-005    7.5268e-005    
  -0.51           -7.4389e-005    7.3917e-005    
  -0.5            -7.3227e-005    7.2997e-005    
  -0.49           -7.1653e-005    7.1197e-005    
  -0.48           -7.0288e-005    7.022e-005     
  -0.47           -6.8476e-005    6.8784e-005    
  -0.46           -6.6548e-005    6.696e-005     
  -0.45           -6.5026e-005    6.5078e-005    
  -0.44           -6.3885e-005    6.3597e-005    
  -0.43           -6.2829e-005    6.2496e-005    
  -0.42           -6.1368e-005    6.1381e-005    
  -0.41           -5.9574e-005    5.9895e-005    
  -0.4            -5.7765e-005    5.8055e-005    
  -0.39           -5.6343e-005    5.6308e-005    
  -0.38           -5.5222e-005    5.4906e-005    
  -0.37           -5.4024e-005    5.3831e-005    
  -0.36           -5.2486e-005    5.2128e-005    
  -0.35           -5.1123e-005    5.1056e-005    
  -0.34           -4.946e-005     4.9641e-005    
  -0.33           -4.7631e-005    4.7964e-005    
  -0.32           -4.6121e-005    4.6174e-005    
  -0.31           -4.488e-005     4.4695e-005    
  -0.3            -4.3741e-005    4.3485e-005    
  -0.29           -4.2293e-005    4.2289e-005    
  -0.28           -4.0615e-005    4.0819e-005    
  -0.27           -3.8908e-005    3.9117e-005    
  -0.26           -3.7475e-005    3.7466e-005    
  -0.25           -3.6252e-005    3.6061e-005    
  -0.24           -3.4988e-005    3.4859e-005    
  -0.23           -3.3485e-005    3.3537e-005    
  -0.22           -3.1807e-005    3.2021e-005    
  -0.21           -3.0218e-005    3.0338e-005    
  -0.2            -2.8822e-005    2.9022e-005    
  -0.19           -2.734e-005     2.7371e-005    
  -0.18           -2.602e-005     2.591e-005     
  -0.17           -2.4739e-005    2.4593e-005    
  -0.16           -2.3299e-005    2.3302e-005    
  -0.15           -2.1725e-005    2.1836e-005    
  -0.14           -2.0146e-005    2.026e-005     
  -0.13           -1.8703e-005    1.8702e-005    
  -0.12           -1.7374e-005    1.7287e-005    
  -0.11           -1.6015e-005    1.5957e-005    
  -0.1            -1.4535e-005    1.4562e-005    
  -0.09           -1.2987e-005    1.308e-005     
  -0.08           -1.1487e-005    1.1532e-005    
  -0.07           -1.0071e-005    1.0142e-005    
  -0.06           -8.6518e-006    8.679e-006     
  -0.05           -7.1746e-006    7.1935e-006    
  -0.04           -5.7517e-006    5.7336e-006    
  -0.03           -4.3512e-006    4.327e-006     
  -0.02           -2.8925e-006    2.8966e-006    
  -0.01           -1.4209e-006    1.4328e-006    
  0               1.3634e-008     -1.4857e-008   
  0.01            1.4728e-006     -1.4747e-006   
  0.02            2.9266e-006     -2.9329e-006   
  0.03            4.3346e-006     -4.3682e-006   
  0.04            5.7713e-006     -5.7765e-006   
  0.05            7.2575e-006     -7.2191e-006   
  0.06            8.7619e-006     -8.7143e-006   
  0.07            1.02e-005       -1.01308e-005  
  0.08            1.1643e-005     -1.156e-005    
  0.09            1.3136e-005     -1.3103e-005   
  0.1             1.4555e-005     -1.4596e-005   
  0.11            1.5877e-005     -1.5987e-005   
  0.12            1.7293e-005     -1.731e-005    
  0.13            1.8811e-005     -1.8733e-005   
  0.14            2.0417e-005     -2.027e-005    
  0.15            2.1903e-005     -2.1876e-005   
  0.16            2.3246e-005     -2.3344e-005   
  0.17            2.4536e-005     -2.4679e-005   
  0.18            2.5956e-005     -2.5971e-005   
  0.19            2.7536e-005     -2.7402e-005   
  0.2             2.9178e-005     -2.8999e-005   
  0.21            3.0645e-005     -3.0635e-005   
  0.22            3.1942e-005     -3.2096e-005   
  0.23            3.3205e-005     -3.3356e-005   
  0.24            3.4661e-005     -3.4626e-005   
  0.25            3.634e-005      -3.612e-005    
  0.26            3.7992e-005     -3.7824e-005   
  0.27            3.9402e-005     -3.9121e-005   
  0.28            4.0943e-005     -4.0886e-005   
  0.29            4.2241e-005     -4.2408e-005   
  0.3             4.3374e-005     -4.3664e-005   
  0.31            4.4761e-005     -4.4806e-005   
  0.32            4.6423e-005     -4.6208e-005   
  0.33            4.8216e-005     -4.7916e-005   
  0.34            4.9723e-005     -4.9691e-005   
  0.35            5.0942e-005     -5.1179e-005   
  0.36            5.2059e-005     -5.2362e-005   
  0.37            5.3508e-005     -5.35e-005     
  0.38            5.5285e-005     -5.4987e-005   
  0.39            5.709e-005      -5.6797e-005   
  0.4             5.8502e-005     -5.8568e-005   
  0.41            5.9614e-005     -5.9955e-005   
  0.42            6.0777e-005     -6.1012e-005   
  0.43            6.2325e-005     -6.2753e-005   
  0.44            6.3672e-005     -6.3753e-005   
  0.45            6.5396e-005     -6.5117e-005   
  0.46            6.7346e-005     -6.6928e-005   
  0.47            6.8903e-005     -6.8873e-005   
  0.48            7.0079e-005     -7.0387e-005   
  0.49            7.104e-005      -7.1469e-005   
  0.5             7.248e-005      -7.2492e-005   
  0.51            7.4357e-005     -7.3978e-005   
  0.52            7.6296e-005     -7.5888e-005   
  0.53            7.7772e-005     -7.7804e-005   
  0.54            7.8751e-005     -7.9211e-005   
  0.55            7.9796e-005     -8.0153e-005   
  0.56            8.1367e-005     -8.1255e-005   
  0.57            8.3362e-005     -8.2841e-005   
  0.58            8.5246e-005     -8.4938e-005   
  0.59            8.664e-005      -8.6045e-005   
  0.6             8.8265e-005     -8.8153e-005   
  0.61            8.9346e-005     -8.9723e-005   
  0.62            9.0192e-005     -9.0757e-005   
  0.63            9.1604e-005     -9.1625e-005   
  0.64            9.3573e-005     -9.311e-005    
  0.65            9.5693e-005     -9.5179e-005   
  0.66            9.7191e-005     -9.7212e-005   
  0.67            9.8031e-005     -9.8606e-005   
  0.68            9.9014e-005     -9.9486e-005   
  0.69            0.00010177      -0.000100442   
  0.7             0.00010328      -0.00010272    
  0.71            0.00010462      -0.00010382    
  0.72            0.00010629      -0.00010611    
  0.73            0.00010722      -0.00010764    
  0.74            0.000108        -0.00010845    
  0.75            0.00010957      -0.00010937    
  0.76            0.0001119       -0.00011111    
  0.77            0.00011387      -0.00011351    
  0.78            0.00011497      -0.00011533    
  0.79            0.00011556      -0.00011625    
  0.8             0.00011695      -0.0001169     
  0.81            0.00011915      -0.00011849    
  0.82            0.00012142      -0.00012083    
  0.83            0.0001228       -0.00012187    
  0.84            0.0001245       -0.0001243     
  0.85            0.00012541      -0.00012593    
  0.86            0.00012602      -0.00012662    
  0.87            0.00012762      -0.00012742    
  0.88            0.00013001      -0.00012912    
  0.89            0.00013216      -0.00013172    
  0.9             0.0001333       -0.00013362    
  0.91            0.00013369      -0.00013457    
  0.92            0.000135        -0.00013503    
  0.93            0.00013731      -0.00013656    
  0.94            0.00013971      -0.00013899    
  0.95            0.00014107      -0.00014121    
  0.96            0.00014153      -0.0001424     
  0.97            0.00014254      -0.00014273    
  0.98            0.00014464      -0.00014407    
  0.99            0.0001473       -0.00014634    
  1               0.00014898      -0.00014888    
END_DB

