! VERSION = 6.00
BEGIN_HEADER
 ICCAP_INPUTS
  VU1        V  E GROUND SMU2 0.1 CON        0
  VU2        V  S GROUND SMU3 0.1 CON        0
  V2         V  B GROUND SMU1 0.015 CON        0
  V1         V  C GROUND SMU4 0.015 LIN        1    -1         1          101  0.02      
 ICCAP_OUTPUTS
  I1         I  C GROUND SMU4 B
  I2         I  B GROUND SMU1 B
END_HEADER

BEGIN_DB
 ICCAP_VAR VU1        0              
 ICCAP_VAR VU2        0              
 ICCAP_VAR V2         0              

 #V1              I1              I2             
  -1              -0.00043408     0.00043399     
  -0.98           -0.00042265     0.00042265     
  -0.96           -0.00041182     0.00041271     
  -0.94           -0.00040225     0.00040229     
  -0.92           -0.0003951      0.00039463     
  -0.9            -0.00038635     0.00038597     
  -0.88           -0.00037705     0.00037733     
  -0.86           -0.00036682     0.00036781     
  -0.84           -0.00035573     0.00035634     
  -0.82           -0.00034971     0.00034934     
  -0.8            -0.00034148     0.00034108     
  -0.78           -0.00033314     0.00033354     
  -0.76           -0.00032228     0.00032381     
  -0.74           -0.00031384     0.00031417     
  -0.72           -0.00030472     0.00030454     
  -0.7            -0.00029714     0.00029665     
  -0.68           -0.00028791     0.00028817     
  -0.66           -0.00027853     0.00027919     
  -0.64           -0.0002689      0.00026957     
  -0.62           -0.00026101     0.00026064     
  -0.6            -0.00025284     0.00025255     
  -0.58           -0.00024444     0.00024454     
  -0.56           -0.00023501     0.00023554     
  -0.54           -0.000226       0.00022645     
  -0.52           -0.00021755     0.00021825     
  -0.5            -0.00020889     0.00020907     
  -0.48           -0.00020111     0.00020058     
  -0.46           -0.00019264     0.00019261     
  -0.44           -0.00018434     0.00018449     
  -0.42           -0.00017502     0.00017553     
  -0.4            -0.00016658     0.00016667     
  -0.38           -0.00015846     0.00015812     
  -0.36           -0.00015016     0.00014998     
  -0.34           -0.00014174     0.00014192     
  -0.32           -0.0001325      0.00013332     
  -0.3            -0.00012425     0.00012456     
  -0.28           -0.00011635     0.00011602     
  -0.26           -0.00010822     0.00010807     
  -0.24           -9.9582e-005    9.9609e-005    
  -0.22           -9.1241e-005    9.1442e-005    
  -0.2            -8.3079e-005    8.3049e-005    
  -0.18           -7.4233e-005    7.4633e-005    
  -0.16           -6.6063e-005    6.6121e-005    
  -0.14           -5.7816e-005    5.7729e-005    
  -0.12           -4.9851e-005    4.9723e-005    
  -0.1            -4.1297e-005    4.1398e-005    
  -0.08           -3.2947e-005    3.3081e-005    
  -0.06           -2.4723e-005    2.4776e-005    
  -0.04           -1.6456e-005    1.6441e-005    
  -0.02           -8.1938e-006    8.2287e-006    
  0               4.5448e-008     -4.3754e-008   
  0.02            8.3345e-006     -8.3426e-006   
  0.04            1.6593e-005     -1.658e-005    
  0.06            2.4948e-005     -2.4886e-005   
  0.08            3.3305e-005     -3.3249e-005   
  0.1             4.1615e-005     -4.1489e-005   
  0.12            4.9923e-005     -4.9816e-005   
  0.14            5.8079e-005     -5.8225e-005   
  0.16            6.6237e-005     -6.6351e-005   
  0.18            7.4558e-005     -7.4545e-005   
  0.2             8.2998e-005     -8.2843e-005   
  0.22            9.1478e-005     -9.1392e-005   
  0.24            9.9975e-005     -9.9619e-005   
  0.26            0.00010782      -0.000108213   
  0.28            0.00011612      -0.00011628    
  0.3             0.00012484      -0.00012469    
  0.32            0.0001337       -0.00013341    
  0.34            0.00014203      -0.00014206    
  0.36            0.00014962      -0.00015013    
  0.38            0.00015808      -0.00015793    
  0.4             0.00016708      -0.00016644    
  0.42            0.00017578      -0.00017548    
  0.44            0.000184        -0.00018415    
  0.46            0.0001919       -0.00019273    
  0.48            0.0002005       -0.00020042    
  0.5             0.00020924      -0.00020914    
  0.52            0.00021877      -0.00021843    
  0.54            0.00022681      -0.0002272     
  0.56            0.0002353       -0.00023581    
  0.58            0.00024437      -0.00024407    
  0.6             0.00025338      -0.00025281    
  0.62            0.00026315      -0.00026264    
  0.64            0.00027106      -0.00027034    
  0.66            0.00027928      -0.00027928    
  0.68            0.00028746      -0.00028802    
  0.7             0.0002961       -0.00029574    
  0.72            0.00030485      -0.00030476    
  0.74            0.00031486      -0.00031407    
  0.76            0.00032422      -0.00032417    
  0.78            0.00033066      -0.00033122    
  0.8             0.00033951      -0.00033975    
  0.82            0.00035011      -0.0003506     
  0.84            0.00036083      -0.00035989    
  0.86            0.00037011      -0.00036881    
  0.88            0.00038272      -0.00038138    
  0.9             0.00039167      -0.0003919     
  0.92            0.00039833      -0.00039868    
  0.94            0.00040915      -0.00040955    
  0.96            0.00041921      -0.00041839    
  0.98            0.00042717      -0.00042585    
  1               0.00043829      -0.00043785    
END_DB

