! VERSION = 6.00
BEGIN_HEADER
 ICCAP_INPUTS
  VU1        V  E GROUND SMU2 0.1 CON        0
  VU2        V  S GROUND SMU3 0.1 CON        0
  V2         V  B GROUND SMU4 0.015 CON        0
  V1         V  C GROUND SMU1 0.015 LIN        1    -0.6       0.6        121  0.01      
 ICCAP_OUTPUTS
  I1         I  C GROUND SMU1 B
  I2         I  B GROUND SMU4 B
END_HEADER

BEGIN_DB
 ICCAP_VAR VU1        0              
 ICCAP_VAR VU2        0              
 ICCAP_VAR V2         0              

 #V1              I1              I2             
  -0.6            -0.00063832     0.00063863     
  -0.59           -0.00062763     0.00062878     
  -0.58           -0.00061746     0.00061727     
  -0.57           -0.00060575     0.00060459     
  -0.56           -0.00059315     0.00059287     
  -0.55           -0.00058171     0.00058252     
  -0.54           -0.0005715      0.00057279     
  -0.53           -0.00056161     0.00056177     
  -0.52           -0.00055038     0.00054945     
  -0.51           -0.00053825     0.00053757     
  -0.5            -0.00052794     0.00052679     
  -0.49           -0.00051554     0.00051552     
  -0.48           -0.00050456     0.00050552     
  -0.47           -0.00049475     0.00049572     
  -0.46           -0.00048465     0.00048465     
  -0.45           -0.00047352     0.00047265     
  -0.44           -0.00046133     0.00046108     
  -0.43           -0.00045014     0.00045068     
  -0.42           -0.0004401      0.00044114     
  -0.41           -0.00043029     0.00043053     
  -0.4            -0.00041936     0.00041878     
  -0.39           -0.00040785     0.00040734     
  -0.38           -0.00039753     0.00039674     
  -0.37           -0.0003859      0.00038584     
  -0.36           -0.00037524     0.00037593     
  -0.35           -0.00036527     0.00036592     
  -0.34           -0.00035525     0.00035519     
  -0.33           -0.00034434     0.00034376     
  -0.32           -0.0003328      0.00033273     
  -0.31           -0.00032196     0.00032241     
  -0.3            -0.000312       0.00031271     
  -0.29           -0.00030212     0.00030223     
  -0.28           -0.00029138     0.00029103     
  -0.27           -0.00028039     0.0002801      
  -0.26           -0.00027004     0.00026962     
  -0.25           -0.0002589      0.00025894     
  -0.24           -0.00024857     0.00024908     
  -0.23           -0.00023852     0.00023891     
  -0.22           -0.00022775     0.00022839     
  -0.21           -0.0002179      0.00021806     
  -0.2            -0.0002075      0.00020726     
  -0.19           -0.00019661     0.00019632     
  -0.18           -0.00018591     0.00018604     
  -0.17           -0.0001756      0.00017596     
  -0.16           -0.00016572     0.00016591     
  -0.15           -0.00015541     0.00015537     
  -0.14           -0.00014478     0.00014456     
  -0.13           -0.00013414     0.0001342      
  -0.12           -0.00012378     0.00012407     
  -0.11           -0.00011363     0.00011392     
  -0.1            -0.00010351     0.00010356     
  -0.09           -9.2798e-005    9.2915e-005    
  -0.08           -8.2587e-005    8.2437e-005    
  -0.07           -7.24e-005      7.2232e-005    
  -0.06           -6.1895e-005    6.1879e-005    
  -0.05           -5.1562e-005    5.163e-005     
  -0.04           -4.1385e-005    4.1495e-005    
  -0.03           -3.1145e-005    3.1162e-005    
  -0.02           -2.0815e-005    2.0788e-005    
  -0.01           -1.0512e-005    1.0491e-005    
  0               -1.2208e-007    1.2513e-007    
  0.01            1.01402e-005    -1.01399e-005  
  0.02            2.0365e-005     -2.0374e-005   
  0.03            3.0696e-005     -3.0644e-005   
  0.04            4.0949e-005     -4.0952e-005   
  0.05            5.1186e-005     -5.1243e-005   
  0.06            6.1595e-005     -6.1678e-005   
  0.07            7.2046e-005     -7.2024e-005   
  0.08            8.2317e-005     -8.2155e-005   
  0.09            9.245e-005      -9.2359e-005   
  0.1             0.000102939     -0.000102713   
  0.11            0.000112969     -0.000112885   
  0.12            0.00012332      -0.00012323    
  0.13            0.00013368      -0.00013373    
  0.14            0.00014418      -0.00014435    
  0.15            0.0001549       -0.00015474    
  0.16            0.00016521      -0.00016486    
  0.17            0.00017515      -0.00017486    
  0.18            0.0001858       -0.00018534    
  0.19            0.00019581      -0.00019568    
  0.2             0.0002062       -0.00020637    
  0.21            0.00021709      -0.00021728    
  0.22            0.00022724      -0.00022765    
  0.23            0.0002382       -0.00023823    
  0.24            0.00024875      -0.00024831    
  0.25            0.00025872      -0.00025825    
  0.26            0.00026869      -0.00026872    
  0.27            0.00027939      -0.0002799     
  0.28            0.00029065      -0.00029085    
  0.29            0.0003015       -0.00030116    
  0.3             0.00031154      -0.00031079    
  0.31            0.00032141      -0.00032123    
  0.32            0.00033194      -0.00033234    
  0.33            0.00034316      -0.0003436     
  0.34            0.00035447      -0.00035422    
  0.35            0.00036479      -0.00036399    
  0.36            0.00037444      -0.00037411    
  0.37            0.00038485      -0.00038517    
  0.38            0.00039619      -0.00039684    
  0.39            0.00040777      -0.00040765    
  0.4             0.00041847      -0.00041761    
  0.41            0.00042823      -0.00042763    
  0.42            0.00043945      -0.00043846    
  0.43            0.00044933      -0.00044905    
  0.44            0.00046014      -0.00046073    
  0.45            0.00047183      -0.00047243    
  0.46            0.00048353      -0.00048323    
  0.47            0.00049408      -0.00049298    
  0.48            0.00050367      -0.00050314    
  0.49            0.00051417      -0.00051474    
  0.5             0.00052608      -0.00052707    
  0.51            0.00053811      -0.00053804    
  0.52            0.00054912      -0.00054809    
  0.53            0.00055885      -0.00055803    
  0.54            0.00057076      -0.00056928    
  0.55            0.00058024      -0.00058003    
  0.56            0.00059152      -0.00059232    
  0.57            0.00060404      -0.00060471    
  0.58            0.00061414      -0.00061549    
  0.59            0.00062684      -0.00062706    
  0.6             0.00063842      -0.00063741    
END_DB

