! VERSION = 6.00
BEGIN_HEADER
 ICCAP_INPUTS
  VU1        V  E GROUND SMU2 0.1 CON        0
  VU2        V  S GROUND SMU3 0.1 CON        0
  V2         V  B GROUND SMU4 0.015 CON        0
  V1         V  C GROUND SMU1 0.015 LIN        1    -1         1          201  0.01      
 ICCAP_OUTPUTS
  I1         I  C GROUND SMU1 B
  I2         I  B GROUND SMU4 B
END_HEADER

BEGIN_DB
 ICCAP_VAR VU1        0              
 ICCAP_VAR VU2        0              
 ICCAP_VAR V2         0              

 #V1              I1              I2             
  -1              -0.00025539     0.00025557     
  -0.99           -0.00025297     0.00025376     
  -0.98           -0.00025125     0.00025186     
  -0.97           -0.00024823     0.00024913     
  -0.96           -0.00024649     0.00024669     
  -0.95           -0.0002439      0.00024341     
  -0.94           -0.00024054     0.0002401      
  -0.93           -0.00023837     0.00023771     
  -0.92           -0.00023496     0.00023493     
  -0.91           -0.00023232     0.00023295     
  -0.9            -0.00023045     0.00023111     
  -0.89           -0.00022848     0.00022845     
  -0.88           -0.00022569     0.00022511     
  -0.87           -0.00022225     0.0002221      
  -0.86           -0.00021942     0.00021987     
  -0.85           -0.00021731     0.00021812     
  -0.84           -0.0002155      0.0002157      
  -0.83           -0.00021293     0.0002125      
  -0.82           -0.00020967     0.00020931     
  -0.81           -0.00020661     0.00020684     
  -0.8            -0.00020425     0.00020502     
  -0.79           -0.00020251     0.00020278     
  -0.78           -0.0002001      0.00019987     
  -0.77           -0.00019704     0.00019653     
  -0.76           -0.00019383     0.00019393     
  -0.75           -0.00019131     0.00019192     
  -0.74           -0.00018939     0.00018989     
  -0.73           -0.00018647     0.0001872      
  -0.72           -0.00018456     0.00018475     
  -0.71           -0.00018201     0.00018169     
  -0.7            -0.00017888     0.00017855     
  -0.69           -0.00017587     0.00017609     
  -0.68           -0.00017353     0.00017416     
  -0.67           -0.00017161     0.00017188     
  -0.66           -0.00016919     0.00016903     
  -0.65           -0.00016625     0.00016582     
  -0.64           -0.00016313     0.0001632      
  -0.63           -0.00016058     0.0001611      
  -0.62           -0.00015854     0.00015899     
  -0.61           -0.00015568     0.0001563      
  -0.6            -0.00015368     0.00015387     
  -0.59           -0.00015119     0.00015098     
  -0.58           -0.00014816     0.00014789     
  -0.57           -0.0001452      0.00014535     
  -0.56           -0.00014277     0.00014328     
  -0.55           -0.00014077     0.00014104     
  -0.54           -0.00013838     0.00013828     
  -0.53           -0.00013554     0.0001352      
  -0.52           -0.00013248     0.00013252     
  -0.51           -0.00012992     0.00013033     
  -0.5            -0.00012779     0.0001282      
  -0.49           -0.00012553     0.00012556     
  -0.48           -0.00012284     0.00012255     
  -0.47           -0.00011983     0.00011977     
  -0.46           -0.00011712     0.00011743     
  -0.45           -0.00011487     0.00011533     
  -0.44           -0.00011268     0.00011281     
  -0.43           -0.00011007     0.00010991     
  -0.42           -0.00010721     0.00010706     
  -0.41           -0.00010483     0.00010456     
  -0.4            -0.0001019      0.00010195     
  -0.39           -9.9928e-005    9.9545e-005    
  -0.38           -9.7014e-005    9.7327e-005    
  -0.37           -9.4761e-005    9.4808e-005    
  -0.36           -9.2248e-005    9.2043e-005    
  -0.35           -8.9434e-005    8.9182e-005    
  -0.34           -8.6625e-005    8.6604e-005    
  -0.33           -8.4089e-005    8.4296e-005    
  -0.32           -8.1761e-005    8.1977e-005    
  -0.31           -7.9412e-005    7.9407e-005    
  -0.3            -7.6834e-005    7.6638e-005    
  -0.29           -7.4045e-005    7.388e-005     
  -0.28           -7.1318e-005    7.1358e-005    
  -0.27           -6.882e-005     6.9024e-005    
  -0.26           -6.6474e-005    6.6624e-005    
  -0.25           -6.3782e-005    6.4008e-005    
  -0.24           -6.1473e-005    6.1523e-005    
  -0.23           -5.8944e-005    5.884e-005     
  -0.22           -5.6248e-005    5.6073e-005    
  -0.21           -5.3524e-005    5.3505e-005    
  -0.2            -5.0942e-005    5.1064e-005    
  -0.19           -4.8516e-005    4.8674e-005    
  -0.18           -4.6119e-005    4.6149e-005    
  -0.17           -4.356e-005     4.3459e-005    
  -0.16           -4.0897e-005    4.0795e-005    
  -0.15           -3.8236e-005    3.824e-005     
  -0.14           -3.5689e-005    3.5791e-005    
  -0.13           -3.325e-005     3.334e-005     
  -0.12           -3.0767e-005    3.0766e-005    
  -0.11           -2.8187e-005    2.812e-005     
  -0.1            -2.5576e-005    2.5514e-005    
  -0.09           -2.295e-005     2.2973e-005    
  -0.08           -2.0412e-005    2.0476e-005    
  -0.07           -1.7942e-005    1.7983e-005    
  -0.06           -1.5344e-005    1.541e-005     
  -0.05           -1.2832e-005    1.2847e-005    
  -0.04           -1.0295e-005    1.0274e-005    
  -0.03           -7.6854e-006    7.7199e-006    
  -0.02           -5.153e-006     5.1276e-006    
  -0.01           -2.5946e-006    2.5952e-006    
  0               -4.0318e-008    4.2757e-008    
  0.01            2.5195e-006     -2.5176e-006   
  0.02            5.0524e-006     -5.0392e-006   
  0.03            7.59e-006       -7.592e-006    
  0.04            1.01516e-005    -1.01874e-005  
  0.05            1.2689e-005     -1.2721e-005   
  0.06            1.5294e-005     -1.5308e-005   
  0.07            1.7815e-005     -1.7856e-005   
  0.08            2.0418e-005     -2.0424e-005   
  0.09            2.2996e-005     -2.2943e-005   
  0.1             2.5501e-005     -2.5418e-005   
  0.11            2.7949e-005     -2.7933e-005   
  0.12            3.0504e-005     -3.055e-005    
  0.13            3.3135e-005     -3.3215e-005   
  0.14            3.578e-005      -3.5768e-005   
  0.15            3.8338e-005     -3.8237e-005   
  0.16            4.0785e-005     -4.0676e-005   
  0.17            4.3214e-005     -4.3215e-005   
  0.18            4.5787e-005     -4.5897e-005   
  0.19            4.8498e-005     -4.8584e-005   
  0.2             5.1144e-005     -5.1108e-005   
  0.21            5.3672e-005     -5.3496e-005   
  0.22            5.6041e-005     -5.5937e-005   
  0.23            5.8711e-005     -5.8516e-005   
  0.24            6.1064e-005     -6.1018e-005   
  0.25            6.3591e-005     -6.3704e-005   
  0.26            6.6289e-005     -6.6471e-005   
  0.27            6.906e-005      -6.9069e-005   
  0.28            7.1627e-005     -7.1463e-005   
  0.29            7.3992e-005     -7.379e-005    
  0.3             7.6331e-005     -7.6329e-005   
  0.31            7.8908e-005     -7.9102e-005   
  0.32            8.1722e-005     -8.1885e-005   
  0.33            8.4459e-005     -8.44e-005     
  0.34            8.6964e-005     -8.6697e-005   
  0.35            8.9229e-005     -8.906e-005    
  0.36            9.1976e-005     -9.1667e-005   
  0.37            9.4218e-005     -9.4138e-005   
  0.38            9.6711e-005     -9.6879e-005   
  0.39            9.9485e-005     -9.978e-005    
  0.4             0.000102382     -0.000102422   
  0.41            0.000104981     -0.000104739   
  0.42            0.000107256     -0.00010744    
  0.43            0.00010991      -0.00011005    
  0.44            0.00011275      -0.00011258    
  0.45            0.00011517      -0.00011474    
  0.46            0.00011732      -0.00011707    
  0.47            0.00011974      -0.00011982    
  0.48            0.00012254      -0.00012285    
  0.49            0.00012556      -0.0001255     
  0.5             0.00012811      -0.0001277     
  0.51            0.00013023      -0.00012985    
  0.52            0.00013305      -0.00013252    
  0.53            0.00013512      -0.00013496    
  0.54            0.00013765      -0.00013784    
  0.55            0.00014061      -0.00014086    
  0.56            0.00014358      -0.00014341    
  0.57            0.00014604      -0.00014548    
  0.58            0.00014802      -0.00014772    
  0.59            0.00015039      -0.00015053    
  0.6             0.00015327      -0.00015366    
  0.61            0.00015639      -0.00015635    
  0.62            0.00015897      -0.00015849    
  0.63            0.00016103      -0.00016059    
  0.64            0.00016318      -0.00016322    
  0.65            0.00016595      -0.00016636    
  0.66            0.00016919      -0.00016923    
  0.67            0.0001719       -0.00017147    
  0.68            0.00017402      -0.00017343    
  0.69            0.00017603      -0.00017593    
  0.7             0.00017865      -0.00017904    
  0.71            0.00018183      -0.00018207    
  0.72            0.00018407      -0.00018455    
  0.73            0.00018726      -0.00018723    
  0.74            0.00018984      -0.00018927    
  0.75            0.00019179      -0.00019129    
  0.76            0.00019471      -0.00019396    
  0.77            0.00019657      -0.00019635    
  0.78            0.00019908      -0.00019942    
  0.79            0.00020223      -0.00020265    
  0.8             0.0002054       -0.00020518    
  0.81            0.00020778      -0.00020708    
  0.82            0.00020961      -0.00020917    
  0.83            0.00021185      -0.00021206    
  0.84            0.00021488      -0.00021548    
  0.85            0.00021819      -0.0002182     
  0.86            0.0002208       -0.00022018    
  0.87            0.0002227       -0.00022208    
  0.88            0.00022468      -0.00022471    
  0.89            0.00022753      -0.00022811    
  0.9             0.00023101      -0.00023114    
  0.91            0.00023383      -0.0002333     
  0.92            0.00023582      -0.000235      
  0.93            0.00023762      -0.00023747    
  0.94            0.00024024      -0.00024075    
  0.95            0.00024365      -0.00024402    
  0.96            0.00024578      -0.00024646    
  0.97            0.00024923      -0.00024924    
  0.98            0.00025184      -0.00025112    
  0.99            0.00025362      -0.00025295    
  1               0.00025556      -0.00025561    
END_DB

