! VERSION = 6.00
BEGIN_HEADER
 ICCAP_INPUTS
  VU1        V  E GROUND SMU2 0.1 CON        0
  VU2        V  S GROUND SMU3 0.1 CON        0
  V2         V  B GROUND SMU4 0.015 CON        0
  V1         V  C GROUND SMU1 0.015 LIN        1    -1         1          201  0.01      
 ICCAP_OUTPUTS
  I1         I  C GROUND SMU1 B
  I2         I  B GROUND SMU4 B
END_HEADER

BEGIN_DB
 ICCAP_VAR VU1        0              
 ICCAP_VAR VU2        0              
 ICCAP_VAR V2         0              

 #V1              I1              I2             
  -1              -0.00012656     0.00012665     
  -0.99           -0.00012527     0.00012544     
  -0.98           -0.00012412     0.00012459     
  -0.97           -0.00012331     0.00012353     
  -0.96           -0.00012217     0.00012208     
  -0.95           -0.00012064     0.00012035     
  -0.94           -0.00011897     0.00011904     
  -0.93           -0.00011771     0.0001181      
  -0.92           -0.00011681     0.00011716     
  -0.91           -0.00011534     0.00011583     
  -0.9            -0.00011448     0.00011461     
  -0.89           -0.00011323     0.00011309     
  -0.88           -0.00011162     0.00011146     
  -0.87           -0.00011006     0.00011021     
  -0.86           -0.00010886     0.00010931     
  -0.85           -0.000108       0.00010823     
  -0.84           -0.00010689     0.00010683     
  -0.83           -0.00010539     0.00010518     
  -0.82           -0.00010377     0.0001038      
  -0.81           -0.0001025      0.00010282     
  -0.8            -0.00010153     0.00010185     
  -0.79           -0.00010051     0.00010054     
  -0.78           -9.8761e-005    9.8927e-005    
  -0.77           -9.7618e-005    9.7428e-005    
  -0.76           -9.6552e-005    9.6242e-005    
  -0.75           -9.4942e-005    9.4887e-005    
  -0.74           -9.362e-005     9.3805e-005    
  -0.73           -9.2562e-005    9.2852e-005    
  -0.72           -9.1581e-005    9.1629e-005    
  -0.71           -9.0341e-005    9.0153e-005    
  -0.7            -8.8834e-005    8.8598e-005    
  -0.69           -8.7312e-005    8.7307e-005    
  -0.68           -8.6063e-005    8.6277e-005    
  -0.67           -8.5033e-005    8.5242e-005    
  -0.66           -8.3968e-005    8.3947e-005    
  -0.65           -8.266e-005     8.2443e-005    
  -0.64           -8.1137e-005    8.0976e-005    
  -0.63           -7.9695e-005    7.975e-005     
  -0.62           -7.8497e-005    7.8731e-005    
  -0.61           -7.7489e-005    7.762e-005     
  -0.6            -7.6051e-005    7.6299e-005    
  -0.59           -7.5038e-005    7.5084e-005    
  -0.58           -7.3797e-005    7.3652e-005    
  -0.57           -7.2349e-005    7.2143e-005    
  -0.56           -7.0864e-005    7.0849e-005    
  -0.55           -6.9589e-005    6.9756e-005    
  -0.54           -6.851e-005     6.8692e-005    
  -0.53           -6.7427e-005    6.743e-005     
  -0.52           -6.6129e-005    6.597e-005     
  -0.51           -6.4666e-005    6.4529e-005    
  -0.5            -6.3256e-005    6.3293e-005    
  -0.49           -6.2025e-005    6.2207e-005    
  -0.48           -6.0952e-005    6.1075e-005    
  -0.47           -5.9568e-005    5.977e-005     
  -0.46           -5.85e-005      5.8544e-005    
  -0.45           -5.7271e-005    5.7172e-005    
  -0.44           -5.5872e-005    5.5708e-005    
  -0.43           -5.4426e-005    5.4405e-005    
  -0.42           -5.3141e-005    5.326e-005     
  -0.41           -5.2002e-005    5.2163e-005    
  -0.4            -5.0883e-005    5.0906e-005    
  -0.39           -4.9623e-005    4.9515e-005    
  -0.38           -4.8218e-005    4.8103e-005    
  -0.37           -4.6823e-005    4.6838e-005    
  -0.36           -4.5578e-005    4.5708e-005    
  -0.35           -4.4436e-005    4.4548e-005    
  -0.34           -4.3271e-005    4.3254e-005    
  -0.33           -4.1974e-005    4.1867e-005    
  -0.32           -4.0571e-005    4.0504e-005    
  -0.31           -3.9381e-005    3.9263e-005    
  -0.3            -3.7985e-005    3.7972e-005    
  -0.29           -3.6695e-005    3.6781e-005    
  -0.28           -3.5511e-005    3.5629e-005    
  -0.27           -3.4359e-005    3.438e-005     
  -0.26           -3.3094e-005    3.3025e-005    
  -0.25           -3.1733e-005    3.1655e-005    
  -0.24           -3.0384e-005    3.0388e-005    
  -0.23           -2.9119e-005    2.92e-005      
  -0.22           -2.7928e-005    2.8003e-005    
  -0.21           -2.6734e-005    2.6731e-005    
  -0.2            -2.5445e-005    2.5384e-005    
  -0.19           -2.4103e-005    2.4057e-005    
  -0.18           -2.2786e-005    2.281e-005     
  -0.17           -2.1534e-005    2.1603e-005    
  -0.16           -2.0344e-005    2.0386e-005    
  -0.15           -1.9028e-005    1.9103e-005    
  -0.14           -1.7818e-005    1.7837e-005    
  -0.13           -1.6563e-005    1.6533e-005    
  -0.12           -1.5246e-005    1.5211e-005    
  -0.11           -1.3932e-005    1.3938e-005    
  -0.1            -1.2672e-005    1.2713e-005    
  -0.09           -1.1431e-005    1.1472e-005    
  -0.08           -1.019e-005     1.0201e-005    
  -0.07           -8.8798e-006    8.9326e-006    
  -0.06           -7.657e-006     7.6435e-006    
  -0.05           -6.3657e-006    6.3465e-006    
  -0.04           -5.0861e-006    5.0873e-006    
  -0.03           -3.8189e-006    3.827e-006     
  -0.02           -2.5634e-006    2.5639e-006    
  -0.01           -1.2958e-006    1.2946e-006    
  0               -2.2994e-008    2.0284e-008    
  0.01            1.2543e-006     -1.2497e-006   
  0.02            2.5183e-006     -2.5177e-006   
  0.03            3.7908e-006     -3.7851e-006   
  0.04            5.0451e-006     -5.0403e-006   
  0.05            6.3208e-006     -6.303e-006    
  0.06            7.5675e-006     -7.5643e-006   
  0.07            8.839e-006      -8.8571e-006   
  0.08            1.01365e-005    -1.01478e-005  
  0.09            1.13848e-005    -1.1388e-005   
  0.1             1.2645e-005     -1.2673e-005   
  0.11            1.3948e-005     -1.3959e-005   
  0.12            1.5192e-005     -1.5223e-005   
  0.13            1.6514e-005     -1.6511e-005   
  0.14            1.7779e-005     -1.7737e-005   
  0.15            1.9005e-005     -1.8947e-005   
  0.16            2.0219e-005     -2.0211e-005   
  0.17            2.1485e-005     -2.1524e-005   
  0.18            2.2822e-005     -2.2859e-005   
  0.19            2.4149e-005     -2.4127e-005   
  0.2             2.5398e-005     -2.5319e-005   
  0.21            2.6584e-005     -2.6528e-005   
  0.22            2.7917e-005     -2.782e-005    
  0.23            2.908e-005      -2.9047e-005   
  0.24            3.0328e-005     -3.0373e-005   
  0.25            3.167e-005      -3.1753e-005   
  0.26            3.3036e-005     -3.3039e-005   
  0.27            3.4317e-005     -3.4239e-005   
  0.28            3.5502e-005     -3.5396e-005   
  0.29            3.6674e-005     -3.6653e-005   
  0.3             3.7933e-005     -3.8009e-005   
  0.31            3.9313e-005     -3.9397e-005   
  0.32            4.0689e-005     -4.0668e-005   
  0.33            4.1934e-005     -4.182e-005    
  0.34            4.3076e-005     -4.2981e-005   
  0.35            4.4256e-005     -4.4269e-005   
  0.36            4.5549e-005     -4.5673e-005   
  0.37            4.6973e-005     -4.7044e-005   
  0.38            4.8148e-005     -4.8288e-005   
  0.39            4.9574e-005     -4.9592e-005   
  0.4             5.0873e-005     -5.077e-005    
  0.41            5.203e-005      -5.1868e-005   
  0.42            5.3126e-005     -5.3094e-005   
  0.43            5.4391e-005     -5.4495e-005   
  0.44            5.5805e-005     -5.5938e-005   
  0.45            5.7228e-005     -5.7213e-005   
  0.46            5.8487e-005     -5.8342e-005   
  0.47            5.9591e-005     -5.9445e-005   
  0.48            6.0709e-005     -6.0722e-005   
  0.49            6.2013e-005     -6.2176e-005   
  0.5             6.3494e-005     -6.3596e-005   
  0.51            6.4615e-005     -6.4811e-005   
  0.52            6.6116e-005     -6.6153e-005   
  0.53            6.7437e-005     -6.7309e-005   
  0.54            6.8568e-005     -6.8345e-005   
  0.55            6.9601e-005     -6.9553e-005   
  0.56            7.0844e-005     -7.0978e-005   
  0.57            7.2296e-005     -7.2491e-005   
  0.58            7.378e-005      -7.3783e-005   
  0.59            7.5049e-005     -7.4876e-005   
  0.6             7.6121e-005     -7.5924e-005   
  0.61            7.7183e-005     -7.7188e-005   
  0.62            7.8483e-005     -7.8675e-005   
  0.63            8.0005e-005     -8.0156e-005   
  0.64            8.1443e-005     -8.139e-005    
  0.65            8.2664e-005     -8.2411e-005   
  0.66            8.3672e-005     -8.351e-005    
  0.67            8.5112e-005     -8.4832e-005   
  0.68            8.6094e-005     -8.6023e-005   
  0.69            8.7308e-005     -8.7453e-005   
  0.7             8.8763e-005     -8.9029e-005   
  0.71            9.0333e-005     -9.0365e-005   
  0.72            9.1636e-005     -9.1435e-005   
  0.73            9.2668e-005     -9.24e-005     
  0.74            9.3674e-005     -9.3647e-005   
  0.75            9.4952e-005     -9.5161e-005   
  0.76            9.6484e-005     -9.6703e-005   
  0.77            9.8008e-005     -9.7973e-005   
  0.78            9.924e-005      -9.8967e-005   
  0.79            0.000100193     -9.9983e-005   
  0.8             0.00010125      -0.000101299   
  0.81            0.000102594     -0.00010288    
  0.82            0.000104196     -0.000104372   
  0.83            0.000105246     -0.00010517    
  0.84            0.00010675      -0.00010632    
  0.85            0.00010766      -0.00010755    
  0.86            0.00010894      -0.00010914    
  0.87            0.0001106       -0.00011071    
  0.88            0.00011167      -0.00011191    
  0.89            0.00011333      -0.00011326    
  0.9             0.00011459      -0.00011423    
  0.91            0.00011551      -0.00011516    
  0.92            0.00011698      -0.00011651    
  0.93            0.00011783      -0.00011767    
  0.94            0.00011907      -0.00011924    
  0.95            0.00012069      -0.00012088    
  0.96            0.00012233      -0.00012214    
  0.97            0.00012349      -0.00012303    
  0.98            0.00012432      -0.00012404    
  0.99            0.0001254       -0.00012545    
  1               0.00012691      -0.00012721    
END_DB

