! VERSION = 6.00
BEGIN_HEADER
 ICCAP_INPUTS
  VU1        V  E GROUND SMU2 0.1 CON        0
  VU2        V  S GROUND SMU3 0.1 CON        0
  V2         V  B GROUND SMU4 0.015 CON        0
  V1         V  C GROUND SMU1 0.015 LIN        1    -1         1          201  0.01      
 ICCAP_OUTPUTS
  I1         I  C GROUND SMU1 B
  I2         I  B GROUND SMU4 B
END_HEADER

BEGIN_DB
 ICCAP_VAR VU1        0              
 ICCAP_VAR VU2        0              
 ICCAP_VAR V2         0              

 #V1              I1              I2             
  -1              -2.5374e-005    2.5278e-005    
  -0.99           -2.5018e-005    2.5101e-005    
  -0.98           -2.4848e-005    2.4895e-005    
  -0.97           -2.4543e-005    2.4625e-005    
  -0.96           -2.4362e-005    2.4385e-005    
  -0.95           -2.4119e-005    2.4075e-005    
  -0.94           -2.3807e-005    2.3753e-005    
  -0.93           -2.349e-005     2.3498e-005    
  -0.92           -2.324e-005     2.3306e-005    
  -0.91           -2.3048e-005    2.311e-005     
  -0.9            -2.2846e-005    2.285e-005     
  -0.89           -2.2583e-005    2.2532e-005    
  -0.88           -2.2267e-005    2.2231e-005    
  -0.87           -2.2055e-005    2.1995e-005    
  -0.86           -2.1729e-005    2.1724e-005    
  -0.85           -2.1462e-005    2.1511e-005    
  -0.84           -2.1256e-005    2.1328e-005    
  -0.83           -2.1066e-005    2.1083e-005    
  -0.82           -2.0816e-005    2.0783e-005    
  -0.81           -2.0516e-005    2.0473e-005    
  -0.8            -2.0206e-005    2.0213e-005    
  -0.79           -1.9953e-005    2.0009e-005    
  -0.78           -1.9751e-005    1.981e-005     
  -0.77           -1.9547e-005    1.9551e-005    
  -0.76           -1.9287e-005    1.9243e-005    
  -0.75           -1.8978e-005    1.8948e-005    
  -0.74           -1.8685e-005    1.8708e-005    
  -0.73           -1.8446e-005    1.8507e-005    
  -0.72           -1.8249e-005    1.8288e-005    
  -0.71           -1.7961e-005    1.8026e-005    
  -0.7            -1.7764e-005    1.7785e-005    
  -0.69           -1.7518e-005    1.749e-005     
  -0.68           -1.7225e-005    1.7185e-005    
  -0.67           -1.6923e-005    1.6929e-005    
  -0.66           -1.6668e-005    1.6717e-005    
  -0.65           -1.646e-005     1.6509e-005    
  -0.64           -1.6246e-005    1.6252e-005    
  -0.63           -1.5988e-005    1.5953e-005    
  -0.62           -1.569e-005     1.5666e-005    
  -0.61           -1.5403e-005    1.5421e-005    
  -0.6            -1.5161e-005    1.5211e-005    
  -0.59           -1.4954e-005    1.4989e-005    
  -0.58           -1.467e-005     1.4727e-005    
  -0.57           -1.4464e-005    1.4481e-005    
  -0.56           -1.4221e-005    1.4198e-005    
  -0.55           -1.3933e-005    1.3902e-005    
  -0.54           -1.3641e-005    1.3644e-005    
  -0.53           -1.3386e-005    1.3425e-005    
  -0.52           -1.3166e-005    1.3207e-005    
  -0.51           -1.2947e-005    1.2953e-005    
  -0.5            -1.2691e-005    1.2666e-005    
  -0.49           -1.2403e-005    1.2384e-005    
  -0.48           -1.212e-005     1.2136e-005    
  -0.47           -1.1877e-005    1.1918e-005    
  -0.46           -1.1657e-005    1.1688e-005    
  -0.45           -1.1383e-005    1.1429e-005    
  -0.44           -1.1167e-005    1.1183e-005    
  -0.43           -1.092e-005     1.0906e-005    
  -0.42           -1.0642e-005    1.0622e-005    
  -0.41           -1.036e-005     1.0364e-005    
  -0.4            -1.0101e-005    1.0133e-005    
  -0.39           -9.9036e-006    9.8667e-006    
  -0.38           -9.6161e-006    9.6492e-006    
  -0.37           -9.3958e-006    9.4008e-006    
  -0.36           -9.1444e-006    9.1221e-006    
  -0.35           -8.8651e-006    8.8451e-006    
  -0.34           -8.6231e-006    8.5958e-006    
  -0.33           -8.3425e-006    8.3421e-006    
  -0.32           -8.0898e-006    8.1134e-006    
  -0.31           -7.8611e-006    7.8779e-006    
  -0.3            -7.5974e-006    7.6225e-006    
  -0.29           -7.3674e-006    7.368e-006     
  -0.28           -7.1111e-006    7.091e-006     
  -0.27           -6.8363e-006    6.8246e-006    
  -0.26           -6.571e-006     6.5822e-006    
  -0.25           -6.3283e-006    6.3507e-006    
  -0.24           -6.0976e-006    6.0998e-006    
  -0.23           -5.8429e-006    5.8272e-006    
  -0.22           -5.5721e-006    5.5607e-006    
  -0.21           -5.3279e-006    5.3113e-006    
  -0.2            -5.0566e-006    5.0584e-006    
  -0.19           -4.8046e-006    4.8201e-006    
  -0.18           -4.5686e-006    4.5773e-006    
  -0.17           -4.3215e-006    4.3152e-006    
  -0.16           -4.0622e-006    4.0482e-006    
  -0.15           -3.7948e-006    3.7959e-006    
  -0.14           -3.5411e-006    3.554e-006     
  -0.13           -3.2998e-006    3.3079e-006    
  -0.12           -3.0519e-006    3.0478e-006    
  -0.11           -2.7941e-006    2.7837e-006    
  -0.1            -2.5321e-006    2.5325e-006    
  -0.09           -2.2778e-006    2.2874e-006    
  -0.08           -2.0296e-006    2.0368e-006    
  -0.07           -1.7752e-006    1.7842e-006    
  -0.06           -1.5275e-006    1.5283e-006    
  -0.05           -1.2736e-006    1.2686e-006    
  -0.04           -1.0182e-006    1.016e-006     
  -0.03           -7.6566e-007    7.6577e-007    
  -0.02           -5.1064e-007    5.1054e-007    
  -0.01           -2.5943e-007    2.5618e-007    
  0               -2.0596e-009    2.0219e-009    
  0.01            2.5014e-007     -2.4866e-007   
  0.02            4.9943e-007     -4.9827e-007   
  0.03            7.555e-007      -7.5453e-007   
  0.04            1.01052e-006    -1.01139e-006  
  0.05            1.2622e-006     -1.2565e-006   
  0.06            1.5138e-006     -1.514e-006    
  0.07            1.7737e-006     -1.7735e-006   
  0.08            2.0267e-006     -2.0241e-006   
  0.09            2.274e-006      -2.2691e-006   
  0.1             2.5215e-006     -2.5203e-006   
  0.11            2.7753e-006     -2.7799e-006   
  0.12            3.0398e-006     -3.0413e-006   
  0.13            3.2977e-006     -3.2927e-006   
  0.14            3.5407e-006     -3.5321e-006   
  0.15            3.7839e-006     -3.7823e-006   
  0.16            4.0397e-006     -4.0458e-006   
  0.17            4.3069e-006     -4.3102e-006   
  0.18            4.5664e-006     -4.5613e-006   
  0.19            4.8091e-006     -4.7971e-006   
  0.2             5.0465e-006     -5.0436e-006   
  0.21            5.3015e-006     -5.3088e-006   
  0.22            5.5739e-006     -5.5801e-006   
  0.23            5.8158e-006     -5.8293e-006   
  0.24            6.088e-006      -6.0881e-006   
  0.25            6.3399e-006     -6.3264e-006   
  0.26            6.5688e-006     -6.5594e-006   
  0.27            6.8336e-006     -6.8163e-006   
  0.28            7.0675e-006     -7.0666e-006   
  0.29            7.3245e-006     -7.3393e-006   
  0.3             7.6029e-006     -7.6111e-006   
  0.31            7.8687e-006     -7.8582e-006   
  0.32            8.1047e-006     -8.0819e-006   
  0.33            8.3307e-006     -8.3272e-006   
  0.34            8.5875e-006     -8.6037e-006   
  0.35            8.8712e-006     -8.8823e-006   
  0.36            9.109e-006      -9.1301e-006   
  0.37            9.3901e-006     -9.3892e-006   
  0.38            9.6398e-006     -9.6153e-006   
  0.39            9.8578e-006     -9.8445e-006   
  0.4             1.00971e-005    -1.01067e-005  
  0.41            1.03728e-005    -1.03996e-005  
  0.42            1.06584e-005    -1.06603e-005  
  0.43            1.09098e-005    -1.08845e-005  
  0.44            1.1126e-005     -1.11093e-005  
  0.45            1.1372e-005     -1.13897e-005  
  0.46            1.1659e-005     -1.163e-005    
  0.47            1.1885e-005     -1.1862e-005   
  0.48            1.2162e-005     -1.2121e-005   
  0.49            1.2382e-005     -1.2368e-005   
  0.5             1.2636e-005     -1.2648e-005   
  0.51            1.2918e-005     -1.2937e-005   
  0.52            1.3204e-005     -1.3194e-005   
  0.53            1.3454e-005     -1.3415e-005   
  0.54            1.3668e-005     -1.3635e-005   
  0.55            1.3892e-005     -1.3887e-005   
  0.56            1.4156e-005     -1.4181e-005   
  0.57            1.4457e-005     -1.4467e-005   
  0.58            1.4678e-005     -1.471e-005    
  0.59            1.4977e-005     -1.4979e-005   
  0.6             1.5238e-005     -1.5205e-005   
  0.61            1.5459e-005     -1.5407e-005   
  0.62            1.5668e-005     -1.5652e-005   
  0.63            1.5919e-005     -1.5941e-005   
  0.64            1.6213e-005     -1.624e-005    
  0.65            1.6508e-005     -1.6496e-005   
  0.66            1.6755e-005     -1.671e-005    
  0.67            1.6958e-005     -1.6917e-005   
  0.68            1.7177e-005     -1.7176e-005   
  0.69            1.7443e-005     -1.7477e-005   
  0.7             1.7751e-005     -1.777e-005    
  0.71            1.7968e-005     -1.801e-005    
  0.72            1.8281e-005     -1.8279e-005   
  0.73            1.8541e-005     -1.8499e-005   
  0.74            1.8751e-005     -1.8693e-005   
  0.75            1.895e-005      -1.8936e-005   
  0.76            1.9204e-005     -1.9231e-005   
  0.77            1.9506e-005     -1.9539e-005   
  0.78            1.9808e-005     -1.9798e-005   
  0.79            2.0055e-005     -2.0003e-005   
  0.8             2.0253e-005     -2.0203e-005   
  0.81            2.0463e-005     -2.0457e-005   
  0.82            2.0725e-005     -2.0766e-005   
  0.83            2.1043e-005     -2.1069e-005   
  0.84            2.1255e-005     -2.1307e-005   
  0.85            2.1578e-005     -2.1581e-005   
  0.86            2.1846e-005     -2.18e-005     
  0.87            2.2054e-005     -2.1981e-005   
  0.88            2.2237e-005     -2.2214e-005   
  0.89            2.2484e-005     -2.2512e-005   
  0.9             2.2793e-005     -2.2839e-005   
  0.91            2.3107e-005     -2.3101e-005   
  0.92            2.336e-005      -2.33e-005     
  0.93            2.355e-005      -2.3488e-005   
  0.94            2.3747e-005     -2.3738e-005   
  0.95            2.4008e-005     -2.4053e-005   
  0.96            2.4334e-005     -2.4368e-005   
  0.97            2.4635e-005     -2.4615e-005   
  0.98            2.4873e-005     -2.4799e-005   
  0.99            2.5048e-005     -2.4999e-005   
  1               2.5351e-005     -2.5268e-005   
END_DB

