! VERSION = 6.00
BEGIN_HEADER
 ICCAP_INPUTS
  VU1        V  E GROUND SMU2 0.1 CON        0
  VU2        V  S GROUND SMU3 0.1 CON        0
  V2         V  B GROUND SMU4 0.015 CON        0
  V1         V  C GROUND SMU1 0.015 LIN        1    -1         1          201  0.01      
 ICCAP_OUTPUTS
  I1         I  C GROUND SMU1 B
  I2         I  B GROUND SMU4 B
END_HEADER

BEGIN_DB
 ICCAP_VAR VU1        0              
 ICCAP_VAR VU2        0              
 ICCAP_VAR V2         0              

 #V1              I1              I2             
  -1              -0.00012546     0.00012553     
  -0.99           -0.00012419     0.00012448     
  -0.98           -0.0001232      0.00012368     
  -0.97           -0.00012233     0.00012245     
  -0.96           -0.00012107     0.00012084     
  -0.95           -0.00011943     0.00011929     
  -0.94           -0.00011835     0.0001181      
  -0.93           -0.00011672     0.0001168      
  -0.92           -0.00011545     0.00011584     
  -0.91           -0.00011454     0.0001149      
  -0.9            -0.0001131      0.00011354     
  -0.89           -0.00011224     0.00011239     
  -0.88           -0.00011101     0.00011087     
  -0.87           -0.00010943     0.00010928     
  -0.86           -0.0001079      0.00010804     
  -0.85           -0.00010672     0.00010713     
  -0.84           -0.00010586     0.00010606     
  -0.83           -0.0001047      0.00010468     
  -0.82           -0.00010322     0.00010303     
  -0.81           -0.00010165     0.00010171     
  -0.8            -0.00010036     0.00010069     
  -0.79           -9.9411e-005    9.9661e-005    
  -0.78           -9.84e-005      9.8426e-005    
  -0.77           -9.7129e-005    9.6916e-005    
  -0.76           -9.5618e-005    9.5397e-005    
  -0.75           -9.4119e-005    9.4149e-005    
  -0.74           -9.2909e-005    9.3159e-005    
  -0.73           -9.1922e-005    9.2119e-005    
  -0.72           -9.0857e-005    9.0809e-005    
  -0.71           -8.9527e-005    8.9284e-005    
  -0.7            -8.7973e-005    8.7842e-005    
  -0.69           -8.6893e-005    8.6634e-005    
  -0.68           -8.5366e-005    8.5332e-005    
  -0.67           -8.4073e-005    8.4261e-005    
  -0.66           -8.3023e-005    8.3255e-005    
  -0.65           -8.2003e-005    8.2021e-005    
  -0.64           -8.073e-005     8.055e-005     
  -0.63           -7.9249e-005    7.9073e-005    
  -0.62           -7.7807e-005    7.7839e-005    
  -0.61           -7.6583e-005    7.6795e-005    
  -0.6            -7.5551e-005    7.5712e-005    
  -0.59           -7.4154e-005    7.44e-005      
  -0.58           -7.3148e-005    7.3205e-005    
  -0.57           -7.1929e-005    7.181e-005     
  -0.56           -7.0523e-005    7.0318e-005    
  -0.55           -6.9043e-005    6.9021e-005    
  -0.54           -6.7766e-005    6.7919e-005    
  -0.53           -6.669e-005     6.6873e-005    
  -0.52           -6.5608e-005    6.5619e-005    
  -0.51           -6.4332e-005    6.4188e-005    
  -0.5            -6.2905e-005    6.2769e-005    
  -0.49           -6.1497e-005    6.1529e-005    
  -0.48           -6.0269e-005    6.0442e-005    
  -0.47           -5.9199e-005    5.9325e-005    
  -0.46           -5.7825e-005    5.8022e-005    
  -0.45           -5.6772e-005    5.6814e-005    
  -0.44           -5.5539e-005    5.5445e-005    
  -0.43           -5.4156e-005    5.4002e-005    
  -0.42           -5.2743e-005    5.2725e-005    
  -0.41           -5.1464e-005    5.1587e-005    
  -0.4            -5.0334e-005    5.048e-005     
  -0.39           -4.9221e-005    4.9235e-005    
  -0.38           -4.7955e-005    4.7848e-005    
  -0.37           -4.6561e-005    4.6459e-005    
  -0.36           -4.5199e-005    4.5218e-005    
  -0.35           -4.3958e-005    4.4082e-005    
  -0.34           -4.282e-005     4.2925e-005    
  -0.33           -4.1665e-005    4.165e-005     
  -0.32           -4.037e-005     4.0271e-005    
  -0.31           -3.8978e-005    3.8923e-005    
  -0.3            -3.7807e-005    3.7697e-005    
  -0.29           -3.6424e-005    3.6415e-005    
  -0.28           -3.5149e-005    3.5236e-005    
  -0.27           -3.3985e-005    3.4091e-005    
  -0.26           -3.282e-005     3.2837e-005    
  -0.25           -3.1553e-005    3.1489e-005    
  -0.24           -3.0217e-005    3.0155e-005    
  -0.23           -2.8883e-005    2.8903e-005    
  -0.22           -2.7636e-005    2.7723e-005    
  -0.21           -2.6459e-005    2.653e-005     
  -0.2            -2.5259e-005    2.525e-005     
  -0.19           -2.3974e-005    2.3917e-005    
  -0.18           -2.2642e-005    2.2617e-005    
  -0.17           -2.1426e-005    2.137e-005     
  -0.16           -2.011e-005     2.011e-005     
  -0.15           -1.8843e-005    1.8899e-005    
  -0.14           -1.763e-005     1.7689e-005    
  -0.13           -1.6425e-005    1.6439e-005    
  -0.12           -1.5161e-005    1.5133e-005    
  -0.11           -1.3857e-005    1.3834e-005    
  -0.1            -1.2576e-005    1.2586e-005    
  -0.09           -1.1319e-005    1.136e-005     
  -0.08           -1.0082e-005    1.0122e-005    
  -0.07           -8.8199e-006    8.8589e-006    
  -0.06           -7.5943e-006    7.5975e-006    
  -0.05           -6.327e-006     6.3095e-006    
  -0.04           -5.0601e-006    5.0473e-006    
  -0.03           -3.8027e-006    3.7897e-006    
  -0.02           -2.5316e-006    2.5308e-006    
  -0.01           -1.2803e-006    1.2868e-006    
  0               -2.0849e-008    2.2449e-008    
  0.01            1.2348e-006     -1.2397e-006   
  0.02            2.484e-006      -2.4825e-006   
  0.03            3.7449e-006     -3.7476e-006   
  0.04            5.0234e-006     -5.0253e-006   
  0.05            6.2601e-006     -6.2749e-006   
  0.06            7.5455e-006     -7.5441e-006   
  0.07            8.8069e-006     -8.7878e-006   
  0.08            1.00237e-005    -1.00097e-005  
  0.09            1.13044e-005    -1.12745e-005  
  0.1             1.2533e-005     -1.259e-005    
  0.11            1.3849e-005     -1.3813e-005   
  0.12            1.5077e-005     -1.5032e-005   
  0.13            1.6295e-005     -1.6289e-005   
  0.14            1.755e-005      -1.7584e-005   
  0.15            1.887e-005      -1.8893e-005   
  0.16            2.017e-005      -2.0149e-005   
  0.17            2.1408e-005     -2.1334e-005   
  0.18            2.2597e-005     -2.2553e-005   
  0.19            2.3907e-005     -2.3828e-005   
  0.2             2.5079e-005     -2.5057e-005   
  0.21            2.6331e-005     -2.6366e-005   
  0.22            2.7655e-005     -2.7718e-005   
  0.23            2.8987e-005     -2.8982e-005   
  0.24            3.0249e-005     -3.0172e-005   
  0.25            3.1427e-005     -3.1346e-005   
  0.26            3.2602e-005     -3.2594e-005   
  0.27            3.3872e-005     -3.3942e-005   
  0.28            3.5234e-005     -3.5295e-005   
  0.29            3.6577e-005     -3.6545e-005   
  0.3             3.7803e-005     -3.7686e-005   
  0.31            3.8942e-005     -3.8866e-005   
  0.32            4.0286e-005     -4.0151e-005   
  0.33            4.1403e-005     -4.1369e-005   
  0.34            4.2647e-005     -4.2715e-005   
  0.35            4.4003e-005     -4.4119e-005   
  0.36            4.5391e-005     -4.5393e-005   
  0.37            4.6658e-005     -4.6554e-005   
  0.38            4.7802e-005     -4.7672e-005   
  0.39            4.8928e-005     -4.8917e-005   
  0.4             5.0196e-005     -5.0299e-005   
  0.41            5.1602e-005     -5.1706e-005   
  0.42            5.2981e-005     -5.295e-005    
  0.43            5.4217e-005     -5.4061e-005   
  0.44            5.5302e-005     -5.5196e-005   
  0.45            5.6674e-005     -5.6488e-005   
  0.46            5.7744e-005     -5.7696e-005   
  0.47            5.8967e-005     -5.9062e-005   
  0.48            6.035e-005      -6.0516e-005   
  0.49            6.1805e-005     -6.1817e-005   
  0.5             6.3078e-005     -6.2938e-005   
  0.51            6.4171e-005     -6.3995e-005   
  0.52            6.5262e-005     -6.5244e-005   
  0.53            6.6531e-005     -6.6671e-005   
  0.54            6.798e-005      -6.8123e-005   
  0.55            6.9398e-005     -6.9363e-005   
  0.56            7.0625e-005     -7.0432e-005   
  0.57            7.1665e-005     -7.1523e-005   
  0.58            7.2779e-005     -7.2817e-005   
  0.59            7.4106e-005     -7.4308e-005   
  0.6             7.5619e-005     -7.5716e-005   
  0.61            7.6715e-005     -7.6931e-005   
  0.62            7.8219e-005     -7.8241e-005   
  0.63            7.9503e-005     -7.9331e-005   
  0.64            8.0554e-005     -8.0334e-005   
  0.65            8.1591e-005     -8.158e-005    
  0.66            8.2868e-005     -8.3053e-005   
  0.67            8.4358e-005     -8.453e-005    
  0.68            8.5818e-005     -8.5772e-005   
  0.69            8.7037e-005     -8.6791e-005   
  0.7             8.8011e-005     -8.7843e-005   
  0.71            8.9455e-005     -8.9166e-005   
  0.72            9.0421e-005     -9.0346e-005   
  0.73            9.161e-005      -9.1756e-005   
  0.74            9.3067e-005     -9.3334e-005   
  0.75            9.4627e-005     -9.4662e-005   
  0.76            9.5917e-005     -9.5717e-005   
  0.77            9.6949e-005     -9.6673e-005   
  0.78            9.7929e-005     -9.7897e-005   
  0.79            9.9175e-005     -9.9372e-005   
  0.8             0.000100695     -0.000100935   
  0.81            0.000102223     -0.000102198   
  0.82            0.000103446     -0.000103185   
  0.83            0.000104407     -0.000104179   
  0.84            0.000105434     -0.00010595    
  0.85            0.00010713      -0.00010722    
  0.86            0.00010819      -0.00010843    
  0.87            0.00010983      -0.00010978    
  0.88            0.00011108      -0.00011075    
  0.89            0.00011201      -0.00011168    
  0.9             0.000113        -0.00011298    
  0.91            0.0001144       -0.00011463    
  0.92            0.00011609      -0.00011609    
  0.93            0.00011744      -0.00011716    
  0.94            0.00011845      -0.000118      
  0.95            0.00011933      -0.0001192     
  0.96            0.00012062      -0.00012081    
  0.97            0.00012227      -0.0001224     
  0.98            0.00012333      -0.00012359    
  0.99            0.00012501      -0.00012493    
  1               0.00012624      -0.00012586    
END_DB

