! VERSION = 6.00
BEGIN_HEADER
 ICCAP_INPUTS
  VU1        V  E GROUND SMU2 0.1 CON        0
  VU2        V  S GROUND SMU3 0.1 CON        0
  V2         V  B GROUND SMU4 0.015 CON        0
  V1         V  C GROUND SMU1 0.015 LIN        1    -1         1          201  0.01      
 ICCAP_OUTPUTS
  I1         I  C GROUND SMU1 B
  I2         I  B GROUND SMU4 B
END_HEADER

BEGIN_DB
 ICCAP_VAR VU1        0              
 ICCAP_VAR VU2        0              
 ICCAP_VAR V2         0              

 #V1              I1              I2             
  -1              -2.5262e-005    2.5412e-005    
  -0.99           -2.5149e-005    2.5125e-005    
  -0.98           -2.4858e-005    2.479e-005     
  -0.97           -2.4522e-005    2.4513e-005    
  -0.96           -2.425e-005     2.43e-005      
  -0.95           -2.4044e-005    2.413e-005     
  -0.94           -2.3867e-005    2.3889e-005    
  -0.93           -2.3622e-005    2.3583e-005    
  -0.92           -2.3318e-005    2.3263e-005    
  -0.91           -2.2998e-005    2.3003e-005    
  -0.9            -2.2743e-005    2.2805e-005    
  -0.89           -2.255e-005     2.2613e-005    
  -0.88           -2.2351e-005    2.2356e-005    
  -0.87           -2.2091e-005    2.2043e-005    
  -0.86           -2.1774e-005    2.1737e-005    
  -0.85           -2.1477e-005    2.1495e-005    
  -0.84           -2.1238e-005    2.1309e-005    
  -0.83           -2.1049e-005    2.1095e-005    
  -0.82           -2.0754e-005    2.0827e-005    
  -0.81           -2.0569e-005    2.0587e-005    
  -0.8            -2.0323e-005    2.0292e-005    
  -0.79           -2.002e-005     1.9975e-005    
  -0.78           -1.9714e-005    1.9715e-005    
  -0.77           -1.9456e-005    1.951e-005     
  -0.76           -1.9252e-005    1.9311e-005    
  -0.75           -1.9049e-005    1.9055e-005    
  -0.74           -1.8791e-005    1.8754e-005    
  -0.73           -1.8486e-005    1.8455e-005    
  -0.72           -1.8191e-005    1.821e-005     
  -0.71           -1.795e-005     1.8009e-005    
  -0.7            -1.7749e-005    1.7791e-005    
  -0.69           -1.7464e-005    1.7526e-005    
  -0.68           -1.7266e-005    1.7285e-005    
  -0.67           -1.7021e-005    1.6996e-005    
  -0.66           -1.673e-005     1.669e-005     
  -0.65           -1.6429e-005    1.6432e-005    
  -0.64           -1.6173e-005    1.6218e-005    
  -0.63           -1.5958e-005    1.6008e-005    
  -0.62           -1.5748e-005    1.5754e-005    
  -0.61           -1.549e-005     1.546e-005     
  -0.6            -1.5193e-005    1.5171e-005    
  -0.59           -1.4908e-005    1.4925e-005    
  -0.58           -1.4663e-005    1.4711e-005    
  -0.57           -1.4451e-005    1.449e-005     
  -0.56           -1.4173e-005    1.4229e-005    
  -0.55           -1.3966e-005    1.3983e-005    
  -0.54           -1.372e-005     1.3704e-005    
  -0.53           -1.3439e-005    1.3407e-005    
  -0.52           -1.3144e-005    1.3146e-005    
  -0.51           -1.2887e-005    1.2925e-005    
  -0.5            -1.2663e-005    1.2708e-005    
  -0.49           -1.2445e-005    1.2454e-005    
  -0.48           -1.219e-005     1.217e-005     
  -0.47           -1.1909e-005    1.1886e-005    
  -0.46           -1.1624e-005    1.1639e-005    
  -0.45           -1.1379e-005    1.142e-005     
  -0.44           -1.1156e-005    1.1191e-005    
  -0.43           -1.0926e-005    1.0928e-005    
  -0.42           -1.0666e-005    1.0642e-005    
  -0.41           -1.0377e-005    1.037e-005     
  -0.4            -1.0145e-005    1.0122e-005    
  -0.39           -9.8892e-006    9.8787e-006    
  -0.38           -9.6188e-006    9.6081e-006    
  -0.37           -9.3537e-006    9.371e-006     
  -0.36           -9.1211e-006    9.1504e-006    
  -0.35           -8.8957e-006    8.8967e-006    
  -0.34           -8.6395e-006    8.6159e-006    
  -0.33           -8.3611e-006    8.3461e-006    
  -0.32           -8.0913e-006    8.104e-006     
  -0.31           -7.8515e-006    7.8787e-006    
  -0.3            -7.626e-006     7.6291e-006    
  -0.29           -7.3712e-006    7.3526e-006    
  -0.28           -7.0973e-006    7.0812e-006    
  -0.27           -6.854e-006     6.8325e-006    
  -0.26           -6.5776e-006    6.5781e-006    
  -0.25           -6.3245e-006    6.3441e-006    
  -0.24           -6.0918e-006    6.1052e-006    
  -0.23           -5.8282e-006    5.8481e-006    
  -0.22           -5.5928e-006    5.5939e-006    
  -0.21           -5.3395e-006    5.3239e-006    
  -0.2            -5.0684e-006    5.0598e-006    
  -0.19           -4.8059e-006    4.8142e-006    
  -0.18           -4.5618e-006    4.5788e-006    
  -0.17           -4.3225e-006    4.3243e-006    
  -0.16           -4.0698e-006    4.0583e-006    
  -0.15           -3.8059e-006    3.7967e-006    
  -0.14           -3.5562e-006    3.5444e-006    
  -0.13           -3.2927e-006    3.2935e-006    
  -0.12           -3.0387e-006    3.05e-006      
  -0.11           -2.7935e-006    2.8009e-006    
  -0.1            -2.5471e-006    2.5435e-006    
  -0.09           -2.2891e-006    2.2804e-006    
  -0.08           -2.027e-006     2.0268e-006    
  -0.07           -1.774e-006     1.782e-006     
  -0.06           -1.5227e-006    1.5306e-006    
  -0.05           -1.2681e-006    1.2757e-006    
  -0.04           -1.0206e-006    1.0215e-006    
  -0.03           -7.6123e-007    7.6151e-007    
  -0.02           -5.0895e-007    5.1107e-007    
  -0.01           -2.5629e-007    2.6021e-007    
  0               -2.1908e-009    8.174e-010     
  0.01            2.487e-007      -2.481e-007    
  0.02            5.0179e-007     -4.9954e-007   
  0.03            7.5737e-007     -7.5685e-007   
  0.04            1.01135e-006    -1.01157e-006  
  0.05            1.266e-006      -1.2581e-006   
  0.06            1.5185e-006     -1.5184e-006   
  0.07            1.7759e-006     -1.7741e-006   
  0.08            2.0243e-006     -2.0214e-006   
  0.09            2.271e-006      -2.2689e-006   
  0.1             2.5245e-006     -2.525e-006    
  0.11            2.7843e-006     -2.788e-006    
  0.12            3.045e-006      -3.0433e-006   
  0.13            3.2956e-006     -3.2876e-006   
  0.14            3.5353e-006     -3.5317e-006   
  0.15            3.7869e-006     -3.7897e-006   
  0.16            4.0512e-006     -4.058e-006    
  0.17            4.3144e-006     -4.3129e-006   
  0.18            4.566e-006      -4.5548e-006   
  0.19            4.8029e-006     -4.7964e-006   
  0.2             5.0488e-006     -5.0531e-006   
  0.21            5.3156e-006     -5.3267e-006   
  0.22            5.5858e-006     -5.5851e-006   
  0.23            5.8357e-006     -5.8226e-006   
  0.24            6.0688e-006     -6.0598e-006   
  0.25            6.3134e-006     -6.3183e-006   
  0.26            6.5792e-006     -6.5942e-006   
  0.27            6.8549e-006     -6.8559e-006   
  0.28            7.1072e-006     -7.0926e-006   
  0.29            7.3371e-006     -7.3257e-006   
  0.3             7.6018e-006     -7.5816e-006   
  0.31            7.8333e-006     -7.8298e-006   
  0.32            8.0896e-006     -8.1051e-006   
  0.33            8.3701e-006     -8.3802e-006   
  0.34            8.6111e-006     -8.6307e-006   
  0.35            8.8907e-006     -8.8889e-006   
  0.36            9.1387e-006     -9.1155e-006   
  0.37            9.3607e-006     -9.3482e-006   
  0.38            9.601e-006      -9.6105e-006   
  0.39            9.8745e-006     -9.8993e-006   
  0.4             1.01603e-005    -1.01614e-005  
  0.41            1.04119e-005    -1.0388e-005   
  0.42            1.06285e-005    -1.06118e-005  
  0.43            1.08997e-005    -1.08713e-005  
  0.44            1.11221e-005    -1.11187e-005  
  0.45            1.13783e-005    -1.14033e-005  
  0.46            1.1678e-005     -1.1637e-005   
  0.47            1.191e-005      -1.1932e-005   
  0.48            1.2199e-005     -1.2192e-005   
  0.49            1.2455e-005     -1.2423e-005   
  0.5             1.2678e-005     -1.2636e-005   
  0.51            1.2895e-005     -1.2883e-005   
  0.52            1.3153e-005     -1.3168e-005   
  0.53            1.3443e-005     -1.346e-005    
  0.54            1.3728e-005     -1.3712e-005   
  0.55            1.3974e-005     -1.3932e-005   
  0.56            1.4184e-005     -1.4151e-005   
  0.57            1.4413e-005     -1.441e-005    
  0.58            1.4676e-005     -1.4704e-005   
  0.59            1.4977e-005     -1.4988e-005   
  0.6             1.5201e-005     -1.5233e-005   
  0.61            1.5501e-005     -1.5498e-005   
  0.62            1.5763e-005     -1.5727e-005   
  0.63            1.5981e-005     -1.5929e-005   
  0.64            1.6188e-005     -1.617e-005    
  0.65            1.644e-005      -1.6458e-005   
  0.66            1.6734e-005     -1.6764e-005   
  0.67            1.7031e-005     -1.702e-005    
  0.68            1.7278e-005     -1.7233e-005   
  0.69            1.7487e-005     -1.7441e-005   
  0.7             1.7701e-005     -1.7696e-005   
  0.71            1.7962e-005     -1.7995e-005   
  0.72            1.8272e-005     -1.8294e-005   
  0.73            1.8557e-005     -1.854e-005    
  0.74            1.8799e-005     -1.8737e-005   
  0.75            1.8991e-005     -1.8956e-005   
  0.76            1.9282e-005     -1.9218e-005   
  0.77            1.9477e-005     -1.9457e-005   
  0.78            1.9724e-005     -1.9748e-005   
  0.79            2.0023e-005     -2.0064e-005   
  0.8             2.0333e-005     -2.0327e-005   
  0.81            2.0586e-005     -2.0537e-005   
  0.82            2.0785e-005     -2.073e-005    
  0.83            2.0988e-005     -2.0981e-005   
  0.84            2.1251e-005     -2.1288e-005   
  0.85            2.156e-005      -2.1594e-005   
  0.86            2.1863e-005     -2.1844e-005   
  0.87            2.2103e-005     -2.2039e-005   
  0.88            2.2289e-005     -2.2243e-005   
  0.89            2.2589e-005     -2.2512e-005   
  0.9             2.2767e-005     -2.2745e-005   
  0.91            2.3008e-005     -2.3036e-005   
  0.92            2.3314e-005     -2.3367e-005   
  0.93            2.3635e-005     -2.3636e-005   
  0.94            2.3892e-005     -2.3836e-005   
  0.95            2.4087e-005     -2.4018e-005   
  0.96            2.4278e-005     -2.4268e-005   
  0.97            2.4537e-005     -2.4583e-005   
  0.98            2.4859e-005     -2.4898e-005   
  0.99            2.5168e-005     -2.5151e-005   
  1               2.5409e-005     -2.5337e-005   
END_DB

