! VERSION = 6.00
BEGIN_HEADER
 ICCAP_INPUTS
  VU1        V  E GROUND SMU2 0.1 CON        0
  VU2        V  S GROUND SMU3 0.1 CON        0
  V2         V  B GROUND SMU1 0.015 CON        0
  V1         V  C GROUND SMU4 0.015 LIN        1    -1         1          201  0.01      
 ICCAP_OUTPUTS
  I1         I  C GROUND SMU4 B
  I2         I  B GROUND SMU1 B
END_HEADER

BEGIN_DB
 ICCAP_VAR VU1        0              
 ICCAP_VAR VU2        0              
 ICCAP_VAR V2         0              

 #V1              I1              I2             
  -1              -0.00051166     0.00051168     
  -0.99           -0.00050802     0.00050687     
  -0.98           -0.00050333     0.00050316     
  -0.97           -0.00049734     0.00049823     
  -0.96           -0.00049083     0.00049195     
  -0.95           -0.00048577     0.00048575     
  -0.94           -0.00048184     0.00048083     
  -0.93           -0.0004775      0.00047703     
  -0.92           -0.00047181     0.00047243     
  -0.91           -0.0004653      0.00046655     
  -0.9            -0.00045984     0.00046011     
  -0.89           -0.0004556      0.00045491     
  -0.88           -0.00045154     0.0004508      
  -0.87           -0.00044628     0.00044656     
  -0.86           -0.00043994     0.0004411      
  -0.85           -0.00043414     0.00043465     
  -0.84           -0.00042956     0.00042909     
  -0.83           -0.00042564     0.00042474     
  -0.82           -0.00042066     0.00042074     
  -0.81           -0.00041457     0.00041546     
  -0.8            -0.0004085      0.00040923     
  -0.79           -0.00040355     0.00040465     
  -0.78           -0.00039823     0.00039845     
  -0.77           -0.00039393     0.00039331     
  -0.76           -0.00038968     0.00038912     
  -0.75           -0.00038437     0.00038467     
  -0.74           -0.0003782      0.00037919     
  -0.73           -0.00037255     0.00037293     
  -0.72           -0.00036796     0.00036754     
  -0.71           -0.00036385     0.00036311     
  -0.7            -0.00035882     0.00035893     
  -0.69           -0.00035285     0.00035366     
  -0.68           -0.00034697     0.00034754     
  -0.67           -0.00034197     0.00034292     
  -0.66           -0.00033677     0.00033691     
  -0.65           -0.00033236     0.00033181     
  -0.64           -0.00032795     0.00032754     
  -0.63           -0.00032263     0.00032193     
  -0.62           -0.00031774     0.00031772     
  -0.61           -0.00031191     0.00031258     
  -0.6            -0.00030608     0.00030669     
  -0.59           -0.00030102     0.000301       
  -0.58           -0.00029671     0.00029609     
  -0.57           -0.000292       0.00029188     
  -0.56           -0.00028655     0.000287       
  -0.55           -0.00028058     0.00028136     
  -0.54           -0.0002753      0.0002755      
  -0.53           -0.00027078     0.0002704      
  -0.52           -0.00026629     0.00026593     
  -0.51           -0.00026105     0.00026129     
  -0.5            -0.00025522     0.00025592     
  -0.49           -0.00024978     0.00025009     
  -0.48           -0.00024497     0.00024474     
  -0.47           -0.00024054     0.00024011     
  -0.46           -0.00023549     0.00023554     
  -0.45           -0.00022986     0.0002304      
  -0.44           -0.00022429     0.00022467     
  -0.43           -0.00021924     0.00021989     
  -0.42           -0.000214       0.00021419     
  -0.41           -0.00020936     0.00020908     
  -0.4            -0.00020472     0.00020444     
  -0.39           -0.00019955     0.00019971     
  -0.38           -0.00019389     0.00019447     
  -0.37           -0.00018851     0.00018879     
  -0.36           -0.00018365     0.00018352     
  -0.35           -0.00017906     0.00017871     
  -0.34           -0.00017397     0.00017406     
  -0.33           -0.00016847     0.00016889     
  -0.32           -0.00016304     0.00016337     
  -0.31           -0.000158       0.00015848     
  -0.3            -0.0001528      0.00015292     
  -0.29           -0.00014798     0.00014783     
  -0.28           -0.00014325     0.00014309     
  -0.27           -0.00013808     0.00013823     
  -0.26           -0.00013256     0.00013299     
  -0.25           -0.00012727     0.00012748     
  -0.24           -0.00012237     0.0001223      
  -0.23           -0.00011759     0.00011743     
  -0.22           -0.00011247     0.00011259     
  -0.21           -0.00010712     0.00010744     
  -0.2            -0.00010182     0.00010206     
  -0.19           -9.6847e-005    9.6891e-005    
  -0.18           -9.162e-005     9.17e-005      
  -0.17           -8.6619e-005    8.6527e-005    
  -0.16           -8.1772e-005    8.1581e-005    
  -0.15           -7.6714e-005    7.6679e-005    
  -0.14           -7.1475e-005    7.1585e-005    
  -0.13           -6.6179e-005    6.6342e-005    
  -0.12           -6.1077e-005    6.111e-005     
  -0.11           -5.6068e-005    5.5996e-005    
  -0.1            -5.1089e-005    5.0985e-005    
  -0.09           -4.5959e-005    4.5976e-005    
  -0.08           -4.0763e-005    4.0839e-005    
  -0.07           -3.5602e-005    3.5677e-005    
  -0.06           -3.0495e-005    3.0495e-005    
  -0.05           -2.5446e-005    2.5404e-005    
  -0.04           -2.0369e-005    2.0373e-005    
  -0.03           -1.5274e-005    1.5291e-005    
  -0.02           -1.0099e-005    1.015e-005     
  -0.01           -5.0206e-006    5.0165e-006    
  0               5.7861e-008     -6.4166e-008   
  0.01            5.1896e-006     -5.1916e-006   
  0.02            1.03176e-005    -1.03149e-005  
  0.03            1.5418e-005     -1.5324e-005   
  0.04            2.0499e-005     -2.0536e-005   
  0.05            2.5558e-005     -2.5608e-005   
  0.06            3.0658e-005     -3.0651e-005   
  0.07            3.5801e-005     -3.5716e-005   
  0.08            4.1005e-005     -4.0914e-005   
  0.09            4.6125e-005     -4.6123e-005   
  0.1             5.1135e-005     -5.1236e-005   
  0.11            5.6105e-005     -5.6206e-005   
  0.12            6.1245e-005     -6.1405e-005   
  0.13            6.6313e-005     -6.6334e-005   
  0.14            7.1517e-005     -7.1402e-005   
  0.15            7.6842e-005     -7.6645e-005   
  0.16            8.1968e-005     -8.1928e-005   
  0.17            8.6945e-005     -8.7087e-005   
  0.18            9.1827e-005     -9.203e-005    
  0.19            9.6896e-005     -9.6916e-005   
  0.2             0.0001024       -0.000101984   
  0.21            0.0001074       -0.00010751    
  0.22            0.00011228      -0.00011237    
  0.23            0.00011743      -0.00011763    
  0.24            0.00012246      -0.00012239    
  0.25            0.00012785      -0.00012748    
  0.26            0.00013326      -0.00013293    
  0.27            0.00013833      -0.00013788    
  0.28            0.00014356      -0.0001434     
  0.29            0.00014833      -0.00014854    
  0.3             0.0001531       -0.00015328    
  0.31            0.00015827      -0.00015809    
  0.32            0.0001638       -0.00016333    
  0.33            0.00016917      -0.00016892    
  0.34            0.00017414      -0.00017422    
  0.35            0.00017869      -0.00017906    
  0.36            0.00018371      -0.00018367    
  0.37            0.00018917      -0.00018875    
  0.38            0.00019478      -0.00019433    
  0.39            0.00019986      -0.00019985    
  0.4             0.00020443      -0.00020481    
  0.41            0.00020919      -0.00020929    
  0.42            0.00021461      -0.00021423    
  0.43            0.0002204       -0.00021975    
  0.44            0.00022559      -0.00022547    
  0.45            0.00023023      -0.00023058    
  0.46            0.00023482      -0.00023511    
  0.47            0.00024004      -0.00024054    
  0.48            0.00024503      -0.00024502    
  0.49            0.00025067      -0.00025011    
  0.5             0.00025637      -0.00025579    
  0.51            0.00026142      -0.00026143    
  0.52            0.00026587      -0.00026639    
  0.53            0.00027059      -0.00027068    
  0.54            0.00027604      -0.00027557    
  0.55            0.00028201      -0.00028122    
  0.56            0.00028726      -0.00028712    
  0.57            0.00029172      -0.00029219    
  0.58            0.00029621      -0.0002966     
  0.59            0.00030145      -0.0003021     
  0.6             0.00030642      -0.00030638    
  0.61            0.00031222      -0.00031155    
  0.62            0.00031811      -0.00031743    
  0.63            0.00032308      -0.00032317    
  0.64            0.00032732      -0.000328      
  0.65            0.00033201      -0.00033216    
  0.66            0.00033765      -0.00033705    
  0.67            0.00034374      -0.00034285    
  0.68            0.00034894      -0.00034881    
  0.69            0.00035328      -0.00035389    
  0.7             0.00035768      -0.00035815    
  0.71            0.00036298      -0.00036378    
  0.72            0.00036789      -0.00036789    
  0.73            0.00037388      -0.00037304    
  0.74            0.00037989      -0.00037913    
  0.75            0.00038487      -0.00038499    
  0.76            0.00038885      -0.00038974    
  0.77            0.00039354      -0.0003937     
  0.78            0.0003993       -0.00039859    
  0.79            0.0004056       -0.0004046     
  0.8             0.00041079      -0.00041069    
  0.81            0.00041496      -0.00041572    
  0.82            0.00041927      -0.00041975    
  0.83            0.00042461      -0.0004255     
  0.84            0.00042958      -0.00042951    
  0.85            0.0004357       -0.00043477    
  0.86            0.00044185      -0.00044104    
  0.87            0.0004468       -0.0004456     
  0.88            0.00045218      -0.00045196    
  0.89            0.00045639      -0.00045714    
  0.9             0.00046048      -0.0004612     
  0.91            0.00046582      -0.00046546    
  0.92            0.00047228      -0.00047102    
  0.93            0.00047809      -0.00047761    
  0.94            0.0004826       -0.00048319    
  0.95            0.00048635      -0.00048742    
  0.96            0.00049135      -0.00049137    
  0.97            0.00049761      -0.00049655    
  0.98            0.00050393      -0.00050301    
  0.99            0.00050888      -0.0005075     
  1               0.00051435      -0.00051409    
END_DB

