! VERSION = 6.00
BEGIN_HEADER
 ICCAP_INPUTS
  VU1        V  E GROUND SMU2 0.1 CON        0
  VU2        V  S GROUND SMU3 0.1 CON        0
  V2         V  B GROUND SMU4 0.015 CON        0
  V1         V  C GROUND SMU1 0.015 LIN        1    -0.55      0.55       111  0.01      
 ICCAP_OUTPUTS
  I1         I  C GROUND SMU1 B
  I2         I  B GROUND SMU4 B
END_HEADER

BEGIN_DB
 ICCAP_VAR VU1        0              
 ICCAP_VAR VU2        0              
 ICCAP_VAR V2         0              

 #V1              I1              I2             
  -0.55           -0.0002041      0.00020423     
  -0.54           -0.00020026     0.0002         
  -0.53           -0.000196       0.00019616     
  -0.52           -0.00019196     0.00019241     
  -0.51           -0.0001884      0.00018869     
  -0.5            -0.00018417     0.00018451     
  -0.49           -0.00018052     0.00018076     
  -0.48           -0.00017651     0.00017629     
  -0.47           -0.00017219     0.00017214     
  -0.46           -0.00016848     0.00016842     
  -0.45           -0.00016431     0.00016426     
  -0.44           -0.00016043     0.00016068     
  -0.43           -0.00015684     0.00015717     
  -0.42           -0.00015326     0.00015321     
  -0.41           -0.00014917     0.00014916     
  -0.4            -0.0001451      0.00014513     
  -0.39           -0.00014116     0.00014147     
  -0.38           -0.00013762     0.00013793     
  -0.37           -0.00013401     0.00013411     
  -0.36           -0.00013029     0.00013021     
  -0.35           -0.00012634     0.0001263      
  -0.34           -0.00012261     0.00012252     
  -0.33           -0.00011866     0.00011883     
  -0.32           -0.00011498     0.00011527     
  -0.31           -0.00011144     0.00011167     
  -0.3            -0.0001079      0.00010803     
  -0.29           -0.00010414     0.00010412     
  -0.28           -0.00010026     0.0001003      
  -0.27           -9.6926e-005    9.6675e-005    
  -0.26           -9.3032e-005    9.3169e-005    
  -0.25           -8.9499e-005    8.957e-005     
  -0.24           -8.6019e-005    8.5951e-005    
  -0.23           -8.2244e-005    8.212e-005     
  -0.22           -7.8502e-005    7.8502e-005    
  -0.21           -7.4811e-005    7.4933e-005    
  -0.2            -7.1362e-005    7.1463e-005    
  -0.19           -6.7924e-005    6.7904e-005    
  -0.18           -6.4362e-005    6.4237e-005    
  -0.17           -6.0642e-005    6.0573e-005    
  -0.16           -5.6996e-005    5.6998e-005    
  -0.15           -5.3385e-005    5.3479e-005    
  -0.14           -4.989e-005     5.0001e-005    
  -0.13           -4.6446e-005    4.6448e-005    
  -0.12           -4.2854e-005    4.2788e-005    
  -0.11           -3.9204e-005    3.9138e-005    
  -0.1            -3.5619e-005    3.5607e-005    
  -0.09           -3.2045e-005    3.209e-005     
  -0.08           -2.8528e-005    2.8576e-005    
  -0.07           -2.497e-005     2.5035e-005    
  -0.06           -2.1429e-005    2.1444e-005    
  -0.05           -1.7869e-005    1.7858e-005    
  -0.04           -1.4299e-005    1.4277e-005    
  -0.03           -1.0713e-005    1.0724e-005    
  -0.02           -7.1781e-006    7.1558e-006    
  -0.01           -3.6326e-006    3.6201e-006    
  0               -6.2622e-008    6.0077e-008    
  0.01            3.5067e-006     -3.5003e-006   
  0.02            7.0507e-006     -7.0515e-006   
  0.03            1.06286e-005    -1.06218e-005  
  0.04            1.4171e-005     -1.4195e-005   
  0.05            1.775e-005      -1.7712e-005   
  0.06            2.127e-005      -2.1255e-005   
  0.07            2.4887e-005     -2.485e-005    
  0.08            2.8383e-005     -2.836e-005    
  0.09            3.1934e-005     -3.195e-005    
  0.1             3.5565e-005     -3.5576e-005   
  0.11            3.9144e-005     -3.9144e-005   
  0.12            4.2685e-005     -4.2643e-005   
  0.13            4.626e-005      -4.6228e-005   
  0.14            4.9755e-005     -4.9747e-005   
  0.15            5.3342e-005     -5.3381e-005   
  0.16            5.701e-005      -5.7049e-005   
  0.17            6.0613e-005     -6.0597e-005   
  0.18            6.4201e-005     -6.4118e-005   
  0.19            6.768e-005      -6.7624e-005   
  0.2             7.1283e-005     -7.1201e-005   
  0.21            7.4702e-005     -7.4652e-005   
  0.22            7.8335e-005     -7.8423e-005   
  0.23            8.1977e-005     -8.2106e-005   
  0.24            8.5693e-005     -8.5709e-005   
  0.25            8.9294e-005     -8.9185e-005   
  0.26            9.2852e-005     -9.2636e-005   
  0.27            9.6243e-005     -9.6178e-005   
  0.28            9.9895e-005     -9.9934e-005   
  0.29            0.000103556     -0.000103691   
  0.3             0.000107258     -0.000107215   
  0.31            0.000110979     -0.000110828   
  0.32            0.00011471      -0.00011427    
  0.33            0.00011787      -0.00011792    
  0.34            0.00012177      -0.00012187    
  0.35            0.0001256       -0.00012545    
  0.36            0.00012907      -0.00012877    
  0.37            0.00013247      -0.00013236    
  0.38            0.0001362       -0.0001362     
  0.39            0.00013999      -0.00014019    
  0.4             0.00014382      -0.00014373    
  0.41            0.00014747      -0.00014732    
  0.42            0.00015092      -0.00015069    
  0.43            0.0001547       -0.00015435    
  0.44            0.00015804      -0.00015798    
  0.45            0.00016175      -0.00016185    
  0.46            0.00016557      -0.00016561    
  0.47            0.00016953      -0.00016941    
  0.48            0.00017317      -0.00017268    
  0.49            0.00017647      -0.00017624    
  0.5             0.00017998      -0.00018008    
  0.51            0.00018393      -0.00018402    
  0.52            0.0001879       -0.00018785    
  0.53            0.00019158      -0.00019122    
  0.54            0.00019512      -0.00019463    
  0.55            0.00019878      -0.00019829    
END_DB

