! VERSION = 6.00
BEGIN_HEADER
 ICCAP_INPUTS
  VU1        V  E GROUND SMU2 0.1 CON        0
  VU2        V  S GROUND SMU3 0.1 CON        0
  V2         V  B GROUND SMU4 0.015 CON        0
  V1         V  C GROUND SMU1 0.015 LIN        1    -0.1       0.1        21   0.01      
 ICCAP_OUTPUTS
  I1         I  C GROUND SMU1 B
  I2         I  B GROUND SMU4 B
END_HEADER

BEGIN_DB
 ICCAP_VAR VU1        0              
 ICCAP_VAR VU2        0              
 ICCAP_VAR V2         0              

 #V1              I1              I2             
  -0.1            -1.6148e-006    1.6222e-006    
  -0.09           -1.4474e-006    1.4468e-006    
  -0.08           -1.2906e-006    1.297e-006     
  -0.07           -1.1103e-006    1.1096e-006    
  -0.06           -9.4942e-007    9.4664e-007    
  -0.05           -7.8004e-007    7.9074e-007    
  -0.04           -6.2324e-007    6.2415e-007    
  -0.03           -4.6727e-007    4.6705e-007    
  -0.02           -3.1771e-007    3.1082e-007    
  -0.01           -1.6016e-007    1.6062e-007    
  0               -1.0603e-008    1.1005e-008    
  0.01            1.4063e-007     -1.4143e-007   
  0.02            2.9254e-007     -2.8873e-007   
  0.03            4.3678e-007     -4.3384e-007   
  0.04            5.9616e-007     -5.839e-007    
  0.05            7.4601e-007     -7.4164e-007   
  0.06            8.9049e-007     -8.7771e-007   
  0.07            1.02796e-006    -1.02795e-006  
  0.08            1.1981e-006     -1.1901e-006   
  0.09            1.3478e-006     -1.3548e-006   
  0.1             1.4868e-006     -1.4942e-006   
END_DB

