! VERSION = 6.00
BEGIN_HEADER
 ICCAP_INPUTS
  VU1        V  E GROUND SMU2 0.1 CON        0
  VU2        V  S GROUND SMU3 0.1 CON        0
  V2         V  B GROUND SMU4 0.015 CON        0
  V1         V  C GROUND SMU1 0.015 LIN        1    -1         1          201  0.01      
 ICCAP_OUTPUTS
  I1         I  C GROUND SMU1 B
  I2         I  B GROUND SMU4 B
END_HEADER

BEGIN_DB
 ICCAP_VAR VU1        0              
 ICCAP_VAR VU2        0              
 ICCAP_VAR V2         0              

 #V1              I1              I2             
  -1              -0.00012531     0.00012546     
  -0.99           -0.00012416     0.00012465     
  -0.98           -0.00012337     0.00012355     
  -0.97           -0.00012219     0.00012206     
  -0.96           -0.00012061     0.00012036     
  -0.95           -0.00011896     0.00011908     
  -0.94           -0.00011778     0.0001182      
  -0.93           -0.00011693     0.00011725     
  -0.92           -0.00011544     0.00011591     
  -0.91           -0.00011458     0.00011469     
  -0.9            -0.00011329     0.0001131      
  -0.89           -0.00011163     0.00011153     
  -0.88           -0.00011061     0.00011033     
  -0.87           -0.00010896     0.00010901     
  -0.86           -0.00010769     0.00010803     
  -0.85           -0.00010678     0.00010712     
  -0.84           -0.00010578     0.00010584     
  -0.83           -0.00010442     0.0001042      
  -0.82           -0.00010276     0.00010273     
  -0.81           -0.00010138     0.00010165     
  -0.8            -0.00010035     0.00010078     
  -0.79           -9.8964e-005    9.9525e-005    
  -0.78           -9.8251e-005    9.8087e-005    
  -0.77           -9.6783e-005    9.6471e-005    
  -0.76           -9.5205e-005    9.516e-005     
  -0.75           -9.3903e-005    9.4108e-005    
  -0.74           -9.2892e-005    9.317e-005     
  -0.73           -9.1916e-005    9.195e-005     
  -0.72           -9.0655e-005    9.045e-005     
  -0.71           -8.915e-005     8.8925e-005    
  -0.7            -8.7652e-005    8.7678e-005    
  -0.69           -8.6429e-005    8.6664e-005    
  -0.68           -8.5437e-005    8.5638e-005    
  -0.67           -8.4375e-005    8.4339e-005    
  -0.66           -8.3052e-005    8.2822e-005    
  -0.65           -8.1529e-005    8.1385e-005    
  -0.64           -8.0444e-005    8.0184e-005    
  -0.63           -7.8905e-005    7.8866e-005    
  -0.62           -7.7615e-005    7.7787e-005    
  -0.61           -7.6548e-005    7.6788e-005    
  -0.6            -7.5527e-005    7.556e-005     
  -0.59           -7.429e-005     7.4131e-005    
  -0.58           -7.2832e-005    7.264e-005     
  -0.57           -7.137e-005     7.1367e-005    
  -0.56           -7.013e-005     7.0305e-005    
  -0.55           -6.9069e-005    6.9248e-005    
  -0.54           -6.7985e-005    6.7978e-005    
  -0.53           -6.6706e-005    6.6534e-005    
  -0.52           -6.5247e-005    6.5106e-005    
  -0.51           -6.3842e-005    6.3887e-005    
  -0.5            -6.2645e-005    6.2834e-005    
  -0.49           -6.1596e-005    6.1713e-005    
  -0.48           -6.0207e-005    6.0414e-005    
  -0.47           -5.9161e-005    5.9205e-005    
  -0.46           -5.7931e-005    5.7814e-005    
  -0.45           -5.6534e-005    5.6374e-005    
  -0.44           -5.5103e-005    5.5098e-005    
  -0.43           -5.385e-005     5.3987e-005    
  -0.42           -5.2749e-005    5.2891e-005    
  -0.41           -5.1631e-005    5.1632e-005    
  -0.4            -5.0351e-005    5.0227e-005    
  -0.39           -4.8955e-005    4.885e-005     
  -0.38           -4.7582e-005    4.7615e-005    
  -0.37           -4.6358e-005    4.65e-005      
  -0.36           -4.5261e-005    4.5355e-005    
  -0.35           -4.391e-005     4.4064e-005    
  -0.34           -4.2801e-005    4.2837e-005    
  -0.33           -4.1571e-005    4.1493e-005    
  -0.32           -4.0212e-005    4.0097e-005    
  -0.31           -3.883e-005     3.8822e-005    
  -0.3            -3.7577e-005    3.7677e-005    
  -0.29           -3.6418e-005    3.6525e-005    
  -0.28           -3.5261e-005    3.5269e-005    
  -0.27           -3.4001e-005    3.3927e-005    
  -0.26           -3.2645e-005    3.2576e-005    
  -0.25           -3.131e-005     3.1328e-005    
  -0.24           -3.0078e-005    3.0168e-005    
  -0.23           -2.8906e-005    2.8984e-005    
  -0.22           -2.7715e-005    2.7706e-005    
  -0.21           -2.6442e-005    2.6376e-005    
  -0.2            -2.5096e-005    2.5058e-005    
  -0.19           -2.3889e-005    2.3819e-005    
  -0.18           -2.2559e-005    2.2555e-005    
  -0.17           -2.1292e-005    2.135e-005     
  -0.16           -2.0098e-005    2.0168e-005    
  -0.15           -1.89e-005      1.8916e-005    
  -0.14           -1.7642e-005    1.7605e-005    
  -0.13           -1.6341e-005    1.6304e-005    
  -0.12           -1.5041e-005    1.505e-005     
  -0.11           -1.3791e-005    1.3837e-005    
  -0.1            -1.2578e-005    1.2622e-005    
  -0.09           -1.1349e-005    1.1353e-005    
  -0.08           -1.0083e-005    1.0063e-005    
  -0.07           -8.7995e-006    8.8223e-006    
  -0.06           -7.5585e-006    7.5353e-006    
  -0.05           -6.2776e-006    6.2826e-006    
  -0.04           -5.0352e-006    5.0498e-006    
  -0.03           -3.7957e-006    3.7998e-006    
  -0.02           -2.537e-006     2.5325e-006    
  -0.01           -1.2819e-006    1.2762e-006    
  0               -2.2472e-008    1.9635e-008    
  0.01            1.2415e-006     -1.2362e-006   
  0.02            2.4895e-006     -2.4921e-006   
  0.03            3.7569e-006     -3.7507e-006   
  0.04            5.0055e-006     -4.9918e-006   
  0.05            6.2349e-006     -6.2328e-006   
  0.06            7.4901e-006     -7.5061e-006   
  0.07            8.7812e-006     -8.7924e-006   
  0.08            1.00112e-005    -1.00366e-005  
  0.09            1.13047e-005    -1.13018e-005  
  0.1             1.2498e-005     -1.2563e-005   
  0.11            1.3824e-005     -1.3792e-005   
  0.12            1.5051e-005     -1.4999e-005   
  0.13            1.6259e-005     -1.6243e-005   
  0.14            1.7505e-005     -1.7528e-005   
  0.15            1.8809e-005     -1.8846e-005   
  0.16            2.0121e-005     -2.0111e-005   
  0.17            2.1369e-005     -2.1306e-005   
  0.18            2.2563e-005     -2.2504e-005   
  0.19            2.3763e-005     -2.3761e-005   
  0.2             2.5022e-005     -2.5083e-005   
  0.21            2.6367e-005     -2.6403e-005   
  0.22            2.7565e-005     -2.7643e-005   
  0.23            2.8915e-005     -2.8926e-005   
  0.24            3.0196e-005     -3.0134e-005   
  0.25            3.1388e-005     -3.128e-005    
  0.26            3.2533e-005     -3.2502e-005   
  0.27            3.3773e-005     -3.3824e-005   
  0.28            3.5111e-005     -3.5203e-005   
  0.29            3.6484e-005     -3.6485e-005   
  0.3             3.7743e-005     -3.7653e-005   
  0.31            3.89e-005       -3.8787e-005   
  0.32            4.0049e-005     -4.0031e-005   
  0.33            4.1298e-005     -4.1381e-005   
  0.34            4.2677e-005     -4.2771e-005   
  0.35            4.4051e-005     -4.4027e-005   
  0.36            4.5282e-005     -4.5154e-005   
  0.37            4.6396e-005     -4.6295e-005   
  0.38            4.7552e-005     -4.7567e-005   
  0.39            4.8838e-005     -4.8978e-005   
  0.4             5.027e-005      -5.0346e-005   
  0.41            5.1416e-005     -5.1571e-005   
  0.42            5.2848e-005     -5.2869e-005   
  0.43            5.4133e-005     -5.4014e-005   
  0.44            5.5255e-005     -5.5091e-005   
  0.45            5.634e-005      -5.6308e-005   
  0.46            5.7589e-005     -5.77e-005     
  0.47            5.9e-005        -5.9147e-005   
  0.48            6.0422e-005     -6.0411e-005   
  0.49            6.1669e-005     -6.1507e-005   
  0.5             6.2745e-005     -6.2593e-005   
  0.51            6.3839e-005     -6.3855e-005   
  0.52            6.5133e-005     -6.5305e-005   
  0.53            6.6615e-005     -6.6726e-005   
  0.54            6.7725e-005     -6.7935e-005   
  0.55            6.9219e-005     -6.9258e-005   
  0.56            7.0532e-005     -7.0398e-005   
  0.57            7.1637e-005     -7.14e-005     
  0.58            7.2645e-005     -7.2595e-005   
  0.59            7.3877e-005     -7.4015e-005   
  0.6             7.5325e-005     -7.5529e-005   
  0.61            7.6805e-005     -7.6814e-005   
  0.62            7.8068e-005     -7.788e-005    
  0.63            7.9109e-005     -7.8901e-005   
  0.64            8.0152e-005     -8.0158e-005   
  0.65            8.1437e-005     -8.164e-005    
  0.66            8.2957e-005     -8.3119e-005   
  0.67            8.4395e-005     -8.4339e-005   
  0.68            8.5597e-005     -8.533e-005    
  0.69            8.6575e-005     -8.6406e-005   
  0.7             8.8019e-005     -8.772e-005    
  0.71            8.8969e-005     -8.8894e-005   
  0.72            9.0163e-005     -9.0318e-005   
  0.73            9.1619e-005     -9.1897e-005   
  0.74            9.3188e-005     -9.3224e-005   
  0.75            9.4483e-005     -9.4269e-005   
  0.76            9.5489e-005     -9.5212e-005   
  0.77            9.6471e-005     -9.6441e-005   
  0.78            9.7732e-005     -9.795e-005    
  0.79            9.927e-005      -9.9497e-005   
  0.8             0.000100787     -0.000100745   
  0.81            0.000102007     -0.000101719   
  0.82            0.000102925     -0.000102707   
  0.83            0.000103961     -0.000104015   
  0.84            0.000105312     -0.00010548    
  0.85            0.00010702      -0.00010657    
  0.86            0.00010786      -0.00010767    
  0.87            0.00010903      -0.00010915    
  0.88            0.00011057      -0.00011079    
  0.89            0.00011218      -0.00011208    
  0.9             0.0001134       -0.000113      
  0.91            0.00011426      -0.00011396    
  0.92            0.00011574      -0.00011526    
  0.93            0.00011662      -0.00011648    
  0.94            0.00011787      -0.00011803    
  0.95            0.00011951      -0.00011967    
  0.96            0.00012056      -0.00012085    
  0.97            0.00012224      -0.00012221    
  0.98            0.00012355      -0.00012316    
  0.99            0.00012442      -0.00012405    
  1               0.00012536      -0.00012534    
END_DB

