! VERSION = 6.00
BEGIN_HEADER
 ICCAP_INPUTS
  VU1        V  E GROUND SMU2 0.1 CON        0
  VU2        V  S GROUND SMU3 0.1 CON        0
  V2         V  B GROUND SMU4 0.015 CON        0
  V1         V  C GROUND SMU1 0.015 LIN        1    -0.2       0.2        41   0.01      
 ICCAP_OUTPUTS
  I1         I  C GROUND SMU1 B
  I2         I  B GROUND SMU4 B
END_HEADER

BEGIN_DB
 ICCAP_VAR VU1        0              
 ICCAP_VAR VU2        0              
 ICCAP_VAR V2         0              

 #V1              I1              I2             
  -0.2            -7.0243e-005    6.9838e-005    
  -0.19           -6.5868e-005    6.6068e-005    
  -0.18           -6.2254e-005    6.242e-005     
  -0.17           -5.8584e-005    5.8562e-005    
  -0.16           -5.4819e-005    5.4664e-005    
  -0.15           -5.0932e-005    5.0841e-005    
  -0.14           -4.7359e-005    4.721e-005     
  -0.13           -4.3651e-005    4.3623e-005    
  -0.12           -4.0049e-005    4.0155e-005    
  -0.11           -3.6642e-005    3.6812e-005    
  -0.1            -3.3337e-005    3.3367e-005    
  -0.09           -2.9909e-005    2.9821e-005    
  -0.08           -2.6416e-005    2.6332e-005    
  -0.07           -2.2995e-005    2.2997e-005    
  -0.06           -1.9648e-005    1.9718e-005    
  -0.05           -1.6382e-005    1.6444e-005    
  -0.04           -1.3158e-005    1.3167e-005    
  -0.03           -9.8018e-006    9.8694e-006    
  -0.02           -6.5844e-006    6.5666e-006    
  -0.01           -3.3203e-006    3.3105e-006    
  0               -6.6344e-008    6.4488e-008    
  0.01            3.1957e-006     -3.1904e-006   
  0.02            6.4232e-006     -6.4289e-006   
  0.03            9.6984e-006     -9.6682e-006   
  0.04            1.2901e-005     -1.2933e-005   
  0.05            1.6178e-005     -1.6128e-005   
  0.06            1.9374e-005     -1.9365e-005   
  0.07            2.2658e-005     -2.2688e-005   
  0.08            2.5992e-005     -2.6021e-005   
  0.09            2.9368e-005     -2.9358e-005   
  0.1             3.2723e-005     -3.2629e-005   
  0.11            3.5942e-005     -3.584e-005    
  0.12            3.9208e-005     -3.9206e-005   
  0.13            4.2625e-005     -4.2725e-005   
  0.14            4.612e-005      -4.6252e-005   
  0.15            4.9699e-005     -4.9675e-005   
  0.16            5.3143e-005     -5.299e-005    
  0.17            5.6443e-005     -5.6336e-005   
  0.18            6.0106e-005     -5.9897e-005   
  0.19            6.3423e-005     -6.3366e-005   
  0.2             6.6958e-005     -6.7096e-005   
END_DB

