! VERSION = 6.00
BEGIN_HEADER
 ICCAP_INPUTS
  VU1        V  E GROUND SMU2 0.1 CON        0
  VU2        V  S GROUND SMU3 0.1 CON        0
  V2         V  B GROUND SMU4 0.015 CON        0
  V1         V  C GROUND SMU1 0.015 LIN        1    -1         1          201  0.01      
 ICCAP_OUTPUTS
  I1         I  C GROUND SMU1 B
  I2         I  B GROUND SMU4 B
END_HEADER

BEGIN_DB
 ICCAP_VAR VU1        0              
 ICCAP_VAR VU2        0              
 ICCAP_VAR V2         0              

 #V1              I1              I2             
  -1              -2.5437e-005    2.5594e-005    
  -0.99           -2.5327e-005    2.5294e-005    
  -0.98           -2.5026e-005    2.4958e-005    
  -0.97           -2.4689e-005    2.4684e-005    
  -0.96           -2.4422e-005    2.4479e-005    
  -0.95           -2.4225e-005    2.4304e-005    
  -0.94           -2.404e-005     2.4056e-005    
  -0.93           -2.3785e-005    2.3739e-005    
  -0.92           -2.3471e-005    2.3423e-005    
  -0.91           -2.3155e-005    2.3168e-005    
  -0.9            -2.2906e-005    2.2972e-005    
  -0.89           -2.2715e-005    2.2777e-005    
  -0.88           -2.251e-005     2.2508e-005    
  -0.87           -2.2244e-005    2.2191e-005    
  -0.86           -2.192e-005     2.1888e-005    
  -0.85           -2.1707e-005    2.1647e-005    
  -0.84           -2.1379e-005    2.1379e-005    
  -0.83           -2.1115e-005    2.1166e-005    
  -0.82           -2.0906e-005    2.0978e-005    
  -0.81           -2.0714e-005    2.0733e-005    
  -0.8            -2.0464e-005    2.0424e-005    
  -0.79           -2.0154e-005    2.0113e-005    
  -0.78           -1.9844e-005    1.9858e-005    
  -0.77           -1.9595e-005    1.9655e-005    
  -0.76           -1.9395e-005    1.9449e-005    
  -0.75           -1.9182e-005    1.9184e-005    
  -0.74           -1.8919e-005    1.8876e-005    
  -0.73           -1.8608e-005    1.8581e-005    
  -0.72           -1.8389e-005    1.8338e-005    
  -0.71           -1.8075e-005    1.807e-005     
  -0.7            -1.7807e-005    1.7847e-005    
  -0.69           -1.7587e-005    1.765e-005     
  -0.68           -1.739e-005     1.7407e-005    
  -0.67           -1.7139e-005    1.7112e-005    
  -0.66           -1.6842e-005    1.6805e-005    
  -0.65           -1.6541e-005    1.6548e-005    
  -0.64           -1.6283e-005    1.6334e-005    
  -0.63           -1.6071e-005    1.612e-005     
  -0.62           -1.5857e-005    1.5864e-005    
  -0.61           -1.5597e-005    1.5563e-005    
  -0.6            -1.5296e-005    1.5273e-005    
  -0.59           -1.501e-005     1.5029e-005    
  -0.58           -1.4764e-005    1.4816e-005    
  -0.57           -1.4557e-005    1.459e-005     
  -0.56           -1.4272e-005    1.4326e-005    
  -0.55           -1.4064e-005    1.4079e-005    
  -0.54           -1.3813e-005    1.3792e-005    
  -0.53           -1.3526e-005    1.3496e-005    
  -0.52           -1.3232e-005    1.3237e-005    
  -0.51           -1.2976e-005    1.3017e-005    
  -0.5            -1.2754e-005    1.2798e-005    
  -0.49           -1.2531e-005    1.254e-005     
  -0.48           -1.2271e-005    1.225e-005     
  -0.47           -1.1982e-005    1.1966e-005    
  -0.46           -1.1702e-005    1.1718e-005    
  -0.45           -1.1456e-005    1.1501e-005    
  -0.44           -1.1236e-005    1.1264e-005    
  -0.43           -1.0959e-005    1.1004e-005    
  -0.42           -1.074e-005     1.0755e-005    
  -0.41           -1.0489e-005    1.0474e-005    
  -0.4            -1.021e-005     1.0188e-005    
  -0.39           -9.9581e-006    9.9423e-006    
  -0.38           -9.6817e-006    9.6728e-006    
  -0.37           -9.4162e-006    9.4365e-006    
  -0.36           -9.1864e-006    9.2133e-006    
  -0.35           -8.9571e-006    8.955e-006     
  -0.34           -8.6965e-006    8.6715e-006    
  -0.33           -8.4108e-006    8.402e-006     
  -0.32           -8.1453e-006    8.162e-006     
  -0.31           -7.9093e-006    7.9336e-006    
  -0.3            -7.6789e-006    7.6776e-006    
  -0.29           -7.4197e-006    7.3987e-006    
  -0.28           -7.1378e-006    7.128e-006     
  -0.27           -6.8743e-006    6.8869e-006    
  -0.26           -6.6321e-006    6.6548e-006    
  -0.25           -6.3975e-006    6.3988e-006    
  -0.24           -6.1422e-006    6.125e-006     
  -0.23           -5.8667e-006    5.8569e-006    
  -0.22           -5.6007e-006    5.6111e-006    
  -0.21           -5.3564e-006    5.3764e-006    
  -0.2            -5.1192e-006    5.1209e-006    
  -0.19           -4.8623e-006    4.8488e-006    
  -0.18           -4.5941e-006    4.5853e-006    
  -0.17           -4.3291e-006    4.337e-006     
  -0.16           -4.0819e-006    4.0983e-006    
  -0.15           -3.8403e-006    3.8431e-006    
  -0.14           -3.5845e-006    3.5747e-006    
  -0.13           -3.3223e-006    3.3134e-006    
  -0.12           -3.0705e-006    3.059e-006     
  -0.11           -2.804e-006     2.8045e-006    
  -0.1            -2.5504e-006    2.5599e-006    
  -0.09           -2.3015e-006    2.3081e-006    
  -0.08           -2.0504e-006    2.0472e-006    
  -0.07           -1.7944e-006    1.7869e-006    
  -0.06           -1.5316e-006    1.5327e-006    
  -0.05           -1.2759e-006    1.2826e-006    
  -0.04           -1.0239e-006    1.0298e-006    
  -0.03           -7.6875e-007    7.7007e-007    
  -0.02           -5.1565e-007    5.1212e-007    
  -0.01           -2.6143e-007    2.5904e-007    
  0               -1.9045e-009    4.1987e-009    
  0.01            2.5144e-007     -2.526e-007    
  0.02            5.0519e-007     -5.0676e-007   
  0.03            7.5745e-007     -7.5855e-007   
  0.04            1.01494e-006    -1.01479e-006  
  0.05            1.2744e-006     -1.2721e-006   
  0.06            1.5311e-006     -1.5296e-006   
  0.07            1.7851e-006     -1.7805e-006   
  0.08            2.0313e-006     -2.0292e-006   
  0.09            2.2853e-006     -2.2863e-006   
  0.1             2.5483e-006     -2.5513e-006   
  0.11            2.809e-006      -2.8077e-006   
  0.12            3.0626e-006     -3.0543e-006   
  0.13            3.3062e-006     -3.3018e-006   
  0.14            3.556e-006      -3.5584e-006   
  0.15            3.8216e-006     -3.8289e-006   
  0.16            4.0887e-006     -4.0875e-006   
  0.17            4.3402e-006     -4.3289e-006   
  0.18            4.5796e-006     -4.5733e-006   
  0.19            4.8291e-006     -4.8332e-006   
  0.2             5.0947e-006     -5.1057e-006   
  0.21            5.3661e-006     -5.3655e-006   
  0.22            5.6203e-006     -5.6064e-006   
  0.23            5.8523e-006     -5.844e-006    
  0.24            6.0995e-006     -6.1045e-006   
  0.25            6.3673e-006     -6.3822e-006   
  0.26            6.6432e-006     -6.6447e-006   
  0.27            6.8983e-006     -6.885e-006    
  0.28            7.1299e-006     -7.1175e-006   
  0.29            7.398e-006      -7.3771e-006   
  0.3             7.6283e-006     -7.6251e-006   
  0.31            7.8865e-006     -7.9022e-006   
  0.32            8.1702e-006     -8.1798e-006   
  0.33            8.4096e-006     -8.4304e-006   
  0.34            8.6915e-006     -8.6909e-006   
  0.35            8.9442e-006     -8.9222e-006   
  0.36            9.1648e-006     -9.1518e-006   
  0.37            9.4072e-006     -9.4178e-006   
  0.38            9.6848e-006     -9.7098e-006   
  0.39            9.9699e-006     -9.9706e-006   
  0.4             1.02227e-005    -1.01983e-005  
  0.41            1.04429e-005    -1.04265e-005  
  0.42            1.07142e-005    -1.0685e-005   
  0.43            1.09372e-005    -1.09359e-005  
  0.44            1.11978e-005    -1.12244e-005  
  0.45            1.1495e-005     -1.1459e-005   
  0.46            1.1732e-005     -1.1752e-005   
  0.47            1.2021e-005     -1.2014e-005   
  0.48            1.2277e-005     -1.2245e-005   
  0.49            1.2502e-005     -1.2462e-005   
  0.5             1.2724e-005     -1.2714e-005   
  0.51            1.2982e-005     -1.2996e-005   
  0.52            1.3273e-005     -1.329e-005    
  0.53            1.3558e-005     -1.3545e-005   
  0.54            1.381e-005      -1.3765e-005   
  0.55            1.4018e-005     -1.3985e-005   
  0.56            1.4246e-005     -1.4246e-005   
  0.57            1.4518e-005     -1.4547e-005   
  0.58            1.482e-005      -1.483e-005    
  0.59            1.5047e-005     -1.5078e-005   
  0.6             1.5348e-005     -1.5343e-005   
  0.61            1.5604e-005     -1.5566e-005   
  0.62            1.582e-005      -1.5772e-005   
  0.63            1.6035e-005     -1.6024e-005   
  0.64            1.6291e-005     -1.6313e-005   
  0.65            1.659e-005      -1.6616e-005   
  0.66            1.6885e-005     -1.6871e-005   
  0.67            1.7132e-005     -1.7081e-005   
  0.68            1.7335e-005     -1.7294e-005   
  0.69            1.7558e-005     -1.7557e-005   
  0.7             1.7827e-005     -1.7862e-005   
  0.71            1.814e-005      -1.8155e-005   
  0.72            1.8359e-005     -1.84e-005     
  0.73            1.8669e-005     -1.8669e-005   
  0.74            1.893e-005      -1.8885e-005   
  0.75            1.9139e-005     -1.9081e-005   
  0.76            1.9341e-005     -1.9329e-005   
  0.77            1.9601e-005     -1.9631e-005   
  0.78            1.991e-005      -1.9942e-005   
  0.79            2.021e-005      -2.0193e-005   
  0.8             2.0455e-005     -2.0394e-005   
  0.81            2.0646e-005     -2.0603e-005   
  0.82            2.0945e-005     -2.0875e-005   
  0.83            2.1132e-005     -2.1105e-005   
  0.84            2.137e-005      -2.1394e-005   
  0.85            2.1666e-005     -2.172e-005    
  0.86            2.1993e-005     -2.1996e-005   
  0.87            2.2258e-005     -2.2208e-005   
  0.88            2.2461e-005     -2.2391e-005   
  0.89            2.2651e-005     -2.2635e-005   
  0.9             2.2908e-005     -2.2944e-005   
  0.91            2.3222e-005     -2.3263e-005   
  0.92            2.3534e-005     -2.3522e-005   
  0.93            2.3782e-005     -2.3716e-005   
  0.94            2.3965e-005     -2.391e-005    
  0.95            2.4171e-005     -2.4172e-005   
  0.96            2.4444e-005     -2.4501e-005   
  0.97            2.478e-005      -2.4806e-005   
  0.98            2.4983e-005     -2.5047e-005   
  0.99            2.5318e-005     -2.5321e-005   
  1               2.5582e-005     -2.5526e-005   
END_DB

