! VERSION = 6.00
BEGIN_HEADER
 ICCAP_INPUTS
  VU1        V  E GROUND SMU2 0.1 CON        0
  VU2        V  S GROUND SMU3 0.1 CON        0
  V2         V  B GROUND SMU4 0.015 CON        0
  V1         V  C GROUND SMU1 0.015 LIN        1    -1         1          201  0.01      
 ICCAP_OUTPUTS
  I1         I  C GROUND SMU1 B
  I2         I  B GROUND SMU4 B
END_HEADER

BEGIN_DB
 ICCAP_VAR VU1        0              
 ICCAP_VAR VU2        0              
 ICCAP_VAR V2         0              

 #V1              I1              I2             
  -1              -0.00012625     0.00012634     
  -0.99           -0.00012495     0.00012467     
  -0.98           -0.00012323     0.00012312     
  -0.97           -0.00012219     0.00012191     
  -0.96           -0.00012054     0.00012061     
  -0.95           -0.00011931     0.00011973     
  -0.94           -0.00011845     0.00011881     
  -0.93           -0.00011695     0.00011746     
  -0.92           -0.00011613     0.0001163      
  -0.91           -0.00011488     0.00011468     
  -0.9            -0.00011323     0.00011306     
  -0.89           -0.0001117      0.00011185     
  -0.88           -0.00011056     0.00011101     
  -0.87           -0.00010975     0.00010997     
  -0.86           -0.00010859     0.0001085      
  -0.85           -0.00010705     0.00010683     
  -0.84           -0.00010543     0.00010553     
  -0.83           -0.00010419     0.00010458     
  -0.82           -0.00010329     0.00010363     
  -0.81           -0.00010185     0.00010231     
  -0.8            -0.00010096     0.00010112     
  -0.79           -9.9171e-005    9.9561e-005    
  -0.78           -9.8243e-005    9.7947e-005    
  -0.77           -9.6666e-005    9.6643e-005    
  -0.76           -9.5408e-005    9.5652e-005    
  -0.75           -9.4426e-005    9.4683e-005    
  -0.74           -9.3437e-005    9.3424e-005    
  -0.73           -9.2131e-005    9.1889e-005    
  -0.72           -9.0583e-005    9.0372e-005    
  -0.71           -8.9108e-005    8.9165e-005    
  -0.7            -8.7918e-005    8.8192e-005    
  -0.69           -8.6968e-005    8.7136e-005    
  -0.68           -8.5519e-005    8.5818e-005    
  -0.67           -8.456e-005     8.4616e-005    
  -0.66           -8.3339e-005    8.3174e-005    
  -0.65           -8.1872e-005    8.1621e-005    
  -0.64           -8.0343e-005    8.0318e-005    
  -0.63           -7.9065e-005    7.9256e-005    
  -0.62           -7.8028e-005    7.8261e-005    
  -0.61           -7.6999e-005    7.7011e-005    
  -0.6            -7.5717e-005    7.5528e-005    
  -0.59           -7.4233e-005    7.4059e-005    
  -0.58           -7.2793e-005    7.282e-005     
  -0.57           -7.1566e-005    7.1781e-005    
  -0.56           -7.0541e-005    7.0711e-005    
  -0.55           -6.9444e-005    6.9404e-005    
  -0.54           -6.8118e-005    6.7918e-005    
  -0.53           -6.662e-005     6.6514e-005    
  -0.52           -6.5508e-005    6.5295e-005    
  -0.51           -6.4022e-005    6.3996e-005    
  -0.5            -6.2747e-005    6.2903e-005    
  -0.49           -6.1661e-005    6.1851e-005    
  -0.48           -6.0586e-005    6.0602e-005    
  -0.47           -5.9322e-005    5.9179e-005    
  -0.46           -5.7886e-005    5.7745e-005    
  -0.45           -5.6484e-005    5.6517e-005    
  -0.44           -5.5253e-005    5.5425e-005    
  -0.43           -5.4167e-005    5.4298e-005    
  -0.42           -5.2809e-005    5.3001e-005    
  -0.41           -5.1746e-005    5.1789e-005    
  -0.4            -5.0513e-005    5.0425e-005    
  -0.39           -4.9142e-005    4.8986e-005    
  -0.38           -4.7714e-005    4.7698e-005    
  -0.37           -4.644e-005     4.6557e-005    
  -0.36           -4.5315e-005    4.5458e-005    
  -0.35           -4.4191e-005    4.4205e-005    
  -0.34           -4.2915e-005    4.2814e-005    
  -0.33           -4.1535e-005    4.144e-005     
  -0.32           -4.0175e-005    4.0193e-005    
  -0.31           -3.893e-005     3.9055e-005    
  -0.3            -3.7798e-005    3.79e-005      
  -0.29           -3.6626e-005    3.6613e-005    
  -0.28           -3.5331e-005    3.5232e-005    
  -0.27           -3.3954e-005    3.3904e-005    
  -0.26           -3.277e-005     3.2663e-005    
  -0.25           -3.1395e-005    3.1385e-005    
  -0.24           -3.0129e-005    3.0206e-005    
  -0.23           -2.895e-005     2.9049e-005    
  -0.22           -2.7774e-005    2.7794e-005    
  -0.21           -2.6523e-005    2.6464e-005    
  -0.2            -2.5181e-005    2.5123e-005    
  -0.19           -2.3856e-005    2.3869e-005    
  -0.18           -2.2615e-005    2.2689e-005    
  -0.17           -2.142e-005     2.1485e-005    
  -0.16           -2.022e-005     2.0217e-005    
  -0.15           -1.8941e-005    1.8894e-005    
  -0.14           -1.7616e-005    1.759e-005     
  -0.13           -1.6401e-005    1.6351e-005    
  -0.12           -1.5082e-005    1.5085e-005    
  -0.11           -1.3813e-005    1.3858e-005    
  -0.1            -1.2602e-005    1.2652e-005    
  -0.09           -1.1374e-005    1.1389e-005    
  -0.08           -1.0112e-005    1.0092e-005    
  -0.07           -8.8148e-006    8.8491e-006    
  -0.06           -7.5826e-006    7.5547e-006    
  -0.05           -6.2958e-006    6.2927e-006    
  -0.04           -5.0457e-006    5.0625e-006    
  -0.03           -3.7966e-006    3.81e-006      
  -0.02           -2.5322e-006    2.5452e-006    
  -0.01           -1.286e-006     1.2882e-006    
  0               -2.1418e-008    1.9255e-008    
  0.01            1.2437e-006     -1.2382e-006   
  0.02            2.5019e-006     -2.4987e-006   
  0.03            3.753e-006      -3.7597e-006   
  0.04            5.0295e-006     -5.0267e-006   
  0.05            6.28e-006       -6.2635e-006   
  0.06            7.5155e-006     -7.5023e-006   
  0.07            8.7605e-006     -8.7698e-006   
  0.08            1.00327e-005    -1.00621e-005  
  0.09            1.13331e-005    -1.13351e-005  
  0.1             1.253e-005      -1.2599e-005   
  0.11            1.3862e-005     -1.3828e-005   
  0.12            1.5089e-005     -1.5035e-005   
  0.13            1.6295e-005     -1.628e-005    
  0.14            1.7543e-005     -1.7568e-005   
  0.15            1.885e-005      -1.8894e-005   
  0.16            2.0172e-005     -2.0162e-005   
  0.17            2.142e-005      -2.1363e-005   
  0.18            2.2619e-005     -2.2554e-005   
  0.19            2.3818e-005     -2.3817e-005   
  0.2             2.5079e-005     -2.5142e-005   
  0.21            2.6435e-005     -2.6472e-005   
  0.22            2.7631e-005     -2.7712e-005   
  0.23            2.899e-005      -2.9e-005      
  0.24            3.0273e-005     -3.0206e-005   
  0.25            3.1462e-005     -3.1352e-005   
  0.26            3.2606e-005     -3.2575e-005   
  0.27            3.3854e-005     -3.3915e-005   
  0.28            3.5198e-005     -3.5296e-005   
  0.29            3.6578e-005     -3.6577e-005   
  0.3             3.7835e-005     -3.7742e-005   
  0.31            3.8992e-005     -3.8878e-005   
  0.32            4.0139e-005     -4.0128e-005   
  0.33            4.1399e-005     -4.1495e-005   
  0.34            4.2794e-005     -4.2881e-005   
  0.35            4.4168e-005     -4.4135e-005   
  0.36            4.5393e-005     -4.5249e-005   
  0.37            4.6495e-005     -4.6396e-005   
  0.38            4.7866e-005     -4.7695e-005   
  0.39            4.8943e-005     -4.8895e-005   
  0.4             5.0167e-005     -5.0253e-005   
  0.41            5.1551e-005     -5.1706e-005   
  0.42            5.2985e-005     -5.3e-005      
  0.43            5.427e-005      -5.4145e-005   
  0.44            5.539e-005      -5.5211e-005   
  0.45            5.6469e-005     -5.6439e-005   
  0.46            5.7724e-005     -5.7848e-005   
  0.47            5.9152e-005     -5.9299e-005   
  0.48            6.0578e-005     -6.0556e-005   
  0.49            6.1819e-005     -6.1644e-005   
  0.5             6.2882e-005     -6.2732e-005   
  0.51            6.3983e-005     -6.4008e-005   
  0.52            6.5294e-005     -6.5488e-005   
  0.53            6.6795e-005     -6.6907e-005   
  0.54            6.7904e-005     -6.8125e-005   
  0.55            6.9406e-005     -6.9435e-005   
  0.56            7.071e-005      -7.0558e-005   
  0.57            7.18e-005       -7.1562e-005   
  0.58            7.2813e-005     -7.277e-005    
  0.59            7.406e-005      -7.422e-005    
  0.6             7.5536e-005     -7.5732e-005   
  0.61            7.7018e-005     -7.6997e-005   
  0.62            7.8255e-005     -7.8039e-005   
  0.63            7.9269e-005     -7.908e-005    
  0.64            8.033e-005      -8.036e-005    
  0.65            8.1644e-005     -8.1888e-005   
  0.66            8.3203e-005     -8.3344e-005   
  0.67            8.4266e-005     -8.4542e-005   
  0.68            8.5838e-005     -8.5889e-005   
  0.69            8.715e-005      -8.6962e-005   
  0.7             8.8186e-005     -8.7899e-005   
  0.71            8.916e-005      -8.911e-005    
  0.72            9.0404e-005     -9.0596e-005   
  0.73            9.1913e-005     -9.2159e-005   
  0.74            9.3449e-005     -9.3436e-005   
  0.75            9.4691e-005     -9.444e-005    
  0.76            9.5649e-005     -9.5414e-005   
  0.77            9.667e-005      -9.6701e-005   
  0.78            9.7989e-005     -9.8278e-005   
  0.79            9.9592e-005     -9.9771e-005   
  0.8             0.000100631     -0.000100963   
  0.81            0.00010227      -0.000102325   
  0.82            0.000103589     -0.000103367   
  0.83            0.000104591     -0.000104251   
  0.84            0.000105508     -0.00010608    
  0.85            0.00010741      -0.00010729    
  0.86            0.00010863      -0.0001082     
  0.87            0.00010952      -0.00010921    
  0.88            0.00011097      -0.00011052    
  0.89            0.00011184      -0.0001117     
  0.9             0.00011312      -0.00011332    
  0.91            0.00011478      -0.0001149     
  0.92            0.00011581      -0.00011611    
  0.93            0.00011752      -0.00011746    
  0.94            0.00011879      -0.00011839    
  0.95            0.00011965      -0.00011927    
  0.96            0.00012062      -0.00012059    
  0.97            0.00012203      -0.00012231    
  0.98            0.0001238       -0.0001238     
  0.99            0.00012517      -0.00012484    
  1               0.0001261       -0.00012561    
END_DB

