! VERSION = 6.00
BEGIN_HEADER
 ICCAP_INPUTS
  VU1        V  E GROUND SMU2 0.1 CON        0
  VU2        V  S GROUND SMU3 0.1 CON        0
  V2         V  B GROUND SMU1 0.015 CON        0
  V1         V  C GROUND SMU4 0.015 LIN        1    -1         1          201  0.01      
 ICCAP_OUTPUTS
  I1         I  C GROUND SMU4 B
  I2         I  B GROUND SMU1 B
END_HEADER

BEGIN_DB
 ICCAP_VAR VU1        0              
 ICCAP_VAR VU2        0              
 ICCAP_VAR V2         0              

 #V1              I1              I2             
  -1              -2.3902e-005    2.352e-005     
  -0.99           -2.3503e-005    2.3654e-005    
  -0.98           -2.3061e-005    2.3246e-005    
  -0.97           -2.2818e-005    2.2821e-005    
  -0.96           -2.2753e-005    2.26e-005      
  -0.95           -2.2691e-005    2.2555e-005    
  -0.94           -2.2432e-005    2.2466e-005    
  -0.93           -2.2006e-005    2.2187e-005    
  -0.92           -2.1621e-005    2.1744e-005    
  -0.91           -2.1439e-005    2.1638e-005    
  -0.9            -2.1149e-005    2.1195e-005    
  -0.89           -2.1029e-005    2.0925e-005    
  -0.88           -2.0996e-005    2.0828e-005    
  -0.87           -2.0786e-005    2.0766e-005    
  -0.86           -2.0419e-005    2.0547e-005    
  -0.85           -1.9994e-005    2.016e-005     
  -0.84           -1.9745e-005    1.9759e-005    
  -0.83           -1.9651e-005    1.9532e-005    
  -0.82           -1.9573e-005    1.9451e-005    
  -0.81           -1.9324e-005    1.9348e-005    
  -0.8            -1.8937e-005    1.9085e-005    
  -0.79           -1.8566e-005    1.8677e-005    
  -0.78           -1.8358e-005    1.8334e-005    
  -0.77           -1.8283e-005    1.814e-005     
  -0.76           -1.8151e-005    1.8081e-005    
  -0.75           -1.7879e-005    1.7735e-005    
  -0.74           -1.7675e-005    1.7661e-005    
  -0.73           -1.733e-005     1.7438e-005    
  -0.72           -1.6933e-005    1.7074e-005    
  -0.71           -1.6681e-005    1.6697e-005    
  -0.7            -1.6566e-005    1.6466e-005    
  -0.69           -1.6463e-005    1.6361e-005    
  -0.68           -1.6221e-005    1.6242e-005    
  -0.67           -1.5855e-005    1.5976e-005    
  -0.66           -1.5506e-005    1.56e-005      
  -0.65           -1.5287e-005    1.5272e-005    
  -0.64           -1.5177e-005    1.5068e-005    
  -0.63           -1.5039e-005    1.4967e-005    
  -0.62           -1.4768e-005    1.4643e-005    
  -0.61           -1.4568e-005    1.4547e-005    
  -0.6            -1.4252e-005    1.4331e-005    
  -0.59           -1.3877e-005    1.4003e-005    
  -0.58           -1.3616e-005    1.3638e-005    
  -0.57           -1.3471e-005    1.34e-005      
  -0.56           -1.3354e-005    1.3261e-005    
  -0.55           -1.3122e-005    1.313e-005     
  -0.54           -1.2788e-005    1.2881e-005    
  -0.53           -1.2451e-005    1.2542e-005    
  -0.52           -1.2223e-005    1.2219e-005    
  -0.51           -1.2088e-005    1.2004e-005    
  -0.5            -1.193e-005     1.1878e-005    
  -0.49           -1.1676e-005    1.1703e-005    
  -0.48           -1.1335e-005    1.1436e-005    
  -0.47           -1.1034e-005    1.1086e-005    
  -0.46           -1.0818e-005    1.0916e-005    
  -0.45           -1.0567e-005    1.0583e-005    
  -0.44           -1.0395e-005    1.0343e-005    
  -0.43           -1.0252e-005    1.0181e-005    
  -0.42           -1.0018e-005    1.0023e-005    
  -0.41           -9.7908e-006    9.6282e-006    
  -0.4            -9.5016e-006    9.55e-006      
  -0.39           -9.1673e-006    9.2379e-006    
  -0.38           -8.9318e-006    8.9266e-006    
  -0.37           -8.7805e-006    8.7096e-006    
  -0.36           -8.5956e-006    8.57e-006      
  -0.35           -8.3177e-006    8.3563e-006    
  -0.34           -7.9925e-006    8.0573e-006    
  -0.33           -7.7498e-006    7.7514e-006    
  -0.32           -7.5818e-006    7.5273e-006    
  -0.31           -7.3989e-006    7.3713e-006    
  -0.3            -7.1352e-006    7.1621e-006    
  -0.29           -6.8203e-006    6.878e-006     
  -0.28           -6.5745e-006    6.5784e-006    
  -0.27           -6.3904e-006    6.3501e-006    
  -0.26           -6.2033e-006    6.175e-006     
  -0.25           -5.9551e-006    5.9079e-006    
  -0.24           -5.7258e-006    5.7253e-006    
  -0.23           -5.4388e-006    5.4789e-006    
  -0.22           -5.1633e-006    5.1845e-006    
  -0.21           -4.9438e-006    4.9277e-006    
  -0.2            -4.7632e-006    4.7248e-006    
  -0.19           -4.5327e-006    4.5308e-006    
  -0.18           -4.259e-006     4.2881e-006    
  -0.17           -3.9905e-006    4.0095e-006    
  -0.16           -3.7627e-006    3.7935e-006    
  -0.15           -3.5211e-006    3.5234e-006    
  -0.14           -3.3131e-006    3.2917e-006    
  -0.13           -3.0997e-006    3.0887e-006    
  -0.12           -2.8546e-006    2.8644e-006    
  -0.11           -2.5868e-006    2.6079e-006    
  -0.1            -2.3456e-006    2.3483e-006    
  -0.09           -2.1259e-006    2.1145e-006    
  -0.08           -1.9053e-006    1.8995e-006    
  -0.07           -1.6657e-006    1.6549e-006    
  -0.06           -1.429e-006     1.43e-006      
  -0.05           -1.1811e-006    1.188e-006     
  -0.04           -9.3465e-007    9.4933e-007    
  -0.03           -7.0785e-007    7.0521e-007    
  -0.02           -4.7418e-007    4.735e-007     
  -0.01           -2.3566e-007    2.3393e-007    
  0               -6e-011         -1.2119e-009   
  0.01            2.3711e-007     -2.4079e-007   
  0.02            4.7544e-007     -4.7225e-007   
  0.03            7.161e-007      -7.0681e-007   
  0.04            9.5522e-007     -9.5369e-007   
  0.05            1.1769e-006     -1.1771e-006   
  0.06            1.4184e-006     -1.4119e-006   
  0.07            1.6716e-006     -1.6525e-006   
  0.08            1.9127e-006     -1.9097e-006   
  0.09            2.1327e-006     -2.1494e-006   
  0.1             2.3522e-006     -2.3679e-006   
  0.11            2.5889e-006     -2.6139e-006   
  0.12            2.8232e-006     -2.8229e-006   
  0.13            3.0867e-006     -3.0604e-006   
  0.14            3.3474e-006     -3.3281e-006   
  0.15            3.5728e-006     -3.5861e-006   
  0.16            3.7665e-006     -3.8033e-006   
  0.17            3.997e-006      -3.9998e-006   
  0.18            4.2695e-006     -4.2359e-006   
  0.19            4.5415e-006     -4.514e-006    
  0.2             4.7734e-006     -4.7289e-006   
  0.21            5.015e-006      -5.0143e-006   
  0.22            5.2073e-006     -5.2481e-006   
  0.23            5.4067e-006     -5.435e-006    
  0.24            5.6604e-006     -5.6381e-006   
  0.25            5.9639e-006     -5.9055e-006   
  0.26            6.2132e-006     -6.2065e-006   
  0.27            6.397e-006      -6.4437e-006   
  0.28            6.5818e-006     -6.6192e-006   
  0.29            6.8238e-006     -6.8857e-006   
  0.3             7.0542e-006     -7.0557e-006   
  0.31            7.3561e-006     -7.2969e-006   
  0.32            7.646e-006      -7.6092e-006   
  0.33            7.8554e-006     -7.8841e-006   
  0.34            8.0052e-006     -8.079e-006    
  0.35            8.2288e-006     -8.2352e-006   
  0.36            8.5371e-006     -8.4725e-006   
  0.37            8.8389e-006     -8.7913e-006   
  0.38            9.0666e-006     -8.9887e-006   
  0.39            9.314e-006      -9.3135e-006   
  0.4             9.4655e-006     -9.5421e-006   
  0.41            9.6362e-006     -9.6781e-006   
  0.42            9.9099e-006     -9.8685e-006   
  0.43            1.02594e-005    -1.01658e-005  
  0.44            1.05089e-005    -1.05056e-005  
  0.45            1.06574e-005    -1.07375e-005  
  0.46            1.08105e-005    -1.0864e-005   
  0.47            1.10865e-005    -1.10451e-005  
  0.48            1.1393e-005     -1.13453e-005  
  0.49            1.1558e-005     -1.1579e-005   
  0.5             1.1755e-005     -1.1777e-005   
  0.51            1.205e-005      -1.1984e-005   
  0.52            1.2413e-005     -1.229e-005    
  0.53            1.2674e-005     -1.2649e-005   
  0.54            1.2832e-005     -1.2905e-005   
  0.55            1.295e-005      -1.3052e-005   
  0.56            1.3176e-005     -1.3179e-005   
  0.57            1.351e-005      -1.3412e-005   
  0.58            1.3861e-005     -1.3753e-005   
  0.59            1.4093e-005     -1.4096e-005   
  0.6             1.4221e-005     -1.4319e-005   
  0.61            1.4355e-005     -1.4441e-005   
  0.62            1.4606e-005     -1.4579e-005   
  0.63            1.4972e-005     -1.484e-005    
  0.64            1.5303e-005     -1.5219e-005   
  0.65            1.5517e-005     -1.5366e-005   
  0.66            1.5788e-005     -1.5758e-005   
  0.67            1.5927e-005     -1.6016e-005   
  0.68            1.6015e-005     -1.6143e-005   
  0.69            1.6235e-005     -1.6239e-005   
  0.7             1.6592e-005     -1.6472e-005   
  0.71            1.6966e-005     -1.6837e-005   
  0.72            1.7207e-005     -1.7206e-005   
  0.73            1.7306e-005     -1.743e-005    
  0.74            1.7416e-005     -1.752e-005    
  0.75            1.7672e-005     -1.7638e-005   
  0.76            1.8065e-005     -1.7906e-005   
  0.77            1.8417e-005     -1.8318e-005   
  0.78            1.862e-005      -1.8446e-005   
  0.79            1.8901e-005     -1.8863e-005   
  0.8             1.9035e-005     -1.9131e-005   
  0.81            1.9086e-005     -1.925e-005    
  0.82            1.9294e-005     -1.931e-005    
  0.83            1.9656e-005     -1.9529e-005   
  0.84            2.0075e-005     -1.9907e-005   
  0.85            2.0324e-005     -2.0313e-005   
  0.86            2.041e-005      -2.0543e-005   
  0.87            2.0487e-005     -2.0622e-005   
  0.88            2.0727e-005     -2.071e-005    
  0.89            2.1131e-005     -2.0969e-005   
  0.9             2.1521e-005     -2.1382e-005   
  0.91            2.1737e-005     -2.1762e-005   
  0.92            2.1799e-005     -2.1965e-005   
  0.93            2.1892e-005     -2.2005e-005   
  0.94            2.2169e-005     -2.2114e-005   
  0.95            2.2614e-005     -2.2411e-005   
  0.96            2.2971e-005     -2.2879e-005   
  0.97            2.3179e-005     -2.2974e-005   
  0.98            2.3455e-005     -2.3421e-005   
  0.99            2.3545e-005     -2.3683e-005   
  1               2.3572e-005     -2.3754e-005   
END_DB

