! VERSION = 6.00
BEGIN_HEADER
 ICCAP_INPUTS
  VU1        V  E GROUND SMU2 0.1 CON        0
  VU2        V  S GROUND SMU3 0.1 CON        0
  V2         V  B GROUND SMU4 0.015 CON        0
  V1         V  C GROUND SMU1 0.015 LIN        1    -1         1          201  0.01      
 ICCAP_OUTPUTS
  I1         I  C GROUND SMU1 B
  I2         I  B GROUND SMU4 B
END_HEADER

BEGIN_DB
 ICCAP_VAR VU1        0              
 ICCAP_VAR VU2        0              
 ICCAP_VAR V2         0              

 #V1              I1              I2             
  -1              -0.00012554     0.00012561     
  -0.99           -0.00012414     0.00012388     
  -0.98           -0.0001225      0.00012265     
  -0.97           -0.00012132     0.00012182     
  -0.96           -0.00012058     0.00012087     
  -0.95           -0.00011951     0.00011943     
  -0.94           -0.00011799     0.00011766     
  -0.93           -0.00011627     0.00011631     
  -0.92           -0.00011501     0.0001154      
  -0.91           -0.00011412     0.00011453     
  -0.9            -0.00011321     0.00011323     
  -0.89           -0.00011181     0.00011156     
  -0.88           -0.00011011     0.00011007     
  -0.87           -0.00010871     0.000109       
  -0.86           -0.00010773     0.0001082      
  -0.85           -0.00010686     0.000107       
  -0.84           -0.0001056      0.00010543     
  -0.83           -0.00010397     0.00010382     
  -0.82           -0.00010292     0.00010266     
  -0.81           -0.00010126     0.00010129     
  -0.8            -0.000100651    0.00010048     
  -0.79           -9.9113e-005    9.9325e-005    
  -0.78           -9.8073e-005    9.8139e-005    
  -0.77           -9.6853e-005    9.6628e-005    
  -0.76           -9.5323e-005    9.5034e-005    
  -0.75           -9.3756e-005    9.3741e-005    
  -0.74           -9.2521e-005    9.277e-005     
  -0.73           -9.155e-005     9.181e-005     
  -0.72           -9.0554e-005    9.0528e-005    
  -0.71           -8.9257e-005    8.8993e-005    
  -0.7            -8.7696e-005    8.7491e-005    
  -0.69           -8.6221e-005    8.6292e-005    
  -0.68           -8.5051e-005    8.5329e-005    
  -0.67           -8.4105e-005    8.4277e-005    
  -0.66           -8.2652e-005    8.2959e-005    
  -0.65           -8.1715e-005    8.1775e-005    
  -0.64           -8.05e-005      8.0318e-005    
  -0.63           -7.901e-005     7.8763e-005    
  -0.62           -7.7502e-005    7.7487e-005    
  -0.61           -7.6248e-005    7.6453e-005    
  -0.6            -7.5224e-005    7.5443e-005    
  -0.59           -7.4195e-005    7.4187e-005    
  -0.58           -7.2907e-005    7.27e-005      
  -0.57           -7.1409e-005    7.1238e-005    
  -0.56           -6.9977e-005    7.0035e-005    
  -0.55           -6.8785e-005    6.9009e-005    
  -0.54           -6.7785e-005    6.792e-005     
  -0.53           -6.6378e-005    6.6624e-005    
  -0.52           -6.5368e-005    6.542e-005     
  -0.51           -6.4142e-005    6.3996e-005    
  -0.5            -6.2711e-005    6.2519e-005    
  -0.49           -6.125e-005     6.1245e-005    
  -0.48           -5.9999e-005    6.0167e-005    
  -0.47           -5.8937e-005    5.9108e-005    
  -0.46           -5.7849e-005    5.784e-005     
  -0.45           -5.6572e-005    5.641e-005     
  -0.44           -5.5127e-005    5.5e-005       
  -0.43           -5.3735e-005    5.378e-005     
  -0.42           -5.254e-005     5.2713e-005    
  -0.41           -5.1482e-005    5.1582e-005    
  -0.4            -5.0102e-005    5.0288e-005    
  -0.39           -4.9038e-005    4.9075e-005    
  -0.38           -4.7804e-005    4.7704e-005    
  -0.37           -4.6417e-005    4.6272e-005    
  -0.36           -4.5012e-005    4.5005e-005    
  -0.35           -4.3756e-005    4.3876e-005    
  -0.34           -4.2633e-005    4.2765e-005    
  -0.33           -4.1511e-005    4.1516e-005    
  -0.32           -4.0237e-005    4.0129e-005    
  -0.31           -3.885e-005     3.876e-005     
  -0.3            -3.7502e-005    3.7534e-005    
  -0.29           -3.6277e-005    3.6399e-005    
  -0.28           -3.5153e-005    3.5232e-005    
  -0.27           -3.3826e-005    3.3959e-005    
  -0.26           -3.2698e-005    3.2726e-005    
  -0.25           -3.1455e-005    3.1393e-005    
  -0.24           -3.0122e-005    3.0029e-005    
  -0.23           -2.8765e-005    2.8758e-005    
  -0.22           -2.7503e-005    2.7582e-005    
  -0.21           -2.634e-005     2.6426e-005    
  -0.2            -2.5161e-005    2.5171e-005    
  -0.19           -2.3894e-005    2.3835e-005    
  -0.18           -2.2571e-005    2.2523e-005    
  -0.17           -2.1255e-005    2.1278e-005    
  -0.16           -2.0026e-005    2.0096e-005    
  -0.15           -1.8839e-005    1.8892e-005    
  -0.14           -1.7538e-005    1.7618e-005    
  -0.13           -1.6359e-005    1.6379e-005    
  -0.12           -1.511e-005     1.5088e-005    
  -0.11           -1.3819e-005    1.3774e-005    
  -0.1            -1.2523e-005    1.2525e-005    
  -0.09           -1.1259e-005    1.1302e-005    
  -0.08           -1.0036e-005    1.0081e-005    
  -0.07           -8.8e-006       8.8162e-006    
  -0.06           -7.5628e-006    7.5699e-006    
  -0.05           -6.3089e-006    6.2941e-006    
  -0.04           -5.042e-006     5.0254e-006    
  -0.03           -3.7715e-006    3.7741e-006    
  -0.02           -2.5189e-006    2.5264e-006    
  -0.01           -1.2813e-006    1.2829e-006    
  0               -2.2552e-008    2.0267e-008    
  0.01            1.2419e-006     -1.2294e-006   
  0.02            2.48e-006       -2.4843e-006   
  0.03            3.7491e-006     -3.747e-006    
  0.04            5.006e-006      -4.9924e-006   
  0.05            6.2275e-006     -6.2183e-006   
  0.06            7.4996e-006     -7.4768e-006   
  0.07            8.7264e-006     -8.7262e-006   
  0.08            9.9733e-006     -9.9998e-006   
  0.09            1.12721e-005    -1.12909e-005  
  0.1             1.2476e-005     -1.2544e-005   
  0.11            1.3808e-005     -1.3791e-005   
  0.12            1.5058e-005     -1.5e-005      
  0.13            1.6252e-005     -1.6212e-005   
  0.14            1.7542e-005     -1.7472e-005   
  0.15            1.8729e-005     -1.8706e-005   
  0.16            1.9967e-005     -1.9995e-005   
  0.17            2.1264e-005     -2.1323e-005   
  0.18            2.26e-005       -2.2603e-005   
  0.19            2.3865e-005     -2.3801e-005   
  0.2             2.5042e-005     -2.4959e-005   
  0.21            2.6217e-005     -2.6208e-005   
  0.22            2.7478e-005     -2.7537e-005   
  0.23            2.8814e-005     -2.8878e-005   
  0.24            3.0152e-005     -3.0129e-005   
  0.25            3.1393e-005     -3.1287e-005   
  0.26            3.2518e-005     -3.2446e-005   
  0.27            3.386e-005      -3.3728e-005   
  0.28            3.4983e-005     -3.4945e-005   
  0.29            3.621e-005      -3.6267e-005   
  0.3             3.7544e-005     -3.7662e-005   
  0.31            3.8941e-005     -3.8954e-005   
  0.32            4.0216e-005     -4.0116e-005   
  0.33            4.1352e-005     -4.1215e-005   
  0.34            4.2471e-005     -4.2458e-005   
  0.35            4.3734e-005     -4.3835e-005   
  0.36            4.5118e-005     -4.5228e-005   
  0.37            4.6505e-005     -4.6482e-005   
  0.38            4.7744e-005     -4.7592e-005   
  0.39            4.8815e-005     -4.8704e-005   
  0.4             4.996e-005      -4.9983e-005   
  0.41            5.1264e-005     -5.1422e-005   
  0.42            5.2711e-005     -5.2793e-005   
  0.43            5.384e-005      -5.4016e-005   
  0.44            5.5298e-005     -5.532e-005    
  0.45            5.6577e-005     -5.6439e-005   
  0.46            5.7677e-005     -5.7481e-005   
  0.47            5.8738e-005     -5.8714e-005   
  0.48            5.9988e-005     -6.0123e-005   
  0.49            6.1424e-005     -6.1586e-005   
  0.5             6.2866e-005     -6.2846e-005   
  0.51            6.4093e-005     -6.3898e-005   
  0.52            6.5123e-005     -6.4965e-005   
  0.53            6.6221e-005     -6.6254e-005   
  0.54            6.7535e-005     -6.7744e-005   
  0.55            6.904e-005      -6.9157e-005   
  0.56            7.0132e-005     -7.0368e-005   
  0.57            7.1662e-005     -7.1694e-005   
  0.58            7.295e-005      -7.2781e-005   
  0.59            7.4012e-005     -7.3759e-005   
  0.6             7.5011e-005     -7.4974e-005   
  0.61            7.6245e-005     -7.6411e-005   
  0.62            7.7726e-005     -7.7946e-005   
  0.63            7.9233e-005     -7.9227e-005   
  0.64            8.0466e-005     -8.024e-005    
  0.65            8.1465e-005     -8.1249e-005   
  0.66            8.2502e-005     -8.2529e-005   
  0.67            8.3799e-005     -8.4045e-005   
  0.68            8.5361e-005     -8.553e-005    
  0.69            8.6415e-005     -8.6718e-005   
  0.7             8.8007e-005     -8.8065e-005   
  0.71            8.9334e-005     -8.9143e-005   
  0.72            9.0369e-005     -9.0049e-005   
  0.73            9.1287e-005     -9.1229e-005   
  0.74            9.2512e-005     -9.2712e-005   
  0.75            9.4037e-005     -9.4313e-005   
  0.76            9.5597e-005     -9.5594e-005   
  0.77            9.684e-005      -9.6575e-005   
  0.78            9.7789e-005     -9.7524e-005   
  0.79            9.8763e-005     -9.8792e-005   
  0.8             0.000100076     -0.000100371   
  0.81            0.000101698     -0.000101908   
  0.82            0.000102703     -0.000103063   
  0.83            0.000104375     -0.000104444   
  0.84            0.000105714     -0.00010512    
  0.85            0.00010632      -0.00010648    
  0.86            0.00010794      -0.00010815    
  0.87            0.00010952      -0.00010936    
  0.88            0.00011069      -0.00011022    
  0.89            0.0001115       -0.0001112     
  0.9             0.00011258      -0.00011265    
  0.91            0.00011409      -0.00011439    
  0.92            0.0001158       -0.00011574    
  0.93            0.00011706      -0.00011666    
  0.94            0.00011789      -0.00011751    
  0.95            0.00011884      -0.00011882    
  0.96            0.00012028      -0.00012057    
  0.97            0.00012202      -0.00012207    
  0.98            0.00012342      -0.00012308    
  0.99            0.00012434      -0.00012384    
  1               0.00012514      -0.00012506    
END_DB

