! VERSION = 6.00
BEGIN_HEADER
 ICCAP_INPUTS
  VU1        V  E GROUND SMU2 0.1 CON        0
  VU2        V  S GROUND SMU3 0.1 CON        0
  V2         V  B GROUND SMU4 0.015 CON        0
  V1         V  C GROUND SMU1 0.015 LIN        1    -1         1          201  0.01      
 ICCAP_OUTPUTS
  I1         I  C GROUND SMU1 B
  I2         I  B GROUND SMU4 B
END_HEADER

BEGIN_DB
 ICCAP_VAR VU1        0              
 ICCAP_VAR VU2        0              
 ICCAP_VAR V2         0              

 #V1              I1              I2             
  -1              -0.0010576      0.0010547      
  -0.99           -0.0010457      0.0010442      
  -0.98           -0.0010323      0.0010331      
  -0.97           -0.0010214      0.0010245      
  -0.96           -0.001013       0.0010158      
  -0.95           -0.0010043      0.001003       
  -0.94           -0.00099095     0.00099205     
  -0.93           -0.00098176     0.0009827      
  -0.92           -0.00097195     0.00097081     
  -0.91           -0.00095932     0.00095703     
  -0.9            -0.000946       0.00094595     
  -0.89           -0.00093544     0.00093733     
  -0.88           -0.000927       0.00092865     
  -0.87           -0.000915       0.00091743     
  -0.86           -0.00090676     0.00090723     
  -0.85           -0.00089608     0.00089448     
  -0.84           -0.00088321     0.00088177     
  -0.83           -0.00087077     0.00087135     
  -0.82           -0.00086085     0.00086299     
  -0.81           -0.00085281     0.00085353     
  -0.8            -0.00084272     0.00084167     
  -0.79           -0.00083039     0.00082845     
  -0.78           -0.0008176      0.00081748     
  -0.77           -0.000807       0.00080867     
  -0.76           -0.0007984      0.00079983     
  -0.75           -0.00078666     0.00078874     
  -0.74           -0.0007782      0.00077867     
  -0.73           -0.00076762     0.00076637     
  -0.72           -0.00075512     0.0007539      
  -0.71           -0.00074308     0.00074359     
  -0.7            -0.00073315     0.000735       
  -0.69           -0.00072467     0.00072531     
  -0.68           -0.00071467     0.00071377     
  -0.67           -0.00070262     0.00070104     
  -0.66           -0.00069024     0.00069033     
  -0.65           -0.00067989     0.0006814      
  -0.64           -0.00067104     0.00067219     
  -0.63           -0.00065953     0.00066128     
  -0.62           -0.00065072     0.00065103     
  -0.61           -0.00064004     0.00063895     
  -0.6            -0.00062795     0.00062693     
  -0.59           -0.00061825     0.00061677     
  -0.58           -0.00060596     0.00060585     
  -0.57           -0.00059532     0.00059655     
  -0.56           -0.00058622     0.00058742     
  -0.55           -0.00057677     0.00057667     
  -0.54           -0.00056579     0.00056457     
  -0.53           -0.00055359     0.00055325     
  -0.52           -0.0005426      0.00054341     
  -0.51           -0.00053301     0.00053441     
  -0.5            -0.00052392     0.00052416     
  -0.49           -0.00051333     0.00051241     
  -0.48           -0.00050147     0.00050074     
  -0.47           -0.00049169     0.00049056     
  -0.46           -0.00047987     0.00047978     
  -0.45           -0.00046942     0.00047039     
  -0.44           -0.00046004     0.00046095     
  -0.43           -0.00044888     0.00045018     
  -0.42           -0.00043972     0.00044003     
  -0.41           -0.00042928     0.00042863     
  -0.4            -0.00041774     0.00041708     
  -0.39           -0.00040648     0.00040679     
  -0.38           -0.00039632     0.00039732     
  -0.37           -0.000387       0.00038743     
  -0.36           -0.00037687     0.00037652     
  -0.35           -0.00036572     0.00036493     
  -0.34           -0.00035428     0.00035429     
  -0.33           -0.00034391     0.00034468     
  -0.32           -0.00033422     0.00033497     
  -0.31           -0.00032333     0.00032427     
  -0.3            -0.00031383     0.00031407     
  -0.29           -0.0003034      0.00030299     
  -0.28           -0.00029219     0.00029174     
  -0.27           -0.00028121     0.00028145     
  -0.26           -0.00027091     0.00027158     
  -0.25           -0.00026125     0.00026159     
  -0.24           -0.00025112     0.00025091     
  -0.23           -0.0002402      0.00023969     
  -0.22           -0.0002291      0.00022914     
  -0.21           -0.00021871     0.00021919     
  -0.2            -0.00020873     0.00020924     
  -0.19           -0.00019869     0.00019871     
  -0.18           -0.00018814     0.00018776     
  -0.17           -0.00017708     0.00017707     
  -0.16           -0.00016662     0.00016691     
  -0.15           -0.00015645     0.00015697     
  -0.14           -0.00014639     0.00014653     
  -0.13           -0.00013598     0.0001358      
  -0.12           -0.00012522     0.00012508     
  -0.11           -0.00011488     0.0001147      
  -0.1            -0.00010421     0.00010428     
  -0.09           -9.4172e-005    9.3866e-005    
  -0.08           -8.3452e-005    8.3665e-005    
  -0.07           -7.3285e-005    7.3327e-005    
  -0.06           -6.2867e-005    6.2755e-005    
  -0.05           -5.2276e-005    5.2166e-005    
  -0.04           -4.1807e-005    4.1805e-005    
  -0.03           -3.1392e-005    3.1458e-005    
  -0.02           -2.0998e-005    2.1061e-005    
  -0.01           -1.0657e-005    1.0666e-005    
  0               -1.2328e-007    1.2645e-007    
  0.01            1.02602e-005    -1.02429e-005  
  0.02            2.0605e-005     -2.0611e-005   
  0.03            3.1057e-005     -3.0982e-005   
  0.04            4.141e-005      -4.1405e-005   
  0.05            5.175e-005      -5.1848e-005   
  0.06            6.2347e-005     -6.2422e-005   
  0.07            7.2913e-005     -7.2871e-005   
  0.08            8.3251e-005     -8.3029e-005   
  0.09            9.3435e-005     -9.3314e-005   
  0.1             0.00010407      -0.000103802   
  0.11            0.00011471      -0.00011417    
  0.12            0.00012475      -0.00012492    
  0.13            0.00013557      -0.00013554    
  0.14            0.00014603      -0.00014569    
  0.15            0.00015615      -0.00015575    
  0.16            0.00016622      -0.00016618    
  0.17            0.00017668      -0.00017705    
  0.18            0.00018766      -0.00018779    
  0.19            0.00019837      -0.00019802    
  0.2             0.00020841      -0.00020779    
  0.21            0.00021829      -0.00021812    
  0.22            0.00022876      -0.00022905    
  0.23            0.00023968      -0.00023999    
  0.24            0.0002506       -0.00025039    
  0.25            0.00026088      -0.00026016    
  0.26            0.00027045      -0.00027017    
  0.27            0.00028072      -0.00028098    
  0.28            0.0002917       -0.00029228    
  0.29            0.00030295      -0.00030283    
  0.3             0.00031329      -0.00031255    
  0.31            0.00032293      -0.00032237    
  0.32            0.00033393      -0.000333      
  0.33            0.0003434       -0.00034322    
  0.34            0.00035389      -0.00035443    
  0.35            0.00036527      -0.00036578    
  0.36            0.00037641      -0.00037608    
  0.37            0.00038654      -0.00038551    
  0.38            0.00039584      -0.0003955     
  0.39            0.00040598      -0.00040644    
  0.4             0.00041726      -0.00041814    
  0.41            0.00042883      -0.00042875    
  0.42            0.00043924      -0.00043822    
  0.43            0.00044856      -0.00044781    
  0.44            0.00045977      -0.0004585     
  0.45            0.00046893      -0.00046871    
  0.46            0.00047943      -0.00048022    
  0.47            0.00049126      -0.00049192    
  0.48            0.00050094      -0.00050215    
  0.49            0.00051295      -0.00051303    
  0.5             0.0005235       -0.00052251    
  0.51            0.0005328       -0.00053172    
  0.52            0.00054226      -0.00054241    
  0.53            0.00055325      -0.00055446    
  0.54            0.00056551      -0.00056588    
  0.55            0.00057648      -0.00057565    
  0.56            0.00058598      -0.00058448    
  0.57            0.00059503      -0.00059484    
  0.58            0.00060557      -0.00060667    
  0.59            0.00061777      -0.00061857    
  0.6             0.00062738      -0.00062889    
  0.61            0.0006397       -0.00063979    
  0.62            0.00065031      -0.00064904    
  0.63            0.00065933      -0.00065807    
  0.64            0.00066857      -0.00066877    
  0.65            0.00067978      -0.00068132    
  0.66            0.00069253      -0.00069292    
  0.67            0.00070361      -0.00070257    
  0.68            0.00071291      -0.00071107    
  0.69            0.00072163      -0.00072148    
  0.7             0.00073233      -0.00073369    
  0.71            0.0007449       -0.00074595    
  0.72            0.00075448      -0.00075621    
  0.73            0.00076707      -0.0007672     
  0.74            0.00077771      -0.00077614    
  0.75            0.0007863       -0.00078493    
  0.76            0.00079803      -0.00079592    
  0.77            0.00080647      -0.00080605    
  0.78            0.00081702      -0.00081835    
  0.79            0.00082958      -0.000831      
  0.8             0.00084193      -0.00084151    
  0.81            0.00085199      -0.00084982    
  0.82            0.00085997      -0.00085914    
  0.83            0.00086993      -0.00087099    
  0.84            0.00088227      -0.00088427    
  0.85            0.00089522      -0.0008952     
  0.86            0.00090578      -0.00090384    
  0.87            0.00091401      -0.00091255    
  0.88            0.00092604      -0.00092356    
  0.89            0.00093423      -0.00093389    
  0.9             0.000945        -0.00094666    
  0.91            0.00095802      -0.00095954    
  0.92            0.00096731      -0.00096971    
  0.93            0.00098096      -0.00098132    
  0.94            0.00099204      -0.00099031    
  0.95            0.0010006       -0.00099845    
  0.96            0.0010091       -0.00100932    
  0.97            0.00102037      -0.00102265    
  0.98            0.00103415      -0.00103518    
  0.99            0.00104619      -0.00104502    
  1               0.00105534      -0.00105251    
END_DB

