! VERSION = 6.00
BEGIN_HEADER
 ICCAP_INPUTS
  VU1        V  E GROUND SMU2 0.1 CON        0
  VU2        V  S GROUND SMU3 0.1 CON        0
  V2         V  B GROUND SMU1 0.015 CON        0
  V1         V  C GROUND SMU4 0.015 LIN        1    -1         1          201  0.01      
 ICCAP_OUTPUTS
  I1         I  C GROUND SMU4 B
  I2         I  B GROUND SMU1 B
END_HEADER

BEGIN_DB
 ICCAP_VAR VU1        0              
 ICCAP_VAR VU2        0              
 ICCAP_VAR V2         0              

 #V1              I1              I2             
  -1              -0.00048952     0.00048966     
  -0.99           -0.00048307     0.00048439     
  -0.98           -0.00047755     0.00047799     
  -0.97           -0.00047342     0.00047272     
  -0.96           -0.00046985     0.00046887     
  -0.95           -0.00046493     0.00046509     
  -0.94           -0.00045872     0.00045987     
  -0.93           -0.00045287     0.0004536      
  -0.92           -0.00044811     0.00044935     
  -0.91           -0.00044299     0.00044316     
  -0.9            -0.0004391      0.00043831     
  -0.89           -0.00043519     0.00043452     
  -0.88           -0.00042996     0.00042891     
  -0.87           -0.00042524     0.00042518     
  -0.86           -0.00041936     0.00042024     
  -0.85           -0.00041333     0.00041422     
  -0.84           -0.00040857     0.00040845     
  -0.83           -0.00040487     0.00040389     
  -0.82           -0.00040053     0.0004003      
  -0.81           -0.00039496     0.00039563     
  -0.8            -0.0003888      0.00038987     
  -0.79           -0.00038378     0.00038389     
  -0.78           -0.00037982     0.00037911     
  -0.77           -0.00037571     0.00037522     
  -0.76           -0.00037058     0.0003697      
  -0.75           -0.00036586     0.00036585     
  -0.74           -0.00036011     0.00036093     
  -0.73           -0.00035432     0.00035502     
  -0.72           -0.00034954     0.00034943     
  -0.71           -0.0003457      0.00034492     
  -0.7            -0.00034126     0.00034109     
  -0.69           -0.00033579     0.00033641     
  -0.68           -0.00032989     0.00033077     
  -0.67           -0.00032493     0.00032498     
  -0.66           -0.00032088     0.00032022     
  -0.65           -0.00031664     0.00031624     
  -0.64           -0.00031158     0.00031088     
  -0.63           -0.00030676     0.00030682     
  -0.62           -0.00030116     0.0003019      
  -0.61           -0.00029557     0.00029612     
  -0.6            -0.00029083     0.00029172     
  -0.59           -0.00028575     0.00028594     
  -0.58           -0.00028151     0.00028106     
  -0.57           -0.00027737     0.00027693     
  -0.56           -0.00027235     0.00027258     
  -0.55           -0.00026663     0.0002674      
  -0.54           -0.00026134     0.00026167     
  -0.53           -0.00025689     0.0002566      
  -0.52           -0.00025275     0.00025221     
  -0.51           -0.00024796     0.00024802     
  -0.5            -0.00024246     0.00024305     
  -0.49           -0.00023706     0.00023751     
  -0.48           -0.00023233     0.00023302     
  -0.47           -0.00022732     0.00022748     
  -0.46           -0.00022297     0.00022262     
  -0.45           -0.00021866     0.00021835     
  -0.44           -0.00021369     0.00021391     
  -0.43           -0.0002082      0.0002088      
  -0.42           -0.00020299     0.00020326     
  -0.41           -0.00019847     0.00019825     
  -0.4            -0.00019419     0.00019383     
  -0.39           -0.00018936     0.00018945     
  -0.38           -0.00018406     0.00018453     
  -0.37           -0.0001788      0.00017917     
  -0.36           -0.00017406     0.00017457     
  -0.35           -0.00016911     0.00016924     
  -0.34           -0.00016463     0.0001644      
  -0.33           -0.00016014     0.00015998     
  -0.32           -0.00015521     0.00015489     
  -0.31           -0.00015046     0.00015048     
  -0.3            -0.00014527     0.00014562     
  -0.29           -0.00014005     0.00014039     
  -0.28           -0.00013526     0.0001353      
  -0.27           -0.00013081     0.00013057     
  -0.26           -0.00012614     0.00012612     
  -0.25           -0.00012109     0.00012135     
  -0.24           -0.0001159      0.00011628     
  -0.23           -0.000111       0.00011114     
  -0.22           -0.00010641     0.0001063      
  -0.21           -0.00010181     0.00010172     
  -0.2            -9.6974e-005    9.6551e-005    
  -0.19           -9.1906e-005    9.2105e-005    
  -0.18           -8.6853e-005    8.7007e-005    
  -0.17           -8.2047e-005    8.2018e-005    
  -0.16           -7.7442e-005    7.7256e-005    
  -0.15           -7.2718e-005    7.2631e-005    
  -0.14           -6.7811e-005    6.7651e-005    
  -0.13           -6.3002e-005    6.298e-005     
  -0.12           -5.8073e-005    5.8172e-005    
  -0.11           -5.3065e-005    5.32e-005      
  -0.1            -4.821e-005     4.8232e-005    
  -0.09           -4.3449e-005    4.339e-005     
  -0.08           -3.8707e-005    3.8628e-005    
  -0.07           -3.3883e-005    3.3898e-005    
  -0.06           -2.8971e-005    2.9029e-005    
  -0.05           -2.4062e-005    2.4122e-005    
  -0.04           -1.9225e-005    1.9223e-005    
  -0.03           -1.4451e-005    1.4433e-005    
  -0.02           -9.5924e-006    9.6179e-006    
  -0.01           -4.7641e-006    4.759e-006     
  0               5.3986e-008     -5.2833e-008   
  0.01            4.9209e-006     -4.8938e-006   
  0.02            9.7304e-006     -9.7263e-006   
  0.03            1.4535e-005     -1.4593e-005   
  0.04            1.9392e-005     -1.9363e-005   
  0.05            2.4316e-005     -2.4224e-005   
  0.06            2.9185e-005     -2.9163e-005   
  0.07            3.3967e-005     -3.4002e-005   
  0.08            3.8695e-005     -3.8802e-005   
  0.09            4.3511e-005     -4.3526e-005   
  0.1             4.8427e-005     -4.8339e-005   
  0.11            5.3399e-005     -5.3246e-005   
  0.12            5.8289e-005     -5.8255e-005   
  0.13            6.3028e-005     -6.314e-005    
  0.14            6.7695e-005     -6.7847e-005   
  0.15            7.2503e-005     -7.2526e-005   
  0.16            7.7482e-005     -7.7312e-005   
  0.17            8.2537e-005     -8.2347e-005   
  0.18            8.7393e-005     -8.739e-005    
  0.19            9.2043e-005     -9.2233e-005   
  0.2             9.6654e-005     -9.6836e-005   
  0.21            0.00010206      -0.000101477   
  0.22            0.0001069       -0.00010661    
  0.23            0.00011172      -0.00011133    
  0.24            0.00011662      -0.00011648    
  0.25            0.00012121      -0.00012137    
  0.26            0.00012577      -0.00012594    
  0.27            0.00013066      -0.00013053    
  0.28            0.0001359       -0.00013547    
  0.29            0.00014097      -0.00014076    
  0.3             0.00014563      -0.00014574    
  0.31            0.00015         -0.00015034    
  0.32            0.00015482      -0.00015475    
  0.33            0.00015999      -0.00015957    
  0.34            0.00016527      -0.00016485    
  0.35            0.00017008      -0.0001701     
  0.36            0.00017444      -0.00017479    
  0.37            0.00017903      -0.00017907    
  0.38            0.00018415      -0.00018378    
  0.39            0.00018961      -0.00018905    
  0.4             0.00019454      -0.00019444    
  0.41            0.00019887      -0.00019924    
  0.42            0.0002033       -0.00020356    
  0.43            0.00020824      -0.00020873    
  0.44            0.00021304      -0.00021299    
  0.45            0.00021843      -0.00021787    
  0.46            0.00022379      -0.00022328    
  0.47            0.00022858      -0.00022785    
  0.48            0.0002336       -0.00023344    
  0.49            0.00023801      -0.00023839    
  0.5             0.00024223      -0.00024261    
  0.51            0.00024716      -0.00024699    
  0.52            0.00025275      -0.00025205    
  0.53            0.00025808      -0.0002578     
  0.54            0.00026265      -0.00026291    
  0.55            0.00026668      -0.00026729    
  0.56            0.00027144      -0.00027141    
  0.57            0.000277        -0.00027635    
  0.58            0.00028257      -0.00028195    
  0.59            0.0002873       -0.0002864     
  0.6             0.0002924       -0.00029218    
  0.61            0.00029671      -0.00029716    
  0.62            0.00030079      -0.00030135    
  0.63            0.00030571      -0.0003055     
  0.64            0.00031148      -0.00031065    
  0.65            0.00031695      -0.00031658    
  0.66            0.00032153      -0.00032181    
  0.67            0.00032539      -0.00032614    
  0.68            0.00033002      -0.00033007    
  0.69            0.00033569      -0.00033494    
  0.7             0.0003415       -0.00034075    
  0.71            0.00034633      -0.00034639    
  0.72            0.00035023      -0.00035102    
  0.73            0.00035456      -0.00035482    
  0.74            0.00035994      -0.00035938    
  0.75            0.00036605      -0.00036503    
  0.76            0.00037118      -0.000371      
  0.77            0.00037525      -0.0003759     
  0.78            0.00037923      -0.00037984    
  0.79            0.00038434      -0.0003853     
  0.8             0.00038895      -0.00038901    
  0.81            0.00039482      -0.00039393    
  0.82            0.00040078      -0.0003999     
  0.83            0.00040564      -0.00040572    
  0.84            0.00040945      -0.00041034    
  0.85            0.00041364      -0.00041397    
  0.86            0.00041914      -0.00041845    
  0.87            0.00042547      -0.00042427    
  0.88            0.00043059      -0.00043036    
  0.89            0.00043457      -0.00043533    
  0.9             0.00043846      -0.00043916    
  0.91            0.00044366      -0.00044482    
  0.92            0.00044828      -0.00044841    
  0.93            0.00045422      -0.00045323    
  0.94            0.00046037      -0.00045939    
  0.95            0.00046523      -0.00046535    
  0.96            0.00046887      -0.00046997    
  0.97            0.00047306      -0.00047346    
  0.98            0.00047864      -0.00047795    
  0.99            0.00048522      -0.00048385    
  1               0.00049046      -0.00049027    
END_DB

