! VERSION = 6.00
BEGIN_HEADER
 ICCAP_INPUTS
  VU1        V  E GROUND SMU2 0.1 CON        0
  VU2        V  S GROUND SMU3 0.1 CON        0
  V2         V  B GROUND SMU1 0.015 CON        0
  V1         V  C GROUND SMU4 0.015 LIN        1    -1         1          201  0.01      
 ICCAP_OUTPUTS
  I1         I  C GROUND SMU4 B
  I2         I  B GROUND SMU1 B
END_HEADER

BEGIN_DB
 ICCAP_VAR VU1        0              
 ICCAP_VAR VU2        0              
 ICCAP_VAR V2         0              

 #V1              I1              I2             
  -1              -0.00029737     0.00029725     
  -0.99           -0.00029514     0.00029468     
  -0.98           -0.00029074     0.00029193     
  -0.97           -0.00028532     0.00028711     
  -0.96           -0.00028198     0.00028203     
  -0.95           -0.00028036     0.00027908     
  -0.94           -0.00027862     0.00027768     
  -0.93           -0.00027512     0.00027367     
  -0.92           -0.00027217     0.00027212     
  -0.91           -0.00026741     0.00026885     
  -0.9            -0.00026261     0.00026368     
  -0.89           -0.0002597      0.00026158     
  -0.88           -0.00025614     0.00025651     
  -0.87           -0.00025429     0.00025323     
  -0.86           -0.00025264     0.00025151     
  -0.85           -0.00024926     0.0002496      
  -0.84           -0.00024453     0.00024615     
  -0.83           -0.00024027     0.00024091     
  -0.82           -0.00023802     0.00023726     
  -0.81           -0.00023661     0.00023522     
  -0.8            -0.0002337      0.00023374     
  -0.79           -0.00022911     0.00023041     
  -0.78           -0.00022472     0.00022581     
  -0.77           -0.00022188     0.00022335     
  -0.76           -0.0002184      0.00021869     
  -0.75           -0.00021659     0.00021565     
  -0.74           -0.00021484     0.00021391     
  -0.73           -0.00021165     0.00021194     
  -0.72           -0.000207       0.00020839     
  -0.71           -0.00020316     0.00020363     
  -0.7            -0.00020083     0.00020022     
  -0.69           -0.00019928     0.0001981      
  -0.68           -0.00019626     0.00019636     
  -0.67           -0.00019211     0.00019313     
  -0.66           -0.00018799     0.00018881     
  -0.65           -0.00018518     0.00018646     
  -0.64           -0.00018184     0.00018206     
  -0.63           -0.00017993     0.00017909     
  -0.62           -0.00017791     0.00017725     
  -0.61           -0.00017475     0.00017364     
  -0.6            -0.000172       0.00017194     
  -0.59           -0.00016806     0.00016892     
  -0.58           -0.00016403     0.00016486     
  -0.57           -0.00016128     0.00016117     
  -0.56           -0.00015938     0.00015846     
  -0.55           -0.000157       0.00015671     
  -0.54           -0.00015351     0.00015408     
  -0.53           -0.00014941     0.00015041     
  -0.52           -0.00014633     0.0001465      
  -0.51           -0.0001442      0.00014355     
  -0.5            -0.00014212     0.00014157     
  -0.49           -0.0001389      0.0001381      
  -0.48           -0.00013619     0.00013622     
  -0.47           -0.00013257     0.00013325     
  -0.46           -0.00012877     0.00012946     
  -0.45           -0.00012606     0.00012599     
  -0.44           -0.00012408     0.00012335     
  -0.43           -0.00012163     0.00012145     
  -0.42           -0.00011826     0.00011878     
  -0.41           -0.00011451     0.00011531     
  -0.4            -0.00011155     0.0001117      
  -0.39           -0.0001093      0.00010882     
  -0.38           -0.00010701     0.00010667     
  -0.37           -0.00010403     0.00010341     
  -0.36           -0.00010134     0.00010132     
  -0.35           -9.8153e-005    9.7288e-005    
  -0.34           -9.4576e-005    9.5206e-005    
  -0.33           -9.1581e-005    9.1705e-005    
  -0.32           -8.9165e-005    8.8787e-005    
  -0.31           -8.6896e-005    8.6382e-005    
  -0.3            -8.4121e-005    8.408e-005     
  -0.29           -8.0865e-005    8.1244e-005    
  -0.28           -7.7583e-005    7.803e-005     
  -0.27           -7.4742e-005    7.4766e-005    
  -0.26           -7.2347e-005    7.198e-005     
  -0.25           -6.9917e-005    6.9585e-005    
  -0.24           -6.7049e-005    6.7104e-005    
  -0.23           -6.3857e-005    6.4234e-005    
  -0.22           -6.0741e-005    6.0987e-005    
  -0.21           -5.8023e-005    5.7953e-005    
  -0.2            -5.5635e-005    5.529e-005     
  -0.19           -5.3017e-005    5.2869e-005    
  -0.18           -5.0144e-005    4.9848e-005    
  -0.17           -4.7401e-005    4.7384e-005    
  -0.16           -4.44e-005      4.4601e-005    
  -0.15           -4.1333e-005    4.1585e-005    
  -0.14           -3.855e-005     3.8567e-005    
  -0.13           -3.5962e-005    3.5806e-005    
  -0.12           -3.3384e-005    3.3244e-005    
  -0.11           -3.0591e-005    3.0623e-005    
  -0.1            -2.7616e-005    2.7788e-005    
  -0.09           -2.4724e-005    2.4816e-005    
  -0.08           -2.1996e-005    2.1972e-005    
  -0.07           -1.9382e-005    1.9271e-005    
  -0.06           -1.6662e-005    1.6618e-005    
  -0.05           -1.3849e-005    1.3776e-005    
  -0.04           -1.1078e-005    1.1082e-005    
  -0.03           -8.3142e-006    8.2175e-006    
  -0.02           -5.5125e-006    5.5278e-006    
  -0.01           -2.7116e-006    2.7242e-006    
  0               2.9918e-008     -3.028e-008    
  0.01            2.8175e-006     -2.8091e-006   
  0.02            5.5733e-006     -5.6052e-006   
  0.03            8.2782e-006     -8.3193e-006   
  0.04            1.10467e-005    -1.1121e-005   
  0.05            1.3859e-005     -1.3871e-005   
  0.06            1.6557e-005     -1.6627e-005   
  0.07            1.9304e-005     -1.9272e-005   
  0.08            2.2191e-005     -2.206e-005    
  0.09            2.5094e-005     -2.5004e-005   
  0.1             2.7857e-005     -2.7669e-005   
  0.11            3.0679e-005     -3.0632e-005   
  0.12            3.3311e-005     -3.3449e-005   
  0.13            3.5857e-005     -3.6067e-005   
  0.14            3.8586e-005     -3.8604e-005   
  0.15            4.1586e-005     -4.1363e-005   
  0.16            4.4618e-005     -4.4374e-005   
  0.17            4.7416e-005     -4.7429e-005   
  0.18            4.9932e-005     -5.0189e-005   
  0.19            5.2476e-005     -5.2688e-005   
  0.2             5.5256e-005     -5.52e-005     
  0.21            5.8397e-005     -5.8058e-005   
  0.22            6.1473e-005     -6.1248e-005   
  0.23            6.4228e-005     -6.38e-005     
  0.24            6.7115e-005     -6.7055e-005   
  0.25            6.966e-005      -6.9933e-005   
  0.26            7.1978e-005     -7.241e-005    
  0.27            7.4695e-005     -7.476e-005    
  0.28            7.7903e-005     -7.7526e-005   
  0.29            8.122e-005      -8.0774e-005   
  0.3             8.4115e-005     -8.4079e-005   
  0.31            8.6492e-005     -8.6903e-005   
  0.32            8.8826e-005     -8.9235e-005   
  0.33            9.1656e-005     -9.1544e-005   
  0.34            9.5056e-005     -9.4553e-005   
  0.35            9.8345e-005     -9.7983e-005   
  0.36            0.00010046      -0.000100448   
  0.37            0.00010302      -0.00010362    
  0.38            0.00010583      -0.00010577    
  0.39            0.00010933      -0.00010869    
  0.4             0.00011284      -0.00011226    
  0.41            0.00011557      -0.00011473    
  0.42            0.00011865      -0.00011844    
  0.43            0.00012084      -0.00012135    
  0.44            0.00012303      -0.00012345    
  0.45            0.00012604      -0.00012579    
  0.46            0.00012987      -0.00012896    
  0.47            0.00013324      -0.00013291    
  0.48            0.00013567      -0.00013609    
  0.49            0.00013754      -0.00013831    
  0.5             0.00014036      -0.00014029    
  0.51            0.00014425      -0.00014337    
  0.52            0.00014797      -0.00014738    
  0.53            0.00015081      -0.00014975    
  0.54            0.0001539       -0.00015373    
  0.55            0.00015584      -0.00015658    
  0.56            0.00015799      -0.00015858    
  0.57            0.00016113      -0.00016208    
  0.58            0.00016387      -0.00016386    
  0.59            0.00016774      -0.00016679    
  0.6             0.00017179      -0.00017097    
  0.61            0.00017463      -0.00017474    
  0.62            0.00017644      -0.00017737    
  0.63            0.00017875      -0.00017905    
  0.64            0.00018239      -0.00018164    
  0.65            0.00018676      -0.00018554    
  0.66            0.00018987      -0.00018983    
  0.67            0.00019176      -0.00019269    
  0.68            0.00019382      -0.00019439    
  0.69            0.00019701      -0.00019818    
  0.7             0.00019982      -0.00019996    
  0.71            0.00020405      -0.00020298    
  0.72            0.0002083       -0.00020728    
  0.73            0.00021114      -0.00020966    
  0.74            0.00021463      -0.00021435    
  0.75            0.00021656      -0.00021744    
  0.76            0.00021822      -0.00021925    
  0.77            0.00022142      -0.00022115    
  0.78            0.00022614      -0.00022462    
  0.79            0.00023027      -0.0002297     
  0.8             0.00023253      -0.00023328    
  0.81            0.00023394      -0.00023532    
  0.82            0.00023685      -0.00023681    
  0.83            0.00024132      -0.00024012    
  0.84            0.0002459       -0.00024478    
  0.85            0.00024878      -0.00024706    
  0.86            0.00025242      -0.00025192    
  0.87            0.00025406      -0.0002552     
  0.88            0.00025578      -0.00025682    
  0.89            0.00025912      -0.00025858    
  0.9             0.00026427      -0.00026255    
  0.91            0.00026835      -0.00026781    
  0.92            0.00027057      -0.00027145    
  0.93            0.00027199      -0.00027334    
  0.94            0.00027499      -0.00027492    
  0.95            0.00027998      -0.0002783     
  0.96            0.00028461      -0.0002836     
  0.97            0.00028771      -0.00028581    
  0.98            0.00029118      -0.00029098    
  0.99            0.00029279      -0.00029411    
  1               0.00029445      -0.0002955     
END_DB

