! VERSION = 6.00
BEGIN_HEADER
 ICCAP_INPUTS
  VU1        V  E GROUND SMU2 0.1 CON        0
  VU2        V  S GROUND SMU3 0.1 CON        0
  V2         V  B GROUND SMU4 0.015 CON        0
  V1         V  C GROUND SMU1 0.015 LIN        1    -1         1          201  0.01      
 ICCAP_OUTPUTS
  I1         I  C GROUND SMU1 B
  I2         I  B GROUND SMU4 B
END_HEADER

BEGIN_DB
 ICCAP_VAR VU1        0              
 ICCAP_VAR VU2        0              
 ICCAP_VAR V2         0              

 #V1              I1              I2             
  -1              -0.00050028     0.0005005      
  -0.99           -0.00049567     0.00049731     
  -0.98           -0.00049241     0.00049276     
  -0.97           -0.00048745     0.0004865      
  -0.96           -0.00048099     0.00048        
  -0.95           -0.00047481     0.00047517     
  -0.94           -0.00047018     0.00047163     
  -0.93           -0.00046689     0.00046753     
  -0.92           -0.00046243     0.00046188     
  -0.91           -0.00045649     0.00045517     
  -0.9            -0.00044991     0.00044982     
  -0.89           -0.00044491     0.00044603     
  -0.88           -0.00044122     0.00044229     
  -0.87           -0.00043723     0.00043709     
  -0.86           -0.00043174     0.00043056     
  -0.85           -0.00042508     0.0004248      
  -0.84           -0.00041971     0.00042055     
  -0.83           -0.00041565     0.00041699     
  -0.82           -0.00041194     0.00041213     
  -0.81           -0.00040684     0.00040596     
  -0.8            -0.00040058     0.00039987     
  -0.79           -0.00039622     0.00039507     
  -0.78           -0.00038984     0.00038978     
  -0.77           -0.0003848      0.0003858      
  -0.76           -0.00038097     0.00038192     
  -0.75           -0.00037683     0.00037668     
  -0.74           -0.00037142     0.00037042     
  -0.73           -0.00036505     0.00036479     
  -0.72           -0.00035968     0.00036036     
  -0.71           -0.00035549     0.00035665     
  -0.7            -0.00035159     0.00035177     
  -0.69           -0.00034648     0.00034576     
  -0.68           -0.00034043     0.00033985     
  -0.67           -0.00033594     0.00033504     
  -0.66           -0.0003298      0.00032978     
  -0.65           -0.00032482     0.00032568     
  -0.64           -0.00032078     0.00032158     
  -0.63           -0.00031649     0.00031637     
  -0.62           -0.00031111     0.00031031     
  -0.61           -0.00030498     0.00030479     
  -0.6            -0.00029965     0.00030025     
  -0.59           -0.00029539     0.00029634     
  -0.58           -0.00029127     0.00029144     
  -0.57           -0.00028618     0.0002856      
  -0.56           -0.00028033     0.00027985     
  -0.55           -0.00027575     0.00027501     
  -0.54           -0.00026981     0.00026981     
  -0.53           -0.00026485     0.00026557     
  -0.52           -0.0002606      0.00026128     
  -0.51           -0.00025618     0.00025611     
  -0.5            -0.00025092     0.00025027     
  -0.49           -0.00024496     0.00024485     
  -0.48           -0.00023973     0.00024024     
  -0.47           -0.00023535     0.00023613     
  -0.46           -0.00023103     0.00023114     
  -0.45           -0.00022597     0.00022548     
  -0.44           -0.00022027     0.00021993     
  -0.43           -0.0002156      0.00021505     
  -0.42           -0.00020991     0.00020992     
  -0.41           -0.00020487     0.00020547     
  -0.4            -0.00020047     0.000201       
  -0.39           -0.00019594     0.00019593     
  -0.38           -0.00019071     0.00019023     
  -0.37           -0.00018498     0.00018494     
  -0.36           -0.00017987     0.00018025     
  -0.35           -0.00017523     0.00017586     
  -0.34           -0.00017077     0.00017091     
  -0.33           -0.00016574     0.00016543     
  -0.32           -0.00016022     0.00015999     
  -0.31           -0.00015545     0.00015506     
  -0.3            -0.00014996     0.00015001     
  -0.29           -0.00014493     0.00014538     
  -0.28           -0.00014033     0.00014075     
  -0.27           -0.00013513     0.00013567     
  -0.26           -0.00013059     0.00013075     
  -0.25           -0.00012559     0.0001254      
  -0.24           -0.00012025     0.00012005     
  -0.23           -0.00011492     0.00011508     
  -0.22           -0.00011001     0.00011042     
  -0.21           -0.00010544     0.00010564     
  -0.2            -0.00010051     0.00010047     
  -0.19           -9.5092e-005    9.505e-005     
  -0.18           -9.0059e-005    8.9977e-005    
  -0.17           -8.4964e-005    8.5078e-005    
  -0.16           -8.0123e-005    8.0392e-005    
  -0.15           -7.5378e-005    7.5434e-005    
  -0.14           -7.0392e-005    7.0278e-005    
  -0.13           -6.526e-005     6.5067e-005    
  -0.12           -6.0047e-005    6.0023e-005    
  -0.11           -5.5009e-005    5.5137e-005    
  -0.1            -5.016e-005     5.0317e-005    
  -0.09           -4.5275e-005    4.5305e-005    
  -0.08           -4.0248e-005    4.0165e-005    
  -0.07           -3.5162e-005    3.5078e-005    
  -0.06           -3.0065e-005    3.0072e-005    
  -0.05           -2.506e-005     2.5128e-005    
  -0.04           -2.0123e-005    2.0197e-005    
  -0.03           -1.5157e-005    1.5161e-005    
  -0.02           -1.0119e-005    1.0114e-005    
  -0.01           -5.1028e-006    5.1146e-006    
  0               -8.679e-008     8.1539e-008    
  0.01            4.9462e-006     -4.9353e-006   
  0.02            9.9365e-006     -9.9289e-006   
  0.03            1.4901e-005     -1.4953e-005   
  0.04            1.9997e-005     -1.9945e-005   
  0.05            2.4916e-005     -2.4856e-005   
  0.06            2.9869e-005     -2.9868e-005   
  0.07            3.4895e-005     -3.4993e-005   
  0.08            4.0009e-005     -4.0054e-005   
  0.09            4.4925e-005     -4.5048e-005   
  0.1             5.0104e-005     -5.0132e-005   
  0.11            5.5125e-005     -5.5021e-005   
  0.12            6.0024e-005     -5.9848e-005   
  0.13            6.4855e-005     -6.4812e-005   
  0.14            6.9806e-005     -6.9934e-005   
  0.15            7.4996e-005     -7.5183e-005   
  0.16            8.0237e-005     -8.0228e-005   
  0.17            8.5215e-005     -8.5017e-005   
  0.18            9.0008e-005     -8.9787e-005   
  0.19            9.4788e-005     -9.4807e-005   
  0.2             9.9803e-005     -0.00010005    
  0.21            0.000105146     -0.00010475    
  0.22            0.00010999      -0.00010972    
  0.23            0.00011479      -0.00011482    
  0.24            0.00012003      -0.00012029    
  0.25            0.00012546      -0.00012541    
  0.26            0.00013048      -0.00013009    
  0.27            0.00013511      -0.00013472    
  0.28            0.0001398       -0.00013977    
  0.29            0.00014495      -0.00014528    
  0.3             0.00015049      -0.00015054    
  0.31            0.00015569      -0.00015532    
  0.32            0.00016034      -0.00015979    
  0.33            0.00016479      -0.00016466    
  0.34            0.00016985      -0.00017016    
  0.35            0.00017545      -0.00017566    
  0.36            0.00018009      -0.00018055    
  0.37            0.00018575      -0.00018572    
  0.38            0.00019081      -0.00019032    
  0.39            0.00019526      -0.0001947     
  0.4             0.0001998       -0.00019975    
  0.41            0.00020494      -0.00020546    
  0.42            0.00021068      -0.00021087    
  0.43            0.000216        -0.00021563    
  0.44            0.00022065      -0.00021984    
  0.45            0.00022484      -0.00022465    
  0.46            0.00022984      -0.00023023    
  0.47            0.00023556      -0.00023597    
  0.48            0.00024112      -0.00024086    
  0.49            0.0002459       -0.00024511    
  0.5             0.00025002      -0.00024966    
  0.51            0.00025475      -0.00025507    
  0.52            0.00026038      -0.00026102    
  0.53            0.00026624      -0.00026616    
  0.54            0.00027121      -0.00027044    
  0.55            0.00027531      -0.0002747     
  0.56            0.00028083      -0.00027987    
  0.57            0.0002849       -0.00028471    
  0.58            0.00028989      -0.00029043    
  0.59            0.00029582      -0.00029633    
  0.6             0.00030151      -0.00030122    
  0.61            0.00030618      -0.00030518    
  0.62            0.00031008      -0.0003097     
  0.63            0.00031482      -0.00031527    
  0.64            0.00032058      -0.0003214     
  0.65            0.00032661      -0.0003265     
  0.66            0.00033155      -0.0003306     
  0.67            0.00033544      -0.00033473    
  0.68            0.00034108      -0.00033995    
  0.69            0.00034494      -0.00034477    
  0.7             0.00034999      -0.00035073    
  0.71            0.00035614      -0.00035673    
  0.72            0.00036051      -0.00036155    
  0.73            0.00036677      -0.00036684    
  0.74            0.00037188      -0.00037098    
  0.75            0.00037583      -0.00037486    
  0.76            0.00037986      -0.00037992    
  0.77            0.00038521      -0.00038624    
  0.78            0.00039168      -0.00039201    
  0.79            0.00039713      -0.00039642    
  0.8             0.0004013       -0.00040001    
  0.81            0.00040503      -0.00040482    
  0.82            0.00041006      -0.00041092    
  0.83            0.0004164       -0.00041709    
  0.84            0.00042069      -0.00042192    
  0.85            0.00042713      -0.00042724    
  0.86            0.00043222      -0.00043119    
  0.87            0.00043603      -0.00043491    
  0.88            0.00043992      -0.0004401     
  0.89            0.00044539      -0.00044662    
  0.9             0.00045211      -0.00045246    
  0.91            0.00045758      -0.00045672    
  0.92            0.00046158      -0.00046013    
  0.93            0.00046513      -0.00046497    
  0.94            0.00047025      -0.0004713     
  0.95            0.00047684      -0.00047758    
  0.96            0.00048101      -0.00048239    
  0.97            0.00048764      -0.00048772    
  0.98            0.00049266      -0.00049145    
  0.99            0.00049622      -0.00049507    
  1               0.00050007      -0.00050031    
END_DB

