! VERSION = 6.00
BEGIN_HEADER
 ICCAP_INPUTS
  VU1        V  E GROUND SMU2 0.1 CON        0
  VU2        V  S GROUND SMU3 0.1 CON        0
  V2         V  B GROUND SMU4 0.015 CON        0
  V1         V  C GROUND SMU1 0.015 LIN        1    -1         1          201  0.01      
 ICCAP_OUTPUTS
  I1         I  C GROUND SMU1 B
  I2         I  B GROUND SMU4 B
END_HEADER

BEGIN_DB
 ICCAP_VAR VU1        0              
 ICCAP_VAR VU2        0              
 ICCAP_VAR V2         0              

 #V1              I1              I2             
  -1              -0.00012782     0.00012801     
  -0.99           -0.0001267      0.00012702     
  -0.98           -0.00012519     0.00012568     
  -0.97           -0.00012433     0.00012448     
  -0.96           -0.00012304     0.0001228      
  -0.95           -0.00012132     0.00012117     
  -0.94           -0.00012026     0.00011996     
  -0.93           -0.00011853     0.00011858     
  -0.92           -0.00011726     0.00011764     
  -0.91           -0.00011636     0.00011673     
  -0.9            -0.00011537     0.00011541     
  -0.89           -0.00011398     0.00011372     
  -0.88           -0.00011224     0.0001122      
  -0.87           -0.00011084     0.00011112     
  -0.86           -0.00010982     0.00011029     
  -0.85           -0.00010892     0.00010908     
  -0.84           -0.00010762     0.00010744     
  -0.83           -0.00010601     0.00010587     
  -0.82           -0.00010491     0.00010463     
  -0.81           -0.00010324     0.0001033      
  -0.8            -0.00010194     0.00010231     
  -0.79           -0.00010098     0.00010134     
  -0.78           -9.9404e-005    9.998e-005     
  -0.77           -9.8666e-005    9.8403e-005    
  -0.76           -9.7088e-005    9.6873e-005    
  -0.75           -9.5577e-005    9.5631e-005    
  -0.74           -9.4374e-005    9.4661e-005    
  -0.73           -9.3411e-005    9.3592e-005    
  -0.72           -9.1927e-005    9.2246e-005    
  -0.71           -9.0978e-005    9.1043e-005    
  -0.7            -8.9742e-005    8.9558e-005    
  -0.69           -8.8232e-005    8.7966e-005    
  -0.68           -8.6678e-005    8.6659e-005    
  -0.67           -8.5385e-005    8.5589e-005    
  -0.66           -8.4337e-005    8.4577e-005    
  -0.65           -8.3306e-005    8.3314e-005    
  -0.64           -8.2005e-005    8.1797e-005    
  -0.63           -8.0472e-005    8.0292e-005    
  -0.62           -7.9005e-005    7.9049e-005    
  -0.61           -7.7773e-005    7.801e-005     
  -0.6            -7.6748e-005    7.6913e-005    
  -0.59           -7.5316e-005    7.5582e-005    
  -0.58           -7.4309e-005    7.4364e-005    
  -0.57           -7.307e-005     7.2926e-005    
  -0.56           -7.1614e-005    7.1397e-005    
  -0.55           -7.0099e-005    7.0082e-005    
  -0.54           -6.8814e-005    6.8983e-005    
  -0.53           -6.7734e-005    6.7927e-005    
  -0.52           -6.6643e-005    6.6648e-005    
  -0.51           -6.5336e-005    6.5174e-005    
  -0.5            -6.3871e-005    6.373e-005     
  -0.49           -6.2437e-005    6.2476e-005    
  -0.48           -6.1201e-005    6.1388e-005    
  -0.47           -6.013e-005     6.026e-005     
  -0.46           -5.8727e-005    5.8937e-005    
  -0.45           -5.7666e-005    5.7708e-005    
  -0.44           -5.6414e-005    5.6311e-005    
  -0.43           -5.5001e-005    5.4831e-005    
  -0.42           -5.355e-005     5.3532e-005    
  -0.41           -5.2256e-005    5.2384e-005    
  -0.4            -5.1116e-005    5.1272e-005    
  -0.39           -4.9993e-005    5.0004e-005    
  -0.38           -4.8699e-005    4.8584e-005    
  -0.37           -4.7275e-005    4.7168e-005    
  -0.36           -4.5885e-005    4.5912e-005    
  -0.35           -4.4635e-005    4.4772e-005    
  -0.34           -4.3494e-005    4.3599e-005    
  -0.33           -4.2137e-005    4.2294e-005    
  -0.32           -4.101e-005     4.1045e-005    
  -0.31           -3.9753e-005    3.968e-005     
  -0.3            -3.8384e-005    3.8268e-005    
  -0.29           -3.6977e-005    3.697e-005     
  -0.28           -3.569e-005     3.5781e-005    
  -0.27           -3.4518e-005    3.4622e-005    
  -0.26           -3.3335e-005    3.3343e-005    
  -0.25           -3.2042e-005    3.1964e-005    
  -0.24           -3.0674e-005    3.061e-005     
  -0.23           -2.932e-005     2.9342e-005    
  -0.22           -2.8061e-005    2.8151e-005    
  -0.21           -2.6875e-005    2.6945e-005    
  -0.2            -2.554e-005     2.5641e-005    
  -0.19           -2.4352e-005    2.4377e-005    
  -0.18           -2.3092e-005    2.3053e-005    
  -0.17           -2.1755e-005    2.1692e-005    
  -0.16           -2.0412e-005    2.0413e-005    
  -0.15           -1.9131e-005    1.919e-005     
  -0.14           -1.7904e-005    1.7965e-005    
  -0.13           -1.6682e-005    1.6692e-005    
  -0.12           -1.5393e-005    1.5362e-005    
  -0.11           -1.4068e-005    1.4041e-005    
  -0.1            -1.2764e-005    1.2777e-005    
  -0.09           -1.1492e-005    1.1534e-005    
  -0.08           -1.0244e-005    1.0278e-005    
  -0.07           -8.9989e-006    8.9512e-006    
  -0.06           -7.673e-006     7.6965e-006    
  -0.05           -6.4224e-006    6.4292e-006    
  -0.04           -5.1537e-006    5.143e-006     
  -0.03           -3.8602e-006    3.8473e-006    
  -0.02           -2.5674e-006    2.5691e-006    
  -0.01           -1.2983e-006    1.2986e-006    
  0               -2.0378e-008    2.1467e-008    
  0.01            1.255e-006      -1.2571e-006   
  0.02            2.5221e-006     -2.5202e-006   
  0.03            3.8021e-006     -3.8072e-006   
  0.04            5.1044e-006     -5.1057e-006   
  0.05            6.3587e-006     -6.3735e-006   
  0.06            7.6645e-006     -7.6625e-006   
  0.07            8.9448e-006     -8.9217e-006   
  0.08            1.01792e-005    -1.01629e-005  
  0.09            1.1505e-005     -1.1438e-005   
  0.1             1.2725e-005     -1.2716e-005   
  0.11            1.3995e-005     -1.4021e-005   
  0.12            1.5327e-005     -1.5346e-005   
  0.13            1.6644e-005     -1.6623e-005   
  0.14            1.7903e-005     -1.784e-005    
  0.15            1.9118e-005     -1.9077e-005   
  0.16            2.0447e-005     -2.037e-005    
  0.17            2.1645e-005     -2.1616e-005   
  0.18            2.2905e-005     -2.2935e-005   
  0.19            2.424e-005      -2.4304e-005   
  0.2             2.5594e-005     -2.5598e-005   
  0.21            2.6888e-005     -2.6823e-005   
  0.22            2.8102e-005     -2.801e-005    
  0.23            2.9284e-005     -2.9268e-005   
  0.24            3.056e-005      -3.0622e-005   
  0.25            3.1932e-005     -3.2001e-005   
  0.26            3.3292e-005     -3.3274e-005   
  0.27            3.4562e-005     -3.446e-005    
  0.28            3.5727e-005     -3.5645e-005   
  0.29            3.6929e-005     -3.6938e-005   
  0.3             3.8231e-005     -3.8338e-005   
  0.31            3.9644e-005     -3.9701e-005   
  0.32            4.0837e-005     -4.0958e-005   
  0.33            4.2254e-005     -4.2268e-005   
  0.34            4.3556e-005     -4.3457e-005   
  0.35            4.4727e-005     -4.4584e-005   
  0.36            4.5857e-005     -4.5839e-005   
  0.37            4.7141e-005     -4.7239e-005   
  0.38            4.8558e-005     -4.8668e-005   
  0.39            4.9963e-005     -4.9944e-005   
  0.4             5.1226e-005     -5.1078e-005   
  0.41            5.2335e-005     -5.222e-005    
  0.42            5.3496e-005     -5.3516e-005   
  0.43            5.4812e-005     -5.4968e-005   
  0.44            5.629e-005      -5.6381e-005   
  0.45            5.7435e-005     -5.7615e-005   
  0.46            5.8925e-005     -5.8951e-005   
  0.47            6.0241e-005     -6.0108e-005   
  0.48            6.1358e-005     -6.1163e-005   
  0.49            6.2446e-005     -6.2417e-005   
  0.5             6.3724e-005     -6.386e-005    
  0.51            6.5181e-005     -6.5334e-005   
  0.52            6.6644e-005     -6.6621e-005   
  0.53            6.7905e-005     -6.7713e-005   
  0.54            6.8966e-005     -6.8811e-005   
  0.55            7.0082e-005     -7.0107e-005   
  0.56            7.1406e-005     -7.1607e-005   
  0.57            7.2939e-005     -7.3065e-005   
  0.58            7.4047e-005     -7.4284e-005   
  0.59            7.5603e-005     -7.564e-005    
  0.6             7.6935e-005     -7.678e-005    
  0.61            7.8043e-005     -7.7778e-005   
  0.62            7.9051e-005     -7.9e-005      
  0.63            8.0302e-005     -8.0458e-005   
  0.64            8.1783e-005     -8.2012e-005   
  0.65            8.332e-005      -8.3326e-005   
  0.66            8.4597e-005     -8.4389e-005   
  0.67            8.5628e-005     -8.5406e-005   
  0.68            8.6682e-005     -8.6697e-005   
  0.69            8.8005e-005     -8.8236e-005   
  0.7             8.957e-005      -8.9742e-005   
  0.71            9.1049e-005     -9.098e-005    
  0.72            9.2258e-005     -9.1959e-005   
  0.73            9.3201e-005     -9.3033e-005   
  0.74            9.4694e-005     -9.4378e-005   
  0.75            9.5649e-005     -9.5589e-005   
  0.76            9.6894e-005     -9.7091e-005   
  0.77            9.8434e-005     -9.8703e-005   
  0.78            0.00010002      -0.000100019   
  0.79            0.000101275     -0.000101021   
  0.8             0.000102267     -0.000102006   
  0.81            0.000103282     -0.000103305   
  0.82            0.000104606     -0.000104887   
  0.83            0.00010624      -0.0001058     
  0.84            0.00010732      -0.00010703    
  0.85            0.00010841      -0.00010845    
  0.86            0.00010988      -0.00011017    
  0.87            0.00011161      -0.00011155    
  0.88            0.00011292      -0.00011255    
  0.89            0.00011384      -0.00011346    
  0.9             0.0001148       -0.00011477    
  0.91            0.0001162       -0.00011647    
  0.92            0.00011795      -0.00011798    
  0.93            0.0001194       -0.00011908    
  0.94            0.00012035      -0.00011989    
  0.95            0.00012125      -0.00012109    
  0.96            0.00012254      -0.00012276    
  0.97            0.00012423      -0.0001244     
  0.98            0.00012529      -0.00012562    
  0.99            0.00012705      -0.00012699    
  1               0.00012834      -0.00012791    
END_DB

