! VERSION = 6.00
BEGIN_HEADER
 ICCAP_INPUTS
  VU1        V  E GROUND SMU2 0.1 CON        0
  VU2        V  S GROUND SMU3 0.1 CON        0
  V2         V  B GROUND SMU1 0.015 CON        0
  V1         V  C GROUND SMU4 0.015 LIN        1    -1         1          201  0.01      
 ICCAP_OUTPUTS
  I1         I  C GROUND SMU4 B
  I2         I  B GROUND SMU1 B
END_HEADER

BEGIN_DB
 ICCAP_VAR VU1        0              
 ICCAP_VAR VU2        0              
 ICCAP_VAR V2         0              

 #V1              I1              I2             
  -1              -0.0011011      0.001102       
  -0.99           -0.0010883      0.00109        
  -0.98           -0.0010781      0.0010774      
  -0.97           -0.0010695      0.0010681      
  -0.96           -0.0010583      0.0010592      
  -0.95           -0.0010446      0.0010474      
  -0.94           -0.0010309      0.0010333      
  -0.93           -0.0010197      0.0010232      
  -0.92           -0.0010076      0.001009       
  -0.91           -0.0010003      0.00100131     
  -0.9            -0.00098638     0.00098903     
  -0.89           -0.00097782     0.00097555     
  -0.88           -0.00096665     0.00096665     
  -0.87           -0.00095323     0.00095504     
  -0.86           -0.00093988     0.00094138     
  -0.85           -0.00092875     0.00092838     
  -0.84           -0.00092005     0.00091797     
  -0.83           -0.00090969     0.00090919     
  -0.82           -0.00089693     0.0008984      
  -0.81           -0.00088322     0.00088518     
  -0.8            -0.00087185     0.00087185     
  -0.79           -0.00086233     0.00086074     
  -0.78           -0.00085285     0.00085178     
  -0.77           -0.00084111     0.00083921     
  -0.76           -0.0008302      0.00083005     
  -0.75           -0.00081725     0.00081879     
  -0.74           -0.00080419     0.00080564     
  -0.73           -0.00079328     0.00079291     
  -0.72           -0.00078419     0.00078248     
  -0.71           -0.0007738      0.00077343     
  -0.7            -0.00076171     0.00076275     
  -0.69           -0.00074844     0.00075017     
  -0.68           -0.00073706     0.00073723     
  -0.67           -0.00072748     0.00072614     
  -0.66           -0.00071792     0.00071698     
  -0.65           -0.00070644     0.00070481     
  -0.64           -0.00069552     0.00069552     
  -0.63           -0.00068294     0.00068426     
  -0.62           -0.00067047     0.00067164     
  -0.61           -0.00065964     0.00065938     
  -0.6            -0.00065027     0.00064882     
  -0.59           -0.00064006     0.0006397      
  -0.58           -0.0006281      0.00062908     
  -0.57           -0.00061539     0.00061687     
  -0.56           -0.00060415     0.00060438     
  -0.55           -0.00059442     0.00059338     
  -0.54           -0.0005847      0.00058393     
  -0.53           -0.00057341     0.00057213     
  -0.52           -0.00056271     0.00056264     
  -0.51           -0.00055065     0.00055167     
  -0.5            -0.00053843     0.00053952     
  -0.49           -0.00052769     0.00052749     
  -0.48           -0.00051803     0.00051691     
  -0.47           -0.00050778     0.00050736     
  -0.46           -0.00049625     0.00049694     
  -0.45           -0.00048402     0.00048527     
  -0.44           -0.00047286     0.00047311     
  -0.43           -0.00046285     0.00046219     
  -0.42           -0.000453       0.00045229     
  -0.41           -0.00044201     0.00044231     
  -0.4            -0.00042996     0.00043107     
  -0.39           -0.0004185      0.00041903     
  -0.38           -0.00040811     0.00040773     
  -0.37           -0.00039847     0.00039764     
  -0.36           -0.0003878      0.00038777     
  -0.35           -0.00037609     0.00037682     
  -0.34           -0.00036442     0.00036507     
  -0.33           -0.00035371     0.00035363     
  -0.32           -0.00034393     0.00034323     
  -0.31           -0.00033351     0.00033341     
  -0.3            -0.00032218     0.00032272     
  -0.29           -0.00031055     0.00031136     
  -0.28           -0.00029974     0.00029985     
  -0.27           -0.00028962     0.00028913     
  -0.26           -0.00027936     0.0002791      
  -0.25           -0.00026845     0.00026791     
  -0.24           -0.00025779     0.00025787     
  -0.23           -0.00024651     0.00024706     
  -0.22           -0.00023519     0.00023563     
  -0.21           -0.00022451     0.00022451     
  -0.2            -0.00021443     0.00021403     
  -0.19           -0.00020392     0.00020385     
  -0.18           -0.00019285     0.00019323     
  -0.17           -0.00018156     0.00018209     
  -0.16           -0.00017091     0.00017099     
  -0.15           -0.00016052     0.00016029     
  -0.14           -0.0001501      0.00015        
  -0.13           -0.00013924     0.00013899     
  -0.12           -0.00012863     0.00012871     
  -0.11           -0.00011764     0.00011792     
  -0.1            -0.00010663     0.00010689     
  -0.09           -9.5935e-005    9.636e-005     
  -0.08           -8.5394e-005    8.5252e-005    
  -0.07           -7.4923e-005    7.4805e-005    
  -0.06           -6.4157e-005    6.4191e-005    
  -0.05           -5.3294e-005    5.3421e-005    
  -0.04           -4.2501e-005    4.2537e-005    
  -0.03           -3.1921e-005    3.1988e-005    
  -0.02           -2.1176e-005    2.1207e-005    
  -0.01           -1.0497e-005    1.0498e-005    
  0               9.9172e-008     -1.00288e-007  
  0.01            1.0821e-005     -1.0859e-005   
  0.02            2.1523e-005     -2.151e-005    
  0.03            3.2183e-005     -3.212e-005    
  0.04            4.301e-005      -4.2896e-005   
  0.05            5.3775e-005     -5.3736e-005   
  0.06            6.4397e-005     -6.4515e-005   
  0.07            7.4862e-005     -7.5016e-005   
  0.08            8.5508e-005     -8.5534e-005   
  0.09            9.6402e-005     -9.6206e-005   
  0.1             0.00010708      -0.000107134   
  0.11            0.00011768      -0.0001178     
  0.12            0.00012844      -0.00012828    
  0.13            0.00013952      -0.00013911    
  0.14            0.00015047      -0.00015028    
  0.15            0.00016104      -0.00016116    
  0.16            0.00017122      -0.0001715     
  0.17            0.00018192      -0.00018183    
  0.18            0.00019308      -0.0001926     
  0.19            0.00020421      -0.00020382    
  0.2             0.00021487      -0.00021425    
  0.21            0.00022578      -0.00022559    
  0.22            0.00023604      -0.00023638    
  0.23            0.00024626      -0.00024662    
  0.24            0.00025707      -0.00025759    
  0.25            0.00026763      -0.00026764    
  0.26            0.00027896      -0.00027835    
  0.27            0.00029044      -0.00028976    
  0.28            0.00030121      -0.00030123    
  0.29            0.00031121      -0.00031178    
  0.3             0.00032146      -0.00032162    
  0.31            0.00033261      -0.00033216    
  0.32            0.00034442      -0.00034349    
  0.33            0.00035536      -0.00035516    
  0.34            0.00036547      -0.00036606    
  0.35            0.00037546      -0.00037602    
  0.36            0.00038647      -0.00038617    
  0.37            0.00039829      -0.00039727    
  0.38            0.00040968      -0.00040932    
  0.39            0.00042         -0.0004205     
  0.4             0.0004297       -0.00043059    
  0.41            0.00044035      -0.00044032    
  0.42            0.00045228      -0.00045131    
  0.43            0.00046409      -0.00046333    
  0.44            0.00047484      -0.00047361    
  0.45            0.00048603      -0.00048581    
  0.46            0.00049585      -0.0004966     
  0.47            0.00050563      -0.00050641    
  0.48            0.00051674      -0.0005164     
  0.49            0.00052903      -0.00052777    
  0.5             0.0005407       -0.00054017    
  0.51            0.00055108      -0.00055164    
  0.52            0.0005605       -0.0005617     
  0.53            0.00057125      -0.00057126    
  0.54            0.00058341      -0.00058221    
  0.55            0.0005957       -0.0005946     
  0.56            0.00060652      -0.0006049     
  0.57            0.0006179       -0.00061759    
  0.58            0.00062787      -0.00062882    
  0.59            0.00063718      -0.00063829    
  0.6             0.00064843      -0.00064813    
  0.61            0.00066098      -0.00065947    
  0.62            0.00067336      -0.00067255    
  0.63            0.00068383      -0.00068431    
  0.64            0.00069287      -0.00069448    
  0.65            0.0007035       -0.0007037     
  0.66            0.00071601      -0.00071467    
  0.67            0.00072878      -0.00072739    
  0.68            0.00073979      -0.00074       
  0.69            0.00074912      -0.00075066    
  0.7             0.00075915      -0.00075973    
  0.71            0.00077117      -0.00077021    
  0.72            0.0007846       -0.00078261    
  0.73            0.00079614      -0.00079588    
  0.74            0.00080574      -0.00080711    
  0.75            0.00081523      -0.00081655    
  0.76            0.00082675      -0.00082616    
  0.77            0.0008402       -0.00083822    
  0.78            0.00085259      -0.00085191    
  0.79            0.00086291      -0.00086387    
  0.8             0.00087159      -0.00087349    
  0.81            0.00088256      -0.00088268    
  0.82            0.00089578      -0.00089409    
  0.83            0.00090915      -0.00090758    
  0.84            0.00092002      -0.00091769    
  0.85            0.000932        -0.0009316     
  0.86            0.00094169      -0.00094324    
  0.87            0.00095094      -0.00095249    
  0.88            0.00096238      -0.00096192    
  0.89            0.00097632      -0.00097403    
  0.9             0.00098933      -0.00098831    
  0.91            0.00099973      -0.00100071    
  0.92            0.00100833      -0.00101068    
  0.93            0.00101926      -0.00101937    
  0.94            0.00103292      -0.00103089    
  0.95            0.00104679      -0.0010447     
  0.96            0.00105799      -0.00105839    
  0.97            0.00106695      -0.0010691     
  0.98            0.00107677      -0.00107773    
  0.99            0.00108947      -0.00108822    
  1               0.00110436      -0.0011015     
END_DB

