! VERSION = 6.00
BEGIN_HEADER
 ICCAP_INPUTS
  VU1        V  E GROUND SMU2 0.1 CON        0
  VU2        V  S GROUND SMU3 0.1 CON        0
  V2         V  B GROUND SMU4 0.015 CON        0
  V1         V  C GROUND SMU1 0.015 LIN        1    -1         1          201  0.01      
 ICCAP_OUTPUTS
  I1         I  C GROUND SMU1 B
  I2         I  B GROUND SMU4 B
END_HEADER

BEGIN_DB
 ICCAP_VAR VU1        0              
 ICCAP_VAR VU2        0              
 ICCAP_VAR V2         0              

 #V1              I1              I2             
  -1              -0.00025089     0.00025097     
  -0.99           -0.0002483      0.00024836     
  -0.98           -0.00024585     0.00024645     
  -0.97           -0.00024398     0.00024455     
  -0.96           -0.00024108     0.00024188     
  -0.95           -0.00023935     0.00023952     
  -0.94           -0.00023681     0.00023639     
  -0.93           -0.00023364     0.00023329     
  -0.92           -0.00023148     0.00023092     
  -0.91           -0.00022821     0.00022821     
  -0.9            -0.00022566     0.0002262      
  -0.89           -0.00022377     0.00022432     
  -0.88           -0.00022176     0.00022176     
  -0.87           -0.00021903     0.00021856     
  -0.86           -0.00021575     0.00021566     
  -0.85           -0.00021303     0.00021344     
  -0.84           -0.00021096     0.00021164     
  -0.83           -0.00020904     0.00020919     
  -0.82           -0.00020648     0.00020613     
  -0.81           -0.0002034      0.00020314     
  -0.8            -0.00020121     0.00020072     
  -0.79           -0.00019804     0.00019807     
  -0.78           -0.00019552     0.00019606     
  -0.77           -0.00019357     0.00019403     
  -0.76           -0.00019077     0.00019139     
  -0.75           -0.00018883     0.00018902     
  -0.74           -0.00018638     0.00018612     
  -0.73           -0.00018335     0.00018305     
  -0.72           -0.0001804      0.0001806      
  -0.71           -0.00017806     0.00017864     
  -0.7            -0.00017612     0.0001764      
  -0.69           -0.0001738      0.00017365     
  -0.68           -0.00017094     0.00017057     
  -0.67           -0.00016789     0.00016794     
  -0.66           -0.00016539     0.00016585     
  -0.65           -0.00016335     0.00016374     
  -0.64           -0.0001606      0.00016116     
  -0.63           -0.00015858     0.00015874     
  -0.62           -0.00015608     0.00015587     
  -0.61           -0.00015312     0.00015292     
  -0.6            -0.00015029     0.00015047     
  -0.59           -0.00014795     0.00014845     
  -0.58           -0.00014593     0.00014615     
  -0.57           -0.00014353     0.00014342     
  -0.56           -0.00014076     0.00014044     
  -0.55           -0.00013781     0.00013787     
  -0.54           -0.00013532     0.00013573     
  -0.53           -0.00013322     0.00013354     
  -0.52           -0.00013049     0.00013094     
  -0.51           -0.00012834     0.0001285      
  -0.5            -0.00012583     0.00012567     
  -0.49           -0.000123       0.00012286     
  -0.48           -0.00012064     0.00012038     
  -0.47           -0.00011775     0.0001178      
  -0.46           -0.00011522     0.00011556     
  -0.45           -0.00011303     0.00011337     
  -0.44           -0.00011076     0.00011082     
  -0.43           -0.00010815     0.00010795     
  -0.42           -0.00010527     0.00010528     
  -0.41           -0.0001027      0.00010294     
  -0.4            -0.00010039     0.00010074     
  -0.39           -9.7737e-005    9.823e-005     
  -0.38           -9.57e-005      9.5534e-005    
  -0.37           -9.2972e-005    9.274e-005     
  -0.36           -9.0233e-005    9.0212e-005    
  -0.35           -8.7711e-005    8.7896e-005    
  -0.34           -8.5414e-005    8.5616e-005    
  -0.33           -8.3112e-005    8.3106e-005    
  -0.32           -8.0563e-005    8.0381e-005    
  -0.31           -7.7846e-005    7.7693e-005    
  -0.3            -7.5186e-005    7.5231e-005    
  -0.29           -7.2723e-005    7.2913e-005    
  -0.28           -7.0418e-005    7.0535e-005    
  -0.27           -6.7795e-005    6.7988e-005    
  -0.26           -6.5467e-005    6.5512e-005    
  -0.25           -6.297e-005     6.2861e-005    
  -0.24           -6.0331e-005    6.0183e-005    
  -0.23           -5.7657e-005    5.7654e-005    
  -0.22           -5.5145e-005    5.5269e-005    
  -0.21           -5.2779e-005    5.2903e-005    
  -0.2            -5.038e-005     5.0377e-005    
  -0.19           -4.7835e-005    4.7728e-005    
  -0.18           -4.5218e-005    4.5134e-005    
  -0.17           -4.2612e-005    4.2648e-005    
  -0.16           -4.0151e-005    4.0258e-005    
  -0.15           -3.7759e-005    3.7813e-005    
  -0.14           -3.5164e-005    3.5272e-005    
  -0.13           -3.2761e-005    3.2787e-005    
  -0.12           -3.0256e-005    3.0204e-005    
  -0.11           -2.7665e-005    2.7609e-005    
  -0.1            -2.5101e-005    2.5105e-005    
  -0.09           -2.2592e-005    2.2652e-005    
  -0.08           -2.0128e-005    2.018e-005     
  -0.07           -1.7669e-005    1.7673e-005    
  -0.06           -1.514e-005     1.5113e-005    
  -0.05           -1.2596e-005    1.2568e-005    
  -0.04           -1.0106e-005    1.0081e-005    
  -0.03           -7.5777e-006    7.5823e-006    
  -0.02           -5.0491e-006    5.0514e-006    
  -0.01           -2.5572e-006    2.5627e-006    
  0               -4.3668e-008    4.3372e-008    
  0.01            2.4637e-006     -2.4679e-006   
  0.02            4.9574e-006     -4.9575e-006   
  0.03            7.4716e-006     -7.4829e-006   
  0.04            1.00219e-005    -1.0028e-005   
  0.05            1.2477e-005     -1.2522e-005   
  0.06            1.5062e-005     -1.5043e-005   
  0.07            1.7575e-005     -1.7529e-005   
  0.08            2.0009e-005     -1.9978e-005   
  0.09            2.2492e-005     -2.2493e-005   
  0.1             2.5022e-005     -2.5087e-005   
  0.11            2.7597e-005     -2.7629e-005   
  0.12            3.0057e-005     -3.013e-005    
  0.13            3.2672e-005     -3.2676e-005   
  0.14            3.5181e-005     -3.511e-005    
  0.15            3.762e-005      -3.7519e-005   
  0.16            4.0029e-005     -4.0019e-005   
  0.17            4.2529e-005     -4.2599e-005   
  0.18            4.5155e-005     -4.5238e-005   
  0.19            4.7774e-005     -4.7753e-005   
  0.2             5.0258e-005     -5.0123e-005   
  0.21            5.2615e-005     -5.2525e-005   
  0.22            5.5248e-005     -5.5083e-005   
  0.23            5.7568e-005     -5.7517e-005   
  0.24            6.0044e-005     -6.0128e-005   
  0.25            6.2681e-005     -6.2836e-005   
  0.26            6.5365e-005     -6.5379e-005   
  0.27            6.7897e-005     -6.776e-005    
  0.28            7.0257e-005     -7.0078e-005   
  0.29            7.2593e-005     -7.2582e-005   
  0.3             7.5095e-005     -7.5246e-005   
  0.31            7.7807e-005     -7.7953e-005   
  0.32            8.0496e-005     -8.0456e-005   
  0.33            8.2957e-005     -8.2745e-005   
  0.34            8.5239e-005     -8.5092e-005   
  0.35            8.792e-005      -8.7664e-005   
  0.36            9.0145e-005     -9.0078e-005   
  0.37            9.2613e-005     -9.2749e-005   
  0.38            9.5315e-005     -9.5565e-005   
  0.39            9.8093e-005     -9.8106e-005   
  0.4             0.000100626     -0.000100427   
  0.41            0.000102918     -0.000102674   
  0.42            0.000105169     -0.00010567    
  0.43            0.00010828      -0.00010813    
  0.44            0.0001107       -0.00011032    
  0.45            0.00011283      -0.00011262    
  0.46            0.00011522      -0.0001153     
  0.47            0.00011799      -0.00011822    
  0.48            0.00012086      -0.00012073    
  0.49            0.00012334      -0.00012294    
  0.5             0.00012548      -0.00012518    
  0.51            0.0001282       -0.00012774    
  0.52            0.00013032      -0.00013018    
  0.53            0.00013283      -0.00013299    
  0.54            0.00013573      -0.00013588    
  0.55            0.00013801      -0.00013831    
  0.56            0.000141        -0.00014095    
  0.57            0.00014353      -0.00014317    
  0.58            0.00014566      -0.00014525    
  0.59            0.00014786      -0.00014781    
  0.6             0.00015047      -0.00015074    
  0.61            0.00015352      -0.00015356    
  0.62            0.00015618      -0.00015587    
  0.63            0.00015839      -0.00015786    
  0.64            0.00016044      -0.00016029    
  0.65            0.00016296      -0.00016317    
  0.66            0.00016593      -0.00016614    
  0.67            0.00016878      -0.00016858    
  0.68            0.00017112      -0.00017056    
  0.69            0.00017306      -0.00017283    
  0.7             0.00017541      -0.00017556    
  0.71            0.0001783       -0.00017865    
  0.72            0.00018131      -0.00018126    
  0.73            0.00018379      -0.00018329    
  0.74            0.00018577      -0.00018538    
  0.75            0.00018861      -0.00018798    
  0.76            0.00019055      -0.00019038    
  0.77            0.00019306      -0.00019335    
  0.78            0.00019611      -0.00019638    
  0.79            0.00019903      -0.00019881    
  0.8             0.00020135      -0.0002007     
  0.81            0.00020319      -0.00020288    
  0.82            0.00020552      -0.00020576    
  0.83            0.00020852      -0.00020895    
  0.84            0.00021163      -0.00021151    
  0.85            0.00021407      -0.00021345    
  0.86            0.00021591      -0.00021548    
  0.87            0.0002188       -0.0002181     
  0.88            0.00022065      -0.0002205     
  0.89            0.0002232       -0.00022361    
  0.9             0.00022637      -0.00022669    
  0.91            0.00022851      -0.00022905    
  0.92            0.00023176      -0.00023174    
  0.93            0.00023432      -0.00023372    
  0.94            0.00023617      -0.0002356     
  0.95            0.00023905      -0.00023824    
  0.96            0.0002408       -0.00024059    
  0.97            0.00024324      -0.00024362    
  0.98            0.00024643      -0.00024686    
  0.99            0.00024956      -0.00024931    
  1               0.00025182      -0.00025106    
END_DB

