! VERSION = 6.00
BEGIN_HEADER
 ICCAP_INPUTS
  VU1        V  E GROUND SMU2 0.1 CON        0
  VU2        V  S GROUND SMU3 0.1 CON        0
  V2         V  B GROUND SMU4 0.015 CON        0
  V1         V  C GROUND SMU1 0.015 LIN        1    -1         1          201  0.01      
 ICCAP_OUTPUTS
  I1         I  C GROUND SMU1 B
  I2         I  B GROUND SMU4 B
END_HEADER

BEGIN_DB
 ICCAP_VAR VU1        0              
 ICCAP_VAR VU2        0              
 ICCAP_VAR V2         0              

 #V1              I1              I2             
  -1              -0.00053307     0.00053323     
  -0.99           -0.00052792     0.00052913     
  -0.98           -0.00052361     0.00052344     
  -0.97           -0.00051766     0.00051644     
  -0.96           -0.00051048     0.0005101      
  -0.95           -0.00050455     0.00050537     
  -0.94           -0.00050008     0.00050153     
  -0.93           -0.00049605     0.00049624     
  -0.92           -0.00049049     0.00048953     
  -0.91           -0.00048365     0.00048291     
  -0.9            -0.00047894     0.00047766     
  -0.89           -0.00047211     0.00047202     
  -0.88           -0.00046668     0.00046775     
  -0.87           -0.00046253     0.00046354     
  -0.86           -0.00045642     0.00045781     
  -0.85           -0.00045247     0.00045277     
  -0.84           -0.00044716     0.0004464      
  -0.83           -0.00044058     0.00043973     
  -0.82           -0.00043415     0.00043442     
  -0.81           -0.00042913     0.00043036     
  -0.8            -0.00042517     0.0004257      
  -0.79           -0.00042015     0.00041967     
  -0.78           -0.0004139      0.0004129      
  -0.77           -0.00040734     0.00040729     
  -0.76           -0.00040199     0.00040296     
  -0.75           -0.00039773     0.0003986      
  -0.74           -0.00039179     0.000393       
  -0.73           -0.00038762     0.00038791     
  -0.72           -0.0003823      0.00038163     
  -0.71           -0.00037593     0.00037526     
  -0.7            -0.00036974     0.00037        
  -0.69           -0.0003647      0.00036579     
  -0.68           -0.00036064     0.00036103     
  -0.67           -0.00035548     0.00035513     
  -0.66           -0.00034941     0.00034862     
  -0.65           -0.00034315     0.00034316     
  -0.64           -0.00033784     0.00033868     
  -0.63           -0.00033341     0.00033414     
  -0.62           -0.0003276      0.00032865     
  -0.61           -0.00032324     0.00032348     
  -0.6            -0.0003179      0.00031736     
  -0.59           -0.00031175     0.00031124     
  -0.58           -0.00030579     0.00030607     
  -0.57           -0.00030076     0.00030169     
  -0.56           -0.00029647     0.00029681     
  -0.55           -0.00029133     0.00029099     
  -0.54           -0.00028538     0.00028476     
  -0.53           -0.00027932     0.00027939     
  -0.52           -0.00027405     0.00027476     
  -0.51           -0.00026947     0.00027009     
  -0.5            -0.00026381     0.00026469     
  -0.49           -0.00025927     0.00025947     
  -0.48           -0.00025396     0.00025352     
  -0.47           -0.00024798     0.0002476      
  -0.46           -0.00024214     0.00024239     
  -0.45           -0.00023714     0.00023787     
  -0.44           -0.0002326      0.00023292     
  -0.43           -0.0002275      0.00022726     
  -0.42           -0.00022172     0.00022125     
  -0.41           -0.00021581     0.00021587     
  -0.4            -0.00021055     0.00021116     
  -0.39           -0.00020589     0.00020636     
  -0.38           -0.00020032     0.00020098     
  -0.37           -0.00019556     0.00019574     
  -0.36           -0.00019029     0.00018999     
  -0.35           -0.0001845      0.00018423     
  -0.34           -0.00017944     0.00017901     
  -0.33           -0.00017363     0.00017364     
  -0.32           -0.00016833     0.00016877     
  -0.31           -0.00016347     0.00016389     
  -0.3            -0.00015855     0.00015858     
  -0.29           -0.00015308     0.00015279     
  -0.28           -0.00014731     0.00014727     
  -0.27           -0.00014194     0.00014223     
  -0.26           -0.00013695     0.00013741     
  -0.25           -0.00013204     0.00013216     
  -0.24           -0.00012676     0.00012656     
  -0.23           -0.00012114     0.00012101     
  -0.22           -0.000116       0.00011577     
  -0.21           -0.00011043     0.00011049     
  -0.2            -0.00010512     0.00010546     
  -0.19           -0.000100097    9.993e-005     
  -0.18           -9.4634e-005    9.5109e-005    
  -0.17           -8.979e-005     8.9616e-005    
  -0.16           -8.4329e-005    8.4155e-005    
  -0.15           -7.8868e-005    7.8886e-005    
  -0.14           -7.3628e-005    7.3802e-005    
  -0.13           -6.8556e-005    6.8715e-005    
  -0.12           -6.3417e-005    6.34e-005      
  -0.11           -5.8096e-005    5.7975e-005    
  -0.1            -5.2703e-005    5.2622e-005    
  -0.09           -4.7509e-005    4.7374e-005    
  -0.08           -4.2098e-005    4.2083e-005    
  -0.07           -3.6853e-005    3.6932e-005    
  -0.06           -3.166e-005     3.1755e-005    
  -0.05           -2.6453e-005    2.648e-005     
  -0.04           -2.1214e-005    2.1171e-005    
  -0.03           -1.5884e-005    1.5855e-005    
  -0.02           -1.0581e-005    1.0586e-005    
  -0.01           -5.377e-006     5.3566e-006    
  0               -8.4209e-008    8.3659e-008    
  0.01            5.1818e-006     -5.189e-006    
  0.02            1.04195e-005    -1.03946e-005  
  0.03            1.5731e-005     -1.5653e-005   
  0.04            2.0953e-005     -2.0904e-005   
  0.05            2.6216e-005     -2.6144e-005   
  0.06            3.141e-005      -3.1384e-005   
  0.07            3.6672e-005     -3.672e-005    
  0.08            4.198e-005      -4.2073e-005   
  0.09            4.7371e-005     -4.7361e-005   
  0.1             5.2653e-005     -5.2545e-005   
  0.11            5.7765e-005     -5.7633e-005   
  0.12            6.2896e-005     -6.2904e-005   
  0.13            6.8189e-005     -6.8339e-005   
  0.14            7.3641e-005     -7.3737e-005   
  0.15            7.8755e-005     -7.897e-005    
  0.16            8.4279e-005     -8.433e-005    
  0.17            8.9589e-005     -8.944e-005    
  0.18            9.4689e-005     -9.4434e-005   
  0.19            9.9692e-005     -9.9639e-005   
  0.2             0.000104907     -0.000105077   
  0.21            0.00011042      -0.000110676   
  0.22            0.00011591      -0.00011537    
  0.23            0.00012072      -0.00012081    
  0.24            0.0001263       -0.00012649    
  0.25            0.00013191      -0.00013179    
  0.26            0.00013713      -0.00013667    
  0.27            0.00014197      -0.00014168    
  0.28            0.00014749      -0.00014701    
  0.29            0.00015236      -0.00015223    
  0.3             0.00015762      -0.00015787    
  0.31            0.00016342      -0.00016356    
  0.32            0.00016842      -0.00016878    
  0.33            0.0001742       -0.00017416    
  0.34            0.00017951      -0.00017901    
  0.35            0.0001843       -0.00018387    
  0.36            0.00018985      -0.00018922    
  0.37            0.00019454      -0.00019435    
  0.38            0.00019984      -0.00020012    
  0.39            0.00020563      -0.00020595    
  0.4             0.00021142      -0.00021116    
  0.41            0.00021652      -0.00021584    
  0.42            0.00022107      -0.00022074    
  0.43            0.00022613      -0.00022632    
  0.44            0.00023191      -0.00023243    
  0.45            0.00023788      -0.00023784    
  0.46            0.00024315      -0.00024254    
  0.47            0.00024777      -0.00024723    
  0.48            0.00025349      -0.00025266    
  0.49            0.00025797      -0.00025779    
  0.5             0.00026324      -0.00026366    
  0.51            0.00026926      -0.0002697     
  0.52            0.0002752       -0.00027495    
  0.53            0.00028033      -0.00027947    
  0.54            0.00028473      -0.00028431    
  0.55            0.00028965      -0.00028998    
  0.56            0.00029559      -0.00029628    
  0.57            0.00030181      -0.00030177    
  0.58            0.00030706      -0.00030634    
  0.59            0.00031149      -0.00031084    
  0.6             0.00031734      -0.00031635    
  0.61            0.00032169      -0.00032143    
  0.62            0.00032697      -0.00032753    
  0.63            0.00033321      -0.00033377    
  0.64            0.00033926      -0.00033897    
  0.65            0.00034429      -0.0003433     
  0.66            0.0003485       -0.00034806    
  0.67            0.00035344      -0.00035391    
  0.68            0.0003596       -0.00036042    
  0.69            0.000366        -0.00036592    
  0.7             0.00037122      -0.00037027    
  0.71            0.00037545      -0.00037475    
  0.72            0.00038139      -0.00038029    
  0.73            0.00038559      -0.0003854     
  0.74            0.00039104      -0.00039174    
  0.75            0.00039751      -0.00039809    
  0.76            0.00040217      -0.00040324    
  0.77            0.00040885      -0.0004089     
  0.78            0.00041425      -0.00041337    
  0.79            0.00041848      -0.00041757    
  0.8             0.00042295      -0.0004231     
  0.81            0.00042875      -0.00042983    
  0.82            0.00043563      -0.00043591    
  0.83            0.00044138      -0.00044062    
  0.84            0.00044589      -0.00044458    
  0.85            0.00044991      -0.00044974    
  0.86            0.00045541      -0.00045632    
  0.87            0.00046217      -0.00046285    
  0.88            0.00046681      -0.00046801    
  0.89            0.00047365      -0.00047371    
  0.9             0.00047905      -0.00047798    
  0.91            0.00048309      -0.0004821     
  0.92            0.00048927      -0.00048778    
  0.93            0.00049313      -0.00049284    
  0.94            0.00049844      -0.00049932    
  0.95            0.00050514      -0.00050614    
  0.96            0.00051178      -0.00051147    
  0.97            0.00051682      -0.00051538    
  0.98            0.00052054      -0.00051988    
  0.99            0.00052539      -0.00052605    
  1               0.0005319       -0.00053324    
END_DB

