! VERSION = 6.00
BEGIN_HEADER
 ICCAP_INPUTS
  VU1        V  E GROUND SMU2 0.1 CON        0
  VU2        V  S GROUND SMU3 0.1 CON        0
  V2         V  B GROUND SMU1 0.015 CON        0
  V1         V  C GROUND SMU4 0.015 LIN        1    -1         1          201  0.01      
 ICCAP_OUTPUTS
  I1         I  C GROUND SMU4 B
  I2         I  B GROUND SMU1 B
END_HEADER

BEGIN_DB
 ICCAP_VAR VU1        0              
 ICCAP_VAR VU2        0              
 ICCAP_VAR V2         0              

 #V1              I1              I2             
  -1              -0.0009317      0.00093115     
  -0.99           -0.00092122     0.00092185     
  -0.98           -0.00091276     0.00091171     
  -0.97           -0.00090439     0.00090347     
  -0.96           -0.00089536     0.0008957      
  -0.95           -0.00088343     0.00088475     
  -0.94           -0.00087251     0.00087319     
  -0.93           -0.00086329     0.00086263     
  -0.92           -0.00085664     0.00085503     
  -0.91           -0.0008475      0.0008474      
  -0.9            -0.00083516     0.00083681     
  -0.89           -0.00082341     0.00082469     
  -0.88           -0.00081419     0.00081644     
  -0.87           -0.00080461     0.00080421     
  -0.86           -0.00079608     0.0007948      
  -0.85           -0.00078844     0.00078729     
  -0.84           -0.00077848     0.00077886     
  -0.83           -0.0007663      0.00076836     
  -0.82           -0.000756       0.00075656     
  -0.81           -0.00074684     0.00074594     
  -0.8            -0.00073905     0.0007376      
  -0.79           -0.00072964     0.00072975     
  -0.78           -0.00071848     0.00071972     
  -0.77           -0.00070733     0.00070834     
  -0.76           -0.00069756     0.0006994      
  -0.75           -0.00068762     0.00068767     
  -0.74           -0.00067959     0.00067849     
  -0.73           -0.00067158     0.00067035     
  -0.72           -0.00066143     0.00066184     
  -0.71           -0.00065012     0.00065156     
  -0.7            -0.00063982     0.0006402      
  -0.69           -0.00063127     0.00063052     
  -0.68           -0.00062318     0.00062199     
  -0.67           -0.00061376     0.0006138      
  -0.66           -0.00060312     0.00060433     
  -0.65           -0.00059245     0.0005932      
  -0.64           -0.00058326     0.00058451     
  -0.63           -0.0005735      0.00057365     
  -0.62           -0.00056531     0.00056456     
  -0.61           -0.00055708     0.00055612     
  -0.6            -0.00054736     0.00054766     
  -0.59           -0.00053651     0.00053787     
  -0.58           -0.00052663     0.0005272      
  -0.57           -0.00051793     0.00051739     
  -0.56           -0.00050994     0.00050888     
  -0.55           -0.00050079     0.00050078     
  -0.54           -0.00049028     0.00049144     
  -0.53           -0.00048009     0.00048095     
  -0.52           -0.00047088     0.00047083     
  -0.51           -0.00046273     0.00046194     
  -0.5            -0.00045426     0.00045399     
  -0.49           -0.0004444      0.00044507     
  -0.48           -0.00043399     0.00043514     
  -0.47           -0.0004247      0.00042486     
  -0.46           -0.00041636     0.00041552     
  -0.45           -0.000408       0.00040718     
  -0.44           -0.00039836     0.00039866     
  -0.43           -0.00038808     0.00038909     
  -0.42           -0.00037844     0.00037881     
  -0.41           -0.00036975     0.00036942     
  -0.4            -0.00036157     0.00036095     
  -0.39           -0.00035253     0.0003526      
  -0.38           -0.00034243     0.00034324     
  -0.37           -0.00033255     0.00033321     
  -0.36           -0.00032392     0.00032473     
  -0.35           -0.00031464     0.00031478     
  -0.34           -0.00030604     0.00030557     
  -0.33           -0.00029761     0.00029721     
  -0.32           -0.00028823     0.00028872     
  -0.31           -0.00027855     0.00027922     
  -0.3            -0.0002692      0.00026938     
  -0.29           -0.00026035     0.00026002     
  -0.28           -0.00025219     0.00025166     
  -0.27           -0.00024308     0.00024311     
  -0.26           -0.00023346     0.00023405     
  -0.25           -0.00022397     0.00022422     
  -0.24           -0.00021509     0.00021573     
  -0.23           -0.00020579     0.00020612     
  -0.22           -0.00019724     0.00019692     
  -0.21           -0.00018862     0.00018842     
  -0.2            -0.00017958     0.00017975     
  -0.19           -0.00017002     0.00017054     
  -0.18           -0.00016095     0.00016116     
  -0.17           -0.00015203     0.00015189     
  -0.16           -0.00014352     0.00014327     
  -0.15           -0.00013464     0.00013475     
  -0.14           -0.00012538     0.00012565     
  -0.13           -0.00011608     0.00011639     
  -0.12           -0.00010713     0.0001072      
  -0.11           -9.8396e-005    9.8556e-005    
  -0.1            -8.9582e-005    8.9503e-005    
  -0.09           -8.0548e-005    8.0597e-005    
  -0.08           -7.1355e-005    7.1591e-005    
  -0.07           -6.2341e-005    6.2425e-005    
  -0.06           -5.3453e-005    5.3618e-005    
  -0.05           -4.4475e-005    4.4515e-005    
  -0.04           -3.5601e-005    3.5556e-005    
  -0.03           -2.6754e-005    2.6715e-005    
  -0.02           -1.7793e-005    1.7808e-005    
  -0.01           -8.8199e-006    8.7775e-006    
  0               7.8589e-008     -8.3878e-008   
  0.01            9.04e-006       -9.0571e-006   
  0.02            1.7987e-005     -1.806e-005    
  0.03            2.6921e-005     -2.6864e-005   
  0.04            3.5956e-005     -3.5846e-005   
  0.05            4.493e-005      -4.4937e-005   
  0.06            5.3783e-005     -5.3872e-005   
  0.07            6.2493e-005     -6.2586e-005   
  0.08            7.1466e-005     -7.1605e-005   
  0.09            8.0399e-005     -8.0411e-005   
  0.1             8.9467e-005     -8.9301e-005   
  0.11            9.8605e-005     -9.8377e-005   
  0.12            0.00010713      -0.000107582   
  0.13            0.00011613      -0.00011602    
  0.14            0.0001254       -0.00012504    
  0.15            0.00013466      -0.00013433    
  0.16            0.00014354      -0.0001435     
  0.17            0.00015198      -0.00015228    
  0.18            0.0001609       -0.00016084    
  0.19            0.00017017      -0.00016983    
  0.2             0.0001796       -0.00017903    
  0.21            0.00018874      -0.0001886     
  0.22            0.00019727      -0.00019744    
  0.23            0.00020574      -0.00020604    
  0.24            0.00021485      -0.00021526    
  0.25            0.00022386      -0.00022384    
  0.26            0.00023332      -0.00023283    
  0.27            0.00024303      -0.00024245    
  0.28            0.00025198      -0.00025209    
  0.29            0.00026029      -0.00026079    
  0.3             0.00026898      -0.00026908    
  0.31            0.00027821      -0.00027779    
  0.32            0.00028829      -0.00028759    
  0.33            0.00029756      -0.00029735    
  0.34            0.00030578      -0.00030641    
  0.35            0.00031431      -0.0003147     
  0.36            0.00032331      -0.00032407    
  0.37            0.00033233      -0.00033227    
  0.38            0.0003423       -0.00034169    
  0.39            0.00035215      -0.00035136    
  0.4             0.00036135      -0.00036157    
  0.41            0.00036903      -0.00037003    
  0.42            0.00037811      -0.00037828    
  0.43            0.00038785      -0.00038727    
  0.44            0.00039807      -0.00039715    
  0.45            0.00040761      -0.00040744    
  0.46            0.0004154       -0.00041644    
  0.47            0.00042371      -0.00042437    
  0.48            0.00043328      -0.0004339     
  0.49            0.00044204      -0.00044208    
  0.5             0.00045237      -0.00045109    
  0.51            0.00046249      -0.00046133    
  0.52            0.00047129      -0.00047128    
  0.53            0.00047898      -0.00048004    
  0.54            0.00048695      -0.0004873     
  0.55            0.00049737      -0.00049629    
  0.56            0.00050834      -0.0005073     
  0.57            0.0005181       -0.00051763    
  0.58            0.00052543      -0.0005272     
  0.59            0.00053337      -0.00053404    
  0.6             0.00054274      -0.00054255    
  0.61            0.00055377      -0.0005522     
  0.62            0.00056344      -0.00056287    
  0.63            0.00057202      -0.00057269    
  0.64            0.00058029      -0.00058205    
  0.65            0.00058949      -0.00058907    
  0.66            0.00060127      -0.00060019    
  0.67            0.00061157      -0.00060983    
  0.68            0.0006208       -0.00061908    
  0.69            0.00063009      -0.00062992    
  0.7             0.00063844      -0.00063933    
  0.71            0.00064583      -0.00064674    
  0.72            0.00065451      -0.00065676    
  0.73            0.00066423      -0.00066423    
  0.74            0.00067463      -0.00067343    
  0.75            0.00068643      -0.00068435    
  0.76            0.00069593      -0.00069614    
  0.77            0.00070218      -0.0007042     
  0.78            0.00071151      -0.00071203    
  0.79            0.00072281      -0.00072162    
  0.8             0.00073584      -0.00073397    
  0.81            0.00074571      -0.00074505    
  0.82            0.00075269      -0.0007549     
  0.83            0.00076121      -0.00076273    
  0.84            0.00077046      -0.0007732     
  0.85            0.00077967      -0.0007795     
  0.86            0.00079127      -0.00079008    
  0.87            0.00080303      -0.00080116    
  0.88            0.00081196      -0.0008123     
  0.89            0.00081778      -0.00081982    
  0.9             0.0008258       -0.00082653    
  0.91            0.00083717      -0.00083578    
  0.92            0.00084944      -0.00084733    
  0.93            0.00085828      -0.00085845    
  0.94            0.00086523      -0.00086724    
  0.95            0.00087285      -0.0008746     
  0.96            0.00088399      -0.00088262    
  0.97            0.00089693      -0.00089463    
  0.98            0.00090746      -0.00090734    
  0.99            0.00091529      -0.00091713    
  1               0.00092335      -0.00092548    
END_DB

