! VERSION = 6.00
BEGIN_HEADER
 ICCAP_INPUTS
  VU1        V  E GROUND SMU2 0.1 CON        0
  VU2        V  S GROUND SMU3 0.1 CON        0
  V2         V  B GROUND SMU4 0.015 CON        0
  V1         V  C GROUND SMU1 0.015 LIN        1    -1         1          201  0.01      
 ICCAP_OUTPUTS
  I1         I  C GROUND SMU1 B
  I2         I  B GROUND SMU4 B
END_HEADER

BEGIN_DB
 ICCAP_VAR VU1        0              
 ICCAP_VAR VU2        0              
 ICCAP_VAR V2         0              

 #V1              I1              I2             
  -1              -0.00026774     0.0002678      
  -0.99           -0.00026493     0.00026554     
  -0.98           -0.00026292     0.00026396     
  -0.97           -0.00026116     0.00026129     
  -0.96           -0.00025828     0.00025762     
  -0.95           -0.00025453     0.00025402     
  -0.94           -0.00025231     0.00025146     
  -0.93           -0.00024853     0.0002485      
  -0.92           -0.00024582     0.00024662     
  -0.91           -0.00024398     0.0002447      
  -0.9            -0.00024188     0.00024178     
  -0.89           -0.00023886     0.00023812     
  -0.88           -0.00023509     0.00023489     
  -0.87           -0.00023207     0.00023262     
  -0.86           -0.00022999     0.0002309      
  -0.85           -0.00022811     0.00022827     
  -0.84           -0.00022535     0.00022482     
  -0.83           -0.00022177     0.00022135     
  -0.82           -0.00021952     0.00021879     
  -0.81           -0.0002159      0.0002159      
  -0.8            -0.00021318     0.00021382     
  -0.79           -0.00021115     0.00021186     
  -0.78           -0.00020908     0.00020904     
  -0.77           -0.00020615     0.00020555     
  -0.76           -0.00020262     0.00020239     
  -0.75           -0.0001996      0.00020002     
  -0.74           -0.00019739     0.00019822     
  -0.73           -0.00019546     0.00019565     
  -0.72           -0.00019276     0.00019234     
  -0.71           -0.00018935     0.00018896     
  -0.7            -0.00018613     0.00018634     
  -0.69           -0.00018363     0.00018438     
  -0.68           -0.00018177     0.0001821      
  -0.67           -0.00017932     0.00017907     
  -0.66           -0.00017608     0.00017556     
  -0.65           -0.00017272     0.00017279     
  -0.64           -0.0001701      0.00017072     
  -0.63           -0.00016804     0.00016854     
  -0.62           -0.00016498     0.00016575     
  -0.61           -0.00016298     0.00016316     
  -0.6            -0.00016029     0.00015998     
  -0.59           -0.00015708     0.00015676     
  -0.58           -0.00015393     0.00015417     
  -0.57           -0.00015145     0.00015208     
  -0.56           -0.00014945     0.00014976     
  -0.55           -0.00014694     0.00014676     
  -0.54           -0.00014387     0.00014344     
  -0.53           -0.00014064     0.00014068     
  -0.52           -0.00013797     0.00013845     
  -0.51           -0.00013577     0.00013622     
  -0.5            -0.00013348     0.00013348     
  -0.49           -0.00013061     0.00013025     
  -0.48           -0.0001274      0.00012734     
  -0.47           -0.00012458     0.00012494     
  -0.46           -0.00012225     0.00012277     
  -0.45           -0.00012004     0.00012018     
  -0.44           -0.00011734     0.0001171      
  -0.43           -0.00011423     0.00011407     
  -0.42           -0.0001118      0.00011148     
  -0.41           -0.00010866     0.00010871     
  -0.4            -0.00010598     0.00010637     
  -0.39           -0.0001037      0.0001041      
  -0.38           -0.00010133     0.00010137     
  -0.37           -9.8093e-005    9.833e-005     
  -0.36           -9.5639e-005    9.5395e-005    
  -0.35           -9.2723e-005    9.2789e-005    
  -0.34           -9.0136e-005    9.0441e-005    
  -0.33           -8.7838e-005    8.8025e-005    
  -0.32           -8.495e-005     8.5283e-005    
  -0.31           -8.2612e-005    8.2668e-005    
  -0.3            -8.0003e-005    7.9817e-005    
  -0.29           -7.7106e-005    7.6846e-005    
  -0.28           -7.4168e-005    7.4149e-005    
  -0.27           -7.1519e-005    7.1717e-005    
  -0.26           -6.9061e-005    6.9293e-005    
  -0.25           -6.6625e-005    6.6643e-005    
  -0.24           -6.3969e-005    6.38e-005      
  -0.23           -6.1097e-005    6.0934e-005    
  -0.22           -5.8261e-005    5.8287e-005    
  -0.21           -5.5651e-005    5.5838e-005    
  -0.2            -5.3178e-005    5.3327e-005    
  -0.19           -5.0649e-005    5.0623e-005    
  -0.18           -4.7952e-005    4.7808e-005    
  -0.17           -4.5119e-005    4.5023e-005    
  -0.16           -4.2582e-005    4.2424e-005    
  -0.15           -3.9749e-005    3.9734e-005    
  -0.14           -3.7073e-005    3.7176e-005    
  -0.13           -3.4539e-005    3.4669e-005    
  -0.12           -3.1996e-005    3.2022e-005    
  -0.11           -2.9336e-005    2.9262e-005    
  -0.1            -2.66e-005      2.6529e-005    
  -0.09           -2.3855e-005    2.3864e-005    
  -0.08           -2.121e-005     2.128e-005     
  -0.07           -1.8635e-005    1.8698e-005    
  -0.06           -1.6023e-005    1.6029e-005    
  -0.05           -1.3345e-005    1.3312e-005    
  -0.04           -1.0671e-005    1.0639e-005    
  -0.03           -8.0363e-006    7.9875e-006    
  -0.02           -5.3321e-006    5.3304e-006    
  -0.01           -2.6986e-006    2.7111e-006    
  0               -4.524e-008     4.6609e-008    
  0.01            2.6039e-006     -2.6191e-006   
  0.02            5.2384e-006     -5.2292e-006   
  0.03            7.8898e-006     -7.9009e-006   
  0.04            1.05763e-005    -1.06022e-005  
  0.05            1.3175e-005     -1.3245e-005   
  0.06            1.5926e-005     -1.5911e-005   
  0.07            1.8585e-005     -1.852e-005    
  0.08            2.1145e-005     -2.1096e-005   
  0.09            2.3754e-005     -2.3755e-005   
  0.1             2.6425e-005     -2.6504e-005   
  0.11            2.9177e-005     -2.9224e-005   
  0.12            3.1751e-005     -3.1857e-005   
  0.13            3.4548e-005     -3.4568e-005   
  0.14            3.7222e-005     -3.7129e-005   
  0.15            3.9787e-005     -3.9642e-005   
  0.16            4.2294e-005     -4.2261e-005   
  0.17            4.4911e-005     -4.5005e-005   
  0.18            4.7698e-005     -4.7843e-005   
  0.19            5.0534e-005     -5.053e-005    
  0.2             5.3176e-005     -5.3029e-005   
  0.21            5.5675e-005     -5.5505e-005   
  0.22            5.8163e-005     -5.8165e-005   
  0.23            6.0824e-005     -6.0985e-005   
  0.24            6.3682e-005     -6.3845e-005   
  0.25            6.6533e-005     -6.6491e-005   
  0.26            6.9144e-005     -6.8913e-005   
  0.27            7.1535e-005     -7.1384e-005   
  0.28            7.4396e-005     -7.4105e-005   
  0.29            7.675e-005      -7.6675e-005   
  0.3             7.933e-005      -7.9489e-005   
  0.31            8.2205e-005     -8.2491e-005   
  0.32            8.5192e-005     -8.5231e-005   
  0.33            8.7875e-005     -8.7651e-005   
  0.34            9.0293e-005     -8.9994e-005   
  0.35            9.2657e-005     -9.2628e-005   
  0.36            9.5298e-005     -9.555e-005    
  0.37            9.8283e-005     -9.8546e-005   
  0.38            0.000101261     -0.000101217   
  0.39            0.000103872     -0.000103537   
  0.4             0.000106155     -0.00010654    
  0.41            0.00010915      -0.00010926    
  0.42            0.00011157      -0.00011186    
  0.43            0.00011467      -0.00011457    
  0.44            0.0001173       -0.00011685    
  0.45            0.00011951      -0.00011916    
  0.46            0.00012245      -0.00012191    
  0.47            0.00012462      -0.00012449    
  0.48            0.00012729      -0.00012754    
  0.49            0.00013045      -0.00013066    
  0.5             0.00013286      -0.00013326    
  0.51            0.00013608      -0.00013605    
  0.52            0.00013879      -0.00013835    
  0.53            0.000141        -0.00014052    
  0.54            0.00014325      -0.00014322    
  0.55            0.00014607      -0.00014647    
  0.56            0.00014941      -0.00014951    
  0.57            0.00015232      -0.0001519     
  0.58            0.00015459      -0.00015394    
  0.59            0.00015664      -0.00015651    
  0.6             0.00015934      -0.0001597     
  0.61            0.00016264      -0.00016293    
  0.62            0.00016497      -0.00016552    
  0.63            0.0001684       -0.00016839    
  0.64            0.00017111      -0.00017058    
  0.65            0.00017322      -0.00017261    
  0.66            0.00017536      -0.00017533    
  0.67            0.00017821      -0.0001787     
  0.68            0.00018168      -0.00018183    
  0.69            0.00018466      -0.00018422    
  0.7             0.0001869       -0.00018609    
  0.71            0.00018882      -0.00018862    
  0.72            0.00019149      -0.00019191    
  0.73            0.00019489      -0.00019529    
  0.74            0.00019813      -0.00019791    
  0.75            0.00020062      -0.0001998     
  0.76            0.0002024       -0.00020203    
  0.77            0.00020483      -0.00020516    
  0.78            0.00020813      -0.00020875    
  0.79            0.00021161      -0.00021154    
  0.8             0.00021424      -0.00021354    
  0.81            0.00021616      -0.00021556    
  0.82            0.00021933      -0.00021841    
  0.83            0.00022115      -0.00022092    
  0.84            0.00022382      -0.0002243     
  0.85            0.00022729      -0.0002278     
  0.86            0.0002307       -0.00023044    
  0.87            0.00023314      -0.00023224    
  0.88            0.00023479      -0.0002344     
  0.89            0.00023723      -0.00023759    
  0.9             0.00024055      -0.00024134    
  0.91            0.00024424      -0.00024425    
  0.92            0.00024696      -0.00024616    
  0.93            0.00024879      -0.00024804    
  0.94            0.00025082      -0.0002509     
  0.95            0.0002539       -0.00025469    
  0.96            0.00025781      -0.00025795    
  0.97            0.00026075      -0.00026011    
  0.98            0.00026273      -0.00026174    
  0.99            0.00026448      -0.00026439    
  1               0.00026732      -0.00026804    
END_DB

