! VERSION = 6.00
BEGIN_HEADER
 ICCAP_INPUTS
  VU1        V  E GROUND SMU2 0.1 CON        0
  VU2        V  S GROUND SMU3 0.1 CON        0
  V2         V  B GROUND SMU1 0.015 CON        0
  V1         V  C GROUND SMU4 0.015 LIN        1    -1         1          201  0.01      
 ICCAP_OUTPUTS
  I1         I  C GROUND SMU4 B
  I2         I  B GROUND SMU1 B
END_HEADER

BEGIN_DB
 ICCAP_VAR VU1        0              
 ICCAP_VAR VU2        0              
 ICCAP_VAR V2         0              

 #V1              I1              I2             
  -1              -2.391e-005     2.4189e-005    
  -0.99           -2.374e-005     2.3681e-005    
  -0.98           -2.3658e-005    2.3528e-005    
  -0.97           -2.3457e-005    2.344e-005     
  -0.96           -2.3131e-005    2.3218e-005    
  -0.95           -2.2742e-005    2.2877e-005    
  -0.94           -2.2477e-005    2.25e-005      
  -0.93           -2.2338e-005    2.2257e-005    
  -0.92           -2.2228e-005    2.2124e-005    
  -0.91           -2.1995e-005    2.2e-005       
  -0.9            -2.1644e-005    2.1749e-005    
  -0.89           -2.1291e-005    2.1387e-005    
  -0.88           -2.1059e-005    2.1051e-005    
  -0.87           -2.0928e-005    2.0834e-005    
  -0.86           -2.0786e-005    2.072e-005     
  -0.85           -2.0527e-005    2.0556e-005    
  -0.84           -2.0166e-005    2.0281e-005    
  -0.83           -1.9849e-005    1.9909e-005    
  -0.82           -1.9629e-005    1.9751e-005    
  -0.81           -1.9364e-005    1.9389e-005    
  -0.8            -1.9206e-005    1.9138e-005    
  -0.79           -1.9081e-005    1.8991e-005    
  -0.78           -1.8854e-005    1.8854e-005    
  -0.77           -1.8521e-005    1.8606e-005    
  -0.76           -1.818e-005     1.8268e-005    
  -0.75           -1.7943e-005    1.7941e-005    
  -0.74           -1.7793e-005    1.7719e-005    
  -0.73           -1.7639e-005    1.7578e-005    
  -0.72           -1.7385e-005    1.7408e-005    
  -0.71           -1.7047e-005    1.7145e-005    
  -0.7            -1.6736e-005    1.6797e-005    
  -0.69           -1.6517e-005    1.6621e-005    
  -0.68           -1.6253e-005    1.6277e-005    
  -0.67           -1.6076e-005    1.6024e-005    
  -0.66           -1.5937e-005    1.5858e-005    
  -0.65           -1.5708e-005    1.5707e-005    
  -0.64           -1.5401e-005    1.5468e-005    
  -0.63           -1.507e-005     1.5152e-005    
  -0.62           -1.4823e-005    1.4837e-005    
  -0.61           -1.4656e-005    1.4599e-005    
  -0.6            -1.4493e-005    1.4438e-005    
  -0.59           -1.425e-005     1.4263e-005    
  -0.58           -1.3933e-005    1.4009e-005    
  -0.57           -1.363e-005     1.3685e-005    
  -0.56           -1.3401e-005    1.3395e-005    
  -0.55           -1.324e-005     1.3174e-005    
  -0.54           -1.305e-005     1.3019e-005    
  -0.53           -1.2793e-005    1.2731e-005    
  -0.52           -1.2568e-005    1.2564e-005    
  -0.51           -1.2274e-005    1.2327e-005    
  -0.5            -1.1962e-005    1.2029e-005    
  -0.49           -1.1713e-005    1.1726e-005    
  -0.48           -1.1523e-005    1.1486e-005    
  -0.47           -1.1351e-005    1.1302e-005    
  -0.46           -1.1112e-005    1.1117e-005    
  -0.45           -1.0819e-005    1.0872e-005    
  -0.44           -1.0522e-005    1.0572e-005    
  -0.43           -1.0285e-005    1.0285e-005    
  -0.42           -1.0099e-005    1.0055e-005    
  -0.41           -9.8332e-006    9.8861e-006    
  -0.4            -9.6614e-006    9.6135e-006    
  -0.39           -9.4205e-006    9.4255e-006    
  -0.38           -9.1215e-006    9.1706e-006    
  -0.37           -8.8455e-006    8.8673e-006    
  -0.36           -8.6284e-006    8.6058e-006    
  -0.35           -8.4495e-006    8.4057e-006    
  -0.34           -8.2142e-006    8.2148e-006    
  -0.33           -7.9262e-006    7.9652e-006    
  -0.32           -7.6495e-006    7.6706e-006    
  -0.31           -7.4267e-006    7.4095e-006    
  -0.3            -7.2403e-006    7.202e-006     
  -0.29           -7.0072e-006    7.0052e-006    
  -0.28           -6.73e-006      6.7607e-006    
  -0.27           -6.4551e-006    6.4754e-006    
  -0.26           -6.2211e-006    6.2552e-006    
  -0.25           -5.9758e-006    5.9778e-006    
  -0.24           -5.7713e-006    5.7449e-006    
  -0.23           -5.5577e-006    5.5454e-006    
  -0.22           -5.3052e-006    5.318e-006     
  -0.21           -5.0257e-006    5.0534e-006    
  -0.2            -4.7808e-006    4.7837e-006    
  -0.19           -4.5649e-006    4.5467e-006    
  -0.18           -4.3486e-006    4.3378e-006    
  -0.17           -4.1004e-006    4.108e-006     
  -0.16           -3.8323e-006    3.8528e-006    
  -0.15           -3.5829e-006    3.5873e-006    
  -0.14           -3.3594e-006    3.3488e-006    
  -0.13           -3.1381e-006    3.1293e-006    
  -0.12           -2.8934e-006    2.8802e-006    
  -0.11           -2.6569e-006    2.6564e-006    
  -0.1            -2.4035e-006    2.4118e-006    
  -0.09           -2.1493e-006    2.1549e-006    
  -0.08           -1.912e-006     1.9208e-006    
  -0.07           -1.6706e-006    1.6724e-006    
  -0.06           -1.4382e-006    1.4347e-006    
  -0.05           -1.2046e-006    1.2045e-006    
  -0.04           -9.5553e-007    9.5303e-007    
  -0.03           -7.1372e-007    7.1464e-007    
  -0.02           -4.7422e-007    4.7565e-007    
  -0.01           -2.3708e-007    2.3827e-007    
  0               1.0133e-009     -1.3506e-009   
  0.01            2.41e-007       -2.434e-007    
  0.02            4.818e-007      -4.8189e-007   
  0.03            7.2334e-007     -7.1746e-007   
  0.04            9.6799e-007     -9.6068e-007   
  0.05            1.199e-006      -1.197e-006    
  0.06            1.439e-006      -1.4494e-006   
  0.07            1.6775e-006     -1.6767e-006   
  0.08            1.9293e-006     -1.9161e-006   
  0.09            2.1794e-006     -2.1691e-006   
  0.1             2.415e-006      -2.4212e-006   
  0.11            2.6353e-006     -2.6539e-006   
  0.12            2.8732e-006     -2.8744e-006   
  0.13            3.1312e-006     -3.113e-006    
  0.14            3.3893e-006     -3.3731e-006   
  0.15            3.6289e-006     -3.6042e-006   
  0.16            3.8702e-006     -3.8688e-006   
  0.17            4.0867e-006     -4.1091e-006   
  0.18            4.3088e-006     -4.3254e-006   
  0.19            4.5513e-006     -4.5794e-006   
  0.2             4.7892e-006     -4.7883e-006   
  0.21            5.0597e-006     -5.03e-006     
  0.22            5.3238e-006     -5.3065e-006   
  0.23            5.5507e-006     -5.5659e-006   
  0.24            5.7475e-006     -5.7839e-006   
  0.25            5.9854e-006     -5.9861e-006   
  0.26            6.2626e-006     -6.2283e-006   
  0.27            6.5343e-006     -6.511e-006    
  0.28            6.7593e-006     -6.7767e-006   
  0.29            6.9471e-006     -6.9909e-006   
  0.3             7.1807e-006     -7.1845e-006   
  0.31            7.4641e-006     -7.4254e-006   
  0.32            7.7434e-006     -7.7127e-006   
  0.33            7.9779e-006     -7.9288e-006   
  0.34            8.2231e-006     -8.2213e-006   
  0.35            8.4142e-006     -8.4593e-006   
  0.36            8.6159e-006     -8.6423e-006   
  0.37            8.8756e-006     -8.8525e-006   
  0.38            9.1841e-006     -9.1251e-006   
  0.39            9.437e-006      -9.4303e-006   
  0.4             9.624e-006      -9.6707e-006   
  0.41            9.8131e-006     -9.853e-006    
  0.42            1.00619e-005    -1.01236e-005  
  0.43            1.02925e-005    -1.02963e-005  
  0.44            1.05946e-005    -1.05401e-005  
  0.45            1.08903e-005    -1.08512e-005  
  0.46            1.11224e-005    -1.10574e-005  
  0.47            1.13671e-005    -1.1368e-005   
  0.48            1.1619e-005     -1.1484e-005   
  0.49            1.1832e-005     -1.1855e-005   
  0.5             1.199e-005      -1.2062e-005   
  0.51            1.2206e-005     -1.2219e-005   
  0.52            1.2489e-005     -1.244e-005    
  0.53            1.2815e-005     -1.2731e-005   
  0.54            1.3071e-005     -1.3052e-005   
  0.55            1.3259e-005     -1.3305e-005   
  0.56            1.3418e-005     -1.3484e-005   
  0.57            1.3649e-005     -1.3646e-005   
  0.58            1.3958e-005     -1.3888e-005   
  0.59            1.4274e-005     -1.4201e-005   
  0.6             1.4513e-005     -1.4512e-005   
  0.61            1.4675e-005     -1.4745e-005   
  0.62            1.4847e-005     -1.4901e-005   
  0.63            1.5097e-005     -1.5075e-005   
  0.64            1.5425e-005     -1.5334e-005   
  0.65            1.5733e-005     -1.5669e-005   
  0.66            1.5956e-005     -1.585e-005    
  0.67            1.6219e-005     -1.6193e-005   
  0.68            1.6398e-005     -1.6455e-005   
  0.69            1.6533e-005     -1.6622e-005   
  0.7             1.6761e-005     -1.6763e-005   
  0.71            1.7081e-005     -1.6998e-005   
  0.72            1.7417e-005     -1.7324e-005   
  0.73            1.7664e-005     -1.7658e-005   
  0.74            1.7813e-005     -1.789e-005    
  0.75            1.7965e-005     -1.8034e-005   
  0.76            1.8216e-005     -1.8191e-005   
  0.77            1.8561e-005     -1.8451e-005   
  0.78            1.8881e-005     -1.8805e-005   
  0.79            1.9099e-005     -1.8974e-005   
  0.8             1.937e-005      -1.9341e-005   
  0.81            1.9535e-005     -1.9604e-005   
  0.82            1.9651e-005     -1.9758e-005   
  0.83            1.9873e-005     -1.9881e-005   
  0.84            2.0205e-005     -2.0111e-005   
  0.85            2.0562e-005     -2.0452e-005   
  0.86            2.0806e-005     -2.0804e-005   
  0.87            2.0943e-005     -2.1036e-005   
  0.88            2.1078e-005     -2.1161e-005   
  0.89            2.1331e-005     -2.131e-005    
  0.9             2.1688e-005     -2.157e-005    
  0.91            2.2029e-005     -2.1937e-005   
  0.92            2.2245e-005     -2.2265e-005   
  0.93            2.2351e-005     -2.2471e-005   
  0.94            2.2506e-005     -2.2568e-005   
  0.95            2.2774e-005     -2.2902e-005   
  0.96            2.2986e-005     -2.2999e-005   
  0.97            2.3331e-005     -2.3224e-005   
  0.98            2.3713e-005     -2.3577e-005   
  0.99            2.3963e-005     -2.3951e-005   
  1               2.4086e-005     -2.4191e-005   
END_DB

