! VERSION = 6.00
BEGIN_HEADER
 ICCAP_INPUTS
  VU1        V  E GROUND SMU2 0.1 CON        0
  VU2        V  S GROUND SMU3 0.1 CON        0
  V2         V  B GROUND SMU4 0.015 CON        0
  V1         V  C GROUND SMU1 0.015 LIN        1    -1         1          201  0.01      
 ICCAP_OUTPUTS
  I1         I  C GROUND SMU1 B
  I2         I  B GROUND SMU4 B
END_HEADER

BEGIN_DB
 ICCAP_VAR VU1        0              
 ICCAP_VAR VU2        0              
 ICCAP_VAR V2         0              

 #V1              I1              I2             
  -1              -0.00012683     0.00012692     
  -0.99           -0.00012557     0.0001259      
  -0.98           -0.00012461     0.00012515     
  -0.97           -0.0001238      0.00012393     
  -0.96           -0.00012248     0.00012224     
  -0.95           -0.00012078     0.0001206      
  -0.94           -0.00011975     0.00011941     
  -0.93           -0.00011799     0.00011805     
  -0.92           -0.00011672     0.00011712     
  -0.91           -0.00011584     0.00011622     
  -0.9            -0.00011488     0.00011489     
  -0.89           -0.00011347     0.00011319     
  -0.88           -0.0001117      0.00011167     
  -0.87           -0.00011032     0.00011063     
  -0.86           -0.00010935     0.00010981     
  -0.85           -0.00010846     0.00010859     
  -0.84           -0.00010714     0.00010695     
  -0.83           -0.00010548     0.00010533     
  -0.82           -0.0001044      0.00010416     
  -0.81           -0.00010274     0.00010281     
  -0.8            -0.00010146     0.00010181     
  -0.79           -0.00010052     0.0001009      
  -0.78           -9.894e-005     9.9558e-005    
  -0.77           -9.8246e-005    9.7984e-005    
  -0.76           -9.6669e-005    9.6421e-005    
  -0.75           -9.5128e-005    9.5172e-005    
  -0.74           -9.3922e-005    9.4217e-005    
  -0.73           -9.2972e-005    9.3188e-005    
  -0.72           -9.1485e-005    9.183e-005     
  -0.71           -9.0574e-005    9.0651e-005    
  -0.7            -8.9362e-005    8.9195e-005    
  -0.69           -8.7876e-005    8.757e-005     
  -0.68           -8.6282e-005    8.6234e-005    
  -0.67           -8.4966e-005    8.5174e-005    
  -0.66           -8.3933e-005    8.4208e-005    
  -0.65           -8.2939e-005    8.2969e-005    
  -0.64           -8.166e-005     8.1455e-005    
  -0.63           -8.0135e-005    7.9918e-005    
  -0.62           -7.8635e-005    7.8661e-005    
  -0.61           -7.7399e-005    7.7636e-005    
  -0.6            -7.638e-005     7.6577e-005    
  -0.59           -7.531e-005     7.5267e-005    
  -0.58           -7.3967e-005    7.3743e-005    
  -0.57           -7.2437e-005    7.229e-005     
  -0.56           -7.1337e-005    7.1085e-005    
  -0.55           -6.9787e-005    6.9741e-005    
  -0.54           -6.8464e-005    6.863e-005     
  -0.53           -6.7387e-005    6.7622e-005    
  -0.52           -6.6344e-005    6.6381e-005    
  -0.51           -6.5079e-005    6.4924e-005    
  -0.5            -6.3622e-005    6.3438e-005    
  -0.49           -6.2154e-005    6.2164e-005    
  -0.48           -6.0899e-005    6.1075e-005    
  -0.47           -5.9829e-005    5.9991e-005    
  -0.46           -5.8709e-005    5.869e-005     
  -0.45           -5.7406e-005    5.7235e-005    
  -0.44           -5.5943e-005    5.5816e-005    
  -0.43           -5.4531e-005    5.4577e-005    
  -0.42           -5.3321e-005    5.3502e-005    
  -0.41           -5.2248e-005    5.2348e-005    
  -0.4            -5.0847e-005    5.1036e-005    
  -0.39           -4.9767e-005    4.9804e-005    
  -0.38           -4.8512e-005    4.84e-005      
  -0.37           -4.7095e-005    4.6956e-005    
  -0.36           -4.5683e-005    4.5676e-005    
  -0.35           -4.4405e-005    4.4532e-005    
  -0.34           -4.3266e-005    4.3402e-005    
  -0.33           -4.2127e-005    4.2129e-005    
  -0.32           -4.0832e-005    4.0722e-005    
  -0.31           -3.9429e-005    3.9335e-005    
  -0.3            -3.8062e-005    3.8091e-005    
  -0.29           -3.6814e-005    3.6938e-005    
  -0.28           -3.5671e-005    3.5755e-005    
  -0.27           -3.4318e-005    3.4457e-005    
  -0.26           -3.3177e-005    3.3209e-005    
  -0.25           -3.1919e-005    3.186e-005     
  -0.24           -3.0574e-005    3.0471e-005    
  -0.23           -2.9192e-005    2.9185e-005    
  -0.22           -2.7908e-005    2.7986e-005    
  -0.21           -2.6722e-005    2.6817e-005    
  -0.2            -2.5531e-005    2.5547e-005    
  -0.19           -2.4255e-005    2.4194e-005    
  -0.18           -2.2913e-005    2.2857e-005    
  -0.17           -2.1574e-005    2.1589e-005    
  -0.16           -2.0321e-005    2.0393e-005    
  -0.15           -1.9108e-005    1.917e-005     
  -0.14           -1.7883e-005    1.7881e-005    
  -0.13           -1.6601e-005    1.6561e-005    
  -0.12           -1.5265e-005    1.5246e-005    
  -0.11           -1.4025e-005    1.3981e-005    
  -0.1            -1.2708e-005    1.271e-005     
  -0.09           -1.1428e-005    1.1467e-005    
  -0.08           -1.0186e-005    1.0231e-005    
  -0.07           -8.9316e-006    8.9492e-006    
  -0.06           -7.6757e-006    7.682e-006     
  -0.05           -6.4017e-006    6.3861e-006    
  -0.04           -5.1161e-006    5.0994e-006    
  -0.03           -3.8273e-006    3.8302e-006    
  -0.02           -2.5554e-006    2.5647e-006    
  -0.01           -1.2997e-006    1.3017e-006    
  0               -2.2197e-008    2.0102e-008    
  0.01            1.2626e-006     -1.2496e-006   
  0.02            2.5182e-006     -2.523e-006    
  0.03            3.8065e-006     -3.8035e-006   
  0.04            5.0818e-006     -5.0688e-006   
  0.05            6.3198e-006     -6.3125e-006   
  0.06            7.6121e-006     -7.5882e-006   
  0.07            8.8566e-006     -8.8556e-006   
  0.08            1.01235e-005    -1.01514e-005  
  0.09            1.1442e-005     -1.1407e-005   
  0.1             1.2702e-005     -1.2729e-005   
  0.11            1.401e-005      -1.4002e-005   
  0.12            1.5282e-005     -1.5237e-005   
  0.13            1.6512e-005     -1.6458e-005   
  0.14            1.7728e-005     -1.7723e-005   
  0.15            1.901e-005      -1.9055e-005   
  0.16            2.0362e-005     -2.0388e-005   
  0.17            2.1569e-005     -2.1634e-005   
  0.18            2.2932e-005     -2.2942e-005   
  0.19            2.423e-005      -2.4175e-005   
  0.2             2.5437e-005     -2.5342e-005   
  0.21            2.6617e-005     -2.6589e-005   
  0.22            2.7872e-005     -2.7924e-005   
  0.23            2.9212e-005     -2.9296e-005   
  0.24            3.0595e-005     -3.0593e-005   
  0.25            3.1874e-005     -3.179e-005    
  0.26            3.3051e-005     -3.2946e-005   
  0.27            3.4218e-005     -3.421e-005    
  0.28            3.5502e-005     -3.5587e-005   
  0.29            3.6895e-005     -3.6976e-005   
  0.3             3.826e-005      -3.8234e-005   
  0.31            3.9516e-005     -3.9383e-005   
  0.32            4.0648e-005     -4.0554e-005   
  0.33            4.182e-005      -4.1838e-005   
  0.34            4.3136e-005     -4.3271e-005   
  0.35            4.4577e-005     -4.4646e-005   
  0.36            4.5735e-005     -4.5882e-005   
  0.37            4.7184e-005     -4.7202e-005   
  0.38            4.848e-005      -4.836e-005    
  0.39            4.9611e-005     -4.9448e-005   
  0.4             5.0723e-005     -5.0697e-005   
  0.41            5.1996e-005     -5.2112e-005   
  0.42            5.3421e-005     -5.3558e-005   
  0.43            5.4859e-005     -5.4838e-005   
  0.44            5.6115e-005     -5.5948e-005   
  0.45            5.7196e-005     -5.7051e-005   
  0.46            5.8324e-005     -5.8341e-005   
  0.47            5.9635e-005     -5.9806e-005   
  0.48            6.1126e-005     -6.124e-005    
  0.49            6.2249e-005     -6.2464e-005   
  0.5             6.3775e-005     -6.3812e-005   
  0.51            6.509e-005      -6.4944e-005   
  0.52            6.62e-005       -6.5968e-005   
  0.53            6.7245e-005     -6.7191e-005   
  0.54            6.8487e-005     -6.8632e-005   
  0.55            6.9934e-005     -7.0149e-005   
  0.56            7.1456e-005     -7.1465e-005   
  0.57            7.2745e-005     -7.2567e-005   
  0.58            7.3804e-005     -7.3573e-005   
  0.59            7.4855e-005     -7.4827e-005   
  0.6             7.6137e-005     -7.6319e-005   
  0.61            7.7641e-005     -7.7842e-005   
  0.62            7.9142e-005     -7.9108e-005   
  0.63            8.0383e-005     -8.0137e-005   
  0.64            8.1382e-005     -8.1176e-005   
  0.65            8.2449e-005     -8.2485e-005   
  0.66            8.3787e-005     -8.4049e-005   
  0.67            8.5372e-005     -8.5527e-005   
  0.68            8.6443e-005     -8.6742e-005   
  0.69            8.8054e-005     -8.8104e-005   
  0.7             8.9377e-005     -8.9171e-005   
  0.71            9.0411e-005     -9.0106e-005   
  0.72            9.1377e-005     -9.1323e-005   
  0.73            9.2622e-005     -9.283e-005    
  0.74            9.4171e-005     -9.4444e-005   
  0.75            9.5749e-005     -9.574e-005    
  0.76            9.6998e-005     -9.6737e-005   
  0.77            9.7969e-005     -9.7702e-005   
  0.78            9.8971e-005     -9.9002e-005   
  0.79            0.000100295     -0.00010059    
  0.8             0.000101936     -0.000102142   
  0.81            0.000102954     -0.000103313   
  0.82            0.000104634     -0.000104709   
  0.83            0.000106007     -0.00010536    
  0.84            0.00010663      -0.00010677    
  0.85            0.00010824      -0.00010846    
  0.86            0.00010987      -0.00010973    
  0.87            0.00011111      -0.00011064    
  0.88            0.00011192      -0.00011163    
  0.89            0.00011342      -0.00011295    
  0.9             0.00011429      -0.00011418    
  0.91            0.00011559      -0.00011582    
  0.92            0.00011732      -0.00011745    
  0.93            0.00011836      -0.00011866    
  0.94            0.0001201       -0.00012004    
  0.95            0.00012137      -0.00012093    
  0.96            0.00012221      -0.00012183    
  0.97            0.00012373      -0.00012319    
  0.98            0.0001245       -0.00012435    
  0.99            0.00012575      -0.00012596    
  1               0.00012745      -0.0001277     
END_DB

