! VERSION = 6.00
BEGIN_HEADER
 ICCAP_INPUTS
  VU1        V  E GROUND SMU2 0.1 CON        0
  VU2        V  S GROUND SMU3 0.1 CON        0
  V2         V  B GROUND SMU4 0.015 CON        0
  V1         V  C GROUND SMU1 0.015 LIN        1    -1         1          201  0.01      
 ICCAP_OUTPUTS
  I1         I  C GROUND SMU1 B
  I2         I  B GROUND SMU4 B
END_HEADER

BEGIN_DB
 ICCAP_VAR VU1        0              
 ICCAP_VAR VU2        0              
 ICCAP_VAR V2         0              

 #V1              I1              I2             
  -1              -0.00050806     0.00050792     
  -0.99           -0.00050223     0.00050192     
  -0.98           -0.00049667     0.00049755     
  -0.97           -0.00049258     0.00049396     
  -0.96           -0.00048877     0.0004889      
  -0.95           -0.00048348     0.00048247     
  -0.94           -0.00047697     0.00047622     
  -0.93           -0.00047253     0.0004713      
  -0.92           -0.00046598     0.00046591     
  -0.91           -0.00046086     0.00046192     
  -0.9            -0.00045697     0.00045795     
  -0.89           -0.00045116     0.00045256     
  -0.88           -0.00044745     0.00044777     
  -0.87           -0.00044245     0.00044172     
  -0.86           -0.00043616     0.00043533     
  -0.85           -0.00043001     0.00043026     
  -0.84           -0.00042518     0.00042636     
  -0.83           -0.00042146     0.00042206     
  -0.82           -0.00041683     0.0004164      
  -0.81           -0.00041101     0.00040994     
  -0.8            -0.00040463     0.00040456     
  -0.79           -0.00039947     0.0004004      
  -0.78           -0.00039543     0.00039634     
  -0.77           -0.00039117     0.00039106     
  -0.76           -0.00038572     0.00038482     
  -0.75           -0.00037935     0.00037909     
  -0.74           -0.00037391     0.00037456     
  -0.73           -0.00036958     0.00037068     
  -0.72           -0.00036555     0.00036572     
  -0.71           -0.0003604      0.00035972     
  -0.7            -0.0003543      0.00035374     
  -0.69           -0.0003497      0.00034883     
  -0.68           -0.0003436      0.00034355     
  -0.67           -0.00033843     0.00033922     
  -0.66           -0.00033425     0.00033503     
  -0.65           -0.00032991     0.00032986     
  -0.64           -0.00032451     0.00032375     
  -0.63           -0.00031833     0.00031813     
  -0.62           -0.00031297     0.00031352     
  -0.61           -0.00030852     0.00030947     
  -0.6            -0.00030433     0.00030451     
  -0.59           -0.00029923     0.00029866     
  -0.58           -0.00029331     0.00029286     
  -0.57           -0.00028865     0.00028792     
  -0.56           -0.00028273     0.00028273     
  -0.55           -0.0002776      0.00027826     
  -0.54           -0.00027327     0.00027394     
  -0.53           -0.00026884     0.00026879     
  -0.52           -0.00026352     0.00026289     
  -0.51           -0.00025751     0.0002574      
  -0.5            -0.00025224     0.00025275     
  -0.49           -0.00024773     0.00024848     
  -0.48           -0.00024332     0.00024346     
  -0.47           -0.00023823     0.00023778     
  -0.46           -0.00023249     0.00023218     
  -0.45           -0.00022777     0.00022725     
  -0.44           -0.00022202     0.00022205     
  -0.43           -0.00021696     0.0002175      
  -0.42           -0.00021253     0.00021305     
  -0.41           -0.00020789     0.00020786     
  -0.4            -0.00020258     0.00020215     
  -0.39           -0.00019686     0.0001968      
  -0.38           -0.00019166     0.00019206     
  -0.37           -0.00018701     0.00018761     
  -0.36           -0.00018248     0.00018259     
  -0.35           -0.00017735     0.00017702     
  -0.34           -0.00017174     0.00017158     
  -0.33           -0.00016697     0.00016662     
  -0.32           -0.00016142     0.0001615      
  -0.31           -0.00015641     0.00015685     
  -0.3            -0.00015179     0.00015217     
  -0.29           -0.0001465      0.00014702     
  -0.28           -0.00014186     0.00014202     
  -0.27           -0.00013683     0.00013665     
  -0.26           -0.00013139     0.00013122     
  -0.25           -0.00012605     0.00012625     
  -0.24           -0.00012116     0.00012161     
  -0.23           -0.00011648     0.00011668     
  -0.22           -0.0001115      0.00011143     
  -0.21           -0.00010622     0.00010605     
  -0.2            -0.00010088     0.00010097     
  -0.19           -9.627e-005     9.6009e-005    
  -0.18           -9.1012e-005    9.1237e-005    
  -0.17           -8.6157e-005    8.6175e-005    
  -0.16           -8.1108e-005    8.0937e-005    
  -0.15           -7.5845e-005    7.5696e-005    
  -0.14           -7.0626e-005    7.0658e-005    
  -0.13           -6.5642e-005    6.5808e-005    
  -0.12           -6.075e-005     6.0876e-005    
  -0.11           -5.5591e-005    5.5767e-005    
  -0.1            -5.0734e-005    5.0769e-005    
  -0.09           -4.5681e-005    4.5609e-005    
  -0.08           -4.052e-005     4.0415e-005    
  -0.07           -3.5388e-005    3.5384e-005    
  -0.06           -3.032e-005     3.0395e-005    
  -0.05           -2.5327e-005    2.5398e-005    
  -0.04           -2.0353e-005    2.0374e-005    
  -0.03           -1.5283e-005    1.5252e-005    
  -0.02           -1.0182e-005    1.0162e-005    
  -0.01           -5.1739e-006    5.1424e-006    
  0               -8.6524e-008    8.2942e-008    
  0.01            4.9779e-006     -4.986e-006    
  0.02            1.00105e-005    -9.9985e-006   
  0.03            1.5046e-005     -1.5071e-005   
  0.04            2.0142e-005     -2.008e-005    
  0.05            2.5093e-005     -2.5065e-005   
  0.06            3.0132e-005     -3.0171e-005   
  0.07            3.5259e-005     -3.5335e-005   
  0.08            4.0393e-005     -4.0384e-005   
  0.09            4.5453e-005     -4.5363e-005   
  0.1             5.0416e-005     -5.0298e-005   
  0.11            5.5312e-005     -5.5306e-005   
  0.12            6.0377e-005     -6.0501e-005   
  0.13            6.5617e-005     -6.5715e-005   
  0.14            7.0772e-005     -7.073e-005    
  0.15            7.5802e-005     -7.5583e-005   
  0.16            8.0626e-005     -8.0501e-005   
  0.17            8.5811e-005     -8.5563e-005   
  0.18            9.0617e-005     -9.0547e-005   
  0.19            9.5616e-005     -9.5761e-005   
  0.2             0.000100835     -0.000101087   
  0.21            0.000106189     -0.00010563    
  0.22            0.00011081      -0.00011072    
  0.23            0.00011586      -0.00011607    
  0.24            0.0001213       -0.0001214     
  0.25            0.0001262       -0.0001264     
  0.26            0.00013157      -0.00013148    
  0.27            0.00013661      -0.0001362     
  0.28            0.00014126      -0.00014094    
  0.29            0.00014656      -0.00014608    
  0.3             0.00015117      -0.00015104    
  0.31            0.00015623      -0.00015647    
  0.32            0.00016176      -0.00016194    
  0.33            0.00016655      -0.00016691    
  0.34            0.00017214      -0.00017209    
  0.35            0.0001772       -0.00017677    
  0.36            0.00018178      -0.00018131    
  0.37            0.00018645      -0.00018645    
  0.38            0.00019171      -0.00019212    
  0.39            0.00019741      -0.00019748    
  0.4             0.00020267      -0.00020225    
  0.41            0.00020731      -0.00020668    
  0.42            0.00021173      -0.0002116     
  0.43            0.00021685      -0.00021723    
  0.44            0.00022259      -0.00022284    
  0.45            0.00022726      -0.00022779    
  0.46            0.00023302      -0.000233      
  0.47            0.00023811      -0.00023752    
  0.48            0.00024246      -0.00024192    
  0.49            0.00024706      -0.0002471     
  0.5             0.00025241      -0.00025298    
  0.51            0.00025833      -0.00025839    
  0.52            0.00026361      -0.0002631     
  0.53            0.00026811      -0.00026731    
  0.54            0.00027243      -0.00027232    
  0.55            0.00027753      -0.00027809    
  0.56            0.0002835       -0.00028383    
  0.57            0.00028807      -0.00028877    
  0.58            0.00029403      -0.00029399    
  0.59            0.00029909      -0.00029837    
  0.6             0.00030336      -0.00030268    
  0.61            0.00030889      -0.0003079     
  0.62            0.000313        -0.00031273    
  0.63            0.00031797      -0.00031848    
  0.64            0.00032387      -0.00032445    
  0.65            0.00032972      -0.00032949    
  0.66            0.00033458      -0.0003336     
  0.67            0.00033855      -0.00033802    
  0.68            0.00034323      -0.00034353    
  0.69            0.00034896      -0.00034982    
  0.7             0.00035507      -0.00035506    
  0.71            0.00036016      -0.00035932    
  0.72            0.00036425      -0.00036347    
  0.73            0.00036859      -0.00036868    
  0.74            0.00037399      -0.00037491    
  0.75            0.00038041      -0.00038063    
  0.76            0.00038581      -0.00038511    
  0.77            0.00039006      -0.00038893    
  0.78            0.00039405      -0.00039393    
  0.79            0.00039922      -0.00040003    
  0.8             0.00040554      -0.0004061     
  0.81            0.00040997      -0.000411      
  0.82            0.00041629      -0.00041627    
  0.83            0.00042135      -0.00042036    
  0.84            0.00042522      -0.00042436    
  0.85            0.000431        -0.00042967    
  0.86            0.00043474      -0.00043447    
  0.87            0.0004398       -0.00044062    
  0.88            0.00044605      -0.00044687    
  0.89            0.00045218      -0.00045184    
  0.9             0.00045688      -0.00045558    
  0.91            0.00046044      -0.00045988    
  0.92            0.00046508      -0.00046568    
  0.93            0.00047117      -0.00047233    
  0.94            0.0004776       -0.00047758    
  0.95            0.00048264      -0.00048147    
  0.96            0.00048635      -0.00048543    
  0.97            0.00049224      -0.00049077    
  0.98            0.00049588      -0.00049562    
  0.99            0.00050098      -0.00050194    
  1               0.00050753      -0.00050835    
END_DB

