! VERSION = 6.00
BEGIN_HEADER
 ICCAP_INPUTS
  VU1        V  E GROUND SMU2 0.1 CON        0
  VU2        V  S GROUND SMU3 0.1 CON        0
  V2         V  B GROUND SMU4 0.015 CON        0
  V1         V  C GROUND SMU1 0.015 LIN        1    -0.6       0.6        121  0.01      
 ICCAP_OUTPUTS
  I1         I  C GROUND SMU1 B
  I2         I  B GROUND SMU4 B
END_HEADER

BEGIN_DB
 ICCAP_VAR VU1        0              
 ICCAP_VAR VU2        0              
 ICCAP_VAR V2         0              

 #V1              I1              I2             
  -0.6            -0.0010188      0.001018       
  -0.59           -0.00100033     0.0009998      
  -0.58           -0.0009801      0.00098061     
  -0.57           -0.00096236     0.00096288     
  -0.56           -0.0009442      0.00094359     
  -0.55           -0.00092493     0.00092388     
  -0.54           -0.00090503     0.00090496     
  -0.53           -0.00088699     0.00088792     
  -0.52           -0.00086962     0.00087066     
  -0.51           -0.00085083     0.00085211     
  -0.5            -0.00083433     0.00083461     
  -0.49           -0.00081633     0.00081562     
  -0.48           -0.00079686     0.00079635     
  -0.47           -0.00077861     0.00077868     
  -0.46           -0.00076085     0.00076191     
  -0.45           -0.00074433     0.00074477     
  -0.44           -0.00072702     0.00072658     
  -0.43           -0.00070857     0.00070758     
  -0.42           -0.00069003     0.00068989     
  -0.41           -0.00067221     0.00067306     
  -0.4            -0.00065574     0.00065642     
  -0.39           -0.00063916     0.00063905     
  -0.38           -0.00062155     0.00062061     
  -0.37           -0.00060296     0.00060288     
  -0.36           -0.00058565     0.00058616     
  -0.35           -0.00056884     0.00056977     
  -0.34           -0.00055265     0.00055285     
  -0.33           -0.00053558     0.00053517     
  -0.32           -0.00051786     0.00051757     
  -0.31           -0.00050131     0.00050074     
  -0.3            -0.00048358     0.00048354     
  -0.29           -0.00046675     0.00046728     
  -0.28           -0.00045062     0.00045102     
  -0.27           -0.00043446     0.00043441     
  -0.26           -0.00041736     0.00041698     
  -0.25           -0.00040007     0.00040004     
  -0.24           -0.00038351     0.00038387     
  -0.23           -0.00036732     0.0003681      
  -0.22           -0.00035142     0.00035165     
  -0.21           -0.00033513     0.00033482     
  -0.2            -0.00031831     0.00031805     
  -0.19           -0.00030203     0.0003017      
  -0.18           -0.00028545     0.0002855      
  -0.17           -0.00026912     0.0002696      
  -0.16           -0.00025353     0.00025388     
  -0.15           -0.00023769     0.00023771     
  -0.14           -0.00022149     0.00022139     
  -0.13           -0.00020519     0.00020519     
  -0.12           -0.00018911     0.00018932     
  -0.11           -0.00017331     0.0001737      
  -0.1            -0.00015781     0.00015793     
  -0.09           -0.00014178     0.0001417      
  -0.08           -0.00012583     0.00012578     
  -0.07           -0.00011019     0.00011003     
  -0.06           -9.4421e-005    9.4148e-005    
  -0.05           -7.8462e-005    7.8485e-005    
  -0.04           -6.2903e-005    6.2979e-005    
  -0.03           -4.7309e-005    4.7306e-005    
  -0.02           -3.1588e-005    3.1569e-005    
  -0.01           -1.5964e-005    1.5936e-005    
  0               -1.4152e-007    1.5817e-007    
  0.01            1.5378e-005     -1.5375e-005   
  0.02            3.0967e-005     -3.0926e-005   
  0.03            4.6565e-005     -4.6549e-005   
  0.04            6.2242e-005     -6.2274e-005   
  0.05            7.7862e-005     -7.7949e-005   
  0.06            9.365e-005      -9.3639e-005   
  0.07            0.000109367     -0.00010932    
  0.08            0.00012507      -0.00012497    
  0.09            0.00014076      -0.00014056    
  0.1             0.00015671      -0.00015639    
  0.11            0.00017222      -0.00017213    
  0.12            0.00018817      -0.00018818    
  0.13            0.00020441      -0.00020444    
  0.14            0.00021998      -0.00022022    
  0.15            0.00023638      -0.00023629    
  0.16            0.0002525       -0.00025215    
  0.17            0.00026818      -0.00026778    
  0.18            0.00028399      -0.00028402    
  0.19            0.00030041      -0.00030059    
  0.2             0.00031708      -0.00031709    
  0.21            0.00033362      -0.00033333    
  0.22            0.00034975      -0.00034919    
  0.23            0.00036546      -0.00036531    
  0.24            0.00038198      -0.00038205    
  0.25            0.00039908      -0.00039932    
  0.26            0.00041606      -0.00041587    
  0.27            0.00043259      -0.0004319     
  0.28            0.0004487       -0.00044836    
  0.29            0.00046527      -0.00046542    
  0.3             0.00048238      -0.00048293    
  0.31            0.00050016      -0.00050017    
  0.32            0.00051722      -0.00051668    
  0.33            0.00053336      -0.00053289    
  0.34            0.00055025      -0.00055032    
  0.35            0.00056778      -0.00056837    
  0.36            0.00058573      -0.00058606    
  0.37            0.00060345      -0.00060284    
  0.38            0.00062026      -0.00061924    
  0.39            0.00063663      -0.0006365     
  0.4             0.00065433      -0.00065496    
  0.41            0.00067323      -0.00067319    
  0.42            0.00068979      -0.0006907     
  0.43            0.00070866      -0.00070863    
  0.44            0.0007266       -0.00072573    
  0.45            0.00074331      -0.00074262    
  0.46            0.000762        -0.00076083    
  0.47            0.00077878      -0.00077839    
  0.48            0.00079635      -0.00079704    
  0.49            0.00081544      -0.00081636    
  0.5             0.00083473      -0.00083442    
  0.51            0.00085247      -0.00085126    
  0.52            0.00086957      -0.00086914    
  0.53            0.00088753      -0.00088816    
  0.54            0.0009068       -0.00090778    
  0.55            0.00092641      -0.00092662    
  0.56            0.00094499      -0.00094414    
  0.57            0.00096249      -0.00096154    
  0.58            0.00098167      -0.00098029    
  0.59            0.00099896      -0.00099867    
  0.6             0.00101788      -0.00101862    
END_DB

