! VERSION = 6.00
BEGIN_HEADER
 ICCAP_INPUTS
  VU1        V  E GROUND SMU2 0.1 CON        0
  VU2        V  S GROUND SMU3 0.1 CON        0
  V2         V  B GROUND SMU4 0.015 CON        0
  V1         V  C GROUND SMU1 0.015 LIN        1    -1         1          201  0.01      
 ICCAP_OUTPUTS
  I1         I  C GROUND SMU1 B
  I2         I  B GROUND SMU4 B
END_HEADER

BEGIN_DB
 ICCAP_VAR VU1        0              
 ICCAP_VAR VU2        0              
 ICCAP_VAR V2         0              

 #V1              I1              I2             
  -1              -0.00012827     0.00012836     
  -0.99           -0.00012752     0.00012716     
  -0.98           -0.00012572     0.00012577     
  -0.97           -0.00012443     0.00012489     
  -0.96           -0.00012361     0.000124       
  -0.95           -0.00012262     0.00012264     
  -0.94           -0.00012117     0.00012088     
  -0.93           -0.00011936     0.00011938     
  -0.92           -0.00011798     0.00011834     
  -0.91           -0.000117       0.0001175      
  -0.9            -0.00011615     0.00011623     
  -0.89           -0.0001148      0.00011457     
  -0.88           -0.0001131      0.00011296     
  -0.87           -0.00011204     0.00011173     
  -0.86           -0.00011032     0.00011037     
  -0.85           -0.00010904     0.00010946     
  -0.84           -0.00010814     0.00010852     
  -0.83           -0.00010664     0.00010713     
  -0.82           -0.00010579     0.00010591     
  -0.81           -0.00010451     0.00010434     
  -0.8            -0.00010287     0.00010269     
  -0.79           -0.00010126     0.00010143     
  -0.78           -0.000100601    0.00010034     
  -0.77           -9.8932e-005    9.9389e-005    
  -0.76           -9.8104e-005    9.8042e-005    
  -0.75           -9.672e-005     9.6412e-005    
  -0.74           -9.5063e-005    9.4903e-005    
  -0.73           -9.4009e-005    9.3681e-005    
  -0.72           -9.2365e-005    9.2327e-005    
  -0.71           -9.1058e-005    9.1282e-005    
  -0.7            -9.0028e-005    9.032e-005     
  -0.69           -8.903e-005     8.9052e-005    
  -0.68           -8.7741e-005    8.7516e-005    
  -0.67           -8.6172e-005    8.5938e-005    
  -0.66           -8.4638e-005    8.4671e-005    
  -0.65           -8.3401e-005    8.3662e-005    
  -0.64           -8.2396e-005    8.2602e-005    
  -0.63           -8.1306e-005    8.1257e-005    
  -0.62           -7.9949e-005    7.9695e-005    
  -0.61           -7.8351e-005    7.8217e-005    
  -0.6            -7.7257e-005    7.6987e-005    
  -0.59           -7.5691e-005    7.5644e-005    
  -0.58           -7.4361e-005    7.4539e-005    
  -0.57           -7.3275e-005    7.3528e-005    
  -0.56           -7.2243e-005    7.228e-005     
  -0.55           -7.0968e-005    7.0798e-005    
  -0.54           -6.9473e-005    6.9268e-005    
  -0.53           -6.797e-005     6.7978e-005    
  -0.52           -6.6703e-005    6.6895e-005    
  -0.51           -6.563e-005     6.581e-005     
  -0.5            -6.4526e-005    6.4507e-005    
  -0.49           -6.3197e-005    6.301e-005     
  -0.48           -6.1689e-005    6.155e-005     
  -0.47           -6.0544e-005    6.0326e-005    
  -0.46           -5.9025e-005    5.8981e-005    
  -0.45           -5.7699e-005    5.7821e-005    
  -0.44           -5.6549e-005    5.6761e-005    
  -0.43           -5.5467e-005    5.551e-005     
  -0.42           -5.422e-005     5.4102e-005    
  -0.41           -5.2781e-005    5.2611e-005    
  -0.4            -5.131e-005     5.1299e-005    
  -0.39           -5.0029e-005    5.0164e-005    
  -0.38           -4.8881e-005    4.9042e-005    
  -0.37           -4.7746e-005    4.776e-005     
  -0.36           -4.6453e-005    4.6334e-005    
  -0.35           -4.5015e-005    4.4905e-005    
  -0.34           -4.3609e-005    4.3634e-005    
  -0.33           -4.2356e-005    4.2495e-005    
  -0.32           -4.1207e-005    4.1315e-005    
  -0.31           -3.9831e-005    3.999e-005     
  -0.3            -3.8708e-005    3.8746e-005    
  -0.29           -3.7446e-005    3.7373e-005    
  -0.28           -3.6058e-005    3.5938e-005    
  -0.27           -3.4649e-005    3.464e-005     
  -0.26           -3.3351e-005    3.3445e-005    
  -0.25           -3.216e-005     3.2269e-005    
  -0.24           -3.098e-005     3.0993e-005    
  -0.23           -2.9684e-005    2.9611e-005    
  -0.22           -2.8301e-005    2.8233e-005    
  -0.21           -2.6946e-005    2.6964e-005    
  -0.2            -2.5672e-005    2.5761e-005    
  -0.19           -2.4462e-005    2.4537e-005    
  -0.18           -2.3138e-005    2.3238e-005    
  -0.17           -2.1939e-005    2.1964e-005    
  -0.16           -2.067e-005     2.0639e-005    
  -0.15           -1.9336e-005    1.9272e-005    
  -0.14           -1.7975e-005    1.7972e-005    
  -0.13           -1.6687e-005    1.6734e-005    
  -0.12           -1.5443e-005    1.5507e-005    
  -0.11           -1.4205e-005    1.422e-005     
  -0.1            -1.2927e-005    1.29e-005      
  -0.09           -1.1597e-005    1.1571e-005    
  -0.08           -1.0274e-005    1.0283e-005    
  -0.07           -9.0598e-006    9.0006e-006    
  -0.06           -7.7136e-006    7.7349e-006    
  -0.05           -6.4486e-006    6.4705e-006    
  -0.04           -5.186e-006     5.1845e-006    
  -0.03           -3.8914e-006    3.881e-006     
  -0.02           -2.5837e-006    2.5847e-006    
  -0.01           -1.3062e-006    1.3125e-006    
  0               -2.0176e-008    2.233e-008     
  0.01            1.2628e-006     -1.2655e-006   
  0.02            2.5388e-006     -2.5383e-006   
  0.03            3.826e-006      -3.8324e-006   
  0.04            5.1366e-006     -5.1415e-006   
  0.05            6.401e-006      -6.4176e-006   
  0.06            7.716e-006      -7.7151e-006   
  0.07            9.0063e-006     -8.9788e-006   
  0.08            1.02444e-005    -1.0226e-005   
  0.09            1.159e-005      -1.1509e-005   
  0.1             1.2802e-005     -1.2799e-005   
  0.11            1.4087e-005     -1.4123e-005   
  0.12            1.5436e-005     -1.5453e-005   
  0.13            1.6681e-005     -1.673e-005    
  0.14            1.8029e-005     -1.8034e-005   
  0.15            1.9334e-005     -1.9283e-005   
  0.16            2.057e-005      -2.0494e-005   
  0.17            2.1774e-005     -2.1757e-005   
  0.18            2.3059e-005     -2.3099e-005   
  0.19            2.4414e-005     -2.4476e-005   
  0.2             2.5772e-005     -2.5763e-005   
  0.21            2.7059e-005     -2.6976e-005   
  0.22            2.8255e-005     -2.8177e-005   
  0.23            2.9456e-005     -2.9462e-005   
  0.24            3.0764e-005     -3.0852e-005   
  0.25            3.2173e-005     -3.2228e-005   
  0.26            3.3372e-005     -3.3482e-005   
  0.27            3.4793e-005     -3.4812e-005   
  0.28            3.6111e-005     -3.6025e-005   
  0.29            3.7305e-005     -3.717e-005    
  0.3             3.8446e-005     -3.8424e-005   
  0.31            3.9731e-005     -3.9812e-005   
  0.32            4.1136e-005     -4.1245e-005   
  0.33            4.2548e-005     -4.2539e-005   
  0.34            4.3834e-005     -4.3702e-005   
  0.35            4.4979e-005     -4.4853e-005   
  0.36            4.6132e-005     -4.6142e-005   
  0.37            4.7451e-005     -4.7586e-005   
  0.38            4.892e-005      -4.901e-005    
  0.39            5.0069e-005     -5.024e-005    
  0.4             5.1567e-005     -5.16e-005     
  0.41            5.2903e-005     -5.2787e-005   
  0.42            5.4055e-005     -5.3858e-005   
  0.43            5.5139e-005     -5.5099e-005   
  0.44            5.6406e-005     -5.6524e-005   
  0.45            5.7847e-005     -5.8018e-005   
  0.46            5.9335e-005     -5.9337e-005   
  0.47            6.0625e-005     -6.0459e-005   
  0.48            6.1714e-005     -6.1536e-005   
  0.49            6.2824e-005     -6.2834e-005   
  0.5             6.4145e-005     -6.4319e-005   
  0.51            6.5651e-005     -6.5788e-005   
  0.52            6.7105e-005     -6.7051e-005   
  0.53            6.8342e-005     -6.8103e-005   
  0.54            6.9369e-005     -6.9227e-005   
  0.55            7.0817e-005     -7.0555e-005   
  0.56            7.1839e-005     -7.1783e-005   
  0.57            7.3096e-005     -7.3248e-005   
  0.58            7.4578e-005     -7.4806e-005   
  0.59            7.6125e-005     -7.6138e-005   
  0.6             7.742e-005      -7.7213e-005   
  0.61            7.8464e-005     -7.8233e-005   
  0.62            7.9521e-005     -7.9529e-005   
  0.63            8.0845e-005     -8.1068e-005   
  0.64            8.2409e-005     -8.259e-005    
  0.65            8.3906e-005     -8.3847e-005   
  0.66            8.5133e-005     -8.4838e-005   
  0.67            8.6087e-005     -8.5913e-005   
  0.68            8.7588e-005     -8.7266e-005   
  0.69            8.8545e-005     -8.8475e-005   
  0.7             8.9768e-005     -8.9953e-005   
  0.71            9.1294e-005     -9.1593e-005   
  0.72            9.292e-005      -9.2951e-005   
  0.73            9.4216e-005     -9.3978e-005   
  0.74            9.5232e-005     -9.4939e-005   
  0.75            9.6224e-005     -9.6201e-005   
  0.76            9.752e-005      -9.7761e-005   
  0.77            9.9121e-005     -9.9375e-005   
  0.78            0.0001007       -0.000100657   
  0.79            0.000101928     -0.000101613   
  0.8             0.000102856     -0.00010262    
  0.81            0.000103906     -0.000103964   
  0.82            0.000105269     -0.00010549    
  0.83            0.00010709      -0.00010661    
  0.84            0.00010791      -0.00010768    
  0.85            0.00010908      -0.00010919    
  0.86            0.00011068      -0.00011093    
  0.87            0.00011237      -0.00011227    
  0.88            0.00011362      -0.00011318    
  0.89            0.00011445      -0.00011413    
  0.9             0.00011599      -0.00011549    
  0.91            0.00011684      -0.0001167     
  0.92            0.00011815      -0.00011835    
  0.93            0.00011986      -0.00012004    
  0.94            0.0001209       -0.00012124    
  0.95            0.00012269      -0.00012264    
  0.96            0.00012403      -0.00012362    
  0.97            0.00012488      -0.00012446    
  0.98            0.00012583      -0.00012578    
  0.99            0.0001272       -0.00012753    
  1               0.00012904      -0.00012914    
END_DB

