! VERSION = 6.00
BEGIN_HEADER
 ICCAP_INPUTS
  VU1        V  E GROUND SMU2 0.1 CON        0
  VU2        V  S GROUND SMU3 0.1 CON        0
  V2         V  B GROUND SMU4 0.015 CON        0
  V1         V  C GROUND SMU1 0.015 LIN        1    -1         1          201  0.01      
 ICCAP_OUTPUTS
  I1         I  C GROUND SMU1 B
  I2         I  B GROUND SMU4 B
END_HEADER

BEGIN_DB
 ICCAP_VAR VU1        0              
 ICCAP_VAR VU2        0              
 ICCAP_VAR V2         0              

 #V1              I1              I2             
  -1              -2.4948e-005    2.4765e-005    
  -0.99           -2.4643e-005    2.454e-005     
  -0.98           -2.4276e-005    2.4266e-005    
  -0.97           -2.4008e-005    2.4081e-005    
  -0.96           -2.3835e-005    2.3948e-005    
  -0.95           -2.3691e-005    2.3716e-005    
  -0.94           -2.345e-005     2.3387e-005    
  -0.93           -2.3119e-005    2.3041e-005    
  -0.92           -2.2782e-005    2.2792e-005    
  -0.91           -2.2539e-005    2.2626e-005    
  -0.9            -2.2381e-005    2.246e-005     
  -0.89           -2.2205e-005    2.22e-005      
  -0.88           -2.1941e-005    2.1869e-005    
  -0.87           -2.1605e-005    2.1549e-005    
  -0.86           -2.1289e-005    2.1319e-005    
  -0.85           -2.1063e-005    2.1161e-005    
  -0.84           -2.0915e-005    2.097e-005     
  -0.83           -2.0605e-005    2.0704e-005    
  -0.82           -2.0449e-005    2.0474e-005    
  -0.81           -2.0214e-005    2.0159e-005    
  -0.8            -1.9892e-005    1.9823e-005    
  -0.79           -1.9564e-005    1.9569e-005    
  -0.78           -1.9317e-005    1.9392e-005    
  -0.77           -1.9141e-005    1.9216e-005    
  -0.76           -1.896e-005     1.8962e-005    
  -0.75           -1.8701e-005    1.8639e-005    
  -0.74           -1.8377e-005    1.8332e-005    
  -0.73           -1.8071e-005    1.8096e-005    
  -0.72           -1.7841e-005    1.7923e-005    
  -0.71           -1.7676e-005    1.7728e-005    
  -0.7            -1.7375e-005    1.7462e-005    
  -0.69           -1.7205e-005    1.7227e-005    
  -0.68           -1.6969e-005    1.6925e-005    
  -0.67           -1.6661e-005    1.6604e-005    
  -0.66           -1.6344e-005    1.6348e-005    
  -0.65           -1.6098e-005    1.6161e-005    
  -0.64           -1.5908e-005    1.5973e-005    
  -0.63           -1.5716e-005    1.5718e-005    
  -0.62           -1.5458e-005    1.541e-005     
  -0.61           -1.5149e-005    1.5111e-005    
  -0.6            -1.485e-005     1.4873e-005    
  -0.59           -1.4619e-005    1.469e-005     
  -0.58           -1.4436e-005    1.4482e-005    
  -0.57           -1.4146e-005    1.4219e-005    
  -0.56           -1.3966e-005    1.3985e-005    
  -0.55           -1.3725e-005    1.3696e-005    
  -0.54           -1.3431e-005    1.3386e-005    
  -0.53           -1.3128e-005    1.313e-005     
  -0.52           -1.2877e-005    1.2925e-005    
  -0.51           -1.2674e-005    1.2731e-005    
  -0.5            -1.2475e-005    1.2482e-005    
  -0.49           -1.222e-005     1.2186e-005    
  -0.48           -1.1924e-005    1.1894e-005    
  -0.47           -1.1637e-005    1.1654e-005    
  -0.46           -1.1399e-005    1.1453e-005    
  -0.45           -1.1199e-005    1.124e-005     
  -0.44           -1.092e-005     1.0981e-005    
  -0.43           -1.0722e-005    1.0743e-005    
  -0.42           -1.0485e-005    1.0466e-005    
  -0.41           -1.0204e-005    1.0169e-005    
  -0.4            -9.9507e-006    9.9347e-006    
  -0.39           -9.6756e-006    9.6619e-006    
  -0.38           -9.4121e-006    9.438e-006     
  -0.37           -9.1965e-006    9.235e-006     
  -0.36           -8.9885e-006    8.9859e-006    
  -0.35           -8.7328e-006    8.6972e-006    
  -0.34           -8.4368e-006    8.423e-006     
  -0.33           -8.1757e-006    8.196e-006     
  -0.32           -7.9529e-006    7.9883e-006    
  -0.31           -7.7393e-006    7.7393e-006    
  -0.3            -7.4872e-006    7.4577e-006    
  -0.29           -7.2013e-006    7.1862e-006    
  -0.28           -6.9367e-006    6.9533e-006    
  -0.27           -6.7093e-006    6.7414e-006    
  -0.26           -6.4916e-006    6.4934e-006    
  -0.25           -6.2396e-006    6.2154e-006    
  -0.24           -5.9633e-006    5.9485e-006    
  -0.23           -5.6993e-006    5.7121e-006    
  -0.22           -5.4638e-006    5.4916e-006    
  -0.21           -5.2431e-006    5.2475e-006    
  -0.2            -4.9945e-006    4.9758e-006    
  -0.19           -4.7247e-006    4.7096e-006    
  -0.18           -4.4863e-006    4.4658e-006    
  -0.17           -4.2161e-006    4.2156e-006    
  -0.16           -3.9696e-006    3.9869e-006    
  -0.15           -3.7366e-006    3.7502e-006    
  -0.14           -3.4801e-006    3.4981e-006    
  -0.13           -3.2488e-006    3.2498e-006    
  -0.12           -2.998e-006     2.9854e-006    
  -0.11           -2.7352e-006    2.7288e-006    
  -0.1            -2.4812e-006    2.4887e-006    
  -0.09           -2.2377e-006    2.2512e-006    
  -0.08           -1.999e-006     2.0006e-006    
  -0.07           -1.7518e-006    1.7439e-006    
  -0.06           -1.4958e-006    1.491e-006     
  -0.05           -1.2416e-006    1.2464e-006    
  -0.04           -9.9745e-007    1.00094e-006   
  -0.03           -7.5256e-007    7.4771e-007    
  -0.02           -5.0258e-007    4.9847e-007    
  -0.01           -2.5549e-007    2.5172e-007    
  0               -2.248e-009     4.1994e-009    
  0.01            2.4456e-007     -2.4633e-007   
  0.02            4.9259e-007     -4.9334e-007   
  0.03            7.3765e-007     -7.3809e-007   
  0.04            9.8545e-007     -9.8486e-007   
  0.05            1.2343e-006     -1.2407e-006   
  0.06            1.4871e-006     -1.482e-006    
  0.07            1.7301e-006     -1.7285e-006   
  0.08            1.9785e-006     -1.9828e-006   
  0.09            2.2392e-006     -2.2409e-006   
  0.1             2.493e-006      -2.4879e-006   
  0.11            2.7318e-006     -2.7216e-006   
  0.12            2.9677e-006     -2.9656e-006   
  0.13            3.218e-006      -3.2255e-006   
  0.14            3.4832e-006     -3.4883e-006   
  0.15            3.7231e-006     -3.7347e-006   
  0.16            3.9893e-006     -3.9882e-006   
  0.17            4.2337e-006     -4.219e-006    
  0.18            4.4601e-006     -4.4517e-006   
  0.19            4.7004e-006     -4.7059e-006   
  0.2             4.9621e-006     -4.9798e-006   
  0.21            5.2353e-006     -5.2363e-006   
  0.22            5.4826e-006     -5.4655e-006   
  0.23            5.7032e-006     -5.6895e-006   
  0.24            5.967e-006      -5.9429e-006   
  0.25            6.1888e-006     -6.1854e-006   
  0.26            6.4381e-006     -6.4579e-006   
  0.27            6.7214e-006     -6.7331e-006   
  0.28            6.9866e-006     -6.9747e-006   
  0.29            7.2152e-006     -7.1846e-006   
  0.3             7.4274e-006     -7.4228e-006   
  0.31            7.6784e-006     -7.7009e-006   
  0.32            7.9657e-006     -7.9825e-006   
  0.33            8.1942e-006     -8.2249e-006   
  0.34            8.4812e-006     -8.4816e-006   
  0.35            8.7264e-006     -8.6955e-006   
  0.36            8.9285e-006     -8.91e-006     
  0.37            9.158e-006      -9.1705e-006   
  0.38            9.4334e-006     -9.4717e-006   
  0.39            9.7281e-006     -9.7315e-006   
  0.4             9.9753e-006     -9.9434e-006   
  0.41            1.01767e-005    -1.01521e-005  
  0.42            1.04485e-005    -1.04051e-005  
  0.43            1.06498e-005    -1.06471e-005  
  0.44            1.09038e-005    -1.09377e-005  
  0.45            1.12051e-005    -1.12294e-005  
  0.46            1.1479e-005     -1.1396e-005   
  0.47            1.1659e-005     -1.1695e-005   
  0.48            1.1965e-005     -1.1974e-005   
  0.49            1.2178e-005     -1.2218e-005   
  0.5             1.2479e-005     -1.2476e-005   
  0.51            1.273e-005      -1.2685e-005   
  0.52            1.2935e-005     -1.2877e-005   
  0.53            1.3134e-005     -1.3123e-005   
  0.54            1.3386e-005     -1.3419e-005   
  0.55            1.3687e-005     -1.3719e-005   
  0.56            1.3983e-005     -1.3966e-005   
  0.57            1.4222e-005     -1.4162e-005   
  0.58            1.4404e-005     -1.4361e-005   
  0.59            1.4617e-005     -1.4619e-005   
  0.6             1.4884e-005     -1.4934e-005   
  0.61            1.5203e-005     -1.5223e-005   
  0.62            1.541e-005      -1.5462e-005   
  0.63            1.5727e-005     -1.5727e-005   
  0.64            1.598e-005      -1.5926e-005   
  0.65            1.6173e-005     -1.6104e-005   
  0.66            1.6358e-005     -1.6346e-005   
  0.67            1.6609e-005     -1.665e-005    
  0.68            1.6922e-005     -1.6967e-005   
  0.69            1.723e-005      -1.7213e-005   
  0.7             1.7466e-005     -1.7395e-005   
  0.71            1.7641e-005     -1.7583e-005   
  0.72            1.7839e-005     -1.7844e-005   
  0.73            1.8109e-005     -1.817e-005    
  0.74            1.8445e-005     -1.8471e-005   
  0.75            1.8639e-005     -1.8708e-005   
  0.76            1.897e-005      -1.8973e-005   
  0.77            1.9226e-005     -1.9165e-005   
  0.78            1.9408e-005     -1.9326e-005   
  0.79            1.9581e-005     -1.9564e-005   
  0.8             1.9829e-005     -1.988e-005    
  0.81            2.0155e-005     -2.021e-005    
  0.82            2.0474e-005     -2.0462e-005   
  0.83            2.0714e-005     -2.0634e-005   
  0.84            2.0877e-005     -2.0808e-005   
  0.85            2.106e-005      -2.1066e-005   
  0.86            2.1329e-005     -2.1402e-005   
  0.87            2.1678e-005     -2.1718e-005   
  0.88            2.1862e-005     -2.1946e-005   
  0.89            2.2214e-005     -2.2222e-005   
  0.9             2.2479e-005     -2.2413e-005   
  0.91            2.2657e-005     -2.2553e-005   
  0.92            2.2806e-005     -2.2782e-005   
  0.93            2.3051e-005     -2.3106e-005   
  0.94            2.3383e-005     -2.3456e-005   
  0.95            2.3721e-005     -2.3712e-005   
  0.96            2.3962e-005     -2.3876e-005   
  0.97            2.4116e-005     -2.4029e-005   
  0.98            2.4284e-005     -2.429e-005    
  0.99            2.4553e-005     -2.4628e-005   
  1               2.4905e-005     -2.4962e-005   
END_DB

