! VERSION = 6.00
BEGIN_HEADER
 ICCAP_INPUTS
  VU1        V  E GROUND SMU2 0.1 CON        0
  VU2        V  S GROUND SMU3 0.1 CON        0
  V2         V  B GROUND SMU1 0.015 CON        0
  V1         V  C GROUND SMU4 0.015 LIN        1    -0.8       0.8        161  0.01      
 ICCAP_OUTPUTS
  I1         I  C GROUND SMU4 B
  I2         I  B GROUND SMU1 B
END_HEADER

BEGIN_DB
 ICCAP_VAR VU1        0              
 ICCAP_VAR VU2        0              
 ICCAP_VAR V2         0              

 #V1              I1              I2             
  -0.8            -0.00023099     0.00023049     
  -0.79           -0.00022748     0.00022803     
  -0.78           -0.00022341     0.00022429     
  -0.77           -0.00022018     0.00022023     
  -0.76           -0.0002179      0.00021741     
  -0.75           -0.00021577     0.00021515     
  -0.74           -0.0002127      0.00021299     
  -0.73           -0.00020854     0.00020962     
  -0.72           -0.0002051      0.00020546     
  -0.71           -0.0002026      0.00020225     
  -0.7            -0.00020057     0.00019987     
  -0.69           -0.00019801     0.00019811     
  -0.68           -0.00019433     0.00019505     
  -0.67           -0.00019048     0.00019115     
  -0.66           -0.00018765     0.00018736     
  -0.65           -0.00018556     0.0001846      
  -0.64           -0.00018301     0.00018292     
  -0.63           -0.00017965     0.00018015     
  -0.62           -0.00017577     0.0001766      
  -0.61           -0.00017297     0.00017302     
  -0.6            -0.00017071     0.00017022     
  -0.59           -0.00016841     0.00016804     
  -0.58           -0.00016537     0.00016477     
  -0.57           -0.00016267     0.00016272     
  -0.56           -0.00015901     0.00015968     
  -0.55           -0.00015557     0.00015604     
  -0.54           -0.00015278     0.00015353     
  -0.53           -0.00014981     0.00014994     
  -0.52           -0.00014748     0.00014699     
  -0.51           -0.00014497     0.00014459     
  -0.5            -0.00014191     0.0001421      
  -0.49           -0.00013841     0.00013913     
  -0.48           -0.00013513     0.00013544     
  -0.47           -0.00013246     0.00013221     
  -0.46           -0.00013029     0.0001298      
  -0.45           -0.00012748     0.00012752     
  -0.44           -0.0001242      0.00012462     
  -0.43           -0.00012069     0.0001212      
  -0.42           -0.0001179      0.0001185      
  -0.41           -0.00011501     0.00011499     
  -0.4            -0.00011247     0.00011226     
  -0.39           -0.00011013     0.00010984     
  -0.38           -0.00010722     0.0001074      
  -0.37           -0.00010379     0.00010431     
  -0.36           -0.00010065     0.00010094     
  -0.35           -9.804e-005     9.8661e-005    
  -0.34           -9.5639e-005    9.5254e-005    
  -0.33           -9.2989e-005    9.2882e-005    
  -0.32           -8.9995e-005    9.0206e-005    
  -0.31           -8.6555e-005    8.6949e-005    
  -0.3            -8.3759e-005    8.3819e-005    
  -0.29           -8.1111e-005    8.0863e-005    
  -0.28           -7.879e-005     7.8454e-005    
  -0.27           -7.6024e-005    7.5928e-005    
  -0.26           -7.2931e-005    7.314e-005     
  -0.25           -6.9626e-005    6.9947e-005    
  -0.24           -6.6885e-005    6.6884e-005    
  -0.23           -6.4373e-005    6.4151e-005    
  -0.22           -6.1776e-005    6.1607e-005    
  -0.21           -5.8824e-005    5.8906e-005    
  -0.2            -5.5842e-005    5.6036e-005    
  -0.19           -5.2799e-005    5.2965e-005    
  -0.18           -5.0043e-005    4.9998e-005    
  -0.17           -4.7503e-005    4.7305e-005    
  -0.16           -4.4816e-005    4.476e-005     
  -0.15           -4.1989e-005    4.1826e-005    
  -0.14           -3.9201e-005    3.9178e-005    
  -0.13           -3.6277e-005    3.6383e-005    
  -0.12           -3.3335e-005    3.347e-005     
  -0.11           -3.0537e-005    3.0544e-005    
  -0.1            -2.7838e-005    2.7748e-005    
  -0.09           -2.5144e-005    2.5066e-005    
  -0.08           -2.2342e-005    2.2353e-005    
  -0.07           -1.948e-005     1.9558e-005    
  -0.06           -1.6621e-005    1.6671e-005    
  -0.05           -1.3849e-005    1.3848e-005    
  -0.04           -1.1122e-005    1.1069e-005    
  -0.03           -8.3154e-006    8.3373e-006    
  -0.02           -5.5571e-006    5.539e-006     
  -0.01           -2.7508e-006    2.7534e-006    
  0               2.5017e-008     -2.7274e-008   
  0.01            2.8135e-006     -2.823e-006    
  0.02            5.6325e-006     -5.606e-006    
  0.03            8.4119e-006     -8.4083e-006   
  0.04            1.11716e-005    -1.12015e-005  
  0.05            1.3997e-005     -1.3935e-005   
  0.06            1.6703e-005     -1.6762e-005   
  0.07            1.9443e-005     -1.9451e-005   
  0.08            2.2299e-005     -2.222e-005    
  0.09            2.5214e-005     -2.5111e-005   
  0.1             2.8034e-005     -2.8027e-005   
  0.11            3.0692e-005     -3.0792e-005   
  0.12            3.3376e-005     -3.3484e-005   
  0.13            3.6185e-005     -3.6153e-005   
  0.14            3.9117e-005     -3.8968e-005   
  0.15            4.2074e-005     -4.1932e-005   
  0.16            4.4827e-005     -4.4847e-005   
  0.17            4.7431e-005     -4.7629e-005   
  0.18            5.0065e-005     -5.0171e-005   
  0.19            5.2893e-005     -5.3139e-005   
  0.2             5.563e-005      -5.567e-005    
  0.21            5.861e-005      -5.8436e-005   
  0.22            6.1656e-005     -6.1466e-005   
  0.23            6.4556e-005     -6.4526e-005   
  0.24            6.71e-005       -6.7335e-005   
  0.25            6.9638e-005     -6.9856e-005   
  0.26            7.2503e-005     -7.2465e-005   
  0.27            7.5594e-005     -7.5317e-005   
  0.28            7.8777e-005     -7.852e-005    
  0.29            8.1578e-005     -8.1189e-005   
  0.3             8.4553e-005     -8.4459e-005   
  0.31            8.7239e-005     -8.7379e-005   
  0.32            8.9615e-005     -9.0005e-005   
  0.33            9.2278e-005     -9.2322e-005   
  0.34            9.5437e-005     -9.5099e-005   
  0.35            9.8761e-005     -9.8342e-005   
  0.36            0.00010076      -0.000101596   
  0.37            0.0001038       -0.00010367    
  0.38            0.00010708      -0.00010661    
  0.39            0.0001103       -0.00010997    
  0.4             0.00011306      -0.0001126     
  0.41            0.00011592      -0.0001159     
  0.42            0.00011835      -0.00011872    
  0.43            0.00012082      -0.00012108    
  0.44            0.00012381      -0.0001243     
  0.45            0.0001266       -0.0001266     
  0.46            0.00012986      -0.00012935    
  0.47            0.0001334       -0.0001329     
  0.48            0.0001362       -0.00013548    
  0.49            0.0001392       -0.00013907    
  0.5             0.00014162      -0.00014195    
  0.51            0.00014394      -0.00014433    
  0.52            0.00014669      -0.00014664    
  0.53            0.00015031      -0.00014967    
  0.54            0.00015358      -0.00015338    
  0.55            0.00015614      -0.00015655    
  0.56            0.00015836      -0.00015885    
  0.57            0.00016111      -0.00016112    
  0.58            0.00016476      -0.00016408    
  0.59            0.00016835      -0.00016763    
  0.6             0.00017108      -0.00017023    
  0.61            0.00017428      -0.00017409    
  0.62            0.0001767       -0.00017708    
  0.63            0.00017875      -0.00017933    
  0.64            0.00018169      -0.00018166    
  0.65            0.00018556      -0.00018475    
  0.66            0.00018914      -0.00018865    
  0.67            0.00019182      -0.00019194    
  0.68            0.00019386      -0.00019461    
  0.69            0.00019636      -0.00019659    
  0.7             0.0002003       -0.00019956    
  0.71            0.00020399      -0.00020329    
  0.72            0.00020695      -0.00020707    
  0.73            0.00020907      -0.00020988    
  0.74            0.00021149      -0.00021165    
  0.75            0.00021482      -0.00021424    
  0.76            0.00021918      -0.00021827    
  0.77            0.00022228      -0.00022216    
  0.78            0.00022417      -0.00022498    
  0.79            0.00022641      -0.00022694    
  0.8             0.00022946      -0.00023043    
END_DB

