! VERSION = 6.00
BEGIN_HEADER
 ICCAP_INPUTS
  VU1        V  E GROUND SMU2 0.1 CON        0
  VU2        V  S GROUND SMU3 0.1 CON        0
  V2         V  B GROUND SMU1 0.015 CON        0
  V1         V  C GROUND SMU4 0.015 LIN        1    -1         1          201  0.01      
 ICCAP_OUTPUTS
  I1         I  C GROUND SMU4 B
  I2         I  B GROUND SMU1 B
END_HEADER

BEGIN_DB
 ICCAP_VAR VU1        0              
 ICCAP_VAR VU2        0              
 ICCAP_VAR V2         0              

 #V1              I1              I2             
  -1              -2.5552e-005    2.5426e-005    
  -0.99           -2.5233e-005    2.53e-005      
  -0.98           -2.4905e-005    2.4971e-005    
  -0.97           -2.4657e-005    2.4657e-005    
  -0.96           -2.4471e-005    2.4416e-005    
  -0.95           -2.4276e-005    2.4244e-005    
  -0.94           -2.4008e-005    2.4033e-005    
  -0.93           -2.3679e-005    2.3755e-005    
  -0.92           -2.3375e-005    2.3417e-005    
  -0.91           -2.3137e-005    2.3212e-005    
  -0.9            -2.2866e-005    2.2885e-005    
  -0.89           -2.2662e-005    2.2626e-005    
  -0.88           -2.2481e-005    2.2433e-005    
  -0.87           -2.2229e-005    2.2236e-005    
  -0.86           -2.192e-005     2.1979e-005    
  -0.85           -2.1603e-005    2.1661e-005    
  -0.84           -2.135e-005     2.1354e-005    
  -0.83           -2.1154e-005    2.111e-005     
  -0.82           -2.0953e-005    2.0926e-005    
  -0.81           -2.0688e-005    2.0709e-005    
  -0.8            -2.0371e-005    2.0435e-005    
  -0.79           -2.0072e-005    2.0109e-005    
  -0.78           -1.9832e-005    1.99e-005      
  -0.77           -1.9563e-005    1.9579e-005    
  -0.76           -1.9348e-005    1.9323e-005    
  -0.75           -1.9158e-005    1.9117e-005    
  -0.74           -1.891e-005     1.8918e-005    
  -0.73           -1.8608e-005    1.866e-005     
  -0.72           -1.8297e-005    1.835e-005     
  -0.71           -1.8044e-005    1.8051e-005    
  -0.7            -1.7839e-005    1.7806e-005    
  -0.69           -1.763e-005     1.7607e-005    
  -0.68           -1.7368e-005    1.7389e-005    
  -0.67           -1.7059e-005    1.7118e-005    
  -0.66           -1.6771e-005    1.6805e-005    
  -0.65           -1.6525e-005    1.6586e-005    
  -0.64           -1.6259e-005    1.6276e-005    
  -0.63           -1.6035e-005    1.6015e-005    
  -0.62           -1.5839e-005    1.5804e-005    
  -0.61           -1.5587e-005    1.5593e-005    
  -0.6            -1.5296e-005    1.5335e-005    
  -0.59           -1.4995e-005    1.5038e-005    
  -0.58           -1.4735e-005    1.4745e-005    
  -0.57           -1.452e-005     1.4499e-005    
  -0.56           -1.4306e-005    1.4286e-005    
  -0.55           -1.405e-005     1.4063e-005    
  -0.54           -1.3755e-005    1.38e-005      
  -0.53           -1.3466e-005    1.3498e-005    
  -0.52           -1.3224e-005    1.3273e-005    
  -0.51           -1.2955e-005    1.2972e-005    
  -0.5            -1.2721e-005    1.271e-005     
  -0.49           -1.2514e-005    1.2488e-005    
  -0.48           -1.2264e-005    1.2271e-005    
  -0.47           -1.1985e-005    1.2016e-005    
  -0.46           -1.169e-005     1.1728e-005    
  -0.45           -1.1432e-005    1.1443e-005    
  -0.44           -1.1206e-005    1.1193e-005    
  -0.43           -1.0984e-005    1.097e-005     
  -0.42           -1.0728e-005    1.0741e-005    
  -0.41           -1.0444e-005    1.0477e-005    
  -0.4            -1.0161e-005    1.0188e-005    
  -0.39           -9.917e-006     9.9616e-006    
  -0.38           -9.6554e-006    9.6584e-006    
  -0.37           -9.4301e-006    9.4102e-006    
  -0.36           -9.2009e-006    9.1906e-006    
  -0.35           -8.9367e-006    8.9475e-006    
  -0.34           -8.6464e-006    8.6702e-006    
  -0.33           -8.383e-006     8.3874e-006    
  -0.32           -8.1518e-006    8.1373e-006    
  -0.31           -7.9215e-006    7.9114e-006    
  -0.3            -7.661e-006     7.6423e-006    
  -0.29           -7.4103e-006    7.4102e-006    
  -0.28           -7.1365e-006    7.1524e-006    
  -0.27           -6.8609e-006    6.8706e-006    
  -0.26           -6.6097e-006    6.6271e-006    
  -0.25           -6.3504e-006    6.3525e-006    
  -0.24           -6.1151e-006    6.1035e-006    
  -0.23           -5.8766e-006    5.872e-006     
  -0.22           -5.6172e-006    5.6231e-006    
  -0.21           -5.3395e-006    5.3532e-006    
  -0.2            -5.0802e-006    5.0833e-006    
  -0.19           -4.8378e-006    4.831e-006     
  -0.18           -4.5974e-006    4.5942e-006    
  -0.17           -4.3389e-006    4.3302e-006    
  -0.16           -4.0885e-006    4.0885e-006    
  -0.15           -3.8224e-006    3.8296e-006    
  -0.14           -3.5554e-006    3.5588e-006    
  -0.13           -3.3018e-006    3.3008e-006    
  -0.12           -3.0615e-006    3.0571e-006    
  -0.11           -2.8093e-006    2.81e-006      
  -0.1            -2.5482e-006    2.5513e-006    
  -0.09           -2.2838e-006    2.2852e-006    
  -0.08           -2.0315e-006    2.0344e-006    
  -0.07           -1.7748e-006    1.7763e-006    
  -0.06           -1.5231e-006    1.524e-006     
  -0.05           -1.2735e-006    1.276e-006     
  -0.04           -1.0157e-006    1.0176e-006    
  -0.03           -7.637e-007     7.5823e-007    
  -0.02           -5.0496e-007    5.0253e-007    
  -0.01           -2.5221e-007    2.4832e-007    
  0               4.4949e-009     -1.0514e-009   
  0.01            2.5768e-007     -2.5626e-007   
  0.02            5.1063e-007     -5.1563e-007   
  0.03            7.6342e-007     -7.6843e-007   
  0.04            1.0253e-006     -1.0183e-006   
  0.05            1.2832e-006     -1.2743e-006   
  0.06            1.5396e-006     -1.5291e-006   
  0.07            1.792e-006      -1.7904e-006   
  0.08            2.04e-006       -2.0483e-006   
  0.09            2.2915e-006     -2.2993e-006   
  0.1             2.5464e-006     -2.5574e-006   
  0.11            2.801e-006      -2.8001e-006   
  0.12            3.0668e-006     -3.054e-006    
  0.13            3.3286e-006     -3.3187e-006   
  0.14            3.578e-006      -3.5833e-006   
  0.15            3.8191e-006     -3.8345e-006   
  0.16            4.0715e-006     -4.0718e-006   
  0.17            4.3406e-006     -4.3253e-006   
  0.18            4.6073e-006     -4.5927e-006   
  0.19            4.8624e-006     -4.842e-006    
  0.2             5.1163e-006     -5.1143e-006   
  0.21            5.3544e-006     -5.3714e-006   
  0.22            5.5973e-006     -5.611e-006    
  0.23            5.8541e-006     -5.8749e-006   
  0.24            6.1075e-006     -6.1062e-006   
  0.25            6.3833e-006     -6.3616e-006   
  0.26            6.6534e-006     -6.6393e-006   
  0.27            6.8989e-006     -6.9087e-006   
  0.28            7.1269e-006     -7.1528e-006   
  0.29            7.3782e-006     -7.3791e-006   
  0.3             7.6577e-006     -7.6338e-006   
  0.31            7.933e-006      -7.9138e-006   
  0.32            8.1859e-006     -8.1552e-006   
  0.33            8.4411e-006     -8.4394e-006   
  0.34            8.6689e-006     -8.6948e-006   
  0.35            8.9035e-006     -8.9207e-006   
  0.36            9.1717e-006     -9.1566e-006   
  0.37            9.4616e-006     -9.4264e-006   
  0.38            9.7217e-006     -9.718e-006    
  0.39            9.9468e-006     -9.9737e-006   
  0.4             1.01757e-005    -1.02e-005     
  0.41            1.04328e-005    -1.04687e-005  
  0.42            1.06848e-005    -1.06856e-005  
  0.43            1.09727e-005    -1.09411e-005  
  0.44            1.12581e-005    -1.12319e-005  
  0.45            1.1482e-005     -1.1484e-005   
  0.46            1.1769e-005     -1.1727e-005   
  0.47            1.2024e-005     -1.2019e-005   
  0.48            1.2248e-005     -1.2272e-005   
  0.49            1.2471e-005     -1.2492e-005   
  0.5             1.273e-005      -1.2716e-005   
  0.51            1.3022e-005     -1.2975e-005   
  0.52            1.3309e-005     -1.3267e-005   
  0.53            1.3556e-005     -1.3555e-005   
  0.54            1.3764e-005     -1.3801e-005   
  0.55            1.3993e-005     -1.4009e-005   
  0.56            1.4255e-005     -1.4293e-005   
  0.57            1.4503e-005     -1.4499e-005   
  0.58            1.4793e-005     -1.4749e-005   
  0.59            1.5095e-005     -1.5041e-005   
  0.6             1.5352e-005     -1.534e-005    
  0.61            1.5569e-005     -1.5598e-005   
  0.62            1.578e-005      -1.5812e-005   
  0.63            1.6033e-005     -1.6023e-005   
  0.64            1.6337e-005     -1.628e-005    
  0.65            1.6633e-005     -1.6582e-005   
  0.66            1.6881e-005     -1.688e-005    
  0.67            1.7083e-005     -1.7125e-005   
  0.68            1.7301e-005     -1.7327e-005   
  0.69            1.7567e-005     -1.762e-005    
  0.7             1.7809e-005     -1.7811e-005   
  0.71            1.8102e-005     -1.8054e-005   
  0.72            1.8414e-005     -1.8346e-005   
  0.73            1.8683e-005     -1.8666e-005   
  0.74            1.8892e-005     -1.8928e-005   
  0.75            1.9088e-005     -1.9136e-005   
  0.76            1.9338e-005     -1.9332e-005   
  0.77            1.9646e-005     -1.9587e-005   
  0.78            1.9957e-005     -1.9896e-005   
  0.79            2.0207e-005     -2.0207e-005   
  0.8             2.0402e-005     -2.0451e-005   
  0.81            2.0607e-005     -2.0648e-005   
  0.82            2.0875e-005     -2.0855e-005   
  0.83            2.1198e-005     -2.1123e-005   
  0.84            2.1496e-005     -2.1449e-005   
  0.85            2.1739e-005     -2.1658e-005   
  0.86            2.201e-005      -2.1988e-005   
  0.87            2.2212e-005     -2.2254e-005   
  0.88            2.2394e-005     -2.2452e-005   
  0.89            2.2641e-005     -2.264e-005    
  0.9             2.2958e-005     -2.2892e-005   
  0.91            2.3282e-005     -2.3207e-005   
  0.92            2.3534e-005     -2.3528e-005   
  0.93            2.3724e-005     -2.3776e-005   
  0.94            2.3918e-005     -2.3967e-005   
  0.95            2.4184e-005     -2.4163e-005   
  0.96            2.451e-005      -2.443e-005    
  0.97            2.4821e-005     -2.4762e-005   
  0.98            2.5062e-005     -2.4968e-005   
  0.99            2.5336e-005     -2.531e-005    
  1               2.5545e-005     -2.5584e-005   
END_DB

