! VERSION = 6.00
BEGIN_HEADER
 ICCAP_INPUTS
  VU1        V  E GROUND SMU2 0.1 CON        0
  VU2        V  S GROUND SMU3 0.1 CON        0
  V2         V  B GROUND SMU1 0.015 CON        0
  V1         V  C GROUND SMU4 0.015 LIN        1    -1         1          201  0.01      
 ICCAP_OUTPUTS
  I1         I  C GROUND SMU4 B
  I2         I  B GROUND SMU1 B
END_HEADER

BEGIN_DB
 ICCAP_VAR VU1        0              
 ICCAP_VAR VU2        0              
 ICCAP_VAR V2         0              

 #V1              I1              I2             
  -1              -0.00022138     0.00022134     
  -0.99           -0.00022        0.00021972     
  -0.98           -0.00021696     0.0002175      
  -0.97           -0.00021396     0.0002148      
  -0.96           -0.00021134     0.00021158     
  -0.95           -0.00021017     0.00020975     
  -0.94           -0.00020868     0.00020822     
  -0.93           -0.00020636     0.00020659     
  -0.92           -0.0002033      0.00020422     
  -0.91           -0.00020046     0.00020088     
  -0.9            -0.00019819     0.0001981      
  -0.89           -0.00019703     0.00019649     
  -0.88           -0.00019492     0.00019487     
  -0.87           -0.0001922      0.00019271     
  -0.86           -0.00018936     0.0001899      
  -0.85           -0.00018716     0.00018717     
  -0.84           -0.00018565     0.00018513     
  -0.83           -0.00018379     0.00018366     
  -0.82           -0.00018123     0.00018163     
  -0.81           -0.00017835     0.00017901     
  -0.8            -0.00017597     0.00017619     
  -0.79           -0.00017422     0.00017396     
  -0.78           -0.00017253     0.00017226     
  -0.77           -0.00017025     0.00016977     
  -0.76           -0.00016822     0.00016821     
  -0.75           -0.00016548     0.00016596     
  -0.74           -0.00016272     0.00016323     
  -0.73           -0.00016055     0.00016054     
  -0.72           -0.00015894     0.00015852     
  -0.71           -0.000157       0.00015692     
  -0.7            -0.0001545      0.00015489     
  -0.69           -0.00015163     0.00015212     
  -0.68           -0.00014939     0.00014926     
  -0.67           -0.00014761     0.00014732     
  -0.66           -0.00014585     0.00014564     
  -0.65           -0.00014343     0.00014304     
  -0.64           -0.00014139     0.00014142     
  -0.63           -0.00013875     0.00013918     
  -0.62           -0.00013612     0.0001365      
  -0.61           -0.00013406     0.0001346      
  -0.6            -0.0001317      0.0001318      
  -0.59           -0.00012983     0.00012963     
  -0.58           -0.00012806     0.00012779     
  -0.57           -0.00012581     0.00012596     
  -0.56           -0.00012316     0.0001236      
  -0.55           -0.00012067     0.00012091     
  -0.54           -0.0001186      0.00011854     
  -0.53           -0.00011682     0.00011654     
  -0.52           -0.00011472     0.00011478     
  -0.51           -0.00011211     0.00011247     
  -0.5            -0.00010966     0.00010996     
  -0.49           -0.00010747     0.00010748     
  -0.48           -0.0001057      0.00010547     
  -0.47           -0.00010369     0.00010366     
  -0.46           -0.00010122     0.00010155     
  -0.45           -9.8703e-005    9.8932e-005    
  -0.44           -9.6453e-005    9.6525e-005    
  -0.43           -9.4444e-005    9.4206e-005    
  -0.42           -9.2582e-005    9.2283e-005    
  -0.41           -9.0419e-005    9.039e-005     
  -0.4            -8.8016e-005    8.8187e-005    
  -0.39           -8.5544e-005    8.579e-005     
  -0.38           -8.3256e-005    8.3246e-005    
  -0.37           -8.1312e-005    8.1114e-005    
  -0.36           -7.9391e-005    7.9203e-005    
  -0.35           -7.7044e-005    7.7118e-005    
  -0.34           -7.4602e-005    7.482e-005     
  -0.33           -7.2244e-005    7.2395e-005    
  -0.32           -7.0116e-005    7.0073e-005    
  -0.31           -6.8138e-005    6.7941e-005    
  -0.3            -6.6039e-005    6.5939e-005    
  -0.29           -6.3799e-005    6.3595e-005    
  -0.28           -6.1645e-005    6.1628e-005    
  -0.27           -5.9295e-005    5.9423e-005    
  -0.26           -5.6884e-005    5.7063e-005    
  -0.25           -5.4684e-005    5.4704e-005    
  -0.24           -5.2667e-005    5.2543e-005    
  -0.23           -5.0603e-005    5.0457e-005    
  -0.22           -4.8403e-005    4.8418e-005    
  -0.21           -4.6066e-005    4.6194e-005    
  -0.2            -4.3742e-005    4.3838e-005    
  -0.19           -4.159e-005     4.1567e-005    
  -0.18           -3.9529e-005    3.9398e-005    
  -0.17           -3.7414e-005    3.7348e-005    
  -0.16           -3.5189e-005    3.5089e-005    
  -0.15           -3.2993e-005    3.2998e-005    
  -0.14           -3.0706e-005    3.079e-005     
  -0.13           -2.8423e-005    2.8509e-005    
  -0.12           -2.624e-005     2.6255e-005    
  -0.11           -2.4105e-005    2.4022e-005    
  -0.1            -2.1974e-005    2.1922e-005    
  -0.09           -1.9767e-005    1.9779e-005    
  -0.08           -1.7528e-005    1.7568e-005    
  -0.07           -1.5297e-005    1.5327e-005    
  -0.06           -1.3097e-005    1.3108e-005    
  -0.05           -1.0944e-005    1.0918e-005    
  -0.04           -8.7296e-006    8.748e-006     
  -0.03           -6.5698e-006    6.556e-006     
  -0.02           -4.3656e-006    4.3698e-006    
  -0.01           -2.1517e-006    2.1601e-006    
  0               2.3767e-008     -2.5287e-008   
  0.01            2.2277e-006     -2.2297e-006   
  0.02            4.4204e-006     -4.4289e-006   
  0.03            6.5715e-006     -6.5978e-006   
  0.04            8.7646e-006     -8.7544e-006   
  0.05            1.09888e-005    -1.09578e-005  
  0.06            1.316e-005      -1.3194e-005   
  0.07            1.5431e-005     -1.5358e-005   
  0.08            1.7623e-005     -1.761e-005    
  0.09            1.9777e-005     -1.9818e-005   
  0.1             2.1906e-005     -2.1954e-005   
  0.11            2.4117e-005     -2.4071e-005   
  0.12            2.6354e-005     -2.6257e-005   
  0.13            2.8629e-005     -2.8538e-005   
  0.14            3.0822e-005     -3.0828e-005   
  0.15            3.2915e-005     -3.2997e-005   
  0.16            3.5009e-005     -3.5076e-005   
  0.17            3.723e-005      -3.7358e-005   
  0.18            3.9356e-005     -3.9365e-005   
  0.19            4.168e-005      -4.1579e-005   
  0.2             4.3974e-005     -4.3841e-005   
  0.21            4.6238e-005     -4.6207e-005   
  0.22            4.8308e-005     -4.8427e-005   
  0.23            5.0339e-005     -5.0484e-005   
  0.24            5.2435e-005     -5.2455e-005   
  0.25            5.4825e-005     -5.4655e-005   
  0.26            5.7149e-005     -5.7008e-005   
  0.27            5.9387e-005     -5.9363e-005   
  0.28            6.1384e-005     -6.1479e-005   
  0.29            6.3418e-005     -6.3557e-005   
  0.3             6.564e-005      -6.5594e-005   
  0.31            6.8053e-005     -6.7842e-005   
  0.32            7.0463e-005     -7.0335e-005   
  0.33            7.2608e-005     -7.2423e-005   
  0.34            7.4928e-005     -7.4867e-005   
  0.35            7.6925e-005     -7.7092e-005   
  0.36            7.8849e-005     -7.9041e-005   
  0.37            8.0912e-005     -8.0943e-005   
  0.38            8.3298e-005     -8.3101e-005   
  0.39            8.5849e-005     -8.5532e-005   
  0.4             8.7898e-005     -8.8076e-005   
  0.41            8.9876e-005     -9.0247e-005   
  0.42            9.1864e-005     -9.2161e-005   
  0.43            9.4169e-005     -9.3972e-005   
  0.44            9.6686e-005     -9.642e-005    
  0.45            9.8959e-005     -9.878e-005    
  0.46            0.0001008       -0.000100775   
  0.47            0.00010304      -0.00010316    
  0.48            0.00010502      -0.00010501    
  0.49            0.00010769      -0.00010723    
  0.5             0.00011022      -0.00010996    
  0.51            0.00011245      -0.00011189    
  0.52            0.00011463      -0.00011467    
  0.53            0.00011679      -0.00011697    
  0.54            0.00011858      -0.00011876    
  0.55            0.0001207       -0.00012067    
  0.56            0.00012342      -0.00012286    
  0.57            0.00012582      -0.00012568    
  0.58            0.0001277       -0.00012781    
  0.59            0.0001295       -0.00012982    
  0.6             0.00013177      -0.0001317     
  0.61            0.00013426      -0.00013386    
  0.62            0.000137        -0.00013657    
  0.63            0.00013909      -0.00013852    
  0.64            0.00014132      -0.00014121    
  0.65            0.0001433       -0.0001435     
  0.66            0.00014487      -0.00014509    
  0.67            0.00014726      -0.00014717    
  0.68            0.0001498       -0.00014943    
  0.69            0.00015257      -0.00015229    
  0.7             0.0001544       -0.00015465    
  0.71            0.00015613      -0.00015654    
  0.72            0.00015813      -0.00015825    
  0.73            0.00016075      -0.00016029    
  0.74            0.00016358      -0.00016305    
  0.75            0.00016579      -0.00016565    
  0.76            0.00016718      -0.00016756    
  0.77            0.00016893      -0.00016909    
  0.78            0.00017158      -0.00017111    
  0.79            0.00017444      -0.00017377    
  0.8             0.00017687      -0.0001768     
  0.81            0.00017852      -0.00017881    
  0.82            0.00018029      -0.00018067    
  0.83            0.00018256      -0.00018306    
  0.84            0.00018457      -0.00018456    
  0.85            0.00018733      -0.00018675    
  0.86            0.0001901       -0.00018942    
  0.87            0.00019219      -0.00019209    
  0.88            0.0001938       -0.00019436    
  0.89            0.00019569      -0.00019575    
  0.9             0.0001981       -0.00019769    
  0.91            0.00020111      -0.00020035    
  0.92            0.00020368      -0.00020354    
  0.93            0.00020509      -0.00020562    
  0.94            0.0002067       -0.00020701    
  0.95            0.00020898      -0.00020883    
  0.96            0.00021182      -0.00021083    
  0.97            0.0002147       -0.00021438    
  0.98            0.00021642      -0.0002167     
  0.99            0.00021782      -0.00021827    
  1               0.00021981      -0.00021999    
END_DB

