! VERSION = 6.00
BEGIN_HEADER
 ICCAP_INPUTS
  VU1        V  E GROUND SMU2 0.1 CON        0
  VU2        V  S GROUND SMU3 0.1 CON        0
  V2         V  B GROUND SMU4 0.015 CON        0
  V1         V  C GROUND SMU1 0.015 LIN        1    -1         1          201  0.01      
 ICCAP_OUTPUTS
  I1         I  C GROUND SMU1 B
  I2         I  B GROUND SMU4 B
END_HEADER

BEGIN_DB
 ICCAP_VAR VU1        0              
 ICCAP_VAR VU2        0              
 ICCAP_VAR V2         0              

 #V1              I1              I2             
  -1              -0.00012556     0.00012571     
  -0.99           -0.0001244      0.00012487     
  -0.98           -0.00012358     0.00012378     
  -0.97           -0.00012239     0.00012224     
  -0.96           -0.00012079     0.00012061     
  -0.95           -0.00011923     0.00011937     
  -0.94           -0.00011801     0.00011846     
  -0.93           -0.00011718     0.00011746     
  -0.92           -0.00011572     0.00011615     
  -0.91           -0.00011478     0.0001149      
  -0.9            -0.00011349     0.0001133      
  -0.89           -0.00011188     0.00011178     
  -0.88           -0.00011079     0.00011058     
  -0.87           -0.0001092      0.00010928     
  -0.86           -0.00010795     0.00010832     
  -0.85           -0.00010703     0.00010734     
  -0.84           -0.00010559     0.00010602     
  -0.83           -0.00010468     0.00010483     
  -0.82           -0.00010342     0.00010329     
  -0.81           -0.00010186     0.00010176     
  -0.8            -0.00010038     0.00010053     
  -0.79           -9.9621e-005    9.9485e-005    
  -0.78           -9.8253e-005    9.8442e-005    
  -0.77           -9.6806e-005    9.7112e-005    
  -0.76           -9.5873e-005    9.5937e-005    
  -0.75           -9.4661e-005    9.4487e-005    
  -0.74           -9.3191e-005    9.293e-005     
  -0.73           -9.1654e-005    9.163e-005     
  -0.72           -9.0384e-005    9.0586e-005    
  -0.71           -8.9362e-005    8.9589e-005    
  -0.7            -8.8326e-005    8.8328e-005    
  -0.69           -8.704e-005     8.6836e-005    
  -0.68           -8.5544e-005    8.537e-005     
  -0.67           -8.4096e-005    8.4147e-005    
  -0.66           -8.2887e-005    8.3118e-005    
  -0.65           -8.1895e-005    8.2044e-005    
  -0.64           -8.0472e-005    8.073e-005     
  -0.63           -7.9469e-005    7.9521e-005    
  -0.62           -7.8252e-005    7.8107e-005    
  -0.61           -7.6803e-005    7.6599e-005    
  -0.6            -7.5325e-005    7.5314e-005    
  -0.59           -7.4073e-005    7.4247e-005    
  -0.58           -7.3008e-005    7.319e-005     
  -0.57           -7.1925e-005    7.1918e-005    
  -0.56           -7.0643e-005    7.0474e-005    
  -0.55           -6.9183e-005    6.9046e-005    
  -0.54           -6.7774e-005    6.782e-005     
  -0.53           -6.6571e-005    6.676e-005     
  -0.52           -6.5513e-005    6.5638e-005    
  -0.51           -6.4126e-005    6.4333e-005    
  -0.5            -6.3081e-005    6.3127e-005    
  -0.49           -6.1857e-005    6.1748e-005    
  -0.48           -6.0454e-005    6.0286e-005    
  -0.47           -5.9026e-005    5.9005e-005    
  -0.46           -5.7749e-005    5.7877e-005    
  -0.45           -5.664e-005     5.6799e-005    
  -0.44           -5.5528e-005    5.5547e-005    
  -0.43           -5.4261e-005    5.4145e-005    
  -0.42           -5.2863e-005    5.2753e-005    
  -0.41           -5.1478e-005    5.1506e-005    
  -0.4            -5.0243e-005    5.0379e-005    
  -0.39           -4.9129e-005    4.9244e-005    
  -0.38           -4.7974e-005    4.7956e-005    
  -0.37           -4.6678e-005    4.6559e-005    
  -0.36           -4.5276e-005    4.5212e-005    
  -0.35           -4.4107e-005    4.3979e-005    
  -0.34           -4.2711e-005    4.2695e-005    
  -0.33           -4.1438e-005    4.1532e-005    
  -0.32           -4.0277e-005    4.0399e-005    
  -0.31           -3.9128e-005    3.9148e-005    
  -0.3            -3.7877e-005    3.78e-005      
  -0.29           -3.6517e-005    3.6438e-005    
  -0.28           -3.5165e-005    3.5181e-005    
  -0.27           -3.3927e-005    3.4023e-005    
  -0.26           -3.2758e-005    3.284e-005     
  -0.25           -3.1566e-005    3.1561e-005    
  -0.24           -3.0292e-005    3.022e-005     
  -0.23           -2.8933e-005    2.8896e-005    
  -0.22           -2.7729e-005    2.7652e-005    
  -0.21           -2.6389e-005    2.6385e-005    
  -0.2            -2.5118e-005    2.5179e-005    
  -0.19           -2.3916e-005    2.3995e-005    
  -0.18           -2.2731e-005    2.275e-005     
  -0.17           -2.147e-005     2.143e-005     
  -0.16           -2.0161e-005    2.0118e-005    
  -0.15           -1.8852e-005    1.8865e-005    
  -0.14           -1.7598e-005    1.7656e-005    
  -0.13           -1.6391e-005    1.6439e-005    
  -0.12           -1.5166e-005    1.5168e-005    
  -0.11           -1.3892e-005    1.3866e-005    
  -0.1            -1.2598e-005    1.2585e-005    
  -0.09           -1.1361e-005    1.1333e-005    
  -0.08           -1.0062e-005    1.0066e-005    
  -0.07           -8.8608e-006    8.8146e-006    
  -0.06           -7.5818e-006    7.5588e-006    
  -0.05           -6.2985e-006    6.2982e-006    
  -0.04           -5.0508e-006    5.0656e-006    
  -0.03           -3.8046e-006    3.811e-006     
  -0.02           -2.5433e-006    2.5404e-006    
  -0.01           -1.287e-006     1.2812e-006    
  0               -2.3365e-008    2.1548e-008    
  0.01            1.2437e-006     -1.2368e-006   
  0.02            2.4963e-006     -2.4971e-006   
  0.03            3.7646e-006     -3.7597e-006   
  0.04            5.0177e-006     -5.0034e-006   
  0.05            6.249e-006      -6.247e-006    
  0.06            7.5094e-006     -7.5245e-006   
  0.07            8.8029e-006     -8.8117e-006   
  0.08            1.00367e-005    -1.00613e-005  
  0.09            1.1331e-005     -1.13292e-005  
  0.1             1.2533e-005     -1.2594e-005   
  0.11            1.3856e-005     -1.3825e-005   
  0.12            1.5087e-005     -1.5039e-005   
  0.13            1.6301e-005     -1.6288e-005   
  0.14            1.7554e-005     -1.7574e-005   
  0.15            1.8856e-005     -1.8893e-005   
  0.16            2.017e-005      -2.0159e-005   
  0.17            2.1417e-005     -2.136e-005    
  0.18            2.2617e-005     -2.2562e-005   
  0.19            2.3828e-005     -2.3825e-005   
  0.2             2.509e-005      -2.515e-005    
  0.21            2.6436e-005     -2.6464e-005   
  0.22            2.7639e-005     -2.7713e-005   
  0.23            2.8985e-005     -2.8992e-005   
  0.24            3.0265e-005     -3.0199e-005   
  0.25            3.1456e-005     -3.1359e-005   
  0.26            3.2615e-005     -3.2593e-005   
  0.27            3.3869e-005     -3.3924e-005   
  0.28            3.5213e-005     -3.5294e-005   
  0.29            3.6575e-005     -3.6564e-005   
  0.3             3.7821e-005     -3.7726e-005   
  0.31            3.8975e-005     -3.8884e-005   
  0.32            4.0147e-005     -4.015e-005    
  0.33            4.1419e-005     -4.1518e-005   
  0.34            4.2815e-005     -4.2878e-005   
  0.35            4.3987e-005     -4.411e-005    
  0.36            4.5389e-005     -4.5407e-005   
  0.37            4.6679e-005     -4.6585e-005   
  0.38            4.7839e-005     -4.7695e-005   
  0.39            4.8949e-005     -4.8916e-005   
  0.4             5.0194e-005     -5.0281e-005   
  0.41            5.1578e-005     -5.1703e-005   
  0.42            5.2978e-005     -5.297e-005    
  0.43            5.4235e-005     -5.4101e-005   
  0.44            5.5346e-005     -5.5213e-005   
  0.45            5.6468e-005     -5.6479e-005   
  0.46            5.776e-005      -5.7899e-005   
  0.47            5.9204e-005     -5.9295e-005   
  0.48            6.033e-005      -6.0506e-005   
  0.49            6.1799e-005     -6.1828e-005   
  0.5             6.3104e-005     -6.2987e-005   
  0.51            6.4225e-005     -6.4026e-005   
  0.52            6.5282e-005     -6.5241e-005   
  0.53            6.6529e-005     -6.6643e-005   
  0.54            6.7949e-005     -6.8118e-005   
  0.55            6.9394e-005     -6.9389e-005   
  0.56            7.0646e-005     -7.0483e-005   
  0.57            7.1718e-005     -7.1549e-005   
  0.58            7.2802e-005     -7.2806e-005   
  0.59            7.4093e-005     -7.4266e-005   
  0.6             7.5581e-005     -7.5714e-005   
  0.61            7.6994e-005     -7.6938e-005   
  0.62            7.8199e-005     -7.7967e-005   
  0.63            7.9206e-005     -7.9072e-005   
  0.64            8.0619e-005     -8.037e-005    
  0.65            8.1624e-005     -8.1574e-005   
  0.66            8.286e-005      -8.3007e-005   
  0.67            8.4296e-005     -8.4518e-005   
  0.68            8.5806e-005     -8.582e-005    
  0.69            8.7079e-005     -8.6895e-005   
  0.7             8.8115e-005     -8.7888e-005   
  0.71            8.9145e-005     -8.9134e-005   
  0.72            9.0426e-005     -9.0623e-005   
  0.73            9.1938e-005     -9.2119e-005   
  0.74            9.3408e-005     -9.3359e-005   
  0.75            9.4617e-005     -9.4348e-005   
  0.76            9.5569e-005     -9.5397e-005   
  0.77            9.7026e-005     -9.6718e-005   
  0.78            9.797e-005      -9.79e-005     
  0.79            9.9169e-005     -9.934e-005    
  0.8             0.000100659     -0.000100931   
  0.81            0.000102223     -0.000102245   
  0.82            0.000103485     -0.000103257   
  0.83            0.000104481     -0.000104219   
  0.84            0.00010548      -0.000106      
  0.85            0.00010734      -0.00010719    
  0.86            0.00010851      -0.00010812    
  0.87            0.00010939      -0.00010918    
  0.88            0.0001105       -0.00011056    
  0.89            0.000112        -0.00011223    
  0.9             0.00011362      -0.00011357    
  0.91            0.00011489      -0.00011452    
  0.92            0.00011579      -0.00011546    
  0.93            0.00011724      -0.00011679    
  0.94            0.0001181       -0.00011796    
  0.95            0.00011937      -0.00011951    
  0.96            0.00012099      -0.00012112    
  0.97            0.00012251      -0.00012234    
  0.98            0.00012365      -0.00012319    
  0.99            0.00012445      -0.00012425    
  1               0.00012561      -0.00012571    
END_DB

