! VERSION = 6.00
BEGIN_HEADER
 ICCAP_INPUTS
  VU1        V  E GROUND SMU2 0.1 CON        0
  VU2        V  S GROUND SMU3 0.1 CON        0
  V2         V  B GROUND SMU4 0.015 CON        0
  V1         V  C GROUND SMU1 0.015 LIN        1    -1         1          201  0.01      
 ICCAP_OUTPUTS
  I1         I  C GROUND SMU1 B
  I2         I  B GROUND SMU4 B
END_HEADER

BEGIN_DB
 ICCAP_VAR VU1        0              
 ICCAP_VAR VU2        0              
 ICCAP_VAR V2         0              

 #V1              I1              I2             
  -1              -0.00012708     0.00012722     
  -0.99           -0.00012586     0.00012588     
  -0.98           -0.00012443     0.00012412     
  -0.97           -0.00012265     0.00012259     
  -0.96           -0.00012121     0.00012151     
  -0.95           -0.00012024     0.00012077     
  -0.94           -0.00011946     0.0001196      
  -0.93           -0.00011818     0.00011796     
  -0.92           -0.00011649     0.00011629     
  -0.91           -0.00011491     0.00011511     
  -0.9            -0.00011378     0.00011428     
  -0.89           -0.00011302     0.00011323     
  -0.88           -0.00011187     0.00011175     
  -0.87           -0.00011032     0.00011002     
  -0.86           -0.00010863     0.00010869     
  -0.85           -0.00010738     0.00010778     
  -0.84           -0.00010649     0.00010684     
  -0.83           -0.00010501     0.00010549     
  -0.82           -0.00010416     0.00010434     
  -0.81           -0.00010291     0.00010274     
  -0.8            -0.0001013      0.00010112     
  -0.79           -0.000100415    0.00010043     
  -0.78           -9.9083e-005    9.8837e-005    
  -0.77           -9.7604e-005    9.7865e-005    
  -0.76           -9.6604e-005    9.6566e-005    
  -0.75           -9.5267e-005    9.497e-005     
  -0.74           -9.3663e-005    9.346e-005     
  -0.73           -9.2605e-005    9.2265e-005    
  -0.72           -9.098e-005     9.0916e-005    
  -0.71           -8.9642e-005    8.984e-005     
  -0.7            -8.8603e-005    8.893e-005     
  -0.69           -8.7663e-005    8.7721e-005    
  -0.68           -8.644e-005     8.6242e-005    
  -0.67           -8.4927e-005    8.4653e-005    
  -0.66           -8.3361e-005    8.3346e-005    
  -0.65           -8.2103e-005    8.233e-005     
  -0.64           -8.1087e-005    8.1331e-005    
  -0.63           -8.0062e-005    8.0049e-005    
  -0.62           -7.8759e-005    7.8535e-005    
  -0.61           -7.7226e-005    7.7038e-005    
  -0.6            -7.5755e-005    7.5802e-005    
  -0.59           -7.4552e-005    7.4801e-005    
  -0.58           -7.3553e-005    7.3723e-005    
  -0.57           -7.2114e-005    7.2395e-005    
  -0.56           -7.1141e-005    7.1197e-005    
  -0.55           -6.9915e-005    6.9768e-005    
  -0.54           -6.8456e-005    6.8226e-005    
  -0.53           -6.6948e-005    6.6925e-005    
  -0.52           -6.5668e-005    6.5845e-005    
  -0.51           -6.4596e-005    6.4805e-005    
  -0.5            -6.354e-005     6.3548e-005    
  -0.49           -6.2252e-005    6.2084e-005    
  -0.48           -6.0775e-005    6.0623e-005    
  -0.47           -5.935e-005     5.9386e-005    
  -0.46           -5.8119e-005    5.8309e-005    
  -0.45           -5.7061e-005    5.7209e-005    
  -0.44           -5.5931e-005    5.5896e-005    
  -0.43           -5.4607e-005    5.4435e-005    
  -0.42           -5.3133e-005    5.3047e-005    
  -0.41           -5.1999e-005    5.1817e-005    
  -0.4            -5.0536e-005    5.0511e-005    
  -0.39           -4.9249e-005    4.9376e-005    
  -0.38           -4.8123e-005    4.8291e-005    
  -0.37           -4.7016e-005    4.7045e-005    
  -0.36           -4.5755e-005    4.5642e-005    
  -0.35           -4.4344e-005    4.4224e-005    
  -0.34           -4.2944e-005    4.2959e-005    
  -0.33           -4.1704e-005    4.184e-005     
  -0.32           -4.0567e-005    4.0688e-005    
  -0.31           -3.9405e-005    3.9398e-005    
  -0.3            -3.8116e-005    3.8005e-005    
  -0.29           -3.6713e-005    3.6638e-005    
  -0.28           -3.5525e-005    3.54e-005      
  -0.27           -3.4126e-005    3.411e-005     
  -0.26           -3.2836e-005    3.292e-005     
  -0.25           -3.1654e-005    3.1776e-005    
  -0.24           -3.0505e-005    3.053e-005     
  -0.23           -2.9243e-005    2.9175e-005    
  -0.22           -2.7885e-005    2.7806e-005    
  -0.21           -2.6536e-005    2.6546e-005    
  -0.2            -2.5273e-005    2.5354e-005    
  -0.19           -2.4084e-005    2.4161e-005    
  -0.18           -2.289e-005     2.2893e-005    
  -0.17           -2.1606e-005    2.1544e-005    
  -0.16           -2.0276e-005    2.023e-005     
  -0.15           -1.8955e-005    1.8978e-005    
  -0.14           -1.7704e-005    1.7769e-005    
  -0.13           -1.6507e-005    1.6552e-005    
  -0.12           -1.5201e-005    1.5271e-005    
  -0.11           -1.3989e-005    1.4006e-005    
  -0.1            -1.2734e-005    1.271e-005     
  -0.09           -1.1426e-005    1.1394e-005    
  -0.08           -1.0119e-005    1.0124e-005    
  -0.07           -8.9216e-006    8.8639e-006    
  -0.06           -7.5973e-006    7.6142e-006    
  -0.05           -6.3479e-006    6.372e-006     
  -0.04           -5.1074e-006    5.109e-006     
  -0.03           -3.8338e-006    3.8226e-006    
  -0.02           -2.5446e-006    2.545e-006     
  -0.01           -1.2872e-006    1.2926e-006    
  0               -1.9898e-008    2.2827e-008    
  0.01            1.2427e-006     -1.2464e-006   
  0.02            2.5007e-006     -2.4986e-006   
  0.03            3.7688e-006     -3.7731e-006   
  0.04            5.0583e-006     -5.0609e-006   
  0.05            6.301e-006      -6.3195e-006   
  0.06            7.5987e-006     -7.5987e-006   
  0.07            8.8693e-006     -8.8457e-006   
  0.08            1.00891e-005    -1.00707e-005  
  0.09            1.13805e-005    -1.13437e-005  
  0.1             1.2607e-005     -1.268e-005    
  0.11            1.3948e-005     -1.3908e-005   
  0.12            1.5177e-005     -1.5123e-005   
  0.13            1.6395e-005     -1.6385e-005   
  0.14            1.7657e-005     -1.7694e-005   
  0.15            1.8989e-005     -1.9024e-005   
  0.16            2.031e-005      -2.0293e-005   
  0.17            2.1559e-005     -2.1482e-005   
  0.18            2.2744e-005     -2.2688e-005   
  0.19            2.4073e-005     -2.3978e-005   
  0.2             2.5239e-005     -2.5204e-005   
  0.21            2.6482e-005     -2.6522e-005   
  0.22            2.7816e-005     -2.7905e-005   
  0.23            2.9189e-005     -2.9192e-005   
  0.24            3.0469e-005     -3.0396e-005   
  0.25            3.1657e-005     -3.1543e-005   
  0.26            3.2804e-005     -3.2783e-005   
  0.27            3.4071e-005     -3.4144e-005   
  0.28            3.5445e-005     -3.5538e-005   
  0.29            3.6827e-005     -3.681e-005    
  0.3             3.8074e-005     -3.796e-005    
  0.31            3.9212e-005     -3.9107e-005   
  0.32            4.0378e-005     -4.0386e-005   
  0.33            4.1663e-005     -4.1787e-005   
  0.34            4.3098e-005     -4.3178e-005   
  0.35            4.4258e-005     -4.4413e-005   
  0.36            4.5702e-005     -4.5725e-005   
  0.37            4.7008e-005     -4.6906e-005   
  0.38            4.8161e-005     -4.7983e-005   
  0.39            4.9241e-005     -4.92e-005     
  0.4             5.0487e-005     -5.0595e-005   
  0.41            5.1905e-005     -5.2058e-005   
  0.42            5.3347e-005     -5.3343e-005   
  0.43            5.4611e-005     -5.4463e-005   
  0.44            5.5709e-005     -5.5548e-005   
  0.45            5.6807e-005     -5.6809e-005   
  0.46            5.8104e-005     -5.8268e-005   
  0.47            5.9588e-005     -5.971e-005    
  0.48            6.0993e-005     -6.0941e-005   
  0.49            6.2213e-005     -6.1988e-005   
  0.5             6.3237e-005     -6.3108e-005   
  0.51            6.4661e-005     -6.4419e-005   
  0.52            6.5686e-005     -6.5626e-005   
  0.53            6.6914e-005     -6.7051e-005   
  0.54            6.8369e-005     -6.8587e-005   
  0.55            6.9879e-005     -6.9891e-005   
  0.56            7.1165e-005     -7.0983e-005   
  0.57            7.2227e-005     -7.1998e-005   
  0.58            7.3256e-005     -7.324e-005    
  0.59            7.4539e-005     -7.4734e-005   
  0.6             7.6045e-005     -7.6242e-005   
  0.61            7.7536e-005     -7.7499e-005   
  0.62            7.877e-005      -7.852e-005    
  0.63            7.9755e-005     -7.9561e-005   
  0.64            8.0823e-005     -8.0859e-005   
  0.65            8.216e-005      -8.2419e-005   
  0.66            8.3747e-005     -8.3902e-005   
  0.67            8.4799e-005     -8.51e-005     
  0.68            8.6408e-005     -8.6455e-005   
  0.69            8.7732e-005     -8.7524e-005   
  0.7             8.875e-005      -8.8448e-005   
  0.71            8.9708e-005     -8.966e-005    
  0.72            9.0956e-005     -9.1169e-005   
  0.73            9.2497e-005     -9.2766e-005   
  0.74            9.4069e-005     -9.4061e-005   
  0.75            9.532e-005      -9.5053e-005   
  0.76            9.6269e-005     -9.6005e-005   
  0.77            9.7275e-005     -9.7294e-005   
  0.78            9.8592e-005     -9.8882e-005   
  0.79            0.000100218     -0.000100429   
  0.8             0.00010173      -0.000101659   
  0.81            0.000102934     -0.000102601   
  0.82            0.000103813     -0.000103575   
  0.83            0.000105348     -0.00010529    
  0.84            0.00010646      -0.00010672    
  0.85            0.00010812      -0.00010802    
  0.86            0.00010938      -0.00010897    
  0.87            0.0001102       -0.00010987    
  0.88            0.0001117       -0.00011121    
  0.89            0.00011254      -0.00011239    
  0.9             0.00011381      -0.00011401    
  0.91            0.0001155       -0.00011568    
  0.92            0.00011653      -0.00011685    
  0.93            0.00011832      -0.00011826    
  0.94            0.00011958      -0.0001192     
  0.95            0.00012047      -0.00012002    
  0.96            0.00012138      -0.00012132    
  0.97            0.00012274      -0.00012308    
  0.98            0.00012457      -0.00012461    
  0.99            0.00012602      -0.00012569    
  1               0.00012699      -0.00012644    
END_DB

