! VERSION = 6.00
BEGIN_HEADER
 ICCAP_INPUTS
  VU1        V  E GROUND SMU2 0.1 CON        0
  VU2        V  S GROUND SMU3 0.1 CON        0
  V2         V  B GROUND SMU1 0.015 CON        0
  V1         V  C GROUND SMU4 0.015 LIN        1    -1         1          201  0.01      
 ICCAP_OUTPUTS
  I1         I  C GROUND SMU4 B
  I2         I  B GROUND SMU1 B
END_HEADER

BEGIN_DB
 ICCAP_VAR VU1        0              
 ICCAP_VAR VU2        0              
 ICCAP_VAR V2         0              

 #V1              I1              I2             
  -1              -0.00028569     0.00028583     
  -0.99           -0.00028152     0.00028271     
  -0.98           -0.00027748     0.00027824     
  -0.97           -0.00027477     0.00027614     
  -0.96           -0.00027161     0.00027178     
  -0.95           -0.00026977     0.00026891     
  -0.94           -0.00026792     0.00026718     
  -0.93           -0.00026475     0.00026359     
  -0.92           -0.0002621      0.00026198     
  -0.91           -0.00025824     0.00025912     
  -0.9            -0.00025412     0.00025505     
  -0.89           -0.00025135     0.00025121     
  -0.88           -0.00024975     0.00024869     
  -0.87           -0.00024743     0.00024715     
  -0.86           -0.00024394     0.00024457     
  -0.85           -0.00023965     0.00024081     
  -0.84           -0.00023661     0.00023672     
  -0.83           -0.00023464     0.00023386     
  -0.82           -0.00023275     0.00023216     
  -0.81           -0.00022955     0.00022853     
  -0.8            -0.00022693     0.00022682     
  -0.79           -0.00022326     0.00022405     
  -0.78           -0.00021931     0.00022019     
  -0.77           -0.0002165      0.00021643     
  -0.76           -0.00021463     0.00021376     
  -0.75           -0.0002124      0.00021208     
  -0.74           -0.00020903     0.00020959     
  -0.73           -0.00020504     0.00020599     
  -0.72           -0.00020196     0.0002021      
  -0.71           -0.00019987     0.00019927     
  -0.7            -0.00019788     0.00019734     
  -0.69           -0.0001948      0.00019396     
  -0.68           -0.00019219     0.00019215     
  -0.67           -0.0001886      0.00018925     
  -0.66           -0.00018483     0.00018554     
  -0.65           -0.00018204     0.00018201     
  -0.64           -0.00018008     0.00017935     
  -0.63           -0.00017773     0.00017747     
  -0.62           -0.00017451     0.00017492     
  -0.61           -0.00017065     0.00017152     
  -0.6            -0.00016763     0.00016783     
  -0.59           -0.00016539     0.00016495     
  -0.58           -0.0001633      0.00016282     
  -0.57           -0.00016038     0.00016059     
  -0.56           -0.00015669     0.00015747     
  -0.55           -0.00015342     0.00015373     
  -0.54           -0.00015094     0.00015066     
  -0.53           -0.00014896     0.00014836     
  -0.52           -0.00014617     0.00014618     
  -0.51           -0.00014274     0.00014333     
  -0.5            -0.00013932     0.00013979     
  -0.49           -0.00013662     0.00013732     
  -0.48           -0.00013368     0.00013385     
  -0.47           -0.00013135     0.00013101     
  -0.46           -0.0001291      0.00012874     
  -0.45           -0.00012622     0.00012643     
  -0.44           -0.00012275     0.00012335     
  -0.43           -0.00011958     0.00011986     
  -0.42           -0.00011707     0.00011685     
  -0.41           -0.00011491     0.00011447     
  -0.4            -0.00011214     0.00011216     
  -0.39           -0.00010886     0.00010931     
  -0.38           -0.00010557     0.00010597     
  -0.37           -0.00010291     0.00010346     
  -0.36           -0.000100933    0.00010015     
  -0.35           -9.743e-005     9.7225e-005    
  -0.34           -9.5113e-005    9.4682e-005    
  -0.33           -9.2435e-005    9.2363e-005    
  -0.32           -8.9404e-005    8.9646e-005    
  -0.31           -8.6143e-005    8.6535e-005    
  -0.3            -8.325e-005     8.3308e-005    
  -0.29           -8.0745e-005    8.0492e-005    
  -0.28           -7.832e-005     7.8007e-005    
  -0.27           -7.5523e-005    7.5523e-005    
  -0.26           -7.2432e-005    7.2698e-005    
  -0.25           -6.9354e-005    6.9602e-005    
  -0.24           -6.6583e-005    6.6566e-005    
  -0.23           -6.408e-005     6.3843e-005    
  -0.22           -6.15e-005      6.1336e-005    
  -0.21           -5.8643e-005    5.8697e-005    
  -0.2            -5.5584e-005    5.5847e-005    
  -0.19           -5.2652e-005    5.279e-005     
  -0.18           -4.9915e-005    5.0154e-005    
  -0.17           -4.7079e-005    4.7123e-005    
  -0.16           -4.4459e-005    4.4333e-005    
  -0.15           -4.1883e-005    4.1714e-005    
  -0.14           -3.9094e-005    3.9094e-005    
  -0.13           -3.6161e-005    3.6288e-005    
  -0.12           -3.3245e-005    3.3368e-005    
  -0.11           -3.0467e-005    3.0466e-005    
  -0.1            -2.7793e-005    2.7698e-005    
  -0.09           -2.5102e-005    2.5045e-005    
  -0.08           -2.2285e-005    2.2314e-005    
  -0.07           -1.9406e-005    1.9505e-005    
  -0.06           -1.6583e-005    1.6628e-005    
  -0.05           -1.3825e-005    1.3895e-005    
  -0.04           -1.103e-005     1.1047e-005    
  -0.03           -8.2788e-006    8.3496e-006    
  -0.02           -5.5105e-006    5.5307e-006    
  -0.01           -2.7298e-006    2.7278e-006    
  0               2.7978e-008     -2.6132e-008   
  0.01            2.8213e-006     -2.8026e-006   
  0.02            5.5765e-006     -5.5774e-006   
  0.03            8.3502e-006     -8.3288e-006   
  0.04            1.11942e-005    -1.11437e-005  
  0.05            1.3956e-005     -1.3932e-005   
  0.06            1.6807e-005     -1.676e-005    
  0.07            1.9573e-005     -1.9474e-005   
  0.08            2.2387e-005     -2.2366e-005   
  0.09            2.511e-005      -2.5183e-005   
  0.1             2.7767e-005     -2.7882e-005   
  0.11            3.0504e-005     -3.0511e-005   
  0.12            3.341e-005      -3.3289e-005   
  0.13            3.6358e-005     -3.6219e-005   
  0.14            3.9158e-005     -3.9162e-005   
  0.15            4.1795e-005     -4.1941e-005   
  0.16            4.4389e-005     -4.4535e-005   
  0.17            4.7194e-005     -4.7159e-005   
  0.18            5.0194e-005     -4.9981e-005   
  0.19            5.318e-005      -5.3032e-005   
  0.2             5.5909e-005     -5.5639e-005   
  0.21            5.877e-005      -5.8723e-005   
  0.22            6.1398e-005     -6.1575e-005   
  0.23            6.3875e-005     -6.4141e-005   
  0.24            6.6601e-005     -6.6621e-005   
  0.25            6.9647e-005     -6.9406e-005   
  0.26            7.2757e-005     -7.2472e-005   
  0.27            7.5561e-005     -7.558e-005    
  0.28            7.8062e-005     -7.835e-005    
  0.29            8.0526e-005     -8.0784e-005   
  0.3             8.3368e-005     -8.3309e-005   
  0.31            8.6537e-005     -8.6189e-005   
  0.32            8.9641e-005     -8.9388e-005   
  0.33            9.2357e-005     -9.1918e-005   
  0.34            9.5288e-005     -9.5202e-005   
  0.35            9.7827e-005     -9.8104e-005   
  0.36            0.00010085      -0.000100589   
  0.37            0.00010373      -0.00010325    
  0.38            0.00010654      -0.00010652    
  0.39            0.00010889      -0.00010926    
  0.4             0.00011131      -0.00011151    
  0.41            0.00011428      -0.00011402    
  0.42            0.00011779      -0.00011716    
  0.43            0.00012078      -0.0001206     
  0.44            0.00012321      -0.00012355    
  0.45            0.00012542      -0.00012582    
  0.46            0.00012827      -0.00012811    
  0.47            0.00013163      -0.00013103    
  0.48            0.00013497      -0.00013456    
  0.49            0.00013757      -0.00013773    
  0.5             0.00013959      -0.00014017    
  0.51            0.00014223      -0.00014226    
  0.52            0.00014561      -0.00014509    
  0.53            0.00014912      -0.00014856    
  0.54            0.00015186      -0.00015194    
  0.55            0.00015396      -0.00015457    
  0.56            0.00015638      -0.00015652    
  0.57            0.00015962      -0.00015914    
  0.58            0.00016332      -0.00016254    
  0.59            0.00016626      -0.00016614    
  0.6             0.0001684       -0.00016899    
  0.61            0.00017061      -0.00017099    
  0.62            0.00017355      -0.00017429    
  0.63            0.00017619      -0.00017624    
  0.64            0.00017982      -0.0001791     
  0.65            0.00018347      -0.00018281    
  0.66            0.00018618      -0.00018631    
  0.67            0.00018804      -0.00018885    
  0.68            0.00019044      -0.0001906     
  0.69            0.00019391      -0.00019329    
  0.7             0.00019783      -0.00019692    
  0.71            0.00020075      -0.00020068    
  0.72            0.00020276      -0.00020349    
  0.73            0.00020489      -0.00020538    
  0.74            0.0002079       -0.0002088     
  0.75            0.00021059      -0.00021062    
  0.76            0.00021443      -0.00021355    
  0.77            0.00021818      -0.00021747    
  0.78            0.0002209       -0.00021982    
  0.79            0.00022404      -0.00022384    
  0.8             0.00022608      -0.00022678    
  0.81            0.000228        -0.00022868    
  0.82            0.00023104      -0.00023074    
  0.83            0.00023511      -0.00023401    
  0.84            0.0002387       -0.00023829    
  0.85            0.00024107      -0.00024155    
  0.86            0.00024261      -0.00024369    
  0.87            0.00024537      -0.00024543    
  0.88            0.00024929      -0.00024832    
  0.89            0.00025331      -0.00025247    
  0.9             0.00025603      -0.00025473    
  0.91            0.00025927      -0.00025902    
  0.92            0.00026127      -0.00026209    
  0.93            0.00026297      -0.00026385    
  0.94            0.000266        -0.00026573    
  0.95            0.00027032      -0.00026905    
  0.96            0.00027403      -0.00027352    
  0.97            0.00027641      -0.00027695    
  0.98            0.00027782      -0.00027901    
  0.99            0.00028051      -0.00028057    
  1               0.00028458      -0.00028352    
END_DB

