! VERSION = 6.00
BEGIN_HEADER
 ICCAP_INPUTS
  VU1        V  E GROUND SMU2 0.1 CON        0
  VU2        V  S GROUND SMU3 0.1 CON        0
  V2         V  B GROUND SMU1 0.015 CON        0
  V1         V  C GROUND SMU4 0.015 LIN        1    -1         1          201  0.01      
 ICCAP_OUTPUTS
  I1         I  C GROUND SMU4 B
  I2         I  B GROUND SMU1 B
END_HEADER

BEGIN_DB
 ICCAP_VAR VU1        0              
 ICCAP_VAR VU2        0              
 ICCAP_VAR V2         0              

 #V1              I1              I2             
  -1              -2.4253e-005    2.3995e-005    
  -0.99           -2.3983e-005    2.385e-005     
  -0.98           -2.3774e-005    2.3757e-005    
  -0.97           -2.3437e-005    2.3534e-005    
  -0.96           -2.3049e-005    2.3177e-005    
  -0.95           -2.279e-005     2.281e-005     
  -0.94           -2.266e-005     2.2571e-005    
  -0.93           -2.2543e-005    2.2448e-005    
  -0.92           -2.2296e-005    2.2311e-005    
  -0.91           -2.1946e-005    2.2054e-005    
  -0.9            -2.1596e-005    2.1688e-005    
  -0.89           -2.1371e-005    2.1357e-005    
  -0.88           -2.1254e-005    2.1146e-005    
  -0.87           -2.1097e-005    2.1037e-005    
  -0.86           -2.0828e-005    2.0715e-005    
  -0.85           -2.0617e-005    2.0603e-005    
  -0.84           -2.0295e-005    2.0374e-005    
  -0.83           -1.9924e-005    2.0039e-005    
  -0.82           -1.9668e-005    1.969e-005     
  -0.81           -1.9518e-005    1.9446e-005    
  -0.8            -1.9388e-005    1.9304e-005    
  -0.79           -1.9146e-005    1.9156e-005    
  -0.78           -1.881e-005     1.8902e-005    
  -0.77           -1.8473e-005    1.8556e-005    
  -0.76           -1.8247e-005    1.8236e-005    
  -0.75           -1.8104e-005    1.8019e-005    
  -0.74           -1.7942e-005    1.7892e-005    
  -0.73           -1.7674e-005    1.7579e-005    
  -0.72           -1.746e-005     1.7449e-005    
  -0.71           -1.7158e-005    1.7223e-005    
  -0.7            -1.6807e-005    1.6908e-005    
  -0.69           -1.6547e-005    1.6567e-005    
  -0.68           -1.6375e-005    1.6321e-005    
  -0.67           -1.6234e-005    1.6159e-005    
  -0.66           -1.5998e-005    1.6005e-005    
  -0.65           -1.568e-005     1.5754e-005    
  -0.64           -1.5354e-005    1.5428e-005    
  -0.63           -1.5119e-005    1.5119e-005    
  -0.62           -1.4962e-005    1.4895e-005    
  -0.61           -1.4788e-005    1.4744e-005    
  -0.6            -1.4531e-005    1.4554e-005    
  -0.59           -1.4204e-005    1.4286e-005    
  -0.58           -1.391e-005     1.3953e-005    
  -0.57           -1.3687e-005    1.377e-005     
  -0.56           -1.3429e-005    1.3445e-005    
  -0.55           -1.3241e-005    1.3199e-005    
  -0.54           -1.308e-005     1.3022e-005    
  -0.53           -1.2847e-005    1.2851e-005    
  -0.52           -1.2544e-005    1.2601e-005    
  -0.51           -1.2236e-005    1.2295e-005    
  -0.5            -1.1997e-005    1.2e-005       
  -0.49           -1.182e-005     1.1772e-005    
  -0.48           -1.1633e-005    1.1598e-005    
  -0.47           -1.1379e-005    1.14e-005      
  -0.46           -1.1075e-005    1.114e-005     
  -0.45           -1.0792e-005    1.0827e-005    
  -0.44           -1.0564e-005    1.063e-005     
  -0.43           -1.0307e-005    1.0325e-005    
  -0.42           -1.0109e-005    1.0079e-005    
  -0.41           -9.8492e-006    9.931e-006     
  -0.4            -9.6801e-006    9.6254e-006    
  -0.39           -9.458e-006     9.45e-006      
  -0.38           -9.1707e-006    9.2076e-006    
  -0.37           -8.877e-006     8.9111e-006    
  -0.36           -8.6467e-006    8.697e-006     
  -0.35           -8.3932e-006    8.3999e-006    
  -0.34           -8.1953e-006    8.1618e-006    
  -0.33           -7.998e-006     7.9739e-006    
  -0.32           -7.7497e-006    7.7093e-006    
  -0.31           -7.5146e-006    7.5134e-006    
  -0.3            -7.2316e-006    7.2646e-006    
  -0.29           -6.954e-006     6.9739e-006    
  -0.28           -6.7281e-006    6.7148e-006    
  -0.27           -6.5358e-006    6.5014e-006    
  -0.26           -6.302e-006     6.2999e-006    
  -0.25           -6.0278e-006    6.0539e-006    
  -0.24           -5.7567e-006    5.7757e-006    
  -0.23           -5.5226e-006    5.5525e-006    
  -0.22           -5.2747e-006    5.2775e-006    
  -0.21           -5.0623e-006    5.0406e-006    
  -0.2            -4.8479e-006    4.8357e-006    
  -0.19           -4.597e-006     4.6069e-006    
  -0.18           -4.322e-006     4.3454e-006    
  -0.17           -4.074e-006     4.0774e-006    
  -0.16           -3.8549e-006    3.8405e-006    
  -0.15           -3.6338e-006    3.6251e-006    
  -0.14           -3.3875e-006    3.372e-006     
  -0.13           -3.1488e-006    3.1487e-006    
  -0.12           -2.8921e-006    2.9045e-006    
  -0.11           -2.6359e-006    2.6424e-006    
  -0.1            -2.3985e-006    2.3957e-006    
  -0.09           -2.1741e-006    2.165e-006     
  -0.08           -1.9361e-006    1.9355e-006    
  -0.07           -1.6874e-006    1.6927e-006    
  -0.06           -1.4361e-006    1.4393e-006    
  -0.05           -1.1976e-006    1.2031e-006    
  -0.04           -9.5868e-007    9.6503e-007    
  -0.03           -7.2373e-007    7.2336e-007    
  -0.02           -4.8178e-007    4.8135e-007    
  -0.01           -2.3759e-007    2.3607e-007    
  0               9.116e-010      -1.0585e-009   
  0.01            2.424e-007      -2.4489e-007   
  0.02            4.8537e-007     -4.8265e-007   
  0.03            7.2846e-007     -7.21e-007     
  0.04            9.7067e-007     -9.6946e-007   
  0.05            1.2072e-006     -1.2033e-006   
  0.06            1.443e-006      -1.4472e-006   
  0.07            1.6883e-006     -1.6806e-006   
  0.08            1.9424e-006     -1.9282e-006   
  0.09            2.1846e-006     -2.1836e-006   
  0.1             2.4124e-006     -2.426e-006    
  0.11            2.6415e-006     -2.6506e-006   
  0.12            2.8908e-006     -2.8813e-006   
  0.13            3.1543e-006     -3.1324e-006   
  0.14            3.3986e-006     -3.3967e-006   
  0.15            3.6199e-006     -3.6393e-006   
  0.16            3.8419e-006     -3.8582e-006   
  0.17            4.0851e-006     -4.1103e-006   
  0.18            4.3239e-006     -4.3236e-006   
  0.19            4.5925e-006     -4.5664e-006   
  0.2             4.8541e-006     -4.8365e-006   
  0.21            5.0829e-006     -5.0961e-006   
  0.22            5.287e-006      -5.3205e-006   
  0.23            5.5229e-006     -5.5251e-006   
  0.24            5.7952e-006     -5.7649e-006   
  0.25            6.0662e-006     -6.0423e-006   
  0.26            6.3055e-006     -6.2663e-006   
  0.27            6.5493e-006     -6.5487e-006   
  0.28            6.7519e-006     -6.7886e-006   
  0.29            6.9608e-006     -6.9843e-006   
  0.3             7.2188e-006     -7.1999e-006   
  0.31            7.5154e-006     -7.4668e-006   
  0.32            7.7669e-006     -7.7609e-006   
  0.33            7.9623e-006     -8.0013e-006   
  0.34            8.1623e-006     -8.1928e-006   
  0.35            8.4092e-006     -8.4594e-006   
  0.36            8.6462e-006     -8.6468e-006   
  0.37            8.9374e-006     -8.8895e-006   
  0.38            9.2224e-006     -9.1925e-006   
  0.39            9.4415e-006     -9.4654e-006   
  0.4             9.6127e-006     -9.6724e-006   
  0.41            9.8432e-006     -9.8473e-006   
  0.42            1.01414e-005    -1.00905e-005  
  0.43            1.04351e-005    -1.03964e-005  
  0.44            1.06709e-005    -1.06079e-005  
  0.45            1.09176e-005    -1.0917e-005   
  0.46            1.10923e-005    -1.11512e-005  
  0.47            1.12836e-005    -1.13204e-005  
  0.48            1.1528e-005     -1.1648e-005   
  0.49            1.1794e-005     -1.1761e-005   
  0.5             1.2117e-005     -1.2034e-005   
  0.51            1.2384e-005     -1.2357e-005   
  0.52            1.259e-005      -1.2623e-005   
  0.53            1.2749e-005     -1.2821e-005   
  0.54            1.2968e-005     -1.2976e-005   
  0.55            1.3262e-005     -1.3202e-005   
  0.56            1.3588e-005     -1.3505e-005   
  0.57            1.3842e-005     -1.3826e-005   
  0.58            1.4025e-005     -1.408e-005    
  0.59            1.4183e-005     -1.4252e-005   
  0.6             1.442e-005      -1.4416e-005   
  0.61            1.4735e-005     -1.4661e-005   
  0.62            1.5056e-005     -1.4981e-005   
  0.63            1.5287e-005     -1.5291e-005   
  0.64            1.5449e-005     -1.5522e-005   
  0.65            1.5622e-005     -1.5676e-005   
  0.66            1.588e-005      -1.5855e-005   
  0.67            1.6216e-005     -1.6117e-005   
  0.68            1.6517e-005     -1.6463e-005   
  0.69            1.6746e-005     -1.664e-005    
  0.7             1.7002e-005     -1.6983e-005   
  0.71            1.7172e-005     -1.7237e-005   
  0.72            1.7308e-005     -1.7395e-005   
  0.73            1.7544e-005     -1.754e-005    
  0.74            1.7873e-005     -1.7782e-005   
  0.75            1.8206e-005     -1.8117e-005   
  0.76            1.8442e-005     -1.8445e-005   
  0.77            1.8587e-005     -1.8674e-005   
  0.78            1.8742e-005     -1.8812e-005   
  0.79            1.9003e-005     -1.8974e-005   
  0.8             1.9355e-005     -1.9243e-005   
  0.81            1.9673e-005     -1.9608e-005   
  0.82            1.9895e-005     -1.977e-005    
  0.83            2.016e-005      -2.0135e-005   
  0.84            2.0314e-005     -2.0391e-005   
  0.85            2.0436e-005     -2.054e-005    
  0.86            2.0666e-005     -2.0667e-005   
  0.87            2.1007e-005     -2.0908e-005   
  0.88            2.1363e-005     -2.1257e-005   
  0.89            2.1598e-005     -2.1601e-005   
  0.9             2.1732e-005     -2.1832e-005   
  0.91            2.1868e-005     -2.1951e-005   
  0.92            2.2132e-005     -2.2099e-005   
  0.93            2.2502e-005     -2.237e-005    
  0.94            2.2833e-005     -2.2755e-005   
  0.95            2.3046e-005     -2.2903e-005   
  0.96            2.3325e-005     -2.3291e-005   
  0.97            2.3472e-005     -2.3556e-005   
  0.98            2.3565e-005     -2.3695e-005   
  0.99            2.3787e-005     -2.3797e-005   
  1               2.4141e-005     -2.403e-005    
END_DB

