! VERSION = 6.00
BEGIN_HEADER
 ICCAP_INPUTS
  VU1        V  E GROUND SMU2 0.1 CON        0
  VU2        V  S GROUND SMU3 0.1 CON        0
  V2         V  B GROUND SMU4 0.015 CON        0
  V1         V  C GROUND SMU1 0.015 LIN        1    -1         1          201  0.01      
 ICCAP_OUTPUTS
  I1         I  C GROUND SMU1 B
  I2         I  B GROUND SMU4 B
END_HEADER

BEGIN_DB
 ICCAP_VAR VU1        0              
 ICCAP_VAR VU2        0              
 ICCAP_VAR V2         0              

 #V1              I1              I2             
  -1              -0.0010024      0.0010006      
  -0.99           -0.00099274     0.00098974     
  -0.98           -0.000979       0.00097884     
  -0.97           -0.00096849     0.00097014     
  -0.96           -0.00096017     0.00096189     
  -0.95           -0.00095141     0.0009511      
  -0.94           -0.00094018     0.00093811     
  -0.93           -0.00092705     0.00092642     
  -0.92           -0.00091607     0.00091728     
  -0.91           -0.00090728     0.00090941     
  -0.9            -0.00089889     0.0008991      
  -0.89           -0.00088844     0.00088689     
  -0.88           -0.00087597     0.00087487     
  -0.87           -0.00086675     0.00086484     
  -0.86           -0.00085423     0.0008541      
  -0.85           -0.00084395     0.00084548     
  -0.84           -0.00083558     0.00083709     
  -0.83           -0.00082413     0.00082628     
  -0.82           -0.00081601     0.00081648     
  -0.81           -0.00080596     0.00080472     
  -0.8            -0.00079382     0.0007925      
  -0.79           -0.00078214     0.00078259     
  -0.78           -0.00077243     0.00077417     
  -0.77           -0.0007644      0.000765       
  -0.76           -0.00075482     0.00075394     
  -0.75           -0.00074332     0.00074163     
  -0.74           -0.00073134     0.00073128     
  -0.73           -0.00072118     0.00072262     
  -0.72           -0.00071269     0.00071389     
  -0.71           -0.00070165     0.00070341     
  -0.7            -0.00069325     0.00069364     
  -0.69           -0.00068313     0.00068215     
  -0.68           -0.00067153     0.00067047     
  -0.67           -0.00066022     0.00066059     
  -0.66           -0.00065052     0.00065206     
  -0.65           -0.00064239     0.00064299     
  -0.64           -0.00063275     0.00063211     
  -0.63           -0.00062162     0.00062027     
  -0.62           -0.00061008     0.00060999     
  -0.61           -0.00060001     0.00060111     
  -0.6            -0.00059134     0.00059245     
  -0.59           -0.00058243     0.00058223     
  -0.58           -0.00057182     0.00057065     
  -0.57           -0.00056015     0.00055981     
  -0.56           -0.00054983     0.00055066     
  -0.55           -0.00054078     0.00054206     
  -0.54           -0.00053202     0.00053217     
  -0.53           -0.000522       0.00052105     
  -0.52           -0.00051075     0.00051008     
  -0.51           -0.00050135     0.00050032     
  -0.5            -0.00049021     0.00049017     
  -0.49           -0.00048018     0.00048111     
  -0.48           -0.00047134     0.00047222     
  -0.47           -0.00046229     0.0004622      
  -0.46           -0.000452       0.00045114     
  -0.45           -0.00044076     0.00044054     
  -0.44           -0.00043062     0.00043123     
  -0.43           -0.00042134     0.00042247     
  -0.42           -0.00041254     0.00041277     
  -0.41           -0.00040266     0.00040199     
  -0.4            -0.00039175     0.00039126     
  -0.39           -0.0003824      0.00038161     
  -0.38           -0.00037157     0.00037149     
  -0.37           -0.00036161     0.00036233     
  -0.36           -0.00035261     0.00035329     
  -0.35           -0.00034335     0.00034333     
  -0.34           -0.00033325     0.00033263     
  -0.33           -0.0003225      0.00032239     
  -0.32           -0.00031239     0.00031286     
  -0.31           -0.0003031      0.0003039      
  -0.3            -0.00029404     0.00029424     
  -0.29           -0.00028414     0.00028371     
  -0.28           -0.00027366     0.00027329     
  -0.27           -0.00026417     0.00026364     
  -0.26           -0.00025369     0.00025371     
  -0.25           -0.00024385     0.00024445     
  -0.24           -0.00023465     0.00023519     
  -0.23           -0.00022526     0.00022528     
  -0.22           -0.00021523     0.00021486     
  -0.21           -0.00020488     0.00020482     
  -0.2            -0.00019496     0.00019532     
  -0.19           -0.00018548     0.000186       
  -0.18           -0.00017617     0.00017634     
  -0.17           -0.00016634     0.00016613     
  -0.16           -0.00015625     0.00015609     
  -0.15           -0.00014661     0.0001464      
  -0.14           -0.00013644     0.00013652     
  -0.13           -0.00012671     0.00012705     
  -0.12           -0.00011723     0.00011755     
  -0.11           -0.00010765     0.00010771     
  -0.1            -9.7539e-005    9.7675e-005    
  -0.09           -8.7901e-005    8.773e-005     
  -0.08           -7.7963e-005    7.8006e-005    
  -0.07           -6.8333e-005    6.8446e-005    
  -0.06           -5.8718e-005    5.8806e-005    
  -0.05           -4.8853e-005    4.8986e-005    
  -0.04           -3.9271e-005    3.9286e-005    
  -0.03           -2.9495e-005    2.9452e-005    
  -0.02           -1.9659e-005    1.9622e-005    
  -0.01           -9.9375e-006    9.9622e-006    
  0               -1.1525e-007    1.1663e-007    
  0.01            9.5753e-006     -9.6202e-006   
  0.02            1.9309e-005     -1.9261e-005   
  0.03            2.9046e-005     -2.9093e-005   
  0.04            3.8898e-005     -3.8923e-005   
  0.05            4.8632e-005     -4.8561e-005   
  0.06            5.8313e-005     -5.8185e-005   
  0.07            6.7944e-005     -6.7928e-005   
  0.08            7.7623e-005     -7.7727e-005   
  0.09            8.7529e-005     -8.7688e-005   
  0.1             9.7501e-005     -9.747e-005    
  0.11            0.000107188     -0.000106982   
  0.12            0.00011666      -0.00011674    
  0.13            0.0001267       -0.00012681    
  0.14            0.00013668      -0.00013651    
  0.15            0.00014637      -0.00014593    
  0.16            0.00015574      -0.00015549    
  0.17            0.00016529      -0.00016539    
  0.18            0.00017537      -0.0001757     
  0.19            0.00018561      -0.00018556    
  0.2             0.00019535      -0.0001949     
  0.21            0.00020467      -0.00020428    
  0.22            0.00021415      -0.00021415    
  0.23            0.00022411      -0.00022449    
  0.24            0.00023455      -0.00023461    
  0.25            0.00024458      -0.00024414    
  0.26            0.00025385      -0.00025319    
  0.27            0.00026307      -0.00026298    
  0.28            0.00027294      -0.00027329    
  0.29            0.00028347      -0.00028377    
  0.3             0.00029284      -0.00029344    
  0.31            0.00030348      -0.00030344    
  0.32            0.00031337      -0.00031271    
  0.33            0.00032243      -0.0003218     
  0.34            0.00033168      -0.00033169    
  0.35            0.00034179      -0.00034246    
  0.36            0.00035256      -0.00035275    
  0.37            0.00036281      -0.00036223    
  0.38            0.00037211      -0.00037114    
  0.39            0.000381        -0.0003808     
  0.4             0.0003909       -0.00039152    
  0.41            0.0004018       -0.00040229    
  0.42            0.00041105      -0.00041194    
  0.43            0.00042214      -0.00042215    
  0.44            0.00043215      -0.00043137    
  0.45            0.00044111      -0.00044025    
  0.46            0.00045015      -0.00045021    
  0.47            0.00046036      -0.0004613     
  0.48            0.00047153      -0.00047189    
  0.49            0.00048201      -0.00048139    
  0.5             0.00049127      -0.00049       
  0.51            0.00049985      -0.00049963    
  0.52            0.00050982      -0.00051063    
  0.53            0.00052112      -0.00052177    
  0.54            0.00053033      -0.00053149    
  0.55            0.00054182      -0.00054195    
  0.56            0.00055195      -0.00055103    
  0.57            0.00056086      -0.00055973    
  0.58            0.00056972      -0.00056979    
  0.59            0.00058008      -0.00058122    
  0.6             0.00059172      -0.00059221    
  0.61            0.00060236      -0.00060161    
  0.62            0.00061152      -0.00061003    
  0.63            0.00062001      -0.00061974    
  0.64            0.00063008      -0.00063103    
  0.65            0.00064164      -0.00064258    
  0.66            0.0006529       -0.00065241    
  0.67            0.00066234      -0.00066076    
  0.68            0.0006706       -0.00067008    
  0.69            0.00068022      -0.00068106    
  0.7             0.0006916       -0.00069297    
  0.71            0.00070339      -0.00070324    
  0.72            0.00071344      -0.00071187    
  0.73            0.00072176      -0.00072065    
  0.74            0.00073293      -0.00073115    
  0.75            0.0007412       -0.00074101    
  0.76            0.00075158      -0.00075275    
  0.77            0.00076349      -0.00076452    
  0.78            0.00077275      -0.00077448    
  0.79            0.00078499      -0.00078519    
  0.8             0.00079548      -0.00079393    
  0.81            0.00080387      -0.00080245    
  0.82            0.00081256      -0.00081286    
  0.83            0.00082342      -0.0008252     
  0.84            0.00083609      -0.00083662    
  0.85            0.00084712      -0.00084608    
  0.86            0.00085612      -0.00085407    
  0.87            0.00086428      -0.000864      
  0.88            0.00087453      -0.000876      
  0.89            0.000887        -0.00088829    
  0.9             0.00089623      -0.00089829    
  0.91            0.00090891      -0.00090913    
  0.92            0.00091954      -0.00091794    
  0.93            0.00092797      -0.00092623    
  0.94            0.00093642      -0.00093654    
  0.95            0.00094735      -0.00094935    
  0.96            0.00096043      -0.00096138    
  0.97            0.0009719       -0.00097082    
  0.98            0.00098097      -0.00097859    
  0.99            0.00098889      -0.00098841    
  1               0.00099919      -0.00100064    
END_DB

