! VERSION = 6.00
BEGIN_HEADER
 ICCAP_INPUTS
  VU1        V  E GROUND SMU2 0.1 CON        0
  VU2        V  S GROUND SMU3 0.1 CON        0
  V2         V  B GROUND SMU1 0.015 CON        0
  V1         V  C GROUND SMU4 0.015 LIN        1    -1         1          201  0.01      
 ICCAP_OUTPUTS
  I1         I  C GROUND SMU4 B
  I2         I  B GROUND SMU1 B
END_HEADER

BEGIN_DB
 ICCAP_VAR VU1        0              
 ICCAP_VAR VU2        0              
 ICCAP_VAR V2         0              

 #V1              I1              I2             
  -1              -0.00012353     0.00012357     
  -0.99           -0.00012305     0.00012247     
  -0.98           -0.00012203     0.00012198     
  -0.97           -0.00012026     0.00012076     
  -0.96           -0.00011836     0.00011892     
  -0.95           -0.00011716     0.00011714     
  -0.94           -0.0001165      0.00011601     
  -0.93           -0.00011569     0.00011548     
  -0.92           -0.00011414     0.00011451     
  -0.91           -0.00011217     0.00011286     
  -0.9            -0.00011078     0.00011093     
  -0.89           -0.00011002     0.00010968     
  -0.88           -0.00010933     0.00010901     
  -0.87           -0.00010798     0.00010816     
  -0.86           -0.00010607     0.0001067      
  -0.85           -0.00010453     0.00010475     
  -0.84           -0.00010359     0.00010335     
  -0.83           -0.00010297     0.00010255     
  -0.82           -0.00010177     0.00010183     
  -0.81           -0.00010001     0.00010052     
  -0.8            -9.8372e-005    9.8965e-005    
  -0.79           -9.7183e-005    9.7128e-005    
  -0.78           -9.6397e-005    9.598e-005     
  -0.77           -9.5539e-005    9.5239e-005    
  -0.76           -9.4198e-005    9.4309e-005    
  -0.75           -9.2442e-005    9.2911e-005    
  -0.74           -9.0897e-005    9.1135e-005    
  -0.73           -8.9733e-005    9.0198e-005    
  -0.72           -8.8398e-005    8.8481e-005    
  -0.71           -8.7478e-005    8.7185e-005    
  -0.7            -8.6711e-005    8.6309e-005    
  -0.69           -8.5489e-005    8.5483e-005    
  -0.68           -8.3884e-005    8.4215e-005    
  -0.67           -8.2248e-005    8.2585e-005    
  -0.66           -8.1019e-005    8.1004e-005    
  -0.65           -8.0166e-005    7.9815e-005    
  -0.64           -7.9237e-005    7.899e-005     
  -0.63           -7.7926e-005    7.802e-005     
  -0.62           -7.6287e-005    7.6672e-005    
  -0.61           -7.4793e-005    7.4997e-005    
  -0.6            -7.3636e-005    7.4019e-005    
  -0.59           -7.2306e-005    7.2385e-005    
  -0.58           -7.1325e-005    7.1087e-005    
  -0.57           -7.0494e-005    7.0155e-005    
  -0.56           -6.9286e-005    6.9267e-005    
  -0.55           -6.7787e-005    6.803e-005     
  -0.54           -6.6192e-005    6.6503e-005    
  -0.53           -6.4955e-005    6.4978e-005    
  -0.52           -6.4e-005       6.3758e-005    
  -0.51           -6.3068e-005    6.2819e-005    
  -0.5            -6.179e-005     6.1833e-005    
  -0.49           -6.0273e-005    6.0536e-005    
  -0.48           -5.8781e-005    5.8971e-005    
  -0.47           -5.7597e-005    5.7538e-005    
  -0.46           -5.6675e-005    5.6397e-005    
  -0.45           -5.5627e-005    5.5497e-005    
  -0.44           -5.4334e-005    5.4067e-005    
  -0.43           -5.3148e-005    5.3118e-005    
  -0.42           -5.1709e-005    5.1896e-005    
  -0.41           -5.0207e-005    5.0448e-005    
  -0.4            -4.8962e-005    4.8974e-005    
  -0.39           -4.7931e-005    4.7753e-005    
  -0.38           -4.6927e-005    4.6749e-005    
  -0.37           -4.5672e-005    4.571e-005     
  -0.36           -4.4221e-005    4.4429e-005    
  -0.35           -4.281e-005     4.2962e-005    
  -0.34           -4.1614e-005    4.1582e-005    
  -0.33           -4.0605e-005    4.0409e-005    
  -0.32           -3.9518e-005    3.9413e-005    
  -0.31           -3.824e-005     3.8048e-005    
  -0.3            -3.703e-005     3.7011e-005    
  -0.29           -3.5674e-005    3.5798e-005    
  -0.28           -3.4256e-005    3.4429e-005    
  -0.27           -3.2997e-005    3.3021e-005    
  -0.26           -3.1907e-005    3.1793e-005    
  -0.25           -3.0834e-005    3.0705e-005    
  -0.24           -2.9599e-005    2.9616e-005    
  -0.23           -2.824e-005     2.8363e-005    
  -0.22           -2.6887e-005    2.6989e-005    
  -0.21           -2.5673e-005    2.5657e-005    
  -0.2            -2.4587e-005    2.4469e-005    
  -0.19           -2.3434e-005    2.3377e-005    
  -0.18           -2.2172e-005    2.2064e-005    
  -0.17           -2.0969e-005    2.0955e-005    
  -0.16           -1.9677e-005    1.9741e-005    
  -0.15           -1.8332e-005    1.8434e-005    
  -0.14           -1.7092e-005    1.7112e-005    
  -0.13           -1.5927e-005    1.5884e-005    
  -0.12           -1.4788e-005    1.4728e-005    
  -0.11           -1.3555e-005    1.3564e-005    
  -0.1            -1.2264e-005    1.2319e-005    
  -0.09           -1.0982e-005    1.1032e-005    
  -0.08           -9.7694e-006    9.8273e-006    
  -0.07           -8.5398e-006    8.5462e-006    
  -0.06           -7.3469e-006    7.3226e-006    
  -0.05           -6.1505e-006    6.1378e-006    
  -0.04           -4.9071e-006    4.8857e-006    
  -0.03           -3.6867e-006    3.6883e-006    
  -0.02           -2.4412e-006    2.4491e-006    
  -0.01           -1.2037e-006    1.2014e-006    
  0               1.3126e-008     -1.2206e-008   
  0.01            1.2466e-006     -1.2435e-006   
  0.02            2.4598e-006     -2.4798e-006   
  0.03            3.6746e-006     -3.6783e-006   
  0.04            4.9209e-006     -4.8976e-006   
  0.05            6.181e-006      -6.1544e-006   
  0.06            7.413e-006      -7.4189e-006   
  0.07            8.583e-006      -8.6322e-006   
  0.08            9.7881e-006     -9.7985e-006   
  0.09            1.1054e-005     -1.10108e-005  
  0.1             1.2285e-005     -1.2314e-005   
  0.11            1.3584e-005     -1.3505e-005   
  0.12            1.4829e-005     -1.4812e-005   
  0.13            1.6002e-005     -1.6056e-005   
  0.14            1.7142e-005     -1.7218e-005   
  0.15            1.8359e-005     -1.8359e-005   
  0.16            1.966e-005      -1.9572e-005   
  0.17            2.0994e-005     -2.0897e-005   
  0.18            2.2224e-005     -2.2224e-005   
  0.19            2.3352e-005     -2.3448e-005   
  0.2             2.4476e-005     -2.4559e-005   
  0.21            2.572e-005      -2.569e-005    
  0.22            2.7082e-005     -2.6948e-005   
  0.23            2.8422e-005     -2.8339e-005   
  0.24            2.9616e-005     -2.9446e-005   
  0.25            3.0895e-005     -3.086e-005    
  0.26            3.2033e-005     -3.2131e-005   
  0.27            3.3079e-005     -3.3242e-005   
  0.28            3.4272e-005     -3.4293e-005   
  0.29            3.5638e-005     -3.5492e-005   
  0.3             3.7062e-005     -3.6884e-005   
  0.31            3.8315e-005     -3.8303e-005   
  0.32            3.9379e-005     -3.9531e-005   
  0.33            4.0412e-005     -4.0565e-005   
  0.34            4.1663e-005     -4.1628e-005   
  0.35            4.3108e-005     -4.2899e-005   
  0.36            4.4518e-005     -4.4369e-005   
  0.37            4.5695e-005     -4.5444e-005   
  0.38            4.7004e-005     -4.6951e-005   
  0.39            4.8106e-005     -4.8246e-005   
  0.4             4.9041e-005     -4.9292e-005   
  0.41            5.0221e-005     -5.0253e-005   
  0.42            5.1655e-005     -5.1452e-005   
  0.43            5.3178e-005     -5.2921e-005   
  0.44            5.4443e-005     -5.4416e-005   
  0.45            5.5435e-005     -5.5657e-005   
  0.46            5.6399e-005     -5.663e-005    
  0.47            5.7645e-005     -5.7619e-005   
  0.48            5.9161e-005     -5.8892e-005   
  0.49            6.0657e-005     -6.0439e-005   
  0.5             6.1839e-005     -6.1907e-005   
  0.51            6.2752e-005     -6.3065e-005   
  0.52            6.3774e-005     -6.3939e-005   
  0.53            6.5067e-005     -6.54e-005     
  0.54            6.6221e-005     -6.6273e-005   
  0.55            6.7711e-005     -6.7469e-005   
  0.56            6.9343e-005     -6.8999e-005   
  0.57            7.0626e-005     -7.0587e-005   
  0.58            7.1595e-005     -7.1863e-005   
  0.59            7.2447e-005     -7.2764e-005   
  0.6             7.3683e-005     -7.3669e-005   
  0.61            7.528e-005      -7.4951e-005   
  0.62            7.6863e-005     -7.6569e-005   
  0.63            7.8053e-005     -7.8115e-005   
  0.64            7.8922e-005     -7.9275e-005   
  0.65            7.9852e-005     -8.01e-005     
  0.66            8.119e-005      -8.1625e-005   
  0.67            8.2309e-005     -8.2386e-005   
  0.68            8.3831e-005     -8.3553e-005   
  0.69            8.5559e-005     -8.5134e-005   
  0.7             8.6892e-005     -8.6833e-005   
  0.71            8.7801e-005     -8.8109e-005   
  0.72            8.857e-005      -8.8963e-005   
  0.73            8.9793e-005     -8.9804e-005   
  0.74            9.1438e-005     -9.106e-005    
  0.75            9.3121e-005     -9.2747e-005   
  0.76            9.4332e-005     -9.4394e-005   
  0.77            9.5129e-005     -9.5572e-005   
  0.78            9.6008e-005     -9.6329e-005   
  0.79            9.734e-005      -9.7242e-005   
  0.8             9.9115e-005     -9.862e-005    
  0.81            9.98e-005       -0.00010047    
  0.82            0.00010104      -0.00010114    
  0.83            0.00010251      -0.0001022     
  0.84            0.00010443      -0.00010381    
  0.85            0.00010578      -0.00010564    
  0.86            0.00010656      -0.00010692    
  0.87            0.0001073       -0.00010763    
  0.88            0.00010865      -0.00010845    
  0.89            0.0001106       -0.00010994    
  0.9             0.00011216      -0.00011194    
  0.91            0.00011303      -0.00011331    
  0.92            0.00011363      -0.0001141     
  0.93            0.00011484      -0.00011475    
  0.94            0.00011671      -0.00011609    
  0.95            0.00011847      -0.00011808    
  0.96            0.00011963      -0.00011895    
  0.97            0.00012097      -0.00012087    
  0.98            0.00012165      -0.00012207    
  0.99            0.00012234      -0.00012269    
  1               0.00012375      -0.00012434    
END_DB

