! VERSION = 6.00
BEGIN_HEADER
 ICCAP_INPUTS
  VU1        V  E GROUND SMU2 0.1 CON        0
  VU2        V  S GROUND SMU3 0.1 CON        0
  V2         V  B GROUND SMU1 0.015 CON        0
  V1         V  C GROUND SMU4 0.015 LIN        1    -1         1          201  0.01      
 ICCAP_OUTPUTS
  I1         I  C GROUND SMU4 B
  I2         I  B GROUND SMU1 B
END_HEADER

BEGIN_DB
 ICCAP_VAR VU1        0              
 ICCAP_VAR VU2        0              
 ICCAP_VAR V2         0              

 #V1              I1              I2             
  -1              -0.00054832     0.00054848     
  -0.99           -0.00054079     0.00054204     
  -0.98           -0.00053522     0.00053698     
  -0.97           -0.00052882     0.00052923     
  -0.96           -0.00052449     0.0005233      
  -0.95           -0.00052015     0.00051904     
  -0.94           -0.00051405     0.00051447     
  -0.93           -0.0005062      0.00050803     
  -0.92           -0.00049945     0.00049999     
  -0.91           -0.00049453     0.00049372     
  -0.9            -0.00049043     0.00048903     
  -0.89           -0.00048474     0.00048483     
  -0.88           -0.00047747     0.0004787      
  -0.87           -0.00047009     0.0004711      
  -0.86           -0.00046478     0.00046631     
  -0.85           -0.00045873     0.00045878     
  -0.84           -0.0004542      0.0004532      
  -0.83           -0.00044965     0.00044886     
  -0.82           -0.00044364     0.00044222     
  -0.81           -0.00043815     0.00043801     
  -0.8            -0.00043122     0.00043231     
  -0.79           -0.00042412     0.00042519     
  -0.78           -0.00041859     0.00041847     
  -0.77           -0.00041436     0.00041312     
  -0.76           -0.0004094      0.00040894     
  -0.75           -0.00040298     0.00040369     
  -0.74           -0.00039584     0.00039709     
  -0.73           -0.00038988     0.00039007     
  -0.72           -0.00038527     0.00038447     
  -0.71           -0.00038072     0.00038005     
  -0.7            -0.00037491     0.0003737      
  -0.69           -0.00036952     0.0003694      
  -0.68           -0.00036289     0.00036382     
  -0.67           -0.0003561      0.00035707     
  -0.66           -0.00035081     0.00035063     
  -0.65           -0.00034648     0.00034542     
  -0.64           -0.00034153     0.00034124     
  -0.63           -0.00033536     0.00033599     
  -0.62           -0.00032853     0.00032955     
  -0.61           -0.00032284     0.00032295     
  -0.6            -0.00031836     0.00031755     
  -0.59           -0.0003136      0.00031312     
  -0.58           -0.00030786     0.00030695     
  -0.57           -0.00030259     0.00030253     
  -0.56           -0.00029617     0.00029695     
  -0.55           -0.00028975     0.00029041     
  -0.54           -0.0002845      0.00028551     
  -0.53           -0.00027887     0.0002791      
  -0.52           -0.00027417     0.0002736      
  -0.51           -0.00026955     0.00026891     
  -0.5            -0.00026406     0.00026423     
  -0.49           -0.0002577      0.00025856     
  -0.48           -0.00025175     0.00025211     
  -0.47           -0.00024673     0.00024643     
  -0.46           -0.00024225     0.00024161     
  -0.45           -0.00023702     0.00023703     
  -0.44           -0.00023096     0.00023156     
  -0.43           -0.0002249      0.00022542     
  -0.42           -0.00021967     0.0002196      
  -0.41           -0.00021514     0.00021458     
  -0.4            -0.00021009     0.00020999     
  -0.39           -0.00020439     0.00020476     
  -0.38           -0.00019825     0.00019892     
  -0.37           -0.00019296     0.00019308     
  -0.36           -0.00018814     0.00018772     
  -0.35           -0.00018335     0.00018308     
  -0.34           -0.00017793     0.00017744     
  -0.33           -0.00017274     0.00017275     
  -0.32           -0.00016694     0.0001674      
  -0.31           -0.00016117     0.00016157     
  -0.3            -0.00015601     0.00015659     
  -0.29           -0.00015061     0.00015073     
  -0.28           -0.00014577     0.00014552     
  -0.27           -0.00014095     0.00014067     
  -0.26           -0.00013566     0.00013579     
  -0.25           -0.00012994     0.00013041     
  -0.24           -0.00012449     0.0001247      
  -0.23           -0.00011943     0.00011928     
  -0.22           -0.00011458     0.0001143      
  -0.21           -0.00010939     0.00010946     
  -0.2            -0.00010393     0.00010423     
  -0.19           -9.8413e-005    9.8721e-005    
  -0.18           -9.3207e-005    9.32e-005      
  -0.17           -8.8221e-005    8.8008e-005    
  -0.16           -8.3256e-005    8.3128e-005    
  -0.15           -7.8015e-005    7.806e-005     
  -0.14           -7.2579e-005    7.28e-005      
  -0.13           -6.7209e-005    6.7343e-005    
  -0.12           -6.2104e-005    6.2296e-005    
  -0.11           -5.6859e-005    5.6898e-005    
  -0.1            -5.1773e-005    5.1683e-005    
  -0.09           -4.6729e-005    4.6603e-005    
  -0.08           -4.1534e-005    4.1534e-005    
  -0.07           -3.6276e-005    3.6354e-005    
  -0.06           -3.0971e-005    3.1061e-005    
  -0.05           -2.5789e-005    2.5791e-005    
  -0.04           -2.0653e-005    2.0614e-005    
  -0.03           -1.5542e-005    1.5522e-005    
  -0.02           -1.0324e-005    1.0341e-005    
  -0.01           -5.1249e-006    5.0924e-006    
  0               4.3633e-008     -4.8014e-008   
  0.01            5.2332e-006     -5.2405e-006   
  0.02            1.04385e-005    -1.04223e-005  
  0.03            1.5593e-005     -1.5615e-005   
  0.04            2.0864e-005     -2.0791e-005   
  0.05            2.6101e-005     -2.6074e-005   
  0.06            3.1236e-005     -3.131e-005    
  0.07            3.6287e-005     -3.6379e-005   
  0.08            4.1467e-005     -4.1463e-005   
  0.09            4.6789e-005     -4.6674e-005   
  0.1             5.2147e-005     -5.2001e-005   
  0.11            5.7305e-005     -5.7333e-005   
  0.12            6.2366e-005     -6.2531e-005   
  0.13            6.7422e-005     -6.7554e-005   
  0.14            7.2647e-005     -7.29e-005     
  0.15            7.7814e-005     -7.7847e-005   
  0.16            8.3159e-005     -8.2989e-005   
  0.17            8.8702e-005     -8.8418e-005   
  0.18            9.3998e-005     -9.3952e-005   
  0.19            9.9036e-005     -9.9229e-005   
  0.2             0.00010445      -0.000104205   
  0.21            0.00010973      -0.0001094     
  0.22            0.00011502      -0.000115      
  0.23            0.00011993      -0.00012023    
  0.24            0.00012484      -0.00012493    
  0.25            0.00013025      -0.00013001    
  0.26            0.00013608      -0.00013558    
  0.27            0.00014149      -0.00014137    
  0.28            0.0001464       -0.0001467     
  0.29            0.0001512       -0.00015146    
  0.3             0.00015656      -0.00015638    
  0.31            0.00016242      -0.00016181    
  0.32            0.00016805      -0.00016783    
  0.33            0.00017308      -0.00017329    
  0.34            0.00017772      -0.00017816    
  0.35            0.00018296      -0.00018294    
  0.36            0.00018885      -0.00018829    
  0.37            0.00019477      -0.00019425    
  0.38            0.00019997      -0.00019927    
  0.39            0.00020555      -0.00020538    
  0.4             0.00021042      -0.00021082    
  0.41            0.00021506      -0.00021548    
  0.42            0.00022053      -0.0002203     
  0.43            0.00022667      -0.00022597    
  0.44            0.00023258      -0.00023228    
  0.45            0.00023767      -0.00023798    
  0.46            0.00024216      -0.0002429     
  0.47            0.00024735      -0.00024742    
  0.48            0.00025357      -0.00025285    
  0.49            0.00025979      -0.00025918    
  0.5             0.00026498      -0.00026408    
  0.51            0.00027073      -0.00027049    
  0.52            0.00027559      -0.00027611    
  0.53            0.0002801       -0.00028079    
  0.54            0.00028567      -0.00028551    
  0.55            0.00029211      -0.00029111    
  0.56            0.00029832      -0.00029792    
  0.57            0.00030348      -0.00030385    
  0.58            0.00030777      -0.00030869    
  0.59            0.00031306      -0.00031312    
  0.6             0.00031951      -0.0003187     
  0.61            0.00032606      -0.00032531    
  0.62            0.00033147      -0.0003303     
  0.63            0.00033727      -0.00033708    
  0.64            0.00034198      -0.00034272    
  0.65            0.00034655      -0.0003473     
  0.66            0.00035231      -0.00035198    
  0.67            0.00035908      -0.00035792    
  0.68            0.00036554      -0.00036501    
  0.69            0.00037068      -0.00037116    
  0.7             0.00037481      -0.00037593    
  0.71            0.00038029      -0.00038037    
  0.72            0.00038701      -0.00038609    
  0.73            0.00039388      -0.00039302    
  0.74            0.00039947      -0.00039972    
  0.75            0.00040372      -0.00040487    
  0.76            0.00040879      -0.0004091     
  0.77            0.0004152       -0.0004144     
  0.78            0.00042258      -0.00042122    
  0.79            0.0004285       -0.00042845    
  0.8             0.00043308      -0.0004341     
  0.81            0.00043755      -0.00043834    
  0.82            0.00044346      -0.00044485    
  0.83            0.00044902      -0.00044916    
  0.84            0.00045615      -0.00045492    
  0.85            0.00046343      -0.00046231    
  0.86            0.00046916      -0.00046933    
  0.87            0.00047332      -0.00047468    
  0.88            0.00047817      -0.00047856    
  0.89            0.00048512      -0.00048406    
  0.9             0.0004927       -0.00049118    
  0.91            0.00049892      -0.00049875    
  0.92            0.00050324      -0.0005044     
  0.93            0.00050769      -0.00050864    
  0.94            0.00051395      -0.00051548    
  0.95            0.0005195       -0.00051967    
  0.96            0.00052718      -0.00052574    
  0.97            0.00053446      -0.00053326    
  0.98            0.00054027      -0.00053837    
  0.99            0.00054679      -0.00054647    
  1               0.00055118      -0.00055239    
END_DB

