! VERSION = 6.00
BEGIN_HEADER
 ICCAP_INPUTS
  VU1        V  E GROUND SMU2 0.1 CON        0
  VU2        V  S GROUND SMU3 0.1 CON        0
  V2         V  B GROUND SMU1 0.015 CON        0
  V1         V  C GROUND SMU4 0.015 LIN        1    -1         1          201  0.01      
 ICCAP_OUTPUTS
  I1         I  C GROUND SMU4 B
  I2         I  B GROUND SMU1 B
END_HEADER

BEGIN_DB
 ICCAP_VAR VU1        0              
 ICCAP_VAR VU2        0              
 ICCAP_VAR V2         0              

 #V1              I1              I2             
  -1              -2.5674e-005    2.5476e-005    
  -0.99           -2.5308e-005    2.5417e-005    
  -0.98           -2.4948e-005    2.5037e-005    
  -0.97           -2.4707e-005    2.4698e-005    
  -0.96           -2.4569e-005    2.4472e-005    
  -0.95           -2.4402e-005    2.4346e-005    
  -0.94           -2.4119e-005    2.401e-005     
  -0.93           -2.3894e-005    2.3878e-005    
  -0.92           -2.3557e-005    2.364e-005     
  -0.91           -2.318e-005     2.3293e-005    
  -0.9            -2.2909e-005    2.2929e-005    
  -0.89           -2.2736e-005    2.267e-005     
  -0.88           -2.2591e-005    2.2508e-005    
  -0.87           -2.234e-005     2.235e-005     
  -0.86           -2.1993e-005    2.2083e-005    
  -0.85           -2.164e-005     2.1725e-005    
  -0.84           -2.1393e-005    2.139e-005     
  -0.83           -2.1238e-005    2.1155e-005    
  -0.82           -2.1063e-005    2.1012e-005    
  -0.81           -2.0778e-005    2.0688e-005    
  -0.8            -2.0551e-005    2.054e-005     
  -0.79           -2.0234e-005    2.0303e-005    
  -0.78           -1.9869e-005    1.997e-005     
  -0.77           -1.9596e-005    1.962e-005     
  -0.76           -1.9412e-005    1.9359e-005    
  -0.75           -1.9253e-005    1.9181e-005    
  -0.74           -1.9005e-005    1.9013e-005    
  -0.73           -1.8671e-005    1.8748e-005    
  -0.72           -1.8331e-005    1.8406e-005    
  -0.71           -1.8081e-005    1.808e-005     
  -0.7            -1.7909e-005    1.7844e-005    
  -0.69           -1.7723e-005    1.768e-005     
  -0.68           -1.7441e-005    1.7367e-005    
  -0.67           -1.7213e-005    1.7205e-005    
  -0.66           -1.6906e-005    1.6964e-005    
  -0.65           -1.656e-005     1.6644e-005    
  -0.64           -1.6286e-005    1.6306e-005    
  -0.63           -1.609e-005     1.6048e-005    
  -0.62           -1.5916e-005    1.5861e-005    
  -0.61           -1.5665e-005    1.5672e-005    
  -0.6            -1.5343e-005    1.541e-005     
  -0.59           -1.502e-005     1.5082e-005    
  -0.58           -1.477e-005     1.4771e-005    
  -0.57           -1.4583e-005    1.4532e-005    
  -0.56           -1.438e-005     1.435e-005     
  -0.55           -1.4107e-005    1.4046e-005    
  -0.54           -1.3873e-005    1.3866e-005    
  -0.53           -1.3575e-005    1.3623e-005    
  -0.52           -1.3244e-005    1.3315e-005    
  -0.51           -1.2977e-005    1.2994e-005    
  -0.5            -1.277e-005     1.2736e-005    
  -0.49           -1.2579e-005    1.2538e-005    
  -0.48           -1.2323e-005    1.2332e-005    
  -0.47           -1.2015e-005    1.2069e-005    
  -0.46           -1.171e-005     1.1756e-005    
  -0.45           -1.146e-005     1.146e-005     
  -0.44           -1.1255e-005    1.1219e-005    
  -0.43           -1.104e-005     1.1021e-005    
  -0.42           -1.0771e-005    1.073e-005     
  -0.41           -1.053e-005     1.0531e-005    
  -0.4            -1.0244e-005    1.0281e-005    
  -0.39           -9.9694e-006    9.988e-006     
  -0.38           -9.6968e-006    9.7402e-006    
  -0.37           -9.4174e-006    9.4278e-006    
  -0.36           -9.1945e-006    9.1679e-006    
  -0.35           -8.9881e-006    8.9566e-006    
  -0.34           -8.7264e-006    8.7351e-006    
  -0.33           -8.4226e-006    8.4597e-006    
  -0.32           -8.144e-006     8.1544e-006    
  -0.31           -7.914e-006     7.8928e-006    
  -0.3            -7.7017e-006    7.6743e-006    
  -0.29           -7.443e-006     7.4494e-006    
  -0.28           -7.1497e-006    7.1802e-006    
  -0.27           -6.87e-006      6.8803e-006    
  -0.26           -6.6344e-006    6.6183e-006    
  -0.25           -6.4165e-006    6.3933e-006    
  -0.24           -6.161e-006     6.166e-006     
  -0.23           -5.8735e-006    5.8988e-006    
  -0.22           -5.598e-006     5.6065e-006    
  -0.21           -5.3564e-006    5.3442e-006    
  -0.2            -5.1331e-006    5.1142e-006    
  -0.19           -4.8777e-006    4.8801e-006    
  -0.18           -4.5963e-006    4.616e-006     
  -0.17           -4.3246e-006    4.3331e-006    
  -0.16           -4.0788e-006    4.0718e-006    
  -0.15           -3.8478e-006    3.8334e-006    
  -0.14           -3.594e-006     3.5945e-006    
  -0.13           -3.3214e-006    3.3336e-006    
  -0.12           -3.0532e-006    3.0594e-006    
  -0.11           -2.8013e-006    2.7981e-006    
  -0.1            -2.5625e-006    2.5541e-006    
  -0.09           -2.3092e-006    2.309e-006     
  -0.08           -2.0435e-006    2.0494e-006    
  -0.07           -1.7794e-006    1.7823e-006    
  -0.06           -1.5243e-006    1.5247e-006    
  -0.05           -1.2769e-006    1.2752e-006    
  -0.04           -1.0235e-006    1.0232e-006    
  -0.03           -7.6098e-007    7.635e-007     
  -0.02           -5.0837e-007    5.0685e-007    
  -0.01           -2.4976e-007    2.5014e-007    
  0               2.5332e-009     -1.6277e-009   
  0.01            2.5658e-007     -2.568e-007    
  0.02            5.1206e-007     -5.1713e-007   
  0.03            7.6433e-007     -7.7201e-007   
  0.04            1.0319e-006     -1.02109e-006  
  0.05            1.2891e-006     -1.2865e-006   
  0.06            1.5377e-006     -1.5462e-006   
  0.07            1.7851e-006     -1.7938e-006   
  0.08            2.0408e-006     -2.0544e-006   
  0.09            2.2964e-006     -2.2972e-006   
  0.1             2.5652e-006     -2.5509e-006   
  0.11            2.8305e-006     -2.8169e-006   
  0.12            3.0869e-006     -3.0677e-006   
  0.13            3.3437e-006     -3.3423e-006   
  0.14            3.5819e-006     -3.5992e-006   
  0.15            3.8249e-006     -3.8379e-006   
  0.16            4.08e-006       -4.1011e-006   
  0.17            4.3357e-006     -4.334e-006    
  0.18            4.6149e-006     -4.591e-006    
  0.19            4.8888e-006     -4.8732e-006   
  0.2             5.1316e-006     -5.1442e-006   
  0.21            5.3561e-006     -5.385e-006    
  0.22            5.6081e-006     -5.6101e-006   
  0.23            5.8926e-006     -5.8658e-006   
  0.24            6.1724e-006     -6.1494e-006   
  0.25            6.4263e-006     -6.3916e-006   
  0.26            6.6848e-006     -6.6836e-006   
  0.27            6.9067e-006     -6.9379e-006   
  0.28            7.1365e-006     -7.156e-006    
  0.29            7.4075e-006     -7.3882e-006   
  0.3             7.7103e-006     -7.668e-006    
  0.31            7.9718e-006     -7.9686e-006   
  0.32            8.1884e-006     -8.2242e-006   
  0.33            8.4092e-006     -8.4346e-006   
  0.34            8.6694e-006     -8.712e-006    
  0.35            8.9235e-006     -8.9227e-006   
  0.36            9.226e-006      -9.1822e-006   
  0.37            9.5156e-006     -9.4898e-006   
  0.38            9.7527e-006     -9.7734e-006   
  0.39            9.9476e-006     -1e-005        
  0.4             1.01944e-005    -1.01986e-005  
  0.41            1.04993e-005    -1.04535e-005  
  0.42            1.08009e-005    -1.07657e-005  
  0.43            1.10518e-005    -1.09956e-005  
  0.44            1.13119e-005    -1.13117e-005  
  0.45            1.1475e-005     -1.1568e-005   
  0.46            1.178e-005      -1.1723e-005   
  0.47            1.2088e-005     -1.2028e-005   
  0.48            1.2342e-005     -1.2338e-005   
  0.49            1.2543e-005     -1.2589e-005   
  0.5             1.2746e-005     -1.2786e-005   
  0.51            1.3013e-005     -1.2993e-005   
  0.52            1.3332e-005     -1.3262e-005   
  0.53            1.3636e-005     -1.3591e-005   
  0.54            1.3881e-005     -1.3799e-005   
  0.55            1.4149e-005     -1.4129e-005   
  0.56            1.4355e-005     -1.4399e-005   
  0.57            1.4538e-005     -1.4598e-005   
  0.58            1.4785e-005     -1.4784e-005   
  0.59            1.5102e-005     -1.5036e-005   
  0.6             1.5429e-005     -1.5355e-005   
  0.61            1.5685e-005     -1.568e-005    
  0.62            1.5872e-005     -1.5931e-005   
  0.63            1.606e-005      -1.6111e-005   
  0.64            1.6328e-005     -1.6305e-005   
  0.65            1.6666e-005     -1.6579e-005   
  0.66            1.6981e-005     -1.6922e-005   
  0.67            1.7218e-005     -1.7119e-005   
  0.68            1.7496e-005     -1.7471e-005   
  0.69            1.7693e-005     -1.7744e-005   
  0.7             1.7855e-005     -1.7934e-005   
  0.71            1.8097e-005     -1.81e-005     
  0.72            1.8426e-005     -1.8349e-005   
  0.73            1.877e-005      -1.8682e-005   
  0.74            1.9028e-005     -1.9022e-005   
  0.75            1.9201e-005     -1.9273e-005   
  0.76            1.9375e-005     -1.9438e-005   
  0.77            1.9642e-005     -1.962e-005    
  0.78            1.9995e-005     -1.9893e-005   
  0.79            2.0321e-005     -2.0254e-005   
  0.8             2.0557e-005     -2.0442e-005   
  0.81            2.0839e-005     -2.0811e-005   
  0.82            2.1029e-005     -2.1088e-005   
  0.83            2.1173e-005     -2.1266e-005   
  0.84            2.141e-005      -2.1415e-005   
  0.85            2.1749e-005     -2.1659e-005   
  0.86            2.2112e-005     -2.2007e-005   
  0.87            2.2372e-005     -2.2364e-005   
  0.88            2.2532e-005     -2.2613e-005   
  0.89            2.2692e-005     -2.277e-005    
  0.9             2.2954e-005     -2.2936e-005   
  0.91            2.3317e-005     -2.3208e-005   
  0.92            2.3665e-005     -2.3577e-005   
  0.93            2.39e-005       -2.3913e-005   
  0.94            2.4036e-005     -2.4142e-005   
  0.95            2.4213e-005     -2.4266e-005   
  0.96            2.449e-005      -2.4605e-005   
  0.97            2.4721e-005     -2.4731e-005   
  0.98            2.5073e-005     -2.4974e-005   
  0.99            2.5455e-005     -2.5333e-005   
  1               2.5716e-005     -2.5707e-005   
END_DB

