! VERSION = 6.00
BEGIN_HEADER
 ICCAP_INPUTS
  VU1        V  E GROUND SMU2 0.1 CON        0
  VU2        V  S GROUND SMU3 0.1 CON        0
  V2         V  B GROUND SMU1 0.015 CON        0
  V1         V  C GROUND SMU4 0.015 LIN        1    -1         1          201  0.01      
 ICCAP_OUTPUTS
  I1         I  C GROUND SMU4 B
  I2         I  B GROUND SMU1 B
END_HEADER

BEGIN_DB
 ICCAP_VAR VU1        0              
 ICCAP_VAR VU2        0              
 ICCAP_VAR V2         0              

 #V1              I1              I2             
  -1              -0.0001277      0.00012777     
  -0.99           -0.00012677     0.00012662     
  -0.98           -0.0001254      0.00012514     
  -0.97           -0.00012421     0.00012426     
  -0.96           -0.00012262     0.000123       
  -0.95           -0.00012104     0.00012138     
  -0.94           -0.0001198      0.00011983     
  -0.93           -0.00011889     0.00011867     
  -0.92           -0.0001178      0.00011779     
  -0.91           -0.00011634     0.00011663     
  -0.9            -0.00011467     0.0001151      
  -0.89           -0.00011336     0.00011348     
  -0.88           -0.00011239     0.00011224     
  -0.87           -0.00011137     0.00011129     
  -0.86           -0.00011004     0.00010985     
  -0.85           -0.00010881     0.0001089      
  -0.84           -0.00010727     0.00010759     
  -0.83           -0.00010571     0.00010602     
  -0.82           -0.00010449     0.00010453     
  -0.81           -0.00010356     0.00010337     
  -0.8            -0.00010242     0.00010243     
  -0.79           -0.00010097     0.00010125     
  -0.78           -9.9452e-005    9.9582e-005    
  -0.77           -9.8093e-005    9.816e-005     
  -0.76           -9.6987e-005    9.6829e-005    
  -0.75           -9.6007e-005    9.5759e-005    
  -0.74           -9.4778e-005    9.4757e-005    
  -0.73           -9.3289e-005    9.3485e-005    
  -0.72           -9.1749e-005    9.1979e-005    
  -0.71           -9.0468e-005    9.0475e-005    
  -0.7            -8.9415e-005    8.923e-005     
  -0.69           -8.8354e-005    8.819e-005     
  -0.68           -8.7043e-005    8.7092e-005    
  -0.67           -8.553e-005     8.5759e-005    
  -0.66           -8.4083e-005    8.4228e-005    
  -0.65           -8.2862e-005    8.3107e-005    
  -0.64           -8.1519e-005    8.1577e-005    
  -0.63           -8.0388e-005    8.026e-005     
  -0.62           -7.9366e-005    7.9167e-005    
  -0.61           -7.8113e-005    7.8105e-005    
  -0.6            -7.6674e-005    7.683e-005     
  -0.59           -7.5175e-005    7.537e-005     
  -0.58           -7.3888e-005    7.3899e-005    
  -0.57           -7.279e-005     7.2644e-005    
  -0.56           -7.1694e-005    7.1555e-005    
  -0.55           -7.0395e-005    7.043e-005     
  -0.54           -6.8932e-005    6.9111e-005    
  -0.53           -6.7516e-005    6.7635e-005    
  -0.52           -6.6277e-005    6.6245e-005    
  -0.51           -6.5193e-005    6.5027e-005    
  -0.5            -6.402e-005     6.3949e-005    
  -0.49           -6.2714e-005    6.2557e-005    
  -0.48           -6.1462e-005    6.1454e-005    
  -0.47           -6.0055e-005    6.018e-005     
  -0.46           -5.8607e-005    5.8761e-005    
  -0.45           -5.7328e-005    5.7343e-005    
  -0.44           -5.6182e-005    5.6075e-005    
  -0.43           -5.5043e-005    5.494e-005     
  -0.42           -5.375e-005     5.3779e-005    
  -0.41           -5.2344e-005    5.248e-005     
  -0.4            -5.095e-005     5.104e-005     
  -0.39           -4.9695e-005    4.9678e-005    
  -0.38           -4.856e-005     4.8441e-005    
  -0.37           -4.7375e-005    4.7322e-005    
  -0.36           -4.6064e-005    4.5951e-005    
  -0.35           -4.4811e-005    4.4803e-005    
  -0.34           -4.3449e-005    4.3533e-005    
  -0.33           -4.2039e-005    4.2159e-005    
  -0.32           -4.0756e-005    4.0778e-005    
  -0.31           -3.9565e-005    3.9501e-005    
  -0.3            -3.8392e-005    3.8319e-005    
  -0.29           -3.7109e-005    3.7125e-005    
  -0.28           -3.5752e-005    3.584e-005     
  -0.27           -3.4387e-005    3.4458e-005    
  -0.26           -3.3118e-005    3.3114e-005    
  -0.25           -3.193e-005     3.1858e-005    
  -0.24           -3.0721e-005    3.0688e-005    
  -0.23           -2.9418e-005    2.9347e-005    
  -0.22           -2.8161e-005    2.8154e-005    
  -0.21           -2.6833e-005    2.6886e-005    
  -0.2            -2.5481e-005    2.5557e-005    
  -0.19           -2.4187e-005    2.4207e-005    
  -0.18           -2.2954e-005    2.2928e-005    
  -0.17           -2.1741e-005    2.1699e-005    
  -0.16           -2.0472e-005    2.0481e-005    
  -0.15           -1.915e-005     1.9194e-005    
  -0.14           -1.7822e-005    1.7867e-005    
  -0.13           -1.6546e-005    1.6551e-005    
  -0.12           -1.5316e-005    1.5293e-005    
  -0.11           -1.4069e-005    1.4061e-005    
  -0.1            -1.2779e-005    1.2796e-005    
  -0.09           -1.146e-005     1.1501e-005    
  -0.08           -1.0166e-005    1.0188e-005    
  -0.07           -8.9453e-006    8.9096e-006    
  -0.06           -7.6411e-006    7.6554e-006    
  -0.05           -6.3481e-006    6.3545e-006    
  -0.04           -5.0792e-006    5.0759e-006    
  -0.03           -3.8244e-006    3.8186e-006    
  -0.02           -2.5408e-006    2.5438e-006    
  -0.01           -1.2511e-006    1.2568e-006    
  0               1.5141e-008     -1.7043e-008   
  0.01            1.299e-006      -1.2988e-006   
  0.02            2.5764e-006     -2.5805e-006   
  0.03            3.8358e-006     -3.8502e-006   
  0.04            5.1116e-006     -5.1134e-006   
  0.05            6.409e-006      -6.3894e-006   
  0.06            7.7064e-006     -7.6878e-006   
  0.07            8.9682e-006     -8.9788e-006   
  0.08            1.02131e-005    -1.02461e-005  
  0.09            1.1545e-005     -1.1497e-005   
  0.1             1.2834e-005     -1.2818e-005   
  0.11            1.4082e-005     -1.4102e-005   
  0.12            1.5316e-005     -1.5353e-005   
  0.13            1.6587e-005     -1.6586e-005   
  0.14            1.7904e-005     -1.7853e-005   
  0.15            1.9237e-005     -1.9174e-005   
  0.16            2.051e-005      -2.05e-005     
  0.17            2.1738e-005     -2.1781e-005   
  0.18            2.2964e-005     -2.3008e-005   
  0.19            2.425e-005      -2.4231e-005   
  0.2             2.5583e-005     -2.5509e-005   
  0.21            2.6921e-005     -2.6859e-005   
  0.22            2.8187e-005     -2.8092e-005   
  0.23            2.9492e-005     -2.9466e-005   
  0.24            3.0709e-005     -3.0758e-005   
  0.25            3.1892e-005     -3.1972e-005   
  0.26            3.3154e-005     -3.3159e-005   
  0.27            3.4511e-005     -3.4428e-005   
  0.28            3.5887e-005     -3.5792e-005   
  0.29            3.7163e-005     -3.7154e-005   
  0.3             3.8351e-005     -3.8431e-005   
  0.31            3.9536e-005     -3.9613e-005   
  0.32            4.0827e-005     -4.0801e-005   
  0.33            4.2207e-005     -4.2092e-005   
  0.34            4.3577e-005     -4.3491e-005   
  0.35            4.4837e-005     -4.4695e-005   
  0.36            4.6152e-005     -4.612e-005    
  0.37            4.7343e-005     -4.7416e-005   
  0.38            4.8473e-005     -4.86e-005     
  0.39            4.9725e-005     -4.9737e-005   
  0.4             5.1119e-005     -5.1e-005      
  0.41            5.2531e-005     -5.2391e-005   
  0.42            5.3821e-005     -5.3809e-005   
  0.43            5.4968e-005     -5.5086e-005   
  0.44            5.6113e-005     -5.6224e-005   
  0.45            5.7408e-005     -5.7375e-005   
  0.46            5.8829e-005     -5.8674e-005   
  0.47            6.0237e-005     -6.012e-005    
  0.48            6.1483e-005     -6.129e-005    
  0.49            6.2812e-005     -6.2772e-005   
  0.5             6.3977e-005     -6.4079e-005   
  0.51            6.5053e-005     -6.5231e-005   
  0.52            6.6295e-005     -6.6318e-005   
  0.53            6.7722e-005     -6.7572e-005   
  0.54            6.9186e-005     -6.9005e-005   
  0.55            7.048e-005      -7.0467e-005   
  0.56            7.1591e-005     -7.1743e-005   
  0.57            7.2691e-005     -7.284e-005    
  0.58            7.3987e-005     -7.3952e-005   
  0.59            7.545e-005      -7.5256e-005   
  0.6             7.6899e-005     -7.6749e-005   
  0.61            7.8139e-005     -7.818e-005    
  0.62            7.9194e-005     -7.94e-005     
  0.63            8.0319e-005     -8.0415e-005   
  0.64            8.1636e-005     -8.1858e-005   
  0.65            8.2874e-005     -8.29e-005     
  0.66            8.4337e-005     -8.4159e-005   
  0.67            8.5847e-005     -8.563e-005    
  0.68            8.7142e-005     -8.7134e-005   
  0.69            8.8207e-005     -8.8402e-005   
  0.7             8.9271e-005     -8.945e-005    
  0.71            9.0576e-005     -9.0531e-005   
  0.72            9.2087e-005     -9.1848e-005   
  0.73            9.3568e-005     -9.3397e-005   
  0.74            9.4795e-005     -9.4506e-005   
  0.75            9.6147e-005     -9.6089e-005   
  0.76            9.7244e-005     -9.7412e-005   
  0.77            9.8221e-005     -9.8484e-005   
  0.78            9.9457e-005     -9.9484e-005   
  0.79            0.00010117      -0.000100746   
  0.8             0.00010233      -0.00010246    
  0.81            0.00010334      -0.00010345    
  0.82            0.00010468      -0.00010488    
  0.83            0.00010589      -0.00010583    
  0.84            0.00010741      -0.00010709    
  0.85            0.00010901      -0.00010866    
  0.86            0.00011023      -0.00011019    
  0.87            0.00011117      -0.00011137    
  0.88            0.00011226      -0.00011225    
  0.89            0.00011373      -0.00011343    
  0.9             0.00011539      -0.00011497    
  0.91            0.00011671      -0.0001166     
  0.92            0.00011768      -0.00011784    
  0.93            0.00011865      -0.00011876    
  0.94            0.00011999      -0.00012026    
  0.95            0.00012122      -0.00012115    
  0.96            0.00012279      -0.00012243    
  0.97            0.0001244       -0.00012402    
  0.98            0.00012561      -0.0001256     
  0.99            0.00012648      -0.00012674    
  1               0.00012759      -0.00012758    
END_DB

