! VERSION = 6.00
BEGIN_HEADER
 ICCAP_INPUTS
  VU1        V  E GROUND SMU2 0.1 CON        0
  VU2        V  S GROUND SMU3 0.1 CON        0
  V2         V  B GROUND SMU1 0.015 CON        0
  V1         V  C GROUND SMU4 0.015 LIN        1    -0.3       0.3        61   0.01      
 ICCAP_OUTPUTS
  I1         I  C GROUND SMU4 B
  I2         I  B GROUND SMU1 B
END_HEADER

BEGIN_DB
 ICCAP_VAR VU1        0              
 ICCAP_VAR VU2        0              
 ICCAP_VAR V2         0              

 #V1              I1              I2             
  -0.3            -0.00023195     0.000232       
  -0.29           -0.00022399     0.00022381     
  -0.28           -0.00021581     0.00021595     
  -0.27           -0.00020743     0.00020763     
  -0.26           -0.00019911     0.00019926     
  -0.25           -0.00019109     0.00019135     
  -0.24           -0.00018305     0.00018313     
  -0.23           -0.00017525     0.00017518     
  -0.22           -0.0001675      0.00016747     
  -0.21           -0.00015955     0.00015964     
  -0.2            -0.00015159     0.00015179     
  -0.19           -0.00014367     0.0001438      
  -0.18           -0.000136       0.00013595     
  -0.17           -0.00012842     0.00012835     
  -0.16           -0.00012073     0.00012081     
  -0.15           -0.00011295     0.00011309     
  -0.14           -0.00010519     0.00010532     
  -0.13           -9.7622e-005    9.7616e-005    
  -0.12           -9.0016e-005    9.0089e-005    
  -0.11           -8.2445e-005    8.2422e-005    
  -0.1            -7.4974e-005    7.49e-005      
  -0.09           -6.7433e-005    6.7429e-005    
  -0.08           -5.9865e-005    5.9886e-005    
  -0.07           -5.2325e-005    5.2382e-005    
  -0.06           -4.4796e-005    4.482e-005     
  -0.05           -3.7306e-005    3.7295e-005    
  -0.04           -2.9832e-005    2.9811e-005    
  -0.03           -2.2374e-005    2.2389e-005    
  -0.02           -1.4868e-005    1.4873e-005    
  -0.01           -7.3748e-006    7.3541e-006    
  0               6.6845e-008     -7.1649e-008   
  0.01            7.6053e-006     -7.5854e-006   
  0.02            1.508e-005      -1.5113e-005   
  0.03            2.2555e-005     -2.2518e-005   
  0.04            3.011e-005      -3.0072e-005   
  0.05            3.7658e-005     -3.7638e-005   
  0.06            4.5161e-005     -4.5196e-005   
  0.07            5.2611e-005     -5.2649e-005   
  0.08            6.0168e-005     -6.0157e-005   
  0.09            6.7796e-005     -6.7741e-005   
  0.1             7.5465e-005     -7.5386e-005   
  0.11            8.3017e-005     -8.3027e-005   
  0.12            9.0601e-005     -9.0665e-005   
  0.13            9.8187e-005     -9.8261e-005   
  0.14            0.00010612      -0.000106003   
  0.15            0.00011388      -0.00011371    
  0.16            0.00012158      -0.00012149    
  0.17            0.00012926      -0.00012929    
  0.18            0.00013693      -0.00013697    
  0.19            0.00014478      -0.00014487    
  0.2             0.00015261      -0.00015256    
  0.21            0.00016065      -0.00016048    
  0.22            0.00016882      -0.00016854    
  0.23            0.00017681      -0.00017676    
  0.24            0.00018455      -0.00018467    
  0.25            0.00019247      -0.00019247    
  0.26            0.00020074      -0.00020053    
  0.27            0.00020916      -0.00020892    
  0.28            0.00021749      -0.00021742    
  0.29            0.00022546      -0.0002256     
  0.3             0.00023364      -0.00023374    
END_DB

