! VERSION = 6.00
BEGIN_HEADER
 ICCAP_INPUTS
  VU1        V  E GROUND SMU2 0.1 CON        0
  VU2        V  S GROUND SMU3 0.1 CON        0
  V2         V  B GROUND SMU4 0.015 CON        0
  V1         V  C GROUND SMU1 0.015 LIN        1    -1         1          201  0.01      
 ICCAP_OUTPUTS
  I1         I  C GROUND SMU1 B
  I2         I  B GROUND SMU4 B
END_HEADER

BEGIN_DB
 ICCAP_VAR VU1        0              
 ICCAP_VAR VU2        0              
 ICCAP_VAR V2         0              

 #V1              I1              I2             
  -1              -0.00025113     0.00025125     
  -0.99           -0.00024871     0.00024935     
  -0.98           -0.00024692     0.00024751     
  -0.97           -0.00024398     0.00024484     
  -0.96           -0.00024228     0.0002425      
  -0.95           -0.00023979     0.00023942     
  -0.94           -0.00023662     0.0002362      
  -0.93           -0.00023357     0.00023379     
  -0.92           -0.00023125     0.00023199     
  -0.91           -0.00022952     0.00022984     
  -0.9            -0.00022722     0.00022698     
  -0.89           -0.00022424     0.0002237      
  -0.88           -0.00022103     0.00022109     
  -0.87           -0.00021852     0.00021912     
  -0.86           -0.00021662     0.00021718     
  -0.85           -0.00021376     0.00021449     
  -0.84           -0.00021195     0.00021215     
  -0.83           -0.00020948     0.00020916     
  -0.82           -0.00020637     0.00020603     
  -0.81           -0.0002034      0.00020357     
  -0.8            -0.000201       0.00020165     
  -0.79           -0.00019919     0.00019949     
  -0.78           -0.00019685     0.00019668     
  -0.77           -0.00019394     0.00019352     
  -0.76           -0.00019085     0.0001909      
  -0.75           -0.00018834     0.00018886     
  -0.74           -0.00018635     0.00018685     
  -0.73           -0.00018354     0.0001842      
  -0.72           -0.00018161     0.00018179     
  -0.71           -0.00017914     0.00017888     
  -0.7            -0.00017611     0.00017585     
  -0.69           -0.00017319     0.00017341     
  -0.68           -0.00017085     0.00017144     
  -0.67           -0.00016892     0.00016918     
  -0.66           -0.00016654     0.00016641     
  -0.65           -0.00016369     0.00016334     
  -0.64           -0.00016066     0.00016073     
  -0.63           -0.00015817     0.00015865     
  -0.62           -0.00015612     0.00015653     
  -0.61           -0.00015338     0.00015393     
  -0.6            -0.00015132     0.00015147     
  -0.59           -0.00014881     0.0001486      
  -0.58           -0.00014587     0.00014569     
  -0.57           -0.00014303     0.00014323     
  -0.56           -0.00014067     0.00014116     
  -0.55           -0.00013865     0.00013889     
  -0.54           -0.00013625     0.00013612     
  -0.53           -0.00013345     0.0001332      
  -0.52           -0.00013053     0.00013063     
  -0.51           -0.00012804     0.00012845     
  -0.5            -0.00012592     0.00012626     
  -0.49           -0.00012321     0.00012367     
  -0.48           -0.00012106     0.00012121     
  -0.47           -0.00011854     0.00011839     
  -0.46           -0.0001157      0.00011555     
  -0.45           -0.00011337     0.00011314     
  -0.44           -0.00011046     0.00011052     
  -0.43           -0.00010794     0.00010828     
  -0.42           -0.00010574     0.00010608     
  -0.41           -0.00010344     0.0001035      
  -0.4            -0.00010081     0.00010067     
  -0.39           -9.8326e-005    9.7928e-005    
  -0.38           -9.5745e-005    9.5471e-005    
  -0.37           -9.2928e-005    9.2888e-005    
  -0.36           -9.0389e-005    9.057e-005     
  -0.35           -8.8071e-005    8.8316e-005    
  -0.34           -8.5792e-005    8.5822e-005    
  -0.33           -8.3288e-005    8.3115e-005    
  -0.32           -8.0553e-005    8.0376e-005    
  -0.31           -7.7844e-005    7.7863e-005    
  -0.3            -7.5371e-005    7.5561e-005    
  -0.29           -7.3046e-005    7.321e-005     
  -0.28           -7.0679e-005    7.0648e-005    
  -0.27           -6.8119e-005    6.7958e-005    
  -0.26           -6.5391e-005    6.53e-005      
  -0.25           -6.2995e-005    6.2818e-005    
  -0.24           -6.0302e-005    6.0284e-005    
  -0.23           -5.776e-005     5.7878e-005    
  -0.22           -5.5368e-005    5.5526e-005    
  -0.21           -5.3013e-005    5.3041e-005    
  -0.2            -5.0493e-005    5.0394e-005    
  -0.19           -4.7843e-005    4.7738e-005    
  -0.18           -4.5228e-005    4.5235e-005    
  -0.17           -4.2719e-005    4.2824e-005    
  -0.16           -4.0326e-005    4.0422e-005    
  -0.15           -3.789e-005     3.7884e-005    
  -0.14           -3.5342e-005    3.5264e-005    
  -0.13           -3.2744e-005    3.2688e-005    
  -0.12           -3.0274e-005    3.0189e-005    
  -0.11           -2.7659e-005    2.7653e-005    
  -0.1            -2.5143e-005    2.5198e-005    
  -0.09           -2.2673e-005    2.2751e-005    
  -0.08           -2.0214e-005    2.0232e-005    
  -0.07           -1.7716e-005    1.7684e-005    
  -0.06           -1.5148e-005    1.5118e-005    
  -0.05           -1.2588e-005    1.2595e-005    
  -0.04           -1.009e-005     1.0126e-005    
  -0.03           -7.6113e-006    7.5885e-006    
  -0.02           -5.0677e-006    5.0883e-006    
  -0.01           -2.5734e-006    2.5779e-006    
  0               -4.5482e-008    4.2967e-008    
  0.01            2.4811e-006     -2.4741e-006   
  0.02            4.9951e-006     -4.9911e-006   
  0.03            7.5001e-006     -7.5142e-006   
  0.04            1.0049e-005     -1.00453e-005  
  0.05            1.2493e-005     -1.2554e-005   
  0.06            1.5089e-005     -1.5057e-005   
  0.07            1.7578e-005     -1.7526e-005   
  0.08            2.0027e-005     -2.0017e-005   
  0.09            2.2548e-005     -2.258e-005    
  0.1             2.5126e-005     -2.5171e-005   
  0.11            2.7693e-005     -2.7674e-005   
  0.12            3.0212e-005     -3.0132e-005   
  0.13            3.2635e-005     -3.2574e-005   
  0.14            3.5077e-005     -3.5085e-005   
  0.15            3.7621e-005     -3.7722e-005   
  0.16            4.0263e-005     -4.0312e-005   
  0.17            4.2684e-005     -4.2793e-005   
  0.18            4.5342e-005     -4.5352e-005   
  0.19            4.7887e-005     -4.7796e-005   
  0.2             5.029e-005      -5.0144e-005   
  0.21            5.2666e-005     -5.2636e-005   
  0.22            5.5178e-005     -5.5272e-005   
  0.23            5.781e-005      -5.7936e-005   
  0.24            6.0485e-005     -6.0467e-005   
  0.25            6.2996e-005     -6.285e-005    
  0.26            6.5331e-005     -6.5191e-005   
  0.27            6.7711e-005     -6.7723e-005   
  0.28            7.0261e-005     -7.0436e-005   
  0.29            7.3011e-005     -7.3112e-005   
  0.3             7.5363e-005     -7.5571e-005   
  0.31            7.8129e-005     -7.8164e-005   
  0.32            8.0695e-005     -8.0546e-005   
  0.33            8.3028e-005     -8.2796e-005   
  0.34            8.5316e-005     -8.5276e-005   
  0.35            8.7826e-005     -8.7988e-005   
  0.36            9.0539e-005     -9.0743e-005   
  0.37            9.3303e-005     -9.3276e-005   
  0.38            9.5799e-005     -9.5576e-005   
  0.39            9.8042e-005     -9.7842e-005   
  0.4             0.000100356     -0.000100385   
  0.41            0.000102934     -0.000103202   
  0.42            0.000105762     -0.00010534    
  0.43            0.00010807      -0.00010782    
  0.44            0.00011047      -0.0001105     
  0.45            0.00011319      -0.0001134     
  0.46            0.00011607      -0.00011599    
  0.47            0.00011858      -0.00011821    
  0.48            0.00012076      -0.00012043    
  0.49            0.00012302      -0.00012298    
  0.5             0.00012569      -0.00012593    
  0.51            0.00012864      -0.00012864    
  0.52            0.00013128      -0.00013093    
  0.53            0.00013347      -0.00013304    
  0.54            0.00013564      -0.00013551    
  0.55            0.00013817      -0.0001384     
  0.56            0.00014113      -0.00014126    
  0.57            0.00014341      -0.00014374    
  0.58            0.00014637      -0.00014631    
  0.59            0.00014891      -0.00014847    
  0.6             0.00015099      -0.00015058    
  0.61            0.00015374      -0.0001532     
  0.62            0.00015578      -0.0001556     
  0.63            0.00015826      -0.00015847    
  0.64            0.0001612       -0.00016144    
  0.65            0.00016414      -0.00016393    
  0.66            0.00016652      -0.00016594    
  0.67            0.00016843      -0.00016817    
  0.68            0.00017077      -0.00017093    
  0.69            0.00017364      -0.00017402    
  0.7             0.00017668      -0.00017662    
  0.71            0.0001792       -0.00017873    
  0.72            0.00018121      -0.00018078    
  0.73            0.00018401      -0.00018337    
  0.74            0.00018596      -0.00018574    
  0.75            0.00018841      -0.0001887     
  0.76            0.00019146      -0.00019176    
  0.77            0.00019445      -0.00019427    
  0.78            0.00019682      -0.00019617    
  0.79            0.00019867      -0.00019832    
  0.8             0.00020094      -0.00020113    
  0.81            0.00020386      -0.00020434    
  0.82            0.00020702      -0.00020702    
  0.83            0.00020956      -0.00020899    
  0.84            0.00021148      -0.00021093    
  0.85            0.00021433      -0.0002136     
  0.86            0.00021617      -0.00021594    
  0.87            0.00021863      -0.00021898    
  0.88            0.00022177      -0.00022213    
  0.89            0.00022482      -0.00022458    
  0.9             0.00022713      -0.00022641    
  0.91            0.00022886      -0.00022853    
  0.92            0.00023113      -0.0002314     
  0.93            0.00023419      -0.00023472    
  0.94            0.0002374       -0.00023732    
  0.95            0.00023988      -0.00023923    
  0.96            0.00024168      -0.00024114    
  0.97            0.00024463      -0.00024382    
  0.98            0.00024637      -0.00024617    
  0.99            0.00024889      -0.00024932    
  1               0.00025211      -0.0002525     
END_DB

