! VERSION = 6.00
BEGIN_HEADER
 ICCAP_INPUTS
  VU1        V  E GROUND SMU2 0.1 CON        0
  VU2        V  S GROUND SMU3 0.1 CON        0
  V2         V  B GROUND SMU1 0.015 CON        0
  V1         V  C GROUND SMU4 0.015 LIN        1    -0.8       0.8        161  0.01      
 ICCAP_OUTPUTS
  I1         I  C GROUND SMU4 B
  I2         I  B GROUND SMU1 B
END_HEADER

BEGIN_DB
 ICCAP_VAR VU1        0              
 ICCAP_VAR VU2        0              
 ICCAP_VAR V2         0              

 #V1              I1              I2             
  -0.8            -0.0002298      0.00022993     
  -0.79           -0.00022581     0.0002266      
  -0.78           -0.00022187     0.00022248     
  -0.77           -0.00021898     0.00022006     
  -0.76           -0.00021572     0.0002159      
  -0.75           -0.00021342     0.00021276     
  -0.74           -0.00021132     0.00021071     
  -0.73           -0.00020802     0.00020835     
  -0.72           -0.00020404     0.00020491     
  -0.71           -0.00020047     0.00020083     
  -0.7            -0.00019802     0.00019758     
  -0.69           -0.000196       0.00019522     
  -0.68           -0.00019294     0.00019308     
  -0.67           -0.00018919     0.00018993     
  -0.66           -0.00018553     0.00018609     
  -0.65           -0.00018267     0.0001835      
  -0.64           -0.00017955     0.00017968     
  -0.63           -0.00017727     0.00017676     
  -0.62           -0.00017499     0.0001746      
  -0.61           -0.00017189     0.00017117     
  -0.6            -0.00016908     0.00016902     
  -0.59           -0.00016555     0.00016611     
  -0.58           -0.00016183     0.00016245     
  -0.57           -0.00015903     0.0001589      
  -0.56           -0.00015683     0.00015619     
  -0.55           -0.00015428     0.00015409     
  -0.54           -0.000151       0.00015139     
  -0.53           -0.00014733     0.00014802     
  -0.52           -0.00014432     0.00014442     
  -0.51           -0.00014198     0.00014158     
  -0.5            -0.00013962     0.00013932     
  -0.49           -0.00013659     0.00013609     
  -0.48           -0.00013384     0.00013384     
  -0.47           -0.00013044     0.00013096     
  -0.46           -0.00012705     0.0001275      
  -0.45           -0.00012427     0.00012426     
  -0.44           -0.00012207     0.00012161     
  -0.43           -0.00011946     0.0001194      
  -0.42           -0.0001163      0.00011666     
  -0.41           -0.00011291     0.00011343     
  -0.4            -0.00011004     0.0001101      
  -0.39           -0.00010762     0.00010734     
  -0.38           -0.00010519     0.00010499     
  -0.37           -0.00010231     0.00010191     
  -0.36           -9.9568e-005    9.8851e-005    
  -0.35           -9.6499e-005    9.6734e-005    
  -0.34           -9.321e-005     9.363e-005     
  -0.33           -9.035e-005     9.0402e-005    
  -0.32           -8.7837e-005    8.7607e-005    
  -0.31           -8.5445e-005    8.5119e-005    
  -0.3            -8.2681e-005    8.2685e-005    
  -0.29           -7.9595e-005    7.985e-005     
  -0.28           -7.6523e-005    7.679e-005     
  -0.27           -7.3743e-005    7.3732e-005    
  -0.26           -7.124e-005     7.1003e-005    
  -0.25           -6.8702e-005    6.8517e-005    
  -0.24           -6.5886e-005    6.5946e-005    
  -0.23           -6.2834e-005    6.3109e-005    
  -0.22           -5.9905e-005    6.0048e-005    
  -0.21           -5.7213e-005    5.747e-005     
  -0.2            -5.4415e-005    5.446e-005     
  -0.19           -5.1828e-005    5.1685e-005    
  -0.18           -4.9295e-005    4.9097e-005    
  -0.17           -4.657e-005     4.6551e-005    
  -0.16           -4.3684e-005    4.383e-005     
  -0.15           -4.077e-005     4.0925e-005    
  -0.14           -3.8041e-005    3.8038e-005    
  -0.13           -3.5425e-005    3.5314e-005    
  -0.12           -3.2842e-005    3.2756e-005    
  -0.11           -3.0058e-005    3.0083e-005    
  -0.1            -2.7193e-005    2.7322e-005    
  -0.09           -2.439e-005     2.4453e-005    
  -0.08           -2.1693e-005    2.1798e-005    
  -0.07           -1.8964e-005    1.899e-005     
  -0.06           -1.6286e-005    1.6254e-005    
  -0.05           -1.3622e-005    1.3575e-005    
  -0.04           -1.0887e-005    1.0891e-005    
  -0.03           -8.1738e-006    8.1074e-006    
  -0.02           -5.4255e-006    5.4341e-006    
  -0.01           -2.6765e-006    2.6831e-006    
  0               2.4794e-008     -2.6425e-008   
  0.01            2.752e-006      -2.7429e-006   
  0.02            5.5038e-006     -5.4754e-006   
  0.03            8.2277e-006     -8.219e-006    
  0.04            1.09234e-005    -1.09623e-005  
  0.05            1.3665e-005     -1.3639e-005   
  0.06            1.6334e-005     -1.6393e-005   
  0.07            1.9031e-005     -1.9024e-005   
  0.08            2.184e-005      -2.176e-005    
  0.09            2.4657e-005     -2.4571e-005   
  0.1             2.7407e-005     -2.7413e-005   
  0.11            3.0007e-005     -3.0119e-005   
  0.12            3.2632e-005     -3.2719e-005   
  0.13            3.5389e-005     -3.535e-005    
  0.14            3.8286e-005     -3.8123e-005   
  0.15            4.1158e-005     -4.1084e-005   
  0.16            4.3851e-005     -4.3643e-005   
  0.17            4.666e-005      -4.6619e-005   
  0.18            4.9266e-005     -4.9407e-005   
  0.19            5.1769e-005     -5.1968e-005   
  0.2             5.4496e-005     -5.45e-005     
  0.21            5.7446e-005     -5.7237e-005   
  0.22            6.0446e-005     -6.0247e-005   
  0.23            6.3238e-005     -6.3232e-005   
  0.24            6.5706e-005     -6.594e-005    
  0.25            6.8231e-005     -6.8455e-005   
  0.26            7.106e-005      -7.0982e-005   
  0.27            7.4122e-005     -7.3814e-005   
  0.28            7.7182e-005     -7.6966e-005   
  0.29            7.9867e-005     -7.9513e-005   
  0.3             8.276e-005      -8.2681e-005   
  0.31            8.536e-005      -8.5584e-005   
  0.32            8.7713e-005     -8.8067e-005   
  0.33            9.044e-005      -9.0476e-005   
  0.34            9.3499e-005     -9.321e-005    
  0.35            9.6736e-005     -9.6352e-005   
  0.36            9.9617e-005     -9.958e-005    
  0.37            0.00010191      -0.000102399   
  0.38            0.00010492      -0.00010448    
  0.39            0.00010815      -0.00010779    
  0.4             0.00011092      -0.00011038    
  0.41            0.00011387      -0.00011375    
  0.42            0.00011628      -0.00011662    
  0.43            0.00011867      -0.00011895    
  0.44            0.00012163      -0.0001221     
  0.45            0.00012432      -0.00012433    
  0.46            0.00012761      -0.0001271     
  0.47            0.00013105      -0.00013054    
  0.48            0.00013385      -0.00013388    
  0.49            0.00013612      -0.00013662    
  0.5             0.00013867      -0.00013874    
  0.51            0.00014192      -0.00014147    
  0.52            0.00014553      -0.00014487    
  0.53            0.00014854      -0.00014848    
  0.54            0.00015085      -0.00015135    
  0.55            0.00015322      -0.00015359    
  0.56            0.00015631      -0.00015688    
  0.57            0.00015906      -0.00015902    
  0.58            0.00016258      -0.00016196    
  0.59            0.00016623      -0.00016564    
  0.6             0.00016907      -0.00016823    
  0.61            0.00017224      -0.00017209    
  0.62            0.00017461      -0.00017506    
  0.63            0.00017675      -0.00017727    
  0.64            0.00017987      -0.00017965    
  0.65            0.00018368      -0.00018282    
  0.66            0.00018719      -0.00018681    
  0.67            0.00018973      -0.0001901     
  0.68            0.00019175      -0.00019258    
  0.69            0.00019466      -0.00019463    
  0.7             0.00019849      -0.00019778    
  0.71            0.00020231      -0.0002017     
  0.72            0.00020518      -0.00020416    
  0.73            0.00020847      -0.00020829    
  0.74            0.00021085      -0.00021137    
  0.75            0.00021286      -0.00021352    
  0.76            0.000216        -0.00021578    
  0.77            0.0002202       -0.00021916    
  0.78            0.00022386      -0.0002234     
  0.79            0.00022643      -0.00022685    
  0.8             0.00022837      -0.00022928    
END_DB

