! VERSION = 6.00
BEGIN_HEADER
 ICCAP_INPUTS
  VU1        V  E GROUND SMU2 0.1 CON        0
  VU2        V  S GROUND SMU3 0.1 CON        0
  V2         V  B GROUND SMU4 0.015 CON        0
  V1         V  C GROUND SMU1 0.015 LIN        1    -1         1          201  0.01      
 ICCAP_OUTPUTS
  I1         I  C GROUND SMU1 B
  I2         I  B GROUND SMU4 B
END_HEADER

BEGIN_DB
 ICCAP_VAR VU1        0              
 ICCAP_VAR VU2        0              
 ICCAP_VAR V2         0              

 #V1              I1              I2             
  -1              -0.0005101      0.00051028     
  -0.99           -0.00050522     0.00050666     
  -0.98           -0.00050183     0.00050275     
  -0.97           -0.00049584     0.00049737     
  -0.96           -0.00049221     0.00049239     
  -0.95           -0.00048701     0.00048589     
  -0.94           -0.00048034     0.00047949     
  -0.93           -0.00047602     0.00047465     
  -0.92           -0.00046934     0.00046928     
  -0.91           -0.00046423     0.0004654      
  -0.9            -0.00046048     0.00046156     
  -0.89           -0.00045643     0.00045623     
  -0.88           -0.00045075     0.0004495      
  -0.87           -0.00044397     0.00044371     
  -0.86           -0.00043851     0.00043937     
  -0.85           -0.00043445     0.00043576     
  -0.84           -0.00043064     0.00043077     
  -0.83           -0.00042536     0.00042436     
  -0.82           -0.00041883     0.00041821     
  -0.81           -0.00041447     0.00041333     
  -0.8            -0.00040801     0.00040801     
  -0.79           -0.00040295     0.00040404     
  -0.78           -0.00039904     0.00039998     
  -0.77           -0.00039326     0.00039457     
  -0.76           -0.0003895      0.00038979     
  -0.75           -0.0003844      0.00038365     
  -0.74           -0.00037819     0.00037744     
  -0.73           -0.00037215     0.00037249     
  -0.72           -0.00036742     0.00036859     
  -0.71           -0.00036368     0.00036412     
  -0.7            -0.00035891     0.00035839     
  -0.69           -0.00035291     0.00035199     
  -0.68           -0.00034675     0.0003468      
  -0.67           -0.00034172     0.00034266     
  -0.66           -0.00033764     0.00033841     
  -0.65           -0.00033199     0.00033313     
  -0.64           -0.00032796     0.00032819     
  -0.63           -0.00032281     0.00032219     
  -0.62           -0.00031675     0.00031619     
  -0.61           -0.00031216     0.00031128     
  -0.6            -0.00030594     0.00030589     
  -0.59           -0.00030079     0.00030153     
  -0.58           -0.00029656     0.00029731     
  -0.57           -0.00029216     0.00029211     
  -0.56           -0.00028679     0.0002861      
  -0.55           -0.00028062     0.00028043     
  -0.54           -0.0002752      0.00027572     
  -0.53           -0.00027071     0.00027164     
  -0.52           -0.00026646     0.00026664     
  -0.51           -0.00026128     0.00026078     
  -0.5            -0.00025542     0.00025498     
  -0.49           -0.00025072     0.00025001     
  -0.48           -0.00024474     0.00024473     
  -0.47           -0.00023962     0.00024027     
  -0.46           -0.00023523     0.00023584     
  -0.45           -0.00023071     0.00023066     
  -0.44           -0.00022532     0.00022478     
  -0.43           -0.00021937     0.00021925     
  -0.42           -0.00021407     0.00021453     
  -0.41           -0.00020946     0.00021017     
  -0.4            -0.00020499     0.00020512     
  -0.39           -0.00019984     0.00019946     
  -0.38           -0.00019413     0.00019383     
  -0.37           -0.00018929     0.00018882     
  -0.36           -0.0001836      0.00018362     
  -0.35           -0.00017849     0.000179       
  -0.34           -0.00017388     0.00017437     
  -0.33           -0.00016921     0.00016919     
  -0.32           -0.00016387     0.00016349     
  -0.31           -0.00015815     0.00015811     
  -0.3            -0.00015293     0.0001533      
  -0.29           -0.00014816     0.00014871     
  -0.28           -0.0001435      0.00014366     
  -0.27           -0.00013838     0.00013814     
  -0.26           -0.00013285     0.00013266     
  -0.25           -0.0001279      0.00012762     
  -0.24           -0.00012241     0.00012247     
  -0.23           -0.00011728     0.00011767     
  -0.22           -0.0001125      0.00011289     
  -0.21           -0.00010769     0.00010772     
  -0.2            -0.00010246     0.00010226     
  -0.19           -9.7298e-005    9.6881e-005    
  -0.18           -9.2157e-005    9.187e-005     
  -0.17           -8.6733e-005    8.6695e-005    
  -0.16           -8.162e-005     8.1789e-005    
  -0.15           -7.6694e-005    7.6926e-005    
  -0.14           -7.1792e-005    7.1835e-005    
  -0.13           -6.6724e-005    6.6579e-005    
  -0.12           -6.1421e-005    6.1268e-005    
  -0.11           -5.6147e-005    5.6146e-005    
  -0.1            -5.1084e-005    5.1215e-005    
  -0.09           -4.6092e-005    4.6209e-005    
  -0.08           -4.1069e-005    4.1065e-005    
  -0.07           -3.5957e-005    3.5876e-005    
  -0.06           -3.0755e-005    3.0679e-005    
  -0.05           -2.5662e-005    2.5585e-005    
  -0.04           -2.0494e-005    2.0495e-005    
  -0.03           -1.5374e-005    1.5415e-005    
  -0.02           -1.0289e-005    1.033e-005     
  -0.01           -5.216e-006     5.2065e-006    
  0               -8.4726e-008    8.0399e-008    
  0.01            5.0145e-006     -5.0238e-006   
  0.02            1.00867e-005    -1.00883e-005  
  0.03            1.5288e-005     -1.518e-005    
  0.04            2.0299e-005     -2.0324e-005   
  0.05            2.5421e-005     -2.5487e-005   
  0.06            3.0635e-005     -3.0644e-005   
  0.07            3.5778e-005     -3.5703e-005   
  0.08            4.078e-005      -4.0657e-005   
  0.09            4.5768e-005     -4.5755e-005   
  0.1             5.0888e-005     -5.0983e-005   
  0.11            5.6102e-005     -5.6228e-005   
  0.12            6.1378e-005     -6.1348e-005   
  0.13            6.6479e-005     -6.6304e-005   
  0.14            7.1347e-005     -7.1213e-005   
  0.15            7.6319e-005     -7.6353e-005   
  0.16            8.1488e-005     -8.1728e-005   
  0.17            8.6842e-005     -8.6973e-005   
  0.18            9.1786e-005     -9.2051e-005   
  0.19            9.7209e-005     -9.7249e-005   
  0.2             0.000102337     -0.00010213    
  0.21            0.000107214     -0.000106911   
  0.22            0.00011202      -0.000111991   
  0.23            0.0001172       -0.00011743    
  0.24            0.00012271      -0.00012283    
  0.25            0.00012764      -0.0001279     
  0.26            0.00013315      -0.00013304    
  0.27            0.00013823      -0.0001378     
  0.28            0.00014289      -0.00014254    
  0.29            0.0001483       -0.00014772    
  0.3             0.00015285      -0.00015271    
  0.31            0.00015799      -0.00015826    
  0.32            0.00016361      -0.00016384    
  0.33            0.00016839      -0.00016882    
  0.34            0.00017412      -0.00017412    
  0.35            0.0001793       -0.00017886    
  0.36            0.0001839       -0.00018336    
  0.37            0.00018854      -0.00018852    
  0.38            0.0001938       -0.00019426    
  0.39            0.0001996       -0.00019975    
  0.4             0.000205        -0.0002046     
  0.41            0.00020969      -0.00020898    
  0.42            0.0002141       -0.00021394    
  0.43            0.00021923      -0.00021962    
  0.44            0.00022504      -0.00022539    
  0.45            0.00022973      -0.00023034    
  0.46            0.00023567      -0.00023568    
  0.47            0.00024085      -0.00024024    
  0.48            0.00024524      -0.00024457    
  0.49            0.00024974      -0.00024977    
  0.5             0.00025511      -0.00025574    
  0.51            0.00026117      -0.00026134    
  0.52            0.00026659      -0.00026603    
  0.53            0.00027112      -0.00027022    
  0.54            0.00027537      -0.00027521    
  0.55            0.0002805       -0.00028101    
  0.56            0.0002865       -0.00028696    
  0.57            0.0002911       -0.0002919     
  0.58            0.00029723      -0.00029728    
  0.59            0.00030246      -0.00030172    
  0.6             0.00030671      -0.00030589    
  0.61            0.00031101      -0.00031104    
  0.62            0.00031641      -0.00031721    
  0.63            0.00032267      -0.00032298    
  0.64            0.0003282       -0.0003276     
  0.65            0.00033263      -0.00033153    
  0.66            0.00033665      -0.00033645    
  0.67            0.00034175      -0.00034243    
  0.68            0.00034795      -0.00034857    
  0.69            0.00035246      -0.00035347    
  0.7             0.00035882      -0.00035889    
  0.71            0.00036401      -0.00036311    
  0.72            0.00036808      -0.00036714    
  0.73            0.00037226      -0.00037235    
  0.74            0.00037773      -0.00037872    
  0.75            0.00038427      -0.00038459    
  0.76            0.00038981      -0.00038908    
  0.77            0.00039407      -0.00039279    
  0.78            0.00039792      -0.00039774    
  0.79            0.00040309      -0.00040393    
  0.8             0.00040951      -0.00041019    
  0.81            0.0004139       -0.00041509    
  0.82            0.00042044      -0.00042051    
  0.83            0.0004256       -0.00042456    
  0.84            0.00042946      -0.00042844    
  0.85            0.00043355      -0.0004337     
  0.86            0.00043914      -0.00044033    
  0.87            0.00044592      -0.00044624    
  0.88            0.00045147      -0.0004506     
  0.89            0.00045551      -0.00045411    
  0.9             0.00045924      -0.00045911    
  0.91            0.00046445      -0.0004655     
  0.92            0.00047112      -0.00047189    
  0.93            0.00047542      -0.00047677    
  0.94            0.0004821       -0.00048215    
  0.95            0.00048722      -0.000486      
  0.96            0.00049084      -0.00048977    
  0.97            0.00049685      -0.00049518    
  0.98            0.00050024      -0.0004999     
  0.99            0.00050529      -0.00050625    
  1               0.00051188      -0.00051293    
END_DB

