! VERSION = 6.00
BEGIN_HEADER
 ICCAP_INPUTS
  VU1        V  E GROUND SMU2 0.1 CON        0
  VU2        V  S GROUND SMU3 0.1 CON        0
  V2         V  B GROUND SMU1 0.015 CON        0
  V1         V  C GROUND SMU4 0.015 LIN        1    -1         1          201  0.01      
 ICCAP_OUTPUTS
  I1         I  C GROUND SMU4 B
  I2         I  B GROUND SMU1 B
END_HEADER

BEGIN_DB
 ICCAP_VAR VU1        0              
 ICCAP_VAR VU2        0              
 ICCAP_VAR V2         0              

 #V1              I1              I2             
  -1              -0.00013845     0.0001385      
  -0.99           -0.0001372      0.00013718     
  -0.98           -0.00013582     0.00013591     
  -0.97           -0.00013435     0.00013451     
  -0.96           -0.00013285     0.00013298     
  -0.95           -0.00013148     0.00013167     
  -0.94           -0.00013008     0.00013016     
  -0.93           -0.0001288      0.00012877     
  -0.92           -0.00012751     0.00012751     
  -0.91           -0.00012613     0.00012607     
  -0.9            -0.00012475     0.00012482     
  -0.89           -0.00012327     0.00012342     
  -0.88           -0.00012177     0.00012193     
  -0.87           -0.0001204      0.00012045     
  -0.86           -0.00011913     0.00011909     
  -0.85           -0.00011783     0.00011787     
  -0.84           -0.0001164      0.0001165      
  -0.83           -0.00011488     0.00011505     
  -0.82           -0.00011346     0.00011355     
  -0.81           -0.00011215     0.00011216     
  -0.8            -0.00011087     0.00011089     
  -0.79           -0.00010948     0.00010957     
  -0.78           -0.00010797     0.00010814     
  -0.77           -0.00010653     0.00010663     
  -0.76           -0.00010519     0.00010524     
  -0.75           -0.00010394     0.00010392     
  -0.74           -0.00010257     0.00010264     
  -0.73           -0.00010111     0.00010123     
  -0.72           -9.9658e-005    9.9771e-005    
  -0.71           -9.8271e-005    9.8272e-005    
  -0.7            -9.698e-005     9.6912e-005    
  -0.69           -9.5668e-005    9.5623e-005    
  -0.68           -9.4264e-005    9.4289e-005    
  -0.67           -9.278e-005     9.2874e-005    
  -0.66           -9.135e-005     9.1402e-005    
  -0.65           -8.9981e-005    9.0072e-005    
  -0.64           -8.8576e-005    8.8597e-005    
  -0.63           -8.7244e-005    8.7203e-005    
  -0.62           -8.5954e-005    8.5887e-005    
  -0.61           -8.4575e-005    8.4576e-005    
  -0.6            -8.3129e-005    8.3187e-005    
  -0.59           -8.1664e-005    8.1736e-005    
  -0.58           -8.027e-005     8.0282e-005    
  -0.57           -7.8954e-005    7.8909e-005    
  -0.56           -7.7636e-005    7.7592e-005    
  -0.55           -7.6243e-005    7.6259e-005    
  -0.54           -7.479e-005     7.4858e-005    
  -0.53           -7.3358e-005    7.3402e-005    
  -0.52           -7.198e-005     7.1976e-005    
  -0.51           -7.0672e-005    7.061e-005     
  -0.5            -6.9317e-005    6.9295e-005    
  -0.49           -6.7924e-005    6.7875e-005    
  -0.48           -6.655e-005     6.6551e-005    
  -0.47           -6.512e-005     6.5165e-005    
  -0.46           -6.3667e-005    6.3731e-005    
  -0.45           -6.2284e-005    6.2292e-005    
  -0.44           -6.0944e-005    6.0912e-005    
  -0.43           -5.961e-005     5.9575e-005    
  -0.42           -5.8216e-005    5.8231e-005    
  -0.41           -5.6793e-005    5.6844e-005    
  -0.4            -5.5361e-005    5.5397e-005    
  -0.39           -5.398e-005     5.3981e-005    
  -0.38           -5.265e-005     5.2606e-005    
  -0.37           -5.1299e-005    5.1284e-005    
  -0.36           -4.99e-005      4.9863e-005    
  -0.35           -4.8523e-005    4.8524e-005    
  -0.34           -4.7105e-005    4.7138e-005    
  -0.33           -4.567e-005     4.5715e-005    
  -0.32           -4.4286e-005    4.4297e-005    
  -0.31           -4.2926e-005    4.2911e-005    
  -0.3            -4.1581e-005    4.1555e-005    
  -0.29           -4.0193e-005    4.0202e-005    
  -0.28           -3.8786e-005    3.8819e-005    
  -0.27           -3.7363e-005    3.7396e-005    
  -0.26           -3.5977e-005    3.5984e-005    
  -0.25           -3.462e-005     3.4601e-005    
  -0.24           -3.3268e-005    3.3265e-005    
  -0.23           -3.1873e-005    3.1849e-005    
  -0.22           -3.0492e-005    3.0495e-005    
  -0.21           -2.9088e-005    2.911e-005     
  -0.2            -2.7682e-005    2.7711e-005    
  -0.19           -2.6286e-005    2.6295e-005    
  -0.18           -2.4914e-005    2.491e-005     
  -0.17           -2.3552e-005    2.3539e-005    
  -0.16           -2.2172e-005    2.2181e-005    
  -0.15           -2.0774e-005    2.0788e-005    
  -0.14           -1.9365e-005    1.9385e-005    
  -0.13           -1.7977e-005    1.7981e-005    
  -0.12           -1.6612e-005    1.6609e-005    
  -0.11           -1.5239e-005    1.5241e-005    
  -0.1            -1.3849e-005    1.3856e-005    
  -0.09           -1.244e-005     1.2462e-005    
  -0.08           -1.1047e-005    1.1061e-005    
  -0.07           -9.6905e-006    9.6787e-006    
  -0.06           -8.2974e-006    8.2987e-006    
  -0.05           -6.8995e-006    6.9035e-006    
  -0.04           -5.5145e-006    5.5171e-006    
  -0.03           -4.1441e-006    4.1426e-006    
  -0.02           -2.7542e-006    2.7559e-006    
  -0.01           -1.362e-006     1.3637e-006    
  0               1.4061e-008     -1.4829e-008   
  0.01            1.4032e-006     -1.404e-006    
  0.02            2.7908e-006     -2.7906e-006   
  0.03            4.1629e-006     -4.1695e-006   
  0.04            5.5516e-006     -5.5522e-006   
  0.05            6.9472e-006     -6.9382e-006   
  0.06            8.3392e-006     -8.3277e-006   
  0.07            9.7188e-006     -9.7069e-006   
  0.08            1.11094e-005    -1.11068e-005  
  0.09            1.2502e-005     -1.2472e-005   
  0.1             1.3877e-005     -1.3883e-005   
  0.11            1.5244e-005     -1.5254e-005   
  0.12            1.6634e-005     -1.6624e-005   
  0.13            1.8037e-005     -1.8015e-005   
  0.14            1.9438e-005     -1.9415e-005   
  0.15            2.0825e-005     -2.0794e-005   
  0.16            2.2208e-005     -2.2198e-005   
  0.17            2.3581e-005     -2.359e-005    
  0.18            2.4944e-005     -2.4966e-005   
  0.19            2.6328e-005     -2.6327e-005   
  0.2             2.7728e-005     -2.7698e-005   
  0.21            2.914e-005      -2.9111e-005   
  0.22            3.0533e-005     -3.0527e-005   
  0.23            3.1893e-005     -3.1913e-005   
  0.24            3.3244e-005     -3.3264e-005   
  0.25            3.4637e-005     -3.4625e-005   
  0.26            3.6054e-005     -3.6019e-005   
  0.27            3.747e-005      -3.7437e-005   
  0.28            3.8854e-005     -3.8805e-005   
  0.29            4.0243e-005     -4.0229e-005   
  0.3             4.1608e-005     -4.1626e-005   
  0.31            4.2948e-005     -4.2987e-005   
  0.32            4.433e-005      -4.4331e-005   
  0.33            4.574e-005      -4.5698e-005   
  0.34            4.7172e-005     -4.7127e-005   
  0.35            4.8567e-005     -4.8557e-005   
  0.36            4.9915e-005     -4.9948e-005   
  0.37            5.1248e-005     -5.1282e-005   
  0.38            5.2643e-005     -5.2629e-005   
  0.39            5.4078e-005     -5.4022e-005   
  0.4             5.5502e-005     -5.5455e-005   
  0.41            5.6871e-005     -5.6875e-005   
  0.42            5.8209e-005     -5.8252e-005   
  0.43            5.9557e-005     -5.9578e-005   
  0.44            6.0954e-005     -6.1008e-005   
  0.45            6.233e-005      -6.2334e-005   
  0.46            6.3751e-005     -6.3701e-005   
  0.47            6.5201e-005     -6.5138e-005   
  0.48            6.6597e-005     -6.6587e-005   
  0.49            6.7932e-005     -6.7977e-005   
  0.5             6.9249e-005     -6.93e-005     
  0.51            7.064e-005      -7.063e-005    
  0.52            7.2087e-005     -7.2023e-005   
  0.53            7.3532e-005     -7.3472e-005   
  0.54            7.4901e-005     -7.4907e-005   
  0.55            7.6224e-005     -7.6281e-005   
  0.56            7.7553e-005     -7.7592e-005   
  0.57            7.8953e-005     -7.9032e-005   
  0.58            8.0324e-005     -8.0335e-005   
  0.59            8.1758e-005     -8.1697e-005   
  0.6             8.3225e-005     -8.3145e-005   
  0.61            8.4627e-005     -8.4614e-005   
  0.62            8.5959e-005     -8.6014e-005   
  0.63            8.725e-005      -8.7319e-005   
  0.64            8.8634e-005     -8.8632e-005   
  0.65            9.0095e-005     -9.0022e-005   
  0.66            9.1556e-005     -9.1487e-005   
  0.67            9.2923e-005     -9.293e-005    
  0.68            9.4238e-005     -9.4308e-005   
  0.69            9.5554e-005     -9.5614e-005   
  0.7             9.6955e-005     -9.6931e-005   
  0.71            9.8437e-005     -9.8344e-005   
  0.72            9.9875e-005     -9.9827e-005   
  0.73            0.00010118      -0.000101148   
  0.74            0.00010254      -0.00010254    
  0.75            0.0001039       -0.00010384    
  0.76            0.00010542      -0.00010524    
  0.77            0.00010686      -0.00010672    
  0.78            0.00010823      -0.00010805    
  0.79            0.00010963      -0.00010956    
  0.8             0.00011092      -0.00011091    
  0.81            0.00011224      -0.00011221    
  0.82            0.00011362      -0.00011364    
  0.83            0.00011498      -0.00011492    
  0.84            0.00011645      -0.00011631    
  0.85            0.00011794      -0.0001178     
  0.86            0.00011931      -0.00011926    
  0.87            0.00012057      -0.00012062    
  0.88            0.00012189      -0.00012185    
  0.89            0.00012336      -0.0001232     
  0.9             0.00012489      -0.0001247     
  0.91            0.00012628      -0.0001262     
  0.92            0.00012755      -0.00012757    
  0.93            0.00012883      -0.00012884    
  0.94            0.00013022      -0.00013027    
  0.95            0.00013158      -0.00013154    
  0.96            0.0001331       -0.00013293    
  0.97            0.00013458      -0.00013442    
  0.98            0.00013596      -0.0001359     
  0.99            0.0001372       -0.00013726    
  1               0.00013852      -0.00013846    
END_DB

