! VERSION = 6.00
BEGIN_HEADER
 ICCAP_INPUTS
  VU1        V  E GROUND SMU2 0.1 CON        0
  VU2        V  S GROUND SMU3 0.1 CON        0
  V2         V  B GROUND SMU1 0.015 CON        0
  V1         V  C GROUND SMU4 0.015 LIN        1    -1         1          201  0.01      
 ICCAP_OUTPUTS
  I1         I  C GROUND SMU4 B
  I2         I  B GROUND SMU1 B
END_HEADER

BEGIN_DB
 ICCAP_VAR VU1        0              
 ICCAP_VAR VU2        0              
 ICCAP_VAR V2         0              

 #V1              I1              I2             
  -1              -0.00073962     0.00073965     
  -0.99           -0.0007328      0.00073243     
  -0.98           -0.00072548     0.0007255      
  -0.97           -0.00071768     0.00071809     
  -0.96           -0.00070989     0.00071025     
  -0.95           -0.00070262     0.0007026      
  -0.94           -0.00069571     0.00069537     
  -0.93           -0.00068851     0.00068845     
  -0.92           -0.00068087     0.00068117     
  -0.91           -0.00067303     0.00067347     
  -0.9            -0.00066557     0.00066565     
  -0.89           -0.00065851     0.00065828     
  -0.88           -0.00065149     0.0006513      
  -0.87           -0.00064398     0.00064366     
  -0.86           -0.00063671     0.00063677     
  -0.85           -0.00062902     0.00062934     
  -0.84           -0.00062122     0.00062158     
  -0.83           -0.00061385     0.00061385     
  -0.82           -0.00060688     0.00060659     
  -0.81           -0.00059972     0.00059959     
  -0.8            -0.00059215     0.00059238     
  -0.79           -0.00058431     0.00058474     
  -0.78           -0.00057684     0.00057699     
  -0.77           -0.00056975     0.00056957     
  -0.76           -0.00056269     0.0005625      
  -0.75           -0.00055521     0.00055535     
  -0.74           -0.00054748     0.00054787     
  -0.73           -0.00053987     0.00054012     
  -0.72           -0.00053262     0.00053253     
  -0.71           -0.00052561     0.00052537     
  -0.7            -0.00051831     0.00051837     
  -0.69           -0.00051063     0.00051092     
  -0.68           -0.00050293     0.00050317     
  -0.67           -0.00049561     0.00049597     
  -0.66           -0.00048814     0.00048826     
  -0.65           -0.00048096     0.00048086     
  -0.64           -0.00047387     0.00047371     
  -0.63           -0.0004664      0.00046655     
  -0.62           -0.00045872     0.00045911     
  -0.61           -0.00045116     0.00045137     
  -0.6            -0.00044386     0.00044382     
  -0.59           -0.0004368      0.00043661     
  -0.58           -0.00042942     0.00042948     
  -0.57           -0.00042184     0.0004221      
  -0.56           -0.00041419     0.00041442     
  -0.55           -0.00040683     0.00040716     
  -0.54           -0.00039937     0.00039946     
  -0.53           -0.00039217     0.00039214     
  -0.52           -0.00038501     0.00038492     
  -0.51           -0.00037758     0.00037768     
  -0.5            -0.00036991     0.0003702      
  -0.49           -0.00036241     0.00036257     
  -0.48           -0.00035512     0.00035509     
  -0.47           -0.00034795     0.00034784     
  -0.46           -0.00034059     0.00034066     
  -0.45           -0.00033304     0.00033326     
  -0.44           -0.00032545     0.00032564     
  -0.43           -0.00031806     0.00031807     
  -0.42           -0.00031086     0.00031075     
  -0.41           -0.00030362     0.00030363     
  -0.4            -0.00029607     0.00029626     
  -0.39           -0.00028847     0.00028872     
  -0.38           -0.00028107     0.0002811      
  -0.37           -0.00027384     0.00027378     
  -0.36           -0.00026657     0.00026657     
  -0.35           -0.00025909     0.00025903     
  -0.34           -0.00025171     0.00025179     
  -0.33           -0.00024418     0.00024435     
  -0.32           -0.00023666     0.00023681     
  -0.31           -0.00022929     0.0002295      
  -0.3            -0.00022184     0.00022192     
  -0.29           -0.00021454     0.00021452     
  -0.28           -0.00020733     0.00020727     
  -0.27           -0.00019987     0.00019995     
  -0.26           -0.00019231     0.00019248     
  -0.25           -0.00018482     0.00018495     
  -0.24           -0.00017752     0.00017756     
  -0.23           -0.00017023     0.0001702      
  -0.22           -0.00016281     0.0001629      
  -0.21           -0.00015534     0.00015547     
  -0.2            -0.00014789     0.00014799     
  -0.19           -0.0001405      0.00014066     
  -0.18           -0.00013308     0.00013312     
  -0.17           -0.0001257      0.00012574     
  -0.16           -0.00011841     0.00011846     
  -0.15           -0.00011099     0.00011107     
  -0.14           -0.00010347     0.00010362     
  -0.13           -9.6048e-005    9.6136e-005    
  -0.12           -8.8718e-005    8.8773e-005    
  -0.11           -8.1286e-005    8.1309e-005    
  -0.1            -7.3902e-005    7.3888e-005    
  -0.09           -6.6531e-005    6.6506e-005    
  -0.08           -5.911e-005     5.9123e-005    
  -0.07           -5.1736e-005    5.1751e-005    
  -0.06           -4.4286e-005    4.4319e-005    
  -0.05           -3.6888e-005    3.6887e-005    
  -0.04           -2.9477e-005    2.9484e-005    
  -0.03           -2.2135e-005    2.2128e-005    
  -0.02           -1.4704e-005    1.4719e-005    
  -0.01           -7.2929e-006    7.2833e-006    
  0               5.9568e-008     -6.3683e-008   
  0.01            7.4743e-006     -7.481e-006    
  0.02            1.4891e-005     -1.4912e-005   
  0.03            2.2269e-005     -2.2243e-005   
  0.04            2.9696e-005     -2.9654e-005   
  0.05            3.7115e-005     -3.7109e-005   
  0.06            4.4519e-005     -4.4523e-005   
  0.07            5.1841e-005     -5.1882e-005   
  0.08            5.9249e-005     -5.929e-005    
  0.09            6.6654e-005     -6.665e-005    
  0.1             7.409e-005      -7.4046e-005   
  0.11            8.1503e-005     -8.1442e-005   
  0.12            8.8931e-005     -8.8914e-005   
  0.13            9.6295e-005     -9.6346e-005   
  0.14            0.00010385      -0.000103705   
  0.15            0.00011127      -0.00011112    
  0.16            0.00011861      -0.00011855    
  0.17            0.00012596      -0.00012596    
  0.18            0.00013331      -0.00013327    
  0.19            0.00014077      -0.00014068    
  0.2             0.00014826      -0.0001481     
  0.21            0.00015569      -0.0001556     
  0.22            0.00016299      -0.00016301    
  0.23            0.00017033      -0.00017035    
  0.24            0.00017768      -0.00017775    
  0.25            0.0001851       -0.00018503    
  0.26            0.00019263      -0.00019243    
  0.27            0.00020014      -0.00019999    
  0.28            0.00020754      -0.00020751    
  0.29            0.00021479      -0.00021482    
  0.3             0.0002221       -0.00022207    
  0.31            0.00022959      -0.00022943    
  0.32            0.00023717      -0.00023695    
  0.33            0.00024458      -0.00024448    
  0.34            0.00025184      -0.00025191    
  0.35            0.00025912      -0.00025918    
  0.36            0.00026655      -0.00026646    
  0.37            0.00027411      -0.00027388    
  0.38            0.0002816       -0.00028151    
  0.39            0.00028894      -0.00028897    
  0.4             0.00029614      -0.00029624    
  0.41            0.00030346      -0.0003034     
  0.42            0.00031108      -0.00031086    
  0.43            0.00031867      -0.00031844    
  0.44            0.00032606      -0.00032576    
  0.45            0.00033352      -0.00033341    
  0.46            0.00034068      -0.00034077    
  0.47            0.00034789      -0.000348      
  0.48            0.00035537      -0.00035522    
  0.49            0.000363        -0.00036272    
  0.5             0.00037047      -0.00037036    
  0.51            0.00037779      -0.00037782    
  0.52            0.00038492      -0.00038507    
  0.53            0.00039232      -0.00039226    
  0.54            0.00039988      -0.00039961    
  0.55            0.00040751      -0.00040725    
  0.56            0.00041491      -0.00041455    
  0.57            0.00042238      -0.00042229    
  0.58            0.00042955      -0.00042969    
  0.59            0.00043666      -0.0004368     
  0.6             0.00044412      -0.00044398    
  0.61            0.00045186      -0.00045149    
  0.62            0.00045942      -0.00045928    
  0.63            0.00046662      -0.00046671    
  0.64            0.0004737       -0.00047389    
  0.65            0.00048106      -0.00048099    
  0.66            0.00048878      -0.00048846    
  0.67            0.00049639      -0.00049612    
  0.68            0.00050375      -0.00050336    
  0.69            0.00051121      -0.0005111     
  0.7             0.00051834      -0.00051851    
  0.71            0.00052546      -0.00052565    
  0.72            0.00053286      -0.00053312    
  0.73            0.00054019      -0.00054017    
  0.74            0.00054787      -0.00054755    
  0.75            0.00055563      -0.00055528    
  0.76            0.00056295      -0.00056294    
  0.77            0.00057         -0.00057026    
  0.78            0.00057718      -0.00057724    
  0.79            0.00058476      -0.00058451    
  0.8             0.00059255      -0.00059213    
  0.81            0.00060003      -0.00059991    
  0.82            0.00060709      -0.00060734    
  0.83            0.00061417      -0.00061441    
  0.84            0.00062161      -0.00062142    
  0.85            0.00062946      -0.00062901    
  0.86            0.00063707      -0.00063689    
  0.87            0.00064424      -0.0006444     
  0.88            0.00065113      -0.00065145    
  0.89            0.00065849      -0.00065845    
  0.9             0.0006663       -0.00066589    
  0.91            0.00067405      -0.00067376    
  0.92            0.00068142      -0.00068093    
  0.93            0.00068885      -0.00068873    
  0.94            0.00069587      -0.00069612    
  0.95            0.0007029       -0.00070312    
  0.96            0.00071033      -0.00071076    
  0.97            0.00071759      -0.00071761    
  0.98            0.00072538      -0.00072497    
  0.99            0.00073324      -0.00073283    
  1               0.00074057      -0.0007406     
END_DB

