! VERSION = 6.00
BEGIN_HEADER
 ICCAP_INPUTS
  VU1        V  E GROUND SMU2 0.1 CON        0
  VU2        V  S GROUND SMU3 0.1 CON        0
  V2         V  B GROUND SMU1 0.015 CON        0
  V1         V  C GROUND SMU4 0.015 LIN        1    -1         1          201  0.01      
 ICCAP_OUTPUTS
  I1         I  C GROUND SMU4 B
  I2         I  B GROUND SMU1 B
END_HEADER

BEGIN_DB
 ICCAP_VAR VU1        0              
 ICCAP_VAR VU2        0              
 ICCAP_VAR V2         0              

 #V1              I1              I2             
  -1              -0.00070181     0.00070186     
  -0.99           -0.0006949      0.00069497     
  -0.98           -0.00068749     0.00068791     
  -0.97           -0.00068021     0.0006805      
  -0.96           -0.00067321     0.0006737      
  -0.95           -0.00066624     0.00066634     
  -0.94           -0.00065946     0.00065932     
  -0.93           -0.00065282     0.00065268     
  -0.92           -0.00064572     0.00064553     
  -0.91           -0.0006388      0.00063881     
  -0.9            -0.00063135     0.00063168     
  -0.89           -0.00062417     0.00062449     
  -0.88           -0.00061712     0.00061715     
  -0.87           -0.00061052     0.00061025     
  -0.86           -0.00060378     0.00060369     
  -0.85           -0.00059664     0.00059694     
  -0.84           -0.00058923     0.00058962     
  -0.83           -0.00058219     0.00058235     
  -0.82           -0.00057548     0.00057529     
  -0.81           -0.00056867     0.00056853     
  -0.8            -0.00056163     0.00056168     
  -0.79           -0.0005543      0.00055459     
  -0.78           -0.00054714     0.00054726     
  -0.77           -0.00054027     0.00054016     
  -0.76           -0.00053353     0.00053341     
  -0.75           -0.00052646     0.00052653     
  -0.74           -0.00051923     0.00051952     
  -0.73           -0.00051198     0.00051221     
  -0.72           -0.00050499     0.00050532     
  -0.71           -0.00049791     0.00049796     
  -0.7            -0.00049113     0.00049105     
  -0.69           -0.00048438     0.00048425     
  -0.68           -0.00047723     0.00047703     
  -0.67           -0.00047029     0.00047034     
  -0.66           -0.00046312     0.00046338     
  -0.65           -0.00045582     0.00045616     
  -0.64           -0.00044889     0.00044885     
  -0.63           -0.00044209     0.00044197     
  -0.62           -0.00043526     0.00043531     
  -0.61           -0.00042819     0.00042831     
  -0.6            -0.00042086     0.00042116     
  -0.59           -0.00041381     0.00041385     
  -0.58           -0.00040696     0.00040676     
  -0.57           -0.00040019     0.0004001      
  -0.56           -0.00039312     0.00039297     
  -0.55           -0.00038611     0.00038623     
  -0.54           -0.00037895     0.00037913     
  -0.53           -0.00037182     0.00037197     
  -0.52           -0.00036476     0.00036477     
  -0.51           -0.0003579      0.00035773     
  -0.5            -0.00035091     0.00035094     
  -0.49           -0.00034386     0.00034403     
  -0.48           -0.00033664     0.00033685     
  -0.47           -0.00032958     0.00032966     
  -0.46           -0.00032276     0.00032268     
  -0.45           -0.00031588     0.0003159      
  -0.44           -0.0003088      0.00030872     
  -0.43           -0.00030187     0.00030188     
  -0.42           -0.00029468     0.00029488     
  -0.41           -0.00028752     0.00028767     
  -0.4            -0.00028057     0.0002806      
  -0.39           -0.00027369     0.00027364     
  -0.38           -0.00026678     0.00026679     
  -0.37           -0.00025968     0.00025981     
  -0.36           -0.00025245     0.00025268     
  -0.35           -0.00024543     0.00024549     
  -0.34           -0.00023855     0.00023853     
  -0.33           -0.00023156     0.00023161     
  -0.32           -0.0002246      0.00022454     
  -0.31           -0.00021761     0.00021766     
  -0.3            -0.00021049     0.00021063     
  -0.29           -0.00020335     0.00020344     
  -0.28           -0.00019641     0.00019657     
  -0.27           -0.00018929     0.00018938     
  -0.26           -0.00018238     0.00018235     
  -0.25           -0.00017544     0.00017543     
  -0.24           -0.00016843     0.00016851     
  -0.23           -0.00016128     0.00016142     
  -0.22           -0.00015423     0.00015433     
  -0.21           -0.00014723     0.00014727     
  -0.2            -0.00014031     0.00014035     
  -0.19           -0.00013331     0.00013341     
  -0.18           -0.00012619     0.00012632     
  -0.17           -0.00011914     0.00011921     
  -0.16           -0.00011218     0.00011224     
  -0.15           -0.00010519     0.00010522     
  -0.14           -9.8175e-005    9.8108e-005    
  -0.13           -9.1148e-005    9.1097e-005    
  -0.12           -8.4186e-005    8.4188e-005    
  -0.11           -7.711e-005     7.7128e-005    
  -0.1            -7.0063e-005    7.0086e-005    
  -0.09           -6.3032e-005    6.3027e-005    
  -0.08           -5.6008e-005    5.6007e-005    
  -0.07           -4.9063e-005    4.9053e-005    
  -0.06           -4.2024e-005    4.204e-005     
  -0.05           -3.4985e-005    3.5e-005       
  -0.04           -2.7938e-005    2.7928e-005    
  -0.03           -2.0963e-005    2.0966e-005    
  -0.02           -1.3964e-005    1.3939e-005    
  -0.01           -6.9078e-006    6.9126e-006    
  0               5.8401e-008     -5.8038e-008   
  0.01            7.0969e-006     -7.095e-006    
  0.02            1.4123e-005     -1.4126e-005   
  0.03            2.109e-005      -2.1091e-005   
  0.04            2.814e-005      -2.812e-005    
  0.05            3.5186e-005     -3.5164e-005   
  0.06            4.2222e-005     -4.2219e-005   
  0.07            4.9178e-005     -4.9186e-005   
  0.08            5.6178e-005     -5.6214e-005   
  0.09            6.3213e-005     -6.3246e-005   
  0.1             7.0231e-005     -7.0216e-005   
  0.11            7.7223e-005     -7.718e-005    
  0.12            8.4296e-005     -8.424e-005    
  0.13            9.1337e-005     -9.132e-005    
  0.14            9.8326e-005     -9.8368e-005   
  0.15            0.00010545      -0.000105306   
  0.16            0.00011247      -0.00011235    
  0.17            0.00011942      -0.00011939    
  0.18            0.00012643      -0.00012641    
  0.19            0.00013337      -0.00013331    
  0.2             0.00014042      -0.00014034    
  0.21            0.00014756      -0.00014736    
  0.22            0.00015458      -0.00015451    
  0.23            0.00016156      -0.00016155    
  0.24            0.00016848      -0.00016847    
  0.25            0.00017551      -0.00017543    
  0.26            0.00018261      -0.00018246    
  0.27            0.00018972      -0.00018958    
  0.28            0.0001967       -0.00019667    
  0.29            0.00020355      -0.00020357    
  0.3             0.00021053      -0.00021046    
  0.31            0.00021772      -0.00021753    
  0.32            0.0002248       -0.00022461    
  0.33            0.00023179      -0.00023158    
  0.34            0.00023882      -0.00023871    
  0.35            0.00024576      -0.0002458     
  0.36            0.00025265      -0.0002527     
  0.37            0.00025966      -0.00025959    
  0.38            0.00026677      -0.00026656    
  0.39            0.00027384      -0.0002738     
  0.4             0.00028088      -0.00028092    
  0.41            0.00028768      -0.00028776    
  0.42            0.00029473      -0.00029468    
  0.43            0.00030195      -0.00030171    
  0.44            0.00030911      -0.0003089     
  0.45            0.00031611      -0.0003159     
  0.46            0.0003231       -0.00032297    
  0.47            0.00033001      -0.00033003    
  0.48            0.0003368       -0.00033692    
  0.49            0.00034388      -0.00034399    
  0.5             0.00035081      -0.00035077    
  0.51            0.00035805      -0.00035783    
  0.52            0.00036526      -0.00036494    
  0.53            0.00037218      -0.00037224    
  0.54            0.00037903      -0.00037919    
  0.55            0.0003859       -0.00038591    
  0.56            0.00039306      -0.00039288    
  0.57            0.00040034      -0.00040004    
  0.58            0.00040741      -0.00040733    
  0.59            0.00041422      -0.0004143     
  0.6             0.00042104      -0.0004211     
  0.61            0.00042811      -0.00042831    
  0.62            0.00043515      -0.00043515    
  0.63            0.00044225      -0.00044209    
  0.64            0.00044956      -0.00044931    
  0.65            0.00045654      -0.00045618    
  0.66            0.00046356      -0.00046347    
  0.67            0.00047035      -0.00047044    
  0.68            0.00047722      -0.00047731    
  0.69            0.00048428      -0.00048412    
  0.7             0.00049153      -0.00049112    
  0.71            0.00049863      -0.00049848    
  0.72            0.00050552      -0.00050558    
  0.73            0.00051235      -0.00051255    
  0.74            0.00051925      -0.00051922    
  0.75            0.00052647      -0.00052621    
  0.76            0.00053374      -0.00053342    
  0.77            0.00054077      -0.00054077    
  0.78            0.0005474       -0.0005476     
  0.79            0.00055433      -0.00055432    
  0.8             0.00056133      -0.00056119    
  0.81            0.00056868      -0.00056835    
  0.82            0.00057589      -0.00057579    
  0.83            0.00058253      -0.00058273    
  0.84            0.0005893       -0.00058947    
  0.85            0.00059636      -0.00059653    
  0.86            0.00060322      -0.00060336    
  0.87            0.00061061      -0.00061039    
  0.88            0.00061803      -0.00061767    
  0.89            0.00062499      -0.00062502    
  0.9             0.00063175      -0.00063191    
  0.91            0.00063844      -0.00063846    
  0.92            0.00064564      -0.00064543    
  0.93            0.00065304      -0.00065251    
  0.94            0.00065995      -0.00065993    
  0.95            0.00066671      -0.00066698    
  0.96            0.0006734       -0.00067374    
  0.97            0.0006805       -0.00068092    
  0.98            0.00068757      -0.00068758    
  0.99            0.00069505      -0.00069471    
  1               0.00070237      -0.00070204    
END_DB

