! VERSION = 6.00
BEGIN_HEADER
 ICCAP_INPUTS
  VU1        V  E GROUND SMU2 0.1 CON        0
  VU2        V  S GROUND SMU3 0.1 CON        0
  V2         V  B GROUND SMU1 0.015 CON        0
  V1         V  C GROUND SMU4 0.015 LIN        1    -1         1          201  0.01      
 ICCAP_OUTPUTS
  I1         I  C GROUND SMU4 B
  I2         I  B GROUND SMU1 B
END_HEADER

BEGIN_DB
 ICCAP_VAR VU1        0              
 ICCAP_VAR VU2        0              
 ICCAP_VAR V2         0              

 #V1              I1              I2             
  -1              -0.0004801      0.00048015     
  -0.99           -0.00047544     0.00047517     
  -0.98           -0.00047101     0.00047062     
  -0.97           -0.00046601     0.00046609     
  -0.96           -0.00046033     0.00046095     
  -0.95           -0.00045501     0.00045538     
  -0.94           -0.00045011     0.0004507      
  -0.93           -0.00044499     0.00044509     
  -0.92           -0.00044041     0.00044013     
  -0.91           -0.0004359      0.00043569     
  -0.9            -0.00043078     0.00043039     
  -0.89           -0.00042595     0.00042592     
  -0.88           -0.00042046     0.00042093     
  -0.87           -0.00041504     0.00041541     
  -0.86           -0.00041017     0.00041014     
  -0.85           -0.00040571     0.00040535     
  -0.84           -0.00040099     0.00040092     
  -0.83           -0.00039575     0.0003961      
  -0.82           -0.00039025     0.00039075     
  -0.81           -0.00038523     0.00038535     
  -0.8            -0.0003807      0.00038041     
  -0.79           -0.00037617     0.00037597     
  -0.78           -0.00037114     0.00037079     
  -0.77           -0.00036631     0.00036632     
  -0.76           -0.00036104     0.00036144     
  -0.75           -0.00035565     0.00035608     
  -0.74           -0.00035082     0.00035084     
  -0.73           -0.0003464      0.00034608     
  -0.72           -0.00034166     0.00034161     
  -0.71           -0.00033654     0.00033682     
  -0.7            -0.00033123     0.00033167     
  -0.69           -0.00032631     0.0003264      
  -0.68           -0.00032172     0.00032152     
  -0.67           -0.00031719     0.00031705     
  -0.66           -0.00031223     0.00031198     
  -0.65           -0.00030742     0.00030746     
  -0.64           -0.00030228     0.0003026      
  -0.63           -0.00029706     0.00029737     
  -0.62           -0.0002923      0.00029231     
  -0.61           -0.00028782     0.0002876      
  -0.6            -0.00028311     0.00028311     
  -0.59           -0.00027812     0.00027839     
  -0.58           -0.00027292     0.00027329     
  -0.57           -0.00026808     0.00026817     
  -0.56           -0.00026351     0.00026337     
  -0.55           -0.00025899     0.0002589      
  -0.54           -0.00025408     0.00025388     
  -0.53           -0.00024933     0.00024942     
  -0.52           -0.00024431     0.00024461     
  -0.51           -0.00023924     0.00023951     
  -0.5            -0.0002345      0.00023483     
  -0.49           -0.00022966     0.0002298      
  -0.48           -0.0002251      0.000225       
  -0.47           -0.00022058     0.00022047     
  -0.46           -0.00021575     0.00021586     
  -0.45           -0.00021071     0.00021101     
  -0.44           -0.00020582     0.00020597     
  -0.43           -0.00020119     0.00020114     
  -0.42           -0.00019666     0.00019654     
  -0.41           -0.00019198     0.00019209     
  -0.4            -0.00018703     0.00018728     
  -0.39           -0.0001821      0.00018229     
  -0.38           -0.00017743     0.00017766     
  -0.37           -0.00017266     0.00017277     
  -0.36           -0.00016811     0.00016803     
  -0.35           -0.00016355     0.0001635      
  -0.34           -0.00015876     0.00015888     
  -0.33           -0.00015385     0.00015408     
  -0.32           -0.00014907     0.00014923     
  -0.31           -0.00014443     0.00014441     
  -0.3            -0.00013992     0.00013985     
  -0.29           -0.00013522     0.00013531     
  -0.28           -0.00013044     0.0001306      
  -0.27           -0.00012557     0.00012572     
  -0.26           -0.00012091     0.00012112     
  -0.25           -0.00011618     0.00011628     
  -0.24           -0.00011163     0.00011164     
  -0.23           -0.00010706     0.00010705     
  -0.22           -0.00010235     0.00010245     
  -0.21           -9.7581e-005    9.7535e-005    
  -0.2            -9.2873e-005    9.292e-005     
  -0.19           -8.8214e-005    8.8198e-005    
  -0.18           -8.3655e-005    8.3546e-005    
  -0.17           -7.9009e-005    7.8976e-005    
  -0.16           -7.435e-005     7.4284e-005    
  -0.15           -6.9702e-005    6.9704e-005    
  -0.14           -6.498e-005     6.5032e-005    
  -0.13           -6.0255e-005    6.0317e-005    
  -0.12           -5.5625e-005    5.5621e-005    
  -0.11           -5.1002e-005    5.0973e-005    
  -0.1            -4.6397e-005    4.6366e-005    
  -0.09           -4.1729e-005    4.1751e-005    
  -0.08           -3.704e-005     3.7084e-005    
  -0.07           -3.239e-005     3.2411e-005    
  -0.06           -2.7745e-005    2.7747e-005    
  -0.05           -2.3137e-005    2.311e-005     
  -0.04           -1.8486e-005    1.8494e-005    
  -0.03           -1.386e-005     1.386e-005     
  -0.02           -9.2322e-006    9.2121e-006    
  -0.01           -4.5698e-006    4.5547e-006    
  0               4.1287e-008     -4.3812e-008   
  0.01            4.6886e-006     -4.6731e-006   
  0.02            9.346e-006      -9.3285e-006   
  0.03            1.3955e-005     -1.3917e-005   
  0.04            1.8609e-005     -1.8599e-005   
  0.05            2.3232e-005     -2.325e-005    
  0.06            2.784e-005      -2.7862e-005   
  0.07            3.2432e-005     -3.2434e-005   
  0.08            3.7102e-005     -3.7054e-005   
  0.09            4.1784e-005     -4.1737e-005   
  0.1             4.644e-005      -4.6425e-005   
  0.11            5.0998e-005     -5.104e-005    
  0.12            5.5583e-005     -5.5636e-005   
  0.13            6.0235e-005     -6.0213e-005   
  0.14            6.4921e-005     -6.4862e-005   
  0.15            6.964e-005      -6.9572e-005   
  0.16            7.423e-005      -7.4123e-005   
  0.17            7.8891e-005     -7.8875e-005   
  0.18            8.3479e-005     -8.3543e-005   
  0.19            8.8022e-005     -8.81e-005     
  0.2             9.2609e-005     -9.2619e-005   
  0.21            9.7354e-005     -9.7254e-005   
  0.22            0.00010199      -0.000102021   
  0.23            0.00010661      -0.00010665    
  0.24            0.00011128      -0.00011116    
  0.25            0.00011609      -0.00011587    
  0.26            0.00012084      -0.00012068    
  0.27            0.0001254       -0.0001254     
  0.28            0.00012988      -0.00012996    
  0.29            0.00013451      -0.00013444    
  0.3             0.00013933      -0.00013911    
  0.31            0.00014413      -0.00014395    
  0.32            0.00014875      -0.00014853    
  0.33            0.00015345      -0.00015339    
  0.34            0.00015802      -0.00015808    
  0.35            0.00016254      -0.0001626     
  0.36            0.00016725      -0.00016712    
  0.37            0.00017211      -0.00017184    
  0.38            0.00017692      -0.00017677    
  0.39            0.00018152      -0.00018156    
  0.4             0.00018598      -0.00018607    
  0.41            0.00019058      -0.00019054    
  0.42            0.00019551      -0.00019526    
  0.43            0.00020045      -0.00020022    
  0.44            0.00020513      -0.00020481    
  0.45            0.00020993      -0.00020981    
  0.46            0.00021442      -0.00021455    
  0.47            0.00021889      -0.000219      
  0.48            0.0002237       -0.00022355    
  0.49            0.00022875      -0.00022839    
  0.5             0.0002336       -0.00023343    
  0.51            0.00023822      -0.00023829    
  0.52            0.00024266      -0.0002428     
  0.53            0.0002474       -0.00024733    
  0.54            0.00025238      -0.00025206    
  0.55            0.00025741      -0.00025713    
  0.56            0.00026217      -0.00026177    
  0.57            0.00026703      -0.00026692    
  0.58            0.00027153      -0.00027169    
  0.59            0.00027604      -0.00027617    
  0.6             0.00028091      -0.00028116    
  0.61            0.00028562      -0.00028553    
  0.62            0.00029066      -0.00029037    
  0.63            0.00029584      -0.00029548    
  0.64            0.00030066      -0.00030058    
  0.65            0.00030509      -0.00030537    
  0.66            0.00030972      -0.00030975    
  0.67            0.00031469      -0.00031442    
  0.68            0.00032002      -0.00031952    
  0.69            0.00032497      -0.00032486    
  0.7             0.00032947      -0.00032966    
  0.71            0.00033396      -0.00033417    
  0.72            0.00033889      -0.0003387     
  0.73            0.00034423      -0.00034376    
  0.74            0.00034932      -0.00034918    
  0.75            0.00035398      -0.00035414    
  0.76            0.0003584       -0.00035867    
  0.77            0.00036324      -0.00036317    
  0.78            0.00036856      -0.00036813    
  0.79            0.00037386      -0.00037355    
  0.8             0.00037872      -0.0003782     
  0.81            0.00038365      -0.00038358    
  0.82            0.00038818      -0.00038848    
  0.83            0.00039275      -0.00039294    
  0.84            0.00039772      -0.0003981     
  0.85            0.00040258      -0.00040255    
  0.86            0.00040796      -0.00040751    
  0.87            0.00041336      -0.00041294    
  0.88            0.00041818      -0.00041755    
  0.89            0.00042336      -0.00042322    
  0.9             0.00042796      -0.00042824    
  0.91            0.00043239      -0.00043273    
  0.92            0.00043741      -0.00043724    
  0.93            0.00044292      -0.00044233    
  0.94            0.00044828      -0.00044799    
  0.95            0.00045308      -0.00045321    
  0.96            0.00045739      -0.00045788    
  0.97            0.00046228      -0.00046226    
  0.98            0.00046777      -0.00046728    
  0.99            0.00047334      -0.00047284    
  1               0.00047824      -0.00047762    
END_DB

