! VERSION = 6.00
BEGIN_HEADER
 ICCAP_INPUTS
  VU1        V  E GROUND SMU2 0.1 CON        0
  VU2        V  S GROUND SMU3 0.1 CON        0
  V2         V  B GROUND SMU1 0.015 CON        0
  V1         V  C GROUND SMU4 0.015 LIN        1    -1         1          201  0.01      
 ICCAP_OUTPUTS
  I1         I  C GROUND SMU4 B
  I2         I  B GROUND SMU1 B
END_HEADER

BEGIN_DB
 ICCAP_VAR VU1        0              
 ICCAP_VAR VU2        0              
 ICCAP_VAR V2         0              

 #V1              I1              I2             
  -1              -0.0023755      0.0023768      
  -0.99           -0.0023516      0.0023523      
  -0.98           -0.0023284      0.0023284      
  -0.97           -0.0023054      0.0023058      
  -0.96           -0.0022816      0.0022816      
  -0.95           -0.0022582      0.002259       
  -0.94           -0.0022338      0.0022352      
  -0.93           -0.0022092      0.0022102      
  -0.92           -0.0021856      0.0021871      
  -0.91           -0.0021614      0.0021623      
  -0.9            -0.0021383      0.0021387      
  -0.89           -0.002115       0.0021156      
  -0.88           -0.0020915      0.0020925      
  -0.87           -0.0020666      0.0020683      
  -0.86           -0.0020425      0.0020438      
  -0.85           -0.0020191      0.0020195      
  -0.84           -0.0019962      0.0019962      
  -0.83           -0.0019724      0.001973       
  -0.82           -0.0019477      0.0019494      
  -0.81           -0.0019233      0.0019247      
  -0.8            -0.0018997      0.0019016      
  -0.79           -0.0018756      0.0018765      
  -0.78           -0.0018526      0.0018528      
  -0.77           -0.0018295      0.0018299      
  -0.76           -0.0018053      0.0018057      
  -0.75           -0.0017816      0.0017825      
  -0.74           -0.0017576      0.0017587      
  -0.73           -0.0017331      0.0017344      
  -0.72           -0.0017091      0.0017098      
  -0.71           -0.0016861      0.0016863      
  -0.7            -0.0016627      0.0016634      
  -0.69           -0.0016385      0.0016398      
  -0.68           -0.0016141      0.0016157      
  -0.67           -0.0015901      0.0015911      
  -0.66           -0.0015671      0.0015675      
  -0.65           -0.0015437      0.0015444      
  -0.64           -0.00152        0.0015201      
  -0.63           -0.0014962      0.0014972      
  -0.62           -0.001472       0.0014732      
  -0.61           -0.0014476      0.0014489      
  -0.6            -0.0014238      0.0014245      
  -0.59           -0.0014008      0.0014008      
  -0.58           -0.0013773      0.0013779      
  -0.57           -0.0013532      0.0013545      
  -0.56           -0.0013289      0.0013301      
  -0.55           -0.001305       0.0013058      
  -0.54           -0.0012816      0.001282       
  -0.53           -0.0012582      0.0012591      
  -0.52           -0.0012344      0.0012348      
  -0.51           -0.0012106      0.0012115      
  -0.5            -0.0011865      0.0011875      
  -0.49           -0.0011625      0.0011633      
  -0.48           -0.0011386      0.00114        
  -0.47           -0.0011147      0.0011157      
  -0.46           -0.0010913      0.0010917      
  -0.45           -0.0010682      0.0010687      
  -0.44           -0.0010441      0.0010453      
  -0.43           -0.0010199      0.001021       
  -0.42           -0.0009966      0.0009967      
  -0.41           -0.00097262     0.00097289     
  -0.4            -0.00094897     0.00094945     
  -0.39           -0.00092505     0.00092523     
  -0.38           -0.00090153     0.00090139     
  -0.37           -0.00087832     0.00087809     
  -0.36           -0.00085452     0.00085466     
  -0.35           -0.00083026     0.00083074     
  -0.34           -0.00080635     0.00080662     
  -0.33           -0.0007827      0.00078261     
  -0.32           -0.00075937     0.0007592      
  -0.31           -0.00073566     0.00073575     
  -0.3            -0.00071173     0.00071201     
  -0.29           -0.00068767     0.00068791     
  -0.28           -0.0006641      0.0006641      
  -0.27           -0.00064062     0.00064047     
  -0.26           -0.00061698     0.00061695     
  -0.25           -0.00059304     0.00059327     
  -0.24           -0.00056913     0.00056942     
  -0.23           -0.00054539     0.00054545     
  -0.22           -0.00052178     0.00052169     
  -0.21           -0.00049817     0.00049824     
  -0.2            -0.00047447     0.00047444     
  -0.19           -0.00045074     0.00045085     
  -0.18           -0.00042685     0.00042698     
  -0.17           -0.00040292     0.00040307     
  -0.16           -0.00037932     0.00037939     
  -0.15           -0.00035572     0.00035568     
  -0.14           -0.00033206     0.00033211     
  -0.13           -0.00030822     0.00030836     
  -0.12           -0.00028444     0.00028463     
  -0.11           -0.00026065     0.00026074     
  -0.1            -0.00023697     0.00023699     
  -0.09           -0.00021327     0.00021334     
  -0.08           -0.00018941     0.00018945     
  -0.07           -0.00016581     0.00016594     
  -0.06           -0.000142       0.00014212     
  -0.05           -0.00011818     0.00011819     
  -0.04           -9.4365e-005    9.4388e-005    
  -0.03           -7.0798e-005    7.0857e-005    
  -0.02           -4.7067e-005    4.7061e-005    
  -0.01           -2.3296e-005    2.3338e-005    
  0               -9.537e-008     8.2505e-007    
  0.01            2.3995e-005     -2.4004e-005   
  0.02            4.7735e-005     -4.7739e-005   
  0.03            7.1323e-005     -7.1233e-005   
  0.04            9.5085e-005     -9.5006e-005   
  0.05            0.00011907      -0.00011893    
  0.06            0.00014279      -0.00014277    
  0.07            0.0001663       -0.00016627    
  0.08            0.00019007      -0.00018998    
  0.09            0.00021383      -0.00021373    
  0.1             0.00023776      -0.0002377     
  0.11            0.00026132      -0.00026131    
  0.12            0.00028498      -0.00028502    
  0.13            0.00030869      -0.00030864    
  0.14            0.00033262      -0.00033242    
  0.15            0.00035657      -0.00035623    
  0.16            0.00038015      -0.00037986    
  0.17            0.00040397      -0.00040386    
  0.18            0.00042758      -0.00042767    
  0.19            0.00045119      -0.00045125    
  0.2             0.00047485      -0.00047471    
  0.21            0.00049882      -0.00049857    
  0.22            0.00052278      -0.00052265    
  0.23            0.00054651      -0.00054646    
  0.24            0.00056976      -0.00056989    
  0.25            0.0005935       -0.00059348    
  0.26            0.00061757      -0.00061723    
  0.27            0.0006416       -0.00064128    
  0.28            0.00066535      -0.00066532    
  0.29            0.00068866      -0.00068885    
  0.3             0.00071232      -0.0007123     
  0.31            0.00073631      -0.00073601    
  0.32            0.00076043      -0.0007601     
  0.33            0.00078417      -0.00078403    
  0.34            0.00080763      -0.0008079     
  0.35            0.00083111      -0.00083132    
  0.36            0.00085502      -0.00085529    
  0.37            0.00087854      -0.00087854    
  0.38            0.00090272      -0.00090236    
  0.39            0.00092681      -0.00092645    
  0.4             0.00095064      -0.0009501     
  0.41            0.00097431      -0.0009742     
  0.42            0.00099788      -0.00099805    
  0.43            0.00102128      -0.00102147    
  0.44            0.00104509      -0.0010449     
  0.45            0.00106923      -0.00106878    
  0.46            0.00109327      -0.00109313    
  0.47            0.0011169       -0.00111709    
  0.48            0.0011412       -0.0011396     
  0.49            0.0011646       -0.0011643     
  0.5             0.001188        -0.0011872     
  0.51            0.0012118       -0.0012108     
  0.52            0.0012365       -0.0012349     
  0.53            0.0012603       -0.0012593     
  0.54            0.0012834       -0.0012831     
  0.55            0.0013069       -0.0013066     
  0.56            0.0013309       -0.0013306     
  0.57            0.0013545       -0.0013538     
  0.58            0.0013788       -0.0013775     
  0.59            0.0014031       -0.0014017     
  0.6             0.0014268       -0.0014262     
  0.61            0.0014499       -0.0014498     
  0.62            0.0014736       -0.0014729     
  0.63            0.0014974       -0.0014964     
  0.64            0.001522        -0.0015206     
  0.65            0.001546        -0.0015447     
  0.66            0.0015693       -0.0015689     
  0.67            0.0015923       -0.001592      
  0.68            0.0016161       -0.0016159     
  0.69            0.0016396       -0.0016392     
  0.7             0.0016642       -0.0016629     
  0.71            0.0016886       -0.0016872     
  0.72            0.0017124       -0.0017116     
  0.73            0.0017352       -0.001735      
  0.74            0.0017587       -0.001758      
  0.75            0.0017829       -0.0017816     
  0.76            0.0018074       -0.0018057     
  0.77            0.0018316       -0.0018306     
  0.78            0.0018546       -0.0018542     
  0.79            0.0018778       -0.0018776     
  0.8             0.0019012       -0.0019004     
  0.81            0.001926        -0.0019246     
  0.82            0.0019508       -0.0019496     
  0.83            0.0019739       -0.0019738     
  0.84            0.0019966       -0.0019965     
  0.85            0.0020203       -0.0020197     
  0.86            0.002045        -0.0020435     
  0.87            0.0020693       -0.0020682     
  0.88            0.0020931       -0.0020916     
  0.89            0.0021171       -0.0021161     
  0.9             0.0021403       -0.00214       
  0.91            0.0021631       -0.002163      
  0.92            0.002187        -0.0021874     
  0.93            0.0022106       -0.0022096     
  0.94            0.002235        -0.0022335     
  0.95            0.0022599       -0.0022583     
  0.96            0.0022835       -0.0022826     
  0.97            0.0023064       -0.0023062     
  0.98            0.0023294       -0.0023288     
  0.99            0.0023534       -0.0023522     
  1               0.0023785       -0.0023767     
END_DB

