! VERSION = 6.00
BEGIN_HEADER
 ICCAP_INPUTS
  VU1        V  E GROUND SMU2 0.1 CON        0
  VU2        V  S GROUND SMU3 0.1 CON        0
  V2         V  B GROUND SMU1 0.015 CON        0
  V1         V  C GROUND SMU4 0.015 LIN        1    -0.5       0.5        201  0.005     
 ICCAP_OUTPUTS
  I1         I  C GROUND SMU4 B
  I2         I  B GROUND SMU1 B
END_HEADER

BEGIN_DB
 ICCAP_VAR VU1        0              
 ICCAP_VAR VU2        0              
 ICCAP_VAR V2         0              

 #V1              I1              I2             
  -0.5            -0.00039685     0.00039679     
  -0.495          -0.00039245     0.00039281     
  -0.49           -0.00038787     0.00038832     
  -0.485          -0.00038352     0.00038363     
  -0.48           -0.00037966     0.0003795      
  -0.475          -0.00037577     0.00037559     
  -0.47           -0.00037149     0.00037164     
  -0.465          -0.00036681     0.00036726     
  -0.46           -0.00036243     0.00036265     
  -0.455          -0.00035826     0.00035872     
  -0.45           -0.00035419     0.00035428     
  -0.445          -0.00035029     0.00035011     
  -0.44           -0.00034648     0.0003463      
  -0.435          -0.00034228     0.00034235     
  -0.43           -0.00033777     0.00033811     
  -0.425          -0.00033348     0.00033364     
  -0.42           -0.00032927     0.00032965     
  -0.415          -0.00032516     0.00032528     
  -0.41           -0.00032139     0.00032127     
  -0.405          -0.00031754     0.0003174      
  -0.4            -0.00031331     0.00031347     
  -0.395          -0.00030891     0.00030936     
  -0.39           -0.0003047      0.00030493     
  -0.385          -0.00030062     0.00030099     
  -0.38           -0.00029651     0.00029664     
  -0.375          -0.00029268     0.00029256     
  -0.37           -0.00028897     0.00028885     
  -0.365          -0.00028491     0.00028499     
  -0.36           -0.00028053     0.00028087     
  -0.355          -0.00027633     0.00027652     
  -0.35           -0.00027231     0.00027265     
  -0.345          -0.00026822     0.00026834     
  -0.34           -0.00026443     0.00026434     
  -0.335          -0.00026057     0.00026052     
  -0.33           -0.00025661     0.00025671     
  -0.325          -0.00025236     0.00025268     
  -0.32           -0.00024823     0.00024843     
  -0.315          -0.00024425     0.00024456     
  -0.31           -0.00024026     0.00024036     
  -0.305          -0.00023646     0.00023641     
  -0.3            -0.00023267     0.00023263     
  -0.295          -0.00022868     0.00022882     
  -0.29           -0.00022447     0.00022481     
  -0.285          -0.00022041     0.00022062     
  -0.28           -0.00021658     0.00021657     
  -0.275          -0.00021283     0.00021274     
  -0.27           -0.00020895     0.00020897     
  -0.265          -0.00020491     0.00020511     
  -0.26           -0.00020074     0.00020098     
  -0.255          -0.00019675     0.00019682     
  -0.25           -0.00019297     0.00019291     
  -0.245          -0.00018922     0.00018921     
  -0.24           -0.0001853      0.00018541     
  -0.235          -0.00018116     0.00018143     
  -0.23           -0.0001772      0.00017737     
  -0.225          -0.00017336     0.00017337     
  -0.22           -0.00016964     0.00016954     
  -0.215          -0.00016578     0.00016585     
  -0.21           -0.00016174     0.00016195     
  -0.205          -0.00015771     0.0001579      
  -0.2            -0.00015385     0.00015391     
  -0.195          -0.0001501      0.00015007     
  -0.19           -0.00014632     0.00014632     
  -0.185          -0.0001424      0.0001425      
  -0.18           -0.0001384      0.0001386      
  -0.175          -0.00013443     0.00013458     
  -0.17           -0.00013062     0.00013063     
  -0.165          -0.00012686     0.00012685     
  -0.16           -0.00012308     0.00012314     
  -0.155          -0.00011911     0.00011926     
  -0.15           -0.00011515     0.0001153      
  -0.145          -0.00011128     0.00011132     
  -0.14           -0.00010753     0.00010753     
  -0.135          -0.00010372     0.00010376     
  -0.13           -9.9826e-005    9.9816e-005    
  -0.125          -9.6004e-005    9.5957e-005    
  -0.12           -9.2179e-005    9.221e-005     
  -0.115          -8.8262e-005    8.8332e-005    
  -0.11           -8.4347e-005    8.4413e-005    
  -0.105          -8.0527e-005    8.0492e-005    
  -0.1            -7.6741e-005    7.6696e-005    
  -0.095          -7.2925e-005    7.2891e-005    
  -0.09           -6.9039e-005    6.9086e-005    
  -0.085          -6.5149e-005    6.519e-005     
  -0.08           -6.1248e-005    6.1285e-005    
  -0.075          -5.7487e-005    5.7475e-005    
  -0.07           -5.3663e-005    5.3655e-005    
  -0.065          -4.9859e-005    4.984e-005     
  -0.06           -4.5998e-005    4.6022e-005    
  -0.055          -4.2132e-005    4.2159e-005    
  -0.05           -3.8239e-005    3.8275e-005    
  -0.045          -3.4412e-005    3.44e-005      
  -0.04           -3.0569e-005    3.0574e-005    
  -0.035          -2.6822e-005    2.6814e-005    
  -0.03           -2.296e-005     2.2988e-005    
  -0.025          -1.9122e-005    1.9121e-005    
  -0.02           -1.5237e-005    1.5263e-005    
  -0.015          -1.1402e-005    1.1403e-005    
  -0.01           -7.5592e-006    7.5568e-006    
  -0.005          -3.7247e-006    3.7124e-006    
  0               6.4414e-008     -6.6636e-008   
  0.005           3.9281e-006     -3.9262e-006   
  0.01            7.7946e-006     -7.7816e-006   
  0.015           1.1624e-005     -1.1615e-005   
  0.02            1.5467e-005     -1.549e-005    
  0.025           1.926e-005      -1.9253e-005   
  0.03            2.3125e-005     -2.3103e-005   
  0.035           2.6992e-005     -2.6946e-005   
  0.04            3.087e-005      -3.086e-005    
  0.045           3.4694e-005     -3.4709e-005   
  0.05            3.8519e-005     -3.8566e-005   
  0.055           4.2373e-005     -4.2368e-005   
  0.06            4.6263e-005     -4.6221e-005   
  0.065           5.0159e-005     -5.0093e-005   
  0.07            5.3963e-005     -5.3961e-005   
  0.075           5.7792e-005     -5.7826e-005   
  0.08            6.1589e-005     -6.1666e-005   
  0.085           6.5468e-005     -6.5462e-005   
  0.09            6.9381e-005     -6.9328e-005   
  0.095           7.331e-005      -7.3241e-005   
  0.1             7.7191e-005     -7.718e-005    
  0.105           8.1028e-005     -8.1064e-005   
  0.11            8.4743e-005     -8.4826e-005   
  0.115           8.8628e-005     -8.8621e-005   
  0.12            9.2555e-005     -9.2486e-005   
  0.125           9.6535e-005     -9.6456e-005   
  0.13            0.00010045      -0.000100285   
  0.135           0.00010426      -0.00010427    
  0.14            0.0001081       -0.00010805    
  0.145           0.00011211      -0.00011191    
  0.15            0.00011607      -0.00011593    
  0.155           0.00011992      -0.00011986    
  0.16            0.00012372      -0.00012377    
  0.165           0.00012757      -0.00012757    
  0.17            0.00013146      -0.00013152    
  0.175           0.00013539      -0.00013531    
  0.18            0.00013937      -0.00013919    
  0.185           0.00014343      -0.00014324    
  0.19            0.00014736      -0.00014729    
  0.195           0.00015112      -0.00015116    
  0.2             0.00015496      -0.00015499    
  0.205           0.00015888      -0.00015897    
  0.21            0.00016282      -0.00016274    
  0.215           0.00016681      -0.00016665    
  0.22            0.00017089      -0.00017068    
  0.225           0.00017487      -0.00017482    
  0.23            0.00017867      -0.00017874    
  0.235           0.00018251      -0.00018255    
  0.24            0.00018642      -0.00018655    
  0.245           0.00019036      -0.00019031    
  0.25            0.00019445      -0.00019422    
  0.255           0.00019859      -0.00019837    
  0.26            0.00020258      -0.00020249    
  0.265           0.00020639      -0.00020643    
  0.27            0.00021022      -0.00021032    
  0.275           0.00021422      -0.00021433    
  0.28            0.00021817      -0.00021811    
  0.285           0.00022224      -0.00022196    
  0.29            0.00022648      -0.00022621    
  0.295           0.00023052      -0.00023045    
  0.3             0.00023439      -0.00023447    
  0.305           0.00023811      -0.00023822    
  0.31            0.00024217      -0.00024232    
  0.315           0.00024616      -0.00024613    
  0.32            0.00025034      -0.00025009    
  0.325           0.00025458      -0.00025429    
  0.33            0.00025862      -0.00025859    
  0.335           0.00026242      -0.00026255    
  0.34            0.00026627      -0.00026641    
  0.345           0.00027035      -0.00027059    
  0.35            0.00027439      -0.00027432    
  0.355           0.00027866      -0.00027838    
  0.36            0.00028298      -0.00028266    
  0.365           0.00028714      -0.00028702    
  0.37            0.00029078      -0.00029096    
  0.375           0.00029474      -0.00029482    
  0.38            0.00029886      -0.00029901    
  0.385           0.00030284      -0.00030281    
  0.39            0.00030716      -0.0003069     
  0.395           0.00031157      -0.00031129    
  0.4             0.00031569      -0.00031565    
  0.405           0.00031952      -0.00031971    
  0.41            0.00032336      -0.00032352    
  0.415           0.00032759      -0.00032781    
  0.42            0.00033159      -0.00033158    
  0.425           0.00033596      -0.00033571    
  0.43            0.00034045      -0.00034001    
  0.435           0.00034457      -0.00034449    
  0.44            0.0003485       -0.00034874    
  0.445           0.00035239      -0.00035254    
  0.45            0.00035666      -0.00035694    
  0.455           0.00036067      -0.00036062    
  0.46            0.00036519      -0.00036484    
  0.465           0.00036972      -0.00036936    
  0.47            0.00037396      -0.00037389    
  0.475           0.00037775      -0.00037801    
  0.48            0.00038171      -0.00038187    
  0.485           0.00038605      -0.00038633    
  0.49            0.00039033      -0.00039023    
  0.495           0.00039477      -0.00039453    
  0.5             0.00039931      -0.00039889    
END_DB

