! VERSION = 6.00
BEGIN_HEADER
 ICCAP_INPUTS
  VU1        V  E GROUND SMU2 0.1 CON        0
  VU2        V  S GROUND SMU3 0.1 CON        0
  V2         V  B GROUND SMU1 0.015 CON        0
  V1         V  C GROUND SMU4 0.015 LIN        1    -1         1          201  0.01      
 ICCAP_OUTPUTS
  I1         I  C GROUND SMU4 B
  I2         I  B GROUND SMU1 B
END_HEADER

BEGIN_DB
 ICCAP_VAR VU1        0              
 ICCAP_VAR VU2        0              
 ICCAP_VAR V2         0              

 #V1              I1              I2             
  -1              -0.00014045     0.00014052     
  -0.99           -0.00013895     0.00013913     
  -0.98           -0.00013738     0.00013758     
  -0.97           -0.00013597     0.00013606     
  -0.96           -0.0001347      0.00013468     
  -0.95           -0.00013342     0.00013345     
  -0.94           -0.000132       0.00013194     
  -0.93           -0.00013059     0.00013068     
  -0.92           -0.00012908     0.00012925     
  -0.91           -0.00012756     0.00012772     
  -0.9            -0.00012618     0.00012639     
  -0.89           -0.00012474     0.00012483     
  -0.88           -0.00012346     0.00012344     
  -0.87           -0.00012218     0.00012219     
  -0.86           -0.00012074     0.00012086     
  -0.85           -0.00011921     0.00011942     
  -0.84           -0.00011771     0.00011785     
  -0.83           -0.00011638     0.00011642     
  -0.82           -0.00011515     0.0001151      
  -0.81           -0.00011375     0.00011382     
  -0.8            -0.00011223     0.00011241     
  -0.79           -0.00011073     0.00011086     
  -0.78           -0.00010936     0.00010954     
  -0.77           -0.00010791     0.00010801     
  -0.76           -0.0001066      0.00010662     
  -0.75           -0.00010533     0.00010533     
  -0.74           -0.00010392     0.00010401     
  -0.73           -0.00010239     0.00010255     
  -0.72           -0.0001009      0.00010103     
  -0.71           -9.9556e-005    9.9743e-005    
  -0.7            -9.8283e-005    9.8195e-005    
  -0.69           -9.6925e-005    9.6906e-005    
  -0.68           -9.5479e-005    9.5532e-005    
  -0.67           -9.3962e-005    9.4068e-005    
  -0.66           -9.2529e-005    9.2564e-005    
  -0.65           -9.1176e-005    9.1131e-005    
  -0.64           -8.9879e-005    8.9795e-005    
  -0.63           -8.8497e-005    8.8491e-005    
  -0.62           -8.7035e-005    8.7102e-005    
  -0.61           -8.5531e-005    8.5619e-005    
  -0.6            -8.4118e-005    8.4128e-005    
  -0.59           -8.2782e-005    8.273e-005     
  -0.58           -8.1457e-005    8.1403e-005    
  -0.57           -8.006e-005     8.0079e-005    
  -0.56           -7.8575e-005    7.865e-005     
  -0.55           -7.7104e-005    7.7156e-005    
  -0.54           -7.5709e-005    7.5706e-005    
  -0.53           -7.4402e-005    7.433e-005     
  -0.52           -7.304e-005     7.3012e-005    
  -0.51           -7.1614e-005    7.1551e-005    
  -0.5            -7.0227e-005    7.0223e-005    
  -0.49           -6.8776e-005    6.8832e-005    
  -0.48           -6.7292e-005    6.7364e-005    
  -0.47           -6.5886e-005    6.5897e-005    
  -0.46           -6.4531e-005    6.4494e-005    
  -0.45           -6.3205e-005    6.3165e-005    
  -0.44           -6.1794e-005    6.1808e-005    
  -0.43           -6.0331e-005    6.039e-005     
  -0.42           -5.8871e-005    5.8913e-005    
  -0.41           -5.7484e-005    5.7482e-005    
  -0.4            -5.6145e-005    5.6093e-005    
  -0.39           -5.4773e-005    5.4754e-005    
  -0.38           -5.3353e-005    5.331e-005     
  -0.37           -5.1971e-005    5.1972e-005    
  -0.36           -5.0525e-005    5.0567e-005    
  -0.35           -4.9062e-005    4.9117e-005    
  -0.34           -4.7654e-005    4.7667e-005    
  -0.33           -4.6284e-005    4.6263e-005    
  -0.32           -4.4939e-005    4.491e-005     
  -0.31           -4.3528e-005    4.354e-005     
  -0.3            -4.2084e-005    4.2128e-005    
  -0.29           -4.0638e-005    4.0669e-005    
  -0.28           -3.9252e-005    3.9251e-005    
  -0.27           -3.7891e-005    3.7861e-005    
  -0.26           -3.6507e-005    3.6498e-005    
  -0.25           -3.5088e-005    3.5064e-005    
  -0.24           -3.3703e-005    3.3705e-005    
  -0.23           -3.2275e-005    3.23e-005      
  -0.22           -3.0832e-005    3.0869e-005    
  -0.21           -2.9422e-005    2.9435e-005    
  -0.2            -2.805e-005     2.804e-005     
  -0.19           -2.6673e-005    2.6661e-005    
  -0.18           -2.5266e-005    2.5278e-005    
  -0.17           -2.3838e-005    2.3863e-005    
  -0.16           -2.242e-005     2.2442e-005    
  -0.15           -2.1016e-005    2.1024e-005    
  -0.14           -1.9636e-005    1.9624e-005    
  -0.13           -1.8241e-005    1.8245e-005    
  -0.12           -1.6836e-005    1.683e-005     
  -0.11           -1.5437e-005    1.5441e-005    
  -0.1            -1.4019e-005    1.4035e-005    
  -0.09           -1.26e-005      1.2618e-005    
  -0.08           -1.119e-005     1.1198e-005    
  -0.07           -9.8001e-006    9.8216e-006    
  -0.06           -8.3966e-006    8.3944e-006    
  -0.05           -7.0012e-006    6.9975e-006    
  -0.04           -5.5941e-006    5.5974e-006    
  -0.03           -4.1963e-006    4.1973e-006    
  -0.02           -2.7854e-006    2.7837e-006    
  -0.01           -1.3816e-006    1.3797e-006    
  0               1.1858e-008     -1.4996e-008   
  0.01            1.4226e-006     -1.4141e-006   
  0.02            2.8313e-006     -2.8229e-006   
  0.03            4.2267e-006     -4.2236e-006   
  0.04            5.6255e-006     -5.6337e-006   
  0.05            7.0272e-006     -7.0358e-006   
  0.06            8.4387e-006     -8.4324e-006   
  0.07            9.8461e-006     -9.8307e-006   
  0.08            1.12535e-005    -1.12504e-005  
  0.09            1.2663e-005     -1.2633e-005   
  0.1             1.4064e-005     -1.4065e-005   
  0.11            1.5439e-005     -1.5455e-005   
  0.12            1.6843e-005     -1.6839e-005   
  0.13            1.8262e-005     -1.8237e-005   
  0.14            1.9688e-005     -1.9656e-005   
  0.15            2.11e-005       -2.1089e-005   
  0.16            2.2477e-005     -2.249e-005    
  0.17            2.386e-005      -2.3878e-005   
  0.18            2.5262e-005     -2.5258e-005   
  0.19            2.6691e-005     -2.6657e-005   
  0.2             2.8115e-005     -2.808e-005    
  0.21            2.9522e-005     -2.9513e-005   
  0.22            3.0898e-005     -3.0919e-005   
  0.23            3.2277e-005     -3.2298e-005   
  0.24            3.3673e-005     -3.3661e-005   
  0.25            3.5114e-005     -3.5073e-005   
  0.26            3.6549e-005     -3.6509e-005   
  0.27            3.7952e-005     -3.7897e-005   
  0.28            3.9368e-005     -3.9351e-005   
  0.29            4.0736e-005     -4.0757e-005   
  0.3             4.2094e-005     -4.2137e-005   
  0.31            4.3488e-005     -4.3491e-005   
  0.32            4.4927e-005     -4.4884e-005   
  0.33            4.6377e-005     -4.6324e-005   
  0.34            4.779e-005      -4.7777e-005   
  0.35            4.9153e-005     -4.9189e-005   
  0.36            5.0506e-005     -5.0544e-005   
  0.37            5.1903e-005     -5.1895e-005   
  0.38            5.3361e-005     -5.3303e-005   
  0.39            5.4811e-005     -5.4757e-005   
  0.4             5.621e-005      -5.6213e-005   
  0.41            5.7555e-005     -5.7597e-005   
  0.42            5.8909e-005     -5.894e-005    
  0.43            6.0323e-005     -6.0386e-005   
  0.44            6.1713e-005     -6.1721e-005   
  0.45            6.3171e-005     -6.3111e-005   
  0.46            6.4636e-005     -6.4566e-005   
  0.47            6.605e-005      -6.6037e-005   
  0.48            6.7397e-005     -6.7448e-005   
  0.49            6.873e-005      -6.8791e-005   
  0.5             7.013e-005      -7.0122e-005   
  0.51            7.1606e-005     -7.1535e-005   
  0.52            7.3077e-005     -7.301e-005    
  0.53            7.4471e-005     -7.4477e-005   
  0.54            7.5792e-005     -7.586e-005    
  0.55            7.7134e-005     -7.718e-005    
  0.56            7.8553e-005     -7.8637e-005   
  0.57            7.994e-005      -7.9952e-005   
  0.58            8.1406e-005     -8.1339e-005   
  0.59            8.29e-005       -8.2805e-005   
  0.6             8.4317e-005     -8.4303e-005   
  0.61            8.5654e-005     -8.5718e-005   
  0.62            8.6969e-005     -8.7046e-005   
  0.63            8.8364e-005     -8.8353e-005   
  0.64            8.9851e-005     -8.9765e-005   
  0.65            9.1334e-005     -9.1253e-005   
  0.66            9.2728e-005     -9.274e-005    
  0.67            9.4031e-005     -9.4116e-005   
  0.68            9.5361e-005     -9.542e-005    
  0.69            9.6785e-005     -9.6891e-005   
  0.7             9.8162e-005     -9.8179e-005   
  0.71            9.9642e-005     -9.9565e-005   
  0.72            0.00010105      -0.000101045   
  0.73            0.00010242      -0.00010245    
  0.74            0.00010384      -0.00010376    
  0.75            0.00010535      -0.00010518    
  0.76            0.00010684      -0.00010671    
  0.77            0.0001082       -0.00010816    
  0.78            0.00010946      -0.0001095     
  0.79            0.00011084      -0.00011077    
  0.8             0.00011233      -0.00011217    
  0.81            0.00011385      -0.00011368    
  0.82            0.00011524      -0.00011517    
  0.83            0.00011653      -0.00011658    
  0.84            0.00011784      -0.00011779    
  0.85            0.00011933      -0.00011917    
  0.86            0.00012088      -0.00012066    
  0.87            0.00012229      -0.00012219    
  0.88            0.00012357      -0.0001236     
  0.89            0.00012485      -0.00012489    
  0.9             0.00012629      -0.00012636    
  0.91            0.00012768      -0.0001276     
  0.92            0.00012916      -0.000129      
  0.93            0.00013071      -0.00013053    
  0.94            0.0001321       -0.00013206    
  0.95            0.00013336      -0.00013341    
  0.96            0.00013467      -0.00013466    
  0.97            0.00013613      -0.00013599    
  0.98            0.00013773      -0.00013752    
  0.99            0.00013915      -0.00013908    
  1               0.00014043      -0.00014048    
END_DB

