! VERSION = 6.00
BEGIN_HEADER
 ICCAP_INPUTS
  VU1        V  E GROUND SMU2 0.1 CON        0
  VU2        V  S GROUND SMU3 0.1 CON        0
  V2         V  B GROUND SMU1 0.015 CON        0
  V1         V  C GROUND SMU4 0.015 LIN        1    -1         1          201  0.01      
 ICCAP_OUTPUTS
  I1         I  C GROUND SMU4 B
  I2         I  B GROUND SMU1 B
END_HEADER

BEGIN_DB
 ICCAP_VAR VU1        0              
 ICCAP_VAR VU2        0              
 ICCAP_VAR V2         0              

 #V1              I1              I2             
  -1              -0.0011263      0.0011246      
  -0.99           -0.0011165      0.0011166      
  -0.98           -0.001105       0.0011053      
  -0.97           -0.0010978      0.0010973      
  -0.96           -0.0010862      0.0010873      
  -0.95           -0.0010786      0.0010793      
  -0.94           -0.0010684      0.0010692      
  -0.93           -0.0010585      0.0010589      
  -0.92           -0.0010477      0.0010482      
  -0.91           -0.0010366      0.0010371      
  -0.9            -0.0010258      0.0010263      
  -0.89           -0.0010143      0.0010152      
  -0.88           -0.0010027      0.0010035      
  -0.87           -0.000991       0.00099209     
  -0.86           -0.0009808      0.00098071     
  -0.85           -0.00097025     0.00096969     
  -0.84           -0.00095885     0.00095855     
  -0.83           -0.00094672     0.00094692     
  -0.82           -0.00093479     0.00093549     
  -0.81           -0.00092409     0.00092472     
  -0.8            -0.00091256     0.00091265     
  -0.79           -0.00090183     0.00090148     
  -0.78           -0.00089102     0.00089084     
  -0.77           -0.00087944     0.0008795      
  -0.76           -0.00086767     0.00086806     
  -0.75           -0.00085657     0.00085668     
  -0.74           -0.00084569     0.00084533     
  -0.73           -0.00083404     0.00083387     
  -0.72           -0.00082265     0.00082284     
  -0.71           -0.00081076     0.00081108     
  -0.7            -0.00079936     0.00079959     
  -0.69           -0.00078788     0.00078822     
  -0.68           -0.00077659     0.0007765      
  -0.67           -0.00076573     0.00076553     
  -0.66           -0.00075476     0.00075465     
  -0.65           -0.00074324     0.00074288     
  -0.64           -0.00073165     0.0007317      
  -0.63           -0.00071994     0.00072029     
  -0.62           -0.00070862     0.0007087      
  -0.61           -0.00069686     0.00069688     
  -0.6            -0.00068591     0.00068562     
  -0.59           -0.00067456     0.00067453     
  -0.58           -0.00066295     0.00066322     
  -0.57           -0.00065184     0.00065243     
  -0.56           -0.00064057     0.00064066     
  -0.55           -0.00062919     0.00062906     
  -0.54           -0.00061799     0.00061776     
  -0.53           -0.00060662     0.0006066      
  -0.52           -0.0005952      0.00059537     
  -0.51           -0.00058341     0.00058388     
  -0.5            -0.00057184     0.00057201     
  -0.49           -0.00056064     0.00056097     
  -0.48           -0.00054906     0.00054918     
  -0.47           -0.00053778     0.00053776     
  -0.46           -0.0005264      0.0005264      
  -0.45           -0.00051529     0.00051563     
  -0.44           -0.00050479     0.00050487     
  -0.43           -0.00049265     0.00049278     
  -0.42           -0.00048108     0.00048123     
  -0.41           -0.00047138     0.00047083     
  -0.4            -0.00046119     0.00046148     
  -0.39           -0.00044965     0.00044984     
  -0.38           -0.00043842     0.00043865     
  -0.37           -0.00042697     0.00042706     
  -0.36           -0.0004155      0.0004155      
  -0.35           -0.00040412     0.00040402     
  -0.34           -0.00039297     0.000393       
  -0.33           -0.00038137     0.00038151     
  -0.32           -0.00037013     0.00037051     
  -0.31           -0.00035853     0.00035874     
  -0.3            -0.00034701     0.00034718     
  -0.29           -0.00033551     0.00033539     
  -0.28           -0.00032415     0.00032404     
  -0.27           -0.00031226     0.00031249     
  -0.26           -0.00030073     0.00030087     
  -0.25           -0.00028902     0.00028923     
  -0.24           -0.0002773      0.00027753     
  -0.23           -0.00026595     0.00026607     
  -0.22           -0.00025447     0.00025451     
  -0.21           -0.00024279     0.00024293     
  -0.2            -0.00023137     0.0002315      
  -0.19           -0.00021963     0.00021973     
  -0.18           -0.00020793     0.00020806     
  -0.17           -0.00019654     0.00019659     
  -0.16           -0.00018502     0.0001852      
  -0.15           -0.00017345     0.00017355     
  -0.14           -0.00016172     0.00016182     
  -0.13           -0.00015009     0.0001503      
  -0.12           -0.00013859     0.0001387      
  -0.11           -0.00012699     0.00012706     
  -0.1            -0.00011551     0.00011562     
  -0.09           -0.00010396     0.000104       
  -0.08           -9.2381e-005    9.2324e-005    
  -0.07           -8.0854e-005    8.0844e-005    
  -0.06           -6.927e-005     6.9267e-005    
  -0.05           -5.7665e-005    5.7679e-005    
  -0.04           -4.6047e-005    4.6036e-005    
  -0.03           -3.4565e-005    3.457e-005     
  -0.02           -2.297e-005     2.2981e-005    
  -0.01           -1.1377e-005    1.1375e-005    
  0               9.6978e-008     -1.02873e-007  
  0.01            1.1743e-005     -1.1705e-005   
  0.02            2.3317e-005     -2.3311e-005   
  0.03            3.4811e-005     -3.4836e-005   
  0.04            4.637e-005      -4.6384e-005   
  0.05            5.7935e-005     -5.7955e-005   
  0.06            6.9589e-005     -6.9523e-005   
  0.07            8.11e-005       -8.1069e-005   
  0.08            9.2677e-005     -9.2652e-005   
  0.09            0.00010433      -0.000104217   
  0.1             0.00011585      -0.00011577    
  0.11            0.00012744      -0.00012733    
  0.12            0.00013903      -0.00013896    
  0.13            0.00015057      -0.00015057    
  0.14            0.00016198      -0.00016194    
  0.15            0.00017379      -0.00017356    
  0.16            0.00018525      -0.00018514    
  0.17            0.00019688      -0.00019677    
  0.18            0.00020835      -0.00020831    
  0.19            0.00021985      -0.00021975    
  0.2             0.00023137      -0.00023118    
  0.21            0.00024305      -0.00024293    
  0.22            0.00025482      -0.00025465    
  0.23            0.00026627      -0.00026624    
  0.24            0.00027766      -0.00027777    
  0.25            0.00028932      -0.00028933    
  0.26            0.00030086      -0.00030077    
  0.27            0.00031258      -0.00031236    
  0.28            0.00032416      -0.00032397    
  0.29            0.00033579      -0.00033574    
  0.3             0.00034717      -0.00034727    
  0.31            0.00035866      -0.00035856    
  0.32            0.00037008      -0.0003699     
  0.33            0.00038169      -0.00038151    
  0.34            0.0003933       -0.00039314    
  0.35            0.00040467      -0.00040466    
  0.36            0.00041629      -0.00041624    
  0.37            0.00042753      -0.00042768    
  0.38            0.00043941      -0.0004391     
  0.39            0.00045102      -0.00045083    
  0.4             0.00046263      -0.00046253    
  0.41            0.00047402      -0.00047377    
  0.42            0.00048543      -0.00048559    
  0.43            0.00049702      -0.0004969     
  0.44            0.00050877      -0.00050831    
  0.45            0.00052068      -0.00052018    
  0.46            0.00053217      -0.00053216    
  0.47            0.00054362      -0.00054371    
  0.48            0.00055494      -0.00055535    
  0.49            0.00056647      -0.00056683    
  0.5             0.00057797      -0.00057787    
  0.51            0.00058966      -0.00058931    
  0.52            0.00060099      -0.00060098    
  0.53            0.00061308      -0.00061248    
  0.54            0.00062446      -0.00062423    
  0.55            0.00063584      -0.00063584    
  0.56            0.00064703      -0.00064735    
  0.57            0.00065865      -0.00065856    
  0.58            0.00067072      -0.00067022    
  0.59            0.00068253      -0.0006822     
  0.6             0.00069373      -0.00069364    
  0.61            0.00070494      -0.0007052     
  0.62            0.00071621      -0.00071615    
  0.63            0.00072789      -0.00072768    
  0.64            0.00073979      -0.0007397     
  0.65            0.00075121      -0.00075064    
  0.66            0.00076358      -0.00076358    
  0.67            0.00077489      -0.00077537    
  0.68            0.00078601      -0.00078607    
  0.69            0.00079787      -0.0007977     
  0.7             0.00081         -0.00080957    
  0.71            0.00082204      -0.00082166    
  0.72            0.00083286      -0.00083295    
  0.73            0.00084457      -0.00084435    
  0.74            0.00085625      -0.00085614    
  0.75            0.00086793      -0.00086772    
  0.76            0.00087941      -0.00087894    
  0.77            0.0008908       -0.0008906     
  0.78            0.00090279      -0.00090275    
  0.79            0.00091278      -0.00091302    
  0.8             0.00092387      -0.00092412    
  0.81            0.00093558      -0.00093553    
  0.82            0.00094835      -0.00094771    
  0.83            0.00095992      -0.00095967    
  0.84            0.00097112      -0.00097123    
  0.85            0.00098234      -0.00098263    
  0.86            0.00099385      -0.00099408    
  0.87            0.00100612      -0.00100573    
  0.88            0.00101778      -0.0010176     
  0.89            0.00102937      -0.00102864    
  0.9             0.00104066      -0.00104077    
  0.91            0.00105163      -0.00105148    
  0.92            0.0010633       -0.00106292    
  0.93            0.00107476      -0.00107454    
  0.94            0.0010869       -0.0010855     
  0.95            0.00109913      -0.0010987     
  0.96            0.00111008      -0.00111031    
  0.97            0.00112058      -0.00112089    
  0.98            0.0011328       -0.0011318     
  0.99            0.0011435       -0.0011425     
  1               0.0011558       -0.0011547     
END_DB

