! VERSION = 6.00
BEGIN_HEADER
 ICCAP_INPUTS
  VU1        V  E GROUND SMU2 0.1 CON        0
  VU2        V  S GROUND SMU3 0.1 CON        0
  V2         V  B GROUND SMU1 0.015 CON        0
  V1         V  C GROUND SMU4 0.015 LIN        1    -1         1          201  0.01      
 ICCAP_OUTPUTS
  I1         I  C GROUND SMU4 B
  I2         I  B GROUND SMU1 B
END_HEADER

BEGIN_DB
 ICCAP_VAR VU1        0              
 ICCAP_VAR VU2        0              
 ICCAP_VAR V2         0              

 #V1              I1              I2             
  -1              -0.0012201      0.0012214      
  -0.99           -0.001208       0.0012085      
  -0.98           -0.0011962      0.0011963      
  -0.97           -0.0011845      0.0011848      
  -0.96           -0.001172       0.0011722      
  -0.95           -0.00116        0.0011608      
  -0.94           -0.001147       0.0011482      
  -0.93           -0.0011341      0.0011354      
  -0.92           -0.0011222      0.0011234      
  -0.91           -0.0011098      0.0011105      
  -0.9            -0.001098       0.0010981      
  -0.89           -0.0010864      0.0010866      
  -0.88           -0.0010739      0.0010747      
  -0.87           -0.0010609      0.0010622      
  -0.86           -0.0010484      0.0010495      
  -0.85           -0.0010367      0.0010368      
  -0.84           -0.001025       0.0010251      
  -0.83           -0.0010128      0.0010134      
  -0.82           -0.00100002     0.0010012      
  -0.81           -0.00098838     0.00098873     
  -0.8            -0.00097546     0.00097607     
  -0.79           -0.00096313     0.00096318     
  -0.78           -0.00095147     0.00095109     
  -0.77           -0.00093968     0.00093947     
  -0.76           -0.00092731     0.00092685     
  -0.75           -0.00091511     0.00091514     
  -0.74           -0.00090251     0.00090295     
  -0.73           -0.00088978     0.00089011     
  -0.72           -0.00087765     0.00087821     
  -0.71           -0.00086524     0.00086539     
  -0.7            -0.00085342     0.00085317     
  -0.69           -0.00084169     0.00084137     
  -0.68           -0.00082939     0.00082956     
  -0.67           -0.00081664     0.0008172      
  -0.66           -0.00080417     0.00080448     
  -0.65           -0.00079213     0.00079203     
  -0.64           -0.00078043     0.00078004     
  -0.63           -0.00076832     0.00076834     
  -0.62           -0.00075585     0.0007562      
  -0.61           -0.00074316     0.00074356     
  -0.6            -0.00073095     0.00073099     
  -0.59           -0.00071915     0.00071879     
  -0.58           -0.00070716     0.00070704     
  -0.57           -0.00069484     0.00069508     
  -0.56           -0.00068215     0.0006826      
  -0.55           -0.00066981     0.00066992     
  -0.54           -0.0006579      0.00065771     
  -0.53           -0.00064611     0.00064589     
  -0.52           -0.00063382     0.00063399     
  -0.51           -0.00062119     0.00062163     
  -0.5            -0.00060877     0.00060902     
  -0.49           -0.00059683     0.00059673     
  -0.48           -0.00058499     0.00058477     
  -0.47           -0.0005728      0.00057288     
  -0.46           -0.00056031     0.00056062     
  -0.45           -0.00054789     0.00054813     
  -0.44           -0.00053577     0.00053612     
  -0.43           -0.00052345     0.00052355     
  -0.42           -0.00051151     0.00051134     
  -0.41           -0.00049966     0.0004995      
  -0.4            -0.00048737     0.00048751     
  -0.39           -0.00047485     0.00047518     
  -0.38           -0.00046249     0.0004627      
  -0.37           -0.00045048     0.00045041     
  -0.36           -0.00043859     0.00043844     
  -0.35           -0.00042639     0.00042648     
  -0.34           -0.00041398     0.00041425     
  -0.33           -0.00040157     0.00040174     
  -0.32           -0.00038951     0.00038977     
  -0.31           -0.00037724     0.00037735     
  -0.3            -0.00036521     0.00036513     
  -0.29           -0.00035319     0.00035313     
  -0.28           -0.00034107     0.00034117     
  -0.27           -0.00032861     0.00032889     
  -0.26           -0.00031634     0.00031648     
  -0.25           -0.00030423     0.0003042      
  -0.24           -0.00029231     0.00029222     
  -0.23           -0.0002801      0.0002802      
  -0.22           -0.00026778     0.00026797     
  -0.21           -0.00025543     0.00025556     
  -0.2            -0.00024338     0.00024357     
  -0.19           -0.00023114     0.00023121     
  -0.18           -0.00021905     0.00021904     
  -0.17           -0.00020693     0.00020697     
  -0.16           -0.00019481     0.00019492     
  -0.15           -0.00018248     0.00018268     
  -0.14           -0.00017023     0.00017035     
  -0.13           -0.00015809     0.00015811     
  -0.12           -0.00014608     0.00014608     
  -0.11           -0.00013386     0.00013396     
  -0.1            -0.00012162     0.00012172     
  -0.09           -0.00010935     0.00010941     
  -0.08           -9.7188e-005    9.7165e-005    
  -0.07           -8.5038e-005    8.5088e-005    
  -0.06           -7.2864e-005    7.2854e-005    
  -0.05           -6.0705e-005    6.0689e-005    
  -0.04           -4.8523e-005    4.8508e-005    
  -0.03           -3.6398e-005    3.6414e-005    
  -0.02           -2.4193e-005    2.4192e-005    
  -0.01           -1.198e-005     1.1992e-005    
  0               9.0793e-008     -9.2853e-008   
  0.01            1.2322e-005     -1.2323e-005   
  0.02            2.4502e-005     -2.4527e-005   
  0.03            3.6613e-005     -3.6601e-005   
  0.04            4.8838e-005     -4.879e-005    
  0.05            6.1065e-005     -6.1027e-005   
  0.06            7.328e-005      -7.3249e-005   
  0.07            8.5328e-005     -8.5379e-005   
  0.08            9.7473e-005     -9.7508e-005   
  0.09            0.00010992      -0.000109654   
  0.1             0.00012209      -0.00012204    
  0.11            0.00013415      -0.00013414    
  0.12            0.00014632      -0.00014625    
  0.13            0.00015857      -0.00015845    
  0.14            0.00017092      -0.00017073    
  0.15            0.00018314      -0.00018303    
  0.16            0.00019516      -0.00019519    
  0.17            0.00020727      -0.00020734    
  0.18            0.00021948      -0.00021956    
  0.19            0.00023168      -0.00023162    
  0.2             0.00024393      -0.00024375    
  0.21            0.00025629      -0.00025612    
  0.22            0.0002685       -0.00026845    
  0.23            0.00028057      -0.00028064    
  0.24            0.00029259      -0.00029254    
  0.25            0.00030489      -0.00030472    
  0.26            0.00031735      -0.00031709    
  0.27            0.00032961      -0.0003295     
  0.28            0.00034162      -0.00034172    
  0.29            0.00035364      -0.00035373    
  0.3             0.00036587      -0.00036602    
  0.31            0.00037807      -0.00037803    
  0.32            0.00039051      -0.00039026    
  0.33            0.00040286      -0.00040262    
  0.34            0.00041505      -0.00041473    
  0.35            0.00042737      -0.00042727    
  0.36            0.00043941      -0.00043952    
  0.37            0.00045129      -0.0004514     
  0.38            0.00046356      -0.00046345    
  0.39            0.00047608      -0.00047577    
  0.4             0.0004885       -0.00048835    
  0.41            0.00050052      -0.00050059    
  0.42            0.00051241      -0.00051266    
  0.43            0.00052461      -0.00052456    
  0.44            0.00053717      -0.00053685    
  0.45            0.0005497       -0.00054935    
  0.46            0.00056181      -0.00056141    
  0.47            0.00057414      -0.00057404    
  0.48            0.00058614      -0.00058631    
  0.49            0.00059805      -0.00059823    
  0.5             0.00061025      -0.00061012    
  0.51            0.00062286      -0.00062248    
  0.52            0.00063539      -0.00063522    
  0.53            0.00064748      -0.00064758    
  0.54            0.00065919      -0.00065949    
  0.55            0.00067136      -0.00067134    
  0.56            0.00068401      -0.00068362    
  0.57            0.00069663      -0.00069626    
  0.58            0.00070886      -0.00070836    
  0.59            0.00072114      -0.00072103    
  0.6             0.00073305      -0.00073332    
  0.61            0.00074493      -0.00074516    
  0.62            0.00075726      -0.00075708    
  0.63            0.00076996      -0.00076944    
  0.64            0.00078245      -0.00078227    
  0.65            0.00079449      -0.00079468    
  0.66            0.00080626      -0.0008066     
  0.67            0.00081837      -0.00081832    
  0.68            0.00083113      -0.00083068    
  0.69            0.0008438       -0.00084342    
  0.7             0.00085599      -0.00085546    
  0.71            0.00086841      -0.00086825    
  0.72            0.00088011      -0.00088047    
  0.73            0.00089195      -0.00089223    
  0.74            0.00090432      -0.00090481    
  0.75            0.00091652      -0.0009165     
  0.76            0.00092919      -0.00092868    
  0.77            0.00094198      -0.00094153    
  0.78            0.00095416      -0.00095423    
  0.79            0.00096591      -0.00096635    
  0.8             0.00097774      -0.00097782    
  0.81            0.00099036      -0.00098995    
  0.82            0.00100335      -0.00100272    
  0.83            0.00101567      -0.0010156     
  0.84            0.0010273       -0.00102773    
  0.85            0.00103915      -0.0010395     
  0.86            0.00105156      -0.00105211    
  0.87            0.00106365      -0.00106368    
  0.88            0.00107645      -0.00107591    
  0.89            0.00108933      -0.0010888     
  0.9             0.00110155      -0.00110161    
  0.91            0.00111309      -0.0011137     
  0.92            0.00112507      -0.00112519    
  0.93            0.0011384       -0.00113718    
  0.94            0.001151        -0.0011497     
  0.95            0.0011635       -0.0011627     
  0.96            0.0011751       -0.0011751     
  0.97            0.0011867       -0.0011865     
  0.98            0.0011992       -0.0011993     
  0.99            0.0012113       -0.0012105     
  1               0.0012243       -0.0012229     
END_DB

