! VERSION = 6.00
BEGIN_HEADER
 ICCAP_INPUTS
  VU1        V  E GROUND SMU2 0.1 CON        0
  VU2        V  S GROUND SMU3 0.1 CON        0
  V2         V  B GROUND SMU1 0.015 CON        0
  V1         V  C GROUND SMU4 0.015 LIN        1    -1         1          201  0.01      
 ICCAP_OUTPUTS
  I1         I  C GROUND SMU4 B
  I2         I  B GROUND SMU1 B
END_HEADER

BEGIN_DB
 ICCAP_VAR VU1        0              
 ICCAP_VAR VU2        0              
 ICCAP_VAR V2         0              

 #V1              I1              I2             
  -1              -0.00071535     0.00071536     
  -0.99           -0.00070858     0.00070845     
  -0.98           -0.00070131     0.00070102     
  -0.97           -0.00069428     0.0006943      
  -0.96           -0.00068679     0.00068713     
  -0.95           -0.00067935     0.00067965     
  -0.94           -0.00067223     0.00067221     
  -0.93           -0.00066549     0.00066521     
  -0.92           -0.00065855     0.00065847     
  -0.91           -0.00065125     0.00065151     
  -0.9            -0.00064368     0.00064407     
  -0.89           -0.00063649     0.00063657     
  -0.88           -0.00062963     0.00062943     
  -0.87           -0.00062279     0.00062266     
  -0.86           -0.00061557     0.00061533     
  -0.85           -0.0006085      0.00060856     
  -0.84           -0.00060108     0.00060136     
  -0.83           -0.00059359     0.00059385     
  -0.82           -0.00058651     0.00058654     
  -0.81           -0.00057969     0.00057949     
  -0.8            -0.00057275     0.0005727      
  -0.79           -0.00056539     0.00056565     
  -0.78           -0.00055792     0.00055826     
  -0.77           -0.00055074     0.00055082     
  -0.76           -0.00054384     0.00054367     
  -0.75           -0.00053696     0.00053686     
  -0.74           -0.00052975     0.00052955     
  -0.73           -0.00052265     0.00052269     
  -0.72           -0.00051522     0.00051551     
  -0.71           -0.00050778     0.00050802     
  -0.7            -0.00050075     0.00050075     
  -0.69           -0.00049389     0.00049372     
  -0.68           -0.00048687     0.00048686     
  -0.67           -0.00047956     0.00047977     
  -0.66           -0.0004721      0.00047243     
  -0.65           -0.00046496     0.00046501     
  -0.64           -0.00045801     0.00045788     
  -0.63           -0.00045104     0.00045098     
  -0.62           -0.00044386     0.00044371     
  -0.61           -0.00043674     0.0004368      
  -0.6            -0.00042938     0.00042964     
  -0.59           -0.00042199     0.00042217     
  -0.58           -0.00041487     0.00041518     
  -0.57           -0.00040773     0.00040784     
  -0.56           -0.0004007      0.00040064     
  -0.55           -0.00039375     0.00039368     
  -0.54           -0.00038658     0.00038667     
  -0.53           -0.00037922     0.00037951     
  -0.52           -0.00037193     0.00037209     
  -0.51           -0.00036487     0.00036484     
  -0.5            -0.00035792     0.00035781     
  -0.49           -0.00035082     0.00035089     
  -0.48           -0.00034352     0.00034372     
  -0.47           -0.0003362      0.00033636     
  -0.46           -0.00032908     0.0003293      
  -0.45           -0.00032191     0.00032199     
  -0.44           -0.00031487     0.00031481     
  -0.43           -0.00030787     0.0003078      
  -0.42           -0.00030068     0.00030078     
  -0.41           -0.00029338     0.00029362     
  -0.4            -0.00028611     0.00028629     
  -0.39           -0.00027901     0.00027899     
  -0.38           -0.00027202     0.00027195     
  -0.37           -0.00026494     0.000265       
  -0.36           -0.00025764     0.00025781     
  -0.35           -0.00025037     0.0002505      
  -0.34           -0.00024319     0.00024323     
  -0.33           -0.00023619     0.00023612     
  -0.32           -0.00022914     0.00022915     
  -0.31           -0.00022187     0.000222       
  -0.3            -0.00021458     0.00021476     
  -0.29           -0.00020739     0.00020747     
  -0.28           -0.00020036     0.00020037     
  -0.27           -0.0001933      0.00019334     
  -0.26           -0.00018608     0.00018608     
  -0.25           -0.00017895     0.00017899     
  -0.24           -0.00017176     0.00017187     
  -0.23           -0.00016448     0.0001646      
  -0.22           -0.00015733     0.00015739     
  -0.21           -0.00015027     0.00015026     
  -0.2            -0.00014319     0.00014322     
  -0.19           -0.00013597     0.00013607     
  -0.18           -0.00012869     0.00012883     
  -0.17           -0.00012151     0.00012161     
  -0.16           -0.00011444     0.00011449     
  -0.15           -0.00010733     0.0001074      
  -0.14           -0.00010014     0.00010015     
  -0.13           -9.3008e-005    9.2919e-005    
  -0.12           -8.5852e-005    8.5886e-005    
  -0.11           -7.8638e-005    7.8676e-005    
  -0.1            -7.1446e-005    7.1472e-005    
  -0.09           -6.4293e-005    6.4289e-005    
  -0.08           -5.7156e-005    5.7137e-005    
  -0.07           -5.0048e-005    5.0049e-005    
  -0.06           -4.2858e-005    4.287e-005     
  -0.05           -3.5668e-005    3.5687e-005    
  -0.04           -2.8496e-005    2.8497e-005    
  -0.03           -2.1382e-005    2.1389e-005    
  -0.02           -1.4219e-005    1.4223e-005    
  -0.01           -7.029e-006     7.0346e-006    
  0               6.405e-008      -6.8338e-008   
  0.01            7.2458e-006     -7.2464e-006   
  0.02            1.442e-005      -1.4414e-005   
  0.03            2.1537e-005     -2.1525e-005   
  0.04            2.8732e-005     -2.8704e-005   
  0.05            3.5898e-005     -3.5899e-005   
  0.06            4.3055e-005     -4.3074e-005   
  0.07            5.0143e-005     -5.0171e-005   
  0.08            5.731e-005      -5.7307e-005   
  0.09            6.4503e-005     -6.446e-005    
  0.1             7.1706e-005     -7.1662e-005   
  0.11            7.8835e-005     -7.8822e-005   
  0.12            8.5968e-005     -8.6004e-005   
  0.13            9.3091e-005     -9.3131e-005   
  0.14            0.000100257     -0.000100251   
  0.15            0.00010756      -0.000107428   
  0.16            0.00011471      -0.00011465    
  0.17            0.00012179      -0.00012174    
  0.18            0.00012899      -0.00012887    
  0.19            0.00013627      -0.00013609    
  0.2             0.00014339      -0.00014329    
  0.21            0.0001505       -0.00015049    
  0.22            0.00015758      -0.00015757    
  0.23            0.00016476      -0.00016466    
  0.24            0.00017192      -0.00017179    
  0.25            0.0001792       -0.00017911    
  0.26            0.00018634      -0.00018631    
  0.27            0.00019336      -0.00019345    
  0.28            0.00020052      -0.00020051    
  0.29            0.00020772      -0.00020759    
  0.3             0.00021501      -0.00021486    
  0.31            0.00022219      -0.00022212    
  0.32            0.00022924      -0.00022929    
  0.33            0.00023628      -0.00023623    
  0.34            0.00024349      -0.00024336    
  0.35            0.00025083      -0.00025062    
  0.36            0.00025804      -0.00025795    
  0.37            0.00026503      -0.00026508    
  0.38            0.00027208      -0.00027213    
  0.39            0.00027925      -0.00027916    
  0.4             0.00028659      -0.00028639    
  0.41            0.00029381      -0.00029369    
  0.42            0.0003009       -0.00030091    
  0.43            0.00030787      -0.00030796    
  0.44            0.00031501      -0.00031497    
  0.45            0.00032233      -0.00032211    
  0.46            0.00032961      -0.00032939    
  0.47            0.00033674      -0.0003367     
  0.48            0.00034372      -0.00034383    
  0.49            0.00035079      -0.00035077    
  0.5             0.00035798      -0.00035783    
  0.51            0.0003654       -0.00036513    
  0.52            0.00037259      -0.00037251    
  0.53            0.00037957      -0.00037968    
  0.54            0.00038653      -0.0003866     
  0.55            0.00039371      -0.00039385    
  0.56            0.00040083      -0.0004008     
  0.57            0.00040816      -0.00040794    
  0.58            0.00041557      -0.00041532    
  0.59            0.00042267      -0.00042263    
  0.6             0.00042956      -0.00042975    
  0.61            0.00043662      -0.00043662    
  0.62            0.0004439       -0.00044371    
  0.63            0.00045129      -0.00045097    
  0.64            0.0004585       -0.00045842    
  0.65            0.00046544      -0.00046558    
  0.66            0.00047239      -0.00047253    
  0.67            0.00047953      -0.00047973    
  0.68            0.00048663      -0.00048661    
  0.69            0.00049403      -0.00049373    
  0.7             0.00050146      -0.00050118    
  0.71            0.00050855      -0.00050856    
  0.72            0.00051542      -0.00051558    
  0.73            0.00052239      -0.0005224     
  0.74            0.0005297       -0.00052947    
  0.75            0.00053719      -0.00053684    
  0.76            0.00054436      -0.00054425    
  0.77            0.00055127      -0.00055144    
  0.78            0.00055815      -0.00055832    
  0.79            0.00056534      -0.00056521    
  0.8             0.0005728       -0.00057243    
  0.81            0.00058013      -0.00057997    
  0.82            0.00058713      -0.00058724    
  0.83            0.00059391      -0.00059416    
  0.84            0.00060096      -0.00060092    
  0.85            0.00060842      -0.0006081     
  0.86            0.0006159       -0.00061561    
  0.87            0.00062298      -0.00062261    
  0.88            0.00063019      -0.00063007    
  0.89            0.00063703      -0.00063723    
  0.9             0.00064388      -0.00064408    
  0.91            0.00065111      -0.00065098    
  0.92            0.00065867      -0.00065824    
  0.93            0.00066595      -0.00066579    
  0.94            0.0006729       -0.00067305    
  0.95            0.00067964      -0.00067989    
  0.96            0.00068676      -0.00068674    
  0.97            0.00069424      -0.00069384    
  0.98            0.00070171      -0.00070141    
  0.99            0.0007088       -0.00070837    
  1               0.00071604      -0.00071592    
END_DB

