! VERSION = 6.00
BEGIN_HEADER
 ICCAP_INPUTS
  VU1        V  E GROUND SMU2 0.1 CON        0
  VU2        V  S GROUND SMU3 0.1 CON        0
  V2         V  B GROUND SMU1 0.015 CON        0
  V1         V  C GROUND SMU4 0.015 LIN        1    -1         1          201  0.01      
 ICCAP_OUTPUTS
  I1         I  C GROUND SMU4 B
  I2         I  B GROUND SMU1 B
END_HEADER

BEGIN_DB
 ICCAP_VAR VU1        0              
 ICCAP_VAR VU2        0              
 ICCAP_VAR V2         0              

 #V1              I1              I2             
  -1              -0.00014577     0.00014584     
  -0.99           -0.00014445     0.00014443     
  -0.98           -0.00014302     0.00014308     
  -0.97           -0.00014149     0.00014162     
  -0.96           -0.00013991     0.00014004     
  -0.95           -0.00013849     0.00013852     
  -0.94           -0.00013712     0.00013709     
  -0.93           -0.00013573     0.00013577     
  -0.92           -0.00013423     0.00013434     
  -0.91           -0.00013266     0.00013281     
  -0.9            -0.00013118     0.00013124     
  -0.89           -0.0001298      0.00012979     
  -0.88           -0.00012842     0.00012843     
  -0.87           -0.00012693     0.00012704     
  -0.86           -0.00012538     0.00012555     
  -0.85           -0.00012385     0.00012398     
  -0.84           -0.00012247     0.00012249     
  -0.83           -0.0001211      0.0001211      
  -0.82           -0.00011966     0.00011974     
  -0.81           -0.00011812     0.00011826     
  -0.8            -0.00011659     0.00011671     
  -0.79           -0.00011514     0.00011529     
  -0.78           -0.00011367     0.00011376     
  -0.77           -0.00011229     0.00011229     
  -0.76           -0.00011088     0.00011092     
  -0.75           -0.00010943     0.00010952     
  -0.74           -0.00010789     0.00010803     
  -0.73           -0.00010637     0.00010646     
  -0.72           -0.00010497     0.00010499     
  -0.71           -0.0001036      0.0001036      
  -0.7            -0.00010213     0.00010222     
  -0.69           -0.00010061     0.00010075     
  -0.68           -9.9125e-005    9.9222e-005    
  -0.67           -9.7666e-005    9.7666e-005    
  -0.66           -9.6283e-005    9.6233e-005    
  -0.65           -9.4873e-005    9.4848e-005    
  -0.64           -9.3391e-005    9.3338e-005    
  -0.63           -9.1954e-005    9.1951e-005    
  -0.62           -9.0464e-005    9.0508e-005    
  -0.61           -8.8932e-005    8.9e-005       
  -0.6            -8.7459e-005    8.7475e-005    
  -0.59           -8.6039e-005    8.6015e-005    
  -0.58           -8.4644e-005    8.4602e-005    
  -0.57           -8.3194e-005    8.3206e-005    
  -0.56           -8.1683e-005    8.1733e-005    
  -0.55           -8.017e-005     8.022e-005     
  -0.54           -7.8715e-005    7.8717e-005    
  -0.53           -7.7319e-005    7.7277e-005    
  -0.52           -7.5896e-005    7.5881e-005    
  -0.51           -7.4416e-005    7.4373e-005    
  -0.5            -7.2978e-005    7.2973e-005    
  -0.49           -7.1491e-005    7.1529e-005    
  -0.48           -6.9977e-005    7.003e-005     
  -0.47           -6.8506e-005    6.852e-005     
  -0.46           -6.7082e-005    6.7062e-005    
  -0.45           -6.5679e-005    6.5648e-005    
  -0.44           -6.4216e-005    6.4226e-005    
  -0.43           -6.2717e-005    6.2758e-005    
  -0.42           -6.1219e-005    6.1254e-005    
  -0.41           -5.977e-005     5.9774e-005    
  -0.4            -5.8352e-005    5.832e-005     
  -0.39           -5.6916e-005    5.6907e-005    
  -0.38           -5.5445e-005    5.5414e-005    
  -0.37           -5.4006e-005    5.4006e-005    
  -0.36           -5.252e-005     5.2549e-005    
  -0.35           -5.1018e-005    5.1055e-005    
  -0.34           -4.9553e-005    4.9562e-005    
  -0.33           -4.8115e-005    4.8102e-005    
  -0.32           -4.6699e-005    4.668e-005     
  -0.31           -4.5236e-005    4.5246e-005    
  -0.3            -4.3749e-005    4.3779e-005    
  -0.29           -4.2264e-005    4.2283e-005    
  -0.28           -4.081e-005     4.0816e-005    
  -0.27           -3.9384e-005    3.936e-005     
  -0.26           -3.7937e-005    3.7934e-005    
  -0.25           -3.6465e-005    3.6452e-005    
  -0.24           -3.5023e-005    3.5024e-005    
  -0.23           -3.3545e-005    3.3567e-005    
  -0.22           -3.2061e-005    3.2086e-005    
  -0.21           -3.0595e-005    3.0603e-005    
  -0.2            -2.9158e-005    2.9156e-005    
  -0.19           -2.772e-005     2.7709e-005    
  -0.18           -2.6255e-005    2.6265e-005    
  -0.17           -2.4781e-005    2.4798e-005    
  -0.16           -2.3311e-005    2.3327e-005    
  -0.15           -2.185e-005     2.1857e-005    
  -0.14           -2.0407e-005    2.04e-005      
  -0.13           -1.8954e-005    1.896e-005     
  -0.12           -1.7503e-005    1.7511e-005    
  -0.11           -1.6026e-005    1.6042e-005    
  -0.1            -1.456e-005     1.4571e-005    
  -0.09           -1.3102e-005    1.3113e-005    
  -0.08           -1.1637e-005    1.1643e-005    
  -0.07           -1.0188e-005    1.0198e-005    
  -0.06           -8.7283e-006    8.7394e-006    
  -0.05           -7.2737e-006    7.2731e-006    
  -0.04           -5.8138e-006    5.814e-006     
  -0.03           -4.3617e-006    4.3604e-006    
  -0.02           -2.8959e-006    2.8902e-006    
  -0.01           -1.4378e-006    1.4347e-006    
  0               1.4615e-008     -1.5125e-008   
  0.01            1.4781e-006     -1.4781e-006   
  0.02            2.9366e-006     -2.9424e-006   
  0.03            4.3858e-006     -4.3906e-006   
  0.04            5.8454e-006     -5.8539e-006   
  0.05            7.3072e-006     -7.3077e-006   
  0.06            8.7761e-006     -8.7664e-006   
  0.07            1.02323e-005    -1.02174e-005  
  0.08            1.1682e-005     -1.1689e-005   
  0.09            1.3143e-005     -1.3136e-005   
  0.1             1.4611e-005     -1.4596e-005   
  0.11            1.6074e-005     -1.6055e-005   
  0.12            1.7537e-005     -1.7512e-005   
  0.13            1.8998e-005     -1.8991e-005   
  0.14            2.0452e-005     -2.0458e-005   
  0.15            2.1896e-005     -2.1907e-005   
  0.16            2.3342e-005     -2.3341e-005   
  0.17            2.4824e-005     -2.4798e-005   
  0.18            2.6301e-005     -2.6276e-005   
  0.19            2.7763e-005     -2.7755e-005   
  0.2             2.9194e-005     -2.9208e-005   
  0.21            3.064e-005      -3.0655e-005   
  0.22            3.2103e-005     -3.2094e-005   
  0.23            3.3585e-005     -3.3558e-005   
  0.24            3.5056e-005     -3.5028e-005   
  0.25            3.6514e-005     -3.6477e-005   
  0.26            3.7981e-005     -3.7973e-005   
  0.27            3.9431e-005     -3.944e-005    
  0.28            4.0857e-005     -4.0884e-005   
  0.29            4.23e-005       -4.2301e-005   
  0.3             4.3789e-005     -4.3756e-005   
  0.31            4.5281e-005     -4.5245e-005   
  0.32            4.6745e-005     -4.6737e-005   
  0.33            4.8166e-005     -4.819e-005    
  0.34            4.9597e-005     -4.9621e-005   
  0.35            5.1064e-005     -5.1051e-005   
  0.36            5.2557e-005     -5.2517e-005   
  0.37            5.4039e-005     -5.4002e-005   
  0.38            5.5492e-005     -5.5495e-005   
  0.39            5.6913e-005     -5.6945e-005   
  0.4             5.8345e-005     -5.8359e-005   
  0.41            5.9801e-005     -5.9842e-005   
  0.42            6.1253e-005     -6.1257e-005   
  0.43            6.2755e-005     -6.2711e-005   
  0.44            6.426e-005      -6.4213e-005   
  0.45            6.5728e-005     -6.5718e-005   
  0.46            6.7133e-005     -6.717e-005    
  0.47            6.8554e-005     -6.8589e-005   
  0.48            7.0018e-005     -7.0007e-005   
  0.49            7.1528e-005     -7.1473e-005   
  0.5             7.3018e-005     -7.2973e-005   
  0.51            7.4473e-005     -7.4405e-005   
  0.52            7.5946e-005     -7.5931e-005   
  0.53            7.7371e-005     -7.7401e-005   
  0.54            7.8756e-005     -7.8812e-005   
  0.55            8.021e-005      -8.0211e-005   
  0.56            8.1722e-005     -8.167e-005    
  0.57            8.3238e-005     -8.3185e-005   
  0.58            8.4702e-005     -8.4697e-005   
  0.59            8.6099e-005     -8.6144e-005   
  0.6             8.7508e-005     -8.7554e-005   
  0.61            8.8978e-005     -8.896e-005    
  0.62            9.0498e-005     -9.0436e-005   
  0.63            9.1996e-005     -9.1951e-005   
  0.64            9.345e-005      -9.3371e-005   
  0.65            9.4924e-005     -9.4908e-005   
  0.66            9.634e-005      -9.6383e-005   
  0.67            9.7715e-005     -9.7777e-005   
  0.68            9.9167e-005     -9.9167e-005   
  0.69            0.00010077      -0.000100624   
  0.7             0.0001022       -0.00010219    
  0.71            0.0001036       -0.00010358    
  0.72            0.00010505      -0.00010505    
  0.73            0.00010649      -0.00010644    
  0.74            0.00010802      -0.00010791    
  0.75            0.00010959      -0.00010944    
  0.76            0.00011102      -0.00011096    
  0.77            0.00011238      -0.00011238    
  0.78            0.0001138       -0.00011374    
  0.79            0.0001153       -0.00011517    
  0.8             0.00011685      -0.00011669    
  0.81            0.00011833      -0.00011824    
  0.82            0.00011972      -0.00011969    
  0.83            0.00012111      -0.00012107    
  0.84            0.00012256      -0.00012258    
  0.85            0.00012399      -0.00012393    
  0.86            0.00012553      -0.0001254     
  0.87            0.00012709      -0.00012693    
  0.88            0.00012853      -0.00012847    
  0.89            0.00012988      -0.0001299     
  0.9             0.00013128      -0.00013124    
  0.91            0.00013281      -0.00013267    
  0.92            0.00013439      -0.00013419    
  0.93            0.00013583      -0.00013576    
  0.94            0.0001372       -0.00013721    
  0.95            0.00013859      -0.00013859    
  0.96            0.00014005      -0.00014009    
  0.97            0.00014147      -0.00014144    
  0.98            0.00014304      -0.00014288    
  0.99            0.00014459      -0.00014445    
  1               0.00014604      -0.00014598    
END_DB

