! VERSION = 6.00
BEGIN_HEADER
 ICCAP_INPUTS
  VU1        V  E GROUND SMU2 0.1 CON        0
  VU2        V  S GROUND SMU3 0.1 CON        0
  V2         V  B GROUND SMU1 0.015 CON        0
  V1         V  C GROUND SMU4 0.015 LIN        1    -0.8       0.8        161  0.01      
 ICCAP_OUTPUTS
  I1         I  C GROUND SMU4 B
  I2         I  B GROUND SMU1 B
END_HEADER

BEGIN_DB
 ICCAP_VAR VU1        0              
 ICCAP_VAR VU2        0              
 ICCAP_VAR V2         0              

 #V1              I1              I2             
  -0.8            -0.00082261     0.00082268     
  -0.79           -0.00081244     0.0008121      
  -0.78           -0.00080241     0.00080205     
  -0.77           -0.00079178     0.00079193     
  -0.76           -0.00078065     0.00078123     
  -0.75           -0.00076968     0.00077001     
  -0.74           -0.00075935     0.00075921     
  -0.73           -0.00074939     0.00074897     
  -0.72           -0.00073896     0.00073896     
  -0.71           -0.00072811     0.00072851     
  -0.7            -0.00071702     0.00071745     
  -0.69           -0.00070661     0.0007066      
  -0.68           -0.00069659     0.00069616     
  -0.67           -0.00068632     0.00068613     
  -0.66           -0.0006756      0.00067594     
  -0.65           -0.00066458     0.00066512     
  -0.64           -0.00065401     0.00065412     
  -0.63           -0.00064385     0.00064366     
  -0.62           -0.00063388     0.00063368     
  -0.61           -0.00062338     0.00062352     
  -0.6            -0.00061245     0.00061295     
  -0.59           -0.00060177     0.00060199     
  -0.58           -0.00059162     0.00059147     
  -0.57           -0.00058168     0.00058138     
  -0.56           -0.00057132     0.00057141     
  -0.55           -0.00056057     0.00056096     
  -0.54           -0.00054988     0.00055012     
  -0.53           -0.00053963     0.00054007     
  -0.52           -0.00052912     0.00052929     
  -0.51           -0.00051904     0.00051888     
  -0.5            -0.000509       0.00050885     
  -0.49           -0.00049866     0.00049881     
  -0.48           -0.00048793     0.00048837     
  -0.47           -0.00047741     0.00047766     
  -0.46           -0.00046724     0.00046716     
  -0.45           -0.00045735     0.00045712     
  -0.44           -0.00044707     0.00044712     
  -0.43           -0.00043654     0.00043678     
  -0.42           -0.00042593     0.00042618     
  -0.41           -0.00041576     0.00041611     
  -0.4            -0.00040544     0.00040558     
  -0.39           -0.00039535     0.00039526     
  -0.38           -0.00038535     0.00038522     
  -0.37           -0.00037513     0.00037525     
  -0.36           -0.00036462     0.00036493     
  -0.35           -0.00035422     0.00035445     
  -0.34           -0.00034407     0.00034403     
  -0.33           -0.00033412     0.00033398     
  -0.32           -0.00032396     0.00032403     
  -0.31           -0.00031359     0.00031379     
  -0.3            -0.00030319     0.00030337     
  -0.29           -0.000293       0.00029304     
  -0.28           -0.0002831      0.00028299     
  -0.27           -0.00027302     0.00027304     
  -0.26           -0.00026272     0.00026287     
  -0.25           -0.00025233     0.00025259     
  -0.24           -0.0002422      0.00024227     
  -0.23           -0.00023217     0.00023213     
  -0.22           -0.00022216     0.00022218     
  -0.21           -0.00021194     0.00021189     
  -0.2            -0.00020188     0.00020195     
  -0.19           -0.00019166     0.00019177     
  -0.18           -0.00018136     0.00018155     
  -0.17           -0.00017124     0.0001713      
  -0.16           -0.00016133     0.00016127     
  -0.15           -0.00015125     0.00015124     
  -0.14           -0.00014105     0.00014118     
  -0.13           -0.00013086     0.00013099     
  -0.12           -0.0001208      0.00012086     
  -0.11           -0.00011071     0.00011077     
  -0.1            -0.00010069     0.00010076     
  -0.09           -9.0525e-005    9.054e-005     
  -0.08           -8.0451e-005    8.042e-005     
  -0.07           -7.0401e-005    7.0439e-005    
  -0.06           -6.0292e-005    6.0311e-005    
  -0.05           -5.0156e-005    5.0189e-005    
  -0.04           -4.0082e-005    4.0081e-005    
  -0.03           -3.0083e-005    3.0087e-005    
  -0.02           -2.0011e-005    2.0006e-005    
  -0.01           -9.9176e-006    9.9091e-006    
  0               7.3304e-008     -7.8063e-008   
  0.01            1.0192e-005     -1.0163e-005   
  0.02            2.0287e-005     -2.0264e-005   
  0.03            3.0269e-005     -3.0287e-005   
  0.04            4.0319e-005     -4.034e-005    
  0.05            5.0386e-005     -5.0382e-005   
  0.06            6.0492e-005     -6.0454e-005   
  0.07            7.0518e-005     -7.0449e-005   
  0.08            8.0591e-005     -8.0596e-005   
  0.09            9.0632e-005     -9.0656e-005   
  0.1             0.00010085      -0.000100675   
  0.11            0.00011087      -0.00011081    
  0.12            0.00012093      -0.00012087    
  0.13            0.00013091      -0.00013092    
  0.14            0.00014099      -0.00014092    
  0.15            0.00015117      -0.000151      
  0.16            0.00016125      -0.00016107    
  0.17            0.00017133      -0.00017126    
  0.18            0.0001813       -0.00018135    
  0.19            0.00019134      -0.00019128    
  0.2             0.00020141      -0.00020128    
  0.21            0.0002117       -0.00021147    
  0.22            0.00022182      -0.00022171    
  0.23            0.00023179      -0.00023183    
  0.24            0.00024169      -0.00024172    
  0.25            0.00025179      -0.00025191    
  0.26            0.00026189      -0.00026187    
  0.27            0.00027219      -0.00027197    
  0.28            0.00028248      -0.00028224    
  0.29            0.00029254      -0.0002925     
  0.3             0.00030241      -0.00030255    
  0.31            0.0003125       -0.00031244    
  0.32            0.00032272      -0.00032254    
  0.33            0.0003331       -0.00033281    
  0.34            0.00034327      -0.00034318    
  0.35            0.00035325      -0.00035339    
  0.36            0.0003632       -0.00036335    
  0.37            0.00037334      -0.00037357    
  0.38            0.0003835       -0.00038346    
  0.39            0.00039393      -0.00039365    
  0.4             0.00040438      -0.00040407    
  0.41            0.00041443      -0.0004141     
  0.42            0.00042481      -0.00042464    
  0.43            0.00043479      -0.00043496    
  0.44            0.00044477      -0.00044488    
  0.45            0.00045502      -0.0004549     
  0.46            0.00046546      -0.00046511    
  0.47            0.00047595      -0.00047579    
  0.48            0.00048613      -0.0004862     
  0.49            0.00049597      -0.00049624    
  0.5             0.00050612      -0.00050607    
  0.51            0.00051666      -0.00051632    
  0.52            0.00052734      -0.00052701    
  0.53            0.00053764      -0.00053761    
  0.54            0.00054745      -0.00054772    
  0.55            0.00055754      -0.00055759    
  0.56            0.0005681       -0.00056782    
  0.57            0.0005789       -0.00057848    
  0.58            0.00058932      -0.00058928    
  0.59            0.00059923      -0.00059947    
  0.6             0.00060929      -0.00060947    
  0.61            0.00061973      -0.00062012    
  0.62            0.00063007      -0.00063008    
  0.63            0.00064081      -0.00064041    
  0.64            0.00065163      -0.00065124    
  0.65            0.00066194      -0.00066144    
  0.66            0.00067254      -0.0006724     
  0.67            0.00068257      -0.00068278    
  0.68            0.00069254      -0.0006929     
  0.69            0.00070307      -0.00070294    
  0.7             0.00071392      -0.00071347    
  0.71            0.00072473      -0.00072453    
  0.72            0.00073501      -0.00073512    
  0.73            0.00074493      -0.00074537    
  0.74            0.00075529      -0.0007553     
  0.75            0.00076628      -0.00076581    
  0.76            0.00077717      -0.00077671    
  0.77            0.0007877       -0.00078775    
  0.78            0.00079768      -0.00079809    
  0.79            0.00080795      -0.00080805    
  0.8             0.00081872      -0.00081831    
END_DB

