! VERSION = 6.00
BEGIN_HEADER
 ICCAP_INPUTS
  VU1        V  E GROUND SMU2 0.1 CON        0
  VU2        V  S GROUND SMU3 0.1 CON        0
  V2         V  B GROUND SMU1 0.015 CON        0
  V1         V  C GROUND SMU4 0.015 LIN        1    -1         1          201  0.01      
 ICCAP_OUTPUTS
  I1         I  C GROUND SMU4 B
  I2         I  B GROUND SMU1 B
END_HEADER

BEGIN_DB
 ICCAP_VAR VU1        0              
 ICCAP_VAR VU2        0              
 ICCAP_VAR V2         0              

 #V1              I1              I2             
  -1              -0.00015798     0.00015804     
  -0.99           -0.00015645     0.00015649     
  -0.98           -0.00015496     0.00015498     
  -0.97           -0.00015339     0.00015346     
  -0.96           -0.00015172     0.00015187     
  -0.95           -0.00015008     0.00015019     
  -0.94           -0.00014853     0.00014858     
  -0.93           -0.00014703     0.00014702     
  -0.92           -0.00014546     0.00014556     
  -0.91           -0.00014384     0.00014396     
  -0.9            -0.00014219     0.00014232     
  -0.89           -0.00014062     0.00014067     
  -0.88           -0.00013913     0.00013913     
  -0.87           -0.00013757     0.00013761     
  -0.86           -0.00013596     0.00013606     
  -0.85           -0.0001343      0.00013443     
  -0.84           -0.00013271     0.00013277     
  -0.83           -0.00013118     0.00013119     
  -0.82           -0.00012968     0.00012971     
  -0.81           -0.00012807     0.00012806     
  -0.8            -0.0001265      0.00012657     
  -0.79           -0.00012486     0.00012499     
  -0.78           -0.00012322     0.00012333     
  -0.77           -0.00012166     0.00012169     
  -0.76           -0.00012014     0.00012015     
  -0.75           -0.0001186      0.00011864     
  -0.74           -0.000117       0.00011709     
  -0.73           -0.00011531     0.00011546     
  -0.72           -0.00011373     0.0001138      
  -0.71           -0.00011219     0.00011223     
  -0.7            -0.00011069     0.00011071     
  -0.69           -0.00010909     0.00010911     
  -0.68           -0.00010752     0.00010758     
  -0.67           -0.00010589     0.00010598     
  -0.66           -0.00010427     0.00010436     
  -0.65           -0.00010269     0.00010284     
  -0.64           -0.00010109     0.00010117     
  -0.63           -9.9561e-005    9.9634e-005    
  -0.62           -9.8045e-005    9.801e-005     
  -0.61           -9.6473e-005    9.6475e-005    
  -0.6            -9.4856e-005    9.4893e-005    
  -0.59           -9.322e-005     9.3271e-005    
  -0.58           -9.1634e-005    9.1643e-005    
  -0.57           -9.0098e-005    9.0073e-005    
  -0.56           -8.8559e-005    8.8533e-005    
  -0.55           -8.6971e-005    8.6984e-005    
  -0.54           -8.5347e-005    8.5392e-005    
  -0.53           -8.3739e-005    8.3769e-005    
  -0.52           -8.2164e-005    8.2163e-005    
  -0.51           -8.0628e-005    8.0592e-005    
  -0.5            -7.9066e-005    7.9054e-005    
  -0.49           -7.7484e-005    7.7458e-005    
  -0.48           -7.591e-005     7.5913e-005    
  -0.47           -7.4301e-005    7.4326e-005    
  -0.46           -7.2675e-005    7.2715e-005    
  -0.45           -7.1102e-005    7.1109e-005    
  -0.44           -6.9543e-005    6.9528e-005    
  -0.43           -6.7996e-005    6.7978e-005    
  -0.42           -6.6409e-005    6.642e-005     
  -0.41           -6.4808e-005    6.4842e-005    
  -0.4            -6.3196e-005    6.3216e-005    
  -0.39           -6.1615e-005    6.1619e-005    
  -0.38           -6.0069e-005    6.0043e-005    
  -0.37           -5.8515e-005    5.8511e-005    
  -0.36           -5.6919e-005    5.69e-005      
  -0.35           -5.5345e-005    5.5347e-005    
  -0.34           -5.3743e-005    5.3764e-005    
  -0.33           -5.213e-005     5.2161e-005    
  -0.32           -5.0552e-005    5.0563e-005    
  -0.31           -4.8985e-005    4.898e-005     
  -0.3            -4.743e-005     4.7416e-005    
  -0.29           -4.5846e-005    4.5855e-005    
  -0.28           -4.4258e-005    4.4279e-005    
  -0.27           -4.2652e-005    4.2671e-005    
  -0.26           -4.1067e-005    4.1073e-005    
  -0.25           -3.9501e-005    3.9492e-005    
  -0.24           -3.7946e-005    3.795e-005     
  -0.23           -3.6359e-005    3.6371e-005    
  -0.22           -3.4754e-005    3.478e-005     
  -0.21           -3.3161e-005    3.3179e-005    
  -0.2            -3.1595e-005    3.1614e-005    
  -0.19           -3.0006e-005    3.0015e-005    
  -0.18           -2.8431e-005    2.8434e-005    
  -0.17           -2.6863e-005    2.6858e-005    
  -0.16           -2.529e-005     2.5299e-005    
  -0.15           -2.3701e-005    2.3712e-005    
  -0.14           -2.2104e-005    2.2121e-005    
  -0.13           -2.0521e-005    2.0525e-005    
  -0.12           -1.8957e-005    1.8957e-005    
  -0.11           -1.7381e-005    1.739e-005     
  -0.1            -1.5795e-005    1.5804e-005    
  -0.09           -1.4198e-005    1.4215e-005    
  -0.08           -1.2613e-005    1.2624e-005    
  -0.07           -1.1047e-005    1.1055e-005    
  -0.06           -9.4607e-006    9.4688e-006    
  -0.05           -7.8789e-006    7.8843e-006    
  -0.04           -6.2934e-006    6.2959e-006    
  -0.03           -4.7265e-006    4.7281e-006    
  -0.02           -3.1418e-006    3.1438e-006    
  -0.01           -1.5544e-006    1.5578e-006    
  0               1.3889e-008     -1.4957e-008   
  0.01            1.5984e-006     -1.6008e-006   
  0.02            3.1863e-006     -3.1793e-006   
  0.03            4.7578e-006     -4.7545e-006   
  0.04            6.3361e-006     -6.3408e-006   
  0.05            7.9182e-006     -7.9231e-006   
  0.06            9.5061e-006     -9.5021e-006   
  0.07            1.1085e-005     -1.10742e-005  
  0.08            1.2657e-005     -1.2666e-005   
  0.09            1.4248e-005     -1.4233e-005   
  0.1             1.5841e-005     -1.5824e-005   
  0.11            1.7415e-005     -1.7404e-005   
  0.12            1.8987e-005     -1.8994e-005   
  0.13            2.0565e-005     -2.0566e-005   
  0.14            2.2147e-005     -2.2142e-005   
  0.15            2.3745e-005     -2.3726e-005   
  0.16            2.5326e-005     -2.5302e-005   
  0.17            2.6907e-005     -2.6901e-005   
  0.18            2.8482e-005     -2.8484e-005   
  0.19            3.005e-005      -3.0055e-005   
  0.2             3.1623e-005     -3.1639e-005   
  0.21            3.3206e-005     -3.3201e-005   
  0.22            3.4803e-005     -3.478e-005    
  0.23            3.6405e-005     -3.638e-005    
  0.24            3.798e-005      -3.7969e-005   
  0.25            3.9544e-005     -3.9558e-005   
  0.26            4.111e-005      -4.1123e-005   
  0.27            4.2695e-005     -4.269e-005    
  0.28            4.4301e-005     -4.4273e-005   
  0.29            4.5892e-005     -4.5862e-005   
  0.3             4.7474e-005     -4.7471e-005   
  0.31            4.9036e-005     -4.9052e-005   
  0.32            5.0595e-005     -5.0609e-005   
  0.33            5.2172e-005     -5.22e-005     
  0.34            5.3751e-005     -5.3749e-005   
  0.35            5.5355e-005     -5.5327e-005   
  0.36            5.6968e-005     -5.6933e-005   
  0.37            5.8547e-005     -5.8537e-005   
  0.38            6.0106e-005     -6.0127e-005   
  0.39            6.1655e-005     -6.1681e-005   
  0.4             6.3237e-005     -6.3233e-005   
  0.41            6.4839e-005     -6.4805e-005   
  0.42            6.6454e-005     -6.6419e-005   
  0.43            6.8037e-005     -6.8033e-005   
  0.44            6.9587e-005     -6.9615e-005   
  0.45            7.1142e-005     -7.117e-005    
  0.46            7.2719e-005     -7.2709e-005   
  0.47            7.4337e-005     -7.4298e-005   
  0.48            7.5952e-005     -7.5925e-005   
  0.49            7.7528e-005     -7.7481e-005   
  0.5             7.9109e-005     -7.9098e-005   
  0.51            8.0662e-005     -8.069e-005    
  0.52            8.2203e-005     -8.2239e-005   
  0.53            8.3781e-005     -8.3782e-005   
  0.54            8.5396e-005     -8.5353e-005   
  0.55            8.7017e-005     -8.6976e-005   
  0.56            8.8598e-005     -8.8597e-005   
  0.57            9.0136e-005     -9.0178e-005   
  0.58            9.1687e-005     -9.1725e-005   
  0.59            9.3267e-005     -9.3254e-005   
  0.6             9.4898e-005     -9.4851e-005   
  0.61            9.6518e-005     -9.649e-005    
  0.62            9.8096e-005     -9.8037e-005   
  0.63            9.9677e-005     -9.9665e-005   
  0.64            0.00010122      -0.000101259   
  0.65            0.00010281      -0.00010271    
  0.66            0.00010448      -0.00010434    
  0.67            0.00010603      -0.00010596    
  0.68            0.00010756      -0.00010754    
  0.69            0.00010912      -0.00010905    
  0.7             0.00011072      -0.0001106     
  0.71            0.00011237      -0.00011226    
  0.72            0.00011396      -0.00011389    
  0.73            0.0001155       -0.00011546    
  0.74            0.00011702      -0.00011699    
  0.75            0.00011861      -0.00011859    
  0.76            0.00012018      -0.00012012    
  0.77            0.00012181      -0.00012169    
  0.78            0.00012345      -0.00012334    
  0.79            0.00012504      -0.00012496    
  0.8             0.00012654      -0.00012653    
  0.81            0.00012807      -0.00012802    
  0.82            0.00012968      -0.00012958    
  0.83            0.00013137      -0.00013123    
  0.84            0.00013294      -0.00013287    
  0.85            0.00013446      -0.00013444    
  0.86            0.00013597      -0.00013594    
  0.87            0.00013757      -0.00013756    
  0.88            0.00013913      -0.00013907    
  0.89            0.0001408       -0.00014065    
  0.9             0.00014243      -0.00014232    
  0.91            0.000144        -0.00014386    
  0.92            0.0001456       -0.00014552    
  0.93            0.00014709      -0.00014708    
  0.94            0.00014861      -0.0001486     
  0.95            0.00015022      -0.00015014    
  0.96            0.00015188      -0.00015174    
  0.97            0.00015353      -0.00015342    
  0.98            0.00015503      -0.00015502    
  0.99            0.00015654      -0.00015654    
  1               0.00015809      -0.00015804    
END_DB

