! VERSION = 6.00
BEGIN_HEADER
 ICCAP_INPUTS
  VU1        V  E GROUND SMU2 0.1 CON        0
  VU2        V  S GROUND SMU3 0.1 CON        0
  V2         V  B GROUND SMU1 0.015 CON        0
  V1         V  C GROUND SMU4 0.015 LIN        1    -1         1          201  0.01      
 ICCAP_OUTPUTS
  I1         I  C GROUND SMU4 B
  I2         I  B GROUND SMU1 B
END_HEADER

BEGIN_DB
 ICCAP_VAR VU1        0              
 ICCAP_VAR VU2        0              
 ICCAP_VAR V2         0              

 #V1              I1              I2             
  -1              -0.00010404     0.00010366     
  -0.99           -0.0001029      0.00010301     
  -0.98           -0.00010188     0.00010177     
  -0.97           -0.00010103     0.00010106     
  -0.96           -0.00010002     0.00010004     
  -0.95           -9.8866e-005    9.8816e-005    
  -0.94           -9.7733e-005    9.7908e-005    
  -0.93           -9.6406e-005    9.6383e-005    
  -0.92           -9.5735e-005    9.5671e-005    
  -0.91           -9.5053e-005    9.5232e-005    
  -0.9            -9.4325e-005    9.4272e-005    
  -0.89           -9.3092e-005    9.3195e-005    
  -0.88           -9.1992e-005    9.2086e-005    
  -0.87           -9.0998e-005    9.0891e-005    
  -0.86           -8.9883e-005    8.997e-005     
  -0.85           -8.8925e-005    8.8878e-005    
  -0.84           -8.8098e-005    8.7352e-005    
  -0.83           -8.6591e-005    8.7039e-005    
  -0.82           -8.5631e-005    8.604e-005     
  -0.81           -8.4251e-005    8.4457e-005    
  -0.8            -8.3079e-005    8.3625e-005    
  -0.79           -8.2587e-005    8.255e-005     
  -0.78           -8.1201e-005    8.1177e-005    
  -0.77           -8.0452e-005    8.0493e-005    
  -0.76           -7.9199e-005    7.9155e-005    
  -0.75           -7.7728e-005    7.8369e-005    
  -0.74           -7.7136e-005    7.7088e-005    
  -0.73           -7.6083e-005    7.5945e-005    
  -0.72           -7.509e-005     7.4935e-005    
  -0.71           -7.4182e-005    7.3807e-005    
  -0.7            -7.303e-005     7.3203e-005    
  -0.69           -7.2009e-005    7.1957e-005    
  -0.68           -7.0935e-005    7.0885e-005    
  -0.67           -6.966e-005     6.9528e-005    
  -0.66           -6.8774e-005    6.8967e-005    
  -0.65           -6.8049e-005    6.7985e-005    
  -0.64           -6.6841e-005    6.6976e-005    
  -0.63           -6.5807e-005    6.5892e-005    
  -0.62           -6.4616e-005    6.4794e-005    
  -0.61           -6.3718e-005    6.3653e-005    
  -0.6            -6.269e-005     6.2546e-005    
  -0.59           -6.1287e-005    6.1716e-005    
  -0.58           -6.0738e-005    6.0763e-005    
  -0.57           -5.9422e-005    5.9685e-005    
  -0.56           -5.8397e-005    5.8508e-005    
  -0.55           -5.7283e-005    5.7489e-005    
  -0.54           -5.6412e-005    5.64e-005      
  -0.53           -5.5299e-005    5.521e-005     
  -0.52           -5.4282e-005    5.4209e-005    
  -0.51           -5.3219e-005    5.3342e-005    
  -0.5            -5.2107e-005    5.2214e-005    
  -0.49           -5.1024e-005    5.1095e-005    
  -0.48           -4.9934e-005    4.9935e-005    
  -0.47           -4.9105e-005    4.8915e-005    
  -0.46           -4.8087e-005    4.807e-005     
  -0.45           -4.6889e-005    4.6934e-005    
  -0.44           -4.5887e-005    4.5988e-005    
  -0.43           -4.4858e-005    4.4744e-005    
  -0.42           -4.3682e-005    4.373e-005     
  -0.41           -4.2661e-005    4.2694e-005    
  -0.4            -4.1752e-005    4.1746e-005    
  -0.39           -4.0692e-005    4.0633e-005    
  -0.38           -3.9637e-005    3.958e-005     
  -0.37           -3.8553e-005    3.8562e-005    
  -0.36           -3.7439e-005    3.7495e-005    
  -0.35           -3.6414e-005    3.6412e-005    
  -0.34           -3.5409e-005    3.5359e-005    
  -0.33           -3.4423e-005    3.4415e-005    
  -0.32           -3.3392e-005    3.3406e-005    
  -0.31           -3.2262e-005    3.2356e-005    
  -0.3            -3.1184e-005    3.1224e-005    
  -0.29           -3.0154e-005    2.9858e-005    
  -0.28           -2.9094e-005    2.8938e-005    
  -0.27           -2.813e-005     2.7991e-005    
  -0.26           -2.7047e-005    2.702e-005     
  -0.25           -2.6081e-005    2.6046e-005    
  -0.24           -2.4969e-005    2.5028e-005    
  -0.23           -2.3905e-005    2.392e-005     
  -0.22           -2.2876e-005    2.2845e-005    
  -0.21           -2.1778e-005    2.1834e-005    
  -0.2            -2.086e-005     2.0842e-005    
  -0.19           -1.9814e-005    1.9821e-005    
  -0.18           -1.8703e-005    1.8748e-005    
  -0.17           -1.7586e-005    1.7679e-005    
  -0.16           -1.6592e-005    1.6622e-005    
  -0.15           -1.564e-005     1.5604e-005    
  -0.14           -1.4631e-005    1.464e-005     
  -0.13           -1.3618e-005    1.3604e-005    
  -0.12           -1.2527e-005    1.2584e-005    
  -0.11           -1.1478e-005    1.1501e-005    
  -0.1            -1.037e-005     1.043e-005     
  -0.09           -9.305e-006     9.3886e-006    
  -0.08           -8.3319e-006    8.3301e-006    
  -0.07           -7.2935e-006    7.2847e-006    
  -0.06           -6.2468e-006    6.2309e-006    
  -0.05           -5.2141e-006    5.1816e-006    
  -0.04           -4.1574e-006    4.1587e-006    
  -0.03           -3.1099e-006    3.1137e-006    
  -0.02           -2.0684e-006    2.069e-006     
  -0.01           -1.0288e-006    1.0316e-006    
  0               1.1042e-008     -1.1852e-008   
  0.01            1.0584e-006     -1.0596e-006   
  0.02            2.1124e-006     -2.1113e-006   
  0.03            3.1479e-006     -3.1523e-006   
  0.04            4.1956e-006     -4.2032e-006   
  0.05            5.2596e-006     -5.2611e-006   
  0.06            6.3044e-006     -6.2957e-006   
  0.07            7.3595e-006     -7.3532e-006   
  0.08            8.3878e-006     -8.4128e-006   
  0.09            9.4225e-006     -9.4363e-006   
  0.1             1.0391e-005     -1.04652e-005  
  0.11            1.1515e-005     -1.1526e-005   
  0.12            1.253e-005      -1.2466e-005   
  0.13            1.3581e-005     -1.3571e-005   
  0.14            1.4642e-005     -1.4621e-005   
  0.15            1.5699e-005     -1.5674e-005   
  0.16            1.677e-005      -1.6751e-005   
  0.17            1.7798e-005     -1.7826e-005   
  0.18            1.8774e-005     -1.8768e-005   
  0.19            1.9852e-005     -1.9823e-005   
  0.2             2.0799e-005     -2.0762e-005   
  0.21            2.1913e-005     -2.1822e-005   
  0.22            2.2919e-005     -2.2892e-005   
  0.23            2.388e-005      -2.3897e-005   
  0.24            2.5011e-005     -2.4912e-005   
  0.25            2.5982e-005     -2.5945e-005   
  0.26            2.7057e-005     -2.7051e-005   
  0.27            2.8104e-005     -2.8095e-005   
  0.28            2.9094e-005     -2.9208e-005   
  0.29            3.0102e-005     -3.0125e-005   
  0.3             3.1156e-005     -3.119e-005    
  0.31            3.2185e-005     -3.2191e-005   
  0.32            3.3276e-005     -3.3241e-005   
  0.33            3.4344e-005     -3.4255e-005   
  0.34            3.5436e-005     -3.5411e-005   
  0.35            3.6468e-005     -3.6508e-005   
  0.36            3.761e-005      -3.761e-005    
  0.37            3.878e-005      -3.8795e-005   
  0.38            3.9972e-005     -3.999e-005    
  0.39            4.1133e-005     -4.0984e-005   
  0.4             4.2234e-005     -4.2228e-005   
  0.41            4.3248e-005     -4.3282e-005   
  0.42            4.4242e-005     -4.4276e-005   
  0.43            4.5343e-005     -4.5373e-005   
  0.44            4.6357e-005     -4.6356e-005   
  0.45            4.6722e-005     -4.6595e-005   
  0.46            4.787e-005      -4.7679e-005   
  0.47            4.8977e-005     -4.9041e-005   
  0.48            5.0016e-005     -5.0065e-005   
  0.49            5.0825e-005     -5.113e-005    
  0.5             5.2103e-005     -5.2102e-005   
  0.51            5.2602e-005     -5.2989e-005   
  0.52            5.4266e-005     -5.4145e-005   
  0.53            5.5237e-005     -5.5397e-005   
  0.54            5.6416e-005     -5.6464e-005   
  0.55            5.7395e-005     -5.7495e-005   
  0.56            5.8468e-005     -5.8396e-005   
  0.57            5.9528e-005     -5.9425e-005   
  0.58            6.0654e-005     -6.0713e-005   
  0.59            6.1713e-005     -6.1637e-005   
  0.6             6.279e-005      -6.2836e-005   
  0.61            6.38e-005       -6.39e-005     
  0.62            6.4845e-005     -6.4908e-005   
  0.63            6.5923e-005     -6.6061e-005   
  0.64            6.6991e-005     -6.695e-005    
  0.65            6.8208e-005     -6.8122e-005   
  0.66            6.9326e-005     -6.9231e-005   
  0.67            7.0278e-005     -7.0359e-005   
  0.68            7.0992e-005     -7.096e-005    
  0.69            7.1935e-005     -7.1941e-005   
  0.7             7.2956e-005     -7.2848e-005   
  0.71            7.4005e-005     -7.3982e-005   
  0.72            7.5199e-005     -7.506e-005    
  0.73            7.632e-005      -7.656e-005    
  0.74            7.7416e-005     -7.7476e-005   
  0.75            7.8298e-005     -7.8463e-005   
  0.76            7.9513e-005     -7.9388e-005   
  0.77            8.0513e-005     -8.0414e-005   
  0.78            8.1707e-005     -8.1578e-005   
  0.79            8.369e-005      -8.3637e-005   
  0.8             8.4955e-005     -8.5013e-005   
  0.81            8.5903e-005     -8.5964e-005   
  0.82            8.7205e-005     -8.7009e-005   
  0.83            8.8187e-005     -8.8097e-005   
  0.84            8.9278e-005     -8.9418e-005   
  0.85            8.9354e-005     -8.9353e-005   
  0.86            9.0139e-005     -9.0362e-005   
  0.87            9.1667e-005     -9.172e-005    
  0.88            9.2381e-005     -9.2469e-005   
  0.89            9.3801e-005     -9.3849e-005   
  0.9             9.4927e-005     -9.4777e-005   
  0.91            9.6142e-005     -9.5995e-005   
  0.92            9.7256e-005     -9.7162e-005   
  0.93            9.8256e-005     -9.8206e-005   
  0.94            9.9327e-005     -9.9263e-005   
  0.95            9.978e-005      -0.000100292   
  0.96            0.00010058      -0.00010074    
  0.97            0.0001021       -0.0001021     
  0.98            0.00010285      -0.0001029     
  0.99            0.00010532      -0.00010518    
  1               0.00010632      -0.00010635    
END_DB

