! VERSION = 6.00
BEGIN_HEADER
 ICCAP_INPUTS
  VU1        V  E GROUND SMU2 0.1 CON        0
  VU2        V  S GROUND SMU3 0.1 CON        0
  V2         V  B GROUND SMU1 0.015 CON        0
  V1         V  C GROUND SMU4 0.015 LIN        1    -1         1          201  0.01      
 ICCAP_OUTPUTS
  I1         I  C GROUND SMU4 B
  I2         I  B GROUND SMU1 B
END_HEADER

BEGIN_DB
 ICCAP_VAR VU1        0              
 ICCAP_VAR VU2        0              
 ICCAP_VAR V2         0              

 #V1              I1              I2             
  -1              -0.0022896      0.0022919      
  -0.99           -0.0022677      0.0022676      
  -0.98           -0.0022453      0.0022452      
  -0.97           -0.0022229      0.0022236      
  -0.96           -0.0021988      0.0022004      
  -0.95           -0.0021759      0.0021771      
  -0.94           -0.0021528      0.0021544      
  -0.93           -0.0021299      0.0021306      
  -0.92           -0.0021074      0.0021075      
  -0.91           -0.0020856      0.0020857      
  -0.9            -0.0020624      0.0020621      
  -0.89           -0.0020399      0.0020406      
  -0.88           -0.002016       0.0020171      
  -0.87           -0.0019921      0.0019931      
  -0.86           -0.0019695      0.0019708      
  -0.85           -0.0019464      0.0019474      
  -0.84           -0.0019242      0.0019243      
  -0.83           -0.0019017      0.0019019      
  -0.82           -0.0018791      0.0018797      
  -0.81           -0.0018552      0.0018567      
  -0.8            -0.0018316      0.001833       
  -0.79           -0.0018091      0.0018095      
  -0.78           -0.0017873      0.0017872      
  -0.77           -0.0017643      0.0017651      
  -0.76           -0.0017405      0.0017418      
  -0.75           -0.0017169      0.0017178      
  -0.74           -0.0016944      0.001696       
  -0.73           -0.0016713      0.0016722      
  -0.72           -0.0016487      0.0016488      
  -0.71           -0.0016262      0.0016264      
  -0.7            -0.0016033      0.001604       
  -0.69           -0.0015795      0.0015807      
  -0.68           -0.0015562      0.0015574      
  -0.67           -0.0015335      0.0015339      
  -0.66           -0.0015115      0.0015114      
  -0.65           -0.0014884      0.0014892      
  -0.64           -0.0014649      0.0014657      
  -0.63           -0.0014413      0.0014422      
  -0.62           -0.0014186      0.0014191      
  -0.61           -0.0013961      0.0013962      
  -0.6            -0.0013737      0.001374       
  -0.59           -0.0013504      0.0013514      
  -0.58           -0.0013268      0.0013279      
  -0.57           -0.0013037      0.0013043      
  -0.56           -0.0012812      0.0012814      
  -0.55           -0.0012589      0.0012591      
  -0.54           -0.0012354      0.0012354      
  -0.53           -0.001213       0.0012137      
  -0.52           -0.0011897      0.0011906      
  -0.51           -0.0011659      0.0011672      
  -0.5            -0.0011429      0.0011436      
  -0.49           -0.0011206      0.0011209      
  -0.48           -0.0010978      0.0010982      
  -0.47           -0.0010748      0.0010756      
  -0.46           -0.0010512      0.0010524      
  -0.45           -0.0010282      0.0010292      
  -0.44           -0.0010057      0.0010062      
  -0.43           -0.00098295     0.00098337     
  -0.42           -0.00096053     0.00096025     
  -0.41           -0.00093772     0.00093782     
  -0.4            -0.00091439     0.00091473     
  -0.39           -0.00089119     0.00089136     
  -0.38           -0.00086842     0.00086875     
  -0.37           -0.00084551     0.00084562     
  -0.36           -0.00082296     0.00082275     
  -0.35           -0.00080034     0.00080013     
  -0.34           -0.0007773      0.0007774      
  -0.33           -0.00075399     0.00075434     
  -0.32           -0.00073113     0.0007313      
  -0.31           -0.00070833     0.00070821     
  -0.3            -0.00068581     0.00068559     
  -0.29           -0.00066287     0.00066295     
  -0.28           -0.0006399      0.00064016     
  -0.27           -0.00061671     0.00061684     
  -0.26           -0.00059389     0.00059421     
  -0.25           -0.00057092     0.00057101     
  -0.24           -0.00054832     0.00054829     
  -0.23           -0.00052561     0.00052556     
  -0.22           -0.00050274     0.00050282     
  -0.21           -0.00047951     0.00047987     
  -0.2            -0.00045668     0.00045687     
  -0.19           -0.00043392     0.00043389     
  -0.18           -0.00041121     0.00041112     
  -0.17           -0.00038836     0.00038844     
  -0.16           -0.0003655      0.00036567     
  -0.15           -0.00034244     0.00034248     
  -0.14           -0.00031961     0.00031974     
  -0.13           -0.00029666     0.00029672     
  -0.12           -0.00027401     0.00027399     
  -0.11           -0.00025119     0.0002512      
  -0.1            -0.00022828     0.00022839     
  -0.09           -0.00020521     0.00020542     
  -0.08           -0.00018231     0.0001825      
  -0.07           -0.00015964     0.00015965     
  -0.06           -0.0001368      0.00013681     
  -0.05           -0.00011389     0.00011399     
  -0.04           -9.0931e-005    9.091e-005     
  -0.03           -6.8221e-005    6.8234e-005    
  -0.02           -4.5344e-005    4.5349e-005    
  -0.01           -2.2476e-005    2.2498e-005    
  0               1.1589e-007     -1.4594e-007   
  0.01            2.3093e-005     -2.3092e-005   
  0.02            4.5944e-005     -4.5999e-005   
  0.03            6.8597e-005     -6.8595e-005   
  0.04            9.1438e-005     -9.1436e-005   
  0.05            0.0001146       -0.00011442    
  0.06            0.00013738      -0.00013739    
  0.07            0.00016007      -0.0001601     
  0.08            0.00018292      -0.00018298    
  0.09            0.00020579      -0.00020575    
  0.1             0.00022875      -0.0002286     
  0.11            0.00025157      -0.00025135    
  0.12            0.00027443      -0.00027426    
  0.13            0.00029736      -0.00029729    
  0.14            0.00032017      -0.00032018    
  0.15            0.00034291      -0.00034294    
  0.16            0.00036563      -0.00036553    
  0.17            0.00038857      -0.00038848    
  0.18            0.00041166      -0.00041165    
  0.19            0.0004345       -0.0004345     
  0.2             0.00045692      -0.00045706    
  0.21            0.00047981      -0.00047973    
  0.22            0.00050284      -0.00050256    
  0.23            0.00052599      -0.00052574    
  0.24            0.00054862      -0.00054858    
  0.25            0.00057129      -0.00057142    
  0.26            0.00059406      -0.00059398    
  0.27            0.00061707      -0.00061687    
  0.28            0.00064027      -0.00063991    
  0.29            0.00066317      -0.00066299    
  0.3             0.00068576      -0.00068591    
  0.31            0.00070848      -0.00070867    
  0.32            0.00073127      -0.00073155    
  0.33            0.00075386      -0.0007538     
  0.34            0.00077707      -0.00077668    
  0.35            0.0008003       -0.00080001    
  0.36            0.00082326      -0.00082327    
  0.37            0.00084577      -0.00084591    
  0.38            0.00086834      -0.0008683     
  0.39            0.00089136      -0.00089109    
  0.4             0.00091468      -0.00091423    
  0.41            0.00093752      -0.00093736    
  0.42            0.00095997      -0.00096025    
  0.43            0.00098253      -0.00098284    
  0.44            0.00100547      -0.001006      
  0.45            0.00102841      -0.00102846    
  0.46            0.00105154      -0.00105112    
  0.47            0.00107503      -0.0010746     
  0.48            0.0010979       -0.00109785    
  0.49            0.00112051      -0.00112062    
  0.5             0.0011436       -0.0011429     
  0.51            0.0011661       -0.001166      
  0.52            0.001189        -0.001189      
  0.53            0.0012119       -0.0012113     
  0.54            0.001235        -0.0012339     
  0.55            0.0012585       -0.0012576     
  0.56            0.0012815       -0.0012807     
  0.57            0.0013038       -0.0013036     
  0.58            0.0013266       -0.001326      
  0.59            0.0013501       -0.0013488     
  0.6             0.0013733       -0.0013721     
  0.61            0.0013963       -0.0013955     
  0.62            0.0014186       -0.0014185     
  0.63            0.0014408       -0.0014407     
  0.64            0.0014638       -0.0014638     
  0.65            0.0014865       -0.001486      
  0.66            0.00151         -0.0015087     
  0.67            0.0015336       -0.0015325     
  0.68            0.0015566       -0.0015561     
  0.69            0.001579        -0.0015789     
  0.7             0.0016018       -0.0016011     
  0.71            0.0016251       -0.0016239     
  0.72            0.0016486       -0.0016468     
  0.73            0.0016714       -0.0016706     
  0.74            0.001694        -0.0016937     
  0.75            0.0017159       -0.0017159     
  0.76            0.0017392       -0.0017392     
  0.77            0.001762        -0.0017616     
  0.78            0.0017852       -0.0017844     
  0.79            0.001809        -0.0018079     
  0.8             0.0018321       -0.0018314     
  0.81            0.0018543       -0.0018544     
  0.82            0.0018769       -0.0018765     
  0.83            0.0019007       -0.001899      
  0.84            0.0019243       -0.0019226     
  0.85            0.0019472       -0.0019463     
  0.86            0.0019695       -0.0019697     
  0.87            0.0019914       -0.0019916     
  0.88            0.0020146       -0.002015      
  0.89            0.002037        -0.0020366     
  0.9             0.0020611       -0.0020595     
  0.91            0.0020849       -0.0020838     
  0.92            0.0021079       -0.0021062     
  0.93            0.0021306       -0.0021298     
  0.94            0.0021526       -0.0021528     
  0.95            0.0021747       -0.0021748     
  0.96            0.0021977       -0.0021973     
  0.97            0.0022216       -0.0022202     
  0.98            0.0022447       -0.0022439     
  0.99            0.0022682       -0.0022676     
  1               0.0022895       -0.0022897     
END_DB

