! VERSION = 6.00
BEGIN_HEADER
 ICCAP_INPUTS
  VU1        V  E GROUND SMU2 0.1 CON        0
  VU2        V  S GROUND SMU3 0.1 CON        0
  V2         V  B GROUND SMU1 0.015 CON        0
  V1         V  C GROUND SMU4 0.015 LIN        1    -1         1          201  0.01      
 ICCAP_OUTPUTS
  I1         I  C GROUND SMU4 B
  I2         I  B GROUND SMU1 B
END_HEADER

BEGIN_DB
 ICCAP_VAR VU1        0              
 ICCAP_VAR VU2        0              
 ICCAP_VAR V2         0              

 #V1              I1              I2             
  -1              -0.00073676     0.00073688     
  -0.99           -0.00072891     0.00072943     
  -0.98           -0.0007214      0.00072155     
  -0.97           -0.00071434     0.00071412     
  -0.96           -0.0007074      0.00070711     
  -0.95           -0.0007001      0.00070021     
  -0.94           -0.00069228     0.00069274     
  -0.93           -0.00068463     0.00068491     
  -0.92           -0.00067743     0.0006773      
  -0.91           -0.0006706      0.00067026     
  -0.9            -0.00066334     0.00066336     
  -0.89           -0.00065563     0.00065597     
  -0.88           -0.00064786     0.00064821     
  -0.87           -0.00064052     0.00064054     
  -0.86           -0.00063367     0.00063335     
  -0.85           -0.00062653     0.00062646     
  -0.84           -0.00061891     0.0006192      
  -0.83           -0.0006111      0.00061153     
  -0.82           -0.00060375     0.00060384     
  -0.81           -0.0005967      0.00059648     
  -0.8            -0.00058965     0.00058952     
  -0.79           -0.0005822      0.00058192     
  -0.78           -0.00057494     0.000575       
  -0.77           -0.00056728     0.00056762     
  -0.76           -0.00055958     0.00055987     
  -0.75           -0.00055224     0.00055224     
  -0.74           -0.00054531     0.00054504     
  -0.73           -0.00053811     0.00053809     
  -0.72           -0.00053055     0.00053078     
  -0.71           -0.00052282     0.00052317     
  -0.7            -0.00051546     0.00051553     
  -0.69           -0.00050837     0.00050819     
  -0.68           -0.00050124     0.00050116     
  -0.67           -0.00049379     0.00049358     
  -0.66           -0.00048654     0.00048659     
  -0.65           -0.00047892     0.0004792      
  -0.64           -0.00047126     0.00047151     
  -0.63           -0.00046391     0.00046397     
  -0.62           -0.00045693     0.0004567      
  -0.61           -0.00044968     0.00044966     
  -0.6            -0.00044218     0.0004424      
  -0.59           -0.00043447     0.0004348      
  -0.58           -0.00042704     0.00042714     
  -0.57           -0.00041993     0.00041982     
  -0.56           -0.0004128      0.00041271     
  -0.55           -0.00040538     0.00040551     
  -0.54           -0.00039772     0.00039802     
  -0.53           -0.00039029     0.00039042     
  -0.52           -0.00038304     0.00038295     
  -0.51           -0.00037593     0.00037578     
  -0.5            -0.00036858     0.00036865     
  -0.49           -0.00036103     0.00036127     
  -0.48           -0.00035344     0.00035364     
  -0.47           -0.00034613     0.00034639     
  -0.46           -0.0003387      0.00033879     
  -0.45           -0.00033157     0.00033148     
  -0.44           -0.00032435     0.00032432     
  -0.43           -0.00031694     0.00031681     
  -0.42           -0.0003096      0.00030964     
  -0.41           -0.00030211     0.00030233     
  -0.4            -0.00029455     0.00029475     
  -0.39           -0.00028719     0.00028724     
  -0.38           -0.00028        0.00027991     
  -0.37           -0.00027278     0.00027279     
  -0.36           -0.00026532     0.00026547     
  -0.35           -0.00025775     0.00025795     
  -0.34           -0.00025033     0.00025041     
  -0.33           -0.00024306     0.00024302     
  -0.32           -0.00023588     0.00023589     
  -0.31           -0.00022847     0.00022842     
  -0.3            -0.00022111     0.00022117     
  -0.29           -0.00021362     0.00021378     
  -0.28           -0.00020616     0.00020633     
  -0.27           -0.00019881     0.00019884     
  -0.26           -0.00019157     0.00019151     
  -0.25           -0.00018425     0.00018426     
  -0.24           -0.00017685     0.00017698     
  -0.23           -0.00016935     0.0001695      
  -0.22           -0.00016195     0.00016201     
  -0.21           -0.00015466     0.00015465     
  -0.2            -0.00014741     0.00014746     
  -0.19           -0.00014        0.00013999     
  -0.18           -0.00013263     0.00013269     
  -0.17           -0.00012517     0.00012529     
  -0.16           -0.00011778     0.00011789     
  -0.15           -0.0001104      0.00011045     
  -0.14           -0.0001031      0.00010309     
  -0.13           -9.5745e-005    9.5681e-005    
  -0.12           -8.8392e-005    8.8354e-005    
  -0.11           -8.1032e-005    8.1021e-005    
  -0.1            -7.3613e-005    7.3642e-005    
  -0.09           -6.619e-005     6.6227e-005    
  -0.08           -5.8807e-005    5.8809e-005    
  -0.07           -5.1494e-005    5.1493e-005    
  -0.06           -4.4142e-005    4.4126e-005    
  -0.05           -3.6749e-005    3.6765e-005    
  -0.04           -2.9351e-005    2.9371e-005    
  -0.03           -2.2014e-005    2.2018e-005    
  -0.02           -1.4627e-005    1.4636e-005    
  -0.01           -7.2488e-006    7.2716e-006    
  0               6.1165e-008     -6.3658e-008   
  0.01            7.453e-006      -7.4228e-006   
  0.02            1.484e-005      -1.4825e-005   
  0.03            2.2151e-005     -2.2165e-005   
  0.04            2.9532e-005     -2.9535e-005   
  0.05            3.6933e-005     -3.6896e-005   
  0.06            4.4337e-005     -4.431e-005    
  0.07            5.168e-005      -5.1657e-005   
  0.08            5.902e-005      -5.9045e-005   
  0.09            6.6361e-005     -6.6392e-005   
  0.1             7.3747e-005     -7.3737e-005   
  0.11            8.1109e-005     -8.1066e-005   
  0.12            8.8533e-005     -8.8462e-005   
  0.13            9.5912e-005     -9.5915e-005   
  0.14            0.00010332      -0.00010329    
  0.15            0.00011077      -0.0001106     
  0.16            0.00011812      -0.00011802    
  0.17            0.00012547      -0.00012544    
  0.18            0.00013275      -0.00013277    
  0.19            0.00014013      -0.00014006    
  0.2             0.00014752      -0.00014739    
  0.21            0.00015499      -0.00015488    
  0.22            0.0001624       -0.0001622     
  0.23            0.0001698       -0.00016971    
  0.24            0.00017701      -0.000177      
  0.25            0.00018431      -0.00018433    
  0.26            0.00019167      -0.00019176    
  0.27            0.00019905      -0.000199      
  0.28            0.00020654      -0.00020639    
  0.29            0.00021399      -0.00021381    
  0.3             0.00022137      -0.00022131    
  0.31            0.00022863      -0.00022867    
  0.32            0.00023589      -0.00023586    
  0.33            0.0002433       -0.00024316    
  0.34            0.00025087      -0.00025065    
  0.35            0.00025827      -0.00025819    
  0.36            0.00026552      -0.00026559    
  0.37            0.00027271      -0.00027279    
  0.38            0.00028012      -0.00028       
  0.39            0.00028772      -0.00028746    
  0.4             0.00029517      -0.00029507    
  0.41            0.00030238      -0.0003024     
  0.42            0.00030957      -0.00030969    
  0.43            0.00031693      -0.00031689    
  0.44            0.0003245       -0.00032426    
  0.45            0.00033205      -0.00033183    
  0.46            0.00033934      -0.00033905    
  0.47            0.00034677      -0.00034666    
  0.48            0.00035397      -0.00035406    
  0.49            0.00036117      -0.00036125    
  0.5             0.00036851      -0.00036867    
  0.51            0.00037584      -0.0003758     
  0.52            0.0003834       -0.00038315    
  0.53            0.00039102      -0.0003908     
  0.54            0.00039832      -0.0003983     
  0.55            0.00040548      -0.00040562    
  0.56            0.00041268      -0.00041267    
  0.57            0.00042018      -0.00042       
  0.58            0.00042788      -0.00042757    
  0.59            0.00043524      -0.00043515    
  0.6             0.00044241      -0.00044253    
  0.61            0.00044953      -0.00044968    
  0.62            0.00045697      -0.00045718    
  0.63            0.00046419      -0.00046419    
  0.64            0.00047186      -0.00047154    
  0.65            0.0004795       -0.0004792     
  0.66            0.00048683      -0.00048681    
  0.67            0.00049384      -0.00049405    
  0.68            0.00050103      -0.00050105    
  0.69            0.00050856      -0.00050835    
  0.7             0.00051632      -0.00051595    
  0.71            0.00052373      -0.00052363    
  0.72            0.00053078      -0.00053098    
  0.73            0.00053787      -0.00053802    
  0.74            0.00054532      -0.00054556    
  0.75            0.0005526       -0.00055259    
  0.76            0.00056022      -0.00055989    
  0.77            0.00056794      -0.00056763    
  0.78            0.00057529      -0.00057526    
  0.79            0.00058229      -0.00058255    
  0.8             0.00058938      -0.00058942    
  0.81            0.00059695      -0.00059669    
  0.82            0.00060477      -0.00060434    
  0.83            0.00061223      -0.00061213    
  0.84            0.00061916      -0.0006194     
  0.85            0.00062623      -0.0006264     
  0.86            0.00063366      -0.00063399    
  0.87            0.00064094      -0.00064095    
  0.88            0.00064861      -0.00064824    
  0.89            0.00065636      -0.00065601    
  0.9             0.00066368      -0.00066368    
  0.91            0.00067061      -0.00067092    
  0.92            0.00067774      -0.00067778    
  0.93            0.00068531      -0.00068498    
  0.94            0.00069317      -0.0006927     
  0.95            0.00070058      -0.00070052    
  0.96            0.00070756      -0.00070784    
  0.97            0.00071452      -0.00071471    
  0.98            0.00072195      -0.00072232    
  0.99            0.00072925      -0.00072922    
  1               0.000737        -0.0007366     
END_DB

