! VERSION = 6.00
BEGIN_HEADER
 ICCAP_INPUTS
  VU1        V  E GROUND SMU2 0.1 CON        0
  VU2        V  S GROUND SMU3 0.1 CON        0
  V2         V  B GROUND SMU4 0.015 CON        0
  V1         V  C GROUND SMU1 0.015 LIN        1    -1         1          201  0.01      
 ICCAP_OUTPUTS
  I1         I  C GROUND SMU1 B
  I2         I  B GROUND SMU4 B
END_HEADER

BEGIN_DB
 ICCAP_VAR VU1        0              
 ICCAP_VAR VU2        0              
 ICCAP_VAR V2         0              

 #V1              I1              I2             
  -1              -0.000762       0.00076212     
  -0.99           -0.00075437     0.0007542      
  -0.98           -0.00074644     0.00074622     
  -0.97           -0.00073846     0.00073859     
  -0.96           -0.00073091     0.00073132     
  -0.95           -0.00072376     0.00072408     
  -0.94           -0.00071632     0.00071628     
  -0.93           -0.00070847     0.00070817     
  -0.92           -0.00070048     0.00070053     
  -0.91           -0.00069279     0.00069319     
  -0.9            -0.00068553     0.0006859      
  -0.89           -0.00067823     0.00067826     
  -0.88           -0.00067051     0.00067029     
  -0.87           -0.00066248     0.00066248     
  -0.86           -0.00065475     0.00065502     
  -0.85           -0.00064737     0.0006478      
  -0.84           -0.00064014     0.00064026     
  -0.83           -0.0006325      0.00063233     
  -0.82           -0.00062456     0.00062441     
  -0.81           -0.00061713     0.00061687     
  -0.8            -0.00060915     0.00060916     
  -0.79           -0.0006015      0.00060184     
  -0.78           -0.00059416     0.00059449     
  -0.77           -0.00058677     0.00058683     
  -0.76           -0.00057908     0.00057891     
  -0.75           -0.00057108     0.00057109     
  -0.74           -0.0005634      0.00056368     
  -0.73           -0.00055599     0.00055639     
  -0.72           -0.00054867     0.00054883     
  -0.71           -0.00054108     0.00054095     
  -0.7            -0.00053317     0.00053305     
  -0.69           -0.00052568     0.00052549     
  -0.68           -0.0005178      0.00051784     
  -0.67           -0.00051013     0.00051044     
  -0.66           -0.00050276     0.00050308     
  -0.65           -0.0004954      0.00049544     
  -0.64           -0.00048768     0.00048755     
  -0.63           -0.0004797      0.00047973     
  -0.62           -0.00047207     0.00047228     
  -0.61           -0.00046458     0.00046494     
  -0.6            -0.00045723     0.00045736     
  -0.59           -0.00044964     0.00044958     
  -0.58           -0.0004418      0.00044172     
  -0.57           -0.00043397     0.00043411     
  -0.56           -0.00042649     0.00042682     
  -0.55           -0.00041912     0.00041927     
  -0.54           -0.00041157     0.00041152     
  -0.53           -0.00040382     0.0004037      
  -0.52           -0.00039597     0.00039603     
  -0.51           -0.00038834     0.0003886      
  -0.5            -0.00038096     0.0003812      
  -0.49           -0.00037323     0.00037354     
  -0.48           -0.00036583     0.00036595     
  -0.47           -0.00035825     0.0003582      
  -0.46           -0.00035045     0.00035041     
  -0.45           -0.0003427      0.00034285     
  -0.44           -0.00033515     0.00033539     
  -0.43           -0.00032773     0.00032787     
  -0.42           -0.0003202      0.00032019     
  -0.41           -0.00031245     0.00031239     
  -0.4            -0.00030465     0.00030474     
  -0.39           -0.00029709     0.00029732     
  -0.38           -0.00028956     0.00028982     
  -0.37           -0.00028188     0.00028214     
  -0.36           -0.00027447     0.00027458     
  -0.35           -0.00026684     0.00026686     
  -0.34           -0.00025909     0.00025907     
  -0.33           -0.00025139     0.00025153     
  -0.32           -0.00024382     0.00024404     
  -0.31           -0.00023632     0.00023644     
  -0.3            -0.00022877     0.00022882     
  -0.29           -0.00022105     0.00022104     
  -0.28           -0.00021328     0.00021339     
  -0.27           -0.00020571     0.00020593     
  -0.26           -0.00019818     0.00019836     
  -0.25           -0.00019049     0.00019073     
  -0.24           -0.00018303     0.00018315     
  -0.23           -0.00017539     0.0001754      
  -0.22           -0.00016769     0.00016771     
  -0.21           -0.00016013     0.00016013     
  -0.2            -0.0001524      0.00015249     
  -0.19           -0.00014473     0.0001449      
  -0.18           -0.00013726     0.00013742     
  -0.17           -0.00012965     0.00012976     
  -0.16           -0.00012203     0.00012212     
  -0.15           -0.00011432     0.00011441     
  -0.14           -0.00010668     0.00010683     
  -0.13           -9.9173e-005    9.9214e-005    
  -0.12           -9.156e-005     9.1566e-005    
  -0.11           -8.3925e-005    8.392e-005     
  -0.1            -7.6339e-005    7.6289e-005    
  -0.09           -6.8645e-005    6.8652e-005    
  -0.08           -6.1011e-005    6.1045e-005    
  -0.07           -5.3467e-005    5.3512e-005    
  -0.06           -4.5861e-005    4.5874e-005    
  -0.05           -3.8229e-005    3.8211e-005    
  -0.04           -3.0625e-005    3.0617e-005    
  -0.03           -2.2979e-005    2.2976e-005    
  -0.02           -1.5331e-005    1.5361e-005    
  -0.01           -7.771e-006     7.7717e-006    
  0               -1.2124e-007    1.0687e-007    
  0.01            7.483e-006      -7.4979e-006   
  0.02            1.5081e-005     -1.5061e-005   
  0.03            2.2715e-005     -2.2708e-005   
  0.04            3.0364e-005     -3.0355e-005   
  0.05            3.7928e-005     -3.7917e-005   
  0.06            4.5556e-005     -4.553e-005    
  0.07            5.3165e-005     -5.3164e-005   
  0.08            6.0746e-005     -6.0746e-005   
  0.09            6.8399e-005     -6.8419e-005   
  0.1             7.6069e-005     -7.6048e-005   
  0.11            8.3637e-005     -8.3598e-005   
  0.12            9.1212e-005     -9.118e-005    
  0.13            9.8813e-005     -9.8813e-005   
  0.14            0.000106398     -0.000106458   
  0.15            0.00011412      -0.00011409    
  0.16            0.00012184      -0.00012168    
  0.17            0.0001293       -0.00012919    
  0.18            0.00013702      -0.00013687    
  0.19            0.00014458      -0.0001445     
  0.2             0.00015216      -0.00015212    
  0.21            0.00015991      -0.00015982    
  0.22            0.00016746      -0.00016741    
  0.23            0.00017512      -0.00017505    
  0.24            0.00018276      -0.00018259    
  0.25            0.00019031      -0.00019015    
  0.26            0.00019781      -0.00019771    
  0.27            0.00020546      -0.0002055     
  0.28            0.00021322      -0.00021319    
  0.29            0.00022092      -0.00022076    
  0.3             0.00022842      -0.0002282     
  0.31            0.00023593      -0.00023578    
  0.32            0.00024355      -0.00024356    
  0.33            0.00025131      -0.00025127    
  0.34            0.00025884      -0.00025888    
  0.35            0.00026663      -0.00026656    
  0.36            0.00027421      -0.00027404    
  0.37            0.00028173      -0.00028154    
  0.38            0.00028922      -0.00028916    
  0.39            0.00029685      -0.00029692    
  0.4             0.00030467      -0.00030465    
  0.41            0.0003124       -0.0003122     
  0.42            0.00031987      -0.00031963    
  0.43            0.00032731      -0.00032721    
  0.44            0.00033496      -0.00033497    
  0.45            0.00034273      -0.00034274    
  0.46            0.00035051      -0.00035037    
  0.47            0.00035806      -0.00035777    
  0.48            0.00036542      -0.00036524    
  0.49            0.00037299      -0.000373      
  0.5             0.00038076      -0.00038086    
  0.51            0.00038855      -0.00038849    
  0.52            0.00039621      -0.00039593    
  0.53            0.00040355      -0.00040339    
  0.54            0.00041137      -0.00041108    
  0.55            0.00041871      -0.00041858    
  0.56            0.00042632      -0.0004264     
  0.57            0.0004342       -0.00043426    
  0.58            0.00044195      -0.00044182    
  0.59            0.0004495       -0.00044919    
  0.6             0.00045686      -0.00045669    
  0.61            0.00046439      -0.00046439    
  0.62            0.00047219      -0.00047233    
  0.63            0.0004801       -0.00047999    
  0.64            0.00048765      -0.00048734    
  0.65            0.00049497      -0.00049474    
  0.66            0.00050278      -0.00050242    
  0.67            0.00051009      -0.00050994    
  0.68            0.00051772      -0.00051782    
  0.69            0.00052565      -0.00052571    
  0.7             0.00053301      -0.00053323    
  0.71            0.00054098      -0.00054092    
  0.72            0.00054863      -0.00054837    
  0.73            0.00055596      -0.00055562    
  0.74            0.00056334      -0.00056327    
  0.75            0.00057105      -0.00057126    
  0.76            0.00057897      -0.00057901    
  0.77            0.00058675      -0.00058649    
  0.78            0.00059415      -0.00059376    
  0.79            0.00060139      -0.00060126    
  0.8             0.00060902      -0.00060915    
  0.81            0.00061696      -0.00061711    
  0.82            0.00062481      -0.00062462    
  0.83            0.00063229      -0.00063189    
  0.84            0.00063956      -0.00063932    
  0.85            0.00064699      -0.00064707    
  0.86            0.00065488      -0.00065509    
  0.87            0.00066286      -0.0006628     
  0.88            0.00067042      -0.00067008    
  0.89            0.00067766      -0.00067737    
  0.9             0.00068554      -0.00068509    
  0.91            0.00069268      -0.00069256    
  0.92            0.00070033      -0.00070047    
  0.93            0.00070833      -0.00070848    
  0.94            0.00071619      -0.000716      
  0.95            0.0007237       -0.00072324    
  0.96            0.0007309       -0.00073064    
  0.97            0.00073829      -0.0007384     
  0.98            0.0007462       -0.00074648    
  0.99            0.00075426      -0.00075419    
  1               0.00076182      -0.00076144    
END_DB

