! VERSION = 6.00
BEGIN_HEADER
 ICCAP_INPUTS
  VU1        V  E GROUND SMU2 0.1 CON        0
  VU2        V  S GROUND SMU3 0.1 CON        0
  V2         V  B GROUND SMU1 0.015 CON        0
  V1         V  C GROUND SMU4 0.015 LIN        1    -1         1          201  0.01      
 ICCAP_OUTPUTS
  I1         I  C GROUND SMU4 B
  I2         I  B GROUND SMU1 B
END_HEADER

BEGIN_DB
 ICCAP_VAR VU1        0              
 ICCAP_VAR VU2        0              
 ICCAP_VAR V2         0              

 #V1              I1              I2             
  -1              -0.00071303     0.0007133      
  -0.99           -0.00070585     0.00070616     
  -0.98           -0.00069834     0.0006987      
  -0.97           -0.00069106     0.00069117     
  -0.96           -0.00068419     0.00068407     
  -0.95           -0.00067765     0.00067747     
  -0.94           -0.00067047     0.00067023     
  -0.93           -0.00066341     0.00066337     
  -0.92           -0.00065592     0.0006563      
  -0.91           -0.00064858     0.00064888     
  -0.9            -0.0006415      0.00064147     
  -0.89           -0.00063485     0.00063451     
  -0.88           -0.0006279      0.00062779     
  -0.87           -0.00062058     0.00062081     
  -0.86           -0.00061296     0.00061343     
  -0.85           -0.00060577     0.00060583     
  -0.84           -0.00059892     0.00059875     
  -0.83           -0.00059219     0.00059213     
  -0.82           -0.00058499     0.00058475     
  -0.81           -0.00057794     0.00057809     
  -0.8            -0.00057045     0.00057082     
  -0.79           -0.00056287     0.00056316     
  -0.78           -0.00055598     0.000556       
  -0.77           -0.00054913     0.00054892     
  -0.76           -0.00054207     0.00054205     
  -0.75           -0.00053486     0.00053517     
  -0.74           -0.00052739     0.00052776     
  -0.73           -0.00052016     0.00052032     
  -0.72           -0.0005133      0.00051322     
  -0.71           -0.00050651     0.00050633     
  -0.7            -0.00049937     0.00049955     
  -0.69           -0.00049183     0.00049221     
  -0.68           -0.00048464     0.00048469     
  -0.67           -0.00047756     0.00047751     
  -0.66           -0.00047074     0.00047063     
  -0.65           -0.0004636      0.00046367     
  -0.64           -0.00045621     0.00045655     
  -0.63           -0.00044888     0.000449       
  -0.62           -0.0004418      0.00044208     
  -0.61           -0.0004346      0.00043466     
  -0.6            -0.00042767     0.00042755     
  -0.59           -0.00042071     0.00042067     
  -0.58           -0.00041364     0.00041377     
  -0.57           -0.00040635     0.0004066      
  -0.56           -0.00039897     0.00039912     
  -0.55           -0.00039203     0.00039204     
  -0.54           -0.00038512     0.00038498     
  -0.53           -0.00037805     0.00037808     
  -0.52           -0.00037068     0.00037092     
  -0.51           -0.00036343     0.00036365     
  -0.5            -0.0003563      0.00035656     
  -0.49           -0.00034914     0.00034926     
  -0.48           -0.00034223     0.00034214     
  -0.47           -0.0003353      0.0003353      
  -0.46           -0.00032818     0.00032802     
  -0.45           -0.0003211      0.00032115     
  -0.44           -0.00031378     0.00031399     
  -0.43           -0.00030639     0.00030662     
  -0.42           -0.00029933     0.00029935     
  -0.41           -0.00029246     0.00029238     
  -0.4            -0.00028539     0.00028536     
  -0.39           -0.0002781      0.00027826     
  -0.38           -0.00027071     0.00027099     
  -0.37           -0.00026365     0.00026377     
  -0.36           -0.00025669     0.00025665     
  -0.35           -0.00024968     0.00024971     
  -0.34           -0.00024246     0.00024242     
  -0.33           -0.00023534     0.00023543     
  -0.32           -0.00022813     0.0002283      
  -0.31           -0.00022091     0.00022108     
  -0.3            -0.00021375     0.0002138      
  -0.29           -0.00020678     0.00020675     
  -0.28           -0.00019974     0.00019974     
  -0.27           -0.00019249     0.0001926      
  -0.26           -0.00018521     0.00018536     
  -0.25           -0.0001781      0.00017817     
  -0.24           -0.00017103     0.00017104     
  -0.23           -0.00016404     0.00016405     
  -0.22           -0.00015684     0.00015685     
  -0.21           -0.0001497      0.00014977     
  -0.2            -0.00014254     0.00014267     
  -0.19           -0.00013529     0.00013539     
  -0.18           -0.00012822     0.00012834     
  -0.17           -0.00012105     0.00012114     
  -0.16           -0.00011403     0.00011403     
  -0.15           -0.00010692     0.00010698     
  -0.14           -9.9808e-005    9.972e-005     
  -0.13           -9.2616e-005    9.2662e-005    
  -0.12           -8.5488e-005    8.5511e-005    
  -0.11           -7.8343e-005    7.834e-005     
  -0.1            -7.1247e-005    7.121e-005     
  -0.09           -6.4117e-005    6.414e-005     
  -0.08           -5.695e-005     5.6934e-005    
  -0.07           -4.9883e-005    4.9875e-005    
  -0.06           -4.2713e-005    4.2727e-005    
  -0.05           -3.555e-005     3.5572e-005    
  -0.04           -2.84e-005      2.8406e-005    
  -0.03           -2.1314e-005    2.1322e-005    
  -0.02           -1.4181e-005    1.4179e-005    
  -0.01           -7.0071e-006    7.004e-006     
  0               5.5257e-008     -5.6839e-008   
  0.01            7.2143e-006     -7.2064e-006   
  0.02            1.4359e-005     -1.4356e-005   
  0.03            2.145e-005      -2.1441e-005   
  0.04            2.8622e-005     -2.8586e-005   
  0.05            3.5767e-005     -3.5761e-005   
  0.06            4.2907e-005     -4.2916e-005   
  0.07            4.9955e-005     -4.9981e-005   
  0.08            5.7098e-005     -5.7092e-005   
  0.09            6.4255e-005     -6.4221e-005   
  0.1             7.1436e-005     -7.1398e-005   
  0.11            7.8554e-005     -7.8525e-005   
  0.12            8.5655e-005     -8.5703e-005   
  0.13            9.274e-005      -9.2773e-005   
  0.14            9.988e-005      -9.9878e-005   
  0.15            0.00010717      -0.000107039   
  0.16            0.00011426      -0.00011425    
  0.17            0.00012134      -0.00012123    
  0.18            0.0001285       -0.00012839    
  0.19            0.00013578      -0.00013562    
  0.2             0.00014292      -0.00014281    
  0.21            0.00014997      -0.00014994    
  0.22            0.00015703      -0.00015704    
  0.23            0.00016421      -0.00016408    
  0.24            0.00017136      -0.00017121    
  0.25            0.00017857      -0.00017843    
  0.26            0.00018567      -0.00018565    
  0.27            0.00019269      -0.00019276    
  0.28            0.00019985      -0.00019978    
  0.29            0.00020705      -0.00020687    
  0.3             0.00021427      -0.00021409    
  0.31            0.00022146      -0.00022124    
  0.32            0.00022863      -0.00022852    
  0.33            0.00023562      -0.00023564    
  0.34            0.00024261      -0.00024263    
  0.35            0.00024988      -0.00024974    
  0.36            0.00025713      -0.00025692    
  0.37            0.0002643       -0.0002642     
  0.38            0.00027142      -0.0002714     
  0.39            0.00027836      -0.00027845    
  0.4             0.00028544      -0.00028534    
  0.41            0.00029267      -0.00029253    
  0.42            0.00030001      -0.00029983    
  0.43            0.00030709      -0.00030686    
  0.44            0.00031431      -0.0003142     
  0.45            0.00032134      -0.00032143    
  0.46            0.00032828      -0.00032831    
  0.47            0.00033536      -0.00033529    
  0.48            0.00034269      -0.00034248    
  0.49            0.00035011      -0.00034997    
  0.5             0.00035703      -0.0003571     
  0.51            0.00036395      -0.00036414    
  0.52            0.00037105      -0.00037102    
  0.53            0.00037844      -0.00037815    
  0.54            0.00038573      -0.00038542    
  0.55            0.0003928       -0.00039277    
  0.56            0.00039973      -0.00039989    
  0.57            0.0004068       -0.0004067     
  0.58            0.00041416      -0.0004139     
  0.59            0.00042139      -0.00042112    
  0.6             0.00042864      -0.0004285     
  0.61            0.00043558      -0.00043559    
  0.62            0.00044248      -0.00044262    
  0.63            0.00044961      -0.00044985    
  0.64            0.00045664      -0.0004566     
  0.65            0.00046419      -0.00046387    
  0.66            0.00047159      -0.00047133    
  0.67            0.00047864      -0.00047824    
  0.68            0.00048587      -0.00048577    
  0.69            0.00049276      -0.00049292    
  0.7             0.0004997       -0.00049985    
  0.71            0.00050687      -0.00050682    
  0.72            0.00051425      -0.00051396    
  0.73            0.00052159      -0.00052141    
  0.74            0.00052853      -0.00052864    
  0.75            0.00053536      -0.00053555    
  0.76            0.00054233      -0.00054235    
  0.77            0.00054979      -0.00054951    
  0.78            0.00055723      -0.00055691    
  0.79            0.00056439      -0.00056397    
  0.8             0.00057162      -0.00057138    
  0.81            0.00057852      -0.0005787     
  0.82            0.00058518      -0.00058536    
  0.83            0.0005925       -0.00059239    
  0.84            0.00059986      -0.00059949    
  0.85            0.00060727      -0.0006071     
  0.86            0.00061421      -0.0006143     
  0.87            0.00062096      -0.00062121    
  0.88            0.00062795      -0.00062792    
  0.89            0.00063536      -0.0006351     
  0.9             0.00064296      -0.00064258    
  0.91            0.00064993      -0.00064948    
  0.92            0.00065726      -0.00065715    
  0.93            0.00066408      -0.00066435    
  0.94            0.00067086      -0.0006711     
  0.95            0.0006781       -0.00067794    
  0.96            0.00068574      -0.00068533    
  0.97            0.00069316      -0.0006929     
  0.98            0.00070002      -0.00070011    
  0.99            0.00070665      -0.000707      
  1               0.00071372      -0.00071371    
END_DB

