! VERSION = 6.00
BEGIN_HEADER
 ICCAP_INPUTS
  VU1        V  E GROUND SMU2 0.1 CON        0
  VU2        V  S GROUND SMU3 0.1 CON        0
  V2         V  B GROUND SMU1 0.015 CON        0
  V1         V  C GROUND SMU4 0.015 LIN        1    -1         1          201  0.01      
 ICCAP_OUTPUTS
  I1         I  C GROUND SMU4 B
  I2         I  B GROUND SMU1 B
END_HEADER

BEGIN_DB
 ICCAP_VAR VU1        0              
 ICCAP_VAR VU2        0              
 ICCAP_VAR V2         0              

 #V1              I1              I2             
  -1              -0.0013778      0.0013787      
  -0.99           -0.001364       0.0013648      
  -0.98           -0.0013507      0.0013509      
  -0.97           -0.0013374      0.0013376      
  -0.96           -0.0013238      0.0013246      
  -0.95           -0.0013095      0.0013108      
  -0.94           -0.0012952      0.0012961      
  -0.93           -0.0012817      0.0012819      
  -0.92           -0.0012687      0.0012687      
  -0.91           -0.0012549      0.0012559      
  -0.9            -0.0012408      0.0012418      
  -0.89           -0.0012263      0.0012274      
  -0.88           -0.0012127      0.001213       
  -0.87           -0.0011995      0.0011995      
  -0.86           -0.0011861      0.0011867      
  -0.85           -0.0011721      0.0011732      
  -0.84           -0.0011575      0.0011587      
  -0.83           -0.0011436      0.0011442      
  -0.82           -0.0011305      0.0011306      
  -0.81           -0.0011171      0.0011173      
  -0.8            -0.0011031      0.0011033      
  -0.79           -0.0010896      0.0010901      
  -0.78           -0.0010754      0.0010765      
  -0.77           -0.001061       0.0010621      
  -0.76           -0.0010473      0.001048       
  -0.75           -0.0010341      0.0010344      
  -0.74           -0.0010207      0.001021       
  -0.73           -0.0010066      0.0010075      
  -0.72           -0.0009933      0.00099255     
  -0.71           -0.00097889     0.00097949     
  -0.7            -0.0009649      0.00096522     
  -0.69           -0.00095132     0.00095116     
  -0.68           -0.00093811     0.00093769     
  -0.67           -0.0009244      0.00092442     
  -0.66           -0.0009103      0.00091069     
  -0.65           -0.00089603     0.00089643     
  -0.64           -0.00088227     0.00088229     
  -0.63           -0.00086897     0.00086857     
  -0.62           -0.00085553     0.0008554      
  -0.61           -0.0008415      0.00084177     
  -0.6            -0.00082717     0.00082766     
  -0.59           -0.0008133      0.0008134      
  -0.58           -0.00079985     0.00079959     
  -0.57           -0.0007865      0.00078634     
  -0.56           -0.00077254     0.00077225     
  -0.55           -0.00075888     0.00075889     
  -0.54           -0.00074477     0.00074507     
  -0.53           -0.00073066     0.00073107     
  -0.52           -0.00071688     0.00071689     
  -0.51           -0.0007035      0.00070318     
  -0.5            -0.00068986     0.00068975     
  -0.49           -0.00067599     0.00067623     
  -0.48           -0.00066178     0.00066214     
  -0.47           -0.00064789     0.00064799     
  -0.46           -0.00063434     0.00063417     
  -0.45           -0.00062093     0.00062084     
  -0.44           -0.00060703     0.00060677     
  -0.43           -0.0005933      0.00059333     
  -0.42           -0.00057924     0.00057947     
  -0.41           -0.00056521     0.00056553     
  -0.4            -0.00055142     0.00055147     
  -0.39           -0.00053795     0.00053771     
  -0.38           -0.00052427     0.00052421     
  -0.37           -0.00051042     0.00051063     
  -0.36           -0.00049631     0.00049662     
  -0.35           -0.00048246     0.00048254     
  -0.34           -0.0004688      0.00046872     
  -0.33           -0.00045522     0.00045521     
  -0.32           -0.00044143     0.0004413      
  -0.31           -0.00042768     0.00042772     
  -0.3            -0.00041371     0.0004139      
  -0.29           -0.00039968     0.0003999      
  -0.28           -0.00038597     0.000386       
  -0.27           -0.0003724      0.00037225     
  -0.26           -0.00035867     0.00035866     
  -0.25           -0.00034472     0.00034492     
  -0.24           -0.0003308      0.00033106     
  -0.23           -0.00031702     0.00031705     
  -0.22           -0.00030329     0.00030327     
  -0.21           -0.0002896      0.00028956     
  -0.2            -0.00027586     0.00027597     
  -0.19           -0.00026187     0.00026207     
  -0.18           -0.00024799     0.00024814     
  -0.17           -0.00023424     0.00023424     
  -0.16           -0.00022062     0.00022061     
  -0.15           -0.00020684     0.0002069      
  -0.14           -0.00019294     0.00019308     
  -0.13           -0.00017903     0.00017913     
  -0.12           -0.00016532     0.00016536     
  -0.11           -0.00015159     0.00015159     
  -0.1            -0.00013781     0.00013785     
  -0.09           -0.00012394     0.00012403     
  -0.08           -0.00011003     0.00011016     
  -0.07           -9.63e-005      9.6394e-005    
  -0.06           -8.2523e-005    8.2522e-005    
  -0.05           -6.8755e-005    6.8728e-005    
  -0.04           -5.492e-005     5.4942e-005    
  -0.03           -4.1215e-005    4.1212e-005    
  -0.02           -2.7373e-005    2.74e-005      
  -0.01           -1.3575e-005    1.3567e-005    
  0               1.00125e-007    -1.01117e-007  
  0.01            1.3957e-005     -1.3945e-005   
  0.02            2.7759e-005     -2.7766e-005   
  0.03            4.1447e-005     -4.1461e-005   
  0.04            5.5293e-005     -5.5263e-005   
  0.05            6.9117e-005     -6.908e-005    
  0.06            8.2948e-005     -8.2925e-005   
  0.07            9.6591e-005     -9.6636e-005   
  0.08            0.00011058      -0.000110426   
  0.09            0.00012441      -0.00012432    
  0.1             0.0001382       -0.00013816    
  0.11            0.00015182      -0.00015184    
  0.12            0.00016563      -0.0001656     
  0.13            0.00017954      -0.00017939    
  0.14            0.00019344      -0.0001933     
  0.15            0.00020728      -0.00020721    
  0.16            0.00022089      -0.00022089    
  0.17            0.00023459      -0.00023451    
  0.18            0.00024848      -0.00024835    
  0.19            0.00026249      -0.00026226    
  0.2             0.00027621      -0.00027612    
  0.21            0.0002899       -0.00028998    
  0.22            0.00030356      -0.00030362    
  0.23            0.0003174       -0.00031731    
  0.24            0.00033128      -0.00033106    
  0.25            0.00034523      -0.0003451     
  0.26            0.00035897      -0.00035898    
  0.27            0.00037255      -0.00037269    
  0.28            0.00038632      -0.00038629    
  0.29            0.00040023      -0.00039997    
  0.3             0.00041423      -0.00041398    
  0.31            0.00042804      -0.000428      
  0.32            0.0004416       -0.00044175    
  0.33            0.00045517      -0.00045516    
  0.34            0.00046912      -0.00046893    
  0.35            0.00048323      -0.0004829     
  0.36            0.00049714      -0.00049701    
  0.37            0.00051058      -0.00051073    
  0.38            0.00052416      -0.0005243     
  0.39            0.00053797      -0.00053821    
  0.4             0.00055174      -0.0005517     
  0.41            0.00056568      -0.00056539    
  0.42            0.00057979      -0.00057949    
  0.43            0.00059358      -0.00059358    
  0.44            0.00060708      -0.00060731    
  0.45            0.0006207       -0.00062071    
  0.46            0.00063459      -0.00063434    
  0.47            0.00064876      -0.00064837    
  0.48            0.00066267      -0.00066254    
  0.49            0.00067612      -0.00067635    
  0.5             0.00068955      -0.00068974    
  0.51            0.00070338      -0.00070371    
  0.52            0.00071711      -0.00071711    
  0.53            0.00073127      -0.00073091    
  0.54            0.00074535      -0.00074495    
  0.55            0.00075911      -0.00075909    
  0.56            0.00077247      -0.0007728     
  0.57            0.00078606      -0.00078608    
  0.58            0.00080009      -0.00079981    
  0.59            0.00081428      -0.00081383    
  0.6             0.00082821      -0.00082807    
  0.61            0.00084158      -0.00084188    
  0.62            0.00085502      -0.00085527    
  0.63            0.00086877      -0.00086916    
  0.64            0.00088249      -0.00088247    
  0.65            0.0008967       -0.00089629    
  0.66            0.00091097      -0.00091052    
  0.67            0.00092458      -0.0009246     
  0.68            0.00093785      -0.00093828    
  0.69            0.00095139      -0.00095146    
  0.7             0.00096548      -0.00096511    
  0.71            0.00097989      -0.0009793     
  0.72            0.00099366      -0.00099352    
  0.73            0.00100697      -0.00100729    
  0.74            0.00102034      -0.00102064    
  0.75            0.00103419      -0.00103468    
  0.76            0.00104773      -0.00104778    
  0.77            0.00106202      -0.00106155    
  0.78            0.00107635      -0.00107588    
  0.79            0.0010901       -0.00109013    
  0.8             0.00110313      -0.00110363    
  0.81            0.00111663      -0.00111672    
  0.82            0.00113075      -0.00113038    
  0.83            0.0011447       -0.0011446     
  0.84            0.0011591       -0.0011578     
  0.85            0.0011732       -0.0011724     
  0.86            0.0011866       -0.0011864     
  0.87            0.0011998       -0.0011997     
  0.88            0.0012132       -0.0012127     
  0.89            0.0012278       -0.0012264     
  0.9             0.0012422       -0.001241      
  0.91            0.0012557       -0.0012544     
  0.92            0.0012697       -0.0012689     
  0.93            0.0012827       -0.0012826     
  0.94            0.0012959       -0.0012958     
  0.95            0.0013099       -0.0013098     
  0.96            0.0013234       -0.0013229     
  0.97            0.0013376       -0.0013366     
  0.98            0.0013521       -0.0013509     
  0.99            0.0013657       -0.0013652     
  1               0.0013789       -0.001379      
END_DB

