! VERSION = 6.00
BEGIN_HEADER
 ICCAP_INPUTS
  VU1        V  E GROUND SMU2 0.1 CON        0
  VU2        V  S GROUND SMU3 0.1 CON        0
  V2         V  B GROUND SMU1 0.015 CON        0
  V1         V  C GROUND SMU4 0.015 LIN        1    -0.3       0.3        61   0.01      
 ICCAP_OUTPUTS
  I1         I  C GROUND SMU4 B
  I2         I  B GROUND SMU1 B
END_HEADER

BEGIN_DB
 ICCAP_VAR VU1        0              
 ICCAP_VAR VU2        0              
 ICCAP_VAR V2         0              

 #V1              I1              I2             
  -0.3            -0.00035198     0.0003521      
  -0.29           -0.00033921     0.00033911     
  -0.28           -0.00032685     0.00032687     
  -0.27           -0.0003141      0.00031429     
  -0.26           -0.00030146     0.00030161     
  -0.25           -0.0002892      0.00028944     
  -0.24           -0.00027699     0.00027707     
  -0.23           -0.00026494     0.0002649      
  -0.22           -0.00025302     0.00025298     
  -0.21           -0.00024099     0.00024109     
  -0.2            -0.00022894     0.00022916     
  -0.19           -0.00021695     0.00021715     
  -0.18           -0.00020527     0.00020528     
  -0.17           -0.0001936      0.00019356     
  -0.16           -0.00018199     0.00018213     
  -0.15           -0.00017027     0.00017045     
  -0.14           -0.00015858     0.00015866     
  -0.13           -0.00014711     0.00014725     
  -0.12           -0.00013566     0.00013574     
  -0.11           -0.0001242      0.00012428     
  -0.1            -0.00011289     0.0001129      
  -0.09           -0.00010147     0.00010155     
  -0.08           -9.0028e-005    8.9984e-005    
  -0.07           -7.8719e-005    7.8758e-005    
  -0.06           -6.7419e-005    6.7417e-005    
  -0.05           -5.6139e-005    5.6117e-005    
  -0.04           -4.4855e-005    4.488e-005     
  -0.03           -3.3624e-005    3.3631e-005    
  -0.02           -2.2366e-005    2.2355e-005    
  -0.01           -1.107e-005     1.1093e-005    
  0               8.3041e-008     -8.7243e-008   
  0.01            1.1406e-005     -1.1347e-005   
  0.02            2.2659e-005     -2.2672e-005   
  0.03            3.3846e-005     -3.3845e-005   
  0.04            4.5094e-005     -4.5127e-005   
  0.05            5.6363e-005     -5.6354e-005   
  0.06            6.7677e-005     -6.7634e-005   
  0.07            7.8969e-005     -7.891e-005    
  0.08            9.0332e-005     -9.0276e-005   
  0.09            0.00010167      -0.000101679   
  0.1             0.00011311      -0.00011295    
  0.11            0.00012448      -0.00012438    
  0.12            0.00013598      -0.00013587    
  0.13            0.00014739      -0.00014735    
  0.14            0.00015879      -0.00015871    
  0.15            0.0001704       -0.0001703     
  0.16            0.00018205      -0.00018186    
  0.17            0.00019376      -0.00019362    
  0.18            0.0002053       -0.00020535    
  0.19            0.00021694      -0.000217      
  0.2             0.00022866      -0.00022877    
  0.21            0.00024055      -0.00024049    
  0.22            0.00025262      -0.00025239    
  0.23            0.00026474      -0.00026459    
  0.24            0.00027676      -0.00027669    
  0.25            0.00028871      -0.00028878    
  0.26            0.00030082      -0.00030079    
  0.27            0.00031324      -0.00031304    
  0.28            0.00032584      -0.00032557    
  0.29            0.00033821      -0.00033805    
  0.3             0.0003506       -0.00035071    
END_DB

