! VERSION = 6.00
BEGIN_HEADER
 ICCAP_INPUTS
  VU1        V  E GROUND SMU2 0.1 CON        0
  VU2        V  S GROUND SMU3 0.1 CON        0
  V2         V  B GROUND SMU1 0.015 CON        0
  V1         V  C GROUND SMU4 0.015 LIN        1    -0.7       0.7        141  0.01      
 ICCAP_OUTPUTS
  I1         I  C GROUND SMU4 B
  I2         I  B GROUND SMU1 B
END_HEADER

BEGIN_DB
 ICCAP_VAR VU1        0              
 ICCAP_VAR VU2        0              
 ICCAP_VAR V2         0              

 #V1              I1              I2             
  -0.7            -0.0020165      0.0020161      
  -0.69           -0.0019876      0.0019882      
  -0.68           -0.0019578      0.001959       
  -0.67           -0.0019282      0.0019292      
  -0.66           -0.0018995      0.0019011      
  -0.65           -0.0018707      0.0018713      
  -0.64           -0.0018427      0.0018425      
  -0.63           -0.0018146      0.0018148      
  -0.62           -0.0017856      0.0017856      
  -0.61           -0.0017573      0.0017576      
  -0.6            -0.0017275      0.001729       
  -0.59           -0.001698       0.0016991      
  -0.58           -0.0016693      0.0016697      
  -0.57           -0.0016416      0.0016416      
  -0.56           -0.0016132      0.0016134      
  -0.55           -0.0015838      0.001585       
  -0.54           -0.001554       0.0015556      
  -0.53           -0.0015253      0.0015262      
  -0.52           -0.0014969      0.0014971      
  -0.51           -0.0014692      0.0014693      
  -0.5            -0.0014401      0.00144        
  -0.49           -0.0014116      0.0014122      
  -0.48           -0.0013821      0.0013833      
  -0.47           -0.0013525      0.0013539      
  -0.46           -0.0013237      0.0013242      
  -0.45           -0.001296       0.001296       
  -0.44           -0.0012674      0.0012679      
  -0.43           -0.0012383      0.0012394      
  -0.42           -0.0012087      0.00121        
  -0.41           -0.00118        0.0011807      
  -0.4            -0.0011516      0.0011519      
  -0.39           -0.0011233      0.0011238      
  -0.38           -0.0010944      0.0010951      
  -0.37           -0.0010649      0.0010663      
  -0.36           -0.0010361      0.0010368      
  -0.35           -0.0010073      0.0010077      
  -0.34           -0.00097869     0.00097948     
  -0.33           -0.00095035     0.00094996     
  -0.32           -0.000922       0.00092193     
  -0.31           -0.00089284     0.00089318     
  -0.3            -0.0008635      0.00086396     
  -0.29           -0.00083462     0.00083467     
  -0.28           -0.00080638     0.0008061      
  -0.27           -0.00077784     0.00077776     
  -0.26           -0.00074888     0.0007486      
  -0.25           -0.00072006     0.00072013     
  -0.24           -0.00069112     0.00069145     
  -0.23           -0.00066195     0.00066215     
  -0.22           -0.00063318     0.00063315     
  -0.21           -0.00060467     0.00060445     
  -0.2            -0.00057618     0.00057613     
  -0.19           -0.00054712     0.00054735     
  -0.18           -0.00051798     0.00051827     
  -0.17           -0.00048909     0.00048914     
  -0.16           -0.00046067     0.00046053     
  -0.15           -0.00043203     0.00043205     
  -0.14           -0.00040308     0.00040295     
  -0.13           -0.00037421     0.0003743      
  -0.12           -0.00034545     0.00034562     
  -0.11           -0.00031642     0.00031656     
  -0.1            -0.0002876      0.00028762     
  -0.09           -0.00025892     0.00025883     
  -0.08           -0.0002301      0.0002301      
  -0.07           -0.00020139     0.00020151     
  -0.06           -0.00017242     0.00017253     
  -0.05           -0.00014359     0.0001436      
  -0.04           -0.00011472     0.00011477     
  -0.03           -8.6045e-005    8.6015e-005    
  -0.02           -5.7193e-005    5.7223e-005    
  -0.01           -2.836e-005     2.8365e-005    
  1.11022e-016    1.1681e-007     -1.4903e-007   
  0.01            2.9036e-005     -2.9067e-005   
  0.02            5.7937e-005     -5.7923e-005   
  0.03            8.6506e-005     -8.6505e-005   
  0.04            0.00011554      -0.00011551    
  0.05            0.00014431      -0.00014438    
  0.06            0.00017318      -0.00017319    
  0.07            0.00020175      -0.00020173    
  0.08            0.00023074      -0.00023057    
  0.09            0.00025973      -0.00025951    
  0.1             0.00028859      -0.00028852    
  0.11            0.00031707      -0.00031715    
  0.12            0.00034583      -0.0003458     
  0.13            0.00037475      -0.00037456    
  0.14            0.00040389      -0.0004036     
  0.15            0.0004328       -0.00043268    
  0.16            0.0004612       -0.00046132    
  0.17            0.00048985      -0.00049007    
  0.18            0.00051872      -0.00051893    
  0.19            0.00054751      -0.0005475     
  0.2             0.00057639      -0.0005761     
  0.21            0.00060557      -0.0006052     
  0.22            0.00063442      -0.00063437    
  0.23            0.00066296      -0.00066317    
  0.24            0.0006913       -0.00069128    
  0.25            0.00072033      -0.00072007    
  0.26            0.00074966      -0.00074918    
  0.27            0.00077865      -0.00077849    
  0.28            0.00080716      -0.00080739    
  0.29            0.00083536      -0.00083565    
  0.3             0.00086423      -0.00086413    
  0.31            0.00089367      -0.00089311    
  0.32            0.00092274      -0.00092259    
  0.33            0.00095116      -0.00095136    
  0.34            0.00097937      -0.00097986    
  0.35            0.00100817      -0.00100818    
  0.36            0.00103755      -0.00103704    
  0.37            0.00106666      -0.00106612    
  0.38            0.00109547      -0.00109475    
  0.39            0.00112443      -0.00112427    
  0.4             0.0011535       -0.0011522     
  0.41            0.0011822       -0.0011809     
  0.42            0.0012112       -0.0012105     
  0.43            0.0012393       -0.0012393     
  0.44            0.0012678       -0.0012675     
  0.45            0.0012966       -0.0012957     
  0.46            0.0013261       -0.0013248     
  0.47            0.0013552       -0.0013544     
  0.48            0.0013836       -0.0013836     
  0.49            0.0014118       -0.0014118     
  0.5             0.0014401       -0.0014395     
  0.51            0.0014697       -0.0014686     
  0.52            0.0014995       -0.001498      
  0.53            0.001528        -0.0015264     
  0.54            0.001557        -0.0015562     
  0.55            0.001585        -0.0015849     
  0.56            0.0016129       -0.001613      
  0.57            0.0016418       -0.0016412     
  0.58            0.0016715       -0.0016702     
  0.59            0.0017009       -0.0016999     
  0.6             0.0017293       -0.0017291     
  0.61            0.0017572       -0.0017574     
  0.62            0.0017858       -0.0017852     
  0.63            0.0018155       -0.0018139     
  0.64            0.0018451       -0.0018435     
  0.65            0.0018736       -0.0018718     
  0.66            0.0019029       -0.0019019     
  0.67            0.0019307       -0.0019306     
  0.68            0.0019583       -0.0019585     
  0.69            0.0019873       -0.0019864     
  0.7             0.0020171       -0.0020156     
END_DB

