! VERSION = 6.00
BEGIN_HEADER
 ICCAP_INPUTS
  VU1        V  E GROUND SMU2 0.1 CON        0
  VU2        V  S GROUND SMU3 0.1 CON        0
  V2         V  B GROUND SMU1 0.015 CON        0
  V1         V  C GROUND SMU4 0.015 LIN        1    -1         1          201  0.01      
 ICCAP_OUTPUTS
  I1         I  C GROUND SMU4 B
  I2         I  B GROUND SMU1 B
END_HEADER

BEGIN_DB
 ICCAP_VAR VU1        0              
 ICCAP_VAR VU2        0              
 ICCAP_VAR V2         0              

 #V1              I1              I2             
  -1              -0.0012045      0.0012042      
  -0.99           -0.0011923      0.0011924      
  -0.98           -0.001181       0.0011817      
  -0.97           -0.0011689      0.0011702      
  -0.96           -0.0011573      0.0011577      
  -0.95           -0.0011454      0.0011459      
  -0.94           -0.001134       0.0011342      
  -0.93           -0.0011225      0.0011228      
  -0.92           -0.0011098      0.0011107      
  -0.91           -0.0010977      0.001099       
  -0.9            -0.0010857      0.0010863      
  -0.89           -0.0010744      0.001074       
  -0.88           -0.0010621      0.0010624      
  -0.87           -0.0010498      0.0010509      
  -0.86           -0.0010375      0.0010386      
  -0.85           -0.001025       0.0010258      
  -0.84           -0.0010134      0.001014       
  -0.83           -0.0010021      0.0010023      
  -0.82           -0.00099004     0.00098962     
  -0.81           -0.00097812     0.00097819     
  -0.8            -0.00096588     0.00096637     
  -0.79           -0.00095295     0.00095325     
  -0.78           -0.00094128     0.0009413      
  -0.77           -0.00092953     0.00092929     
  -0.76           -0.0009182      0.00091807     
  -0.75           -0.00090602     0.00090542     
  -0.74           -0.00089367     0.00089368     
  -0.73           -0.00088136     0.00088174     
  -0.72           -0.00086906     0.0008695      
  -0.71           -0.00085748     0.00085764     
  -0.7            -0.00084519     0.00084526     
  -0.69           -0.00083352     0.00083321     
  -0.68           -0.00082186     0.00082174     
  -0.67           -0.00080964     0.0008096      
  -0.66           -0.00079733     0.00079765     
  -0.65           -0.00078459     0.00078449     
  -0.64           -0.00077234     0.00077225     
  -0.63           -0.00076093     0.00076078     
  -0.62           -0.00074903     0.00074906     
  -0.61           -0.00073645     0.00073666     
  -0.6            -0.00072436     0.00072442     
  -0.59           -0.00071267     0.00071267     
  -0.58           -0.00070089     0.00070037     
  -0.57           -0.00068893     0.00068894     
  -0.56           -0.00067648     0.00067669     
  -0.55           -0.00066416     0.00066442     
  -0.54           -0.0006521      0.00065217     
  -0.53           -0.00064031     0.00064025     
  -0.52           -0.00062834     0.00062825     
  -0.51           -0.00061635     0.00061615     
  -0.5            -0.00060429     0.00060412     
  -0.49           -0.0005919      0.00059219     
  -0.48           -0.00057951     0.00057971     
  -0.47           -0.00056737     0.00056736     
  -0.46           -0.00055556     0.00055539     
  -0.45           -0.00054372     0.00054381     
  -0.44           -0.00053146     0.00053176     
  -0.43           -0.00051906     0.00051932     
  -0.42           -0.00050693     0.0005069      
  -0.41           -0.00049509     0.00049506     
  -0.4            -0.00048319     0.00048308     
  -0.39           -0.00047101     0.00047116     
  -0.38           -0.00045886     0.00045917     
  -0.37           -0.00044656     0.00044674     
  -0.36           -0.00043458     0.00043452     
  -0.35           -0.00042278     0.00042262     
  -0.34           -0.00041069     0.00041076     
  -0.33           -0.00039829     0.0003986      
  -0.32           -0.00038599     0.00038623     
  -0.31           -0.00037407     0.00037428     
  -0.3            -0.00036197     0.00036208     
  -0.29           -0.00034996     0.00034991     
  -0.28           -0.00033817     0.00033811     
  -0.27           -0.00032613     0.00032619     
  -0.26           -0.00031379     0.00031392     
  -0.25           -0.00030167     0.00030183     
  -0.24           -0.0002897      0.00028971     
  -0.23           -0.00027775     0.00027773     
  -0.22           -0.0002656      0.00026572     
  -0.21           -0.00025342     0.00025359     
  -0.2            -0.0002413      0.00024134     
  -0.19           -0.00022924     0.00022933     
  -0.18           -0.00021714     0.00021722     
  -0.17           -0.000205       0.00020504     
  -0.16           -0.00019304     0.00019312     
  -0.15           -0.00018093     0.00018097     
  -0.14           -0.00016886     0.00016899     
  -0.13           -0.00015674     0.00015683     
  -0.12           -0.00014467     0.00014476     
  -0.11           -0.00013256     0.00013262     
  -0.1            -0.00012056     0.00012055     
  -0.09           -0.00010848     0.00010848     
  -0.08           -9.6352e-005    9.6297e-005    
  -0.07           -8.4301e-005    8.4365e-005    
  -0.06           -7.2212e-005    7.2236e-005    
  -0.05           -6.0134e-005    6.015e-005     
  -0.04           -4.8041e-005    4.8047e-005    
  -0.03           -3.6058e-005    3.6071e-005    
  -0.02           -2.3973e-005    2.3973e-005    
  -0.01           -1.1868e-005    1.1892e-005    
  0               9.0808e-008     -9.4865e-008   
  0.01            1.222e-005      -1.2212e-005   
  0.02            2.4324e-005     -2.4297e-005   
  0.03            3.6333e-005     -3.6302e-005   
  0.04            4.8403e-005     -4.8434e-005   
  0.05            6.0451e-005     -6.048e-005    
  0.06            7.252e-005      -7.252e-005    
  0.07            8.4556e-005     -8.4517e-005   
  0.08            9.6681e-005     -9.6612e-005   
  0.09            0.00010874      -0.000108762   
  0.1             0.00012089      -0.00012089    
  0.11            0.00013289      -0.00013288    
  0.12            0.0001449       -0.00014485    
  0.13            0.00015711      -0.00015697    
  0.14            0.00016929      -0.00016915    
  0.15            0.00018137      -0.00018129    
  0.16            0.00019325      -0.0001933     
  0.17            0.00020524      -0.00020521    
  0.18            0.00021733      -0.00021725    
  0.19            0.00022965      -0.00022947    
  0.2             0.00024169      -0.00024155    
  0.21            0.00025358      -0.00025363    
  0.22            0.00026559      -0.00026569    
  0.23            0.00027756      -0.00027764    
  0.24            0.00028961      -0.00028952    
  0.25            0.00030186      -0.00030161    
  0.26            0.00031411      -0.00031381    
  0.27            0.00032612      -0.00032611    
  0.28            0.00033828      -0.00033836    
  0.29            0.00035017      -0.00035006    
  0.3             0.00036223      -0.00036206    
  0.31            0.0003746       -0.00037438    
  0.32            0.00038656      -0.00038644    
  0.33            0.00039848      -0.00039853    
  0.34            0.0004102       -0.00041021    
  0.35            0.0004221       -0.00042223    
  0.36            0.0004341       -0.00043424    
  0.37            0.00044658      -0.00044633    
  0.38            0.00045874      -0.00045838    
  0.39            0.00047078      -0.00047072    
  0.4             0.00048298      -0.00048287    
  0.41            0.00049494      -0.00049492    
  0.42            0.00050691      -0.00050662    
  0.43            0.00051954      -0.00051914    
  0.44            0.00053166      -0.00053169    
  0.45            0.00054362      -0.00054375    
  0.46            0.00055511      -0.00055541    
  0.47            0.00056755      -0.00056733    
  0.48            0.00057966      -0.00057932    
  0.49            0.00059201      -0.00059187    
  0.5             0.00060406      -0.00060424    
  0.51            0.00061567      -0.00061609    
  0.52            0.00062777      -0.00062772    
  0.53            0.00063949      -0.00063934    
  0.54            0.00065205      -0.00065182    
  0.55            0.00066402      -0.00066373    
  0.56            0.00067619      -0.00067583    
  0.57            0.00068847      -0.00068861    
  0.58            0.0007          -0.00070039    
  0.59            0.00071174      -0.00071188    
  0.6             0.00072437      -0.00072369    
  0.61            0.00073638      -0.00073659    
  0.62            0.00074794      -0.00074841    
  0.63            0.00075973      -0.00075987    
  0.64            0.00077168      -0.00077155    
  0.65            0.00078441      -0.0007841     
  0.66            0.00079696      -0.0007967     
  0.67            0.00080857      -0.00080825    
  0.68            0.00082067      -0.00082054    
  0.69            0.00083238      -0.00083324    
  0.7             0.00084404      -0.00084437    
  0.71            0.00085692      -0.00085656    
  0.72            0.00086997      -0.00086941    
  0.73            0.00088156      -0.00088159    
  0.74            0.00089303      -0.00089325    
  0.75            0.00090508      -0.0009052     
  0.76            0.00091704      -0.00091712    
  0.77            0.0009299       -0.00092908    
  0.78            0.00094203      -0.00094142    
  0.79            0.00095346      -0.00095305    
  0.8             0.00096634      -0.00096595    
  0.81            0.00097761      -0.0009778     
  0.82            0.00098855      -0.00098941    
  0.83            0.00100147      -0.00100161    
  0.84            0.00101332      -0.00101358    
  0.85            0.00102586      -0.00102505    
  0.86            0.00103892      -0.00103841    
  0.87            0.00105048      -0.00105062    
  0.88            0.00106272      -0.00106314    
  0.89            0.00107453      -0.00107449    
  0.9             0.00108761      -0.00108723    
  0.91            0.00109927      -0.00109888    
  0.92            0.00111112      -0.0011115     
  0.93            0.00112312      -0.00112399    
  0.94            0.0011358       -0.00113515    
  0.95            0.0011479       -0.0011475     
  0.96            0.0011611       -0.0011594     
  0.97            0.0011737       -0.0011727     
  0.98            0.0011852       -0.0011847     
  0.99            0.0011964       -0.0011967     
  1               0.0012088       -0.0012082     
END_DB

