! VERSION = 6.00
BEGIN_HEADER
 ICCAP_INPUTS
  VU1        V  E GROUND SMU2 0.1 CON        0
  VU2        V  S GROUND SMU3 0.1 CON        0
  V2         V  B GROUND SMU1 0.015 CON        0
  V1         V  C GROUND SMU4 0.015 LIN        1    -1         1          201  0.01      
 ICCAP_OUTPUTS
  I1         I  C GROUND SMU4 B
  I2         I  B GROUND SMU1 B
END_HEADER

BEGIN_DB
 ICCAP_VAR VU1        0              
 ICCAP_VAR VU2        0              
 ICCAP_VAR V2         0              

 #V1              I1              I2             
  -1              -0.00012714     0.00012723     
  -0.99           -0.00012611     0.00012601     
  -0.98           -0.00012483     0.00012493     
  -0.97           -0.0001234      0.00012364     
  -0.96           -0.00012199     0.00012218     
  -0.95           -0.00012076     0.00012104     
  -0.94           -0.00011944     0.00011954     
  -0.93           -0.00011827     0.00011826     
  -0.92           -0.00011719     0.00011715     
  -0.91           -0.00011591     0.00011602     
  -0.9            -0.00011445     0.0001147      
  -0.89           -0.00011308     0.00011324     
  -0.88           -0.00011186     0.00011187     
  -0.87           -0.00011077     0.00011071     
  -0.86           -0.00010956     0.00010962     
  -0.85           -0.00010815     0.00010836     
  -0.84           -0.00010673     0.00010692     
  -0.83           -0.00010547     0.00010552     
  -0.82           -0.00010437     0.00010433     
  -0.81           -0.00010319     0.00010323     
  -0.8            -0.00010184     0.00010201     
  -0.79           -0.00010039     0.00010063     
  -0.78           -9.9128e-005    9.9392e-005    
  -0.77           -9.7937e-005    9.7866e-005    
  -0.76           -9.6824e-005    9.6698e-005    
  -0.75           -9.5572e-005    9.5564e-005    
  -0.74           -9.4202e-005    9.4301e-005    
  -0.73           -9.2785e-005    9.2912e-005    
  -0.72           -9.1515e-005    9.152e-005     
  -0.71           -9.0345e-005    9.0254e-005    
  -0.7            -8.9195e-005    8.9105e-005    
  -0.69           -8.791e-005     8.7934e-005    
  -0.68           -8.652e-005     8.6639e-005    
  -0.67           -8.5148e-005    8.5227e-005    
  -0.66           -8.3903e-005    8.3887e-005    
  -0.65           -8.2754e-005    8.2645e-005    
  -0.64           -8.1556e-005    8.1503e-005    
  -0.63           -8.025e-005     8.0148e-005    
  -0.62           -7.9013e-005    7.9002e-005    
  -0.61           -7.7663e-005    7.7741e-005    
  -0.6            -7.6268e-005    7.6383e-005    
  -0.59           -7.4975e-005    7.4995e-005    
  -0.58           -7.3782e-005    7.3721e-005    
  -0.57           -7.2626e-005    7.2545e-005    
  -0.56           -7.135e-005     7.1357e-005    
  -0.55           -6.9992e-005    7.0076e-005    
  -0.54           -6.8626e-005    6.8703e-005    
  -0.53           -6.7366e-005    6.7369e-005    
  -0.52           -6.6175e-005    6.6109e-005    
  -0.51           -6.4979e-005    6.493e-005     
  -0.5            -6.3695e-005    6.3719e-005    
  -0.49           -6.234e-005     6.2432e-005    
  -0.48           -6.0999e-005    6.1058e-005    
  -0.47           -5.9748e-005    5.9844e-005    
  -0.46           -5.8451e-005    5.8479e-005    
  -0.45           -5.7236e-005    5.7198e-005    
  -0.44           -5.6051e-005    5.5982e-005    
  -0.43           -5.4795e-005    5.4792e-005    
  -0.42           -5.3457e-005    5.3514e-005    
  -0.41           -5.2112e-005    5.2187e-005    
  -0.4            -5.0836e-005    5.0844e-005    
  -0.39           -4.9617e-005    4.9576e-005    
  -0.38           -4.8408e-005    4.8365e-005    
  -0.37           -4.7139e-005    4.7156e-005    
  -0.36           -4.5802e-005    4.5868e-005    
  -0.35           -4.4474e-005    4.4517e-005    
  -0.34           -4.3211e-005    4.3205e-005    
  -0.33           -4.2004e-005    4.1948e-005    
  -0.32           -4.0775e-005    4.0752e-005    
  -0.31           -3.9481e-005    3.9437e-005    
  -0.3            -3.822e-005     3.8219e-005    
  -0.29           -3.6904e-005    3.6945e-005    
  -0.28           -3.5582e-005    3.5635e-005    
  -0.27           -3.4306e-005    3.4314e-005    
  -0.26           -3.307e-005     3.3044e-005    
  -0.25           -3.1841e-005    3.1813e-005    
  -0.24           -3.057e-005     3.0582e-005    
  -0.23           -2.9257e-005    2.9299e-005    
  -0.22           -2.7948e-005    2.7973e-005    
  -0.21           -2.6681e-005    2.6681e-005    
  -0.2            -2.5459e-005    2.5427e-005    
  -0.19           -2.42e-005      2.4193e-005    
  -0.18           -2.2915e-005    2.2894e-005    
  -0.17           -2.1646e-005    2.1649e-005    
  -0.16           -2.0361e-005    2.0382e-005    
  -0.15           -1.9055e-005    1.9085e-005    
  -0.14           -1.7777e-005    1.7789e-005    
  -0.13           -1.652e-005     1.6516e-005    
  -0.12           -1.528e-005     1.5269e-005    
  -0.11           -1.4001e-005    1.4012e-005    
  -0.1            -1.2713e-005    1.273e-005     
  -0.09           -1.1418e-005    1.1437e-005    
  -0.08           -1.0145e-005    1.0152e-005    
  -0.07           -8.8835e-006    8.9105e-006    
  -0.06           -7.6164e-006    7.6144e-006    
  -0.05           -6.353e-006     6.3483e-006    
  -0.04           -5.0752e-006    5.077e-006     
  -0.03           -3.8033e-006    3.8064e-006    
  -0.02           -2.5231e-006    2.5263e-006    
  -0.01           -1.2499e-006    1.2521e-006    
  0               1.3457e-008     -1.1279e-008   
  0.01            1.2877e-006     -1.2855e-006   
  0.02            2.5661e-006     -2.5577e-006   
  0.03            3.8343e-006     -3.8274e-006   
  0.04            5.1133e-006     -5.1015e-006   
  0.05            6.3909e-006     -6.3865e-006   
  0.06            7.656e-006      -7.6668e-006   
  0.07            8.9107e-006     -8.926e-006    
  0.08            1.01837e-005    -1.02027e-005  
  0.09            1.1467e-005     -1.1465e-005   
  0.1             1.2734e-005     -1.2732e-005   
  0.11            1.4005e-005     -1.3993e-005   
  0.12            1.5311e-005     -1.5274e-005   
  0.13            1.6591e-005     -1.6578e-005   
  0.14            1.7856e-005     -1.7865e-005   
  0.15            1.9099e-005     -1.9124e-005   
  0.16            2.0358e-005     -2.0357e-005   
  0.17            2.1653e-005     -2.1623e-005   
  0.18            2.2965e-005     -2.2922e-005   
  0.19            2.4248e-005     -2.4233e-005   
  0.2             2.5488e-005     -2.551e-005    
  0.21            2.6723e-005     -2.6753e-005   
  0.22            2.7994e-005     -2.7987e-005   
  0.23            2.9307e-005     -2.9262e-005   
  0.24            3.061e-005      -3.0566e-005   
  0.25            3.1882e-005     -3.1883e-005   
  0.26            3.3118e-005     -3.3153e-005   
  0.27            3.4356e-005     -3.4389e-005   
  0.28            3.5638e-005     -3.5623e-005   
  0.29            3.6949e-005     -3.6897e-005   
  0.3             3.8272e-005     -3.8222e-005   
  0.31            3.9537e-005     -3.9467e-005   
  0.32            4.0826e-005     -4.0808e-005   
  0.33            4.2051e-005     -4.2087e-005   
  0.34            4.3258e-005     -4.3319e-005   
  0.35            4.4527e-005     -4.4527e-005   
  0.36            4.5854e-005     -4.5796e-005   
  0.37            4.7184e-005     -4.7115e-005   
  0.38            4.8468e-005     -4.8457e-005   
  0.39            4.9684e-005     -4.9735e-005   
  0.4             5.0892e-005     -5.0943e-005   
  0.41            5.2162e-005     -5.2149e-005   
  0.42            5.3505e-005     -5.3431e-005   
  0.43            5.4845e-005     -5.4777e-005   
  0.44            5.6109e-005     -5.6118e-005   
  0.45            5.7309e-005     -5.7379e-005   
  0.46            5.8512e-005     -5.8558e-005   
  0.47            5.9805e-005     -5.9889e-005   
  0.48            6.1058e-005     -6.107e-005    
  0.49            6.2389e-005     -6.2326e-005   
  0.5             6.3758e-005     -6.366e-005    
  0.51            6.5053e-005     -6.5034e-005   
  0.52            6.6256e-005     -6.6319e-005   
  0.53            6.7434e-005     -6.7516e-005   
  0.54            6.8694e-005     -6.869e-005    
  0.55            7.0052e-005     -6.9966e-005   
  0.56            7.1423e-005     -7.1333e-005   
  0.57            7.2694e-005     -7.2694e-005   
  0.58            7.3877e-005     -7.3961e-005   
  0.59            7.5055e-005     -7.513e-005    
  0.6             7.6349e-005     -7.6327e-005   
  0.61            7.7731e-005     -7.7622e-005   
  0.62            7.909e-005      -7.9021e-005   
  0.63            8.0337e-005     -8.0212e-005   
  0.64            8.1637e-005     -8.161e-005    
  0.65            8.2839e-005     -8.2917e-005   
  0.66            8.3979e-005     -8.4096e-005   
  0.67            8.522e-005      -8.5232e-005   
  0.68            8.6596e-005     -8.6497e-005   
  0.69            8.7999e-005     -8.7876e-005   
  0.7             8.9291e-005     -8.9274e-005   
  0.71            9.045e-005      -9.0549e-005   
  0.72            9.1598e-005     -9.17e-005     
  0.73            9.2883e-005     -9.2864e-005   
  0.74            9.4285e-005     -9.416e-005    
  0.75            9.5668e-005     -9.5567e-005   
  0.76            9.6917e-005     -9.6941e-005   
  0.77            9.8058e-005     -9.8184e-005   
  0.78            9.9227e-005     -9.9299e-005   
  0.79            0.00010076      -0.000100678   
  0.8             0.00010207      -0.00010184    
  0.81            0.00010337      -0.00010328    
  0.82            0.00010448      -0.00010452    
  0.83            0.00010564      -0.00010564    
  0.84            0.00010693      -0.000107      
  0.85            0.00010816      -0.00010811    
  0.86            0.00010961      -0.00010938    
  0.87            0.00011102      -0.00011082    
  0.88            0.00011225      -0.00011221    
  0.89            0.00011336      -0.00011345    
  0.9             0.00011455      -0.00011451    
  0.91            0.00011591      -0.00011573    
  0.92            0.00011739      -0.00011716    
  0.93            0.00011867      -0.00011859    
  0.94            0.0001198       -0.00011987    
  0.95            0.00012092      -0.00012095    
  0.96            0.00012222      -0.00012232    
  0.97            0.00012345      -0.00012342    
  0.98            0.00012489      -0.00012467    
  0.99            0.00012635      -0.00012612    
  1               0.00012761      -0.00012755    
END_DB

