! VERSION = 6.00
BEGIN_HEADER
 ICCAP_INPUTS
  VU1        V  E GROUND SMU2 0.1 CON        0
  VU2        V  S GROUND SMU3 0.1 CON        0
  V2         V  B GROUND SMU1 0.015 CON        0
  V1         V  C GROUND SMU4 0.015 LIN        1    -0.5       0.5        201  0.005     
 ICCAP_OUTPUTS
  I1         I  C GROUND SMU4 B
  I2         I  B GROUND SMU1 B
END_HEADER

BEGIN_DB
 ICCAP_VAR VU1        0              
 ICCAP_VAR VU2        0              
 ICCAP_VAR V2         0              

 #V1              I1              I2             
  -0.5            -0.0010381      0.0010392      
  -0.495          -0.0010266      0.0010274      
  -0.49           -0.0010148      0.0010154      
  -0.485          -0.0010032      0.0010041      
  -0.48           -0.00099209     0.0009916      
  -0.475          -0.00098025     0.00098056     
  -0.47           -0.00096827     0.00096875     
  -0.465          -0.00095679     0.00095687     
  -0.46           -0.00094553     0.00094546     
  -0.455          -0.00093448     0.00093424     
  -0.45           -0.00092326     0.00092339     
  -0.445          -0.0009116      0.00091202     
  -0.44           -0.00090014     0.00090034     
  -0.435          -0.00088884     0.00088888     
  -0.43           -0.00087793     0.00087763     
  -0.425          -0.00086674     0.00086662     
  -0.42           -0.00085523     0.00085553     
  -0.415          -0.00084371     0.00084402     
  -0.41           -0.00083254     0.00083273     
  -0.405          -0.00082181     0.00082152     
  -0.4            -0.00081084     0.00081062     
  -0.395          -0.00079974     0.00079983     
  -0.39           -0.00078851     0.0007888      
  -0.385          -0.00077721     0.00077739     
  -0.38           -0.00076638     0.00076673     
  -0.375          -0.00075541     0.00075554     
  -0.37           -0.00074477     0.0007447      
  -0.365          -0.00073403     0.0007339      
  -0.36           -0.00072305     0.00072318     
  -0.355          -0.00071196     0.00071225     
  -0.35           -0.00070089     0.00070113     
  -0.345          -0.00069019     0.00069048     
  -0.34           -0.00067926     0.00067942     
  -0.335          -0.00066862     0.00066857     
  -0.33           -0.00065829     0.0006581      
  -0.325          -0.0006477      0.00064779     
  -0.32           -0.00063683     0.00063713     
  -0.315          -0.00062603     0.0006262      
  -0.31           -0.00061546     0.00061574     
  -0.305          -0.00060478     0.00060488     
  -0.3            -0.00059438     0.00059437     
  -0.295          -0.00058406     0.00058403     
  -0.29           -0.00057362     0.00057376     
  -0.285          -0.0005631      0.00056339     
  -0.28           -0.00055237     0.00055251     
  -0.275          -0.000542       0.00054233     
  -0.27           -0.00053154     0.00053169     
  -0.265          -0.00052145     0.00052145     
  -0.26           -0.00051119     0.00051107     
  -0.255          -0.00050088     0.00050098     
  -0.25           -0.00049036     0.00049065     
  -0.245          -0.00048009     0.00048022     
  -0.24           -0.00046993     0.00047019     
  -0.235          -0.00045951     0.00045974     
  -0.23           -0.00044942     0.0004494      
  -0.225          -0.00043942     0.00043933     
  -0.22           -0.00042932     0.00042935     
  -0.215          -0.00041895     0.00041921     
  -0.21           -0.00040866     0.0004088      
  -0.205          -0.00039865     0.00039888     
  -0.2            -0.00038867     0.00038879     
  -0.195          -0.00037871     0.00037867     
  -0.19           -0.00036877     0.00036877     
  -0.185          -0.00035873     0.00035886     
  -0.18           -0.00034873     0.00034889     
  -0.175          -0.00033854     0.00033867     
  -0.17           -0.00032862     0.00032879     
  -0.165          -0.00031861     0.00031872     
  -0.16           -0.00030897     0.00030901     
  -0.155          -0.0002991      0.00029912     
  -0.15           -0.00028923     0.0002894      
  -0.145          -0.00027922     0.00027943     
  -0.14           -0.00026933     0.00026943     
  -0.135          -0.00025953     0.00025964     
  -0.13           -0.00024965     0.00024974     
  -0.125          -0.00023994     0.00024        
  -0.12           -0.00023039     0.00023041     
  -0.115          -0.00022058     0.00022066     
  -0.11           -0.00021076     0.00021093     
  -0.105          -0.00020097     0.000201       
  -0.1            -0.00019127     0.00019139     
  -0.095          -0.00018154     0.00018162     
  -0.09           -0.00017186     0.00017197     
  -0.085          -0.00016223     0.00016227     
  -0.08           -0.00015254     0.00015267     
  -0.075          -0.00014302     0.00014316     
  -0.07           -0.00013332     0.00013339     
  -0.065          -0.00012369     0.00012382     
  -0.06           -0.00011406     0.00011415     
  -0.055          -0.00010449     0.00010459     
  -0.05           -9.4879e-005    9.4888e-005    
  -0.045          -8.5343e-005    8.5326e-005    
  -0.04           -7.5751e-005    7.5769e-005    
  -0.035          -6.6326e-005    6.6337e-005    
  -0.03           -5.6744e-005    5.6783e-005    
  -0.025          -4.7227e-005    4.7237e-005    
  -0.02           -3.7704e-005    3.7717e-005    
  -0.015          -2.8204e-005    2.8194e-005    
  -0.01           -1.8672e-005    1.8678e-005    
  -0.005          -9.171e-006     9.1732e-006    
  0               1.1029e-007     -1.15139e-007  
  0.005           9.7001e-006     -9.6691e-006   
  0.01            1.9189e-005     -1.912e-005    
  0.015           2.8632e-005     -2.8648e-005   
  0.02            3.8113e-005     -3.8115e-005   
  0.025           4.7392e-005     -4.7423e-005   
  0.03            5.687e-005      -5.6841e-005   
  0.035           6.6329e-005     -6.6292e-005   
  0.04            7.5817e-005     -7.576e-005    
  0.045           8.5244e-005     -8.5269e-005   
  0.05            9.4675e-005     -9.4697e-005   
  0.055           0.00010431      -0.00010409    
  0.06            0.00011377      -0.00011364    
  0.065           0.00012322      -0.0001231     
  0.07            0.00013247      -0.00013243    
  0.075           0.0001419       -0.00014188    
  0.08            0.00015135      -0.00015126    
  0.085           0.00016075      -0.00016071    
  0.09            0.00017034      -0.0001703     
  0.095           0.00017977      -0.00017975    
  0.1             0.00018919      -0.00018919    
  0.105           0.00019865      -0.00019853    
  0.11            0.00020804      -0.00020786    
  0.115           0.00021764      -0.00021748    
  0.12            0.00022712      -0.00022704    
  0.125           0.00023654      -0.00023656    
  0.13            0.00024601      -0.00024605    
  0.135           0.00025548      -0.00025537    
  0.14            0.00026509      -0.00026493    
  0.145           0.00027473      -0.0002747     
  0.15            0.00028419      -0.00028417    
  0.155           0.00029352      -0.00029353    
  0.16            0.00030307      -0.00030297    
  0.165           0.00031275      -0.00031251    
  0.17            0.00032257      -0.00032235    
  0.175           0.00033217      -0.00033208    
  0.18            0.00034167      -0.00034171    
  0.185           0.00035115      -0.00035125    
  0.19            0.00036084      -0.00036093    
  0.195           0.00037031      -0.00037032    
  0.2             0.00038017      -0.00037998    
  0.205           0.0003901       -0.00038982    
  0.21            0.00039987      -0.00039979    
  0.215           0.00040949      -0.00040953    
  0.22            0.00041911      -0.00041912    
  0.225           0.00042892      -0.00042908    
  0.23            0.00043875      -0.00043867    
  0.235           0.00044873      -0.0004485     
  0.24            0.00045857      -0.00045841    
  0.245           0.00046863      -0.00046848    
  0.25            0.00047841      -0.00047849    
  0.255           0.00048826      -0.00048822    
  0.26            0.00049817      -0.00049828    
  0.265           0.00050821      -0.00050819    
  0.27            0.00051839      -0.00051809    
  0.275           0.00052863      -0.00052843    
  0.28            0.00053878      -0.00053871    
  0.285           0.00054849      -0.00054856    
  0.29            0.00055859      -0.00055862    
  0.295           0.0005687       -0.00056887    
  0.3             0.00057885      -0.00057879    
  0.305           0.00058931      -0.00058892    
  0.31            0.0005998       -0.00059944    
  0.315           0.00061002      -0.00060997    
  0.32            0.00062017      -0.00062027    
  0.325           0.00063025      -0.00063028    
  0.33            0.0006408       -0.00064096    
  0.335           0.00065114      -0.0006511     
  0.34            0.0006618       -0.00066142    
  0.345           0.00067256      -0.00067221    
  0.35            0.000683        -0.00068286    
  0.355           0.00069329      -0.00069342    
  0.36            0.00070379      -0.0007039     
  0.365           0.00071421      -0.00071453    
  0.37            0.00072473      -0.00072461    
  0.375           0.00073551      -0.0007352     
  0.38            0.00074682      -0.00074641    
  0.385           0.00075757      -0.00075742    
  0.39            0.00076809      -0.00076819    
  0.395           0.00077862      -0.0007788     
  0.4             0.0007896       -0.00078987    
  0.405           0.00080043      -0.00080049    
  0.41            0.00081152      -0.00081114    
  0.415           0.0008227       -0.0008224     
  0.42            0.00083387      -0.00083382    
  0.425           0.00084451      -0.00084466    
  0.43            0.00085555      -0.00085571    
  0.435           0.00086663      -0.00086706    
  0.44            0.00087779      -0.00087758    
  0.445           0.00088925      -0.00088884    
  0.45            0.00090087      -0.00090048    
  0.455           0.00091195      -0.00091194    
  0.46            0.00092288      -0.00092323    
  0.465           0.00093407      -0.00093421    
  0.47            0.00094539      -0.00094574    
  0.475           0.00095682      -0.00095671    
  0.48            0.00096864      -0.00096834    
  0.485           0.00098051      -0.0009801     
  0.49            0.00099192      -0.00099176    
  0.495           0.0010033       -0.0010036     
  0.5             0.00101444      -0.00101476    
END_DB

