! VERSION = 6.00
BEGIN_HEADER
 ICCAP_INPUTS
  VU1        V  E GROUND SMU2 0.1 CON        0
  VU2        V  S GROUND SMU3 0.1 CON        0
  V2         V  B GROUND SMU1 0.015 CON        0
  V1         V  C GROUND SMU4 0.015 LIN        1    -1         1          201  0.01      
 ICCAP_OUTPUTS
  I1         I  C GROUND SMU4 B
  I2         I  B GROUND SMU1 B
END_HEADER

BEGIN_DB
 ICCAP_VAR VU1        0              
 ICCAP_VAR VU2        0              
 ICCAP_VAR V2         0              

 #V1              I1              I2             
  -1              -0.0012289      0.0012305      
  -0.99           -0.0012173      0.0012178      
  -0.98           -0.001205       0.0012061      
  -0.97           -0.0011919      0.0011935      
  -0.96           -0.0011791      0.0011803      
  -0.95           -0.0011671      0.0011677      
  -0.94           -0.0011555      0.0011557      
  -0.93           -0.0011431      0.001144       
  -0.92           -0.0011303      0.0011318      
  -0.91           -0.0011175      0.0011187      
  -0.9            -0.0011052      0.0011065      
  -0.89           -0.0010927      0.0010936      
  -0.88           -0.001081       0.0010812      
  -0.87           -0.0010691      0.0010696      
  -0.86           -0.0010567      0.0010568      
  -0.85           -0.0010445      0.0010452      
  -0.84           -0.0010316      0.0010328      
  -0.83           -0.0010185      0.0010198      
  -0.82           -0.0010066      0.0010073      
  -0.81           -0.00099439     0.00099556     
  -0.8            -0.00098248     0.00098216     
  -0.79           -0.00097067     0.00097044     
  -0.78           -0.00095828     0.00095784     
  -0.77           -0.00094608     0.00094609     
  -0.76           -0.00093327     0.00093373     
  -0.75           -0.00092041     0.00092087     
  -0.74           -0.00090819     0.00090817     
  -0.73           -0.00089645     0.00089603     
  -0.72           -0.00088435     0.00088427     
  -0.71           -0.00087172     0.00087207     
  -0.7            -0.00085893     0.00085944     
  -0.69           -0.00084649     0.00084662     
  -0.68           -0.00083463     0.0008343      
  -0.67           -0.00082268     0.0008225      
  -0.66           -0.00081031     0.00080993     
  -0.65           -0.00079805     0.0007981      
  -0.64           -0.00078532     0.00078575     
  -0.63           -0.00077261     0.00077294     
  -0.62           -0.00076045     0.00076096     
  -0.61           -0.00074798     0.00074813     
  -0.6            -0.00073601     0.00073581     
  -0.59           -0.00072407     0.00072386     
  -0.58           -0.00071171     0.00071186     
  -0.57           -0.00069902     0.00069951     
  -0.56           -0.0006865      0.00068675     
  -0.55           -0.00067435     0.00067425     
  -0.54           -0.00066252     0.00066225     
  -0.53           -0.00065028     0.00065036     
  -0.52           -0.00063767     0.00063803     
  -0.51           -0.00062501     0.00062527     
  -0.5            -0.00061275     0.00061319     
  -0.49           -0.00060048     0.0006006      
  -0.48           -0.00058847     0.00058832     
  -0.47           -0.00057647     0.00057636     
  -0.46           -0.00056408     0.00056382     
  -0.45           -0.00055197     0.00055199     
  -0.44           -0.00053941     0.00053965     
  -0.43           -0.0005268      0.0005271      
  -0.42           -0.00051451     0.00051452     
  -0.41           -0.00050263     0.00050242     
  -0.4            -0.00049048     0.00049048     
  -0.39           -0.00047803     0.00047826     
  -0.38           -0.00046542     0.00046578     
  -0.37           -0.00045319     0.00045329     
  -0.36           -0.00044109     0.000441       
  -0.35           -0.00042905     0.00042899     
  -0.34           -0.00041667     0.00041653     
  -0.33           -0.00040444     0.00040449     
  -0.32           -0.00039204     0.00039227     
  -0.31           -0.00037953     0.00037979     
  -0.3            -0.00036727     0.00036733     
  -0.29           -0.00035524     0.00035512     
  -0.28           -0.00034315     0.00034313     
  -0.27           -0.00033077     0.00033094     
  -0.26           -0.00031827     0.00031851     
  -0.25           -0.00030595     0.00030608     
  -0.24           -0.00029388     0.00029386     
  -0.23           -0.00028176     0.00028178     
  -0.22           -0.00026944     0.00026938     
  -0.21           -0.00025721     0.00025728     
  -0.2            -0.00024492     0.00024507     
  -0.19           -0.00023246     0.00023268     
  -0.18           -0.00022023     0.00022029     
  -0.17           -0.00020809     0.00020806     
  -0.16           -0.00019595     0.00019599     
  -0.15           -0.00018363     0.00018376     
  -0.14           -0.00017124     0.00017142     
  -0.13           -0.00015898     0.00015904     
  -0.12           -0.00014683     0.00014684     
  -0.11           -0.00013464     0.00013473     
  -0.1            -0.00012231     0.00012235     
  -0.09           -0.00011005     0.00011014     
  -0.08           -9.7751e-005    9.7698e-005    
  -0.07           -8.5532e-005    8.5578e-005    
  -0.06           -7.3265e-005    7.3271e-005    
  -0.05           -6.1018e-005    6.1023e-005    
  -0.04           -4.8777e-005    4.8766e-005    
  -0.03           -3.6582e-005    3.6609e-005    
  -0.02           -2.4325e-005    2.4321e-005    
  -0.01           -1.2042e-005    1.2035e-005    
  0               9.3983e-008     -9.7558e-008   
  0.01            1.2423e-005     -1.2377e-005   
  0.02            2.4657e-005     -2.4677e-005   
  0.03            3.682e-005      -3.685e-005    
  0.04            4.909e-005      -4.9084e-005   
  0.05            6.1333e-005     -6.133e-005    
  0.06            7.3658e-005     -7.3603e-005   
  0.07            8.5836e-005     -8.5769e-005   
  0.08            9.81e-005       -9.8097e-005   
  0.09            0.00011042      -0.000110376   
  0.1             0.00012271      -0.00012257    
  0.11            0.00013495      -0.00013482    
  0.12            0.00014723      -0.00014718    
  0.13            0.00015946      -0.00015943    
  0.14            0.00017163      -0.00017155    
  0.15            0.00018397      -0.00018383    
  0.16            0.00019627      -0.00019607    
  0.17            0.00020858      -0.00020847    
  0.18            0.00022074      -0.00022074    
  0.19            0.00023291      -0.00023297    
  0.2             0.00024512      -0.00024518    
  0.21            0.00025737      -0.0002573     
  0.22            0.00026977      -0.00026958    
  0.23            0.00028222      -0.00028202    
  0.24            0.00029439      -0.00029432    
  0.25            0.00030652      -0.00030659    
  0.26            0.00031868      -0.00031864    
  0.27            0.00033109      -0.00033088    
  0.28            0.00034361      -0.00034333    
  0.29            0.00035584      -0.00035572    
  0.3             0.00036792      -0.00036802    
  0.31            0.00038004      -0.00038015    
  0.32            0.00039234      -0.00039249    
  0.33            0.00040453      -0.00040447    
  0.34            0.00041701      -0.00041678    
  0.35            0.00042955      -0.00042925    
  0.36            0.0004418       -0.00044177    
  0.37            0.0004537       -0.00045389    
  0.38            0.00046593      -0.00046588    
  0.39            0.00047835      -0.00047812    
  0.4             0.00049097      -0.00049064    
  0.41            0.00050324      -0.00050312    
  0.42            0.00051524      -0.00051541    
  0.43            0.00052734      -0.00052749    
  0.44            0.00053968      -0.00053992    
  0.45            0.00055194      -0.0005519     
  0.46            0.00056447      -0.00056413    
  0.47            0.00057709      -0.00057672    
  0.48            0.00058933      -0.00058891    
  0.49            0.00060179      -0.00060165    
  0.5             0.00061374      -0.00061391    
  0.51            0.00062572      -0.00062591    
  0.52            0.00063807      -0.00063792    
  0.53            0.00065069      -0.00065034    
  0.54            0.00066325      -0.00066304    
  0.55            0.00067542      -0.00067552    
  0.56            0.00068728      -0.00068757    
  0.57            0.00069952      -0.00069949    
  0.58            0.0007122       -0.00071181    
  0.59            0.00072485      -0.00072444    
  0.6             0.00073714      -0.00073715    
  0.61            0.000749        -0.00074933    
  0.62            0.00076116      -0.00076116    
  0.63            0.00077368      -0.00077332    
  0.64            0.00078653      -0.00078605    
  0.65            0.00079892      -0.00079883    
  0.66            0.00081085      -0.00081113    
  0.67            0.00082273      -0.00082291    
  0.68            0.00083518      -0.00083553    
  0.69            0.00084743      -0.0008474     
  0.7             0.00086025      -0.00085979    
  0.71            0.00087303      -0.0008726     
  0.72            0.00088522      -0.00088466    
  0.73            0.00089771      -0.0008976     
  0.74            0.00090969      -0.00091       
  0.75            0.00092156      -0.00092188    
  0.76            0.00093393      -0.00093377    
  0.77            0.00094684      -0.00094626    
  0.78            0.00095953      -0.00095931    
  0.79            0.00097164      -0.00097185    
  0.8             0.00098326      -0.00098376    
  0.81            0.00099557      -0.00099558    
  0.82            0.00100847      -0.00100795    
  0.83            0.0010214       -0.00102086    
  0.84            0.00103361      -0.00103295    
  0.85            0.00104612      -0.00104593    
  0.86            0.00105795      -0.00105836    
  0.87            0.0010698       -0.00107019    
  0.88            0.00108219      -0.00108197    
  0.89            0.0010953       -0.00109459    
  0.9             0.00110807      -0.0011078     
  0.91            0.00112014      -0.00112039    
  0.92            0.0011321       -0.00113227    
  0.93            0.0011444       -0.0011437     
  0.94            0.0011574       -0.0011562     
  0.95            0.0011705       -0.0011691     
  0.96            0.0011828       -0.0011812     
  0.97            0.0011953       -0.0011941     
  0.98            0.0012069       -0.0012065     
  0.99            0.0012186       -0.0012183     
  1               0.0012313       -0.0012303     
END_DB

