! VERSION = 6.00
BEGIN_HEADER
 ICCAP_INPUTS
  VU1        V  E GROUND SMU2 0.1 CON        0
  VU2        V  S GROUND SMU3 0.1 CON        0
  V2         V  B GROUND SMU1 0.015 CON        0
  V1         V  C GROUND SMU4 0.015 LIN        1    -0.25      0.25       51   0.01      
 ICCAP_OUTPUTS
  I1         I  C GROUND SMU4 B
  I2         I  B GROUND SMU1 B
END_HEADER

BEGIN_DB
 ICCAP_VAR VU1        0              
 ICCAP_VAR VU2        0              
 ICCAP_VAR V2         0              

 #V1              I1              I2             
  -0.25           -0.00052218     0.00052217     
  -0.24           -0.00050064     0.00050057     
  -0.23           -0.00047885     0.00047873     
  -0.22           -0.00045722     0.00045724     
  -0.21           -0.00043554     0.00043564     
  -0.2            -0.00041411     0.00041428     
  -0.19           -0.00039283     0.00039284     
  -0.18           -0.00037181     0.00037165     
  -0.17           -0.00035072     0.00035063     
  -0.16           -0.00032968     0.00032982     
  -0.15           -0.0003086      0.00030876     
  -0.14           -0.00028763     0.0002877      
  -0.13           -0.0002669      0.00026691     
  -0.12           -0.00024633     0.00024645     
  -0.11           -0.00022557     0.00022557     
  -0.1            -0.00020493     0.00020497     
  -0.09           -0.00018426     0.00018433     
  -0.08           -0.00016353     0.00016365     
  -0.07           -0.0001431      0.00014316     
  -0.06           -0.00012271     0.00012264     
  -0.05           -0.00010211     0.00010207     
  -0.04           -8.1511e-005    8.1467e-005    
  -0.03           -6.1126e-005    6.1182e-005    
  -0.02           -4.0639e-005    4.0675e-005    
  -0.01           -2.0153e-005    2.0137e-005    
  0               1.14066e-007    -1.15734e-007  
  0.01            2.0717e-005     -2.0704e-005   
  0.02            4.1259e-005     -4.1269e-005   
  0.03            6.1589e-005     -6.1622e-005   
  0.04            8.213e-005      -8.2132e-005   
  0.05            0.00010294      -0.000102669   
  0.06            0.00012357      -0.00012353    
  0.07            0.00014402      -0.00014412    
  0.08            0.00016473      -0.00016475    
  0.09            0.00018548      -0.0001854     
  0.1             0.00020635      -0.00020619    
  0.11            0.00022715      -0.00022699    
  0.12            0.00024805      -0.00024802    
  0.13            0.00026897      -0.000269      
  0.14            0.00028985      -0.00028975    
  0.15            0.00031106      -0.00031095    
  0.16            0.00033225      -0.00033206    
  0.17            0.00035353      -0.00035339    
  0.18            0.00037474      -0.00037479    
  0.19            0.00039598      -0.0003961     
  0.2             0.00041734      -0.00041725    
  0.21            0.00043912      -0.00043884    
  0.22            0.00046096      -0.00046082    
  0.23            0.00048271      -0.00048273    
  0.24            0.00050417      -0.00050429    
  0.25            0.00052617      -0.00052614    
END_DB

