! VERSION = 6.00
BEGIN_HEADER
 ICCAP_INPUTS
  VU1        V  E GROUND SMU2 0.1 CON        0
  VU2        V  S GROUND SMU3 0.1 CON        0
  V2         V  B GROUND SMU1 0.015 CON        0
  V1         V  C GROUND SMU4 0.015 LIN        1    -1         1          201  0.01      
 ICCAP_OUTPUTS
  I1         I  C GROUND SMU4 B
  I2         I  B GROUND SMU1 B
END_HEADER

BEGIN_DB
 ICCAP_VAR VU1        0              
 ICCAP_VAR VU2        0              
 ICCAP_VAR V2         0              

 #V1              I1              I2             
  -1              -0.0004973      0.00049744     
  -0.99           -0.00049171     0.00049201     
  -0.98           -0.00048671     0.00048653     
  -0.97           -0.000482       0.00048159     
  -0.96           -0.0004769      0.00047691     
  -0.95           -0.00047119     0.00047169     
  -0.94           -0.00046542     0.00046589     
  -0.93           -0.00046024     0.00046022     
  -0.92           -0.00045558     0.00045514     
  -0.91           -0.00045064     0.00045054     
  -0.9            -0.00044515     0.00044547     
  -0.89           -0.00043932     0.0004399      
  -0.88           -0.00043402     0.00043414     
  -0.87           -0.00042922     0.00042896     
  -0.86           -0.00042445     0.00042429     
  -0.85           -0.00041915     0.00041871     
  -0.84           -0.00041408     0.0004141      
  -0.83           -0.0004085      0.00040887     
  -0.82           -0.00040289     0.00040329     
  -0.81           -0.00039775     0.00039775     
  -0.8            -0.00039301     0.00039273     
  -0.79           -0.00038808     0.00038804     
  -0.78           -0.00038274     0.00038307     
  -0.77           -0.00037713     0.0003776      
  -0.76           -0.0003719      0.00037204     
  -0.75           -0.00036712     0.00036685     
  -0.74           -0.00036233     0.00036223     
  -0.73           -0.00035715     0.00035684     
  -0.72           -0.00035213     0.00035218     
  -0.71           -0.00034676     0.00034712     
  -0.7            -0.0003413      0.00034165     
  -0.69           -0.00033627     0.0003363      
  -0.68           -0.00033159     0.00033132     
  -0.67           -0.00032674     0.00032669     
  -0.66           -0.00032154     0.00032175     
  -0.65           -0.00031604     0.00031648     
  -0.64           -0.00031095     0.00031104     
  -0.63           -0.00030616     0.00030601     
  -0.62           -0.00030147     0.00030134     
  -0.61           -0.00029638     0.00029613     
  -0.6            -0.00029143     0.00029143     
  -0.59           -0.00028619     0.00028647     
  -0.58           -0.00028086     0.00028118     
  -0.57           -0.00027591     0.00027595     
  -0.56           -0.0002712      0.00027099     
  -0.55           -0.00026636     0.00026633     
  -0.54           -0.00026132     0.00026149     
  -0.53           -0.00025603     0.00025639     
  -0.52           -0.00025098     0.0002511      
  -0.51           -0.00024625     0.00024616     
  -0.5            -0.00024155     0.00024147     
  -0.49           -0.00023661     0.00023675     
  -0.48           -0.00023139     0.00023175     
  -0.47           -0.00022632     0.00022648     
  -0.46           -0.0002215      0.00022145     
  -0.45           -0.00021688     0.00021676     
  -0.44           -0.00021203     0.00021208     
  -0.43           -0.00020692     0.00020718     
  -0.42           -0.00020181     0.00020202     
  -0.41           -0.00019701     0.0001973      
  -0.4            -0.00019209     0.00019217     
  -0.39           -0.00018738     0.00018733     
  -0.38           -0.00018269     0.00018267     
  -0.37           -0.0001778      0.00017795     
  -0.36           -0.00017276     0.000173       
  -0.35           -0.00016776     0.00016791     
  -0.34           -0.00016301     0.00016301     
  -0.33           -0.00015836     0.00015828     
  -0.32           -0.00015356     0.00015364     
  -0.31           -0.00014853     0.00014876     
  -0.3            -0.00014357     0.00014375     
  -0.29           -0.00013879     0.00013901     
  -0.28           -0.00013397     0.00013407     
  -0.27           -0.00012926     0.00012924     
  -0.26           -0.00012455     0.00012458     
  -0.25           -0.0001197      0.00011964     
  -0.24           -0.00011495     0.00011503     
  -0.23           -0.00011005     0.00011018     
  -0.22           -0.00010514     0.00010529     
  -0.21           -0.0001003      0.00010038     
  -0.2            -9.5644e-005    9.5715e-005    
  -0.19           -9.0921e-005    9.0875e-005    
  -0.18           -8.6109e-005    8.6139e-005    
  -0.17           -8.1208e-005    8.1309e-005    
  -0.16           -7.6399e-005    7.6441e-005    
  -0.15           -7.1642e-005    7.1714e-005    
  -0.14           -6.6821e-005    6.6846e-005    
  -0.13           -6.207e-005     6.2048e-005    
  -0.12           -5.7372e-005    5.7329e-005    
  -0.11           -5.2586e-005    5.2586e-005    
  -0.1            -4.7762e-005    4.7797e-005    
  -0.09           -4.2923e-005    4.2966e-005    
  -0.08           -3.8137e-005    3.8129e-005    
  -0.07           -3.34e-005      3.3391e-005    
  -0.06           -2.8643e-005    2.8628e-005    
  -0.05           -2.3846e-005    2.3861e-005    
  -0.04           -1.9038e-005    1.9061e-005    
  -0.03           -1.4275e-005    1.427e-005     
  -0.02           -9.4954e-006    9.4929e-006    
  -0.01           -4.7077e-006    4.7037e-006    
  0               4.6524e-008     -4.638e-008    
  0.01            4.8398e-006     -4.8301e-006   
  0.02            9.6227e-006     -9.6367e-006   
  0.03            1.4378e-005     -1.4397e-005   
  0.04            1.9176e-005     -1.9162e-005   
  0.05            2.3989e-005     -2.396e-005    
  0.06            2.8813e-005     -2.8763e-005   
  0.07            3.3572e-005     -3.3525e-005   
  0.08            3.8379e-005     -3.8368e-005   
  0.09            4.3154e-005     -4.3172e-005   
  0.1             4.791e-005      -4.7962e-005   
  0.11            5.2666e-005     -5.2657e-005   
  0.12            5.7505e-005     -5.7451e-005   
  0.13            6.2383e-005     -6.2316e-005   
  0.14            6.7211e-005     -6.7194e-005   
  0.15            7.196e-005      -7.2024e-005   
  0.16            7.666e-005      -7.6722e-005   
  0.17            8.1464e-005     -8.1463e-005   
  0.18            8.6366e-005     -8.6288e-005   
  0.19            9.1273e-005     -9.1195e-005   
  0.2             9.6058e-005     -9.6056e-005   
  0.21            0.00010086      -0.000100881   
  0.22            0.00010574      -0.00010556    
  0.23            0.00011066      -0.00011054    
  0.24            0.00011541      -0.00011538    
  0.25            0.00012009      -0.00012016    
  0.26            0.0001249       -0.00012484    
  0.27            0.00012992      -0.00012971    
  0.28            0.00013488      -0.00013468    
  0.29            0.00013965      -0.00013944    
  0.3             0.00014457      -0.00014445    
  0.31            0.00014933      -0.00014937    
  0.32            0.00015403      -0.0001541     
  0.33            0.0001589       -0.00015878    
  0.34            0.00016394      -0.00016369    
  0.35            0.00016895      -0.00016882    
  0.36            0.00017375      -0.00017375    
  0.37            0.00017841      -0.00017851    
  0.38            0.00018326      -0.0001832     
  0.39            0.00018833      -0.00018811    
  0.4             0.00019342      -0.00019317    
  0.41            0.00019827      -0.00019798    
  0.42            0.00020325      -0.00020312    
  0.43            0.00020799      -0.00020806    
  0.44            0.00021273      -0.00021279    
  0.45            0.00021769      -0.00021755    
  0.46            0.0002228       -0.00022254    
  0.47            0.00022792      -0.00022779    
  0.48            0.00023276      -0.0002328     
  0.49            0.00023742      -0.00023762    
  0.5             0.00024229      -0.00024224    
  0.51            0.00024751      -0.00024721    
  0.52            0.00025274      -0.00025248    
  0.53            0.00025767      -0.00025767    
  0.54            0.00026231      -0.00026252    
  0.55            0.00026714      -0.00026716    
  0.56            0.00027233      -0.00027206    
  0.57            0.00027767      -0.0002773     
  0.58            0.00028273      -0.00028261    
  0.59            0.00028745      -0.0002876     
  0.6             0.0002922       -0.00029232    
  0.61            0.00029725      -0.00029752    
  0.62            0.00030225      -0.00030219    
  0.63            0.0003076       -0.00030724    
  0.64            0.00031301      -0.00031261    
  0.65            0.00031797      -0.00031795    
  0.66            0.00032265      -0.00032292    
  0.67            0.00032749      -0.00032753    
  0.68            0.00033277      -0.0003325     
  0.69            0.00033829      -0.00033785    
  0.7             0.00034341      -0.00034327    
  0.71            0.00034819      -0.00034837    
  0.72            0.00035297      -0.0003531     
  0.73            0.00035813      -0.0003584     
  0.74            0.00036316      -0.00036308    
  0.75            0.00036867      -0.00036827    
  0.76            0.00037413      -0.00037373    
  0.77            0.00037916      -0.00037867    
  0.78            0.00038448      -0.00038429    
  0.79            0.00038926      -0.0003895     
  0.8             0.000394        -0.00039424    
  0.81            0.00039918      -0.00039901    
  0.82            0.0004049       -0.00040435    
  0.83            0.00041032      -0.00041009    
  0.84            0.00041532      -0.00041541    
  0.85            0.00041994      -0.00042033    
  0.86            0.00042504      -0.00042498    
  0.87            0.00043067      -0.00043028    
  0.88            0.00043627      -0.00043588    
  0.89            0.00044142      -0.00044147    
  0.9             0.00044605      -0.00044647    
  0.91            0.00045105      -0.00045109    
  0.92            0.00045661      -0.00045622    
  0.93            0.00046241      -0.00046183    
  0.94            0.00046769      -0.00046756    
  0.95            0.00047247      -0.0004728     
  0.96            0.00047728      -0.00047756    
  0.97            0.0004826       -0.00048299    
  0.98            0.00048774      -0.00048774    
  0.99            0.00049353      -0.00049306    
  1               0.00049937      -0.00049885    
END_DB

