! VERSION = 6.00
BEGIN_HEADER
 ICCAP_INPUTS
  VU1        V  E GROUND SMU2 0.1 CON        0
  VU2        V  S GROUND SMU3 0.1 CON        0
  V2         V  B GROUND SMU4 0.015 CON        0
  V1         V  C GROUND SMU1 0.015 LIN        1    -1         1          201  0.01      
 ICCAP_OUTPUTS
  I1         I  C GROUND SMU1 B
  I2         I  B GROUND SMU4 B
END_HEADER

BEGIN_DB
 ICCAP_VAR VU1        0              
 ICCAP_VAR VU2        0              
 ICCAP_VAR V2         0              

 #V1              I1              I2             
  -1              -0.0014599      0.0014616      
  -0.99           -0.0014461      0.0014469      
  -0.98           -0.0014315      0.0014316      
  -0.97           -0.0014156      0.0014167      
  -0.96           -0.001401       0.0014025      
  -0.95           -0.0013869      0.0013885      
  -0.94           -0.0013731      0.001374       
  -0.93           -0.0013585      0.0013589      
  -0.92           -0.0013433      0.0013436      
  -0.91           -0.0013288      0.0013292      
  -0.9            -0.0013137      0.0013146      
  -0.89           -0.0012991      0.0013006      
  -0.88           -0.0012851      0.0012865      
  -0.87           -0.0012703      0.0012717      
  -0.86           -0.0012564      0.0012573      
  -0.85           -0.0012416      0.0012422      
  -0.84           -0.0012266      0.0012272      
  -0.83           -0.0012115      0.0012124      
  -0.82           -0.0011971      0.0011986      
  -0.81           -0.0011831      0.0011843      
  -0.8            -0.0011687      0.0011694      
  -0.79           -0.0011538      0.001154       
  -0.78           -0.0011385      0.0011393      
  -0.77           -0.0011237      0.0011253      
  -0.76           -0.0011097      0.0011113      
  -0.75           -0.0010949      0.0010965      
  -0.74           -0.0010809      0.001082       
  -0.73           -0.0010667      0.001067       
  -0.72           -0.0010511      0.0010518      
  -0.71           -0.0010364      0.0010374      
  -0.7            -0.001022       0.001023       
  -0.69           -0.0010078      0.001009       
  -0.68           -0.00099308     0.00099395     
  -0.67           -0.00097923     0.00097928     
  -0.66           -0.00096447     0.00096414     
  -0.65           -0.00094935     0.00094936     
  -0.64           -0.00093461     0.00093488     
  -0.63           -0.00092022     0.00092078     
  -0.62           -0.00090613     0.00090635     
  -0.61           -0.00089155     0.00089131     
  -0.6            -0.00087649     0.00087629     
  -0.59           -0.00086168     0.00086185     
  -0.58           -0.00084714     0.00084752     
  -0.57           -0.00083303     0.00083324     
  -0.56           -0.0008186      0.00081853     
  -0.55           -0.00080372     0.00080338     
  -0.54           -0.00078869     0.00078872     
  -0.53           -0.00077415     0.00077452     
  -0.52           -0.00075982     0.00076021     
  -0.51           -0.00074549     0.00074553     
  -0.5            -0.00073085     0.00073063     
  -0.49           -0.00071581     0.00071583     
  -0.48           -0.00070107     0.00070133     
  -0.47           -0.00068676     0.0006872      
  -0.46           -0.00067247     0.00067265     
  -0.45           -0.00065796     0.00065779     
  -0.44           -0.00064307     0.00064289     
  -0.43           -0.00062853     0.00062832     
  -0.42           -0.00061365     0.00061373     
  -0.41           -0.00059899     0.00059931     
  -0.4            -0.0005846      0.00058495     
  -0.39           -0.00057033     0.00057038     
  -0.38           -0.00055562     0.00055549     
  -0.37           -0.00054062     0.00054067     
  -0.36           -0.00052605     0.00052626     
  -0.35           -0.00051157     0.0005119      
  -0.34           -0.00049718     0.00049734     
  -0.33           -0.00048267     0.00048257     
  -0.32           -0.00046783     0.00046771     
  -0.31           -0.00045326     0.00045315     
  -0.3            -0.00043848     0.00043855     
  -0.29           -0.00042381     0.00042405     
  -0.28           -0.00040933     0.00040959     
  -0.27           -0.00039494     0.00039504     
  -0.26           -0.00038026     0.00038028     
  -0.25           -0.00036538     0.00036543     
  -0.24           -0.00035082     0.00035095     
  -0.23           -0.00033624     0.00033653     
  -0.22           -0.00032176     0.00032191     
  -0.21           -0.00030727     0.00030725     
  -0.2            -0.00029244     0.00029245     
  -0.19           -0.00027769     0.00027782     
  -0.18           -0.00026319     0.00026339     
  -0.17           -0.0002487      0.00024884     
  -0.16           -0.00023418     0.00023426     
  -0.15           -0.00021945     0.00021944     
  -0.14           -0.0002047      0.00020478     
  -0.13           -0.00019017     0.00019034     
  -0.12           -0.00017552     0.00017576     
  -0.11           -0.00016094     0.00016111     
  -0.1            -0.00014646     0.00014659     
  -0.09           -0.00013182     0.00013187     
  -0.08           -0.0001171      0.00011715     
  -0.07           -0.00010249     0.00010264     
  -0.06           -8.7891e-005    8.7866e-005    
  -0.05           -7.3181e-005    7.3261e-005    
  -0.04           -5.8727e-005    5.875e-005     
  -0.03           -4.4096e-005    4.412e-005     
  -0.02           -2.9458e-005    2.9427e-005    
  -0.01           -1.4894e-005    1.4872e-005    
  0               -1.2958e-007    1.4061e-007    
  0.01            1.4394e-005     -1.4381e-005   
  0.02            2.8922e-005     -2.8936e-005   
  0.03            4.3589e-005     -4.3566e-005   
  0.04            5.8206e-005     -5.8185e-005   
  0.05            7.2699e-005     -7.2687e-005   
  0.06            8.7331e-005     -8.7332e-005   
  0.07            0.000101999     -0.000102021   
  0.08            0.00011663      -0.00011648    
  0.09            0.00013124      -0.00013115    
  0.1             0.00014594      -0.00014587    
  0.11            0.00016053      -0.00016041    
  0.12            0.00017515      -0.00017492    
  0.13            0.00018975      -0.00018954    
  0.14            0.00020417      -0.00020411    
  0.15            0.0002189       -0.00021889    
  0.16            0.00023364      -0.00023353    
  0.17            0.00024816      -0.00024798    
  0.18            0.00026267      -0.00026253    
  0.19            0.00027725      -0.00027718    
  0.2             0.00029184      -0.00029184    
  0.21            0.00030664      -0.00030658    
  0.22            0.00032136      -0.00032114    
  0.23            0.00033576      -0.0003355     
  0.24            0.00035023      -0.00035013    
  0.25            0.00036488      -0.00036491    
  0.26            0.00037969      -0.00037961    
  0.27            0.00039414      -0.0003942     
  0.28            0.00040898      -0.00040891    
  0.29            0.00042361      -0.00042341    
  0.3             0.00043794      -0.00043775    
  0.31            0.00045246      -0.00045238    
  0.32            0.00046717      -0.00046727    
  0.33            0.00048198      -0.00048196    
  0.34            0.00049672      -0.0004965     
  0.35            0.00051118      -0.00051088    
  0.36            0.00052549      -0.00052537    
  0.37            0.00054015      -0.00054024    
  0.38            0.00055513      -0.0005551     
  0.39            0.00056943      -0.0005696     
  0.4             0.00058438      -0.0005843     
  0.41            0.00059903      -0.00059875    
  0.42            0.00061327      -0.000613      
  0.43            0.00062774      -0.00062768    
  0.44            0.00064248      -0.00064266    
  0.45            0.00065739      -0.00065739    
  0.46            0.00067215      -0.00067185    
  0.47            0.00068654      -0.00068614    
  0.48            0.0007007       -0.00070063    
  0.49            0.00071539      -0.00071556    
  0.5             0.00073046      -0.00073053    
  0.51            0.00074475      -0.00074498    
  0.52            0.00075979      -0.00075971    
  0.53            0.00077444      -0.00077405    
  0.54            0.0007887       -0.00078838    
  0.55            0.00080297      -0.00080295    
  0.56            0.00081772      -0.00081799    
  0.57            0.00083282      -0.00083289    
  0.58            0.00084754      -0.00084724    
  0.59            0.00086187      -0.00086139    
  0.6             0.0008761       -0.000876      
  0.61            0.00089065      -0.00089087    
  0.62            0.00090576      -0.00090588    
  0.63            0.0009201       -0.00092043    
  0.64            0.0009351       -0.00093508    
  0.65            0.00094975      -0.00094936    
  0.66            0.00096395      -0.00096355    
  0.67            0.00097811      -0.00097811    
  0.68            0.0009929       -0.00099324    
  0.69            0.00100806      -0.00100818    
  0.7             0.00102281      -0.00102244    
  0.71            0.00103706      -0.00103651    
  0.72            0.00105117      -0.00105106    
  0.73            0.0010657       -0.001066      
  0.74            0.00108092      -0.00108107    
  0.75            0.00109517      -0.00109559    
  0.76            0.00111026      -0.00111026    
  0.77            0.00112496      -0.0011245     
  0.78            0.00113905      -0.00113858    
  0.79            0.0011542       -0.0011528     
  0.8             0.0011684       -0.0011674     
  0.81            0.001183        -0.0011822     
  0.82            0.0011978       -0.0011971     
  0.83            0.0012129       -0.0012119     
  0.84            0.0012274       -0.001226      
  0.85            0.0012414       -0.0012401     
  0.86            0.0012563       -0.0012548     
  0.87            0.0012703       -0.0012695     
  0.88            0.0012848       -0.0012845     
  0.89            0.0013001       -0.0012996     
  0.9             0.0013144       -0.0013141     
  0.91            0.0013296       -0.0013287     
  0.92            0.0013442       -0.0013431     
  0.93            0.0013582       -0.0013568     
  0.94            0.0013731       -0.0013714     
  0.95            0.0013871       -0.001386      
  0.96            0.0014016       -0.001401      
  0.97            0.0014166       -0.0014163     
  0.98            0.001432        -0.0014308     
  0.99            0.0014463       -0.0014447     
  1               0.0014601       -0.0014588     
END_DB

