! VERSION = 6.00
BEGIN_HEADER
 ICCAP_INPUTS
  VU1        V  E GROUND SMU2 0.1 CON        0
  VU2        V  S GROUND SMU3 0.1 CON        0
  V2         V  B GROUND SMU1 0.015 CON        0
  V1         V  C GROUND SMU4 0.015 LIN        1    -1         1          201  0.01      
 ICCAP_OUTPUTS
  I1         I  C GROUND SMU4 B
  I2         I  B GROUND SMU1 B
END_HEADER

BEGIN_DB
 ICCAP_VAR VU1        0              
 ICCAP_VAR VU2        0              
 ICCAP_VAR V2         0              

 #V1              I1              I2             
  -1              -0.0021656      0.0021654      
  -0.99           -0.0021446      0.0021455      
  -0.98           -0.0021221      0.0021232      
  -0.97           -0.0021001      0.002101       
  -0.96           -0.002079       0.0020791      
  -0.95           -0.0020579      0.0020579      
  -0.94           -0.0020369      0.0020371      
  -0.93           -0.0020139      0.0020149      
  -0.92           -0.0019916      0.0019926      
  -0.91           -0.00197        0.001972       
  -0.9            -0.0019483      0.0019491      
  -0.89           -0.0019272      0.0019273      
  -0.88           -0.0019056      0.0019054      
  -0.87           -0.0018837      0.0018846      
  -0.86           -0.0018618      0.0018632      
  -0.85           -0.0018392      0.0018402      
  -0.84           -0.0018178      0.0018179      
  -0.83           -0.0017965      0.0017969      
  -0.82           -0.0017755      0.0017764      
  -0.81           -0.0017531      0.0017546      
  -0.8            -0.0017305      0.0017315      
  -0.79           -0.0017088      0.0017103      
  -0.78           -0.0016875      0.001688       
  -0.77           -0.001666       0.0016666      
  -0.76           -0.0016451      0.0016453      
  -0.75           -0.0016234      0.001624       
  -0.74           -0.0016007      0.0016025      
  -0.73           -0.001579       0.0015797      
  -0.72           -0.0015577      0.0015578      
  -0.71           -0.0015363      0.0015364      
  -0.7            -0.0015154      0.0015158      
  -0.69           -0.0014927      0.0014939      
  -0.68           -0.0014702      0.0014713      
  -0.67           -0.0014487      0.0014497      
  -0.66           -0.0014269      0.0014275      
  -0.65           -0.0014054      0.0014057      
  -0.64           -0.0013843      0.0013844      
  -0.63           -0.0013622      0.0013624      
  -0.62           -0.001341       0.0013414      
  -0.61           -0.0013188      0.0013198      
  -0.6            -0.0012964      0.0012976      
  -0.59           -0.0012753      0.0012756      
  -0.58           -0.0012541      0.0012541      
  -0.57           -0.0012328      0.0012331      
  -0.56           -0.0012106      0.0012117      
  -0.55           -0.0011884      0.0011894      
  -0.54           -0.0011667      0.0011673      
  -0.53           -0.0011456      0.0011457      
  -0.52           -0.0011242      0.0011246      
  -0.51           -0.0011023      0.0011027      
  -0.5            -0.001081       0.0010814      
  -0.49           -0.001059       0.0010599      
  -0.48           -0.0010367      0.0010381      
  -0.47           -0.001015       0.0010156      
  -0.46           -0.00099379     0.00099461     
  -0.45           -0.00097217     0.00097229     
  -0.44           -0.00095102     0.00095084     
  -0.43           -0.0009294      0.0009296      
  -0.42           -0.00090742     0.00090786     
  -0.41           -0.00088557     0.00088569     
  -0.4            -0.00086403     0.0008639      
  -0.39           -0.00084276     0.00084258     
  -0.38           -0.00082111     0.00082127     
  -0.37           -0.00079933     0.00079971     
  -0.36           -0.00077764     0.00077786     
  -0.35           -0.00075598     0.0007563      
  -0.34           -0.00073409     0.00073426     
  -0.33           -0.00071284     0.00071269     
  -0.32           -0.00069142     0.00069144     
  -0.31           -0.00066976     0.00066952     
  -0.3            -0.00064822     0.00064818     
  -0.29           -0.0006262      0.00062641     
  -0.28           -0.00060451     0.00060471     
  -0.27           -0.00058278     0.00058275     
  -0.26           -0.00056151     0.00056118     
  -0.25           -0.00053977     0.00053974     
  -0.24           -0.00051823     0.00051843     
  -0.23           -0.00049639     0.00049656     
  -0.22           -0.00047469     0.00047469     
  -0.21           -0.00045322     0.00045317     
  -0.2            -0.00043184     0.00043179     
  -0.19           -0.00041016     0.00041013     
  -0.18           -0.00038854     0.00038857     
  -0.17           -0.00036683     0.00036697     
  -0.16           -0.00034519     0.00034535     
  -0.15           -0.00032356     0.00032359     
  -0.14           -0.00030208     0.00030192     
  -0.13           -0.00028052     0.00028036     
  -0.12           -0.00025894     0.00025907     
  -0.11           -0.00023722     0.00023729     
  -0.1            -0.00021555     0.00021559     
  -0.09           -0.00019398     0.00019397     
  -0.08           -0.00017243     0.00017253     
  -0.07           -0.00015094     0.00015103     
  -0.06           -0.00012927     0.00012937     
  -0.05           -0.00010754     0.00010768     
  -0.04           -8.5896e-005    8.5965e-005    
  -0.03           -6.4469e-005    6.447e-005     
  -0.02           -4.2902e-005    4.2863e-005    
  -0.01           -2.1263e-005    2.1277e-005    
  0               1.12797e-007    -1.14888e-007  
  0.01            2.18e-005       -2.1834e-005   
  0.02            4.3403e-005     -4.3379e-005   
  0.03            6.4886e-005     -6.4844e-005   
  0.04            8.6507e-005     -8.6474e-005   
  0.05            0.00010821      -0.000108091   
  0.06            0.00012982      -0.00012975    
  0.07            0.00015135      -0.00015127    
  0.08            0.00017297      -0.00017284    
  0.09            0.00019458      -0.00019452    
  0.1             0.00021615      -0.00021616    
  0.11            0.00023754      -0.00023759    
  0.12            0.00025915      -0.00025921    
  0.13            0.00028074      -0.00028075    
  0.14            0.00030253      -0.00030238    
  0.15            0.0003242       -0.00032403    
  0.16            0.00034571      -0.00034553    
  0.17            0.00036743      -0.00036728    
  0.18            0.00038883      -0.00038897    
  0.19            0.00041031      -0.00041042    
  0.2             0.00043193      -0.00043174    
  0.21            0.00045353      -0.00045355    
  0.22            0.00047549      -0.00047543    
  0.23            0.00049697      -0.00049703    
  0.24            0.00051825      -0.00051834    
  0.25            0.00053975      -0.00053978    
  0.26            0.00056177      -0.00056148    
  0.27            0.00058358      -0.00058316    
  0.28            0.00060515      -0.00060487    
  0.29            0.00062661      -0.0006265     
  0.3             0.00064824      -0.00064824    
  0.31            0.0006694       -0.00066951    
  0.32            0.0006912       -0.00069117    
  0.33            0.00071322      -0.00071257    
  0.34            0.0007349       -0.00073474    
  0.35            0.00075629      -0.00075643    
  0.36            0.00077746      -0.0007776     
  0.37            0.00079896      -0.00079912    
  0.38            0.00082091      -0.00082064    
  0.39            0.00084293      -0.00084247    
  0.4             0.00086446      -0.00086461    
  0.41            0.00088553      -0.000886      
  0.42            0.00090721      -0.00090712    
  0.43            0.00092908      -0.00092874    
  0.44            0.00095103      -0.00095053    
  0.45            0.0009729       -0.00097278    
  0.46            0.00099395      -0.00099426    
  0.47            0.00101523      -0.00101543    
  0.48            0.00103722      -0.00103766    
  0.49            0.00105858      -0.00105892    
  0.5             0.00108101      -0.00108056    
  0.51            0.00110275      -0.00110222    
  0.52            0.00112427      -0.00112382    
  0.53            0.0011463       -0.0011454     
  0.54            0.0011683       -0.0011676     
  0.55            0.0011894       -0.0011893     
  0.56            0.0012108       -0.0012104     
  0.57            0.0012321       -0.0012315     
  0.58            0.0012542       -0.0012535     
  0.59            0.0012766       -0.0012752     
  0.6             0.0012982       -0.001298      
  0.61            0.0013191       -0.0013193     
  0.62            0.0013407       -0.0013403     
  0.63            0.0013627       -0.0013615     
  0.64            0.0013847       -0.0013836     
  0.65            0.0014068       -0.0014058     
  0.66            0.001428        -0.0014276     
  0.67            0.0014488       -0.0014486     
  0.68            0.0014703       -0.0014707     
  0.69            0.0014922       -0.0014915     
  0.7             0.001514        -0.0015131     
  0.71            0.0015359       -0.0015351     
  0.72            0.001557        -0.0015569     
  0.73            0.001578        -0.0015781     
  0.74            0.001599        -0.001599      
  0.75            0.0016217       -0.0016203     
  0.76            0.0016431       -0.0016419     
  0.77            0.0016645       -0.0016634     
  0.78            0.0016854       -0.0016855     
  0.79            0.0017067       -0.0017067     
  0.8             0.0017281       -0.0017278     
  0.81            0.0017498       -0.0017489     
  0.82            0.0017712       -0.0017702     
  0.83            0.0017939       -0.001793      
  0.84            0.0018152       -0.0018152     
  0.85            0.001837        -0.0018364     
  0.86            0.0018577       -0.0018568     
  0.87            0.00188         -0.0018783     
  0.88            0.0019018       -0.0019012     
  0.89            0.0019252       -0.0019244     
  0.9             0.0019444       -0.0019446     
  0.91            0.0019663       -0.0019662     
  0.92            0.0019875       -0.0019877     
  0.93            0.0020091       -0.0020084     
  0.94            0.0020311       -0.0020303     
  0.95            0.0020548       -0.0020534     
  0.96            0.0020762       -0.0020759     
  0.97            0.0020967       -0.0020969     
  0.98            0.002117        -0.0021167     
  0.99            0.0021402       -0.0021391     
  1               0.002163        -0.0021609     
END_DB

