! VERSION = 6.00
BEGIN_HEADER
 ICCAP_INPUTS
  VU1        V  E GROUND SMU2 0.1 CON        0
  VU2        V  S GROUND SMU3 0.1 CON        0
  V2         V  B GROUND SMU4 0.015 CON        0
  V1         V  C GROUND SMU1 0.015 LIN        1    -1         1          201  0.01      
 ICCAP_OUTPUTS
  I1         I  C GROUND SMU1 B
  I2         I  B GROUND SMU4 B
END_HEADER

BEGIN_DB
 ICCAP_VAR VU1        0              
 ICCAP_VAR VU2        0              
 ICCAP_VAR V2         0              

 #V1              I1              I2             
  -1              -0.0012929      0.0012926      
  -0.99           -0.0012787      0.0012802      
  -0.98           -0.0012669      0.0012678      
  -0.97           -0.0012544      0.0012552      
  -0.96           -0.0012412      0.0012416      
  -0.95           -0.0012278      0.0012282      
  -0.94           -0.0012152      0.0012156      
  -0.93           -0.0012018      0.0012024      
  -0.92           -0.0011888      0.0011898      
  -0.91           -0.0011761      0.0011775      
  -0.9            -0.0011631      0.0011644      
  -0.89           -0.0011506      0.0011518      
  -0.88           -0.001138       0.0011385      
  -0.87           -0.0011246      0.0011253      
  -0.86           -0.0011111      0.001112       
  -0.85           -0.0010984      0.0010995      
  -0.84           -0.0010859      0.001087       
  -0.83           -0.0010731      0.0010739      
  -0.82           -0.0010598      0.0010605      
  -0.81           -0.0010465      0.0010476      
  -0.8            -0.0010335      0.0010349      
  -0.79           -0.001021       0.0010223      
  -0.78           -0.0010078      0.0010092      
  -0.77           -0.00099563     0.0009959      
  -0.76           -0.00098314     0.00098336     
  -0.75           -0.00097026     0.00097008     
  -0.74           -0.00095718     0.00095688     
  -0.73           -0.00094382     0.00094377     
  -0.72           -0.00093072     0.00093124     
  -0.71           -0.00091825     0.00091864     
  -0.7            -0.00090528     0.00090581     
  -0.69           -0.00089272     0.00089285     
  -0.68           -0.00087988     0.00087967     
  -0.67           -0.00086658     0.00086636     
  -0.66           -0.00085332     0.00085356     
  -0.65           -0.00084055     0.00084099     
  -0.64           -0.00082814     0.00082833     
  -0.63           -0.00081512     0.00081506     
  -0.62           -0.00080204     0.00080174     
  -0.61           -0.0007887      0.00078892     
  -0.6            -0.00077574     0.0007762      
  -0.59           -0.00076324     0.00076362     
  -0.58           -0.00075014     0.00075072     
  -0.57           -0.00073746     0.00073767     
  -0.56           -0.00072468     0.00072442     
  -0.55           -0.0007113      0.00071118     
  -0.54           -0.00069826     0.00069839     
  -0.53           -0.00068545     0.00068578     
  -0.52           -0.00067288     0.00067311     
  -0.51           -0.00065996     0.00065998     
  -0.5            -0.0006469      0.00064675     
  -0.49           -0.00063368     0.00063369     
  -0.48           -0.0006207      0.0006211      
  -0.47           -0.00060818     0.00060838     
  -0.46           -0.00059509     0.00059549     
  -0.45           -0.00058254     0.00058266     
  -0.44           -0.00056952     0.00056945     
  -0.43           -0.00055637     0.00055634     
  -0.42           -0.00054334     0.00054351     
  -0.41           -0.00053046     0.00053081     
  -0.4            -0.00051786     0.00051799     
  -0.39           -0.00050493     0.00050492     
  -0.38           -0.00049186     0.00049181     
  -0.37           -0.00047852     0.00047859     
  -0.36           -0.00046576     0.00046596     
  -0.35           -0.00045298     0.00045332     
  -0.34           -0.00044021     0.00044025     
  -0.33           -0.00042728     0.00042721     
  -0.32           -0.00041407     0.0004141      
  -0.31           -0.00040105     0.00040122     
  -0.3            -0.00038829     0.0003886      
  -0.29           -0.00037544     0.00037557     
  -0.28           -0.00036253     0.00036246     
  -0.27           -0.00034955     0.00034951     
  -0.26           -0.00033652     0.00033647     
  -0.25           -0.00032349     0.00032355     
  -0.24           -0.00031058     0.00031078     
  -0.23           -0.00029771     0.00029791     
  -0.22           -0.0002848      0.00028489     
  -0.21           -0.00027192     0.00027194     
  -0.2            -0.00025877     0.00025886     
  -0.19           -0.00024574     0.00024596     
  -0.18           -0.00023301     0.00023324     
  -0.17           -0.00022013     0.00022025     
  -0.16           -0.00020723     0.00020728     
  -0.15           -0.00019424     0.00019429     
  -0.14           -0.0001813      0.00018129     
  -0.13           -0.00016829     0.00016842     
  -0.12           -0.00015536     0.00015551     
  -0.11           -0.00014245     0.00014262     
  -0.1            -0.00012962     0.00012973     
  -0.09           -0.00011664     0.00011672     
  -0.08           -0.00010361     0.00010372     
  -0.07           -9.0781e-005    9.0725e-005    
  -0.06           -7.7776e-005    7.7843e-005    
  -0.05           -6.4864e-005    6.4875e-005    
  -0.04           -5.1996e-005    5.1999e-005    
  -0.03           -3.9025e-005    3.9009e-005    
  -0.02           -2.6037e-005    2.6063e-005    
  -0.01           -1.3179e-005    1.3197e-005    
  0               -1.2898e-007    1.3609e-007    
  0.01            1.2768e-005     -1.2722e-005   
  0.02            2.5603e-005     -2.5598e-005   
  0.03            3.854e-005      -3.853e-005    
  0.04            5.1491e-005     -5.1484e-005   
  0.05            6.4364e-005     -6.4368e-005   
  0.06            7.7333e-005     -7.7308e-005   
  0.07            9.029e-005      -9.0273e-005   
  0.08            0.000103117     -0.000103093   
  0.09            0.00011616      -0.00011611    
  0.1             0.00012917      -0.00012899    
  0.11            0.00014202      -0.00014185    
  0.12            0.00015498      -0.00015484    
  0.13            0.0001679       -0.0001678     
  0.14            0.00018073      -0.0001807     
  0.15            0.00019381      -0.00019371    
  0.16            0.00020667      -0.00020663    
  0.17            0.00021965      -0.00021953    
  0.18            0.00023261      -0.00023243    
  0.19            0.00024541      -0.0002453     
  0.2             0.00025842      -0.0002582     
  0.21            0.00027122      -0.00027114    
  0.22            0.00028425      -0.00028419    
  0.23            0.00029718      -0.00029717    
  0.24            0.00031026      -0.0003101     
  0.25            0.0003231       -0.00032292    
  0.26            0.00033586      -0.00033567    
  0.27            0.00034873      -0.00034873    
  0.28            0.00036189      -0.00036189    
  0.29            0.00037496      -0.00037485    
  0.3             0.00038778      -0.00038757    
  0.31            0.00040051      -0.00040044    
  0.32            0.00041371      -0.0004134     
  0.33            0.00042634      -0.00042624    
  0.34            0.00043916      -0.00043926    
  0.35            0.00045238      -0.00045237    
  0.36            0.00046515      -0.00046527    
  0.37            0.0004785       -0.00047842    
  0.38            0.00049134      -0.00049116    
  0.39            0.00050414      -0.00050381    
  0.4             0.00051688      -0.00051679    
  0.41            0.00052991      -0.00053002    
  0.42            0.00054294      -0.00054292    
  0.43            0.00055617      -0.00055592    
  0.44            0.00056899      -0.00056864    
  0.45            0.0005815       -0.00058136    
  0.46            0.00059448      -0.00059449    
  0.47            0.00060781      -0.00060791    
  0.48            0.00062064      -0.00062043    
  0.49            0.00063358      -0.00063328    
  0.5             0.00064631      -0.00064602    
  0.51            0.00065899      -0.00065906    
  0.52            0.000672        -0.00067228    
  0.53            0.00068534      -0.0006852     
  0.54            0.0006982       -0.00069792    
  0.55            0.00071093      -0.00071065    
  0.56            0.00072404      -0.00072358    
  0.57            0.00073654      -0.00073634    
  0.58            0.0007495       -0.00074959    
  0.59            0.00076242      -0.00076269    
  0.6             0.00077581      -0.00077574    
  0.61            0.00078878      -0.00078827    
  0.62            0.00080143      -0.00080113    
  0.63            0.00081427      -0.00081418    
  0.64            0.00082716      -0.00082744    
  0.65            0.00084048      -0.00084043    
  0.66            0.00085349      -0.00085312    
  0.67            0.00086594      -0.00086554    
  0.68            0.00087848      -0.00087853    
  0.69            0.00089195      -0.00089203    
  0.7             0.00090493      -0.00090502    
  0.71            0.0009181       -0.00091777    
  0.72            0.00093056      -0.00093013    
  0.73            0.00094309      -0.00094286    
  0.74            0.00095607      -0.00095617    
  0.75            0.00096957      -0.00096973    
  0.76            0.00098222      -0.0009824     
  0.77            0.00099569      -0.00099564    
  0.78            0.00100862      -0.00100814    
  0.79            0.00102099      -0.00102051    
  0.8             0.0010336       -0.00103359    
  0.81            0.00104667      -0.00104716    
  0.82            0.00106013      -0.00106012    
  0.83            0.00107329      -0.00107296    
  0.84            0.00108613      -0.00108556    
  0.85            0.00109832      -0.00109828    
  0.86            0.00111119      -0.00111134    
  0.87            0.00112469      -0.00112488    
  0.88            0.00113769      -0.0011375     
  0.89            0.0011505       -0.0011501     
  0.9             0.001164        -0.001163      
  0.91            0.0011767       -0.0011753     
  0.92            0.0011891       -0.001188      
  0.93            0.0012023       -0.001201      
  0.94            0.0012148       -0.0012135     
  0.95            0.0012274       -0.0012272     
  0.96            0.0012412       -0.0012407     
  0.97            0.0012537       -0.0012533     
  0.98            0.0012673       -0.0012667     
  0.99            0.0012803       -0.0012791     
  1               0.0012928       -0.0012912     
END_DB

