! VERSION = 6.00
BEGIN_HEADER
 ICCAP_INPUTS
  VU1        V  E GROUND SMU1 0.1 CON        0
  VU2        V  S GROUND SMU4 0.1 CON        0
  VN         V  B GROUND SMU3 0.015 CON        0
  VP         V  C GROUND SMU2 0.015 LIN        1    -0.5       0.5        101  0.01      
 ICCAP_OUTPUTS
  IP         I  C GROUND SMU2 B
  IN         I  B GROUND SMU3 B
END_HEADER

BEGIN_DB
 ICCAP_VAR VU1        0              
 ICCAP_VAR VU2        0              
 ICCAP_VAR VN         0              

 #VP              IP              IN             
  -0.5            -9.425e-005     9.4259e-005    
  -0.49           -9.2382e-005    9.238e-005     
  -0.48           -9.0485e-005    9.0495e-005    
  -0.47           -8.8591e-005    8.8601e-005    
  -0.46           -8.6717e-005    8.6715e-005    
  -0.45           -8.4841e-005    8.4844e-005    
  -0.44           -8.2957e-005    8.2955e-005    
  -0.43           -8.1067e-005    8.1061e-005    
  -0.42           -7.918e-005     7.9185e-005    
  -0.41           -7.7301e-005    7.7305e-005    
  -0.4            -7.542e-005     7.5412e-005    
  -0.39           -7.3531e-005    7.353e-005     
  -0.38           -7.1636e-005    7.1639e-005    
  -0.37           -6.9764e-005    6.9764e-005    
  -0.36           -6.7871e-005    6.7872e-005    
  -0.35           -6.5984e-005    6.5988e-005    
  -0.34           -6.4093e-005    6.4092e-005    
  -0.33           -6.2219e-005    6.2216e-005    
  -0.32           -6.0325e-005    6.0336e-005    
  -0.31           -5.8428e-005    5.8442e-005    
  -0.3            -5.6558e-005    5.6555e-005    
  -0.29           -5.4665e-005    5.4668e-005    
  -0.28           -5.2795e-005    5.2795e-005    
  -0.27           -5.0907e-005    5.0901e-005    
  -0.26           -4.9017e-005    4.9026e-005    
  -0.25           -4.7126e-005    4.7131e-005    
  -0.24           -4.5258e-005    4.5253e-005    
  -0.23           -4.3375e-005    4.3368e-005    
  -0.22           -4.1478e-005    4.1477e-005    
  -0.21           -3.9592e-005    3.9588e-005    
  -0.2            -3.7713e-005    3.7716e-005    
  -0.19           -3.5823e-005    3.583e-005     
  -0.18           -3.3937e-005    3.3932e-005    
  -0.17           -3.205e-005     3.204e-005     
  -0.16           -3.0171e-005    3.0176e-005    
  -0.15           -2.8278e-005    2.8285e-005    
  -0.14           -2.6397e-005    2.64e-005      
  -0.13           -2.4507e-005    2.4512e-005    
  -0.12           -2.2634e-005    2.2636e-005    
  -0.11           -2.0748e-005    2.0744e-005    
  -0.1            -1.8858e-005    1.8868e-005    
  -0.09           -1.6966e-005    1.6976e-005    
  -0.08           -1.508e-005     1.5077e-005    
  -0.07           -1.321e-005     1.3208e-005    
  -0.06           -1.1318e-005    1.1318e-005    
  -0.05           -9.4287e-006    9.4263e-006    
  -0.04           -7.5352e-006    7.5378e-006    
  -0.03           -5.6674e-006    5.6621e-006    
  -0.02           -3.7697e-006    3.7769e-006    
  -0.01           -1.8742e-006    1.8839e-006    
  0               1.1383e-009     -8.5298e-010   
  0.01            1.8858e-006     -8.8828e-007   
  0.02            3.7681e-006     -3.7739e-006   
  0.03            5.6548e-006     -5.6588e-006   
  0.04            7.5519e-006     -7.5497e-006   
  0.05            9.4236e-006     -9.4289e-006   
  0.06            1.13173e-005    -1.13167e-005  
  0.07            1.3196e-005     -1.3215e-005   
  0.08            1.5092e-005     -1.5094e-005   
  0.09            1.6987e-005     -1.6981e-005   
  0.1             1.886e-005      -1.8862e-005   
  0.11            2.0754e-005     -2.0754e-005   
  0.12            2.2645e-005     -2.2638e-005   
  0.13            2.4535e-005     -2.4532e-005   
  0.14            2.6407e-005     -2.641e-005    
  0.15            2.8307e-005     -2.8298e-005   
  0.16            3.0199e-005     -3.0191e-005   
  0.17            3.2081e-005     -3.2081e-005   
  0.18            3.396e-005      -3.3955e-005   
  0.19            3.5844e-005     -3.5847e-005   
  0.2             3.7736e-005     -3.774e-005    
  0.21            3.9626e-005     -3.9624e-005   
  0.22            4.1509e-005     -4.1502e-005   
  0.23            4.339e-005      -4.3398e-005   
  0.24            4.5279e-005     -4.5281e-005   
  0.25            4.7177e-005     -4.7173e-005   
  0.26            4.9051e-005     -4.9054e-005   
  0.27            5.0946e-005     -5.0944e-005   
  0.28            5.2839e-005     -5.2833e-005   
  0.29            5.4727e-005     -5.473e-005    
  0.3             5.6602e-005     -5.6605e-005   
  0.31            5.8504e-005     -5.8496e-005   
  0.32            6.0397e-005     -6.0387e-005   
  0.33            6.2274e-005     -6.2275e-005   
  0.34            6.4171e-005     -6.4167e-005   
  0.35            6.6041e-005     -6.6044e-005   
  0.36            6.7929e-005     -6.7935e-005   
  0.37            6.9821e-005     -6.9815e-005   
  0.38            7.1715e-005     -7.1711e-005   
  0.39            7.3583e-005     -7.359e-005    
  0.4             7.5472e-005     -7.5478e-005   
  0.41            7.737e-005      -7.737e-005    
  0.42            7.9258e-005     -7.9258e-005   
  0.43            8.1138e-005     -8.1137e-005   
  0.44            8.303e-005      -8.3026e-005   
  0.45            8.4922e-005     -8.4925e-005   
  0.46            8.6808e-005     -8.6814e-005   
  0.47            8.8692e-005     -8.8684e-005   
  0.48            9.0587e-005     -9.0576e-005   
  0.49            9.2467e-005     -9.2465e-005   
  0.5             9.4359e-005     -9.4353e-005   
END_DB

