! VERSION = 6.00
BEGIN_HEADER
 ICCAP_INPUTS
  VU1        V  E GROUND SMU2 0.1 CON        0
  VU2        V  S GROUND SMU3 0.1 CON        0
  V2         V  B GROUND SMU1 0.015 CON        0
  V1         V  C GROUND SMU4 0.015 LIN        1    -1         1          201  0.01      
 ICCAP_OUTPUTS
  I1         I  C GROUND SMU4 B
  I2         I  B GROUND SMU1 B
END_HEADER

BEGIN_DB
 ICCAP_VAR VU1        0              
 ICCAP_VAR VU2        0              
 ICCAP_VAR V2         0              

 #V1              I1              I2             
  -1              -0.0007325      0.0007326      
  -0.99           -0.00072472     0.00072517     
  -0.98           -0.00071737     0.00071743     
  -0.97           -0.00071041     0.00071012     
  -0.96           -0.00070342     0.00070326     
  -0.95           -0.00069605     0.00069575     
  -0.94           -0.00068879     0.00068883     
  -0.93           -0.00068114     0.00068148     
  -0.92           -0.00067344     0.00067378     
  -0.91           -0.00066624     0.00066623     
  -0.9            -0.00065932     0.00065899     
  -0.89           -0.0006522      0.00065211     
  -0.88           -0.00064467     0.00064494     
  -0.87           -0.0006369      0.0006373      
  -0.86           -0.00062957     0.00062967     
  -0.85           -0.00062257     0.00062237     
  -0.84           -0.00061557     0.00061546     
  -0.83           -0.00060814     0.00060788     
  -0.82           -0.00060096     0.00060097     
  -0.81           -0.00059334     0.00059363     
  -0.8            -0.00058568     0.00058599     
  -0.79           -0.00057839     0.0005784      
  -0.78           -0.0005715      0.00057122     
  -0.77           -0.00056433     0.00056429     
  -0.76           -0.00055682     0.00055706     
  -0.75           -0.0005491      0.00054945     
  -0.74           -0.00054182     0.00054186     
  -0.73           -0.00053475     0.00053458     
  -0.72           -0.00052768     0.00052759     
  -0.71           -0.00052027     0.00052006     
  -0.7            -0.00051306     0.0005131      
  -0.69           -0.00050548     0.00050575     
  -0.68           -0.00049786     0.00049815     
  -0.67           -0.00049056     0.00049057     
  -0.66           -0.00048358     0.00048337     
  -0.65           -0.00047642     0.00047635     
  -0.64           -0.00046896     0.00046916     
  -0.63           -0.00046131     0.00046165     
  -0.62           -0.00045395     0.00045408     
  -0.61           -0.00044681     0.00044671     
  -0.6            -0.00043974     0.0004396      
  -0.59           -0.00043238     0.00043248     
  -0.58           -0.00042477     0.00042506     
  -0.57           -0.00041733     0.00041754     
  -0.56           -0.00041012     0.00041007     
  -0.55           -0.00040303     0.00040287     
  -0.54           -0.00039574     0.0003958      
  -0.53           -0.00038829     0.0003885      
  -0.52           -0.00038076     0.00038095     
  -0.51           -0.00037343     0.00037344     
  -0.5            -0.00036636     0.00036618     
  -0.49           -0.00035917     0.00035914     
  -0.48           -0.00035173     0.00035189     
  -0.47           -0.00034415     0.00034439     
  -0.46           -0.00033677     0.00033686     
  -0.45           -0.00032965     0.00032959     
  -0.44           -0.00032249     0.00032248     
  -0.43           -0.00031509     0.00031498     
  -0.42           -0.00030779     0.00030785     
  -0.41           -0.00030038     0.00030056     
  -0.4            -0.00029287     0.00029306     
  -0.39           -0.00028556     0.00028558     
  -0.38           -0.00027839     0.00027831     
  -0.37           -0.0002712      0.00027119     
  -0.36           -0.00026378     0.00026393     
  -0.35           -0.00025627     0.00025646     
  -0.34           -0.00024891     0.00024898     
  -0.33           -0.00024167     0.00024166     
  -0.32           -0.00023452     0.00023454     
  -0.31           -0.00022714     0.00022725     
  -0.3            -0.00021967     0.00021987     
  -0.29           -0.00021224     0.00021238     
  -0.28           -0.00020502     0.00020505     
  -0.27           -0.00019783     0.00019779     
  -0.26           -0.0001905      0.00019057     
  -0.25           -0.00018306     0.00018323     
  -0.24           -0.00017569     0.00017579     
  -0.23           -0.00016837     0.00016855     
  -0.22           -0.00016101     0.00016109     
  -0.21           -0.00015374     0.00015377     
  -0.2            -0.00014653     0.00014657     
  -0.19           -0.00013918     0.00013927     
  -0.18           -0.00013177     0.00013191     
  -0.17           -0.00012435     0.00012449     
  -0.16           -0.00011712     0.00011715     
  -0.15           -0.00010987     0.00010987     
  -0.14           -0.00010249     0.00010257     
  -0.13           -9.5153e-005    9.5103e-005    
  -0.12           -8.7813e-005    8.7862e-005    
  -0.11           -8.0475e-005    8.0477e-005    
  -0.1            -7.316e-005     7.3145e-005    
  -0.09           -6.5856e-005    6.5833e-005    
  -0.08           -5.8508e-005    5.8522e-005    
  -0.07           -5.1204e-005    5.1231e-005    
  -0.06           -4.3839e-005    4.3856e-005    
  -0.05           -3.6502e-005    3.6513e-005    
  -0.04           -2.9174e-005    2.9172e-005    
  -0.03           -2.1904e-005    2.1929e-005    
  -0.02           -1.4556e-005    1.4566e-005    
  -0.01           -7.2107e-006    7.1979e-006    
  0               6.4668e-008     -6.9841e-008   
  0.01            7.4146e-006     -7.4153e-006   
  0.02            1.4752e-005     -1.476e-005    
  0.03            2.205e-005      -2.2031e-005   
  0.04            2.9405e-005     -2.9353e-005   
  0.05            3.6742e-005     -3.674e-005    
  0.06            4.4085e-005     -4.4081e-005   
  0.07            5.133e-005      -5.1344e-005   
  0.08            5.8658e-005     -5.8693e-005   
  0.09            6.5988e-005     -6.5989e-005   
  0.1             7.335e-005      -7.3303e-005   
  0.11            8.0687e-005     -8.0631e-005   
  0.12            8.8036e-005     -8.8022e-005   
  0.13            9.5327e-005     -9.5367e-005   
  0.14            0.00010279      -0.00010266    
  0.15            0.00011014      -0.00011       
  0.16            0.00011741      -0.00011735    
  0.17            0.00012469      -0.00012467    
  0.18            0.00013199      -0.00013193    
  0.19            0.00013937      -0.00013925    
  0.2             0.00014674      -0.00014659    
  0.21            0.00015409      -0.00015403    
  0.22            0.00016136      -0.00016136    
  0.23            0.00016864      -0.00016862    
  0.24            0.00017594      -0.00017595    
  0.25            0.00018323      -0.00018318    
  0.26            0.00019069      -0.00019052    
  0.27            0.00019812      -0.00019796    
  0.28            0.00020545      -0.0002054     
  0.29            0.00021261      -0.00021264    
  0.3             0.00021988      -0.00021984    
  0.31            0.00022729      -0.00022714    
  0.32            0.00023478      -0.00023458    
  0.33            0.00024209      -0.00024199    
  0.34            0.00024928      -0.00024935    
  0.35            0.00025652      -0.00025655    
  0.36            0.00026386      -0.00026394    
  0.37            0.00027111      -0.00027108    
  0.38            0.0002786       -0.0002784     
  0.39            0.00028609      -0.00028591    
  0.4             0.00029342      -0.00029337    
  0.41            0.00030054      -0.00030062    
  0.42            0.00030775      -0.00030773    
  0.43            0.00031518      -0.00031503    
  0.44            0.00032277      -0.0003225     
  0.45            0.00033013      -0.00033004    
  0.46            0.00033724      -0.00033732    
  0.47            0.00034439      -0.0003445     
  0.48            0.00035174      -0.00035189    
  0.49            0.00035905      -0.00035901    
  0.5             0.00036651      -0.00036628    
  0.51            0.00037406      -0.00037383    
  0.52            0.00038134      -0.00038135    
  0.53            0.00038847      -0.0003886     
  0.54            0.00039561      -0.00039562    
  0.55            0.00040308      -0.00040288    
  0.56            0.0004107       -0.0004104     
  0.57            0.00041806      -0.00041798    
  0.58            0.00042519      -0.00042532    
  0.59            0.00043227      -0.00043237    
  0.6             0.00043964      -0.00043984    
  0.61            0.00044691      -0.00044689    
  0.62            0.00045448      -0.00045422    
  0.63            0.00046204      -0.00046173    
  0.64            0.00046932      -0.00046932    
  0.65            0.00047636      -0.00047655    
  0.66            0.00048354      -0.00048355    
  0.67            0.00049098      -0.00049076    
  0.68            0.00049861      -0.00049826    
  0.69            0.000506        -0.00050591    
  0.7             0.00051308      -0.00051325    
  0.71            0.00052013      -0.00052031    
  0.72            0.00052747      -0.00052771    
  0.73            0.00053474      -0.00053472    
  0.74            0.0005423       -0.00054201    
  0.75            0.00054995      -0.00054965    
  0.76            0.00055722      -0.00055719    
  0.77            0.00056423      -0.00056446    
  0.78            0.00057134      -0.00057138    
  0.79            0.00057882      -0.00057858    
  0.8             0.00058652      -0.0005861     
  0.81            0.00059391      -0.0005938     
  0.82            0.00060095      -0.00060114    
  0.83            0.00060795      -0.00060814    
  0.84            0.00061528      -0.00061514    
  0.85            0.00062298      -0.0006226     
  0.86            0.00063055      -0.00063036    
  0.87            0.0006377       -0.00063781    
  0.88            0.00064454      -0.00064482    
  0.89            0.00065183      -0.00065178    
  0.9             0.00065951      -0.00065913    
  0.91            0.00066714      -0.00066681    
  0.92            0.00067443      -0.00067397    
  0.93            0.0006818       -0.00068168    
  0.94            0.00068881      -0.00068903    
  0.95            0.00069579      -0.00069599    
  0.96            0.00070314      -0.00070299    
  0.97            0.00071087      -0.0007104     
  0.98            0.00071842      -0.00071826    
  0.99            0.00072555      -0.0007257     
  1               0.00073237      -0.00073271    
END_DB

