! VERSION = 6.00
BEGIN_HEADER
 ICCAP_INPUTS
  VU1        V  E GROUND SMU2 0.1 CON        0
  VU2        V  S GROUND SMU3 0.1 CON        0
  V2         V  B GROUND SMU1 0.015 CON        0
  V1         V  C GROUND SMU4 0.015 LIN        1    -1         1          201  0.01      
 ICCAP_OUTPUTS
  I1         I  C GROUND SMU4 B
  I2         I  B GROUND SMU1 B
END_HEADER

BEGIN_DB
 ICCAP_VAR VU1        0              
 ICCAP_VAR VU2        0              
 ICCAP_VAR V2         0              

 #V1              I1              I2             
  -1              -0.00015765     0.00015773     
  -0.99           -0.00015605     0.00015615     
  -0.98           -0.0001545      0.00015454     
  -0.97           -0.000153       0.00015299     
  -0.96           -0.00015145     0.00015152     
  -0.95           -0.00014981     0.00014993     
  -0.94           -0.00014818     0.00014829     
  -0.93           -0.0001466      0.00014665     
  -0.92           -0.0001451      0.0001451      
  -0.91           -0.00014359     0.00014363     
  -0.9            -0.00014198     0.00014205     
  -0.89           -0.00014029     0.00014044     
  -0.88           -0.0001387      0.00013877     
  -0.87           -0.00013718     0.00013719     
  -0.86           -0.00013567     0.0001357      
  -0.85           -0.00013407     0.00013411     
  -0.84           -0.00013252     0.00013258     
  -0.83           -0.00013089     0.00013099     
  -0.82           -0.00012924     0.00012935     
  -0.81           -0.00012765     0.00012774     
  -0.8            -0.00012618     0.00012617     
  -0.79           -0.00012463     0.00012467     
  -0.78           -0.00012303     0.00012313     
  -0.77           -0.00012137     0.0001215      
  -0.76           -0.00011978     0.00011985     
  -0.75           -0.00011826     0.00011828     
  -0.74           -0.00011673     0.00011678     
  -0.73           -0.00011514     0.00011517     
  -0.72           -0.00011359     0.00011364     
  -0.71           -0.00011195     0.00011205     
  -0.7            -0.0001103      0.00011043     
  -0.69           -0.00010875     0.00010882     
  -0.68           -0.00010724     0.00010726     
  -0.67           -0.0001057      0.00010575     
  -0.66           -0.00010408     0.00010419     
  -0.65           -0.00010245     0.00010257     
  -0.64           -0.00010086     0.00010094     
  -0.63           -9.9338e-005    9.94e-005      
  -0.62           -9.7824e-005    9.7789e-005    
  -0.61           -9.6245e-005    9.6254e-005    
  -0.6            -9.4627e-005    9.4669e-005    
  -0.59           -9.3003e-005    9.3045e-005    
  -0.58           -9.142e-005     9.1426e-005    
  -0.57           -8.9902e-005    8.9868e-005    
  -0.56           -8.8355e-005    8.8344e-005    
  -0.55           -8.6764e-005    8.6727e-005    
  -0.54           -8.5197e-005    8.5197e-005    
  -0.53           -8.3607e-005    8.3634e-005    
  -0.52           -8.1977e-005    8.2023e-005    
  -0.51           -8.0386e-005    8.0401e-005    
  -0.5            -7.8838e-005    7.8821e-005    
  -0.49           -7.7309e-005    7.7284e-005    
  -0.48           -7.5731e-005    7.574e-005     
  -0.47           -7.4119e-005    7.4154e-005    
  -0.46           -7.2505e-005    7.2538e-005    
  -0.45           -7.0939e-005    7.0945e-005    
  -0.44           -6.9392e-005    6.9368e-005    
  -0.43           -6.7842e-005    6.7835e-005    
  -0.42           -6.6247e-005    6.6226e-005    
  -0.41           -6.4692e-005    6.4689e-005    
  -0.4            -6.3095e-005    6.3119e-005    
  -0.39           -6.1478e-005    6.1512e-005    
  -0.38           -5.9889e-005    5.99e-005      
  -0.37           -5.834e-005     5.8335e-005    
  -0.36           -5.6793e-005    5.6775e-005    
  -0.35           -5.5215e-005    5.5222e-005    
  -0.34           -5.3616e-005    5.3637e-005    
  -0.33           -5.2007e-005    5.2032e-005    
  -0.32           -5.0437e-005    5.0443e-005    
  -0.31           -4.8879e-005    4.8869e-005    
  -0.3            -4.7324e-005    4.7325e-005    
  -0.29           -4.5738e-005    4.5751e-005    
  -0.28           -4.4141e-005    4.4174e-005    
  -0.27           -4.255e-005     4.2567e-005    
  -0.26           -4.098e-005     4.1002e-005    
  -0.25           -3.9389e-005    3.94e-005      
  -0.24           -3.7835e-005    3.7831e-005    
  -0.23           -3.6276e-005    3.6269e-005    
  -0.22           -3.4695e-005    3.4704e-005    
  -0.21           -3.3104e-005    3.312e-005     
  -0.2            -3.1519e-005    3.1538e-005    
  -0.19           -2.9939e-005    2.9945e-005    
  -0.18           -2.837e-005     2.8367e-005    
  -0.17           -2.6805e-005    2.6813e-005    
  -0.16           -2.5234e-005    2.5242e-005    
  -0.15           -2.3634e-005    2.3657e-005    
  -0.14           -2.2052e-005    2.2063e-005    
  -0.13           -2.048e-005     2.0489e-005    
  -0.12           -1.8903e-005    1.8914e-005    
  -0.11           -1.7328e-005    1.7333e-005    
  -0.1            -1.5756e-005    1.5758e-005    
  -0.09           -1.4175e-005    1.4184e-005    
  -0.08           -1.2593e-005    1.26e-005      
  -0.07           -1.1021e-005    1.1028e-005    
  -0.06           -9.4497e-006    9.4534e-006    
  -0.05           -7.8595e-006    7.8636e-006    
  -0.04           -6.279e-006     6.2844e-006    
  -0.03           -4.7168e-006    4.718e-006     
  -0.02           -3.1351e-006    3.1366e-006    
  -0.01           -1.5564e-006    1.5519e-006    
  0               1.4333e-008     -1.5015e-008   
  0.01            1.5965e-006     -1.596e-006    
  0.02            3.1751e-006     -3.1759e-006   
  0.03            4.7399e-006     -4.7452e-006   
  0.04            6.3219e-006     -6.3199e-006   
  0.05            7.9054e-006     -7.9004e-006   
  0.06            9.4894e-006     -9.4883e-006   
  0.07            1.10547e-005    -1.10577e-005  
  0.08            1.2641e-005     -1.2623e-005   
  0.09            1.4215e-005     -1.4217e-005   
  0.1             1.5789e-005     -1.5788e-005   
  0.11            1.7355e-005     -1.7362e-005   
  0.12            1.8936e-005     -1.8931e-005   
  0.13            2.0525e-005     -2.0506e-005   
  0.14            2.2115e-005     -2.2097e-005   
  0.15            2.37e-005       -2.3688e-005   
  0.16            2.5252e-005     -2.5257e-005   
  0.17            2.6819e-005     -2.6828e-005   
  0.18            2.8405e-005     -2.8394e-005   
  0.19            3e-005          -2.9977e-005   
  0.2             3.1579e-005     -3.1555e-005   
  0.21            3.3158e-005     -3.3129e-005   
  0.22            3.4741e-005     -3.4732e-005   
  0.23            3.6313e-005     -3.6316e-005   
  0.24            3.7853e-005     -3.7876e-005   
  0.25            3.9433e-005     -3.9428e-005   
  0.26            4.1031e-005     -4.1006e-005   
  0.27            4.2634e-005     -4.2604e-005   
  0.28            4.4217e-005     -4.4205e-005   
  0.29            4.5766e-005     -4.5777e-005   
  0.3             4.7321e-005     -4.7338e-005   
  0.31            4.8902e-005     -4.8896e-005   
  0.32            5.0507e-005     -5.0476e-005   
  0.33            5.2097e-005     -5.2065e-005   
  0.34            5.3673e-005     -5.3672e-005   
  0.35            5.523e-005      -5.5247e-005   
  0.36            5.6786e-005     -5.6803e-005   
  0.37            5.8359e-005     -5.8388e-005   
  0.38            5.9933e-005     -5.9934e-005   
  0.39            6.1533e-005     -6.1504e-005   
  0.4             6.3148e-005     -6.3107e-005   
  0.41            6.4722e-005     -6.471e-005    
  0.42            6.6276e-005     -6.6298e-005   
  0.43            6.7821e-005     -6.7849e-005   
  0.44            6.94e-005       -6.9395e-005   
  0.45            7.1011e-005     -7.0973e-005   
  0.46            7.2614e-005     -7.2578e-005   
  0.47            7.419e-005      -7.4189e-005   
  0.48            7.5733e-005     -7.5764e-005   
  0.49            7.7281e-005     -7.7313e-005   
  0.5             7.8856e-005     -7.8845e-005   
  0.51            8.0477e-005     -8.0434e-005   
  0.52            8.2087e-005     -8.2062e-005   
  0.53            8.3664e-005     -8.3613e-005   
  0.54            8.524e-005      -8.5229e-005   
  0.55            8.6786e-005     -8.6815e-005   
  0.56            8.8318e-005     -8.8363e-005   
  0.57            8.9893e-005     -8.9893e-005   
  0.58            9.1517e-005     -9.1472e-005   
  0.59            9.3129e-005     -9.3086e-005   
  0.6             9.4706e-005     -9.4706e-005   
  0.61            9.6239e-005     -9.6282e-005   
  0.62            9.7782e-005     -9.7823e-005   
  0.63            9.9356e-005     -9.9348e-005   
  0.64            0.00010102      -0.000100937   
  0.65            0.00010258      -0.00010256    
  0.66            0.00010413      -0.00010407    
  0.67            0.00010574      -0.00010562    
  0.68            0.00010736      -0.00010724    
  0.69            0.00010897      -0.00010887    
  0.7             0.0001105       -0.00011046    
  0.71            0.00011202      -0.00011199    
  0.72            0.00011359      -0.00011359    
  0.73            0.00011515      -0.0001151     
  0.74            0.0001168       -0.00011668    
  0.75            0.00011844      -0.00011831    
  0.76            0.00012001      -0.00011984    
  0.77            0.00012158      -0.00012151    
  0.78            0.00012311      -0.0001231     
  0.79            0.00012464      -0.00012463    
  0.8             0.00012622      -0.00012613    
  0.81            0.00012786      -0.00012772    
  0.82            0.00012948      -0.00012939    
  0.83            0.00013104      -0.000131      
  0.84            0.00013252      -0.00013253    
  0.85            0.00013409      -0.00013403    
  0.86            0.00013572      -0.00013559    
  0.87            0.00013737      -0.00013724    
  0.88            0.00013891      -0.00013888    
  0.89            0.00014043      -0.00014043    
  0.9             0.00014197      -0.00014193    
  0.91            0.0001436       -0.00014348    
  0.92            0.00014527      -0.00014513    
  0.93            0.00014684      -0.00014676    
  0.94            0.00014836      -0.00014835    
  0.95            0.00014984      -0.00014985    
  0.96            0.00015144      -0.00015146    
  0.97            0.00015301      -0.00015295    
  0.98            0.00015464      -0.00015452    
  0.99            0.00015631      -0.00015618    
  1               0.00015789      -0.00015782    
END_DB

