! VERSION = 6.00
BEGIN_HEADER
 ICCAP_INPUTS
  VU1        V  E GROUND SMU2 0.1 CON        0
  VU2        V  S GROUND SMU3 0.1 CON        0
  V2         V  B GROUND SMU1 0.015 CON        0
  V1         V  C GROUND SMU4 0.015 LIN        1    -0.8       0.8        161  0.01      
 ICCAP_OUTPUTS
  I1         I  C GROUND SMU4 B
  I2         I  B GROUND SMU1 B
END_HEADER

BEGIN_DB
 ICCAP_VAR VU1        0              
 ICCAP_VAR VU2        0              
 ICCAP_VAR V2         0              

 #V1              I1              I2             
  -0.8            -0.00073556     0.00073558     
  -0.79           -0.0007266      0.00072604     
  -0.78           -0.0007173      0.00071716     
  -0.77           -0.00070764     0.00070787     
  -0.76           -0.00069767     0.00069823     
  -0.75           -0.00068823     0.00068822     
  -0.74           -0.00067915     0.00067896     
  -0.73           -0.00067015     0.00067004     
  -0.72           -0.00066069     0.00066034     
  -0.71           -0.00065133     0.00065136     
  -0.7            -0.00064166     0.00064198     
  -0.69           -0.00063187     0.0006322      
  -0.68           -0.00062246     0.00062252     
  -0.67           -0.00061337     0.00061304     
  -0.66           -0.00060439     0.00060428     
  -0.65           -0.00059484     0.0005951      
  -0.64           -0.00058505     0.00058542     
  -0.63           -0.00057567     0.00057571     
  -0.62           -0.00056653     0.00056638     
  -0.61           -0.00055739     0.00055732     
  -0.6            -0.00054787     0.00054798     
  -0.59           -0.00053814     0.00053854     
  -0.58           -0.00052888     0.00052903     
  -0.57           -0.00051962     0.0005196      
  -0.56           -0.00051069     0.00051054     
  -0.55           -0.00050148     0.00050153     
  -0.54           -0.00049168     0.00049215     
  -0.53           -0.00048237     0.00048255     
  -0.52           -0.00047303     0.00047344     
  -0.51           -0.00046372     0.00046377     
  -0.5            -0.00045468     0.00045461     
  -0.49           -0.00044571     0.00044562     
  -0.48           -0.00043648     0.00043659     
  -0.47           -0.00042693     0.00042726     
  -0.46           -0.0004177      0.00041783     
  -0.45           -0.00040863     0.0004086      
  -0.44           -0.00039965     0.00039949     
  -0.43           -0.00039048     0.00039057     
  -0.42           -0.00038099     0.00038125     
  -0.41           -0.00037171     0.00037187     
  -0.4            -0.00036252     0.00036286     
  -0.39           -0.0003533      0.00035342     
  -0.38           -0.0003443      0.0003442      
  -0.37           -0.00033538     0.00033533     
  -0.36           -0.00032617     0.00032624     
  -0.35           -0.00031682     0.00031706     
  -0.34           -0.00030759     0.00030771     
  -0.33           -0.00029853     0.00029852     
  -0.32           -0.00028966     0.00028958     
  -0.31           -0.00028054     0.00028066     
  -0.3            -0.00027123     0.00027146     
  -0.29           -0.00026204     0.00026216     
  -0.28           -0.00025303     0.00025324     
  -0.27           -0.00024392     0.00024402     
  -0.26           -0.00023491     0.00023493     
  -0.25           -0.00022599     0.00022596     
  -0.24           -0.00021689     0.000217       
  -0.23           -0.00020767     0.00020786     
  -0.22           -0.0001985      0.00019863     
  -0.21           -0.00018948     0.00018952     
  -0.2            -0.00018061     0.00018059     
  -0.19           -0.00017155     0.00017169     
  -0.18           -0.00016245     0.00016258     
  -0.17           -0.00015328     0.00015336     
  -0.16           -0.00014429     0.00014447     
  -0.15           -0.00013527     0.00013534     
  -0.14           -0.00012624     0.00012627     
  -0.13           -0.00011726     0.00011737     
  -0.12           -0.00010826     0.00010829     
  -0.11           -9.9225e-005    9.9159e-005    
  -0.1            -9.0168e-005    9.0196e-005    
  -0.09           -8.1076e-005    8.1112e-005    
  -0.08           -7.2009e-005    7.2031e-005    
  -0.07           -6.3056e-005    6.307e-005     
  -0.06           -5.4039e-005    5.4032e-005    
  -0.05           -4.5e-005       4.502e-005     
  -0.04           -3.5957e-005    3.5952e-005    
  -0.03           -2.6966e-005    2.6981e-005    
  -0.02           -1.7936e-005    1.7929e-005    
  -0.01           -8.8795e-006    8.8977e-006    
  0               7.2535e-008     -7.5438e-008   
  0.01            9.1386e-006     -9.1658e-006   
  0.02            1.8188e-005     -1.816e-005    
  0.03            2.7177e-005     -2.7161e-005   
  0.04            3.6184e-005     -3.6182e-005   
  0.05            4.522e-005      -4.525e-005    
  0.06            5.4262e-005     -5.4272e-005   
  0.07            6.3267e-005     -6.322e-005    
  0.08            7.2357e-005     -7.231e-005    
  0.09            8.1421e-005     -8.1403e-005   
  0.1             9.0443e-005     -9.0461e-005   
  0.11            9.936e-005      -9.9414e-005   
  0.12            0.00010865      -0.000108428   
  0.13            0.00011767      -0.00011761    
  0.14            0.00012666      -0.00012667    
  0.15            0.00013569      -0.00013563    
  0.16            0.00014473      -0.0001446     
  0.17            0.0001539       -0.00015373    
  0.18            0.00016302      -0.00016291    
  0.19            0.00017202      -0.00017201    
  0.2             0.00018092      -0.00018096    
  0.21            0.00019002      -0.00019005    
  0.22            0.00019907      -0.00019904    
  0.23            0.00020827      -0.00020812    
  0.24            0.00021741      -0.00021722    
  0.25            0.00022656      -0.00022646    
  0.26            0.00023554      -0.00023558    
  0.27            0.00024464      -0.00024458    
  0.28            0.00025378      -0.0002536     
  0.29            0.00026307      -0.00026283    
  0.3             0.00027218      -0.0002721     
  0.31            0.00028116      -0.00028125    
  0.32            0.00029017      -0.00029022    
  0.33            0.00029921      -0.00029933    
  0.34            0.00030834      -0.00030831    
  0.35            0.00031762      -0.00031743    
  0.36            0.00032699      -0.00032671    
  0.37            0.0003361       -0.00033581    
  0.38            0.00034525      -0.00034514    
  0.39            0.00035425      -0.00035432    
  0.4             0.00036314      -0.0003633     
  0.41            0.00037224      -0.00037218    
  0.42            0.00038159      -0.00038135    
  0.43            0.00039099      -0.00039083    
  0.44            0.00040016      -0.00040017    
  0.45            0.0004091       -0.00040927    
  0.46            0.00041821      -0.00041816    
  0.47            0.00042759      -0.00042742    
  0.48            0.00043705      -0.00043674    
  0.49            0.00044599      -0.00044592    
  0.5             0.00045502      -0.00045526    
  0.51            0.00046408      -0.00046406    
  0.52            0.00047344      -0.00047316    
  0.53            0.00048296      -0.00048262    
  0.54            0.00049218      -0.00049204    
  0.55            0.00050111      -0.00050133    
  0.56            0.00051013      -0.00051035    
  0.57            0.00051947      -0.00051929    
  0.58            0.0005291       -0.00052878    
  0.59            0.00053838      -0.00053825    
  0.6             0.00054767      -0.0005478     
  0.61            0.00055657      -0.00055682    
  0.62            0.00056578      -0.00056578    
  0.63            0.00057533      -0.00057495    
  0.64            0.00058498      -0.00058452    
  0.65            0.00059421      -0.00059381    
  0.66            0.00060367      -0.00060353    
  0.67            0.00061238      -0.00061269    
  0.68            0.00062144      -0.00062162    
  0.69            0.00063073      -0.00063102    
  0.7             0.00064013      -0.00064001    
  0.71            0.00064987      -0.00064943    
  0.72            0.00065952      -0.00065935    
  0.73            0.00066899      -0.00066879    
  0.74            0.00067784      -0.00067823    
  0.75            0.00068694      -0.00068691    
  0.76            0.00069657      -0.00069632    
  0.77            0.00070675      -0.00070609    
  0.78            0.00071602      -0.00071596    
  0.79            0.00072525      -0.00072557    
  0.8             0.00073414      -0.00073442    
END_DB

