! VERSION = 6.00
BEGIN_HEADER
 ICCAP_INPUTS
  VU1        V  E GROUND SMU2 0.1 CON        0
  VU2        V  S GROUND SMU3 0.1 CON        0
  V2         V  B GROUND SMU1 0.015 CON        0
  V1         V  C GROUND SMU4 0.015 LIN        1    -1         1          201  0.01      
 ICCAP_OUTPUTS
  I1         I  C GROUND SMU4 B
  I2         I  B GROUND SMU1 B
END_HEADER

BEGIN_DB
 ICCAP_VAR VU1        0              
 ICCAP_VAR VU2        0              
 ICCAP_VAR V2         0              

 #V1              I1              I2             
  -1              -0.0022838      0.0022863      
  -0.99           -0.0022619      0.0022618      
  -0.98           -0.00224        0.0022402      
  -0.97           -0.002217       0.0022166      
  -0.96           -0.0021942      0.0021947      
  -0.95           -0.0021709      0.0021724      
  -0.94           -0.0021469      0.0021479      
  -0.93           -0.0021241      0.0021258      
  -0.92           -0.0021009      0.0021015      
  -0.91           -0.0020788      0.002079       
  -0.9            -0.0020566      0.0020565      
  -0.89           -0.0020336      0.0020344      
  -0.88           -0.0020096      0.0020112      
  -0.87           -0.001986       0.0019866      
  -0.86           -0.0019637      0.0019639      
  -0.85           -0.0019419      0.0019416      
  -0.84           -0.0019191      0.0019197      
  -0.83           -0.0018952      0.0018964      
  -0.82           -0.0018715      0.0018728      
  -0.81           -0.0018486      0.0018503      
  -0.8            -0.0018256      0.0018263      
  -0.79           -0.0018032      0.0018031      
  -0.78           -0.0017809      0.0017809      
  -0.77           -0.0017578      0.0017587      
  -0.76           -0.0017341      0.0017355      
  -0.75           -0.001711       0.0017119      
  -0.74           -0.0016885      0.0016887      
  -0.73           -0.0016664      0.0016664      
  -0.72           -0.0016434      0.001644       
  -0.71           -0.0016197      0.0016211      
  -0.7            -0.0015963      0.0015974      
  -0.69           -0.0015736      0.0015751      
  -0.68           -0.0015505      0.0015513      
  -0.67           -0.0015281      0.0015282      
  -0.66           -0.0015061      0.0015061      
  -0.65           -0.0014825      0.0014827      
  -0.64           -0.0014598      0.0014604      
  -0.63           -0.0014363      0.0014375      
  -0.62           -0.001413       0.0014141      
  -0.61           -0.0013902      0.0013906      
  -0.6            -0.0013681      0.0013681      
  -0.59           -0.0013455      0.0013462      
  -0.58           -0.0013221      0.0013234      
  -0.57           -0.0012989      0.0013         
  -0.56           -0.0012756      0.0012766      
  -0.55           -0.0012531      0.0012534      
  -0.54           -0.0012311      0.0012312      
  -0.53           -0.0012079      0.0012089      
  -0.52           -0.0011845      0.0011857      
  -0.51           -0.0011614      0.0011621      
  -0.5            -0.0011386      0.0011391      
  -0.49           -0.0011164      0.0011165      
  -0.48           -0.0010937      0.0010944      
  -0.47           -0.0010705      0.0010715      
  -0.46           -0.0010471      0.001048       
  -0.45           -0.0010246      0.0010256      
  -0.44           -0.0010014      0.0010023      
  -0.43           -0.00097886     0.00097993     
  -0.42           -0.0009563      0.00095603     
  -0.41           -0.0009341      0.00093376     
  -0.4            -0.0009114      0.00091133     
  -0.39           -0.00088806     0.0008884      
  -0.38           -0.00086479     0.00086502     
  -0.37           -0.00084213     0.00084209     
  -0.36           -0.00081976     0.00081942     
  -0.35           -0.00079715     0.00079701     
  -0.34           -0.00077403     0.00077429     
  -0.33           -0.00075079     0.00075117     
  -0.32           -0.00072813     0.00072813     
  -0.31           -0.00070567     0.00070546     
  -0.3            -0.00068302     0.00068294     
  -0.29           -0.0006601      0.00065983     
  -0.28           -0.00063746     0.00063758     
  -0.27           -0.0006143      0.00061463     
  -0.26           -0.00059124     0.00059136     
  -0.25           -0.00056847     0.00056881     
  -0.24           -0.00054577     0.00054582     
  -0.23           -0.00052314     0.00052306     
  -0.22           -0.00050056     0.0005005      
  -0.21           -0.00047771     0.00047786     
  -0.2            -0.00045476     0.00045506     
  -0.19           -0.00043192     0.00043207     
  -0.18           -0.00040917     0.00040919     
  -0.17           -0.00038657     0.0003865      
  -0.16           -0.00036394     0.00036404     
  -0.15           -0.00034099     0.00034123     
  -0.14           -0.00031807     0.00031816     
  -0.13           -0.00029535     0.00029553     
  -0.12           -0.00027268     0.00027275     
  -0.11           -0.00024997     0.00024998     
  -0.1            -0.00022724     0.00022731     
  -0.09           -0.00020444     0.00020455     
  -0.08           -0.00018155     0.00018169     
  -0.07           -0.0001589      0.00015899     
  -0.06           -0.00013614     0.00013617     
  -0.05           -0.0001134      0.00011344     
  -0.04           -9.0559e-005    9.0477e-005    
  -0.03           -6.7944e-005    6.7952e-005    
  -0.02           -4.5166e-005    4.5168e-005    
  -0.01           -2.2395e-005    2.2379e-005    
  0               1.1637e-007     -1.4541e-007   
  0.01            2.3009e-005     -2.2988e-005   
  0.02            4.5792e-005     -4.5764e-005   
  0.03            6.8285e-005     -6.8341e-005   
  0.04            9.0996e-005     -9.1065e-005   
  0.05            0.00011404      -0.000113721   
  0.06            0.00013687      -0.00013676    
  0.07            0.00015939      -0.00015939    
  0.08            0.0001821       -0.00018216    
  0.09            0.00020489      -0.00020492    
  0.1             0.00022765      -0.00022761    
  0.11            0.00025038      -0.00025021    
  0.12            0.00027325      -0.00027303    
  0.13            0.00029607      -0.00029603    
  0.14            0.00031864      -0.00031874    
  0.15            0.00034137      -0.00034133    
  0.16            0.00036409      -0.00036387    
  0.17            0.00038707      -0.00038685    
  0.18            0.00040989      -0.00040978    
  0.19            0.00043242      -0.00043252    
  0.2             0.00045491      -0.00045496    
  0.21            0.00047771      -0.00047789    
  0.22            0.00050043      -0.00050042    
  0.23            0.00052344      -0.00052318    
  0.24            0.00054625      -0.00054597    
  0.25            0.00056906      -0.00056903    
  0.26            0.00059153      -0.00059174    
  0.27            0.00061414      -0.00061415    
  0.28            0.00063709      -0.00063684    
  0.29            0.00066012      -0.00065973    
  0.3             0.00068299      -0.00068286    
  0.31            0.00070545      -0.00070562    
  0.32            0.00072791      -0.00072817    
  0.33            0.00075058      -0.00075089    
  0.34            0.00077332      -0.00077329    
  0.35            0.00079649      -0.00079614    
  0.36            0.00081976      -0.00081934    
  0.37            0.00084231      -0.00084235    
  0.38            0.00086468      -0.00086502    
  0.39            0.00088729      -0.0008874     
  0.4             0.00091035      -0.00091004    
  0.41            0.00093359      -0.00093304    
  0.42            0.00095648      -0.00095632    
  0.43            0.00097874      -0.00097918    
  0.44            0.00100105      -0.00100136    
  0.45            0.00102401      -0.00102438    
  0.46            0.00104649      -0.00104659    
  0.47            0.00106977      -0.00106932    
  0.48            0.00109306      -0.00109258    
  0.49            0.00111576      -0.00111593    
  0.5             0.00113782      -0.00113833    
  0.51            0.0011615       -0.0011602     
  0.52            0.0011835       -0.0011835     
  0.53            0.0012065       -0.0012066     
  0.54            0.001229        -0.0012284     
  0.55            0.0012523       -0.0012512     
  0.56            0.0012758       -0.0012747     
  0.57            0.0012986       -0.001298      
  0.58            0.0013208       -0.0013206     
  0.59            0.0013429       -0.0013426     
  0.6             0.0013662       -0.0013655     
  0.61            0.0013899       -0.0013887     
  0.62            0.0014129       -0.001412      
  0.63            0.0014351       -0.001435      
  0.64            0.0014573       -0.0014572     
  0.65            0.0014801       -0.0014804     
  0.66            0.0015025       -0.0015024     
  0.67            0.0015259       -0.001525      
  0.68            0.0015498       -0.0015485     
  0.69            0.0015725       -0.001572      
  0.7             0.0015945       -0.0015948     
  0.71            0.0016172       -0.0016167     
  0.72            0.0016402       -0.0016391     
  0.73            0.0016642       -0.0016625     
  0.74            0.0016874       -0.0016865     
  0.75            0.0017095       -0.0017096     
  0.76            0.0017315       -0.0017314     
  0.77            0.0017544       -0.0017549     
  0.78            0.0017771       -0.0017765     
  0.79            0.0018008       -0.0017994     
  0.8             0.0018244       -0.001823      
  0.81            0.0018471       -0.0018468     
  0.82            0.0018698       -0.0018699     
  0.83            0.0018919       -0.0018916     
  0.84            0.0019148       -0.0019139     
  0.85            0.0019387       -0.0019372     
  0.86            0.0019615       -0.0019607     
  0.87            0.001984        -0.0019841     
  0.88            0.0020052       -0.0020056     
  0.89            0.0020282       -0.0020276     
  0.9             0.0020524       -0.0020509     
  0.91            0.0020754       -0.0020746     
  0.92            0.002098        -0.0020977     
  0.93            0.0021197       -0.00212       
  0.94            0.0021422       -0.0021419     
  0.95            0.0021663       -0.002165      
  0.96            0.0021909       -0.0021891     
  0.97            0.002213        -0.002211      
  0.98            0.0022362       -0.0022353     
  0.99            0.0022581       -0.0022584     
  1               0.00228         -0.0022802     
END_DB

