! VERSION = 6.00
BEGIN_HEADER
 ICCAP_INPUTS
  VU1        V  E GROUND SMU2 0.1 CON        0
  VU2        V  S GROUND SMU3 0.1 CON        0
  V2         V  B GROUND SMU1 0.015 CON        0
  V1         V  C GROUND SMU4 0.015 LIN        1    -1         1          201  0.01      
 ICCAP_OUTPUTS
  I1         I  C GROUND SMU4 B
  I2         I  B GROUND SMU1 B
END_HEADER

BEGIN_DB
 ICCAP_VAR VU1        0              
 ICCAP_VAR VU2        0              
 ICCAP_VAR V2         0              

 #V1              I1              I2             
  -1              -0.0033188      0.0033195      
  -0.99           -0.0032859      0.0032858      
  -0.98           -0.0032533      0.0032536      
  -0.97           -0.0032217      0.0032221      
  -0.96           -0.0031877      0.0031892      
  -0.95           -0.0031534      0.0031535      
  -0.94           -0.0031203      0.0031213      
  -0.93           -0.0030862      0.0030866      
  -0.92           -0.0030532      0.003054       
  -0.91           -0.0030202      0.0030209      
  -0.9            -0.0029875      0.0029874      
  -0.89           -0.0029523      0.0029543      
  -0.88           -0.0029173      0.0029183      
  -0.87           -0.0028831      0.0028846      
  -0.86           -0.0028511      0.002852       
  -0.85           -0.0028168      0.0028172      
  -0.84           -0.0027841      0.0027846      
  -0.83           -0.0027504      0.0027522      
  -0.82           -0.002716       0.002718       
  -0.81           -0.0026828      0.0026832      
  -0.8            -0.0026494      0.0026491      
  -0.79           -0.0026167      0.0026175      
  -0.78           -0.0025837      0.0025834      
  -0.77           -0.0025509      0.002551       
  -0.76           -0.0025159      0.0025169      
  -0.75           -0.0024816      0.0024828      
  -0.74           -0.0024484      0.0024491      
  -0.73           -0.0024158      0.0024155      
  -0.72           -0.0023827      0.0023826      
  -0.71           -0.0023482      0.00235        
  -0.7            -0.0023141      0.0023161      
  -0.69           -0.0022811      0.0022821      
  -0.68           -0.0022486      0.0022488      
  -0.67           -0.0022153      0.0022158      
  -0.66           -0.0021821      0.0021821      
  -0.65           -0.002149       0.0021492      
  -0.64           -0.002115       0.002116       
  -0.63           -0.0020802      0.0020819      
  -0.62           -0.0020478      0.0020488      
  -0.61           -0.0020148      0.002015       
  -0.6            -0.0019823      0.0019826      
  -0.59           -0.0019487      0.00195        
  -0.58           -0.0019144      0.001916       
  -0.57           -0.0018811      0.0018824      
  -0.56           -0.0018486      0.0018492      
  -0.55           -0.0018157      0.0018164      
  -0.54           -0.0017829      0.0017837      
  -0.53           -0.0017489      0.0017507      
  -0.52           -0.0017152      0.0017166      
  -0.51           -0.0016825      0.001683       
  -0.5            -0.0016495      0.0016503      
  -0.49           -0.0016164      0.0016176      
  -0.48           -0.0015831      0.0015843      
  -0.47           -0.0015494      0.0015502      
  -0.46           -0.001516       0.0015173      
  -0.45           -0.0014833      0.001484       
  -0.44           -0.0014507      0.0014512      
  -0.43           -0.0014178      0.0014184      
  -0.42           -0.0013847      0.001385       
  -0.41           -0.0013522      0.0013529      
  -0.4            -0.0013181      0.0013193      
  -0.39           -0.0012849      0.001286       
  -0.38           -0.0012519      0.0012525      
  -0.37           -0.0012192      0.0012195      
  -0.36           -0.0011863      0.0011869      
  -0.35           -0.0011528      0.001154       
  -0.34           -0.0011194      0.0011205      
  -0.33           -0.0010863      0.0010871      
  -0.32           -0.0010538      0.0010543      
  -0.31           -0.0010209      0.0010217      
  -0.3            -0.00098779     0.00098833     
  -0.29           -0.00095525     0.00095489     
  -0.28           -0.00092247     0.0009223      
  -0.27           -0.00088932     0.00088959     
  -0.26           -0.00085615     0.00085638     
  -0.25           -0.00082319     0.00082319     
  -0.24           -0.00079048     0.00079041     
  -0.23           -0.00075768     0.00075768     
  -0.22           -0.00072456     0.00072476     
  -0.21           -0.00069125     0.00069169     
  -0.2            -0.0006584      0.00065854     
  -0.19           -0.00062557     0.00062554     
  -0.18           -0.00059274     0.00059265     
  -0.17           -0.00055953     0.00055969     
  -0.16           -0.00052668     0.00052688     
  -0.15           -0.00049363     0.00049363     
  -0.14           -0.00046069     0.00046087     
  -0.13           -0.00042768     0.00042772     
  -0.12           -0.00039495     0.00039493     
  -0.11           -0.00036205     0.0003622      
  -0.1            -0.00032902     0.00032902     
  -0.09           -0.00029603     0.00029604     
  -0.08           -0.00026295     0.00026301     
  -0.07           -0.00023011     0.00023026     
  -0.06           -0.00019716     0.00019721     
  -0.05           -0.00016432     0.0001642      
  -0.04           -0.00013119     0.00013114     
  -0.03           -9.8311e-005    9.8259e-005    
  -0.02           -6.5271e-005    6.5363e-005    
  -0.01           -3.2359e-005    3.2397e-005    
  0               -1.4531e-007    8.8036e-007    
  0.01            3.3314e-005     -3.3333e-005   
  0.02            6.623e-005      -6.6293e-005   
  0.03            9.8901e-005     -9.8914e-005   
  0.04            0.0001322       -0.00013208    
  0.05            0.00016534      -0.0001651     
  0.06            0.00019825      -0.00019822    
  0.07            0.00023102      -0.00023102    
  0.08            0.00026397      -0.00026397    
  0.09            0.00029695      -0.00029692    
  0.1             0.00033009      -0.00032993    
  0.11            0.00036299      -0.00036288    
  0.12            0.00039601      -0.00039576    
  0.13            0.00042913      -0.00042894    
  0.14            0.00046206      -0.00046202    
  0.15            0.00049487      -0.00049498    
  0.16            0.00052771      -0.00052779    
  0.17            0.00056075      -0.00056071    
  0.18            0.00059386      -0.00059365    
  0.19            0.00062716      -0.00062697    
  0.2             0.00065987      -0.00065986    
  0.21            0.0006928       -0.00069295    
  0.22            0.00072577      -0.00072564    
  0.23            0.00075904      -0.00075881    
  0.24            0.00079215      -0.00079179    
  0.25            0.0008252       -0.00082518    
  0.26            0.00085807      -0.00085826    
  0.27            0.0008909       -0.00089112    
  0.28            0.00092398      -0.00092418    
  0.29            0.00095682      -0.0009568     
  0.3             0.0009901       -0.00098982    
  0.31            0.00102369      -0.00102331    
  0.32            0.00105691      -0.00105641    
  0.33            0.00108967      -0.00108983    
  0.34            0.00112266      -0.00112269    
  0.35            0.0011564       -0.0011547     
  0.36            0.0011888       -0.0011885     
  0.37            0.0012218       -0.0012209     
  0.38            0.0012551       -0.001254      
  0.39            0.001289        -0.0012876     
  0.4             0.0013219       -0.0013213     
  0.41            0.0013546       -0.0013537     
  0.42            0.0013871       -0.0013866     
  0.43            0.0014204       -0.0014195     
  0.44            0.0014541       -0.001453      
  0.45            0.0014874       -0.001487      
  0.46            0.0015202       -0.0015195     
  0.47            0.0015527       -0.0015524     
  0.48            0.0015859       -0.0015851     
  0.49            0.0016194       -0.0016185     
  0.5             0.0016538       -0.0016524     
  0.51            0.0016867       -0.0016861     
  0.52            0.0017191       -0.0017185     
  0.53            0.0017522       -0.0017519     
  0.54            0.0017856       -0.0017844     
  0.55            0.0018195       -0.0018187     
  0.56            0.0018527       -0.0018523     
  0.57            0.0018859       -0.0018855     
  0.58            0.001919        -0.0019184     
  0.59            0.0019522       -0.0019505     
  0.6             0.0019859       -0.0019849     
  0.61            0.0020199       -0.0020183     
  0.62            0.002052        -0.002051      
  0.63            0.0020836       -0.0020835     
  0.64            0.0021166       -0.0021167     
  0.65            0.0021499       -0.002149      
  0.66            0.002183        -0.0021825     
  0.67            0.0022175       -0.0022156     
  0.68            0.0022505       -0.0022486     
  0.69            0.0022841       -0.0022825     
  0.7             0.0023175       -0.0023164     
  0.71            0.0023497       -0.0023493     
  0.72            0.0023826       -0.0023811     
  0.73            0.0024168       -0.0024157     
  0.74            0.0024504       -0.0024497     
  0.75            0.0024845       -0.002484      
  0.76            0.0025164       -0.0025161     
  0.77            0.0025494       -0.0025486     
  0.78            0.0025846       -0.0025838     
  0.79            0.0026176       -0.0026156     
  0.8             0.00265         -0.0026489     
  0.81            0.0026827       -0.0026821     
  0.82            0.0027152       -0.0027146     
  0.83            0.0027489       -0.0027477     
  0.84            0.0027822       -0.0027806     
  0.85            0.0028168       -0.0028156     
  0.86            0.0028494       -0.0028493     
  0.87            0.0028823       -0.0028824     
  0.88            0.0029141       -0.0029158     
  0.89            0.002948        -0.0029474     
  0.9             0.0029824       -0.0029817     
  0.91            0.0030171       -0.0030147     
  0.92            0.0030487       -0.0030493     
  0.93            0.0030819       -0.0030811     
  0.94            0.0031144       -0.003113      
  0.95            0.0031482       -0.0031475     
  0.96            0.003183        -0.0031811     
  0.97            0.003215        -0.0032143     
  0.98            0.0032486       -0.0032481     
  0.99            0.0032827       -0.0032821     
  1               0.0033166       -0.003316      
END_DB

