! VERSION = 6.00
BEGIN_HEADER
 ICCAP_INPUTS
  VU1        V  E GROUND SMU2 0.1 CON        0
  VU2        V  S GROUND SMU3 0.1 CON        0
  V2         V  B GROUND SMU1 0.015 CON        0
  V1         V  C GROUND SMU4 0.015 LIN        1    -1         1          201  0.01      
 ICCAP_OUTPUTS
  I1         I  C GROUND SMU4 B
  I2         I  B GROUND SMU1 B
END_HEADER

BEGIN_DB
 ICCAP_VAR VU1        0              
 ICCAP_VAR VU2        0              
 ICCAP_VAR V2         0              

 #V1              I1              I2             
  -1              -0.0020372      0.0020379      
  -0.99           -0.0020157      0.0020167      
  -0.98           -0.0019952      0.0019954      
  -0.97           -0.0019753      0.0019752      
  -0.96           -0.0019544      0.001955       
  -0.95           -0.0019327      0.0019341      
  -0.94           -0.0019108      0.0019122      
  -0.93           -0.0018901      0.0018917      
  -0.92           -0.0018688      0.0018696      
  -0.91           -0.0018487      0.0018487      
  -0.9            -0.0018287      0.0018288      
  -0.89           -0.0018075      0.0018086      
  -0.88           -0.0017856      0.001787       
  -0.87           -0.0017641      0.0017652      
  -0.86           -0.001744       0.001744       
  -0.85           -0.0017241      0.0017238      
  -0.84           -0.0017031      0.0017037      
  -0.83           -0.0016814      0.0016826      
  -0.82           -0.0016597      0.001661       
  -0.81           -0.0016391      0.0016407      
  -0.8            -0.0016181      0.0016188      
  -0.79           -0.0015979      0.0015981      
  -0.78           -0.001578       0.0015783      
  -0.77           -0.001557       0.0015579      
  -0.76           -0.0015353      0.0015368      
  -0.75           -0.0015141      0.0015153      
  -0.74           -0.0014941      0.0014942      
  -0.73           -0.0014741      0.001474       
  -0.72           -0.0014534      0.0014541      
  -0.71           -0.0014321      0.0014333      
  -0.7            -0.001411       0.0014118      
  -0.69           -0.0013903      0.0013917      
  -0.68           -0.0013694      0.0013702      
  -0.67           -0.0013493      0.0013496      
  -0.66           -0.0013294      0.0013297      
  -0.65           -0.0013087      0.0013095      
  -0.64           -0.0012874      0.0012888      
  -0.63           -0.0012665      0.0012675      
  -0.62           -0.0012463      0.0012468      
  -0.61           -0.0012265      0.0012266      
  -0.6            -0.0012061      0.0012068      
  -0.59           -0.0011851      0.0011861      
  -0.58           -0.0011639      0.0011648      
  -0.57           -0.0011437      0.0011449      
  -0.56           -0.0011231      0.0011238      
  -0.55           -0.001103       0.0011032      
  -0.54           -0.001083       0.0010834      
  -0.53           -0.0010627      0.0010635      
  -0.52           -0.0010418      0.0010428      
  -0.51           -0.0010212      0.0010219      
  -0.5            -0.0010009      0.0010014      
  -0.49           -0.00098091     0.00098171     
  -0.48           -0.00096111     0.00096075     
  -0.47           -0.00094104     0.00094091     
  -0.46           -0.00092041     0.00092074     
  -0.45           -0.00089974     0.00090021     
  -0.44           -0.00087952     0.00087958     
  -0.43           -0.00085967     0.00085937     
  -0.42           -0.00083969     0.00083957     
  -0.41           -0.00081953     0.00081921     
  -0.4            -0.00079928     0.0007994      
  -0.39           -0.00077877     0.00077916     
  -0.38           -0.0007583      0.00075848     
  -0.37           -0.00073835     0.00073873     
  -0.36           -0.00071809     0.00071817     
  -0.35           -0.00069822     0.00069803     
  -0.34           -0.00067839     0.00067833     
  -0.33           -0.00065822     0.00065838     
  -0.32           -0.00063791     0.00063826     
  -0.31           -0.00061759     0.00061779     
  -0.3            -0.00059768     0.00059759     
  -0.29           -0.00057792     0.00057774     
  -0.28           -0.00055804     0.00055812     
  -0.27           -0.00053773     0.00053802     
  -0.26           -0.00051743     0.00051759     
  -0.25           -0.00049747     0.00049774     
  -0.24           -0.00047756     0.00047763     
  -0.23           -0.00045772     0.00045766     
  -0.22           -0.00043795     0.00043787     
  -0.21           -0.00041789     0.00041802     
  -0.2            -0.0003978      0.0003981      
  -0.19           -0.0003777      0.00037786     
  -0.18           -0.00035784     0.00035783     
  -0.17           -0.00033806     0.00033801     
  -0.16           -0.00031823     0.00031831     
  -0.15           -0.00029817     0.00029839     
  -0.14           -0.00027808     0.00027818     
  -0.13           -0.00025821     0.00025838     
  -0.12           -0.00023841     0.00023847     
  -0.11           -0.00021851     0.00021854     
  -0.1            -0.00019868     0.00019877     
  -0.09           -0.00017872     0.00017868     
  -0.08           -0.00015878     0.00015884     
  -0.07           -0.00013896     0.00013905     
  -0.06           -0.00011899     0.0001191      
  -0.05           -9.9014e-005    9.9089e-005    
  -0.04           -7.9124e-005    7.9125e-005    
  -0.03           -5.9409e-005    5.9397e-005    
  -0.02           -3.9477e-005    3.9517e-005    
  -0.01           -1.958e-005     1.9575e-005    
  0               1.10944e-007    -1.11119e-007  
  0.01            2.0107e-005     -2.0074e-005   
  0.02            4.0039e-005     -4.0002e-005   
  0.03            5.9744e-005     -5.9769e-005   
  0.04            7.9607e-005     -7.9682e-005   
  0.05            9.95e-005       -9.9493e-005   
  0.06            0.00011961      -0.00011951    
  0.07            0.00013945      -0.00013931    
  0.08            0.00015939      -0.00015934    
  0.09            0.00017932      -0.00017932    
  0.1             0.00019912      -0.00019919    
  0.11            0.0002189       -0.00021887    
  0.12            0.00023903      -0.00023883    
  0.13            0.00025904      -0.00025884    
  0.14            0.00027903      -0.0002788     
  0.15            0.00029903      -0.00029893    
  0.16            0.00031871      -0.00031875    
  0.17            0.00033855      -0.00033867    
  0.18            0.00035857      -0.00035871    
  0.19            0.00037854      -0.00037848    
  0.2             0.00039854      -0.00039831    
  0.21            0.00041876      -0.00041854    
  0.22            0.00043879      -0.00043874    
  0.23            0.0004587       -0.00045875    
  0.24            0.00047834      -0.00047828    
  0.25            0.00049852      -0.00049832    
  0.26            0.0005189       -0.00051857    
  0.27            0.00053907      -0.00053893    
  0.28            0.00055891      -0.00055904    
  0.29            0.00057858      -0.00057875    
  0.3             0.00059871      -0.00059861    
  0.31            0.00061916      -0.00061882    
  0.32            0.00063947      -0.0006393     
  0.33            0.0006593       -0.00065941    
  0.34            0.00067903      -0.00067932    
  0.35            0.00069916      -0.00069916    
  0.36            0.00071972      -0.00071937    
  0.37            0.00074007      -0.00073967    
  0.38            0.00076024      -0.00075978    
  0.39            0.00078055      -0.00078045    
  0.4             0.00080046      -0.0008007     
  0.41            0.00082023      -0.00082046    
  0.42            0.00084048      -0.00084037    
  0.43            0.00086132      -0.00086085    
  0.44            0.00088183      -0.0008817     
  0.45            0.00090193      -0.00090215    
  0.46            0.00092163      -0.000922      
  0.47            0.0009419       -0.00094187    
  0.48            0.00096269      -0.00096223    
  0.49            0.00098352      -0.00098309    
  0.5             0.00100365      -0.00100309    
  0.51            0.00102419      -0.00102405    
  0.52            0.00104415      -0.00104449    
  0.53            0.00106413      -0.00106446    
  0.54            0.00108455      -0.00108501    
  0.55            0.00110486      -0.00110489    
  0.56            0.00112585      -0.00112537    
  0.57            0.0011465       -0.0011463     
  0.58            0.0011675       -0.0011663     
  0.59            0.0011881       -0.0011872     
  0.6             0.0012081       -0.0012079     
  0.61            0.0012282       -0.0012279     
  0.62            0.001249        -0.0012489     
  0.63            0.0012693       -0.0012687     
  0.64            0.0012904       -0.0012891     
  0.65            0.0013118       -0.0013104     
  0.66            0.0013322       -0.0013317     
  0.67            0.0013523       -0.0013522     
  0.68            0.0013724       -0.001372      
  0.69            0.0013934       -0.0013923     
  0.7             0.0014149       -0.0014135     
  0.71            0.0014358       -0.0014353     
  0.72            0.0014558       -0.0014555     
  0.73            0.001476        -0.0014758     
  0.74            0.0014967       -0.0014967     
  0.75            0.0015172       -0.0015167     
  0.76            0.0015387       -0.0015373     
  0.77            0.0015601       -0.001559      
  0.78            0.0015806       -0.0015803     
  0.79            0.0016007       -0.0016011     
  0.8             0.0016211       -0.0016207     
  0.81            0.0016425       -0.0016411     
  0.82            0.0016643       -0.0016628     
  0.83            0.0016853       -0.0016848     
  0.84            0.0017054       -0.0017052     
  0.85            0.0017255       -0.0017255     
  0.86            0.0017466       -0.0017469     
  0.87            0.0017673       -0.0017669     
  0.88            0.0017889       -0.0017876     
  0.89            0.0018107       -0.0018093     
  0.9             0.0018314       -0.0018312     
  0.91            0.0018513       -0.0018517     
  0.92            0.001872        -0.0018716     
  0.93            0.0018933       -0.0018921     
  0.94            0.0019155       -0.0019141     
  0.95            0.0019366       -0.0019359     
  0.96            0.0019567       -0.001957      
  0.97            0.0019766       -0.0019768     
  0.98            0.0019979       -0.0019983     
  0.99            0.0020187       -0.002018      
  1               0.0020407       -0.0020393     
END_DB

