! VERSION = 6.00
BEGIN_HEADER
 ICCAP_INPUTS
  VU1        V  E GROUND SMU2 0.1 CON        0
  VU2        V  S GROUND SMU3 0.1 CON        0
  V2         V  B GROUND SMU1 0.015 CON        0
  V1         V  C GROUND SMU4 0.015 LIN        1    -1         1          201  0.01      
 ICCAP_OUTPUTS
  I1         I  C GROUND SMU4 B
  I2         I  B GROUND SMU1 B
END_HEADER

BEGIN_DB
 ICCAP_VAR VU1        0              
 ICCAP_VAR VU2        0              
 ICCAP_VAR V2         0              

 #V1              I1              I2             
  -1              -0.00075081     0.0007509      
  -0.99           -0.00074281     0.0007433      
  -0.98           -0.00073527     0.00073536     
  -0.97           -0.0007281      0.00072787     
  -0.96           -0.00072097     0.0007208      
  -0.95           -0.00071342     0.00071307     
  -0.94           -0.00070605     0.00070604     
  -0.93           -0.00069818     0.00069855     
  -0.92           -0.00069027     0.00069064     
  -0.91           -0.00068286     0.00068285     
  -0.9            -0.00067578     0.00067547     
  -0.89           -0.0006685      0.00066839     
  -0.88           -0.00066082     0.00066105     
  -0.87           -0.00065284     0.0006533      
  -0.86           -0.00064529     0.0006454      
  -0.85           -0.00063809     0.00063789     
  -0.84           -0.00063095     0.00063078     
  -0.83           -0.00062337     0.00062356     
  -0.82           -0.00061549     0.00061592     
  -0.81           -0.00060778     0.00060796     
  -0.8            -0.00060047     0.00060036     
  -0.79           -0.00059336     0.0005931      
  -0.78           -0.00058592     0.00058601     
  -0.77           -0.0005781      0.00057847     
  -0.76           -0.00057029     0.00057053     
  -0.75           -0.00056282     0.00056322     
  -0.74           -0.00055532     0.00055541     
  -0.73           -0.00054808     0.00054792     
  -0.72           -0.00054085     0.00054074     
  -0.71           -0.00053327     0.00053304     
  -0.7            -0.00052589     0.00052593     
  -0.69           -0.00051813     0.00051841     
  -0.68           -0.00051029     0.00051061     
  -0.67           -0.00050282     0.00050285     
  -0.66           -0.00049569     0.00049547     
  -0.65           -0.00048834     0.0004883      
  -0.64           -0.00048069     0.00048089     
  -0.63           -0.00047283     0.00047317     
  -0.62           -0.0004653      0.00046541     
  -0.61           -0.000458       0.00045789     
  -0.6            -0.00045077     0.00045064     
  -0.59           -0.00044319     0.00044331     
  -0.58           -0.00043538     0.00043568     
  -0.57           -0.00042778     0.00042795     
  -0.56           -0.00042037     0.00042032     
  -0.55           -0.00041313     0.00041298     
  -0.54           -0.00040566     0.00040571     
  -0.53           -0.00039801     0.00039825     
  -0.52           -0.00039026     0.00039048     
  -0.51           -0.00038278     0.00038279     
  -0.5            -0.00037552     0.00037533     
  -0.49           -0.00036816     0.00036815     
  -0.48           -0.00036051     0.00036072     
  -0.47           -0.00035275     0.00035304     
  -0.46           -0.00034522     0.00034527     
  -0.45           -0.00033792     0.00033784     
  -0.44           -0.00033057     0.00033055     
  -0.43           -0.00032299     0.00032288     
  -0.42           -0.00031551     0.00031555     
  -0.41           -0.0003079      0.00030809     
  -0.4            -0.0003002      0.00030037     
  -0.39           -0.00029269     0.00029275     
  -0.38           -0.00028539     0.00028528     
  -0.37           -0.00027801     0.00027802     
  -0.36           -0.0002704      0.00027055     
  -0.35           -0.00026268     0.00026289     
  -0.34           -0.00025514     0.00025523     
  -0.33           -0.00024774     0.00024768     
  -0.32           -0.0002404      0.0002404      
  -0.31           -0.00023283     0.00023294     
  -0.3            -0.00022517     0.00022537     
  -0.29           -0.00021756     0.00021768     
  -0.28           -0.00021019     0.00021021     
  -0.27           -0.00020279     0.00020276     
  -0.26           -0.00019528     0.00019535     
  -0.25           -0.00018765     0.0001878      
  -0.24           -0.00018008     0.00018016     
  -0.23           -0.0001726      0.00017276     
  -0.22           -0.00016506     0.00016512     
  -0.21           -0.0001576      0.00015762     
  -0.2            -0.00015021     0.00015026     
  -0.19           -0.00014267     0.00014277     
  -0.18           -0.00013505     0.00013519     
  -0.17           -0.00012749     0.0001276      
  -0.16           -0.00012007     0.00012012     
  -0.15           -0.00011261     0.00011264     
  -0.14           -0.00010508     0.00010516     
  -0.13           -9.753e-005     9.7478e-005    
  -0.12           -9.0008e-005    9.006e-005     
  -0.11           -8.2492e-005    8.2491e-005    
  -0.1            -7.4996e-005    7.4971e-005    
  -0.09           -6.7514e-005    6.7497e-005    
  -0.08           -5.9975e-005    5.9991e-005    
  -0.07           -5.2477e-005    5.2517e-005    
  -0.06           -4.4933e-005    4.4933e-005    
  -0.05           -3.7433e-005    3.7452e-005    
  -0.04           -2.9888e-005    2.9907e-005    
  -0.03           -2.2435e-005    2.244e-005     
  -0.02           -1.4917e-005    1.4921e-005    
  -0.01           -7.4154e-006    7.3988e-006    
  0               6.3673e-008     -6.5593e-008   
  0.01            7.599e-006      -7.5932e-006   
  0.02            1.5121e-005     -1.5121e-005   
  0.03            2.2571e-005     -2.2592e-005   
  0.04            3.011e-005      -3.0096e-005   
  0.05            3.7635e-005     -3.7609e-005   
  0.06            4.5194e-005     -4.5153e-005   
  0.07            5.2667e-005     -5.2652e-005   
  0.08            6.0156e-005     -6.0185e-005   
  0.09            6.7638e-005     -6.7669e-005   
  0.1             7.5147e-005     -7.5151e-005   
  0.11            8.2653e-005     -8.2608e-005   
  0.12            9.0225e-005     -9.0177e-005   
  0.13            9.7751e-005     -9.7744e-005   
  0.14            0.00010529      -0.00010527    
  0.15            0.00011283      -0.00011272    
  0.16            0.00012037      -0.00012027    
  0.17            0.00012786      -0.00012781    
  0.18            0.00013527      -0.00013531    
  0.19            0.0001428       -0.00014276    
  0.2             0.00015034      -0.0001502     
  0.21            0.00015795      -0.00015781    
  0.22            0.00016546      -0.00016541    
  0.23            0.00017291      -0.00017292    
  0.24            0.0001803       -0.00018025    
  0.25            0.00018787      -0.00018774    
  0.26            0.00019553      -0.00019537    
  0.27            0.0002031       -0.00020301    
  0.28            0.00021051      -0.00021054    
  0.29            0.00021786      -0.00021792    
  0.3             0.00022538      -0.00022547    
  0.31            0.00023288      -0.00023283    
  0.32            0.00024053      -0.00024034    
  0.33            0.00024814      -0.00024796    
  0.34            0.00025563      -0.0002556     
  0.35            0.00026302      -0.00026307    
  0.36            0.00027043      -0.00027042    
  0.37            0.00027799      -0.00027784    
  0.38            0.00028571      -0.00028547    
  0.39            0.00029326      -0.00029315    
  0.4             0.0003006       -0.00030069    
  0.41            0.00030793      -0.00030799    
  0.42            0.00031547      -0.00031559    
  0.43            0.00032296      -0.0003229     
  0.44            0.00033065      -0.00033043    
  0.45            0.00033836      -0.00033812    
  0.46            0.00034582      -0.00034577    
  0.47            0.0003531       -0.00035324    
  0.48            0.0003605       -0.00036047    
  0.49            0.00036812      -0.00036793    
  0.5             0.00037584      -0.00037556    
  0.51            0.00038342      -0.00038332    
  0.52            0.00039071      -0.00039084    
  0.53            0.00039805      -0.00039813    
  0.54            0.00040556      -0.00040573    
  0.55            0.00041301      -0.00041298    
  0.56            0.00042074      -0.00042049    
  0.57            0.00042848      -0.00042823    
  0.58            0.00043599      -0.00043563    
  0.59            0.00044352      -0.00044339    
  0.6             0.00045088      -0.00045097    
  0.61            0.00045811      -0.00045826    
  0.62            0.00046561      -0.00046553    
  0.63            0.00047334      -0.00047303    
  0.64            0.00048106      -0.00048086    
  0.65            0.00048856      -0.00048822    
  0.66            0.00049611      -0.00049604    
  0.67            0.0005033       -0.00050348    
  0.68            0.00051058      -0.00051071    
  0.69            0.00051814      -0.00051837    
  0.7             0.00052558      -0.00052552    
  0.71            0.00053337      -0.00053307    
  0.72            0.00054112      -0.00054082    
  0.73            0.0005486       -0.00054817    
  0.74            0.00055622      -0.00055606    
  0.75            0.00056346      -0.00056364    
  0.76            0.00057058      -0.00057079    
  0.77            0.00057814      -0.000578      
  0.78            0.00058595      -0.0005856     
  0.79            0.00059376      -0.00059356    
  0.8             0.00060106      -0.00060116    
  0.81            0.00060811      -0.00060843    
  0.82            0.00061555      -0.00061554    
  0.83            0.00062338      -0.00062305    
  0.84            0.00063121      -0.00063085    
  0.85            0.00063867      -0.00063868    
  0.86            0.00064582      -0.00064609    
  0.87            0.00065307      -0.00065313    
  0.88            0.00066073      -0.00066045    
  0.89            0.0006687       -0.00066824    
  0.9             0.00067627      -0.00067616    
  0.91            0.00068345      -0.00068369    
  0.92            0.00069058      -0.00069082    
  0.93            0.00069812      -0.00069846    
  0.94            0.00070552      -0.00070554    
  0.95            0.00071341      -0.00071303    
  0.96            0.00072129      -0.00072091    
  0.97            0.00072871      -0.00072872    
  0.98            0.00073576      -0.00073611    
  0.99            0.00074302      -0.00074306    
  1               0.00075075      -0.00075044    
END_DB

