! VERSION = 6.00
BEGIN_HEADER
 ICCAP_INPUTS
  VU1        V  E GROUND SMU2 0.1 CON        0
  VU2        V  S GROUND SMU3 0.1 CON        0
  V2         V  B GROUND SMU1 0.015 CON        0
  V1         V  C GROUND SMU4 0.015 LIN        1    -1         1          201  0.01      
 ICCAP_OUTPUTS
  I1         I  C GROUND SMU4 B
  I2         I  B GROUND SMU1 B
END_HEADER

BEGIN_DB
 ICCAP_VAR VU1        0              
 ICCAP_VAR VU2        0              
 ICCAP_VAR V2         0              

 #V1              I1              I2             
  -1              -0.00012599     0.00012606     
  -0.99           -0.00012469     0.00012459     
  -0.98           -0.00012347     0.00012353     
  -0.97           -0.00012207     0.00012226     
  -0.96           -0.00012061     0.00012083     
  -0.95           -0.00011939     0.00011943     
  -0.94           -0.00011833     0.00011825     
  -0.93           -0.00011716     0.00011722     
  -0.92           -0.00011581     0.00011598     
  -0.91           -0.00011436     0.00011461     
  -0.9            -0.00011308     0.00011317     
  -0.89           -0.00011196     0.00011192     
  -0.88           -0.00011085     0.00011085     
  -0.87           -0.00010956     0.00010948     
  -0.86           -0.00010835     0.00010842     
  -0.85           -0.00010694     0.00010712     
  -0.84           -0.00010554     0.00010573     
  -0.83           -0.0001043      0.00010435     
  -0.82           -0.00010321     0.00010316     
  -0.81           -0.00010202     0.00010208     
  -0.8            -0.00010068     0.00010086     
  -0.79           -9.9315e-005    9.9376e-005    
  -0.78           -9.8007e-005    9.8061e-005    
  -0.77           -9.6833e-005    9.6764e-005    
  -0.76           -9.5724e-005    9.5604e-005    
  -0.75           -9.4501e-005    9.4482e-005    
  -0.74           -9.3163e-005    9.3253e-005    
  -0.73           -9.175e-005     9.1883e-005    
  -0.72           -9.0469e-005    9.0498e-005    
  -0.71           -8.9315e-005    8.9233e-005    
  -0.7            -8.8194e-005    8.8094e-005    
  -0.69           -8.6935e-005    8.6943e-005    
  -0.68           -8.5569e-005    8.5669e-005    
  -0.67           -8.4196e-005    8.4297e-005    
  -0.66           -8.2955e-005    8.2953e-005    
  -0.65           -8.18e-005      8.1709e-005    
  -0.64           -8.0632e-005    8.0575e-005    
  -0.63           -7.9354e-005    7.9384e-005    
  -0.62           -7.7982e-005    7.8101e-005    
  -0.61           -7.6651e-005    7.6718e-005    
  -0.6            -7.5418e-005    7.5534e-005    
  -0.59           -7.4132e-005    7.4157e-005    
  -0.58           -7.2941e-005    7.2887e-005    
  -0.57           -7.1801e-005    7.1717e-005    
  -0.56           -7.0548e-005    7.0556e-005    
  -0.55           -6.921e-005     6.929e-005     
  -0.54           -6.7855e-005    6.7942e-005    
  -0.53           -6.6603e-005    6.6612e-005    
  -0.52           -6.5427e-005    6.5364e-005    
  -0.51           -6.4246e-005    6.4194e-005    
  -0.5            -6.2976e-005    6.2999e-005    
  -0.49           -6.1638e-005    6.1726e-005    
  -0.48           -6.0314e-005    6.0369e-005    
  -0.47           -5.9078e-005    5.9168e-005    
  -0.46           -5.7785e-005    5.7816e-005    
  -0.45           -5.659e-005     5.6548e-005    
  -0.44           -5.5421e-005    5.5352e-005    
  -0.43           -5.4174e-005    5.4175e-005    
  -0.42           -5.2858e-005    5.2913e-005    
  -0.41           -5.1525e-005    5.1599e-005    
  -0.4            -5.0258e-005    5.0272e-005    
  -0.39           -4.9054e-005    4.9013e-005    
  -0.38           -4.7861e-005    4.7814e-005    
  -0.37           -4.6608e-005    4.6621e-005    
  -0.36           -4.5295e-005    4.5352e-005    
  -0.35           -4.3975e-005    4.4026e-005    
  -0.34           -4.2723e-005    4.272e-005     
  -0.33           -4.1523e-005    4.1475e-005    
  -0.32           -4.0314e-005    4.0294e-005    
  -0.31           -3.9033e-005    3.899e-005     
  -0.3            -3.7793e-005    3.7789e-005    
  -0.29           -3.6498e-005    3.6535e-005    
  -0.28           -3.519e-005     3.5246e-005    
  -0.27           -3.3918e-005    3.3933e-005    
  -0.26           -3.269e-005     3.2672e-005    
  -0.25           -3.1481e-005    3.145e-005     
  -0.24           -3.0231e-005    3.0238e-005    
  -0.23           -2.8936e-005    2.8974e-005    
  -0.22           -2.7635e-005    2.7673e-005    
  -0.21           -2.6377e-005    2.6383e-005    
  -0.2            -2.5161e-005    2.514e-005     
  -0.19           -2.3928e-005    2.3922e-005    
  -0.18           -2.266e-005     2.2676e-005    
  -0.17           -2.1363e-005    2.1403e-005    
  -0.16           -2.0096e-005    2.0117e-005    
  -0.15           -1.8846e-005    1.8878e-005    
  -0.14           -1.7578e-005    1.7591e-005    
  -0.13           -1.6333e-005    1.6329e-005    
  -0.12           -1.5106e-005    1.5097e-005    
  -0.11           -1.3845e-005    1.3854e-005    
  -0.1            -1.257e-005     1.2587e-005    
  -0.09           -1.1291e-005    1.1311e-005    
  -0.08           -1.0033e-005    1.0038e-005    
  -0.07           -8.7829e-006    8.8102e-006    
  -0.06           -7.5299e-006    7.5284e-006    
  -0.05           -6.2822e-006    6.2774e-006    
  -0.04           -5.0189e-006    5.021e-006     
  -0.03           -3.7575e-006    3.7646e-006    
  -0.02           -2.4961e-006    2.4985e-006    
  -0.01           -1.2356e-006    1.2385e-006    
  0               1.3093e-008     -1.1197e-008   
  0.01            1.2724e-006     -1.2703e-006   
  0.02            2.5364e-006     -2.5289e-006   
  0.03            3.7899e-006     -3.782e-006    
  0.04            5.0537e-006     -5.0425e-006   
  0.05            6.3173e-006     -6.3134e-006   
  0.06            7.5685e-006     -7.5797e-006   
  0.07            8.8101e-006     -8.8251e-006   
  0.08            1.00695e-005    -1.00869e-005  
  0.09            1.13275e-005    -1.13299e-005  
  0.1             1.2592e-005     -1.2616e-005   
  0.11            1.3858e-005     -1.3834e-005   
  0.12            1.5139e-005     -1.5108e-005   
  0.13            1.6408e-005     -1.6392e-005   
  0.14            1.765e-005      -1.7661e-005   
  0.15            1.8883e-005     -1.8901e-005   
  0.16            2.013e-005      -2.0126e-005   
  0.17            2.1419e-005     -2.1384e-005   
  0.18            2.271e-005      -2.2673e-005   
  0.19            2.3965e-005     -2.3964e-005   
  0.2             2.5186e-005     -2.5213e-005   
  0.21            2.6417e-005     -2.6446e-005   
  0.22            2.7689e-005     -2.767e-005    
  0.23            2.8987e-005     -2.8942e-005   
  0.24            3.027e-005      -3.0241e-005   
  0.25            3.1526e-005     -3.1468e-005   
  0.26            3.2797e-005     -3.2783e-005   
  0.27            3.4025e-005     -3.4054e-005   
  0.28            3.5234e-005     -3.5275e-005   
  0.29            3.6481e-005     -3.6481e-005   
  0.3             3.779e-005      -3.7737e-005   
  0.31            3.9101e-005     -3.9048e-005   
  0.32            4.0361e-005     -4.0358e-005   
  0.33            4.156e-005      -4.1604e-005   
  0.34            4.2772e-005     -4.2814e-005   
  0.35            4.4046e-005     -4.4027e-005   
  0.36            4.5362e-005     -4.5292e-005   
  0.37            4.6665e-005     -4.6617e-005   
  0.38            4.7916e-005     -4.7834e-005   
  0.39            4.9195e-005     -4.9174e-005   
  0.4             5.0405e-005     -5.0447e-005   
  0.41            5.1578e-005     -5.1643e-005   
  0.42            5.283e-005      -5.2833e-005   
  0.43            5.4155e-005     -5.409e-005    
  0.44            5.5488e-005     -5.5417e-005   
  0.45            5.6759e-005     -5.675e-005    
  0.46            5.7941e-005     -5.8002e-005   
  0.47            5.9129e-005     -5.9189e-005   
  0.48            6.0396e-005     -6.038e-005    
  0.49            6.1741e-005     -6.165e-005    
  0.5             6.3058e-005     -6.2988e-005   
  0.51            6.4303e-005     -6.4197e-005   
  0.52            6.5596e-005     -6.5567e-005   
  0.53            6.6799e-005     -6.6851e-005   
  0.54            6.7943e-005     -6.8037e-005   
  0.55            6.9184e-005     -6.9194e-005   
  0.56            7.0527e-005     -7.0445e-005   
  0.57            7.1888e-005     -7.1792e-005   
  0.58            7.3162e-005     -7.3152e-005   
  0.59            7.4327e-005     -7.4398e-005   
  0.6             7.5488e-005     -7.557e-005    
  0.61            7.6759e-005     -7.6743e-005   
  0.62            7.8121e-005     -7.8018e-005   
  0.63            7.9463e-005     -7.9381e-005   
  0.64            8.0707e-005     -8.0727e-005   
  0.65            8.1856e-005     -8.1956e-005   
  0.66            8.303e-005      -8.3091e-005   
  0.67            8.4304e-005     -8.4423e-005   
  0.68            8.5542e-005     -8.5556e-005   
  0.69            8.6898e-005     -8.6801e-005   
  0.7             8.829e-005      -8.8164e-005   
  0.71            8.9563e-005     -8.9553e-005   
  0.72            9.071e-005      -9.0808e-005   
  0.73            9.1853e-005     -9.1951e-005   
  0.74            9.3119e-005     -9.3107e-005   
  0.75            9.4505e-005     -9.4382e-005   
  0.76            9.5869e-005     -9.576e-005    
  0.77            9.7109e-005     -9.7128e-005   
  0.78            9.824e-005      -9.8361e-005   
  0.79            9.9396e-005     -9.9471e-005   
  0.8             0.0001009       -0.000100819   
  0.81            0.00010222      -0.00010201    
  0.82            0.00010351      -0.00010341    
  0.83            0.00010461      -0.00010465    
  0.84            0.00010572      -0.00010574    
  0.85            0.00010702      -0.0001071     
  0.86            0.00010825      -0.00010819    
  0.87            0.00010967      -0.00010945    
  0.88            0.00011106      -0.00011087    
  0.89            0.0001123       -0.00011203    
  0.9             0.00011359      -0.00011347    
  0.91            0.00011474      -0.00011479    
  0.92            0.00011583      -0.00011588    
  0.93            0.0001171       -0.00011699    
  0.94            0.00011856      -0.0001183     
  0.95            0.00011993      -0.00011978    
  0.96            0.00012111      -0.00012109    
  0.97            0.00012214      -0.00012225    
  0.98            0.00012336      -0.00012333    
  0.99            0.0001248       -0.00012458    
  1               0.00012623      -0.00012601    
END_DB

