! VERSION = 6.00
BEGIN_HEADER
 ICCAP_INPUTS
  VU1        V  E GROUND SMU2 0.1 CON        0
  VU2        V  S GROUND SMU3 0.1 CON        0
  V2         V  B GROUND SMU1 0.015 CON        0
  V1         V  C GROUND SMU4 0.015 LIN        1    -1         1          201  0.01      
 ICCAP_OUTPUTS
  I1         I  C GROUND SMU4 B
  I2         I  B GROUND SMU1 B
END_HEADER

BEGIN_DB
 ICCAP_VAR VU1        0              
 ICCAP_VAR VU2        0              
 ICCAP_VAR V2         0              

 #V1              I1              I2             
  -1              -0.00015136     0.00015143     
  -0.99           -0.00014976     0.00014994     
  -0.98           -0.00014811     0.00014828     
  -0.97           -0.00014661     0.00014667     
  -0.96           -0.00014522     0.0001452      
  -0.95           -0.00014378     0.00014382     
  -0.94           -0.00014223     0.00014235     
  -0.93           -0.00014058     0.00014075     
  -0.92           -0.00013903     0.00013913     
  -0.91           -0.00013759     0.00013764     
  -0.9            -0.0001362      0.00013622     
  -0.89           -0.00013468     0.00013477     
  -0.88           -0.00013307     0.00013323     
  -0.87           -0.00013147     0.00013161     
  -0.86           -0.00013001     0.00013005     
  -0.85           -0.00012861     0.00012859     
  -0.84           -0.00012713     0.00012722     
  -0.83           -0.00012552     0.00012568     
  -0.82           -0.00012395     0.00012409     
  -0.81           -0.00012243     0.0001225      
  -0.8            -0.00012101     0.00012103     
  -0.79           -0.00011954     0.0001196      
  -0.78           -0.00011801     0.00011812     
  -0.77           -0.00011639     0.00011655     
  -0.76           -0.00011485     0.00011495     
  -0.75           -0.00011341     0.00011344     
  -0.74           -0.00011198     0.00011202     
  -0.73           -0.00011045     0.00011048     
  -0.72           -0.00010895     0.00010903     
  -0.71           -0.00010737     0.00010751     
  -0.7            -0.00010578     0.00010594     
  -0.69           -0.00010429     0.00010435     
  -0.68           -0.00010285     0.00010286     
  -0.67           -0.00010138     0.00010144     
  -0.66           -9.9889e-005    9.9777e-005    
  -0.65           -9.8294e-005    9.8368e-005    
  -0.64           -9.674e-005     9.6772e-005    
  -0.63           -9.526e-005     9.5235e-005    
  -0.62           -9.3838e-005    9.3777e-005    
  -0.61           -9.234e-005     9.2337e-005    
  -0.6            -9.0782e-005    9.0832e-005    
  -0.59           -8.9195e-005    8.9264e-005    
  -0.58           -8.7667e-005    8.7684e-005    
  -0.57           -8.6213e-005    8.6183e-005    
  -0.56           -8.4759e-005    8.472e-005     
  -0.55           -8.3243e-005    8.3256e-005    
  -0.54           -8.1679e-005    8.1733e-005    
  -0.53           -8.0123e-005    8.017e-005     
  -0.52           -7.8611e-005    7.8614e-005    
  -0.51           -7.7154e-005    7.7112e-005    
  -0.5            -7.5678e-005    7.5661e-005    
  -0.49           -7.4157e-005    7.4115e-005    
  -0.48           -7.2658e-005    7.2657e-005    
  -0.47           -7.1112e-005    7.1148e-005    
  -0.46           -6.9538e-005    6.9591e-005    
  -0.45           -6.8022e-005    6.804e-005     
  -0.44           -6.6544e-005    6.6523e-005    
  -0.43           -6.5078e-005    6.5049e-005    
  -0.42           -6.3561e-005    6.3571e-005    
  -0.41           -6.2024e-005    6.2062e-005    
  -0.4            -6.0465e-005    6.0508e-005    
  -0.39           -5.8951e-005    5.8957e-005    
  -0.38           -5.7475e-005    5.7449e-005    
  -0.37           -5.6005e-005    5.6e-005       
  -0.36           -5.4484e-005    5.45e-005      
  -0.35           -5.2922e-005    5.2968e-005    
  -0.34           -5.1384e-005    5.1411e-005    
  -0.33           -4.988e-005     4.9918e-005    
  -0.32           -4.8366e-005    4.8381e-005    
  -0.31           -4.6874e-005    4.6864e-005    
  -0.3            -4.5396e-005    4.5375e-005    
  -0.29           -4.3878e-005    4.3892e-005    
  -0.28           -4.2353e-005    4.2384e-005    
  -0.27           -4.0807e-005    4.0835e-005    
  -0.26           -3.9293e-005    3.9298e-005    
  -0.25           -3.7801e-005    3.7788e-005    
  -0.24           -3.632e-005     3.6322e-005    
  -0.23           -3.4802e-005    3.4814e-005    
  -0.22           -3.3256e-005    3.3288e-005    
  -0.21           -3.1727e-005    3.1743e-005    
  -0.2            -3.0232e-005    3.0259e-005    
  -0.19           -2.8708e-005    2.8721e-005    
  -0.18           -2.7203e-005    2.7204e-005    
  -0.17           -2.5711e-005    2.5705e-005    
  -0.16           -2.421e-005     2.4214e-005    
  -0.15           -2.2678e-005    2.2696e-005    
  -0.14           -2.1147e-005    2.1166e-005    
  -0.13           -1.9633e-005    1.9639e-005    
  -0.12           -1.8136e-005    1.8136e-005    
  -0.11           -1.6633e-005    1.664e-005     
  -0.1            -1.5115e-005    1.5128e-005    
  -0.09           -1.359e-005     1.3604e-005    
  -0.08           -1.2068e-005    1.2071e-005    
  -0.07           -1.0563e-005    1.0568e-005    
  -0.06           -9.052e-006     9.0657e-006    
  -0.05           -7.5396e-006    7.5401e-006    
  -0.04           -6.0286e-006    6.0364e-006    
  -0.03           -4.5213e-006    4.5233e-006    
  -0.02           -3.0046e-006    3.0082e-006    
  -0.01           -1.4901e-006    1.4884e-006    
  0               1.5083e-008     -1.8372e-008   
  0.01            1.5336e-006     -1.5358e-006   
  0.02            3.0528e-006     -3.0445e-006   
  0.03            4.557e-006      -4.5538e-006   
  0.04            6.0666e-006     -6.0729e-006   
  0.05            7.5793e-006     -7.5888e-006   
  0.06            9.0922e-006     -9.1042e-006   
  0.07            1.05979e-005    -1.05975e-005  
  0.08            1.2115e-005     -1.2127e-005   
  0.09            1.3645e-005     -1.3622e-005   
  0.1             1.5166e-005     -1.5144e-005   
  0.11            1.6669e-005     -1.6663e-005   
  0.12            1.8174e-005     -1.818e-005    
  0.13            1.9678e-005     -1.9689e-005   
  0.14            2.1198e-005     -2.1186e-005   
  0.15            2.2725e-005     -2.2704e-005   
  0.16            2.4244e-005     -2.422e-005    
  0.17            2.5759e-005     -2.5728e-005   
  0.18            2.7281e-005     -2.7269e-005   
  0.19            2.8781e-005     -2.8791e-005   
  0.2             3.0261e-005     -3.0279e-005   
  0.21            3.1776e-005     -3.1769e-005   
  0.22            3.3311e-005     -3.3279e-005   
  0.23            3.4852e-005     -3.4819e-005   
  0.24            3.6357e-005     -3.6348e-005   
  0.25            3.7849e-005     -3.7863e-005   
  0.26            3.9338e-005     -3.9356e-005   
  0.27            4.086e-005      -4.0848e-005   
  0.28            4.2406e-005     -4.2367e-005   
  0.29            4.3931e-005     -4.3896e-005   
  0.3             4.5444e-005     -4.5395e-005   
  0.31            4.6969e-005     -4.6956e-005   
  0.32            4.8463e-005     -4.8478e-005   
  0.33            4.9924e-005     -4.9958e-005   
  0.34            5.1434e-005     -5.1434e-005   
  0.35            5.2979e-005     -5.2941e-005   
  0.36            5.4536e-005     -5.4489e-005   
  0.37            5.6047e-005     -5.6036e-005   
  0.38            5.7523e-005     -5.7554e-005   
  0.39            5.9e-005        -5.9031e-005   
  0.4             6.0517e-005     -6.0506e-005   
  0.41            6.2064e-005     -6.2014e-005   
  0.42            6.3617e-005     -6.3568e-005   
  0.43            6.5125e-005     -6.5125e-005   
  0.44            6.6596e-005     -6.6635e-005   
  0.45            6.8074e-005     -6.8095e-005   
  0.46            6.9584e-005     -6.9635e-005   
  0.47            7.1092e-005     -7.1093e-005   
  0.48            7.2645e-005     -7.2596e-005   
  0.49            7.4218e-005     -7.4158e-005   
  0.5             7.573e-005      -7.5716e-005   
  0.51            7.7201e-005     -7.724e-005    
  0.52            7.8659e-005     -7.8705e-005   
  0.53            8.0178e-005     -8.0166e-005   
  0.54            8.1738e-005     -8.1678e-005   
  0.55            8.3301e-005     -8.3244e-005   
  0.56            8.481e-005      -8.4816e-005   
  0.57            8.6265e-005     -8.6317e-005   
  0.58            8.7733e-005     -8.7765e-005   
  0.59            8.9248e-005     -8.9314e-005   
  0.6             9.0748e-005     -9.0756e-005   
  0.61            9.2317e-005     -9.2258e-005   
  0.62            9.3904e-005     -9.3831e-005   
  0.63            9.5417e-005     -9.5404e-005   
  0.64            9.6873e-005     -9.6924e-005   
  0.65            9.8318e-005     -9.8379e-005   
  0.66            9.9835e-005     -9.9826e-005   
  0.67            0.00010145      -0.00010134    
  0.68            0.00010298      -0.00010294    
  0.69            0.0001044       -0.00010437    
  0.7             0.00010595      -0.00010583    
  0.71            0.00010757      -0.00010741    
  0.72            0.00010911      -0.000109      
  0.73            0.00011056      -0.00011053    
  0.74            0.00011197      -0.00011196    
  0.75            0.0001135       -0.0001134     
  0.76            0.0001151       -0.00011493    
  0.77            0.00011666      -0.00011655    
  0.78            0.00011813      -0.00011809    
  0.79            0.00011954      -0.00011954    
  0.8             0.00012104      -0.00012097    
  0.81            0.00012265      -0.00012248    
  0.82            0.00012425      -0.00012407    
  0.83            0.00012573      -0.00012567    
  0.84            0.00012713      -0.00012716    
  0.85            0.00012859      -0.00012855    
  0.86            0.00013017      -0.00013002    
  0.87            0.0001318       -0.00013163    
  0.88            0.00013333      -0.00013323    
  0.89            0.00013474      -0.00013475    
  0.9             0.00013618      -0.00013616    
  0.91            0.00013769      -0.00013772    
  0.92            0.00013919      -0.00013911    
  0.93            0.00014077      -0.00014062    
  0.94            0.00014242      -0.00014225    
  0.95            0.0001439       -0.00014385    
  0.96            0.0001453       -0.00014533    
  0.97            0.00014675      -0.00014671    
  0.98            0.00014831      -0.00014817    
  0.99            0.00014994      -0.00014976    
  1               0.00015151      -0.00015141    
END_DB

