! VERSION = 6.00
BEGIN_HEADER
 ICCAP_INPUTS
  VU1        V  E GROUND SMU2 0.1 CON        0
  VU2        V  S GROUND SMU3 0.1 CON        0
  V2         V  B GROUND SMU1 0.015 CON        0
  V1         V  C GROUND SMU4 0.015 LIN        1    -1         1          201  0.01      
 ICCAP_OUTPUTS
  I1         I  C GROUND SMU4 B
  I2         I  B GROUND SMU1 B
END_HEADER

BEGIN_DB
 ICCAP_VAR VU1        0              
 ICCAP_VAR VU2        0              
 ICCAP_VAR V2         0              

 #V1              I1              I2             
  -1              -0.0025231      0.0025244      
  -0.99           -0.0024978      0.0024985      
  -0.98           -0.0024736      0.0024736      
  -0.97           -0.0024498      0.0024502      
  -0.96           -0.0024244      0.0024242      
  -0.95           -0.0023997      0.0024002      
  -0.94           -0.0023735      0.0023751      
  -0.93           -0.0023474      0.002349       
  -0.92           -0.0023223      0.002323       
  -0.91           -0.0022984      0.0022984      
  -0.9            -0.0022734      0.0022742      
  -0.89           -0.0022478      0.0022492      
  -0.88           -0.0022217      0.0022233      
  -0.87           -0.0021962      0.002197       
  -0.86           -0.002172       0.002172       
  -0.85           -0.0021475      0.0021479      
  -0.84           -0.002122       0.002122       
  -0.83           -0.0020966      0.0020974      
  -0.82           -0.0020711      0.0020724      
  -0.81           -0.002045       0.0020461      
  -0.8            -0.0020197      0.0020205      
  -0.79           -0.0019955      0.0019955      
  -0.78           -0.0019708      0.0019715      
  -0.77           -0.001945       0.0019464      
  -0.76           -0.0019188      0.0019204      
  -0.75           -0.0018937      0.0018944      
  -0.74           -0.0018694      0.0018696      
  -0.73           -0.0018445      0.0018448      
  -0.72           -0.001819       0.0018196      
  -0.71           -0.0017938      0.0017947      
  -0.7            -0.0017682      0.0017697      
  -0.69           -0.0017423      0.0017437      
  -0.68           -0.0017173      0.0017179      
  -0.67           -0.0016924      0.0016929      
  -0.66           -0.0016678      0.0016685      
  -0.65           -0.0016421      0.0016431      
  -0.64           -0.0016161      0.0016174      
  -0.63           -0.0015905      0.0015915      
  -0.62           -0.001566       0.0015664      
  -0.61           -0.0015413      0.0015419      
  -0.6            -0.0015156      0.001516       
  -0.59           -0.0014905      0.0014914      
  -0.58           -0.001465       0.0014659      
  -0.57           -0.0014393      0.0014404      
  -0.56           -0.0014141      0.0014149      
  -0.55           -0.0013895      0.0013895      
  -0.54           -0.0013642      0.0013649      
  -0.53           -0.001339       0.00134        
  -0.52           -0.0013129      0.0013144      
  -0.51           -0.0012878      0.0012885      
  -0.5            -0.0012628      0.0012633      
  -0.49           -0.001238       0.0012387      
  -0.48           -0.0012127      0.0012131      
  -0.47           -0.0011875      0.0011883      
  -0.46           -0.001162       0.0011628      
  -0.45           -0.0011363      0.0011374      
  -0.44           -0.0011111      0.0011118      
  -0.43           -0.0010863      0.0010865      
  -0.42           -0.0010611      0.0010617      
  -0.41           -0.0010356      0.0010368      
  -0.4            -0.00101        0.0010114      
  -0.39           -0.00098519     0.00098571     
  -0.38           -0.00095967     0.00095984     
  -0.37           -0.0009347      0.00093465     
  -0.36           -0.0009098      0.00090961     
  -0.35           -0.00088446     0.00088458     
  -0.34           -0.0008589      0.00085922     
  -0.33           -0.00083331     0.0008335      
  -0.32           -0.00080821     0.00080861     
  -0.31           -0.00078289     0.00078293     
  -0.3            -0.00075782     0.00075768     
  -0.29           -0.00073275     0.00073281     
  -0.28           -0.00070754     0.00070739     
  -0.27           -0.00068225     0.00068237     
  -0.26           -0.00065678     0.00065698     
  -0.25           -0.00063118     0.00063144     
  -0.24           -0.00060612     0.00060613     
  -0.23           -0.00058106     0.00058091     
  -0.22           -0.00055584     0.00055586     
  -0.21           -0.00053035     0.00053056     
  -0.2            -0.00050503     0.0005053      
  -0.19           -0.00047974     0.00047979     
  -0.18           -0.00045452     0.0004545      
  -0.17           -0.00042935     0.00042943     
  -0.16           -0.00040413     0.00040411     
  -0.15           -0.00037886     0.00037897     
  -0.14           -0.00035343     0.00035363     
  -0.13           -0.00032801     0.00032814     
  -0.12           -0.00030293     0.00030299     
  -0.11           -0.00027775     0.00027768     
  -0.1            -0.00025244     0.00025246     
  -0.09           -0.00022707     0.00022721     
  -0.08           -0.00020164     0.00020176     
  -0.07           -0.00017656     0.0001766      
  -0.06           -0.00015126     0.0001513      
  -0.05           -0.00012597     0.00012616     
  -0.04           -0.00010059     0.00010067     
  -0.03           -7.5478e-005    7.5456e-005    
  -0.02           -5.0146e-005    5.0166e-005    
  -0.01           -2.4857e-005    2.4847e-005    
  0               -1.0735e-007    8.3581e-007    
  0.01            2.5587e-005     -2.5566e-005   
  0.02            5.0921e-005     -5.0875e-005   
  0.03            7.5888e-005     -7.5932e-005   
  0.04            0.00010154      -0.000101218   
  0.05            0.00012674      -0.00012664    
  0.06            0.00015213      -0.00015198    
  0.07            0.00017719      -0.00017712    
  0.08            0.00020243      -0.00020239    
  0.09            0.00022773      -0.00022774    
  0.1             0.00025302      -0.00025299    
  0.11            0.00027829      -0.00027807    
  0.12            0.00030369      -0.00030344    
  0.13            0.00032904      -0.0003288     
  0.14            0.0003544       -0.00035426    
  0.15            0.00037955      -0.00037959    
  0.16            0.00040453      -0.00040465    
  0.17            0.00042987      -0.00042975    
  0.18            0.0004554       -0.00045512    
  0.19            0.00048074      -0.00048068    
  0.2             0.00050584      -0.00050588    
  0.21            0.00053093      -0.00053104    
  0.22            0.0005562       -0.00055613    
  0.23            0.00058175      -0.00058146    
  0.24            0.00060696      -0.00060675    
  0.25            0.00063231      -0.000632      
  0.26            0.0006577       -0.00065755    
  0.27            0.00068278      -0.00068289    
  0.28            0.00070785      -0.00070806    
  0.29            0.00073302      -0.0007332     
  0.3             0.00075822      -0.00075823    
  0.31            0.00078384      -0.00078346    
  0.32            0.00080938      -0.00080901    
  0.33            0.00083447      -0.00083444    
  0.34            0.00085938      -0.00085957    
  0.35            0.00088448      -0.0008845     
  0.36            0.00090995      -0.00090968    
  0.37            0.00093557      -0.00093507    
  0.38            0.00096088      -0.00096077    
  0.39            0.00098592      -0.00098611    
  0.4             0.00101093      -0.00101109    
  0.41            0.00103608      -0.00103639    
  0.42            0.0010613       -0.00106126    
  0.43            0.00108696      -0.00108652    
  0.44            0.00111265      -0.00111224    
  0.45            0.00113793      -0.00113792    
  0.46            0.0011635       -0.0011621     
  0.47            0.0011886       -0.001188      
  0.48            0.001213        -0.001213      
  0.49            0.0012387       -0.0012377     
  0.5             0.0012642       -0.0012631     
  0.51            0.00129         -0.001289      
  0.52            0.0013151       -0.0013143     
  0.53            0.0013398       -0.0013393     
  0.54            0.0013647       -0.001364      
  0.55            0.0013906       -0.0013893     
  0.56            0.0014164       -0.0014151     
  0.57            0.0014416       -0.0014409     
  0.58            0.0014662       -0.0014661     
  0.59            0.001491        -0.0014905     
  0.6             0.0015165       -0.0015153     
  0.61            0.0015428       -0.0015413     
  0.62            0.0015675       -0.0015671     
  0.63            0.0015923       -0.0015922     
  0.64            0.0016171       -0.0016166     
  0.65            0.0016423       -0.0016421     
  0.66            0.0016674       -0.0016666     
  0.67            0.0016931       -0.0016917     
  0.68            0.0017189       -0.0017175     
  0.69            0.0017444       -0.0017425     
  0.7             0.0017698       -0.0017687     
  0.71            0.0017947       -0.0017944     
  0.72            0.0018191       -0.0018189     
  0.73            0.0018443       -0.0018436     
  0.74            0.0018703       -0.0018689     
  0.75            0.0018962       -0.0018951     
  0.76            0.0019213       -0.0019203     
  0.77            0.0019452       -0.0019451     
  0.78            0.0019703       -0.0019695     
  0.79            0.0019964       -0.0019952     
  0.8             0.0020221       -0.0020208     
  0.81            0.0020472       -0.0020466     
  0.82            0.0020717       -0.0020716     
  0.83            0.0020967       -0.0020959     
  0.84            0.0021221       -0.0021209     
  0.85            0.0021483       -0.0021467     
  0.86            0.0021735       -0.0021727     
  0.87            0.0021982       -0.002198      
  0.88            0.0022224       -0.0022219     
  0.89            0.0022476       -0.0022479     
  0.9             0.0022727       -0.0022721     
  0.91            0.002299        -0.0022974     
  0.92            0.002325        -0.0023236     
  0.93            0.00235         -0.0023491     
  0.94            0.0023741       -0.0023743     
  0.95            0.0023989       -0.0023985     
  0.96            0.0024248       -0.0024233     
  0.97            0.002451        -0.0024493     
  0.98            0.0024761       -0.0024756     
  0.99            0.0025008       -0.0025005     
  1               0.0025252       -0.0025249     
END_DB

