! VERSION = 6.00
BEGIN_HEADER
 ICCAP_INPUTS
  VU1        V  E GROUND SMU2 0.1 CON        0
  VU2        V  S GROUND SMU3 0.1 CON        0
  V2         V  B GROUND SMU1 0.015 CON        0
  V1         V  C GROUND SMU4 0.015 LIN        1    -1         1          201  0.01      
 ICCAP_OUTPUTS
  I1         I  C GROUND SMU4 B
  I2         I  B GROUND SMU1 B
END_HEADER

BEGIN_DB
 ICCAP_VAR VU1        0              
 ICCAP_VAR VU2        0              
 ICCAP_VAR V2         0              

 #V1              I1              I2             
  -1              -0.00015891     0.000159       
  -0.99           -0.00015725     0.00015741     
  -0.98           -0.0001556      0.00015572     
  -0.97           -0.00015402     0.00015417     
  -0.96           -0.0001524      0.00015249     
  -0.95           -0.00015088     0.00015091     
  -0.94           -0.00014939     0.00014942     
  -0.93           -0.00014778     0.00014777     
  -0.92           -0.00014622     0.00014626     
  -0.91           -0.00014457     0.00014469     
  -0.9            -0.0001429      0.00014303     
  -0.89           -0.0001413      0.00014137     
  -0.88           -0.0001398      0.00013979     
  -0.87           -0.00013825     0.0001383      
  -0.86           -0.00013666     0.00013677     
  -0.85           -0.00013497     0.00013512     
  -0.84           -0.00013338     0.00013345     
  -0.83           -0.00013181     0.00013186     
  -0.82           -0.00013031     0.00013033     
  -0.81           -0.00012871     0.0001288      
  -0.8            -0.00012704     0.0001272      
  -0.79           -0.0001254      0.00012552     
  -0.78           -0.00012385     0.00012393     
  -0.77           -0.00012236     0.00012238     
  -0.76           -0.00012075     0.00012085     
  -0.75           -0.00011912     0.00011925     
  -0.74           -0.00011746     0.00011759     
  -0.73           -0.0001159      0.00011605     
  -0.72           -0.00011429     0.00011437     
  -0.71           -0.00011275     0.0001128      
  -0.7            -0.00011122     0.00011126     
  -0.69           -0.00010963     0.00010973     
  -0.68           -0.00010798     0.00010811     
  -0.67           -0.00010635     0.00010646     
  -0.66           -0.00010479     0.00010484     
  -0.65           -0.00010326     0.0001033      
  -0.64           -0.00010169     0.00010176     
  -0.63           -0.00010005     0.00010015     
  -0.62           -9.8454e-005    9.8517e-005    
  -0.61           -9.686e-005     9.687e-005     
  -0.6            -9.5312e-005    9.5286e-005    
  -0.59           -9.3767e-005    9.3748e-005    
  -0.58           -9.2169e-005    9.2186e-005    
  -0.57           -9.0539e-005    9.0593e-005    
  -0.56           -8.8915e-005    8.8947e-005    
  -0.55           -8.7338e-005    8.739e-005     
  -0.54           -8.573e-005     8.5751e-005    
  -0.53           -8.4181e-005    8.4168e-005    
  -0.52           -8.2639e-005    8.261e-005     
  -0.51           -8.1053e-005    8.106e-005     
  -0.5            -7.9431e-005    7.9463e-005    
  -0.49           -7.781e-005     7.7849e-005    
  -0.48           -7.6215e-005    7.6225e-005    
  -0.47           -7.4653e-005    7.4637e-005    
  -0.46           -7.31e-005      7.3088e-005    
  -0.45           -7.1519e-005    7.1532e-005    
  -0.44           -6.9886e-005    6.993e-005     
  -0.43           -6.8268e-005    6.8295e-005    
  -0.42           -6.6691e-005    6.6728e-005    
  -0.41           -6.5097e-005    6.5114e-005    
  -0.4            -6.3527e-005    6.3519e-005    
  -0.39           -6.197e-005     6.1955e-005    
  -0.38           -6.0384e-005    6.0391e-005    
  -0.37           -5.8784e-005    5.8811e-005    
  -0.36           -5.716e-005     5.7191e-005    
  -0.35           -5.5566e-005    5.5572e-005    
  -0.34           -5.3996e-005    5.3988e-005    
  -0.33           -5.243e-005     5.2421e-005    
  -0.32           -5.0848e-005    5.0862e-005    
  -0.31           -4.9237e-005    4.9263e-005    
  -0.3            -4.7621e-005    4.7635e-005    
  -0.29           -4.6033e-005    4.6037e-005    
  -0.28           -4.4482e-005    4.4469e-005    
  -0.27           -4.2903e-005    4.29e-005      
  -0.26           -4.1302e-005    4.1296e-005    
  -0.25           -3.9716e-005    3.9722e-005    
  -0.24           -3.8123e-005    3.814e-005     
  -0.23           -3.651e-005     3.6533e-005    
  -0.22           -3.4917e-005    3.4926e-005    
  -0.21           -3.3336e-005    3.3339e-005    
  -0.2            -3.1774e-005    3.1772e-005    
  -0.19           -3.0185e-005    3.0193e-005    
  -0.18           -2.8577e-005    2.8596e-005    
  -0.17           -2.6972e-005    2.6983e-005    
  -0.16           -2.5391e-005    2.5399e-005    
  -0.15           -2.382e-005     2.3815e-005    
  -0.14           -2.223e-005     2.2239e-005    
  -0.13           -2.0634e-005    2.0636e-005    
  -0.12           -1.9059e-005    1.9065e-005    
  -0.11           -1.7463e-005    1.7471e-005    
  -0.1            -1.5862e-005    1.5872e-005    
  -0.09           -1.4268e-005    1.4273e-005    
  -0.08           -1.2676e-005    1.2686e-005    
  -0.07           -1.1104e-005    1.111e-005     
  -0.06           -9.5069e-006    9.5069e-006    
  -0.05           -7.9236e-006    7.9238e-006    
  -0.04           -6.3306e-006    6.328e-006     
  -0.03           -4.7455e-006    4.7452e-006    
  -0.02           -3.1522e-006    3.1538e-006    
  -0.01           -1.5573e-006    1.5648e-006    
  0               1.6697e-008     -1.5365e-008   
  0.01            1.609e-006      -1.6071e-006   
  0.02            3.2032e-006     -3.1986e-006   
  0.03            4.7848e-006     -4.7771e-006   
  0.04            6.3759e-006     -6.3753e-006   
  0.05            7.9632e-006     -7.9674e-006   
  0.06            9.5526e-006     -9.5545e-006   
  0.07            1.11371e-005    -1.11318e-005  
  0.08            1.273e-005      -1.2731e-005   
  0.09            1.4327e-005     -1.431e-005    
  0.1             1.5924e-005     -1.5916e-005   
  0.11            1.7504e-005     -1.7483e-005   
  0.12            1.9102e-005     -1.9088e-005   
  0.13            2.0679e-005     -2.0685e-005   
  0.14            2.2264e-005     -2.2266e-005   
  0.15            2.3852e-005     -2.3847e-005   
  0.16            2.5445e-005     -2.5423e-005   
  0.17            2.7048e-005     -2.7025e-005   
  0.18            2.8641e-005     -2.8632e-005   
  0.19            3.0216e-005     -3.0225e-005   
  0.2             3.1782e-005     -3.1797e-005   
  0.21            3.338e-005      -3.3369e-005   
  0.22            3.4986e-005     -3.4963e-005   
  0.23            3.6596e-005     -3.6574e-005   
  0.24            3.8172e-005     -3.814e-005    
  0.25            3.9768e-005     -3.9755e-005   
  0.26            4.1342e-005     -4.1354e-005   
  0.27            4.2914e-005     -4.2933e-005   
  0.28            4.45e-005       -4.4498e-005   
  0.29            4.6102e-005     -4.6072e-005   
  0.3             4.7718e-005     -4.7686e-005   
  0.31            4.931e-005      -4.9303e-005   
  0.32            5.0879e-005     -5.0894e-005   
  0.33            5.2435e-005     -5.2452e-005   
  0.34            5.403e-005      -5.4019e-005   
  0.35            5.565e-005      -5.5614e-005   
  0.36            5.7265e-005     -5.7229e-005   
  0.37            5.8838e-005     -5.8835e-005   
  0.38            6.04e-005       -6.0422e-005   
  0.39            6.1968e-005     -6.198e-005    
  0.4             6.3562e-005     -6.3595e-005   
  0.41            6.5137e-005     -6.5135e-005   
  0.42            6.6755e-005     -6.6719e-005   
  0.43            6.8386e-005     -6.8341e-005   
  0.44            6.9979e-005     -6.997e-005    
  0.45            7.1537e-005     -7.1563e-005   
  0.46            7.3085e-005     -7.3112e-005   
  0.47            7.4678e-005     -7.4666e-005   
  0.48            7.6308e-005     -7.6264e-005   
  0.49            7.7929e-005     -7.7886e-005   
  0.5             7.9502e-005     -7.9504e-005   
  0.51            8.106e-005      -8.1089e-005   
  0.52            8.2616e-005     -8.2643e-005   
  0.53            8.4215e-005     -8.4262e-005   
  0.54            8.5787e-005     -8.5788e-005   
  0.55            8.741e-005      -8.7369e-005   
  0.56            8.905e-005      -8.8997e-005   
  0.57            9.0648e-005     -9.0639e-005   
  0.58            9.2204e-005     -9.2237e-005   
  0.59            9.3735e-005     -9.3777e-005   
  0.6             9.5324e-005     -9.5323e-005   
  0.61            9.6963e-005     -9.6914e-005   
  0.62            9.86e-005       -9.8551e-005   
  0.63            0.00010013      -0.000100174   
  0.64            0.00010175      -0.00010165    
  0.65            0.00010338      -0.00010324    
  0.66            0.00010502      -0.0001049     
  0.67            0.00010657      -0.00010651    
  0.68            0.00010808      -0.00010806    
  0.69            0.00010968      -0.00010959    
  0.7             0.00011132      -0.00011119    
  0.71            0.00011295      -0.00011284    
  0.72            0.00011453      -0.00011438    
  0.73            0.00011612      -0.00011606    
  0.74            0.0001177       -0.00011765    
  0.75            0.0001192       -0.00011917    
  0.76            0.00012079      -0.00012072    
  0.77            0.00012247      -0.00012231    
  0.78            0.00012409      -0.00012399    
  0.79            0.00012565      -0.00012559    
  0.8             0.00012714      -0.00012714    
  0.81            0.00012872      -0.00012866    
  0.82            0.00013038      -0.00013023    
  0.83            0.00013203      -0.0001319     
  0.84            0.00013358      -0.00013355    
  0.85            0.00013511      -0.00013512    
  0.86            0.00013669      -0.00013662    
  0.87            0.00013832      -0.00013817    
  0.88            0.00013996      -0.00013983    
  0.89            0.00014156      -0.00014149    
  0.9             0.00014309      -0.00014309    
  0.91            0.00014462      -0.0001446     
  0.92            0.00014621      -0.00014623    
  0.93            0.00014779      -0.00014771    
  0.94            0.00014945      -0.00014931    
  0.95            0.00015112      -0.00015097    
  0.96            0.00015269      -0.00015264    
  0.97            0.00015419      -0.00015419    
  0.98            0.00015572      -0.00015567    
  0.99            0.00015739      -0.00015724    
  1               0.00015908      -0.00015889    
END_DB

