! VERSION = 6.00
BEGIN_HEADER
 ICCAP_INPUTS
  VU1        V  E GROUND SMU2 0.1 CON        0
  VU2        V  S GROUND SMU3 0.1 CON        0
  V2         V  B GROUND SMU1 0.015 CON        0
  V1         V  C GROUND SMU4 0.015 LIN        1    -1         1          201  0.01      
 ICCAP_OUTPUTS
  I1         I  C GROUND SMU4 B
  I2         I  B GROUND SMU1 B
END_HEADER

BEGIN_DB
 ICCAP_VAR VU1        0              
 ICCAP_VAR VU2        0              
 ICCAP_VAR V2         0              

 #V1              I1              I2             
  -1              -0.00075242     0.0007525      
  -0.99           -0.0007453      0.00074508     
  -0.98           -0.00073802     0.00073793     
  -0.97           -0.00073037     0.00073059     
  -0.96           -0.00072245     0.00072283     
  -0.95           -0.00071484     0.00071499     
  -0.94           -0.00070754     0.00070741     
  -0.93           -0.00070037     0.00070016     
  -0.92           -0.00069278     0.00069289     
  -0.91           -0.00068493     0.00068535     
  -0.9            -0.00067718     0.00067743     
  -0.89           -0.0006698      0.00066975     
  -0.88           -0.00066261     0.00066238     
  -0.87           -0.00065517     0.0006552      
  -0.86           -0.00064744     0.00064775     
  -0.85           -0.00063961     0.00063993     
  -0.84           -0.00063213     0.00063217     
  -0.83           -0.00062496     0.00062472     
  -0.82           -0.00061757     0.00061757     
  -0.81           -0.0006099      0.00061014     
  -0.8            -0.00060208     0.00060242     
  -0.79           -0.00059447     0.00059458     
  -0.78           -0.00058723     0.0005871      
  -0.77           -0.00057993     0.00057986     
  -0.76           -0.0005723      0.00057216     
  -0.75           -0.00056487     0.00056491     
  -0.74           -0.00055716     0.00055742     
  -0.73           -0.00054938     0.00054964     
  -0.72           -0.00054186     0.00054191     
  -0.71           -0.00053461     0.00053444     
  -0.7            -0.00052725     0.00052723     
  -0.69           -0.00051959     0.00051979     
  -0.68           -0.00051178     0.00051208     
  -0.67           -0.0005042      0.00050431     
  -0.66           -0.0004969      0.00049685     
  -0.65           -0.00048961     0.00048957     
  -0.64           -0.00048197     0.00048184     
  -0.63           -0.00047449     0.00047457     
  -0.62           -0.00046682     0.00046706     
  -0.61           -0.00045909     0.0004593      
  -0.6            -0.00045156     0.00045162     
  -0.59           -0.00044426     0.00044416     
  -0.58           -0.00043684     0.00043684     
  -0.57           -0.00042924     0.00042942     
  -0.56           -0.00042146     0.00042172     
  -0.55           -0.00041388     0.000414       
  -0.54           -0.0004065      0.00040645     
  -0.53           -0.00039921     0.00039919     
  -0.52           -0.00039166     0.00039175     
  -0.51           -0.00038388     0.00038413     
  -0.5            -0.00037623     0.00037639     
  -0.49           -0.00036886     0.00036883     
  -0.48           -0.00036148     0.00036142     
  -0.47           -0.00035397     0.00035405     
  -0.46           -0.0003463      0.0003465      
  -0.45           -0.00033866     0.00033882     
  -0.44           -0.00033113     0.0003314      
  -0.43           -0.00032358     0.00032366     
  -0.42           -0.00031613     0.00031612     
  -0.41           -0.00030878     0.00030879     
  -0.4            -0.00030121     0.00030135     
  -0.39           -0.00029351     0.00029375     
  -0.38           -0.00028591     0.00028604     
  -0.37           -0.00027849     0.00027851     
  -0.36           -0.00027111     0.00027108     
  -0.35           -0.00026356     0.00026367     
  -0.34           -0.00025589     0.00025607     
  -0.33           -0.00024826     0.00024839     
  -0.32           -0.00024081     0.00024099     
  -0.31           -0.00023324     0.00023333     
  -0.3            -0.00022578     0.0002258      
  -0.29           -0.00021834     0.00021835     
  -0.28           -0.00021083     0.00021094     
  -0.27           -0.00020317     0.00020335     
  -0.26           -0.00019558     0.00019572     
  -0.25           -0.00018808     0.00018813     
  -0.24           -0.00018068     0.00018071     
  -0.23           -0.00017317     0.00017325     
  -0.22           -0.00016555     0.0001657      
  -0.21           -0.00015794     0.00015807     
  -0.2            -0.00015044     0.00015052     
  -0.19           -0.000143       0.00014301     
  -0.18           -0.00013549     0.00013554     
  -0.17           -0.00012791     0.00012802     
  -0.16           -0.00012034     0.00012048     
  -0.15           -0.00011282     0.0001129      
  -0.14           -0.00010528     0.00010535     
  -0.13           -9.7796e-005    9.7757e-005    
  -0.12           -9.0296e-005    9.0323e-005    
  -0.11           -8.2734e-005    8.2768e-005    
  -0.1            -7.5161e-005    7.5181e-005    
  -0.09           -6.7615e-005    6.7626e-005    
  -0.08           -6.0119e-005    6.0086e-005    
  -0.07           -5.2639e-005    5.2652e-005    
  -0.06           -4.5073e-005    4.5073e-005    
  -0.05           -3.7549e-005    3.754e-005     
  -0.04           -2.9983e-005    2.9988e-005    
  -0.03           -2.2489e-005    2.2498e-005    
  -0.02           -1.4946e-005    1.495e-005     
  -0.01           -7.3981e-006    7.4187e-006    
  0               7.2157e-008     -7.4732e-008   
  0.01            7.6236e-006     -7.6254e-006   
  0.02            1.5175e-005     -1.5157e-005   
  0.03            2.267e-005      -2.266e-005    
  0.04            3.0195e-005     -3.0173e-005   
  0.05            3.7738e-005     -3.7731e-005   
  0.06            4.5323e-005     -4.5269e-005   
  0.07            5.279e-005      -5.2794e-005   
  0.08            6.0323e-005     -6.0326e-005   
  0.09            6.7823e-005     -6.7855e-005   
  0.1             7.5359e-005     -7.536e-005    
  0.11            8.2863e-005     -8.2829e-005   
  0.12            9.0451e-005     -9.0402e-005   
  0.13            9.8003e-005     -9.7984e-005   
  0.14            0.00010558      -0.000105547   
  0.15            0.00011313      -0.00011301    
  0.16            0.00012067      -0.00012053    
  0.17            0.0001282       -0.00012812    
  0.18            0.00013571      -0.00013567    
  0.19            0.0001432       -0.00014313    
  0.2             0.00015071      -0.0001506     
  0.21            0.00015835      -0.00015819    
  0.22            0.00016593      -0.00016579    
  0.23            0.00017338      -0.00017337    
  0.24            0.00018082      -0.00018082    
  0.25            0.00018835      -0.00018837    
  0.26            0.0001959       -0.00019584    
  0.27            0.00020351      -0.00020337    
  0.28            0.00021115      -0.00021098    
  0.29            0.00021864      -0.00021858    
  0.3             0.0002261       -0.00022607    
  0.31            0.00023356      -0.00023349    
  0.32            0.00024113      -0.000241      
  0.33            0.00024877      -0.00024855    
  0.34            0.00025634      -0.00025624    
  0.35            0.00026378      -0.00026382    
  0.36            0.0002712       -0.00027124    
  0.37            0.00027871      -0.0002786     
  0.38            0.0002864       -0.0002862     
  0.39            0.00029404      -0.00029391    
  0.4             0.0003015       -0.0003015     
  0.41            0.00030883      -0.00030888    
  0.42            0.00031633      -0.00031627    
  0.43            0.00032403      -0.00032383    
  0.44            0.00033168      -0.00033149    
  0.45            0.00033925      -0.00033897    
  0.46            0.00034676      -0.00034663    
  0.47            0.00035414      -0.00035421    
  0.48            0.00036153      -0.00036158    
  0.49            0.00036909      -0.00036899    
  0.5             0.00037678      -0.00037654    
  0.51            0.00038441      -0.00038429    
  0.52            0.00039187      -0.00039189    
  0.53            0.00039923      -0.00039931    
  0.54            0.00040668      -0.00040661    
  0.55            0.00041441      -0.00041417    
  0.56            0.00042209      -0.00042186    
  0.57            0.00042966      -0.00042933    
  0.58            0.00043723      -0.0004371     
  0.59            0.00044457      -0.00044463    
  0.6             0.0004519       -0.00045197    
  0.61            0.00045945      -0.00045934    
  0.62            0.00046718      -0.00046691    
  0.63            0.00047485      -0.00047469    
  0.64            0.00048231      -0.00048229    
  0.65            0.00048955      -0.00048971    
  0.66            0.00049704      -0.00049701    
  0.67            0.00050475      -0.00050446    
  0.68            0.00051247      -0.00051224    
  0.69            0.00052001      -0.00051997    
  0.7             0.00052727      -0.00052742    
  0.71            0.00053468      -0.00053469    
  0.72            0.00054231      -0.0005421     
  0.73            0.00055015      -0.00054982    
  0.74            0.00055774      -0.00055763    
  0.75            0.00056505      -0.00056516    
  0.76            0.0005723       -0.00057245    
  0.77            0.0005799       -0.00058009    
  0.78            0.00058738      -0.00058734    
  0.79            0.00059511      -0.00059482    
  0.8             0.00060287      -0.00060258    
  0.81            0.00061039      -0.00061036    
  0.82            0.00061769      -0.00061784    
  0.83            0.00062499      -0.00062503    
  0.84            0.00063263      -0.00063243    
  0.85            0.00064054      -0.00064014    
  0.86            0.00064814      -0.00064798    
  0.87            0.0006554       -0.00065554    
  0.88            0.0006626       -0.00066275    
  0.89            0.00067017      -0.00067004    
  0.9             0.00067804      -0.00067766    
  0.91            0.0006858       -0.00068559    
  0.92            0.00069321      -0.00069327    
  0.93            0.00070028      -0.00070053    
  0.94            0.00070776      -0.00070772    
  0.95            0.00071562      -0.00071528    
  0.96            0.00072345      -0.00072308    
  0.97            0.00073087      -0.00073043    
  0.98            0.00073849      -0.00073837    
  0.99            0.0007458       -0.00074594    
  1               0.00075298      -0.00075315    
END_DB

