! VERSION = 6.00
BEGIN_HEADER
 ICCAP_INPUTS
  VU1        V  E GROUND SMU2 0.1 CON        0
  VU2        V  S GROUND SMU3 0.1 CON        0
  V2         V  B GROUND SMU1 0.015 CON        0
  V1         V  C GROUND SMU4 0.015 LIN        1    -1         1          201  0.01      
 ICCAP_OUTPUTS
  I1         I  C GROUND SMU4 B
  I2         I  B GROUND SMU1 B
END_HEADER

BEGIN_DB
 ICCAP_VAR VU1        0              
 ICCAP_VAR VU2        0              
 ICCAP_VAR V2         0              

 #V1              I1              I2             
  -1              -0.00073873     0.00073884     
  -0.99           -0.0007314      0.00073145     
  -0.98           -0.00072438     0.00072415     
  -0.97           -0.00071728     0.00071717     
  -0.96           -0.00070981     0.00070956     
  -0.95           -0.00070248     0.00070258     
  -0.94           -0.00069478     0.00069514     
  -0.93           -0.00068707     0.00068735     
  -0.92           -0.00067974     0.00068015     
  -0.91           -0.00067234     0.00067245     
  -0.9            -0.00066525     0.00066506     
  -0.89           -0.00065815     0.00065805     
  -0.88           -0.00065065     0.00065041     
  -0.87           -0.00064337     0.00064341     
  -0.86           -0.00063578     0.00063609     
  -0.85           -0.00062805     0.0006284      
  -0.84           -0.00062064     0.00062071     
  -0.83           -0.00061362     0.00061337     
  -0.82           -0.00060646     0.00060639     
  -0.81           -0.0005989      0.00059914     
  -0.8            -0.00059115     0.00059156     
  -0.79           -0.00058366     0.00058381     
  -0.78           -0.00057656     0.00057645     
  -0.77           -0.00056947     0.00056935     
  -0.76           -0.00056201     0.00056216     
  -0.75           -0.00055428     0.00055468     
  -0.74           -0.00054681     0.00054696     
  -0.73           -0.00053953     0.00053948     
  -0.72           -0.00053247     0.00053232     
  -0.71           -0.0005251      0.00052518     
  -0.7            -0.00051751     0.0005178      
  -0.69           -0.00050987     0.00051007     
  -0.68           -0.00050251     0.00050286     
  -0.67           -0.00049507     0.00049518     
  -0.66           -0.00048791     0.00048783     
  -0.65           -0.00048076     0.00048067     
  -0.64           -0.00047333     0.00047347     
  -0.63           -0.00046565     0.00046594     
  -0.62           -0.00045813     0.00045832     
  -0.61           -0.00045088     0.00045085     
  -0.6            -0.00044374     0.00044361     
  -0.59           -0.00043635     0.00043648     
  -0.58           -0.00042877     0.00042902     
  -0.57           -0.00042123     0.00042142     
  -0.56           -0.00041387     0.00041416     
  -0.55           -0.00040641     0.00040653     
  -0.54           -0.00039919     0.00039913     
  -0.53           -0.00039202     0.00039199     
  -0.52           -0.00038459     0.00038471     
  -0.51           -0.00037697     0.00037723     
  -0.5            -0.00036946     0.0003696      
  -0.49           -0.00036219     0.0003622      
  -0.48           -0.000355       0.00035492     
  -0.47           -0.00034759     0.00034769     
  -0.46           -0.00034007     0.00034028     
  -0.45           -0.00033255     0.00033273     
  -0.44           -0.00032519     0.00032546     
  -0.43           -0.00031775     0.00031786     
  -0.42           -0.00031046     0.00031046     
  -0.41           -0.00030327     0.00030329     
  -0.4            -0.00029585     0.00029596     
  -0.39           -0.00028827     0.00028849     
  -0.38           -0.00028077     0.00028091     
  -0.37           -0.00027349     0.0002735      
  -0.36           -0.00026623     0.0002662      
  -0.35           -0.00025884     0.00025894     
  -0.34           -0.00025133     0.0002515      
  -0.33           -0.00024381     0.00024396     
  -0.32           -0.00023649     0.00023669     
  -0.31           -0.00022906     0.00022915     
  -0.3            -0.00022173     0.00022175     
  -0.29           -0.00021444     0.00021449     
  -0.28           -0.00020705     0.00020703     
  -0.27           -0.00019968     0.00019974     
  -0.26           -0.00019219     0.00019232     
  -0.25           -0.00018466     0.00018484     
  -0.24           -0.00017735     0.0001774      
  -0.23           -0.00017003     0.00017003     
  -0.22           -0.00016266     0.00016272     
  -0.21           -0.00015522     0.00015533     
  -0.2            -0.00014777     0.00014793     
  -0.19           -0.00014034     0.00014043     
  -0.18           -0.000133       0.00013304     
  -0.17           -0.00012567     0.0001257      
  -0.16           -0.00011827     0.00011836     
  -0.15           -0.00011081     0.00011094     
  -0.14           -0.00010335     0.00010346     
  -0.13           -9.598e-005     9.6074e-005    
  -0.12           -8.8664e-005    8.8649e-005    
  -0.11           -8.1299e-005    8.1283e-005    
  -0.1            -7.3863e-005    7.3894e-005    
  -0.09           -6.6429e-005    6.6454e-005    
  -0.08           -5.8998e-005    5.9016e-005    
  -0.07           -5.1659e-005    5.1665e-005    
  -0.06           -4.4275e-005    4.4266e-005    
  -0.05           -3.6868e-005    3.688e-005     
  -0.04           -2.9447e-005    2.9448e-005    
  -0.03           -2.208e-005     2.2096e-005    
  -0.02           -1.4683e-005    1.4683e-005    
  -0.01           -7.2714e-006    7.2785e-006    
  0               6.9683e-008     -7.121e-008    
  0.01            7.4922e-006     -7.5188e-006   
  0.02            1.4907e-005     -1.4889e-005   
  0.03            2.2223e-005     -2.225e-005    
  0.04            2.9652e-005     -2.964e-005    
  0.05            3.7069e-005     -3.7048e-005   
  0.06            4.4506e-005     -4.4467e-005   
  0.07            5.1859e-005     -5.1857e-005   
  0.08            5.9247e-005     -5.9264e-005   
  0.09            6.6609e-005     -6.6648e-005   
  0.1             7.4004e-005     -7.401e-005    
  0.11            8.1398e-005     -8.1346e-005   
  0.12            8.8847e-005     -8.8802e-005   
  0.13            9.6263e-005     -9.6252e-005   
  0.14            0.00010371      -0.000103662   
  0.15            0.00011113      -0.00011099    
  0.16            0.00011853      -0.00011842    
  0.17            0.00012594      -0.0001258     
  0.18            0.00013336      -0.00013328    
  0.19            0.00014071      -0.0001407     
  0.2             0.00014799      -0.000148      
  0.21            0.0001554       -0.00015543    
  0.22            0.00016279      -0.00016273    
  0.23            0.00017031      -0.00017013    
  0.24            0.00017774      -0.00017754    
  0.25            0.00018512      -0.00018505    
  0.26            0.00019243      -0.00019244    
  0.27            0.00019979      -0.00019974    
  0.28            0.00020727      -0.00020711    
  0.29            0.00021474      -0.00021454    
  0.3             0.00022219      -0.00022209    
  0.31            0.00022947      -0.0002295     
  0.32            0.00023679      -0.00023681    
  0.33            0.00024414      -0.00024417    
  0.34            0.00025151      -0.00025145    
  0.35            0.00025905      -0.00025887    
  0.36            0.0002666       -0.0002664     
  0.37            0.00027393      -0.00027388    
  0.38            0.00028116      -0.00028126    
  0.39            0.00028851      -0.00028846    
  0.4             0.000296        -0.00029583    
  0.41            0.00030356      -0.00030331    
  0.42            0.00031098      -0.00031088    
  0.43            0.00031825      -0.00031828    
  0.44            0.00032549      -0.00032553    
  0.45            0.00033293      -0.00033303    
  0.46            0.00034026      -0.00034019    
  0.47            0.00034782      -0.00034758    
  0.48            0.0003554       -0.00035515    
  0.49            0.00036278      -0.0003625     
  0.5             0.00037018      -0.00037007    
  0.51            0.00037743      -0.0003775     
  0.52            0.00038464      -0.00038472    
  0.53            0.00039207      -0.00039196    
  0.54            0.00039958      -0.00039934    
  0.55            0.00040718      -0.00040703    
  0.56            0.0004145       -0.0004145     
  0.57            0.00042164      -0.0004218     
  0.58            0.00042899      -0.00042894    
  0.59            0.00043655      -0.0004363     
  0.6             0.00044417      -0.00044391    
  0.61            0.00045154      -0.0004515     
  0.62            0.00045871      -0.00045885    
  0.63            0.00046591      -0.00046591    
  0.64            0.00047348      -0.00047323    
  0.65            0.00048117      -0.00048083    
  0.66            0.00048861      -0.00048852    
  0.67            0.00049571      -0.00049584    
  0.68            0.0005029       -0.00050301    
  0.69            0.00051034      -0.00051051    
  0.7             0.00051768      -0.00051764    
  0.71            0.00052533      -0.00052503    
  0.72            0.00053294      -0.00053265    
  0.73            0.00054031      -0.00054025    
  0.74            0.00054742      -0.00054759    
  0.75            0.00055462      -0.00055464    
  0.76            0.00056214      -0.00056189    
  0.77            0.00056992      -0.00056953    
  0.78            0.00057734      -0.00057723    
  0.79            0.00058445      -0.00058459    
  0.8             0.00059154      -0.00059167    
  0.81            0.00059898      -0.00059922    
  0.82            0.00060631      -0.00060629    
  0.83            0.00061402      -0.00061366    
  0.84            0.00062165      -0.00062129    
  0.85            0.000629        -0.00062857    
  0.86            0.00063651      -0.00063635    
  0.87            0.00064362      -0.00064379    
  0.88            0.00065064      -0.00065083    
  0.89            0.00065806      -0.00065793    
  0.9             0.00066583      -0.00066541    
  0.91            0.00067347      -0.00067327    
  0.92            0.00068073      -0.00068081    
  0.93            0.00068764      -0.0006879     
  0.94            0.00069497      -0.00069492    
  0.95            0.0007027       -0.00070231    
  0.96            0.00071042      -0.00071007    
  0.97            0.00071771      -0.00071769    
  0.98            0.00072469      -0.00072497    
  0.99            0.00073187      -0.0007319     
  1               0.00073951      -0.0007392     
END_DB

