! VERSION = 6.00
BEGIN_HEADER
 ICCAP_INPUTS
  VU1        V  E GROUND SMU2 0.1 CON        0
  VU2        V  S GROUND SMU3 0.1 CON        0
  V2         V  B GROUND SMU4 0.015 CON        0
  V1         V  C GROUND SMU1 0.015 LIN        1    -1         1          201  0.01      
 ICCAP_OUTPUTS
  I1         I  C GROUND SMU1 B
  I2         I  B GROUND SMU4 B
END_HEADER

BEGIN_DB
 ICCAP_VAR VU1        0              
 ICCAP_VAR VU2        0              
 ICCAP_VAR V2         0              

 #V1              I1              I2             
  -1              -0.004514       0.0045171      
  -0.99           -0.0044713      0.0044703      
  -0.98           -0.0044239      0.0044247      
  -0.97           -0.0043784      0.0043803      
  -0.96           -0.0043343      0.0043366      
  -0.95           -0.0042907      0.0042917      
  -0.94           -0.0042453      0.0042449      
  -0.93           -0.0041976      0.0041984      
  -0.92           -0.0041526      0.0041541      
  -0.91           -0.0041075      0.0041101      
  -0.9            -0.0040642      0.0040652      
  -0.89           -0.0040193      0.0040187      
  -0.88           -0.0039722      0.0039724      
  -0.87           -0.0039262      0.0039275      
  -0.86           -0.0038811      0.0038834      
  -0.85           -0.0038374      0.0038388      
  -0.84           -0.0037929      0.0037932      
  -0.83           -0.0037464      0.0037462      
  -0.82           -0.0036996      0.0037006      
  -0.81           -0.0036549      0.0036567      
  -0.8            -0.0036108      0.0036129      
  -0.79           -0.0035649      0.003567       
  -0.78           -0.0035209      0.0035223      
  -0.77           -0.0034757      0.0034757      
  -0.76           -0.0034294      0.0034294      
  -0.75           -0.0033832      0.0033844      
  -0.74           -0.0033385      0.0033404      
  -0.73           -0.0032948      0.003296       
  -0.72           -0.0032497      0.0032503      
  -0.71           -0.003204       0.0032038      
  -0.7            -0.0031573      0.0031584      
  -0.69           -0.0031122      0.0031138      
  -0.68           -0.003068       0.00307        
  -0.67           -0.0030222      0.0030242      
  -0.66           -0.0029785      0.0029796      
  -0.65           -0.0029337      0.0029335      
  -0.64           -0.0028872      0.0028872      
  -0.63           -0.0028408      0.0028421      
  -0.62           -0.0027961      0.0027976      
  -0.61           -0.0027522      0.0027532      
  -0.6            -0.0027071      0.0027077      
  -0.59           -0.0026618      0.0026615      
  -0.58           -0.0026155      0.0026159      
  -0.57           -0.0025702      0.0025718      
  -0.56           -0.0025262      0.0025277      
  -0.55           -0.0024814      0.0024822      
  -0.54           -0.0024359      0.0024361      
  -0.53           -0.0023899      0.0023907      
  -0.52           -0.0023445      0.0023457      
  -0.51           -0.0022998      0.0023017      
  -0.5            -0.0022558      0.002257       
  -0.49           -0.0022107      0.002211       
  -0.48           -0.0021646      0.0021649      
  -0.47           -0.00212        0.0021201      
  -0.46           -0.002074       0.0020746      
  -0.45           -0.0020291      0.0020305      
  -0.44           -0.0019846      0.001986       
  -0.43           -0.0019399      0.0019408      
  -0.42           -0.001895       0.0018952      
  -0.41           -0.0018485      0.0018494      
  -0.4            -0.0018032      0.0018045      
  -0.39           -0.0017588      0.0017606      
  -0.38           -0.0017144      0.0017154      
  -0.37           -0.0016692      0.0016696      
  -0.36           -0.0016238      0.0016243      
  -0.35           -0.0015788      0.001579       
  -0.34           -0.0015332      0.0015339      
  -0.33           -0.0014883      0.0014893      
  -0.32           -0.0014435      0.0014448      
  -0.31           -0.0013986      0.0013995      
  -0.3            -0.0013536      0.001354       
  -0.29           -0.0013076      0.0013083      
  -0.28           -0.0012624      0.0012636      
  -0.27           -0.0012178      0.0012191      
  -0.26           -0.0011729      0.0011739      
  -0.25           -0.0011279      0.0011284      
  -0.24           -0.0010825      0.001083       
  -0.23           -0.001037       0.0010381      
  -0.22           -0.00099296     0.00099231     
  -0.21           -0.00094748     0.00094777     
  -0.2            -0.00090232     0.00090287     
  -0.19           -0.00085716     0.0008576      
  -0.18           -0.00081264     0.00081282     
  -0.17           -0.00076751     0.00076737     
  -0.16           -0.00072228     0.00072225     
  -0.15           -0.00067694     0.00067709     
  -0.14           -0.00063184     0.00063204     
  -0.13           -0.00058725     0.00058735     
  -0.12           -0.00054207     0.00054205     
  -0.11           -0.00049673     0.00049663     
  -0.1            -0.0004517      0.00045174     
  -0.09           -0.00040649     0.00040668     
  -0.08           -0.00036114     0.00036158     
  -0.07           -0.00031651     0.0003167      
  -0.06           -0.0002714      0.0002716      
  -0.05           -0.0002262      0.00022622     
  -0.04           -0.00018133     0.00018126     
  -0.03           -0.00013602     0.0001361      
  -0.02           -9.0605e-005    9.0592e-005    
  -0.01           -4.5815e-005    4.592e-005     
  0               -1.7671e-007    2.1918e-007    
  0.01            4.4343e-005     -4.4396e-005   
  0.02            8.9165e-005     -8.9145e-005   
  0.03            0.00013454      -0.0001344     
  0.04            0.0001797       -0.00017956    
  0.05            0.00022448      -0.00022436    
  0.06            0.00026969      -0.00026985    
  0.07            0.00031489      -0.00031501    
  0.08            0.00035998      -0.00035983    
  0.09            0.00040507      -0.00040483    
  0.1             0.00045009      -0.00044996    
  0.11            0.00049493      -0.00049486    
  0.12            0.00054023      -0.00054028    
  0.13            0.0005856       -0.00058553    
  0.14            0.00063048      -0.00063004    
  0.15            0.00067548      -0.00067519    
  0.16            0.00072039      -0.0007204     
  0.17            0.00076548      -0.00076552    
  0.18            0.00081104      -0.00081093    
  0.19            0.00085618      -0.00085589    
  0.2             0.00090061      -0.00090048    
  0.21            0.00094622      -0.00094574    
  0.22            0.00099109      -0.00099084    
  0.23            0.00103593      -0.001036      
  0.24            0.00108138      -0.00108162    
  0.25            0.00112697      -0.00112679    
  0.26            0.0011715       -0.0011715     
  0.27            0.0012175       -0.0012165     
  0.28            0.0012626       -0.0012613     
  0.29            0.0013073       -0.0013064     
  0.3             0.0013522       -0.0013518     
  0.31            0.0013982       -0.0013975     
  0.32            0.0014428       -0.0014426     
  0.33            0.0014886       -0.0014878     
  0.34            0.0015339       -0.0015326     
  0.35            0.0015786       -0.0015772     
  0.36            0.001623        -0.001622      
  0.37            0.0016686       -0.0016682     
  0.38            0.0017145       -0.0017138     
  0.39            0.0017598       -0.0017585     
  0.4             0.0018045       -0.0018031     
  0.41            0.0018491       -0.0018481     
  0.42            0.0018944       -0.001894      
  0.43            0.0019403       -0.0019396     
  0.44            0.001985        -0.0019847     
  0.45            0.0020309       -0.0020301     
  0.46            0.002076        -0.0020748     
  0.47            0.0021209       -0.0021195     
  0.48            0.0021653       -0.0021646     
  0.49            0.0022109       -0.0022107     
  0.5             0.0022571       -0.0022565     
  0.51            0.0023026       -0.0023014     
  0.52            0.0023474       -0.0023455     
  0.53            0.0023917       -0.0023908     
  0.54            0.0024372       -0.0024369     
  0.55            0.0024834       -0.0024826     
  0.56            0.0025278       -0.0025279     
  0.57            0.0025743       -0.0025734     
  0.58            0.0026192       -0.0026176     
  0.59            0.0026637       -0.0026623     
  0.6             0.0027084       -0.0027079     
  0.61            0.0027538       -0.0027537     
  0.62            0.0028005       -0.0027998     
  0.63            0.0028462       -0.0028448     
  0.64            0.0028905       -0.0028883     
  0.65            0.0029346       -0.0029336     
  0.66            0.0029799       -0.0029798     
  0.67            0.0030265       -0.003026      
  0.68            0.0030708       -0.0030711     
  0.69            0.0031177       -0.0031169     
  0.7             0.0031629       -0.003161      
  0.71            0.0032066       -0.0032052     
  0.72            0.0032515       -0.0032508     
  0.73            0.0032968       -0.0032972     
  0.74            0.0033435       -0.0033431     
  0.75            0.0033898       -0.003388      
  0.76            0.0034336       -0.0034316     
  0.77            0.0034778       -0.0034768     
  0.78            0.003523        -0.0035232     
  0.79            0.0035697       -0.0035693     
  0.8             0.0036142       -0.0036146     
  0.81            0.0036612       -0.0036602     
  0.82            0.003706        -0.003704      
  0.83            0.0037503       -0.0037483     
  0.84            0.0037946       -0.0037938     
  0.85            0.00384         -0.0038404     
  0.86            0.0038871       -0.003887      
  0.87            0.0039333       -0.0039312     
  0.88            0.0039769       -0.0039746     
  0.89            0.004021        -0.0040199     
  0.9             0.0040669       -0.0040669     
  0.91            0.0041132       -0.0041132     
  0.92            0.0041578       -0.0041583     
  0.93            0.0042048       -0.0042042     
  0.94            0.0042498       -0.0042479     
  0.95            0.0042936       -0.0042916     
  0.96            0.0043376       -0.0043371     
  0.97            0.0043834       -0.0043841     
  0.98            0.0044308       -0.0044305     
  0.99            0.0044766       -0.0044751     
  1               0.0045206       -0.004518      
END_DB

