! VERSION = 6.00
BEGIN_HEADER
 ICCAP_INPUTS
  VU1        V  E GROUND SMU2 0.1 CON        0
  VU2        V  S GROUND SMU3 0.1 CON        0
  V2         V  B GROUND SMU1 0.015 CON        0
  V1         V  C GROUND SMU4 0.015 LIN        1    -1         1          201  0.01      
 ICCAP_OUTPUTS
  I1         I  C GROUND SMU4 B
  I2         I  B GROUND SMU1 B
END_HEADER

BEGIN_DB
 ICCAP_VAR VU1        0              
 ICCAP_VAR VU2        0              
 ICCAP_VAR V2         0              

 #V1              I1              I2             
  -1              -0.0039655      0.003968       
  -0.99           -0.0039266      0.0039258      
  -0.98           -0.0038854      0.0038864      
  -0.97           -0.0038427      0.0038451      
  -0.96           -0.0038009      0.0038025      
  -0.95           -0.0037612      0.0037612      
  -0.94           -0.0037224      0.0037215      
  -0.93           -0.003682       0.0036824      
  -0.92           -0.0036399      0.0036415      
  -0.91           -0.003598       0.0035995      
  -0.9            -0.0035575      0.0035578      
  -0.89           -0.0035185      0.0035178      
  -0.88           -0.0034784      0.0034786      
  -0.87           -0.0034368      0.0034381      
  -0.86           -0.0033946      0.0033969      
  -0.85           -0.0033539      0.0033547      
  -0.84           -0.0033143      0.0033141      
  -0.83           -0.0032751      0.0032751      
  -0.82           -0.0032344      0.003234       
  -0.81           -0.0031942      0.0031946      
  -0.8            -0.0031528      0.0031543      
  -0.79           -0.0031107      0.0031122      
  -0.78           -0.0030707      0.003071       
  -0.77           -0.0030315      0.003031       
  -0.76           -0.0029919      0.0029922      
  -0.75           -0.0029505      0.0029518      
  -0.74           -0.0029092      0.0029109      
  -0.73           -0.0028687      0.0028693      
  -0.72           -0.0028295      0.0028289      
  -0.71           -0.0027898      0.00279        
  -0.7            -0.0027497      0.0027494      
  -0.69           -0.0027096      0.0027102      
  -0.68           -0.0026684      0.0026699      
  -0.67           -0.0026272      0.0026285      
  -0.66           -0.0025876      0.002588       
  -0.65           -0.0025485      0.0025481      
  -0.64           -0.002509       0.0025094      
  -0.63           -0.0024683      0.0024696      
  -0.62           -0.0024274      0.002429       
  -0.61           -0.0023874      0.002388       
  -0.6            -0.0023482      0.002348       
  -0.59           -0.002309       0.0023094      
  -0.58           -0.0022686      0.0022688      
  -0.57           -0.0022292      0.0022299      
  -0.56           -0.0021887      0.00219        
  -0.55           -0.0021481      0.0021494      
  -0.54           -0.0021082      0.0021089      
  -0.53           -0.0020699      0.0020695      
  -0.52           -0.0020306      0.0020309      
  -0.51           -0.0019904      0.0019914      
  -0.5            -0.0019498      0.0019512      
  -0.49           -0.0019103      0.0019111      
  -0.48           -0.0018714      0.0018714      
  -0.47           -0.0018325      0.0018329      
  -0.46           -0.0017925      0.0017925      
  -0.45           -0.0017533      0.0017542      
  -0.44           -0.0017137      0.0017147      
  -0.43           -0.0016734      0.0016747      
  -0.42           -0.0016339      0.0016346      
  -0.41           -0.0015955      0.0015955      
  -0.4            -0.0015566      0.0015567      
  -0.39           -0.0015169      0.001518       
  -0.38           -0.0014771      0.001478       
  -0.37           -0.0014377      0.0014384      
  -0.36           -0.0013989      0.0013991      
  -0.35           -0.00136        0.0013603      
  -0.34           -0.0013208      0.0013215      
  -0.33           -0.0012808      0.0012822      
  -0.32           -0.0012419      0.0012427      
  -0.31           -0.0012028      0.0012035      
  -0.3            -0.0011643      0.0011645      
  -0.29           -0.0011252      0.001126       
  -0.28           -0.001086       0.0010872      
  -0.27           -0.0010464      0.0010473      
  -0.26           -0.0010078      0.0010086      
  -0.25           -0.00096887     0.00096927     
  -0.24           -0.00093002     0.00093044     
  -0.23           -0.00089128     0.00089112     
  -0.22           -0.00085264     0.00085243     
  -0.21           -0.00081371     0.00081375     
  -0.2            -0.00077483     0.0007751      
  -0.19           -0.0007356      0.00073578     
  -0.18           -0.00069676     0.00069678     
  -0.17           -0.0006582      0.00065796     
  -0.16           -0.00061968     0.0006196      
  -0.15           -0.00058068     0.00058086     
  -0.14           -0.00054162     0.00054181     
  -0.13           -0.00050275     0.00050279     
  -0.12           -0.00046434     0.0004643      
  -0.11           -0.00042565     0.00042576     
  -0.1            -0.0003867      0.00038669     
  -0.09           -0.00034792     0.00034799     
  -0.08           -0.00030898     0.00030912     
  -0.07           -0.00027046     0.00027052     
  -0.06           -0.00023164     0.0002317      
  -0.05           -0.000193       0.00019298     
  -0.04           -0.00015423     0.00015422     
  -0.03           -0.0001157      0.00011573     
  -0.02           -7.6789e-005    7.6781e-005    
  -0.01           -3.8058e-005    3.8109e-005    
  0               -2.0377e-007    9.7114e-007    
  0.01            3.9123e-005     -3.9083e-005   
  0.02            7.7703e-005     -7.7773e-005   
  0.03            0.00011657      -0.00011638    
  0.04            0.00015515      -0.00015499    
  0.05            0.00019387      -0.00019382    
  0.06            0.00023284      -0.00023261    
  0.07            0.00027134      -0.00027126    
  0.08            0.00031002      -0.00031008    
  0.09            0.00034872      -0.00034869    
  0.1             0.00038747      -0.00038736    
  0.11            0.00042598      -0.00042587    
  0.12            0.00046507      -0.00046505    
  0.13            0.00050385      -0.00050381    
  0.14            0.00054238      -0.00054255    
  0.15            0.00058115      -0.00058118    
  0.16            0.0006199       -0.00061965    
  0.17            0.000659        -0.00065873    
  0.18            0.00069786      -0.00069783    
  0.19            0.00073652      -0.00073665    
  0.2             0.00077489      -0.00077483    
  0.21            0.00081393      -0.00081373    
  0.22            0.00085328      -0.00085287    
  0.23            0.00089232      -0.00089219    
  0.24            0.00093058      -0.0009308     
  0.25            0.00096923      -0.00096962    
  0.26            0.00100823      -0.00100867    
  0.27            0.00104722      -0.00104724    
  0.28            0.00108661      -0.0010862     
  0.29            0.00112582      -0.00112535    
  0.3             0.0011652       -0.0011643     
  0.31            0.0012045       -0.0012036     
  0.32            0.0012431       -0.0012427     
  0.33            0.0012816       -0.0012811     
  0.34            0.0013207       -0.0013201     
  0.35            0.0013602       -0.0013594     
  0.36            0.0013998       -0.0013993     
  0.37            0.0014386       -0.0014384     
  0.38            0.0014772       -0.001477      
  0.39            0.0015164       -0.0015158     
  0.4             0.0015562       -0.0015552     
  0.41            0.0015959       -0.0015946     
  0.42            0.0016351       -0.0016337     
  0.43            0.0016749       -0.001674      
  0.44            0.0017137       -0.0017137     
  0.45            0.0017524       -0.0017523     
  0.46            0.0017919       -0.0017911     
  0.47            0.0018319       -0.0018308     
  0.48            0.001872        -0.001871      
  0.49            0.0019112       -0.0019109     
  0.5             0.0019494       -0.0019498     
  0.51            0.0019892       -0.0019886     
  0.52            0.0020294       -0.0020283     
  0.53            0.0020702       -0.0020687     
  0.54            0.0021092       -0.0021087     
  0.55            0.0021483       -0.0021482     
  0.56            0.0021874       -0.0021871     
  0.57            0.0022277       -0.0022265     
  0.58            0.0022685       -0.0022669     
  0.59            0.0023086       -0.0023074     
  0.6             0.0023473       -0.0023474     
  0.61            0.0023867       -0.0023868     
  0.62            0.0024267       -0.0024271     
  0.63            0.0024659       -0.0024655     
  0.64            0.002507        -0.0025055     
  0.65            0.0025479       -0.0025467     
  0.66            0.002588        -0.0025874     
  0.67            0.0026268       -0.002627      
  0.68            0.0026664       -0.0026657     
  0.69            0.0027071       -0.0027058     
  0.7             0.0027489       -0.0027468     
  0.71            0.002789        -0.0027883     
  0.72            0.0028278       -0.0028281     
  0.73            0.002867        -0.0028676     
  0.74            0.0029077       -0.0029081     
  0.75            0.0029478       -0.0029472     
  0.76            0.0029891       -0.0029875     
  0.77            0.0030304       -0.0030291     
  0.78            0.0030709       -0.0030706     
  0.79            0.0031101       -0.0031107     
  0.8             0.0031495       -0.0031491     
  0.81            0.0031905       -0.0031893     
  0.82            0.0032328       -0.0032309     
  0.83            0.0032735       -0.0032728     
  0.84            0.0033125       -0.0033128     
  0.85            0.0033518       -0.0033523     
  0.86            0.0033927       -0.0033935     
  0.87            0.003433        -0.0034326     
  0.88            0.0034746       -0.003473      
  0.89            0.0035167       -0.003515      
  0.9             0.0035573       -0.0035568     
  0.91            0.0035966       -0.0035972     
  0.92            0.0036363       -0.0036364     
  0.93            0.0036776       -0.0036763     
  0.94            0.0037201       -0.0037179     
  0.95            0.0037613       -0.0037603     
  0.96            0.0038003       -0.0038011     
  0.97            0.0038396       -0.0038402     
  0.98            0.0038805       -0.0038816     
  0.99            0.0039212       -0.0039205     
  1               0.0039633       -0.0039615     
END_DB

