! VERSION = 6.00
BEGIN_HEADER
 ICCAP_INPUTS
  VU1        V  E GROUND SMU2 0.1 CON        0
  VU2        V  S GROUND SMU3 0.1 CON        0
  V2         V  B GROUND SMU1 0.015 CON        0
  V1         V  C GROUND SMU4 0.015 LIN        1    -1         1          201  0.01      
 ICCAP_OUTPUTS
  I1         I  C GROUND SMU4 B
  I2         I  B GROUND SMU1 B
END_HEADER

BEGIN_DB
 ICCAP_VAR VU1        0              
 ICCAP_VAR VU2        0              
 ICCAP_VAR V2         0              

 #V1              I1              I2             
  -1              -0.00068155     0.00068161     
  -0.99           -0.00067518     0.00067488     
  -0.98           -0.00066868     0.00066854     
  -0.97           -0.00066178     0.00066147     
  -0.96           -0.00065501     0.00065505     
  -0.95           -0.00064785     0.00064825     
  -0.94           -0.00064066     0.00064096     
  -0.93           -0.0006339      0.00063437     
  -0.92           -0.000627       0.00062712     
  -0.91           -0.00062058     0.00062032     
  -0.9            -0.00061408     0.00061396     
  -0.89           -0.00060719     0.00060734     
  -0.88           -0.00059994     0.00060037     
  -0.87           -0.00059289     0.00059307     
  -0.86           -0.00058637     0.00058624     
  -0.85           -0.00057994     0.0005797      
  -0.84           -0.00057312     0.0005732      
  -0.83           -0.00056595     0.00056633     
  -0.82           -0.00055889     0.00055913     
  -0.81           -0.00055209     0.00055249     
  -0.8            -0.00054525     0.00054532     
  -0.79           -0.00053873     0.00053851     
  -0.78           -0.00053223     0.00053212     
  -0.77           -0.00052533     0.00052509     
  -0.76           -0.00051855     0.0005186      
  -0.75           -0.00051146     0.00051175     
  -0.74           -0.00050437     0.00050463     
  -0.73           -0.00049761     0.00049802     
  -0.72           -0.00049069     0.00049079     
  -0.71           -0.0004841      0.00048398     
  -0.7            -0.00047763     0.00047749     
  -0.69           -0.00047076     0.0004709      
  -0.68           -0.00046358     0.00046396     
  -0.67           -0.00045658     0.00045677     
  -0.66           -0.00044995     0.00044989     
  -0.65           -0.00044346     0.00044328     
  -0.64           -0.00043666     0.00043671     
  -0.63           -0.00042957     0.00042984     
  -0.62           -0.00042255     0.00042276     
  -0.61           -0.00041575     0.0004161      
  -0.6            -0.00040891     0.00040899     
  -0.59           -0.00040229     0.00040219     
  -0.58           -0.00039568     0.00039562     
  -0.57           -0.00038886     0.00038899     
  -0.56           -0.00038176     0.00038206     
  -0.55           -0.0003748      0.00037495     
  -0.54           -0.00036811     0.00036805     
  -0.53           -0.00036159     0.00036145     
  -0.52           -0.00035478     0.00035486     
  -0.51           -0.00034774     0.00034799     
  -0.5            -0.00034068     0.00034089     
  -0.49           -0.00033397     0.00033425     
  -0.48           -0.00032712     0.0003272      
  -0.47           -0.00032048     0.00032037     
  -0.46           -0.00031383     0.00031379     
  -0.45           -0.00030699     0.00030685     
  -0.44           -0.00030022     0.00030024     
  -0.43           -0.00029319     0.00029341     
  -0.42           -0.00028619     0.00028639     
  -0.41           -0.00027941     0.00027946     
  -0.4            -0.00027279     0.0002727      
  -0.39           -0.00026607     0.00026611     
  -0.38           -0.00025914     0.00025933     
  -0.37           -0.00025217     0.00025238     
  -0.36           -0.00024532     0.00024539     
  -0.35           -0.00023861     0.00023857     
  -0.34           -0.00023191     0.00023193     
  -0.33           -0.00022506     0.00022499     
  -0.32           -0.00021827     0.00021836     
  -0.31           -0.00021132     0.0002115      
  -0.3            -0.00020437     0.00020449     
  -0.29           -0.00019757     0.00019776     
  -0.28           -0.00019077     0.00019086     
  -0.27           -0.00018402     0.00018402     
  -0.26           -0.0001773      0.00017733     
  -0.25           -0.00017046     0.00017055     
  -0.24           -0.00016354     0.00016374     
  -0.23           -0.00015666     0.00015678     
  -0.22           -0.0001499      0.00014992     
  -0.21           -0.00014317     0.00014316     
  -0.2            -0.00013639     0.00013646     
  -0.19           -0.00012949     0.00012962     
  -0.18           -0.00012258     0.00012266     
  -0.17           -0.00011577     0.0001159      
  -0.16           -0.00010897     0.00010904     
  -0.15           -0.00010219     0.00010221     
  -0.14           -9.5414e-005    9.5373e-005    
  -0.13           -8.858e-005     8.8594e-005    
  -0.12           -8.177e-005     8.1802e-005    
  -0.11           -7.4889e-005    7.4931e-005    
  -0.1            -6.8058e-005    6.8065e-005    
  -0.09           -6.1266e-005    6.1242e-005    
  -0.08           -5.4464e-005    5.4476e-005    
  -0.07           -4.7677e-005    4.769e-005     
  -0.06           -4.0789e-005    4.0846e-005    
  -0.05           -3.3968e-005    3.398e-005     
  -0.04           -2.7147e-005    2.7163e-005    
  -0.03           -2.0366e-005    2.0372e-005    
  -0.02           -1.3539e-005    1.355e-005     
  -0.01           -6.7058e-006    6.7171e-006    
  0               6.0013e-008     -6.1752e-008   
  0.01            6.8951e-006     -6.8962e-006   
  0.02            1.374e-005      -1.3717e-005   
  0.03            2.0517e-005     -2.053e-005    
  0.04            2.7331e-005     -2.7348e-005   
  0.05            3.415e-005      -3.4152e-005   
  0.06            4.1002e-005     -4.0974e-005   
  0.07            4.7813e-005     -4.7774e-005   
  0.08            5.4651e-005     -5.4635e-005   
  0.09            6.1441e-005     -6.147e-005    
  0.1             6.8231e-005     -6.8282e-005   
  0.11            7.5015e-005     -7.5e-005      
  0.12            8.1858e-005     -8.1836e-005   
  0.13            8.8757e-005     -8.8715e-005   
  0.14            9.5585e-005     -9.5508e-005   
  0.15            0.00010239      -0.000102413   
  0.16            0.00010915      -0.0001091     
  0.17            0.00011605      -0.00011592    
  0.18            0.00012296      -0.00012277    
  0.19            0.00012978      -0.00012972    
  0.2             0.00013645      -0.00013648    
  0.21            0.00014325      -0.0001432     
  0.22            0.00015015      -0.00015001    
  0.23            0.00015708      -0.00015691    
  0.24            0.00016387      -0.00016378    
  0.25            0.00017061      -0.00017061    
  0.26            0.00017734      -0.00017734    
  0.27            0.00018419      -0.00018423    
  0.28            0.000191        -0.00019094    
  0.29            0.00019788      -0.00019772    
  0.3             0.00020482      -0.00020465    
  0.31            0.00021165      -0.00021145    
  0.32            0.00021853      -0.00021841    
  0.33            0.00022518      -0.00022522    
  0.34            0.00023187      -0.00023191    
  0.35            0.00023873      -0.00023864    
  0.36            0.00024576      -0.00024549    
  0.37            0.00025259      -0.00025248    
  0.38            0.00025934      -0.00025937    
  0.39            0.00026596      -0.00026605    
  0.4             0.00027278      -0.00027271    
  0.41            0.00027973      -0.00027951    
  0.42            0.00028671      -0.00028652    
  0.43            0.00029354      -0.00029327    
  0.44            0.00030041      -0.0003003     
  0.45            0.00030707      -0.00030714    
  0.46            0.00031364      -0.00031374    
  0.47            0.00032051      -0.00032066    
  0.48            0.0003273       -0.00032726    
  0.49            0.00033432      -0.00033408    
  0.5             0.00034131      -0.00034104    
  0.51            0.00034808      -0.00034807    
  0.52            0.00035466      -0.00035484    
  0.53            0.00036138      -0.00036135    
  0.54            0.0003683       -0.00036808    
  0.55            0.0003754       -0.00037509    
  0.56            0.00038226      -0.00038216    
  0.57            0.00038886      -0.00038899    
  0.58            0.00039548      -0.00039556    
  0.59            0.0004023       -0.00040246    
  0.6             0.00040909      -0.00040905    
  0.61            0.00041616      -0.00041586    
  0.62            0.00042323      -0.00042295    
  0.63            0.00042995      -0.00042961    
  0.64            0.00043688      -0.00043674    
  0.65            0.00044345      -0.00044361    
  0.66            0.00045002      -0.00045014    
  0.67            0.00045683      -0.00045671    
  0.68            0.00046399      -0.00046362    
  0.69            0.000471        -0.00047081    
  0.7             0.00047766      -0.00047776    
  0.71            0.00048411      -0.00048435    
  0.72            0.00049083      -0.00049081    
  0.73            0.00049797      -0.00049765    
  0.74            0.00050509      -0.00050476    
  0.75            0.00051188      -0.00051146    
  0.76            0.00051874      -0.0005186     
  0.77            0.00052526      -0.00052544    
  0.78            0.00053178      -0.00053194    
  0.79            0.00053863      -0.0005385     
  0.8             0.00054582      -0.0005454     
  0.81            0.00055283      -0.00055266    
  0.82            0.00055946      -0.0005596     
  0.83            0.00056587      -0.00056613    
  0.84            0.00057264      -0.00057254    
  0.85            0.00057981      -0.00057941    
  0.86            0.00058692      -0.00058665    
  0.87            0.00059371      -0.00059326    
  0.88            0.00060056      -0.00060045    
  0.89            0.00060703      -0.00060727    
  0.9             0.00061351      -0.0006137     
  0.91            0.00062038      -0.00062074    
  0.92            0.00062715      -0.00062714    
  0.93            0.00063428      -0.0006339     
  0.94            0.00064149      -0.00064108    
  0.95            0.00064827      -0.00064825    
  0.96            0.00065459      -0.00065496    
  0.97            0.00066114      -0.0006612     
  0.98            0.00066821      -0.00066789    
  0.99            0.00067555      -0.00067504    
  1               0.00068243      -0.00068233    
END_DB

