! VERSION = 6.00
BEGIN_HEADER
 ICCAP_INPUTS
  VU1        V  E GROUND SMU2 0.1 CON        0
  VU2        V  S GROUND SMU3 0.1 CON        0
  V2         V  B GROUND SMU1 0.015 CON        0
  V1         V  C GROUND SMU4 0.015 LIN        1    -0.5       0.5        101  0.01      
 ICCAP_OUTPUTS
  I1         I  C GROUND SMU4 B
  I2         I  B GROUND SMU1 B
END_HEADER

BEGIN_DB
 ICCAP_VAR VU1        0              
 ICCAP_VAR VU2        0              
 ICCAP_VAR V2         0              

 #V1              I1              I2             
  -0.5            -0.00036744     0.00036748     
  -0.49           -0.00036007     0.0003598      
  -0.48           -0.00035247     0.00035244     
  -0.47           -0.00034443     0.00034475     
  -0.46           -0.00033635     0.00033671     
  -0.45           -0.00032866     0.00032872     
  -0.44           -0.00032123     0.00032107     
  -0.43           -0.00031381     0.00031377     
  -0.42           -0.0003061      0.0003059      
  -0.41           -0.00029855     0.00029867     
  -0.4            -0.00029072     0.00029106     
  -0.39           -0.00028289     0.00028316     
  -0.38           -0.00027545     0.00027577     
  -0.37           -0.0002679      0.000268       
  -0.36           -0.00026059     0.00026051     
  -0.35           -0.00025332     0.00025324     
  -0.34           -0.00024581     0.00024598     
  -0.33           -0.00023816     0.0002384      
  -0.32           -0.00023062     0.00023081     
  -0.31           -0.00022334     0.00022332     
  -0.3            -0.00021625     0.00021616     
  -0.29           -0.00020889     0.00020894     
  -0.28           -0.0002014      0.00020165     
  -0.27           -0.00019393     0.00019408     
  -0.26           -0.00018663     0.00018688     
  -0.25           -0.00017931     0.0001794      
  -0.24           -0.0001722      0.00017216     
  -0.23           -0.00016507     0.00016508     
  -0.22           -0.00015776     0.00015789     
  -0.21           -0.00015039     0.00015059     
  -0.2            -0.00014308     0.00014324     
  -0.19           -0.00013598     0.00013597     
  -0.18           -0.00012889     0.00012886     
  -0.17           -0.00012168     0.00012176     
  -0.16           -0.00011443     0.0001146      
  -0.15           -0.00010716     0.00010728     
  -0.14           -0.000100143    0.00010015     
  -0.13           -9.2792e-005    9.2836e-005    
  -0.12           -8.573e-005     8.5701e-005    
  -0.11           -7.8627e-005    7.8562e-005    
  -0.1            -7.1483e-005    7.1475e-005    
  -0.09           -6.4269e-005    6.4309e-005    
  -0.08           -5.7048e-005    5.7098e-005    
  -0.07           -4.994e-005     4.9944e-005    
  -0.06           -4.2796e-005    4.2795e-005    
  -0.05           -3.5672e-005    3.5661e-005    
  -0.04           -2.8497e-005    2.8516e-005    
  -0.03           -2.1373e-005    2.1386e-005    
  -0.02           -1.4193e-005    1.4207e-005    
  -0.01           -7.0452e-006    7.0282e-006    
  0               6.6642e-008     -7.1207e-008   
  0.01            7.2548e-006     -7.2566e-006   
  0.02            1.4444e-005     -1.4405e-005   
  0.03            2.1564e-005     -2.1575e-005   
  0.04            2.8725e-005     -2.8752e-005   
  0.05            3.5893e-005     -3.5899e-005   
  0.06            4.3131e-005     -4.3073e-005   
  0.07            5.031e-005      -5.027e-005    
  0.08            5.7532e-005     -5.751e-005    
  0.09            6.4685e-005     -6.4729e-005   
  0.1             7.1844e-005     -7.1895e-005   
  0.11            7.9027e-005     -7.9012e-005   
  0.12            8.6319e-005     -8.625e-005    
  0.13            9.3646e-005     -9.3561e-005   
  0.14            0.00010088      -0.000100768   
  0.15            0.00010807      -0.00010811    
  0.16            0.00011528      -0.00011522    
  0.17            0.0001227       -0.00012251    
  0.18            0.00013013      -0.00012993    
  0.19            0.0001374       -0.00013719    
  0.2             0.00014472      -0.0001446     
  0.21            0.00015194      -0.00015197    
  0.22            0.00015918      -0.00015921    
  0.23            0.00016655      -0.00016644    
  0.24            0.00017402      -0.0001738     
  0.25            0.00018152      -0.00018139    
  0.26            0.00018888      -0.0001889     
  0.27            0.00019611      -0.00019621    
  0.28            0.00020348      -0.00020342    
  0.29            0.00021106      -0.00021082    
  0.3             0.00021871      -0.00021844    
  0.31            0.00022618      -0.00022613    
  0.32            0.00023345      -0.00023359    
  0.33            0.00024076      -0.00024074    
  0.34            0.00024843      -0.00024824    
  0.35            0.00025632      -0.00025599    
  0.36            0.00026394      -0.00026383    
  0.37            0.00027125      -0.00027134    
  0.38            0.00027861      -0.0002787     
  0.39            0.00028628      -0.00028648    
  0.4             0.00029388      -0.00029385    
  0.41            0.00030178      -0.00030146    
  0.42            0.00030976      -0.00030947    
  0.43            0.00031745      -0.00031747    
  0.44            0.00032487      -0.00032512    
  0.45            0.00033248      -0.00033249    
  0.46            0.0003404       -0.00034013    
  0.47            0.00034858      -0.00034815    
  0.48            0.00035651      -0.00035639    
  0.49            0.00036403      -0.00036428    
  0.5             0.00037157      -0.00037174    
END_DB

