! VERSION = 6.00
BEGIN_HEADER
 ICCAP_INPUTS
  VU1        V  E GROUND SMU2 0.1 CON        0
  VU2        V  S GROUND SMU3 0.1 CON        0
  V2         V  B GROUND SMU4 0.015 CON        0
  V1         V  C GROUND SMU1 0.015 LIN        1    -1         1          201  0.01      
 ICCAP_OUTPUTS
  I1         I  C GROUND SMU1 B
  I2         I  B GROUND SMU4 B
END_HEADER

BEGIN_DB
 ICCAP_VAR VU1        0              
 ICCAP_VAR VU2        0              
 ICCAP_VAR V2         0              

 #V1              I1              I2             
  -1              -0.00075824     0.00075835     
  -0.99           -0.00075061     0.00075044     
  -0.98           -0.0007427      0.00074253     
  -0.97           -0.0007348      0.000735       
  -0.96           -0.00072736     0.0007278      
  -0.95           -0.00072026     0.00072047     
  -0.94           -0.00071277     0.00071268     
  -0.93           -0.00070492     0.00070467     
  -0.92           -0.000697       0.00069707     
  -0.91           -0.00068945     0.00068983     
  -0.9            -0.00068218     0.00068252     
  -0.89           -0.00067448     0.00067492     
  -0.88           -0.00066724     0.00066742     
  -0.87           -0.00065971     0.00065955     
  -0.86           -0.00065181     0.00065165     
  -0.85           -0.00064437     0.00064414     
  -0.84           -0.00063646     0.0006365      
  -0.83           -0.00062885     0.00062917     
  -0.82           -0.00062154     0.00062189     
  -0.81           -0.00061426     0.00061431     
  -0.8            -0.00060657     0.00060639     
  -0.79           -0.00059859     0.00059862     
  -0.78           -0.00059089     0.00059116     
  -0.77           -0.00058352     0.00058393     
  -0.76           -0.00057631     0.00057643     
  -0.75           -0.00056866     0.00056854     
  -0.74           -0.0005609      0.00056078     
  -0.73           -0.00055341     0.00055322     
  -0.72           -0.0005455      0.00054558     
  -0.71           -0.00053796     0.00053823     
  -0.7            -0.00053061     0.00053091     
  -0.69           -0.00052322     0.00052327     
  -0.68           -0.00051558     0.00051544     
  -0.67           -0.00050765     0.00050772     
  -0.66           -0.0005         0.00050025     
  -0.65           -0.00049265     0.00049299     
  -0.64           -0.0004853      0.00048543     
  -0.63           -0.00047767     0.00047757     
  -0.62           -0.00046988     0.00046983     
  -0.61           -0.00046242     0.0004623      
  -0.6            -0.0004546      0.00045466     
  -0.59           -0.00044706     0.00044732     
  -0.58           -0.00043964     0.00043994     
  -0.57           -0.00043198     0.0004323      
  -0.56           -0.00042466     0.00042482     
  -0.55           -0.00041709     0.00041705     
  -0.54           -0.0004093      0.00040924     
  -0.53           -0.00040161     0.00040174     
  -0.52           -0.00039408     0.00039434     
  -0.51           -0.00038671     0.00038688     
  -0.5            -0.00037922     0.00037923     
  -0.49           -0.00037149     0.00037143     
  -0.48           -0.00036371     0.00036381     
  -0.47           -0.00035619     0.00035643     
  -0.46           -0.00034874     0.00034901     
  -0.45           -0.00034113     0.00034142     
  -0.44           -0.00033373     0.00033387     
  -0.43           -0.00032614     0.00032612     
  -0.42           -0.00031847     0.00031845     
  -0.41           -0.00031074     0.00031087     
  -0.4            -0.00030319     0.0003034      
  -0.39           -0.00029585     0.00029598     
  -0.38           -0.00028828     0.00028833     
  -0.37           -0.0002806      0.00028054     
  -0.36           -0.00027292     0.000273       
  -0.35           -0.00026531     0.00026551     
  -0.34           -0.00025782     0.00025804     
  -0.33           -0.00025041     0.00025047     
  -0.32           -0.00024276     0.00024273     
  -0.31           -0.00023501     0.00023508     
  -0.3            -0.00022743     0.0002276      
  -0.29           -0.00021991     0.00022014     
  -0.28           -0.00021243     0.00021256     
  -0.27           -0.00020488     0.00020489     
  -0.26           -0.0001972      0.00019722     
  -0.25           -0.00018963     0.00018963     
  -0.24           -0.000182       0.00018207     
  -0.23           -0.00017436     0.00017452     
  -0.22           -0.00016687     0.00016702     
  -0.21           -0.00015937     0.00015947     
  -0.2            -0.00015173     0.00015178     
  -0.19           -0.00014408     0.00014414     
  -0.18           -0.0001365      0.00013665     
  -0.17           -0.00012895     0.00012913     
  -0.16           -0.00012146     0.0001216      
  -0.15           -0.00011388     0.00011392     
  -0.14           -0.00010625     0.00010627     
  -0.13           -9.8646e-005    9.8629e-005    
  -0.12           -9.1034e-005    9.1046e-005    
  -0.11           -8.3442e-005    8.347e-005     
  -0.1            -7.5925e-005    7.5986e-005    
  -0.09           -6.8376e-005    6.8381e-005    
  -0.08           -6.0782e-005    6.0772e-005    
  -0.07           -5.3222e-005    5.3198e-005    
  -0.06           -4.5592e-005    4.5599e-005    
  -0.05           -3.7982e-005    3.802e-005     
  -0.04           -3.0466e-005    3.0493e-005    
  -0.03           -2.2883e-005    2.2904e-005    
  -0.02           -1.529e-005     1.5282e-005    
  -0.01           -7.7248e-006    7.7319e-006    
  0               -1.224e-007     1.12834e-007   
  0.01            7.4796e-006     -7.465e-006    
  0.02            1.5003e-005     -1.4994e-005   
  0.03            2.2607e-005     -2.2592e-005   
  0.04            3.0189e-005     -3.0183e-005   
  0.05            3.7729e-005     -3.7718e-005   
  0.06            4.5328e-005     -4.5337e-005   
  0.07            5.2953e-005     -5.2932e-005   
  0.08            6.0484e-005     -6.0455e-005   
  0.09            6.8049e-005     -6.8019e-005   
  0.1             7.5621e-005     -7.5622e-005   
  0.11            8.3161e-005     -8.3182e-005   
  0.12            9.0832e-005     -9.0812e-005   
  0.13            9.8361e-005     -9.8376e-005   
  0.14            0.000105943     -0.00010584    
  0.15            0.00011355      -0.00011342    
  0.16            0.00012115      -0.00012107    
  0.17            0.00012874      -0.00012868    
  0.18            0.00013638      -0.00013627    
  0.19            0.00014394      -0.00014377    
  0.2             0.00015143      -0.00015127    
  0.21            0.00015898      -0.00015891    
  0.22            0.00016664      -0.00016662    
  0.23            0.00017427      -0.00017414    
  0.24            0.00018186      -0.00018167    
  0.25            0.00018932      -0.00018915    
  0.26            0.00019695      -0.00019675    
  0.27            0.00020444      -0.00020433    
  0.28            0.00021204      -0.00021199    
  0.29            0.00021975      -0.0002197     
  0.3             0.00022737      -0.00022723    
  0.31            0.00023491      -0.00023469    
  0.32            0.00024238      -0.00024223    
  0.33            0.00024989      -0.00024983    
  0.34            0.00025758      -0.00025758    
  0.35            0.00026533      -0.00026521    
  0.36            0.00027284      -0.00027263    
  0.37            0.00028028      -0.0002801     
  0.38            0.000288        -0.00028773    
  0.39            0.00029538      -0.00029526    
  0.4             0.00030297      -0.00030297    
  0.41            0.00031072      -0.00031073    
  0.42            0.00031839      -0.00031826    
  0.43            0.00032594      -0.00032565    
  0.44            0.00033333      -0.00033317    
  0.45            0.00034083      -0.00034081    
  0.46            0.00034854      -0.00034861    
  0.47            0.00035632      -0.00035623    
  0.48            0.00036384      -0.0003636     
  0.49            0.00037122      -0.00037105    
  0.5             0.00037896      -0.00037867    
  0.51            0.00038633      -0.00038617    
  0.52            0.00039392      -0.00039394    
  0.53            0.00040171      -0.00040174    
  0.54            0.00040947      -0.00040931    
  0.55            0.00041694      -0.00041662    
  0.56            0.00042427      -0.00042409    
  0.57            0.00043183      -0.00043181    
  0.58            0.00043952      -0.0004396     
  0.59            0.00044733      -0.00044724    
  0.6             0.00045493      -0.00045465    
  0.61            0.00046218      -0.00046197    
  0.62            0.00046996      -0.00046962    
  0.63            0.00047729      -0.00047718    
  0.64            0.00048485      -0.00048492    
  0.65            0.00049269      -0.00049274    
  0.66            0.00050012      -0.00050028    
  0.67            0.00050797      -0.00050791    
  0.68            0.00051557      -0.00051531    
  0.69            0.00052291      -0.00052261    
  0.7             0.00053028      -0.00053019    
  0.71            0.00053791      -0.00053808    
  0.72            0.0005458       -0.00054584    
  0.73            0.00055348      -0.00055326    
  0.74            0.00056091      -0.00056051    
  0.75            0.00056818      -0.00056803    
  0.76            0.00057572      -0.00057579    
  0.77            0.00058358      -0.00058367    
  0.78            0.00059141      -0.00059126    
  0.79            0.00059884      -0.00059843    
  0.8             0.00060605      -0.00060585    
  0.81            0.00061355      -0.00061362    
  0.82            0.00062134      -0.00062152    
  0.83            0.00062923      -0.00062915    
  0.84            0.00063683      -0.00063645    
  0.85            0.00064398      -0.00064372    
  0.86            0.00065179      -0.00065136    
  0.87            0.000659        -0.00065887    
  0.88            0.00066656      -0.00066668    
  0.89            0.00067449      -0.00067462    
  0.9             0.00068232      -0.00068216    
  0.91            0.00068975      -0.00068932    
  0.92            0.00069693      -0.00069671    
  0.93            0.00070442      -0.0007045     
  0.94            0.00071221      -0.00071243    
  0.95            0.00072017      -0.00072005    
  0.96            0.00072774      -0.00072736    
  0.97            0.00073486      -0.00073459    
  0.98            0.00074269      -0.00074224    
  0.99            0.00074989      -0.00074975    
  1               0.00075746      -0.00075764    
END_DB

