! VERSION = 6.00
BEGIN_HEADER
 ICCAP_INPUTS
  VU1        V  E GROUND SMU2 0.1 CON        0
  VU2        V  S GROUND SMU3 0.1 CON        0
  V2         V  B GROUND SMU1 0.015 CON        0
  V1         V  C GROUND SMU4 0.015 LIN        1    -1         1          201  0.01      
 ICCAP_OUTPUTS
  I1         I  C GROUND SMU4 B
  I2         I  B GROUND SMU1 B
END_HEADER

BEGIN_DB
 ICCAP_VAR VU1        0              
 ICCAP_VAR VU2        0              
 ICCAP_VAR V2         0              

 #V1              I1              I2             
  -1              -0.00051699     0.00051742     
  -0.99           -0.00051241     0.0005129      
  -0.98           -0.00050644     0.00050689     
  -0.97           -0.00050281     0.00050302     
  -0.96           -0.00049614     0.00049619     
  -0.95           -0.00049211     0.00049238     
  -0.94           -0.00048776     0.00048752     
  -0.93           -0.00048229     0.00048205     
  -0.92           -0.00047719     0.00047663     
  -0.91           -0.00047268     0.00047323     
  -0.9            -0.00046742     0.00046757     
  -0.89           -0.00046258     0.00046172     
  -0.88           -0.00045655     0.00045626     
  -0.87           -0.000452       0.00045209     
  -0.86           -0.00044595     0.00044667     
  -0.85           -0.00044099     0.00044069     
  -0.84           -0.00043564     0.00043567     
  -0.83           -0.00043064     0.00043051     
  -0.82           -0.00042573     0.00042582     
  -0.81           -0.00042015     0.00042044     
  -0.8            -0.00041499     0.00041523     
  -0.79           -0.00040957     0.00041004     
  -0.78           -0.00040482     0.00040454     
  -0.77           -0.00039965     0.00039966     
  -0.76           -0.00039418     0.0003943      
  -0.75           -0.00038871     0.00038899     
  -0.74           -0.0003836      0.00038397     
  -0.73           -0.00037852     0.00037849     
  -0.72           -0.00037329     0.00037315     
  -0.71           -0.00036843     0.00036815     
  -0.7            -0.00036344     0.00036322     
  -0.69           -0.0003574      0.00035739     
  -0.68           -0.00035207     0.00035234     
  -0.67           -0.0003464      0.00034643     
  -0.66           -0.00034107     0.00034118     
  -0.65           -0.00033613     0.0003364      
  -0.64           -0.00033053     0.00033077     
  -0.63           -0.00032508     0.00032528     
  -0.62           -0.00031978     0.00032014     
  -0.61           -0.00031467     0.00031474     
  -0.6            -0.00030964     0.00030953     
  -0.59           -0.00030462     0.0003045      
  -0.58           -0.0002993      0.00029956     
  -0.57           -0.00029413     0.00029431     
  -0.56           -0.00028938     0.00028905     
  -0.55           -0.00028407     0.00028352     
  -0.54           -0.00027894     0.0002789      
  -0.53           -0.00027361     0.00027376     
  -0.52           -0.00026827     0.00026838     
  -0.51           -0.00026316     0.00026338     
  -0.5            -0.00025817     0.00025817     
  -0.49           -0.00025299     0.00025272     
  -0.48           -0.00024737     0.00024743     
  -0.47           -0.00024263     0.0002431      
  -0.46           -0.00023761     0.00023744     
  -0.45           -0.00023169     0.00023221     
  -0.44           -0.00022642     0.00022693     
  -0.43           -0.00022172     0.00022175     
  -0.42           -0.0002166      0.00021666     
  -0.41           -0.00021158     0.00021168     
  -0.4            -0.00020649     0.00020672     
  -0.39           -0.00020127     0.00020134     
  -0.38           -0.00019588     0.00019614     
  -0.37           -0.00019029     0.0001907      
  -0.36           -0.00018545     0.00018532     
  -0.35           -0.00018021     0.00018011     
  -0.34           -0.00017507     0.00017522     
  -0.33           -0.00016941     0.00016962     
  -0.32           -0.00016465     0.0001648      
  -0.31           -0.00015931     0.00015934     
  -0.3            -0.00015401     0.00015401     
  -0.29           -0.00014889     0.00014898     
  -0.28           -0.00014347     0.00014352     
  -0.27           -0.00013757     0.00013753     
  -0.26           -0.00013238     0.00013263     
  -0.25           -0.00012729     0.00012741     
  -0.24           -0.00012231     0.00012231     
  -0.23           -0.00011705     0.00011704     
  -0.22           -0.00011209     0.00011232     
  -0.21           -0.00010689     0.00010703     
  -0.2            -0.00010184     0.00010167     
  -0.19           -9.667e-005     9.6819e-005    
  -0.18           -9.1573e-005    9.1553e-005    
  -0.17           -8.6533e-005    8.6531e-005    
  -0.16           -8.1448e-005    8.1451e-005    
  -0.15           -7.623e-005     7.6317e-005    
  -0.14           -7.1192e-005    7.1221e-005    
  -0.13           -6.6112e-005    6.6082e-005    
  -0.12           -6.0991e-005    6.097e-005     
  -0.11           -5.5759e-005    5.5763e-005    
  -0.1            -5.0199e-005    5.04e-005      
  -0.09           -4.4384e-005    4.4696e-005    
  -0.08           -3.9219e-005    3.9245e-005    
  -0.07           -3.4375e-005    3.4373e-005    
  -0.06           -2.9444e-005    2.9425e-005    
  -0.05           -2.4513e-005    2.4525e-005    
  -0.04           -1.9553e-005    1.9568e-005    
  -0.03           -1.4633e-005    1.4638e-005    
  -0.02           -9.7373e-006    9.7252e-006    
  -0.01           -4.8205e-006    4.8157e-006    
  0               4.7848e-008     -4.818e-008    
  0.01            4.9467e-006     -4.9537e-006   
  0.02            9.864e-006      -9.8617e-006   
  0.03            1.47e-005       -1.4699e-005   
  0.04            1.9481e-005     -1.9484e-005   
  0.05            2.4524e-005     -2.434e-005    
  0.06            2.9264e-005     -2.9199e-005   
  0.07            3.4109e-005     -3.4132e-005   
  0.08            3.9015e-005     -3.902e-005    
  0.09            4.3766e-005     -4.3806e-005   
  0.1             4.8589e-005     -4.8689e-005   
  0.11            5.3388e-005     -5.3324e-005   
  0.12            5.8378e-005     -5.8327e-005   
  0.13            6.333e-005      -6.3359e-005   
  0.14            6.8293e-005     -6.8283e-005   
  0.15            7.3252e-005     -7.3173e-005   
  0.16            7.7864e-005     -7.8113e-005   
  0.17            8.2765e-005     -8.2776e-005   
  0.18            8.7951e-005     -8.7848e-005   
  0.19            9.2912e-005     -9.2789e-005   
  0.2             9.7558e-005     -9.7399e-005   
  0.21            0.00010232      -0.000102487   
  0.22            0.00010693      -0.00010679    
  0.23            0.0001118       -0.0001117     
  0.24            0.00011681      -0.00011682    
  0.25            0.00012158      -0.00012154    
  0.26            0.00012662      -0.00012652    
  0.27            0.00013119      -0.00013111    
  0.28            0.00013617      -0.00013598    
  0.29            0.00014104      -0.00014059    
  0.3             0.00014587      -0.00014573    
  0.31            0.00015088      -0.00015099    
  0.32            0.00015548      -0.00015545    
  0.33            0.00015973      -0.00015932    
  0.34            0.00016442      -0.00016435    
  0.35            0.00016946      -0.0001695     
  0.36            0.00017443      -0.00017422    
  0.37            0.00017892      -0.00017876    
  0.38            0.00018355      -0.00018368    
  0.39            0.00018899      -0.00018891    
  0.4             0.00019406      -0.00019373    
  0.41            0.00019889      -0.00019893    
  0.42            0.00020361      -0.00020384    
  0.43            0.00020865      -0.00020825    
  0.44            0.00021405      -0.00021323    
  0.45            0.00021823      -0.00021827    
  0.46            0.0002232       -0.00022296    
  0.47            0.00022746      -0.00022739    
  0.48            0.0002323       -0.00023224    
  0.49            0.00023711      -0.00023698    
  0.5             0.00024201      -0.00024176    
  0.51            0.00024718      -0.00024677    
  0.52            0.00025173      -0.00025153    
  0.53            0.00025677      -0.0002568     
  0.54            0.00026148      -0.0002614     
  0.55            0.00026634      -0.00026623    
  0.56            0.00027138      -0.00027115    
  0.57            0.00027641      -0.0002759     
  0.58            0.00028108      -0.00028087    
  0.59            0.00028557      -0.00028528    
  0.6             0.00028968      -0.00028989    
  0.61            0.00029452      -0.00029479    
  0.62            0.00029906      -0.00029909    
  0.63            0.00030337      -0.00030319    
  0.64            0.00030829      -0.00030808    
  0.65            0.00031346      -0.00031342    
  0.66            0.00031729      -0.00031788    
  0.67            0.00032292      -0.0003227     
  0.68            0.00032761      -0.00032766    
  0.69            0.00033269      -0.00033237    
  0.7             0.00033734      -0.00033738    
  0.71            0.00034161      -0.00034244    
  0.72            0.00034688      -0.00034648    
  0.73            0.00034976      -0.00035074    
  0.74            0.00035243      -0.00035488    
  0.75            0.00035953      -0.00035945    
  0.76            0.0003643       -0.00036496    
  0.77            0.00036995      -0.00036939    
  0.78            0.00037391      -0.00037411    
  0.79            0.00037853      -0.00037931    
  0.8             0.00038235      -0.00038395    
  0.81            0.0003882       -0.00038855    
  0.82            0.00039419      -0.00039306    
  0.83            0.00039752      -0.00039681    
  0.84            0.0004023       -0.00040224    
  0.85            0.00040664      -0.00040739    
  0.86            0.00041058      -0.00040978    
  0.87            0.00041546      -0.0004155     
  0.88            0.00042118      -0.00042064    
  0.89            0.00042467      -0.00042351    
  0.9             0.00042812      -0.0004271     
  0.91            0.00043187      -0.00043269    
  0.92            0.00043631      -0.00043739    
  0.93            0.00043747      -0.00043736    
  0.94            0.00044031      -0.00043974    
  0.95            0.00044794      -0.00044768    
  0.96            0.00045084      -0.00045156    
  0.97            0.00045544      -0.00045644    
  0.98            0.00046081      -0.00046076    
  0.99            0.00046738      -0.00046702    
  1               0.00047375      -0.00047214    
END_DB

