! VERSION = 6.00
BEGIN_HEADER
 ICCAP_INPUTS
  VU1        V  E GROUND SMU2 0.1 CON        0
  VU2        V  S GROUND SMU3 0.1 CON        0
  V2         V  B GROUND SMU4 0.015 CON        0
  V1         V  C GROUND SMU1 0.015 LIN        1    -1         1          201  0.01      
 ICCAP_OUTPUTS
  I1         I  C GROUND SMU1 B
  I2         I  B GROUND SMU4 B
END_HEADER

BEGIN_DB
 ICCAP_VAR VU1        0              
 ICCAP_VAR VU2        0              
 ICCAP_VAR V2         0              

 #V1              I1              I2             
  -1              -0.0046527      0.0046552      
  -0.99           -0.0046076      0.0046085      
  -0.98           -0.0045607      0.0045602      
  -0.97           -0.0045123      0.004512       
  -0.96           -0.0044661      0.0044655      
  -0.95           -0.004418       0.0044187      
  -0.94           -0.0043714      0.0043736      
  -0.93           -0.004326       0.0043283      
  -0.92           -0.0042788      0.0042817      
  -0.91           -0.0042338      0.0042351      
  -0.9            -0.0041871      0.0041869      
  -0.89           -0.004139       0.0041389      
  -0.88           -0.0040909      0.0040922      
  -0.87           -0.004045       0.0040476      
  -0.86           -0.0040003      0.0040015      
  -0.85           -0.0039541      0.003954       
  -0.84           -0.0039064      0.0039058      
  -0.83           -0.003858       0.0038587      
  -0.82           -0.0038115      0.0038136      
  -0.81           -0.0037663      0.0037683      
  -0.8            -0.003719       0.0037213      
  -0.79           -0.0036735      0.0036747      
  -0.78           -0.0036267      0.0036269      
  -0.77           -0.0035788      0.0035785      
  -0.76           -0.0035331      0.0035324      
  -0.75           -0.0034848      0.0034853      
  -0.74           -0.0034382      0.0034399      
  -0.73           -0.003393       0.0033947      
  -0.72           -0.003347       0.0033481      
  -0.71           -0.0033006      0.0033005      
  -0.7            -0.003252       0.0032525      
  -0.69           -0.0032051      0.0032064      
  -0.68           -0.0031595      0.0031615      
  -0.67           -0.003114       0.0031152      
  -0.66           -0.0030672      0.0030673      
  -0.65           -0.0030198      0.0030198      
  -0.64           -0.002972       0.0029731      
  -0.63           -0.0029257      0.0029277      
  -0.62           -0.0028808      0.0028821      
  -0.61           -0.0028346      0.0028347      
  -0.6            -0.0027872      0.0027869      
  -0.59           -0.0027396      0.0027403      
  -0.58           -0.0026931      0.002695       
  -0.57           -0.0026475      0.002649       
  -0.56           -0.0026005      0.0026028      
  -0.55           -0.0025551      0.0025559      
  -0.54           -0.0025085      0.0025085      
  -0.53           -0.0024614      0.0024614      
  -0.52           -0.002415       0.0024151      
  -0.51           -0.0023673      0.002368       
  -0.5            -0.002321       0.0023226      
  -0.49           -0.0022754      0.0022769      
  -0.48           -0.0022293      0.0022302      
  -0.47           -0.0021828      0.0021832      
  -0.46           -0.0021353      0.002136       
  -0.45           -0.002089       0.0020901      
  -0.44           -0.0020428      0.0020446      
  -0.43           -0.0019971      0.001998       
  -0.42           -0.0019507      0.001951       
  -0.41           -0.0019038      0.0019039      
  -0.4            -0.0018573      0.0018574      
  -0.39           -0.0018104      0.0018112      
  -0.38           -0.0017638      0.001765       
  -0.37           -0.0017179      0.0017193      
  -0.36           -0.0016723      0.0016728      
  -0.35           -0.0016253      0.0016256      
  -0.34           -0.0015781      0.0015788      
  -0.33           -0.0015318      0.001533       
  -0.32           -0.0014855      0.0014871      
  -0.31           -0.0014397      0.0014405      
  -0.3            -0.0013933      0.0013939      
  -0.29           -0.0013467      0.0013467      
  -0.28           -0.0012999      0.0013004      
  -0.27           -0.0012531      0.001254       
  -0.26           -0.0012066      0.001208       
  -0.25           -0.0011605      0.0011619      
  -0.24           -0.0011146      0.0011157      
  -0.23           -0.0010682      0.0010687      
  -0.22           -0.0010208      0.0010216      
  -0.21           -0.00097566     0.00097515     
  -0.2            -0.00092851     0.00092869     
  -0.19           -0.00088211     0.00088249     
  -0.18           -0.00083639     0.00083653     
  -0.17           -0.00078987     0.0007898      
  -0.16           -0.00074347     0.00074322     
  -0.15           -0.00069669     0.00069668     
  -0.14           -0.00065019     0.00065055     
  -0.13           -0.00060407     0.0006045      
  -0.12           -0.00055761     0.00055796     
  -0.11           -0.00051126     0.00051149     
  -0.1            -0.00046517     0.00046507     
  -0.09           -0.00041852     0.00041837     
  -0.08           -0.00037178     0.00037192     
  -0.07           -0.0003257      0.00032592     
  -0.06           -0.00027937     0.0002794      
  -0.05           -0.00023275     0.00023285     
  -0.04           -0.00018654     0.00018651     
  -0.03           -0.00013993     0.00013999     
  -0.02           -9.3292e-005    9.3229e-005    
  -0.01           -4.7221e-005    4.725e-005     
  0               -1.7852e-007    2.2356e-007    
  0.01            4.5644e-005     -4.5635e-005   
  0.02            9.1692e-005     -9.168e-005    
  0.03            0.00013842      -0.0001384     
  0.04            0.000185        -0.00018484    
  0.05            0.00023112      -0.00023095    
  0.06            0.00027743      -0.00027739    
  0.07            0.00032413      -0.00032399    
  0.08            0.00037014      -0.00037007    
  0.09            0.00041662      -0.00041666    
  0.1             0.00046348      -0.00046338    
  0.11            0.0005094       -0.00050949    
  0.12            0.00055616      -0.00055606    
  0.13            0.00060254      -0.0006024     
  0.14            0.00064862      -0.00064833    
  0.15            0.00069489      -0.00069483    
  0.16            0.00074144      -0.00074191    
  0.17            0.00078781      -0.00078805    
  0.18            0.00083473      -0.00083442    
  0.19            0.000881        -0.00088059    
  0.2             0.00092681      -0.00092667    
  0.21            0.0009733       -0.00097345    
  0.22            0.00102031      -0.00102049    
  0.23            0.00106676      -0.00106657    
  0.24            0.00111314      -0.0011126     
  0.25            0.0011597       -0.0011592     
  0.26            0.0012059       -0.0012048     
  0.27            0.0012522       -0.0012513     
  0.28            0.0012988       -0.0012986     
  0.29            0.0013463       -0.0013453     
  0.3             0.0013925       -0.0013913     
  0.31            0.0014386       -0.0014373     
  0.32            0.0014848       -0.001484      
  0.33            0.001531        -0.0015305     
  0.34            0.0015786       -0.0015776     
  0.35            0.0016245       -0.0016243     
  0.36            0.0016716       -0.0016705     
  0.37            0.0017181       -0.0017167     
  0.38            0.0017639       -0.0017628     
  0.39            0.00181         -0.0018091     
  0.4             0.0018567       -0.0018567     
  0.41            0.0019042       -0.0019036     
  0.42            0.0019508       -0.0019496     
  0.43            0.0019969       -0.0019952     
  0.44            0.0020425       -0.0020418     
  0.45            0.0020893       -0.0020888     
  0.46            0.0021368       -0.0021363     
  0.47            0.0021829       -0.0021825     
  0.48            0.00223         -0.002229      
  0.49            0.0022768       -0.0022752     
  0.5             0.0023225       -0.0023211     
  0.51            0.0023693       -0.0023677     
  0.52            0.0024152       -0.002414      
  0.53            0.0024617       -0.0024615     
  0.54            0.0025096       -0.0025091     
  0.55            0.0025566       -0.0025554     
  0.56            0.0026031       -0.0026009     
  0.57            0.0026486       -0.0026471     
  0.58            0.0026943       -0.002694      
  0.59            0.0027418       -0.0027422     
  0.6             0.0027897       -0.0027889     
  0.61            0.0028362       -0.0028345     
  0.62            0.0028818       -0.0028802     
  0.63            0.0029293       -0.0029271     
  0.64            0.0029744       -0.002973      
  0.65            0.003021        -0.0030207     
  0.66            0.0030689       -0.003069      
  0.67            0.0031164       -0.0031151     
  0.68            0.0031626       -0.0031604     
  0.69            0.0032082       -0.0032065     
  0.7             0.0032538       -0.0032536     
  0.71            0.0033014       -0.0033018     
  0.72            0.0033497       -0.0033489     
  0.73            0.0033961       -0.0033941     
  0.74            0.0034414       -0.0034398     
  0.75            0.0034891       -0.0034868     
  0.76            0.003534        -0.003533      
  0.77            0.003581        -0.0035808     
  0.78            0.003629        -0.0036292     
  0.79            0.0036766       -0.0036751     
  0.8             0.0037229       -0.0037205     
  0.81            0.0037683       -0.0037667     
  0.82            0.0038138       -0.0038138     
  0.83            0.0038618       -0.0038623     
  0.84            0.0039103       -0.0039093     
  0.85            0.0039567       -0.0039545     
  0.86            0.0040019       -0.0039998     
  0.87            0.0040475       -0.0040469     
  0.88            0.0040944       -0.0040951     
  0.89            0.0041435       -0.0041431     
  0.9             0.0041911       -0.004189      
  0.91            0.0042362       -0.0042336     
  0.92            0.0042812       -0.0042803     
  0.93            0.0043282       -0.0043285     
  0.94            0.0043765       -0.0043765     
  0.95            0.0044222       -0.0044231     
  0.96            0.0044712       -0.0044705     
  0.97            0.0045178       -0.0045158     
  0.98            0.004563        -0.0045609     
  0.99            0.0046084       -0.0046075     
  1               0.0046552       -0.0046565     
END_DB

