! VERSION = 6.00
BEGIN_HEADER
 ICCAP_INPUTS
  VU1        V  E GROUND SMU2 0.1 CON        0
  VU2        V  S GROUND SMU3 0.1 CON        0
  V2         V  B GROUND SMU1 0.015 CON        0
  V1         V  C GROUND SMU4 0.015 LIN        1    -1         1          201  0.01      
 ICCAP_OUTPUTS
  I1         I  C GROUND SMU4 B
  I2         I  B GROUND SMU1 B
END_HEADER

BEGIN_DB
 ICCAP_VAR VU1        0              
 ICCAP_VAR VU2        0              
 ICCAP_VAR V2         0              

 #V1              I1              I2             
  -1              -0.0013784      0.0013801      
  -0.99           -0.0013656      0.0013654      
  -0.98           -0.001352       0.0013528      
  -0.97           -0.0013378      0.0013388      
  -0.96           -0.0013232      0.0013242      
  -0.95           -0.0013095      0.0013101      
  -0.94           -0.0012963      0.0012964      
  -0.93           -0.0012828      0.0012834      
  -0.92           -0.001269       0.0012698      
  -0.91           -0.0012543      0.0012557      
  -0.9            -0.0012406      0.0012412      
  -0.89           -0.0012271      0.0012275      
  -0.88           -0.0012141      0.0012141      
  -0.87           -0.0012002      0.0012008      
  -0.86           -0.0011856      0.001187       
  -0.85           -0.0011716      0.0011724      
  -0.84           -0.001158       0.0011584      
  -0.83           -0.0011451      0.0011451      
  -0.82           -0.0011315      0.0011319      
  -0.81           -0.0011171      0.0011179      
  -0.8            -0.0011027      0.0011037      
  -0.79           -0.0010892      0.0010904      
  -0.78           -0.0010752      0.0010762      
  -0.77           -0.0010618      0.0010623      
  -0.76           -0.0010486      0.0010488      
  -0.75           -0.0010347      0.0010354      
  -0.74           -0.0010203      0.0010215      
  -0.73           -0.0010061      0.0010071      
  -0.72           -0.00099279     0.00099371     
  -0.71           -0.00097901     0.00097903     
  -0.7            -0.00096588     0.00096544     
  -0.69           -0.00095235     0.0009522      
  -0.68           -0.00093833     0.00093862     
  -0.67           -0.00092393     0.00092444     
  -0.66           -0.0009101      0.00091024     
  -0.65           -0.00089671     0.00089643     
  -0.64           -0.00088332     0.00088309     
  -0.63           -0.00086941     0.00086961     
  -0.62           -0.0008552      0.0008557      
  -0.61           -0.00084116     0.00084138     
  -0.6            -0.00082756     0.00082738     
  -0.59           -0.00081423     0.00081392     
  -0.58           -0.00080047     0.00080052     
  -0.57           -0.00078637     0.00078676     
  -0.56           -0.00077222     0.00077247     
  -0.55           -0.00075846     0.00075893     
  -0.54           -0.0007446      0.00074469     
  -0.53           -0.00073119     0.00073099     
  -0.52           -0.00071774     0.00071759     
  -0.51           -0.0007038      0.00070351     
  -0.5            -0.00069008     0.00069008     
  -0.49           -0.00067609     0.00067636     
  -0.48           -0.00066194     0.00066226     
  -0.47           -0.00064814     0.00064815     
  -0.46           -0.00063473     0.00063444     
  -0.45           -0.00062118     0.00062102     
  -0.44           -0.00060723     0.00060742     
  -0.43           -0.00059302     0.00059338     
  -0.42           -0.0005791      0.0005792      
  -0.41           -0.00056561     0.0005655      
  -0.4            -0.00055209     0.00055198     
  -0.39           -0.00053821     0.00053835     
  -0.38           -0.00052409     0.0005244      
  -0.37           -0.0005102      0.00051038     
  -0.36           -0.00049655     0.00049648     
  -0.35           -0.00048302     0.00048285     
  -0.34           -0.00046919     0.00046927     
  -0.33           -0.00045517     0.00045541     
  -0.32           -0.00044123     0.0004414      
  -0.31           -0.00042747     0.00042773     
  -0.3            -0.00041362     0.00041369     
  -0.29           -0.00039999     0.00039989     
  -0.28           -0.00038644     0.00038646     
  -0.27           -0.00037255     0.00037243     
  -0.26           -0.00035877     0.00035882     
  -0.25           -0.00034479     0.00034498     
  -0.24           -0.00033091     0.00033111     
  -0.23           -0.0003171      0.00031715     
  -0.22           -0.00030346     0.00030337     
  -0.21           -0.00028974     0.00028973     
  -0.2            -0.00027593     0.00027605     
  -0.19           -0.00026193     0.00026212     
  -0.18           -0.00024811     0.00024815     
  -0.17           -0.00023437     0.00023436     
  -0.16           -0.00022073     0.00022079     
  -0.15           -0.00020689     0.00020686     
  -0.14           -0.00019308     0.00019315     
  -0.13           -0.00017919     0.00017933     
  -0.12           -0.00016539     0.00016546     
  -0.11           -0.00015157     0.00015163     
  -0.1            -0.00013783     0.00013781     
  -0.09           -0.00012405     0.00012409     
  -0.08           -0.00011016     0.00011027     
  -0.07           -9.6399e-005    9.6383e-005    
  -0.06           -8.2539e-005    8.2584e-005    
  -0.05           -6.8751e-005    6.8743e-005    
  -0.04           -5.4947e-005    5.4944e-005    
  -0.03           -4.1263e-005    4.125e-005     
  -0.02           -2.7413e-005    2.7426e-005    
  -0.01           -1.3601e-005    1.3601e-005    
  0               8.5543e-008     -8.4522e-008   
  0.01            1.3952e-005     -1.3921e-005   
  0.02            2.7777e-005     -2.7763e-005   
  0.03            4.1482e-005     -4.1488e-005   
  0.04            5.5263e-005     -5.5326e-005   
  0.05            6.9055e-005     -6.9111e-005   
  0.06            8.2865e-005     -8.2856e-005   
  0.07            9.6594e-005     -9.6552e-005   
  0.08            0.00011046      -0.000110393   
  0.09            0.00012431      -0.00012431    
  0.1             0.00013813      -0.00013805    
  0.11            0.00015187      -0.00015179    
  0.12            0.00016582      -0.00016571    
  0.13            0.00017966      -0.00017949    
  0.14            0.00019351      -0.00019344    
  0.15            0.00020721      -0.00020723    
  0.16            0.00022083      -0.00022085    
  0.17            0.00023465      -0.00023471    
  0.18            0.00024843      -0.00024841    
  0.19            0.00026241      -0.00026221    
  0.2             0.00027626      -0.00027604    
  0.21            0.00029004      -0.00029001    
  0.22            0.00030371      -0.00030378    
  0.23            0.00031744      -0.00031741    
  0.24            0.00033124      -0.00033108    
  0.25            0.00034527      -0.00034503    
  0.26            0.00035915      -0.00035903    
  0.27            0.00037279      -0.00037288    
  0.28            0.00038642      -0.00038655    
  0.29            0.00040016      -0.00040033    
  0.3             0.00041395      -0.00041391    
  0.31            0.00042793      -0.00042772    
  0.32            0.00044197      -0.00044175    
  0.33            0.0004557       -0.00045565    
  0.34            0.00046927      -0.00046941    
  0.35            0.0004829       -0.00048291    
  0.36            0.00049687      -0.00049666    
  0.37            0.00051091      -0.00051058    
  0.38            0.00052478      -0.00052464    
  0.39            0.00053833      -0.00053847    
  0.4             0.0005519       -0.00055203    
  0.41            0.00056564      -0.00056587    
  0.42            0.00057939      -0.00057936    
  0.43            0.00059348      -0.00059318    
  0.44            0.00060759      -0.00060724    
  0.45            0.00062138      -0.00062135    
  0.46            0.00063469      -0.00063497    
  0.47            0.00064834      -0.00064833    
  0.48            0.00066235      -0.00066208    
  0.49            0.00067658      -0.00067619    
  0.5             0.00069037      -0.00069025    
  0.51            0.0007038       -0.00070403    
  0.52            0.00071731      -0.00071748    
  0.53            0.00073117      -0.00073149    
  0.54            0.00074481      -0.00074476    
  0.55            0.00075899      -0.00075861    
  0.56            0.00077317      -0.00077277    
  0.57            0.00078693      -0.00078643    
  0.58            0.00080086      -0.00080069    
  0.59            0.00081421      -0.00081446    
  0.6             0.00082762      -0.00082789    
  0.61            0.00084148      -0.00084131    
  0.62            0.0008558       -0.00085529    
  0.63            0.00086973      -0.00086953    
  0.64            0.00088328      -0.00088349    
  0.65            0.00089654      -0.00089691    
  0.66            0.00091028      -0.00091025    
  0.67            0.00092441      -0.00092399    
  0.68            0.00093868      -0.00093821    
  0.69            0.00095239      -0.0009518     
  0.7             0.00096635      -0.00096618    
  0.71            0.0009797       -0.00098003    
  0.72            0.00099292      -0.00099322    
  0.73            0.00100679      -0.00100662    
  0.74            0.00102115      -0.0010206     
  0.75            0.0010353       -0.00103505    
  0.76            0.00104873      -0.0010489     
  0.77            0.00106187      -0.00106239    
  0.78            0.00107557      -0.00107556    
  0.79            0.00108989      -0.0010894     
  0.8             0.0011041       -0.00110359    
  0.81            0.00111781      -0.00111712    
  0.82            0.00113177      -0.0011316     
  0.83            0.0011458       -0.001144      
  0.84            0.0011593       -0.0011589     
  0.85            0.0011723       -0.0011723     
  0.86            0.0011861       -0.0011854     
  0.87            0.0012003       -0.0011992     
  0.88            0.0012146       -0.0012137     
  0.89            0.0012284       -0.0012278     
  0.9             0.0012413       -0.0012413     
  0.91            0.0012548       -0.0012542     
  0.92            0.0012691       -0.0012679     
  0.93            0.0012835       -0.0012822     
  0.94            0.0012975       -0.0012966     
  0.95            0.0013104       -0.0013104     
  0.96            0.0013238       -0.0013234     
  0.97            0.0013376       -0.0013376     
  0.98            0.0013512       -0.0013506     
  0.99            0.0013655       -0.0013644     
  1               0.0013799       -0.0013788     
END_DB

