! VERSION = 6.00
BEGIN_HEADER
 ICCAP_INPUTS
  VU1        V  E GROUND SMU2 0.1 CON        0
  VU2        V  S GROUND SMU3 0.1 CON        0
  V2         V  B GROUND SMU1 0.015 CON        0
  V1         V  C GROUND SMU4 0.015 LIN        1    -1         1          201  0.01      
 ICCAP_OUTPUTS
  I1         I  C GROUND SMU4 B
  I2         I  B GROUND SMU1 B
END_HEADER

BEGIN_DB
 ICCAP_VAR VU1        0              
 ICCAP_VAR VU2        0              
 ICCAP_VAR V2         0              

 #V1              I1              I2             
  -1              -0.0012003      0.0012004      
  -0.99           -0.0011881      0.0011891      
  -0.98           -0.0011754      0.0011768      
  -0.97           -0.0011629      0.0011637      
  -0.96           -0.0011509      0.0011514      
  -0.95           -0.0011397      0.00114        
  -0.94           -0.0011278      0.0011284      
  -0.93           -0.0011149      0.0011164      
  -0.92           -0.0011024      0.0011036      
  -0.91           -0.0010905      0.0010917      
  -0.9            -0.0010783      0.001079       
  -0.89           -0.0010666      0.001067       
  -0.88           -0.0010551      0.0010557      
  -0.87           -0.0010429      0.0010439      
  -0.86           -0.0010304      0.0010316      
  -0.85           -0.0010177      0.0010189      
  -0.84           -0.0010061      0.0010066      
  -0.83           -0.00099425     0.00099512     
  -0.82           -0.0009829      0.00098242     
  -0.81           -0.000971       0.00097096     
  -0.8            -0.00095857     0.000959       
  -0.79           -0.00094589     0.00094639     
  -0.78           -0.00093392     0.00093393     
  -0.77           -0.00092246     0.000922       
  -0.76           -0.00091065     0.00091046     
  -0.75           -0.0008984      0.00089868     
  -0.74           -0.00088578     0.00088639     
  -0.73           -0.00087364     0.00087375     
  -0.72           -0.000862       0.00086175     
  -0.71           -0.00085042     0.00085016     
  -0.7            -0.00083839     0.00083856     
  -0.69           -0.00082576     0.00082632     
  -0.68           -0.00081348     0.00081371     
  -0.67           -0.00080171     0.00080152     
  -0.66           -0.00079023     0.0007899      
  -0.65           -0.00077821     0.0007783      
  -0.64           -0.00076574     0.00076619     
  -0.63           -0.00075336     0.00075366     
  -0.62           -0.00074151     0.00074198     
  -0.61           -0.00072936     0.00072948     
  -0.6            -0.00071772     0.00071745     
  -0.59           -0.000706       0.00070588     
  -0.58           -0.00069391     0.0006936      
  -0.57           -0.00068207     0.00068208     
  -0.56           -0.00066974     0.00067005     
  -0.55           -0.00065734     0.00065767     
  -0.54           -0.00064533     0.00064536     
  -0.53           -0.00063384     0.00063356     
  -0.52           -0.00062202     0.00062191     
  -0.51           -0.00060984     0.00061006     
  -0.5            -0.0005974      0.00059777     
  -0.49           -0.00058539     0.0005855      
  -0.48           -0.00057366     0.00057351     
  -0.47           -0.00056194     0.00056187     
  -0.46           -0.00054989     0.00054964     
  -0.45           -0.00053807     0.00053807     
  -0.44           -0.00052581     0.00052609     
  -0.43           -0.00051349     0.00051381     
  -0.42           -0.00050152     0.00050154     
  -0.41           -0.00048996     0.00048974     
  -0.4            -0.0004781      0.00047802     
  -0.39           -0.00046595     0.00046618     
  -0.38           -0.00045366     0.00045397     
  -0.37           -0.00044171     0.00044182     
  -0.36           -0.00042993     0.00042982     
  -0.35           -0.00041815     0.0004181      
  -0.34           -0.00040609     0.00040593     
  -0.33           -0.00039418     0.00039423     
  -0.32           -0.0003821      0.00038232     
  -0.31           -0.00036991     0.00037016     
  -0.3            -0.00035794     0.000358       
  -0.29           -0.00034623     0.0003461      
  -0.28           -0.00033441     0.00033441     
  -0.27           -0.00032236     0.0003225      
  -0.26           -0.00031016     0.00031041     
  -0.25           -0.00029817     0.00029824     
  -0.24           -0.00028643     0.00028637     
  -0.23           -0.0002746      0.00027464     
  -0.22           -0.00026259     0.00026253     
  -0.21           -0.00025063     0.0002507      
  -0.2            -0.00023865     0.00023882     
  -0.19           -0.00022655     0.00022668     
  -0.18           -0.0002146      0.00021464     
  -0.17           -0.00020275     0.00020274     
  -0.16           -0.00019095     0.00019099     
  -0.15           -0.00017892     0.00017907     
  -0.14           -0.00016687     0.00016699     
  -0.13           -0.00015489     0.00015495     
  -0.12           -0.00014308     0.0001431      
  -0.11           -0.00013118     0.00013129     
  -0.1            -0.00011919     0.0001192      
  -0.09           -0.00010724     0.00010732     
  -0.08           -9.5234e-005    9.5191e-005    
  -0.07           -8.3336e-005    8.3385e-005    
  -0.06           -7.1384e-005    7.1387e-005    
  -0.05           -5.9452e-005    5.9453e-005    
  -0.04           -4.7522e-005    4.7512e-005    
  -0.03           -3.5647e-005    3.5671e-005    
  -0.02           -2.3695e-005    2.3703e-005    
  -0.01           -1.173e-005     1.1722e-005    
  0               9.0313e-008     -9.2589e-008   
  0.01            1.2095e-005     -1.2042e-005   
  0.02            2.4024e-005     -2.4032e-005   
  0.03            3.586e-005      -3.5889e-005   
  0.04            4.7808e-005     -4.78e-005     
  0.05            5.9747e-005     -5.9743e-005   
  0.06            7.1746e-005     -7.1695e-005   
  0.07            8.3613e-005     -8.3542e-005   
  0.08            9.5563e-005     -9.5551e-005   
  0.09            0.00010752      -0.000107514   
  0.1             0.00011952      -0.00011936    
  0.11            0.00013145      -0.0001313     
  0.12            0.00014341      -0.00014334    
  0.13            0.00015532      -0.00015528    
  0.14            0.00016716      -0.0001671     
  0.15            0.00017915      -0.00017903    
  0.16            0.00019117      -0.00019097    
  0.17            0.00020315      -0.00020304    
  0.18            0.000215        -0.00021502    
  0.19            0.00022684      -0.00022688    
  0.2             0.00023871      -0.00023865    
  0.21            0.00025087      -0.00025063    
  0.22            0.00026288      -0.00026279    
  0.23            0.00027478      -0.00027477    
  0.24            0.00028644      -0.00028654    
  0.25            0.00029836      -0.00029833    
  0.26            0.00031053      -0.00031031    
  0.27            0.00032266      -0.00032239    
  0.28            0.00033457      -0.00033429    
  0.29            0.00034652      -0.00034641    
  0.3             0.00035833      -0.0003584     
  0.31            0.00037009      -0.00037015    
  0.32            0.00038206      -0.00038194    
  0.33            0.00039416      -0.00039388    
  0.34            0.0004063       -0.00040617    
  0.35            0.00041819      -0.00041821    
  0.36            0.00042985      -0.00043005    
  0.37            0.00044167      -0.00044162    
  0.38            0.00045387      -0.0004536     
  0.39            0.00046612      -0.00046581    
  0.4             0.00047806      -0.00047803    
  0.41            0.00048962      -0.00048985    
  0.42            0.00050147      -0.00050146    
  0.43            0.00051361      -0.00051335    
  0.44            0.00052594      -0.00052559    
  0.45            0.00053797      -0.00053788    
  0.46            0.00054957      -0.00054977    
  0.47            0.00056128      -0.00056148    
  0.48            0.00057332      -0.00057359    
  0.49            0.00058527      -0.00058523    
  0.5             0.00059745      -0.00059714    
  0.51            0.00060979      -0.00060946    
  0.52            0.00062177      -0.00062175    
  0.53            0.00063333      -0.00063362    
  0.54            0.00064505      -0.00064508    
  0.55            0.00065724      -0.00065693    
  0.56            0.0006697       -0.00066925    
  0.57            0.00068177      -0.00068169    
  0.58            0.00069338      -0.00069362    
  0.59            0.00070499      -0.00070519    
  0.6             0.00071707      -0.0007174     
  0.61            0.000729        -0.00072894    
  0.62            0.00074141      -0.00074098    
  0.63            0.00075377      -0.00075331    
  0.64            0.00076568      -0.00076516    
  0.65            0.00077784      -0.00077769    
  0.66            0.00078946      -0.00078975    
  0.67            0.00080096      -0.00080123    
  0.68            0.00081305      -0.00081289    
  0.69            0.00082557      -0.00082506    
  0.7             0.00083792      -0.00083771    
  0.71            0.00084973      -0.00084989    
  0.72            0.00086104      -0.00086147    
  0.73            0.00087305      -0.00087302    
  0.74            0.00088554      -0.00088509    
  0.75            0.00089803      -0.00089755    
  0.76            0.00090994      -0.00090929    
  0.77            0.0009221       -0.00092193    
  0.78            0.00093372      -0.00093403    
  0.79            0.00094523      -0.00094556    
  0.8             0.00095726      -0.00095705    
  0.81            0.00096996      -0.00096935    
  0.82            0.00098235      -0.00098207    
  0.83            0.00099406      -0.00099433    
  0.84            0.00100536      -0.00100582    
  0.85            0.0010173       -0.0010173     
  0.86            0.0010299       -0.0010294     
  0.87            0.00104252      -0.001042      
  0.88            0.00105435      -0.00105364    
  0.89            0.00106667      -0.00106644    
  0.9             0.00107822      -0.00107862    
  0.91            0.00108967      -0.00109007    
  0.92            0.0011018       -0.00110163    
  0.93            0.00111445      -0.00111379    
  0.94            0.00112698      -0.00112668    
  0.95            0.0011387       -0.00113899    
  0.96            0.0011504       -0.0011505     
  0.97            0.0011624       -0.0011616     
  0.98            0.0011748       -0.0011738     
  0.99            0.0011876       -0.0011864     
  1               0.0011997       -0.0011991     
END_DB

