! VERSION = 6.00
BEGIN_HEADER
 ICCAP_INPUTS
  VU1        V  E GROUND SMU2 0.1 CON        0
  VU2        V  S GROUND SMU3 0.1 CON        0
  V2         V  B GROUND SMU1 0.015 CON        0
  V1         V  C GROUND SMU4 0.015 LIN        1    -1         1          201  0.01      
 ICCAP_OUTPUTS
  I1         I  C GROUND SMU4 B
  I2         I  B GROUND SMU1 B
END_HEADER

BEGIN_DB
 ICCAP_VAR VU1        0              
 ICCAP_VAR VU2        0              
 ICCAP_VAR V2         0              

 #V1              I1              I2             
  -1              -0.00015558     0.00015566     
  -0.99           -0.00015403     0.00015411     
  -0.98           -0.00015256     0.00015255     
  -0.97           -0.00015105     0.00015107     
  -0.96           -0.00014949     0.00014946     
  -0.95           -0.00014795     0.00014801     
  -0.94           -0.00014633     0.00014647     
  -0.93           -0.00014469     0.00014482     
  -0.92           -0.00014315     0.00014319     
  -0.91           -0.00014168     0.00014169     
  -0.9            -0.00014016     0.0001402      
  -0.89           -0.00013859     0.00013868     
  -0.88           -0.00013691     0.00013706     
  -0.87           -0.00013534     0.00013541     
  -0.86           -0.00013386     0.00013387     
  -0.85           -0.00013236     0.00013239     
  -0.84           -0.0001308      0.00013088     
  -0.83           -0.00012918     0.0001293      
  -0.82           -0.00012757     0.00012766     
  -0.81           -0.00012603     0.00012608     
  -0.8            -0.00012456     0.00012457     
  -0.79           -0.00012302     0.00012308     
  -0.78           -0.00012142     0.00012154     
  -0.77           -0.0001198      0.00011988     
  -0.76           -0.00011826     0.00011839     
  -0.75           -0.00011667     0.00011675     
  -0.74           -0.00011518     0.00011519     
  -0.73           -0.00011368     0.0001137      
  -0.72           -0.00011211     0.00011219     
  -0.71           -0.00011048     0.00011062     
  -0.7            -0.0001089      0.00010899     
  -0.69           -0.00010738     0.00010741     
  -0.68           -0.00010588     0.00010591     
  -0.67           -0.00010434     0.0001044      
  -0.66           -0.00010274     0.00010285     
  -0.65           -0.00010113     0.00010122     
  -0.64           -9.9589e-005    9.9694e-005    
  -0.63           -9.8076e-005    9.8043e-005    
  -0.62           -9.657e-005     9.6549e-005    
  -0.61           -9.5009e-005    9.5023e-005    
  -0.6            -9.3402e-005    9.3454e-005    
  -0.59           -9.1804e-005    9.1833e-005    
  -0.58           -9.0258e-005    9.0313e-005    
  -0.57           -8.8695e-005    8.8714e-005    
  -0.56           -8.7159e-005    8.7146e-005    
  -0.55           -8.5649e-005    8.5616e-005    
  -0.54           -8.4102e-005    8.4102e-005    
  -0.53           -8.253e-005     8.2561e-005    
  -0.52           -8.0921e-005    8.0968e-005    
  -0.51           -7.9357e-005    7.9367e-005    
  -0.5            -7.7822e-005    7.7808e-005    
  -0.49           -7.6315e-005    7.6289e-005    
  -0.48           -7.4759e-005    7.4767e-005    
  -0.47           -7.3169e-005    7.3202e-005    
  -0.46           -7.1574e-005    7.161e-005     
  -0.45           -7.0027e-005    7.0033e-005    
  -0.44           -6.8497e-005    6.8478e-005    
  -0.43           -6.6968e-005    6.6961e-005    
  -0.42           -6.5403e-005    6.5415e-005    
  -0.41           -6.3817e-005    6.3856e-005    
  -0.4            -6.2239e-005    6.2261e-005    
  -0.39           -6.0691e-005    6.0724e-005    
  -0.38           -5.9115e-005    5.9131e-005    
  -0.37           -5.7592e-005    5.7585e-005    
  -0.36           -5.6064e-005    5.605e-005     
  -0.35           -5.4511e-005    5.4517e-005    
  -0.34           -5.2931e-005    5.295e-005     
  -0.33           -5.1342e-005    5.1372e-005    
  -0.32           -4.9789e-005    4.9799e-005    
  -0.31           -4.8249e-005    4.8242e-005    
  -0.3            -4.6714e-005    4.6704e-005    
  -0.29           -4.5155e-005    4.5165e-005    
  -0.28           -4.3589e-005    4.3613e-005    
  -0.27           -4.2005e-005    4.2022e-005    
  -0.26           -4.045e-005     4.0454e-005    
  -0.25           -3.891e-005     3.8897e-005    
  -0.24           -3.7375e-005    3.7377e-005    
  -0.23           -3.5807e-005    3.5801e-005    
  -0.22           -3.4258e-005    3.4259e-005    
  -0.21           -3.2688e-005    3.2702e-005    
  -0.2            -3.1119e-005    3.1138e-005    
  -0.19           -2.9553e-005    2.9563e-005    
  -0.18           -2.8001e-005    2.8004e-005    
  -0.17           -2.6459e-005    2.6457e-005    
  -0.16           -2.4909e-005    2.4919e-005    
  -0.15           -2.3343e-005    2.3354e-005    
  -0.14           -2.177e-005     2.1783e-005    
  -0.13           -2.021e-005     2.0216e-005    
  -0.12           -1.8668e-005    1.867e-005     
  -0.11           -1.7118e-005    1.7125e-005    
  -0.1            -1.5555e-005    1.5564e-005    
  -0.09           -1.3984e-005    1.3999e-005    
  -0.08           -1.2423e-005    1.2428e-005    
  -0.07           -1.0879e-005    1.0887e-005    
  -0.06           -9.3185e-006    9.3253e-006    
  -0.05           -7.7575e-006    7.7647e-006    
  -0.04           -6.1982e-006    6.1979e-006    
  -0.03           -4.6531e-006    4.6558e-006    
  -0.02           -3.0933e-006    3.0953e-006    
  -0.01           -1.5339e-006    1.5329e-006    
  0               1.532e-008      -1.7657e-008   
  0.01            1.5756e-006     -1.5783e-006   
  0.02            3.1393e-006     -3.1313e-006   
  0.03            4.6876e-006     -4.6837e-006   
  0.04            6.2427e-006     -6.2477e-006   
  0.05            7.8012e-006     -7.8121e-006   
  0.06            9.3594e-006     -9.3679e-006   
  0.07            1.0907e-005     -1.09078e-005  
  0.08            1.2469e-005     -1.2477e-005   
  0.09            1.4036e-005     -1.4018e-005   
  0.1             1.5604e-005     -1.5589e-005   
  0.11            1.7153e-005     -1.7145e-005   
  0.12            1.8704e-005     -1.8709e-005   
  0.13            2.0255e-005     -2.0263e-005   
  0.14            2.1818e-005     -2.1811e-005   
  0.15            2.3387e-005     -2.3371e-005   
  0.16            2.4945e-005     -2.4923e-005   
  0.17            2.6505e-005     -2.6481e-005   
  0.18            2.8067e-005     -2.8059e-005   
  0.19            2.9618e-005     -2.9623e-005   
  0.2             3.1146e-005     -3.116e-005    
  0.21            3.2702e-005     -3.2702e-005   
  0.22            3.4277e-005     -3.4253e-005   
  0.23            3.5855e-005     -3.5829e-005   
  0.24            3.7408e-005     -3.7397e-005   
  0.25            3.895e-005      -3.896e-005    
  0.26            4.0489e-005     -4.0501e-005   
  0.27            4.2051e-005     -4.2043e-005   
  0.28            4.3631e-005     -4.3605e-005   
  0.29            4.5199e-005     -4.5165e-005   
  0.3             4.6756e-005     -4.6751e-005   
  0.31            4.8298e-005     -4.831e-005    
  0.32            4.9833e-005     -4.9848e-005   
  0.33            5.1385e-005     -5.1411e-005   
  0.34            5.2941e-005     -5.2939e-005   
  0.35            5.4517e-005     -5.4489e-005   
  0.36            5.611e-005      -5.6072e-005   
  0.37            5.7667e-005     -5.7654e-005   
  0.38            5.9201e-005     -5.922e-005    
  0.39            6.0724e-005     -6.0751e-005   
  0.4             6.2282e-005     -6.2279e-005   
  0.41            6.3863e-005     -6.3827e-005   
  0.42            6.5452e-005     -6.5418e-005   
  0.43            6.7007e-005     -6.7004e-005   
  0.44            6.8536e-005     -6.8561e-005   
  0.45            7.0065e-005     -7.0095e-005   
  0.46            7.1621e-005     -7.1609e-005   
  0.47            7.3216e-005     -7.3176e-005   
  0.48            7.4803e-005     -7.4778e-005   
  0.49            7.6363e-005     -7.6312e-005   
  0.5             7.7916e-005     -7.7905e-005   
  0.51            7.9444e-005     -7.9473e-005   
  0.52            8.0962e-005     -8.0997e-005   
  0.53            8.2515e-005     -8.2514e-005   
  0.54            8.4106e-005     -8.4062e-005   
  0.55            8.5701e-005     -8.5659e-005   
  0.56            8.7259e-005     -8.7256e-005   
  0.57            8.8772e-005     -8.881e-005    
  0.58            9.03e-005       -9.0337e-005   
  0.59            9.1855e-005     -9.1839e-005   
  0.6             9.346e-005      -9.3409e-005   
  0.61            9.5059e-005     -9.5025e-005   
  0.62            9.6608e-005     -9.655e-005    
  0.63            9.8167e-005     -9.8155e-005   
  0.64            9.9694e-005     -9.9728e-005   
  0.65            0.00010132      -0.000101245   
  0.66            0.00010289      -0.00010276    
  0.67            0.00010443      -0.00010436    
  0.68            0.00010594      -0.00010591    
  0.69            0.00010746      -0.00010742    
  0.7             0.00010903      -0.00010899    
  0.71            0.00011057      -0.00011051    
  0.72            0.00011218      -0.00011205    
  0.73            0.00011379      -0.00011367    
  0.74            0.00011534      -0.0001152     
  0.75            0.00011691      -0.00011683    
  0.76            0.0001184       -0.00011838    
  0.77            0.00011992      -0.00011989    
  0.78            0.00012148      -0.00012139    
  0.79            0.00012311      -0.00012296    
  0.8             0.0001247       -0.0001246     
  0.81            0.00012623      -0.00012618    
  0.82            0.00012769      -0.0001277     
  0.83            0.00012924      -0.00012919    
  0.84            0.00013085      -0.00013072    
  0.85            0.00013248      -0.00013236    
  0.86            0.00013402      -0.00013398    
  0.87            0.0001355       -0.00013552    
  0.88            0.000137        -0.00013697    
  0.89            0.00013862      -0.00013852    
  0.9             0.00014024      -0.00014012    
  0.91            0.00014182      -0.00014175    
  0.92            0.00014332      -0.00014332    
  0.93            0.00014479      -0.00014481    
  0.94            0.00014639      -0.00014639    
  0.95            0.00014791      -0.00014787    
  0.96            0.00014954      -0.00014941    
  0.97            0.00015116      -0.00015104    
  0.98            0.00015271      -0.00015265    
  0.99            0.00015419      -0.00015419    
  1               0.0001557       -0.00015566    
END_DB

