! VERSION = 6.00
BEGIN_HEADER
 ICCAP_INPUTS
  VU1        V  E GROUND SMU2 0.1 CON        0
  VU2        V  S GROUND SMU3 0.1 CON        0
  V2         V  B GROUND SMU1 0.015 CON        0
  V1         V  C GROUND SMU4 0.015 LIN        1    -1         1          201  0.01      
 ICCAP_OUTPUTS
  I1         I  C GROUND SMU4 B
  I2         I  B GROUND SMU1 B
END_HEADER

BEGIN_DB
 ICCAP_VAR VU1        0              
 ICCAP_VAR VU2        0              
 ICCAP_VAR V2         0              

 #V1              I1              I2             
  -1              -0.00015611     0.00015618     
  -0.99           -0.00015455     0.00015462     
  -0.98           -0.0001529      0.00015304     
  -0.97           -0.00015131     0.00015139     
  -0.96           -0.00014976     0.00014979     
  -0.95           -0.0001483      0.00014833     
  -0.94           -0.00014675     0.00014682     
  -0.93           -0.00014512     0.00014525     
  -0.92           -0.0001435      0.00014359     
  -0.91           -0.00014196     0.0001421      
  -0.9            -0.00014038     0.00014044     
  -0.89           -0.00013887     0.00013889     
  -0.88           -0.00013737     0.0001374      
  -0.87           -0.00013581     0.00013589     
  -0.86           -0.00013418     0.00013431     
  -0.85           -0.00013257     0.00013268     
  -0.84           -0.00013104     0.00013108     
  -0.83           -0.00012956     0.00012956     
  -0.82           -0.00012802     0.00012809     
  -0.81           -0.0001264      0.00012652     
  -0.8            -0.00012478     0.00012487     
  -0.79           -0.0001232      0.00012335     
  -0.78           -0.00012167     0.00012173     
  -0.77           -0.00012016     0.00012017     
  -0.76           -0.00011861     0.00011867     
  -0.75           -0.00011707     0.00011715     
  -0.74           -0.00011546     0.00011558     
  -0.73           -0.00011385     0.00011395     
  -0.72           -0.00011231     0.00011236     
  -0.71           -0.00011082     0.00011084     
  -0.7            -0.00010928     0.00010934     
  -0.69           -0.00010767     0.00010777     
  -0.68           -0.00010604     0.00010615     
  -0.67           -0.0001045      0.00010462     
  -0.66           -0.00010294     0.00010301     
  -0.65           -0.00010142     0.00010147     
  -0.64           -9.9919e-005    9.9887e-005    
  -0.63           -9.8365e-005    9.837e-005     
  -0.62           -9.6773e-005    9.6816e-005    
  -0.61           -9.5161e-005    9.5206e-005    
  -0.6            -9.3604e-005    9.3606e-005    
  -0.59           -9.2075e-005    9.2048e-005    
  -0.58           -9.0552e-005    9.0536e-005    
  -0.57           -8.8999e-005    8.901e-005     
  -0.56           -8.7385e-005    8.7436e-005    
  -0.55           -8.5793e-005    8.5821e-005    
  -0.54           -8.4241e-005    8.4293e-005    
  -0.53           -8.2676e-005    8.2691e-005    
  -0.52           -8.1138e-005    8.1125e-005    
  -0.51           -7.9618e-005    7.9591e-005    
  -0.5            -7.8063e-005    7.8066e-005    
  -0.49           -7.6483e-005    7.6518e-005    
  -0.48           -7.4878e-005    7.4917e-005    
  -0.47           -7.3315e-005    7.3317e-005    
  -0.46           -7.1782e-005    7.1764e-005    
  -0.45           -7.0262e-005    7.0246e-005    
  -0.44           -6.8697e-005    6.8704e-005    
  -0.43           -6.7097e-005    6.7136e-005    
  -0.42           -6.5509e-005    6.553e-005     
  -0.41           -6.3967e-005    6.4007e-005    
  -0.4            -6.2391e-005    6.2405e-005    
  -0.39           -6.0845e-005    6.0838e-005    
  -0.38           -5.9317e-005    5.9301e-005    
  -0.37           -5.7771e-005    5.7777e-005    
  -0.36           -5.6187e-005    5.6211e-005    
  -0.35           -5.4595e-005    5.4621e-005    
  -0.34           -5.3029e-005    5.3036e-005    
  -0.33           -5.1483e-005    5.1475e-005    
  -0.32           -4.9956e-005    4.9945e-005    
  -0.31           -4.8392e-005    4.8402e-005    
  -0.3            -4.6806e-005    4.6834e-005    
  -0.29           -4.5224e-005    4.5236e-005    
  -0.28           -4.3675e-005    4.3679e-005    
  -0.27           -4.2135e-005    4.212e-005     
  -0.26           -4.0583e-005    4.0585e-005    
  -0.25           -3.9011e-005    3.9002e-005    
  -0.24           -3.7467e-005    3.7469e-005    
  -0.23           -3.5894e-005    3.5909e-005    
  -0.22           -3.4309e-005    3.433e-005     
  -0.21           -3.2742e-005    3.2751e-005    
  -0.2            -3.1199e-005    3.1202e-005    
  -0.19           -2.9654e-005    2.9647e-005    
  -0.18           -2.8088e-005    2.8097e-005    
  -0.17           -2.6517e-005    2.6526e-005    
  -0.16           -2.4949e-005    2.4966e-005    
  -0.15           -2.3388e-005    2.3393e-005    
  -0.14           -2.1829e-005    2.1833e-005    
  -0.13           -2.0277e-005    2.0283e-005    
  -0.12           -1.8725e-005    1.8734e-005    
  -0.11           -1.7148e-005    1.7166e-005    
  -0.1            -1.5581e-005    1.5588e-005    
  -0.09           -1.4023e-005    1.4034e-005    
  -0.08           -1.2453e-005    1.2464e-005    
  -0.07           -1.0903e-005    1.0913e-005    
  -0.06           -9.3423e-006    9.3501e-006    
  -0.05           -7.776e-006     7.7824e-006    
  -0.04           -6.222e-006     6.22e-006      
  -0.03           -4.6687e-006    4.6659e-006    
  -0.02           -3.1004e-006    3.1e-006       
  -0.01           -1.5366e-006    1.5375e-006    
  0               1.5753e-008     -1.3132e-008   
  0.01            1.5797e-006     -1.5776e-006   
  0.02            3.1416e-006     -3.1399e-006   
  0.03            4.6946e-006     -4.6919e-006   
  0.04            6.2642e-006     -6.2559e-006   
  0.05            7.8278e-006     -7.8252e-006   
  0.06            9.3852e-006     -9.3913e-006   
  0.07            1.09337e-005    -1.09421e-005  
  0.08            1.25e-005       -1.2502e-005   
  0.09            1.4062e-005     -1.4069e-005   
  0.1             1.5626e-005     -1.5621e-005   
  0.11            1.7184e-005     -1.7167e-005   
  0.12            1.8761e-005     -1.8741e-005   
  0.13            2.0327e-005     -2.0314e-005   
  0.14            2.188e-005      -2.1884e-005   
  0.15            2.3432e-005     -2.3441e-005   
  0.16            2.498e-005      -2.4975e-005   
  0.17            2.6558e-005     -2.6538e-005   
  0.18            2.8135e-005     -2.8113e-005   
  0.19            2.9698e-005     -2.9694e-005   
  0.2             3.1234e-005     -3.1246e-005   
  0.21            3.2785e-005     -3.28e-005     
  0.22            3.4354e-005     -3.4343e-005   
  0.23            3.5932e-005     -3.5912e-005   
  0.24            3.7499e-005     -3.7485e-005   
  0.25            3.9061e-005     -3.9032e-005   
  0.26            4.0633e-005     -4.062e-005    
  0.27            4.218e-005      -4.2193e-005   
  0.28            4.3718e-005     -4.3738e-005   
  0.29            4.5268e-005     -4.5265e-005   
  0.3             4.6856e-005     -4.6828e-005   
  0.31            4.844e-005      -4.8413e-005   
  0.32            5.0004e-005     -4.9999e-005   
  0.33            5.1532e-005     -5.1551e-005   
  0.34            5.3074e-005     -5.3094e-005   
  0.35            5.4644e-005     -5.4631e-005   
  0.36            5.6229e-005     -5.62e-005     
  0.37            5.7805e-005     -5.7777e-005   
  0.38            5.9367e-005     -5.9325e-005   
  0.39            6.0935e-005     -6.0925e-005   
  0.4             6.2483e-005     -6.2497e-005   
  0.41            6.3994e-005     -6.4027e-005   
  0.42            6.5554e-005     -6.5555e-005   
  0.43            6.7143e-005     -6.711e-005    
  0.44            6.874e-005      -6.8702e-005   
  0.45            7.0313e-005     -7.0303e-005   
  0.46            7.1829e-005     -7.1859e-005   
  0.47            7.3361e-005     -7.3387e-005   
  0.48            7.4926e-005     -7.4919e-005   
  0.49            7.6525e-005     -7.6487e-005   
  0.5             7.811e-005      -7.807e-005    
  0.51            7.9667e-005     -7.9668e-005   
  0.52            8.1197e-005     -8.1227e-005   
  0.53            8.2728e-005     -8.2745e-005   
  0.54            8.4283e-005     -8.4329e-005   
  0.55            8.5839e-005     -8.5842e-005   
  0.56            8.7433e-005     -8.7397e-005   
  0.57            8.9045e-005     -8.8995e-005   
  0.58            9.062e-005      -9.0609e-005   
  0.59            9.2134e-005     -9.2167e-005   
  0.6             9.3655e-005     -9.3692e-005   
  0.61            9.5211e-005     -9.5212e-005   
  0.62            9.6819e-005     -9.6773e-005   
  0.63            9.8415e-005     -9.8369e-005   
  0.64            9.9976e-005     -9.9974e-005   
  0.65            0.00010154      -0.000101533   
  0.66            0.00010312      -0.00010299    
  0.67            0.00010472      -0.00010464    
  0.68            0.00010626      -0.00010622    
  0.69            0.00010773      -0.00010774    
  0.7             0.0001093       -0.00010922    
  0.71            0.00011091      -0.0001108     
  0.72            0.00011251      -0.00011241    
  0.73            0.00011408      -0.00011401    
  0.74            0.00011557      -0.00011557    
  0.75            0.0001171       -0.00011706    
  0.76            0.00011869      -0.00011858    
  0.77            0.00012034      -0.00012018    
  0.78            0.0001219       -0.00012183    
  0.79            0.00012341      -0.0001234     
  0.8             0.00012491      -0.00012488    
  0.81            0.00012649      -0.00012639    
  0.82            0.00012812      -0.00012797    
  0.83            0.00012971      -0.0001296     
  0.84            0.00013122      -0.00013119    
  0.85            0.00013271      -0.0001327     
  0.86            0.00013425      -0.00013419    
  0.87            0.00013589      -0.00013577    
  0.88            0.0001375       -0.00013739    
  0.89            0.00013907      -0.00013891    
  0.9             0.00014064      -0.00014059    
  0.91            0.00014214      -0.00014214    
  0.92            0.00014364      -0.00014362    
  0.93            0.00014519      -0.00014512    
  0.94            0.00014684      -0.00014671    
  0.95            0.00014846      -0.00014837    
  0.96            0.00015         -0.00014997    
  0.97            0.00015144      -0.00015147    
  0.98            0.00015297      -0.00015293    
  0.99            0.00015462      -0.00015448    
  1               0.00015627      -0.00015612    
END_DB

