! VERSION = 6.00
BEGIN_HEADER
 ICCAP_INPUTS
  VU1        V  E GROUND SMU2 0.1 CON        0
  VU2        V  S GROUND SMU3 0.1 CON        0
  V2         V  B GROUND SMU1 0.015 CON        0
  V1         V  C GROUND SMU4 0.015 LIN        1    -1         1          201  0.01      
 ICCAP_OUTPUTS
  I1         I  C GROUND SMU4 B
  I2         I  B GROUND SMU1 B
END_HEADER

BEGIN_DB
 ICCAP_VAR VU1        0              
 ICCAP_VAR VU2        0              
 ICCAP_VAR V2         0              

 #V1              I1              I2             
  -1              -0.00041009     0.00040961     
  -0.99           -0.00040707     0.00040676     
  -0.98           -0.0004031      0.00040341     
  -0.97           -0.00039969     0.00040082     
  -0.96           -0.00039416     0.00039451     
  -0.95           -0.00039048     0.00039031     
  -0.94           -0.00038453     0.00038561     
  -0.93           -0.00038141     0.00038224     
  -0.92           -0.00037838     0.00037822     
  -0.91           -0.00037203     0.00037299     
  -0.9            -0.00036888     0.00036922     
  -0.89           -0.00036517     0.00036484     
  -0.88           -0.00036094     0.00036189     
  -0.87           -0.00035731     0.00035644     
  -0.86           -0.00035342     0.00035364     
  -0.85           -0.00034884     0.00034941     
  -0.84           -0.00034453     0.00034481     
  -0.83           -0.00034073     0.00033907     
  -0.82           -0.00033675     0.00033436     
  -0.81           -0.00033194     0.00033224     
  -0.8            -0.00032719     0.0003268      
  -0.79           -0.00032195     0.00032365     
  -0.78           -0.00031881     0.00031898     
  -0.77           -0.00031355     0.00031346     
  -0.76           -0.00031006     0.00030967     
  -0.75           -0.00030551     0.00030605     
  -0.74           -0.00030156     0.00030219     
  -0.73           -0.00029784     0.0002979      
  -0.72           -0.00029371     0.00029361     
  -0.71           -0.00029004     0.00028983     
  -0.7            -0.00028559     0.00028563     
  -0.69           -0.00028115     0.00028142     
  -0.68           -0.00027633     0.00027704     
  -0.67           -0.00027225     0.00027284     
  -0.66           -0.0002684      0.00026844     
  -0.65           -0.00026426     0.00026402     
  -0.64           -0.00026077     0.00026066     
  -0.63           -0.00025656     0.0002565      
  -0.62           -0.0002519      0.00025243     
  -0.61           -0.00024758     0.00024792     
  -0.6            -0.00024366     0.00024365     
  -0.59           -0.00023974     0.00023947     
  -0.58           -0.00023566     0.00023571     
  -0.57           -0.00023126     0.00023151     
  -0.56           -0.00022686     0.00022706     
  -0.55           -0.00022285     0.00022308     
  -0.54           -0.00021854     0.00021872     
  -0.53           -0.00021459     0.00021482     
  -0.52           -0.00021069     0.00021087     
  -0.51           -0.00020667     0.00020673     
  -0.5            -0.00020211     0.00020258     
  -0.49           -0.00019829     0.00019821     
  -0.48           -0.00019416     0.00019412     
  -0.47           -0.00019014     0.00019009     
  -0.46           -0.00018626     0.00018618     
  -0.45           -0.00018165     0.00018174     
  -0.44           -0.00017778     0.00017781     
  -0.43           -0.00017324     0.00017341     
  -0.42           -0.00016941     0.00016931     
  -0.41           -0.00016457     0.00016462     
  -0.4            -0.00016071     0.00016081     
  -0.39           -0.00015698     0.00015718     
  -0.38           -0.00015295     0.00015319     
  -0.37           -0.00014809     0.00014841     
  -0.36           -0.00014419     0.00014461     
  -0.35           -0.00014035     0.00014016     
  -0.34           -0.00013698     0.00013692     
  -0.33           -0.00013231     0.00013236     
  -0.32           -0.00012819     0.00012832     
  -0.31           -0.00012447     0.00012466     
  -0.3            -0.00012032     0.00012016     
  -0.29           -0.0001163      0.00011641     
  -0.28           -0.00011221     0.00011202     
  -0.27           -0.0001081      0.00010799     
  -0.26           -0.0001036      0.00010429     
  -0.25           -9.9583e-005    9.9685e-005    
  -0.24           -9.5846e-005    9.5782e-005    
  -0.23           -9.1593e-005    9.1816e-005    
  -0.22           -8.7257e-005    8.736e-005     
  -0.21           -8.3499e-005    8.3323e-005    
  -0.2            -7.9429e-005    7.9583e-005    
  -0.19           -7.558e-005     7.5533e-005    
  -0.18           -7.1409e-005    7.1483e-005    
  -0.17           -6.7637e-005    6.753e-005     
  -0.16           -6.374e-005     6.3355e-005    
  -0.15           -5.9788e-005    5.9776e-005    
  -0.14           -5.5697e-005    5.5653e-005    
  -0.13           -5.178e-005     5.1745e-005    
  -0.12           -4.7761e-005    4.7715e-005    
  -0.11           -4.3761e-005    4.3817e-005    
  -0.1            -3.9721e-005    3.9722e-005    
  -0.09           -3.5675e-005    3.5668e-005    
  -0.08           -3.1802e-005    3.1779e-005    
  -0.07           -2.7743e-005    2.774e-005     
  -0.06           -2.3806e-005    2.3811e-005    
  -0.05           -1.9847e-005    1.981e-005     
  -0.04           -1.5709e-005    1.5779e-005    
  -0.03           -1.1849e-005    1.1819e-005    
  -0.02           -7.7465e-006    7.819e-006     
  -0.01           -3.8659e-006    3.87e-006      
  0               3.6979e-008     -3.4975e-008   
  0.01            3.9725e-006     -3.957e-006    
  0.02            7.8549e-006     -7.8854e-006   
  0.03            1.1774e-005     -1.178e-005    
  0.04            1.5711e-005     -1.5699e-005   
  0.05            1.9645e-005     -1.9632e-005   
  0.06            2.345e-005      -2.3506e-005   
  0.07            2.7433e-005     -2.7354e-005   
  0.08            3.1416e-005     -3.1387e-005   
  0.09            3.539e-005      -3.5454e-005   
  0.1             3.9149e-005     -3.933e-005    
  0.11            4.3023e-005     -4.3058e-005   
  0.12            4.5987e-005     -4.6782e-005   
  0.13            5.0801e-005     -5.0827e-005   
  0.14            5.5076e-005     -5.496e-005    
  0.15            5.8719e-005     -5.8764e-005   
  0.16            6.2779e-005     -6.2946e-005   
  0.17            6.6639e-005     -6.654e-005    
  0.18            7.0806e-005     -7.0537e-005   
  0.19            7.488e-005      -7.4835e-005   
  0.2             7.8031e-005     -7.7933e-005   
  0.21            8.2119e-005     -8.1773e-005   
  0.22            8.6043e-005     -8.6146e-005   
  0.23            9.0003e-005     -9.0066e-005   
  0.24            9.3837e-005     -9.3768e-005   
  0.25            9.7988e-005     -9.7727e-005   
  0.26            0.00010131      -0.000101532   
  0.27            0.00010575      -0.00010579    
  0.28            0.00010958      -0.00010913    
  0.29            0.00011333      -0.00011364    
  0.3             0.00011719      -0.00011709    
  0.31            0.00012195      -0.00012171    
  0.32            0.00012498      -0.00012503    
  0.33            0.00012961      -0.00012987    
  0.34            0.00013355      -0.00013346    
  0.35            0.00013708      -0.00013695    
  0.36            0.00014208      -0.00014234    
  0.37            0.00014606      -0.00014666    
  0.38            0.00014898      -0.0001495     
  0.39            0.00015293      -0.00015376    
  0.4             0.00015741      -0.00015739    
  0.41            0.00016183      -0.00016144    
  0.42            0.0001651       -0.00016517    
  0.43            0.00016976      -0.00016935    
  0.44            0.00017542      -0.00017546    
  0.45            0.00018021      -0.0001793     
  0.46            0.00018321      -0.00018295    
  0.47            0.00018813      -0.00018796    
  0.48            0.00019229      -0.00019176    
  0.49            0.0001961       -0.00019604    
  0.5             0.00019914      -0.00019928    
  0.51            0.00020263      -0.0002029     
  0.52            0.00020722      -0.00020745    
  0.53            0.00021104      -0.00021135    
  0.54            0.00021496      -0.00021538    
  0.55            0.00021864      -0.00021832    
  0.56            0.00022355      -0.0002229     
  0.57            0.00022788      -0.00022757    
  0.58            0.00023107      -0.00023211    
  0.59            0.00023456      -0.00023389    
  0.6             0.00024141      -0.00024039    
  0.61            0.00024483      -0.00024491    
  0.62            0.00024997      -0.00024912    
  0.63            0.00025485      -0.00025467    
  0.64            0.00025804      -0.00025836    
  0.65            0.00026222      -0.00026165    
  0.66            0.00026628      -0.00026625    
  0.67            0.00027037      -0.00027026    
  0.68            0.00027552      -0.00027535    
  0.69            0.00027697      -0.00027837    
  0.7             0.00028262      -0.00028406    
  0.71            0.0002874       -0.00028757    
  0.72            0.00029315      -0.00029246    
  0.73            0.00029702      -0.0002966     
  0.74            0.0003006       -0.00030076    
  0.75            0.00030482      -0.00030466    
  0.76            0.00030915      -0.00030816    
  0.77            0.00031156      -0.00031206    
  0.78            0.00031671      -0.00031561    
  0.79            0.00032034      -0.00032038    
  0.8             0.00032464      -0.00032485    
  0.81            0.00032913      -0.00032908    
  0.82            0.00033205      -0.00033337    
  0.83            0.00033667      -0.00033665    
  0.84            0.00034101      -0.00034062    
  0.85            0.00034728      -0.00034727    
  0.86            0.00035289      -0.00035003    
  0.87            0.00035651      -0.000357      
  0.88            0.00036143      -0.00036099    
  0.89            0.00036443      -0.00036509    
  0.9             0.00036952      -0.00036911    
  0.91            0.0003747       -0.00037506    
  0.92            0.00037943      -0.00037901    
  0.93            0.00038332      -0.00038395    
  0.94            0.00038797      -0.00038819    
  0.95            0.00039399      -0.0003933     
  0.96            0.00039615      -0.00039576    
  0.97            0.00039946      -0.00039866    
  0.98            0.00040518      -0.00040487    
  0.99            0.00040799      -0.00040823    
  1               0.00041155      -0.00041134    
END_DB

