! VERSION = 6.00
BEGIN_HEADER
 ICCAP_INPUTS
  VU1        V  E GROUND SMU2 0.1 CON        0
  VU2        V  S GROUND SMU3 0.1 CON        0
  V2         V  B GROUND SMU1 0.015 CON        0
  V1         V  C GROUND SMU4 0.015 LIN        1    -1         1          201  0.01      
 ICCAP_OUTPUTS
  I1         I  C GROUND SMU4 B
  I2         I  B GROUND SMU1 B
END_HEADER

BEGIN_DB
 ICCAP_VAR VU1        0              
 ICCAP_VAR VU2        0              
 ICCAP_VAR V2         0              

 #V1              I1              I2             
  -1              -0.00014121     0.00014129     
  -0.99           -0.00013992     0.00013987     
  -0.98           -0.00013862     0.0001386      
  -0.97           -0.00013723     0.00013729     
  -0.96           -0.00013567     0.00013586     
  -0.95           -0.00013417     0.00013429     
  -0.94           -0.00013279     0.00013283     
  -0.93           -0.00013154     0.00013147     
  -0.92           -0.00013016     0.00013021     
  -0.91           -0.00012866     0.00012882     
  -0.9            -0.00012711     0.00012731     
  -0.89           -0.0001257      0.00012578     
  -0.88           -0.00012441     0.00012438     
  -0.87           -0.00012308     0.00012311     
  -0.86           -0.00012162     0.00012177     
  -0.85           -0.00012006     0.00012027     
  -0.84           -0.0001186      0.00011869     
  -0.83           -0.00011728     0.00011729     
  -0.82           -0.00011598     0.00011601     
  -0.81           -0.00011457     0.00011468     
  -0.8            -0.00011305     0.0001132      
  -0.79           -0.00011156     0.00011166     
  -0.78           -0.00011021     0.00011022     
  -0.77           -0.00010894     0.0001089      
  -0.76           -0.00010753     0.00010758     
  -0.75           -0.00010599     0.00010614     
  -0.74           -0.00010452     0.00010464     
  -0.73           -0.0001031      0.00010327     
  -0.72           -0.00010167     0.00010176     
  -0.71           -0.00010033     0.00010034     
  -0.7            -9.9048e-005    9.8984e-005    
  -0.69           -9.7646e-005    9.7648e-005    
  -0.68           -9.6151e-005    9.6227e-005    
  -0.67           -9.4648e-005    9.4727e-005    
  -0.66           -9.3246e-005    9.325e-005     
  -0.65           -9.1907e-005    9.1846e-005    
  -0.64           -9.0564e-005    9.052e-005     
  -0.63           -8.9139e-005    8.916e-005     
  -0.62           -8.7646e-005    8.7733e-005    
  -0.61           -8.6174e-005    8.6226e-005    
  -0.6            -8.4782e-005    8.487e-005     
  -0.59           -8.3338e-005    8.3366e-005    
  -0.58           -8.1969e-005    8.1933e-005    
  -0.57           -8.0649e-005    8.0586e-005    
  -0.56           -7.925e-005     7.9248e-005    
  -0.55           -7.778e-005     7.7834e-005    
  -0.54           -7.6287e-005    7.636e-005     
  -0.53           -7.4876e-005    7.4883e-005    
  -0.52           -7.3515e-005    7.3473e-005    
  -0.51           -7.2166e-005    7.212e-005     
  -0.5            -7.0744e-005    7.076e-005     
  -0.49           -6.9278e-005    6.934e-005     
  -0.48           -6.7808e-005    6.7849e-005    
  -0.47           -6.6401e-005    6.6397e-005    
  -0.46           -6.5055e-005    6.5001e-005    
  -0.45           -6.3686e-005    6.3664e-005    
  -0.44           -6.2252e-005    6.2205e-005    
  -0.43           -6.0854e-005    6.0852e-005    
  -0.42           -5.9396e-005    5.9435e-005    
  -0.41           -5.7927e-005    5.7984e-005    
  -0.4            -5.6507e-005    5.6516e-005    
  -0.39           -5.5133e-005    5.5107e-005    
  -0.38           -5.3767e-005    5.3734e-005    
  -0.37           -5.2359e-005    5.2369e-005    
  -0.36           -5.0896e-005    5.0943e-005    
  -0.35           -4.9439e-005    4.9469e-005    
  -0.34           -4.803e-005     4.803e-005     
  -0.33           -4.6664e-005    4.6627e-005    
  -0.32           -4.5282e-005    4.5269e-005    
  -0.31           -4.3852e-005    4.3823e-005    
  -0.3            -4.2448e-005    4.2453e-005    
  -0.29           -4.1003e-005    4.1033e-005    
  -0.28           -3.9557e-005    3.9597e-005    
  -0.27           -3.8135e-005    3.8144e-005    
  -0.26           -3.6746e-005    3.6732e-005    
  -0.25           -3.5363e-005    3.5346e-005    
  -0.24           -3.3955e-005    3.3965e-005    
  -0.23           -3.2512e-005    3.2544e-005    
  -0.22           -3.107e-005     3.1092e-005    
  -0.21           -2.9656e-005    2.966e-005     
  -0.2            -2.828e-005     2.826e-005     
  -0.19           -2.6881e-005    2.6874e-005    
  -0.18           -2.5451e-005    2.5439e-005    
  -0.17           -2.4045e-005    2.4045e-005    
  -0.16           -2.2622e-005    2.2639e-005    
  -0.15           -2.1181e-005    2.1207e-005    
  -0.14           -1.9763e-005    1.9772e-005    
  -0.13           -1.8359e-005    1.8359e-005    
  -0.12           -1.6969e-005    1.6967e-005    
  -0.11           -1.5551e-005    1.556e-005     
  -0.1            -1.4125e-005    1.414e-005     
  -0.09           -1.2694e-005    1.2708e-005    
  -0.08           -1.1278e-005    1.1284e-005    
  -0.07           -9.8744e-006    9.8952e-006    
  -0.06           -8.4632e-006    8.4627e-006    
  -0.05           -7.057e-006     7.0536e-006    
  -0.04           -5.6371e-006    5.639e-006     
  -0.03           -4.2262e-006    4.2277e-006    
  -0.02           -2.8049e-006    2.8073e-006    
  -0.01           -1.3883e-006    1.3926e-006    
  0               1.5238e-008     -1.2441e-008   
  0.01            1.4323e-006     -1.429e-006    
  0.02            2.8511e-006     -2.8432e-006   
  0.03            4.2583e-006     -4.2539e-006   
  0.04            5.6775e-006     -5.6757e-006   
  0.05            7.0864e-006     -7.0953e-006   
  0.06            8.501e-006      -8.5011e-006   
  0.07            9.9118e-006     -9.9029e-006   
  0.08            1.13387e-005    -1.13265e-005  
  0.09            1.2754e-005     -1.2744e-005   
  0.1             1.4182e-005     -1.4169e-005   
  0.11            1.5588e-005     -1.5561e-005   
  0.12            1.701e-005      -1.6998e-005   
  0.13            1.8413e-005     -1.8422e-005   
  0.14            1.981e-005      -1.9822e-005   
  0.15            2.1225e-005     -2.122e-005    
  0.16            2.2651e-005     -2.2623e-005   
  0.17            2.4086e-005     -2.406e-005    
  0.18            2.5503e-005     -2.5497e-005   
  0.19            2.6897e-005     -2.6915e-005   
  0.2             2.8282e-005     -2.8304e-005   
  0.21            2.9705e-005     -2.9692e-005   
  0.22            3.1147e-005     -3.1115e-005   
  0.23            3.2589e-005     -3.2568e-005   
  0.24            3.3993e-005     -3.395e-005    
  0.25            3.5414e-005     -3.5403e-005   
  0.26            3.6807e-005     -3.6829e-005   
  0.27            3.819e-005      -3.8216e-005   
  0.28            3.9599e-005     -3.9594e-005   
  0.29            4.1041e-005     -4.0999e-005   
  0.3             4.2492e-005     -4.2453e-005   
  0.31            4.3911e-005     -4.3906e-005   
  0.32            4.5289e-005     -4.532e-005    
  0.33            4.6662e-005     -4.6692e-005   
  0.34            4.8082e-005     -4.8069e-005   
  0.35            4.954e-005      -4.9492e-005   
  0.36            5.0996e-005     -5.0961e-005   
  0.37            5.2397e-005     -5.2336e-005   
  0.38            5.3824e-005     -5.3809e-005   
  0.39            5.5208e-005     -5.5237e-005   
  0.4             5.6564e-005     -5.6613e-005   
  0.41            5.7962e-005     -5.7963e-005   
  0.42            5.9424e-005     -5.9373e-005   
  0.43            6.0898e-005     -6.084e-005    
  0.44            6.2318e-005     -6.2311e-005   
  0.45            6.3681e-005     -6.3726e-005   
  0.46            6.5035e-005     -6.5078e-005   
  0.47            6.6458e-005     -6.6444e-005   
  0.48            6.7932e-005     -6.7868e-005   
  0.49            6.9402e-005     -6.9345e-005   
  0.5             7.0795e-005     -7.0806e-005   
  0.51            7.2145e-005     -7.2204e-005   
  0.52            7.3516e-005     -7.3543e-005   
  0.53            7.4942e-005     -7.5013e-005   
  0.54            7.6339e-005     -7.6344e-005   
  0.55            7.7808e-005     -7.7748e-005   
  0.56            7.93e-005       -7.9229e-005   
  0.57            8.0724e-005     -8.0715e-005   
  0.58            8.2077e-005     -8.2132e-005   
  0.59            8.3408e-005     -8.3469e-005   
  0.6             8.4833e-005     -8.4822e-005   
  0.61            8.6327e-005     -8.6247e-005   
  0.62            8.7809e-005     -8.7744e-005   
  0.63            8.9195e-005     -8.91e-005     
  0.64            9.0639e-005     -9.0616e-005   
  0.65            9.2004e-005     -9.2053e-005   
  0.66            9.332e-005      -9.3408e-005   
  0.67            9.4708e-005     -9.4717e-005   
  0.68            9.619e-005      -9.6117e-005   
  0.69            9.7705e-005     -9.7615e-005   
  0.7             9.9133e-005     -9.9115e-005   
  0.71            0.0001005       -0.000100539   
  0.72            0.00010194      -0.00010176    
  0.73            0.00010341      -0.00010327    
  0.74            0.00010482      -0.00010464    
  0.75            0.00010628      -0.00010617    
  0.76            0.00010757      -0.00010758    
  0.77            0.0001089       -0.0001089     
  0.78            0.00011034      -0.00011022    
  0.79            0.00011188      -0.0001117     
  0.8             0.00011334      -0.00011325    
  0.81            0.00011468      -0.00011468    
  0.82            0.00011597      -0.00011601    
  0.83            0.00011738      -0.00011731    
  0.84            0.00011889      -0.00011871    
  0.85            0.00012043      -0.00012027    
  0.86            0.0001218       -0.00012164    
  0.87            0.00012324      -0.00012317    
  0.88            0.00012455      -0.00012457    
  0.89            0.00012585      -0.00012588    
  0.9             0.00012731      -0.00012719    
  0.91            0.00012884      -0.00012864    
  0.92            0.00013033      -0.00013023    
  0.93            0.00013167      -0.00013166    
  0.94            0.00013296      -0.00013299    
  0.95            0.00013434      -0.00013426    
  0.96            0.00013589      -0.00013569    
  0.97            0.0001374       -0.00013723    
  0.98            0.0001388       -0.00013859    
  0.99            0.00014021      -0.00014017    
  1               0.00014153      -0.00014157    
END_DB

