! VERSION = 6.00
BEGIN_HEADER
 ICCAP_INPUTS
  VU1        V  E GROUND SMU2 0.1 CON        0
  VU2        V  S GROUND SMU3 0.1 CON        0
  V2         V  B GROUND SMU1 0.015 CON        0
  V1         V  C GROUND SMU4 0.015 LIN        1    -1         1          201  0.01      
 ICCAP_OUTPUTS
  I1         I  C GROUND SMU4 B
  I2         I  B GROUND SMU1 B
END_HEADER

BEGIN_DB
 ICCAP_VAR VU1        0              
 ICCAP_VAR VU2        0              
 ICCAP_VAR V2         0              

 #V1              I1              I2             
  -1              -0.001385       0.0013871      
  -0.99           -0.0013717      0.0013718      
  -0.98           -0.0013587      0.0013586      
  -0.97           -0.0013448      0.0013455      
  -0.96           -0.0013304      0.0013315      
  -0.95           -0.0013159      0.001317       
  -0.94           -0.0013022      0.0013035      
  -0.93           -0.0012884      0.0012889      
  -0.92           -0.0012751      0.0012751      
  -0.91           -0.0012617      0.0012621      
  -0.9            -0.0012477      0.001248       
  -0.89           -0.0012339      0.0012347      
  -0.88           -0.0012197      0.0012208      
  -0.87           -0.0012051      0.0012061      
  -0.86           -0.0011916      0.001193       
  -0.85           -0.0011776      0.0011783      
  -0.84           -0.0011641      0.0011644      
  -0.83           -0.0011509      0.0011511      
  -0.82           -0.001137       0.0011379      
  -0.81           -0.0011225      0.0011238      
  -0.8            -0.0011083      0.0011091      
  -0.79           -0.0010948      0.0010951      
  -0.78           -0.0010816      0.0010818      
  -0.77           -0.001068       0.0010686      
  -0.76           -0.0010535      0.0010544      
  -0.75           -0.0010391      0.0010401      
  -0.74           -0.0010255      0.0010266      
  -0.73           -0.0010115      0.0010119      
  -0.72           -0.00099786     0.00099893     
  -0.71           -0.00098423     0.00098404     
  -0.7            -0.00097105     0.00097062     
  -0.69           -0.00095727     0.00095731     
  -0.68           -0.00094299     0.00094339     
  -0.67           -0.00092863     0.00092904     
  -0.66           -0.00091491     0.00091489     
  -0.65           -0.00090157     0.00090119     
  -0.64           -0.00088795     0.00088786     
  -0.63           -0.00087381     0.00087411     
  -0.62           -0.00085949     0.00085999     
  -0.61           -0.00084558     0.00084564     
  -0.6            -0.0008321      0.00083178     
  -0.59           -0.00081859     0.00081843     
  -0.58           -0.0008046      0.00080426     
  -0.57           -0.00079084     0.00079092     
  -0.56           -0.00077662     0.00077701     
  -0.55           -0.00076237     0.00076265     
  -0.54           -0.00074857     0.00074904     
  -0.53           -0.00073466     0.00073481     
  -0.52           -0.00072109     0.00072092     
  -0.51           -0.00070756     0.00070736     
  -0.5            -0.00069365     0.00069376     
  -0.49           -0.00067942     0.00067987     
  -0.48           -0.00066534     0.00066565     
  -0.47           -0.0006516      0.00065152     
  -0.46           -0.00063816     0.00063788     
  -0.45           -0.00062442     0.00062446     
  -0.44           -0.00061026     0.00061054     
  -0.43           -0.00059607     0.00059634     
  -0.42           -0.00058219     0.0005822      
  -0.41           -0.00056877     0.00056854     
  -0.4            -0.00055504     0.00055501     
  -0.39           -0.00054094     0.00054117     
  -0.38           -0.00052674     0.00052707     
  -0.37           -0.00051294     0.00051299     
  -0.36           -0.00049924     0.00049913     
  -0.35           -0.00048562     0.00048557     
  -0.34           -0.00047163     0.00047148     
  -0.33           -0.00045779     0.00045785     
  -0.32           -0.0004438      0.00044403     
  -0.31           -0.00042968     0.0004299      
  -0.3            -0.00041583     0.00041585     
  -0.29           -0.00040216     0.00040205     
  -0.28           -0.00038853     0.00038851     
  -0.27           -0.00037446     0.00037464     
  -0.26           -0.00036036     0.00036058     
  -0.25           -0.00034645     0.00034653     
  -0.24           -0.00033282     0.00033273     
  -0.23           -0.00031907     0.0003191      
  -0.22           -0.00030513     0.00030502     
  -0.21           -0.00029124     0.00029131     
  -0.2            -0.00027734     0.00027749     
  -0.19           -0.00026329     0.00026343     
  -0.18           -0.00024944     0.00024947     
  -0.17           -0.00023567     0.00023562     
  -0.16           -0.00022195     0.00022198     
  -0.15           -0.00020799     0.0002081      
  -0.14           -0.00019398     0.00019411     
  -0.13           -0.00018008     0.00018012     
  -0.12           -0.00016634     0.00016633     
  -0.11           -0.0001525      0.00015261     
  -0.1            -0.00013856     0.00013857     
  -0.09           -0.00012468     0.00012475     
  -0.08           -0.00011071     0.00011082     
  -0.07           -9.6884e-005    9.6904e-005    
  -0.06           -8.299e-005     8.2999e-005    
  -0.05           -6.9129e-005    6.9131e-005    
  -0.04           -5.5266e-005    5.5243e-005    
  -0.03           -4.1456e-005    4.1476e-005    
  -0.02           -2.7558e-005    2.7565e-005    
  -0.01           -1.3656e-005    1.3658e-005    
  0               9.163e-008      -9.3638e-008   
  0.01            1.4048e-005     -1.4e-005      
  0.02            2.7918e-005     -2.7942e-005   
  0.03            4.1687e-005     -4.1689e-005   
  0.04            5.557e-005      -5.5568e-005   
  0.05            6.9476e-005     -6.944e-005    
  0.06            8.3397e-005     -8.3314e-005   
  0.07            9.718e-005      -9.7179e-005   
  0.08            0.00011115      -0.000111057   
  0.09            0.00012511      -0.00012496    
  0.1             0.000139        -0.00013896    
  0.11            0.00015278      -0.00015276    
  0.12            0.00016658      -0.00016659    
  0.13            0.00018046      -0.00018041    
  0.14            0.00019445      -0.00019433    
  0.15            0.00020844      -0.00020828    
  0.16            0.00022225      -0.00022204    
  0.17            0.00023617      -0.00023607    
  0.18            0.00024993      -0.00024998    
  0.19            0.00026369      -0.00026378    
  0.2             0.00027751      -0.00027762    
  0.21            0.00029137      -0.00029137    
  0.22            0.0003054       -0.00030522    
  0.23            0.00031946      -0.00031928    
  0.24            0.00033325      -0.00033321    
  0.25            0.00034695      -0.00034706    
  0.26            0.00036077      -0.00036072    
  0.27            0.00037476      -0.00037457    
  0.28            0.00038888      -0.00038861    
  0.29            0.00040274      -0.00040263    
  0.3             0.00041639      -0.00041651    
  0.31            0.00043008      -0.0004302     
  0.32            0.000444        -0.0004442     
  0.33            0.00045776      -0.00045772    
  0.34            0.00047189      -0.00047162    
  0.35            0.00048602      -0.00048573    
  0.36            0.00049987      -0.00049986    
  0.37            0.00051333      -0.00051355    
  0.38            0.00052712      -0.0005271     
  0.39            0.00054114      -0.00054092    
  0.4             0.00055538      -0.00055506    
  0.41            0.00056922      -0.00056914    
  0.42            0.0005828       -0.00058298    
  0.43            0.00059646      -0.00059664    
  0.44            0.00061038      -0.00061066    
  0.45            0.00062421      -0.00062419    
  0.46            0.00063831      -0.00063798    
  0.47            0.00065252      -0.00065218    
  0.48            0.00066637      -0.00066636    
  0.49            0.00067979      -0.00068013    
  0.5             0.00069346      -0.00069347    
  0.51            0.00070757      -0.00070725    
  0.52            0.00072187      -0.00072143    
  0.53            0.00073581      -0.00073572    
  0.54            0.00074921      -0.00074948    
  0.55            0.00076278      -0.00076298    
  0.56            0.00077668      -0.00077705    
  0.57            0.00079051      -0.0007905     
  0.58            0.00080479      -0.00080439    
  0.59            0.00081894      -0.00081856    
  0.6             0.00083278      -0.00083282    
  0.61            0.00084614      -0.00084654    
  0.62            0.00085982      -0.00085988    
  0.63            0.00087384      -0.00087353    
  0.64            0.00088829      -0.00088778    
  0.65            0.00090224      -0.00090212    
  0.66            0.00091565      -0.00091597    
  0.67            0.000929        -0.00092928    
  0.68            0.00094295      -0.00094341    
  0.69            0.00095672      -0.00095674    
  0.7             0.00097106      -0.00097059    
  0.71            0.00098545      -0.000985      
  0.72            0.00099918      -0.0009992     
  0.73            0.00101248      -0.00101293    
  0.74            0.001026        -0.00102612    
  0.75            0.00104012      -0.00103981    
  0.76            0.00105461      -0.00105394    
  0.77            0.0010686       -0.00106845    
  0.78            0.00108197      -0.00108234    
  0.79            0.0010953       -0.00109566    
  0.8             0.00110914      -0.00110895    
  0.81            0.00112367      -0.00112305    
  0.82            0.0011382       -0.00113767    
  0.83            0.0011518       -0.0011514     
  0.84            0.0011647       -0.0011646     
  0.85            0.0011786       -0.0011781     
  0.86            0.0011931       -0.0011918     
  0.87            0.0012073       -0.0012062     
  0.88            0.0012211       -0.0012206     
  0.89            0.0012343       -0.0012343     
  0.9             0.0012479       -0.0012472     
  0.91            0.001262        -0.0012609     
  0.92            0.0012766       -0.0012754     
  0.93            0.0012905       -0.0012897     
  0.94            0.0013037       -0.0013036     
  0.95            0.0013169       -0.0013167     
  0.96            0.0013308       -0.0013311     
  0.97            0.0013445       -0.0013441     
  0.98            0.001359        -0.0013578     
  0.99            0.0013736       -0.0013725     
  1               0.0013874       -0.0013869     
END_DB

