! VERSION = 6.00
BEGIN_HEADER
 ICCAP_INPUTS
  VU1        V  E GROUND SMU2 0.1 CON        0
  VU2        V  S GROUND SMU3 0.1 CON        0
  V2         V  B GROUND SMU1 0.015 CON        0
  V1         V  C GROUND SMU4 0.015 LIN        1    -1         1          201  0.01      
 ICCAP_OUTPUTS
  I1         I  C GROUND SMU4 B
  I2         I  B GROUND SMU1 B
END_HEADER

BEGIN_DB
 ICCAP_VAR VU1        0              
 ICCAP_VAR VU2        0              
 ICCAP_VAR V2         0              

 #V1              I1              I2             
  -1              -0.0019981      0.0019978      
  -0.99           -0.0019779      0.0019785      
  -0.98           -0.0019562      0.0019577      
  -0.97           -0.001935       0.0019362      
  -0.96           -0.0019151      0.0019154      
  -0.95           -0.0018959      0.0018959      
  -0.94           -0.0018757      0.0018764      
  -0.93           -0.0018546      0.0018559      
  -0.92           -0.0018333      0.0018345      
  -0.91           -0.001813       0.0018134      
  -0.9            -0.0017937      0.0017934      
  -0.89           -0.0017737      0.0017742      
  -0.88           -0.001753       0.0017541      
  -0.87           -0.0017315      0.0017331      
  -0.86           -0.0017111      0.001712       
  -0.85           -0.0016916      0.0016915      
  -0.84           -0.0016717      0.0016719      
  -0.83           -0.0016511      0.0016511      
  -0.82           -0.0016311      0.001632       
  -0.81           -0.0016103      0.0016114      
  -0.8            -0.0015891      0.0015903      
  -0.79           -0.001569       0.0015696      
  -0.78           -0.0015494      0.0015496      
  -0.77           -0.0015299      0.0015302      
  -0.76           -0.0015091      0.0015102      
  -0.75           -0.001488       0.0014891      
  -0.74           -0.0014676      0.0014683      
  -0.73           -0.0014481      0.0014482      
  -0.72           -0.0014284      0.0014287      
  -0.71           -0.001408       0.0014081      
  -0.7            -0.0013882      0.0013889      
  -0.69           -0.0013675      0.0013687      
  -0.68           -0.0013464      0.0013477      
  -0.67           -0.0013265      0.0013279      
  -0.66           -0.0013063      0.0013071      
  -0.65           -0.0012865      0.0012868      
  -0.64           -0.001267       0.0012674      
  -0.63           -0.0012468      0.0012476      
  -0.62           -0.0012261      0.0012274      
  -0.61           -0.0012057      0.0012068      
  -0.6            -0.001186       0.0011864      
  -0.59           -0.0011663      0.0011666      
  -0.58           -0.0011464      0.0011469      
  -0.57           -0.001126       0.001127       
  -0.56           -0.0011056      0.0011065      
  -0.55           -0.0010854      0.001086       
  -0.54           -0.001066       0.0010663      
  -0.53           -0.0010464      0.001047       
  -0.52           -0.0010259      0.001027       
  -0.51           -0.0010056      0.0010067      
  -0.5            -0.00098605     0.00098649     
  -0.49           -0.000966       0.00096616     
  -0.48           -0.00094624     0.00094606     
  -0.47           -0.00092672     0.00092644     
  -0.46           -0.0009069      0.00090699     
  -0.45           -0.00088669     0.00088711     
  -0.44           -0.00086648     0.0008667      
  -0.43           -0.00084668     0.00084709     
  -0.42           -0.00082665     0.00082674     
  -0.41           -0.0008072      0.00080704     
  -0.4            -0.0007877      0.00078753     
  -0.39           -0.00076777     0.00076792     
  -0.38           -0.00074749     0.00074793     
  -0.37           -0.00072766     0.00072782     
  -0.36           -0.00070794     0.0007078      
  -0.35           -0.00068847     0.00068822     
  -0.34           -0.00066869     0.00066876     
  -0.33           -0.00064865     0.00064897     
  -0.32           -0.00062873     0.00062891     
  -0.31           -0.00060903     0.00060935     
  -0.3            -0.00058918     0.00058927     
  -0.29           -0.0005696      0.00056953     
  -0.28           -0.00055032     0.00055014     
  -0.27           -0.00053049     0.0005306      
  -0.26           -0.00051042     0.00051073     
  -0.25           -0.00049054     0.0004907      
  -0.24           -0.00047106     0.00047102     
  -0.23           -0.00045161     0.00045152     
  -0.22           -0.00043182     0.00043195     
  -0.21           -0.00041199     0.00041221     
  -0.2            -0.00039229     0.00039238     
  -0.19           -0.00037262     0.00037286     
  -0.18           -0.00035288     0.00035297     
  -0.17           -0.00033329     0.00033328     
  -0.16           -0.00031393     0.00031396     
  -0.15           -0.0002942      0.00029411     
  -0.14           -0.00027452     0.00027458     
  -0.13           -0.00025477     0.00025489     
  -0.12           -0.00023513     0.0002353      
  -0.11           -0.00021548     0.00021554     
  -0.1            -0.000196       0.00019589     
  -0.09           -0.00017632     0.00017627     
  -0.08           -0.00015659     0.00015671     
  -0.07           -0.00013702     0.00013714     
  -0.06           -0.00011737     0.00011741     
  -0.05           -9.7665e-005    9.7716e-005    
  -0.04           -7.8062e-005    7.8053e-005    
  -0.03           -5.8595e-005    5.8599e-005    
  -0.02           -3.8943e-005    3.8943e-005    
  -0.01           -1.9283e-005    1.9294e-005    
  0               1.0806e-007     -1.4235e-007   
  0.01            1.9832e-005     -1.9827e-005   
  0.02            3.9516e-005     -3.9468e-005   
  0.03            5.8976e-005     -5.8984e-005   
  0.04            7.8592e-005     -7.8613e-005   
  0.05            9.8145e-005     -9.8207e-005   
  0.06            0.00011796      -0.00011787    
  0.07            0.00013745      -0.00013741    
  0.08            0.00015718      -0.00015704    
  0.09            0.00017688      -0.00017669    
  0.1             0.00019658      -0.00019641    
  0.11            0.00021613      -0.00021601    
  0.12            0.0002357       -0.00023572    
  0.13            0.00025524      -0.00025535    
  0.14            0.00027495      -0.00027502    
  0.15            0.0002946       -0.00029455    
  0.16            0.00031422      -0.00031405    
  0.17            0.00033404      -0.00033388    
  0.18            0.00035373      -0.00035367    
  0.19            0.00037327      -0.00037339    
  0.2             0.00039271      -0.00039266    
  0.21            0.00041254      -0.00041235    
  0.22            0.0004325       -0.00043219    
  0.23            0.00045228      -0.00045214    
  0.24            0.00047165      -0.00047173    
  0.25            0.00049117      -0.00049135    
  0.26            0.00051091      -0.0005111     
  0.27            0.00053062      -0.00053061    
  0.28            0.00055061      -0.00055037    
  0.29            0.00057052      -0.00057019    
  0.3             0.00059025      -0.00059023    
  0.31            0.0006097       -0.0006099     
  0.32            0.00062941      -0.00062935    
  0.33            0.00064917      -0.00064892    
  0.34            0.00066938      -0.00066898    
  0.35            0.00068925      -0.00068913    
  0.36            0.00070874      -0.00070899    
  0.37            0.00072816      -0.00072835    
  0.38            0.00074807      -0.00074831    
  0.39            0.00076785      -0.00076786    
  0.4             0.00078804      -0.00078772    
  0.41            0.00080804      -0.00080766    
  0.42            0.00082792      -0.00082747    
  0.43            0.00084799      -0.00084787    
  0.44            0.00086757      -0.00086781    
  0.45            0.00088709      -0.00088736    
  0.46            0.00090694      -0.00090678    
  0.47            0.00092723      -0.00092678    
  0.48            0.00094747      -0.0009473     
  0.49            0.00096726      -0.00096742    
  0.5             0.00098649      -0.00098692    
  0.51            0.00100644      -0.00100635    
  0.52            0.00102688      -0.00102646    
  0.53            0.00104736      -0.00104691    
  0.54            0.00106721      -0.00106663    
  0.55            0.00108739      -0.00108716    
  0.56            0.0011071       -0.00110739    
  0.57            0.00112653      -0.00112689    
  0.58            0.001147        -0.001147      
  0.59            0.0011669       -0.0011662     
  0.6             0.0011874       -0.0011861     
  0.61            0.001208        -0.001207      
  0.62            0.001228        -0.0012276     
  0.63            0.0012474       -0.0012477     
  0.64            0.0012674       -0.0012668     
  0.65            0.0012877       -0.0012868     
  0.66            0.0013087       -0.0013075     
  0.67            0.0013289       -0.001328      
  0.68            0.0013483       -0.0013484     
  0.69            0.001368        -0.0013679     
  0.7             0.0013884       -0.0013886     
  0.71            0.0014088       -0.0014079     
  0.72            0.0014292       -0.001428      
  0.73            0.0014501       -0.001449      
  0.74            0.0014702       -0.0014688     
  0.75            0.0014907       -0.0014898     
  0.76            0.0015104       -0.0015101     
  0.77            0.0015298       -0.0015296     
  0.78            0.0015503       -0.0015495     
  0.79            0.0015714       -0.0015699     
  0.8             0.001592        -0.001591      
  0.81            0.0016119       -0.0016116     
  0.82            0.0016314       -0.0016316     
  0.83            0.0016518       -0.001651      
  0.84            0.0016725       -0.0016711     
  0.85            0.0016936       -0.0016923     
  0.86            0.0017138       -0.0017133     
  0.87            0.0017335       -0.0017335     
  0.88            0.0017535       -0.0017529     
  0.89            0.0017739       -0.001773      
  0.9             0.0017956       -0.0017941     
  0.91            0.0018162       -0.0018152     
  0.92            0.0018358       -0.0018357     
  0.93            0.0018552       -0.0018551     
  0.94            0.0018758       -0.0018757     
  0.95            0.001896        -0.0018952     
  0.96            0.0019171       -0.0019159     
  0.97            0.0019384       -0.0019369     
  0.98            0.0019586       -0.001957      
  0.99            0.0019796       -0.0019786     
  1               0.0019989       -0.0019991     
END_DB

