! VERSION = 6.00
BEGIN_HEADER
 ICCAP_INPUTS
  VU1        V  E GROUND SMU2 0.1 CON        0
  VU2        V  S GROUND SMU3 0.1 CON        0
  V2         V  B GROUND SMU4 0.015 CON        0
  V1         V  C GROUND SMU1 0.015 LIN        1    -1         1          201  0.01      
 ICCAP_OUTPUTS
  I1         I  C GROUND SMU1 B
  I2         I  B GROUND SMU4 B
END_HEADER

BEGIN_DB
 ICCAP_VAR VU1        0              
 ICCAP_VAR VU2        0              
 ICCAP_VAR V2         0              

 #V1              I1              I2             
  -1              -0.0026981      0.0026981      
  -0.99           -0.0026699      0.0026715      
  -0.98           -0.0026418      0.0026438      
  -0.97           -0.0026159      0.002617       
  -0.96           -0.0025887      0.0025886      
  -0.95           -0.0025607      0.0025607      
  -0.94           -0.0025339      0.0025338      
  -0.93           -0.0025058      0.0025065      
  -0.92           -0.002479       0.0024806      
  -0.91           -0.0024527      0.0024546      
  -0.9            -0.0024253      0.0024274      
  -0.89           -0.0023995      0.0024006      
  -0.88           -0.0023725      0.0023729      
  -0.87           -0.0023449      0.002345       
  -0.86           -0.002317       0.0023181      
  -0.85           -0.0022903      0.0022921      
  -0.84           -0.0022647      0.0022661      
  -0.83           -0.0022381      0.0022385      
  -0.82           -0.0022105      0.0022101      
  -0.81           -0.0021824      0.0021832      
  -0.8            -0.0021555      0.0021572      
  -0.79           -0.0021292      0.0021309      
  -0.78           -0.0021016      0.0021036      
  -0.77           -0.0020757      0.0020768      
  -0.76           -0.0020491      0.0020494      
  -0.75           -0.0020213      0.0020215      
  -0.74           -0.0019937      0.0019949      
  -0.73           -0.0019672      0.0019685      
  -0.72           -0.001941       0.0019423      
  -0.71           -0.0019144      0.001915       
  -0.7            -0.0018869      0.0018871      
  -0.69           -0.0018591      0.0018599      
  -0.68           -0.0018322      0.0018337      
  -0.67           -0.001806       0.0018076      
  -0.66           -0.0017787      0.0017803      
  -0.65           -0.0017527      0.0017538      
  -0.64           -0.0017259      0.0017261      
  -0.63           -0.001698       0.0016982      
  -0.62           -0.0016705      0.0016716      
  -0.61           -0.0016436      0.0016452      
  -0.6            -0.0016177      0.001619       
  -0.59           -0.001591       0.0015916      
  -0.58           -0.0015634      0.0015638      
  -0.57           -0.0015358      0.0015366      
  -0.56           -0.001509       0.0015104      
  -0.55           -0.0014826      0.0014842      
  -0.54           -0.0014562      0.001457       
  -0.53           -0.0014293      0.0014294      
  -0.52           -0.0014015      0.0014022      
  -0.51           -0.0013743      0.0013754      
  -0.5            -0.0013479      0.0013494      
  -0.49           -0.0013214      0.0013226      
  -0.48           -0.0012943      0.0012949      
  -0.47           -0.0012674      0.0012678      
  -0.46           -0.0012405      0.0012407      
  -0.45           -0.0012131      0.0012138      
  -0.44           -0.001186       0.0011874      
  -0.43           -0.0011595      0.0011607      
  -0.42           -0.0011331      0.0011339      
  -0.41           -0.0011059      0.0011066      
  -0.4            -0.0010782      0.001079       
  -0.39           -0.0010514      0.0010526      
  -0.38           -0.0010248      0.001026       
  -0.37           -0.00099825     0.00099846     
  -0.36           -0.00097164     0.00097182     
  -0.35           -0.00094472     0.00094462     
  -0.34           -0.00091739     0.00091713     
  -0.33           -0.00089019     0.00089023     
  -0.32           -0.00086321     0.00086357     
  -0.31           -0.00083642     0.00083684     
  -0.3            -0.00080955     0.00081        
  -0.29           -0.00078286     0.00078303     
  -0.28           -0.00075585     0.00075569     
  -0.27           -0.00072874     0.00072852     
  -0.26           -0.00070143     0.00070157     
  -0.25           -0.0006745      0.00067486     
  -0.24           -0.00064799     0.00064815     
  -0.23           -0.00062105     0.00062097     
  -0.22           -0.00059382     0.00059362     
  -0.21           -0.00056669     0.00056676     
  -0.2            -0.00053969     0.00053999     
  -0.19           -0.00051284     0.00051313     
  -0.18           -0.00048596     0.00048625     
  -0.17           -0.00045907     0.00045924     
  -0.16           -0.00043227     0.0004322      
  -0.15           -0.00040518     0.00040504     
  -0.14           -0.00037814     0.00037801     
  -0.13           -0.00035109     0.00035115     
  -0.12           -0.000324       0.00032422     
  -0.11           -0.00029712     0.00029732     
  -0.1            -0.00027039     0.00027048     
  -0.09           -0.0002433      0.00024334     
  -0.08           -0.00021606     0.00021619     
  -0.07           -0.00018928     0.00018942     
  -0.06           -0.0001623      0.00016248     
  -0.05           -0.00013529     0.00013544     
  -0.04           -0.00010844     0.0001085      
  -0.03           -8.1243e-005    8.1231e-005    
  -0.02           -5.4274e-005    5.4263e-005    
  -0.01           -2.7447e-005    2.7478e-005    
  0               -1.5145e-007    1.8312e-007    
  0.01            2.6574e-005     -2.6584e-005   
  0.02            5.3373e-005     -5.3354e-005   
  0.03            8.0411e-005     -8.0408e-005   
  0.04            0.000107443     -0.000107398   
  0.05            0.0001344       -0.0001343     
  0.06            0.00016147      -0.00016127    
  0.07            0.00018843      -0.00018829    
  0.08            0.00021531      -0.00021515    
  0.09            0.00024223      -0.00024217    
  0.1             0.00026927      -0.00026931    
  0.11            0.00029636      -0.00029625    
  0.12            0.0003232       -0.00032322    
  0.13            0.0003504       -0.00035028    
  0.14            0.00037723      -0.000377      
  0.15            0.00040403      -0.00040391    
  0.16            0.00043099      -0.00043093    
  0.17            0.00045786      -0.00045796    
  0.18            0.00048519      -0.00048517    
  0.19            0.00051225      -0.00051204    
  0.2             0.00053891      -0.00053861    
  0.21            0.00056569      -0.00056564    
  0.22            0.00059277      -0.00059288    
  0.23            0.00061998      -0.00061993    
  0.24            0.00064677      -0.00064688    
  0.25            0.00067409      -0.00067396    
  0.26            0.00070089      -0.00070058    
  0.27            0.00072759      -0.00072737    
  0.28            0.00075486      -0.00075444    
  0.29            0.00078153      -0.00078136    
  0.3             0.00080839      -0.00080848    
  0.31            0.00083576      -0.00083589    
  0.32            0.00086306      -0.0008629     
  0.33            0.00088979      -0.00088927    
  0.34            0.00091642      -0.00091616    
  0.35            0.00094327      -0.00094335    
  0.36            0.00097035      -0.00097064    
  0.37            0.00099787      -0.0009978     
  0.38            0.00102489      -0.0010245     
  0.39            0.0010512       -0.00105091    
  0.4             0.00107859      -0.00107804    
  0.41            0.00110509      -0.00110491    
  0.42            0.0011319       -0.00113214    
  0.43            0.0011603       -0.0011587     
  0.44            0.0011867       -0.0011863     
  0.45            0.0012141       -0.0012133     
  0.46            0.0012412       -0.0012398     
  0.47            0.0012676       -0.0012663     
  0.48            0.0012941       -0.0012933     
  0.49            0.0013211       -0.001321      
  0.5             0.0013492       -0.0013484     
  0.51            0.001376        -0.0013748     
  0.52            0.0014027       -0.0014012     
  0.53            0.001429        -0.001428      
  0.54            0.0014561       -0.0014557     
  0.55            0.0014838       -0.0014832     
  0.56            0.0015102       -0.0015099     
  0.57            0.001538        -0.0015372     
  0.58            0.0015649       -0.0015634     
  0.59            0.0015911       -0.0015897     
  0.6             0.0016187       -0.0016168     
  0.61            0.0016447       -0.0016436     
  0.62            0.0016715       -0.0016711     
  0.63            0.0016993       -0.0016989     
  0.64            0.0017268       -0.0017256     
  0.65            0.0017534       -0.0017517     
  0.66            0.0017797       -0.0017784     
  0.67            0.001806        -0.0018055     
  0.68            0.0018334       -0.0018334     
  0.69            0.0018613       -0.0018605     
  0.7             0.0018881       -0.0018867     
  0.71            0.0019143       -0.001913      
  0.72            0.0019418       -0.0019401     
  0.73            0.0019676       -0.0019668     
  0.74            0.0019948       -0.0019943     
  0.75            0.0020225       -0.0020222     
  0.76            0.00205         -0.002049      
  0.77            0.0020766       -0.0020749     
  0.78            0.0021027       -0.0021015     
  0.79            0.0021291       -0.0021286     
  0.8             0.0021568       -0.0021567     
  0.81            0.0021847       -0.0021837     
  0.82            0.0022114       -0.0022096     
  0.83            0.0022373       -0.0022359     
  0.84            0.002265        -0.0022631     
  0.85            0.0022908       -0.0022898     
  0.86            0.0023177       -0.0023176     
  0.87            0.0023458       -0.0023455     
  0.88            0.0023732       -0.0023721     
  0.89            0.0023998       -0.002398      
  0.9             0.0024256       -0.0024243     
  0.91            0.0024519       -0.0024517     
  0.92            0.00248         -0.0024797     
  0.93            0.0025079       -0.0025069     
  0.94            0.0025346       -0.0025329     
  0.95            0.0025603       -0.002559      
  0.96            0.0025882       -0.002586      
  0.97            0.0026137       -0.0026125     
  0.98            0.0026408       -0.0026405     
  0.99            0.0026688       -0.0026686     
  1               0.0026964       -0.0026953     
END_DB

