! VERSION = 6.00
BEGIN_HEADER
 ICCAP_INPUTS
  VU1        V  E GROUND SMU2 0.1 CON        0
  VU2        V  S GROUND SMU3 0.1 CON        0
  V2         V  B GROUND SMU1 0.015 CON        0
  V1         V  C GROUND SMU4 0.015 LIN        1    -0.3       0.3        61   0.01      
 ICCAP_OUTPUTS
  I1         I  C GROUND SMU4 B
  I2         I  B GROUND SMU1 B
END_HEADER

BEGIN_DB
 ICCAP_VAR VU1        0              
 ICCAP_VAR VU2        0              
 ICCAP_VAR V2         0              

 #V1              I1              I2             
  -0.3            -0.00034649     0.0003466      
  -0.29           -0.00033429     0.0003343      
  -0.28           -0.00032237     0.0003223      
  -0.27           -0.00031018     0.00031026     
  -0.26           -0.00029794     0.00029817     
  -0.25           -0.00028571     0.0002859      
  -0.24           -0.00027387     0.00027415     
  -0.23           -0.00026201     0.00026207     
  -0.22           -0.00025029     0.00025027     
  -0.21           -0.00023863     0.00023871     
  -0.2            -0.00022696     0.00022691     
  -0.19           -0.00021531     0.00021537     
  -0.18           -0.00020359     0.00020375     
  -0.17           -0.0001919      0.00019206     
  -0.16           -0.0001805      0.00018055     
  -0.15           -0.00016907     0.00016907     
  -0.14           -0.0001577      0.00015772     
  -0.13           -0.0001462      0.00014632     
  -0.12           -0.00013485     0.00013495     
  -0.11           -0.00012348     0.00012353     
  -0.1            -0.00011218     0.00011221     
  -0.09           -0.00010092     0.00010103     
  -0.08           -8.9569e-005    8.9597e-005    
  -0.07           -7.8437e-005    7.8395e-005    
  -0.06           -6.7139e-005    6.7174e-005    
  -0.05           -5.5876e-005    5.5891e-005    
  -0.04           -4.4617e-005    4.4645e-005    
  -0.03           -3.3478e-005    3.3484e-005    
  -0.02           -2.2259e-005    2.2269e-005    
  -0.01           -1.1037e-005    1.1036e-005    
  0               7.9998e-008     -8.4306e-008   
  0.01            1.1336e-005     -1.1331e-005   
  0.02            2.2601e-005     -2.2556e-005   
  0.03            3.3735e-005     -3.3733e-005   
  0.04            4.4981e-005     -4.4994e-005   
  0.05            5.6182e-005     -5.6217e-005   
  0.06            6.7425e-005     -6.7416e-005   
  0.07            7.8645e-005     -7.8576e-005   
  0.08            8.9968e-005     -8.9909e-005   
  0.09            0.00010129      -0.000101289   
  0.1             0.00011262      -0.00011257    
  0.11            0.00012398      -0.00012382    
  0.12            0.0001354       -0.00013529    
  0.13            0.00014683      -0.00014665    
  0.14            0.00015829      -0.0001582     
  0.15            0.00016967      -0.00016967    
  0.16            0.00018101      -0.00018101    
  0.17            0.00019257      -0.00019261    
  0.18            0.00020405      -0.00020401    
  0.19            0.00021586      -0.00021566    
  0.2             0.00022756      -0.00022735    
  0.21            0.0002393       -0.00023924    
  0.22            0.00025091      -0.00025101    
  0.23            0.00026265      -0.00026262    
  0.24            0.00027451      -0.00027434    
  0.25            0.00028668      -0.00028639    
  0.26            0.00029873      -0.00029858    
  0.27            0.00031056      -0.00031064    
  0.28            0.00032257      -0.00032262    
  0.29            0.0003346       -0.00033477    
  0.3             0.00034689      -0.00034678    
END_DB

