! VERSION = 6.00
BEGIN_HEADER
 ICCAP_INPUTS
  VU1        V  E GROUND SMU2 0.1 CON        0
  VU2        V  S GROUND SMU3 0.1 CON        0
  V2         V  B GROUND SMU1 0.015 CON        0
  V1         V  C GROUND SMU4 0.015 LIN        1    -1         1          201  0.01      
 ICCAP_OUTPUTS
  I1         I  C GROUND SMU4 B
  I2         I  B GROUND SMU1 B
END_HEADER

BEGIN_DB
 ICCAP_VAR VU1        0              
 ICCAP_VAR VU2        0              
 ICCAP_VAR V2         0              

 #V1              I1              I2             
  -1              -0.00074995     0.00074997     
  -0.99           -0.00074294     0.00074266     
  -0.98           -0.0007354      0.00073553     
  -0.97           -0.00072742     0.00072792     
  -0.96           -0.0007197      0.00071995     
  -0.95           -0.00071241     0.0007123      
  -0.94           -0.00070537     0.00070506     
  -0.93           -0.00069798     0.00069798     
  -0.92           -0.00069015     0.00069049     
  -0.91           -0.00068229     0.00068266     
  -0.9            -0.00067486     0.00067486     
  -0.89           -0.00066775     0.00066744     
  -0.88           -0.00066047     0.00066034     
  -0.87           -0.00065283     0.00065307     
  -0.86           -0.00064488     0.00064535     
  -0.85           -0.00063733     0.00063744     
  -0.84           -0.0006301      0.00062993     
  -0.83           -0.00062294     0.00062279     
  -0.82           -0.00061546     0.00061559     
  -0.81           -0.00060753     0.00060793     
  -0.8            -0.00059983     0.00060001     
  -0.79           -0.0005925      0.0005924      
  -0.78           -0.00058545     0.00058521     
  -0.77           -0.00057796     0.00057803     
  -0.76           -0.00057015     0.00057049     
  -0.75           -0.00056239     0.00056261     
  -0.74           -0.00055495     0.00055536     
  -0.73           -0.00054743     0.0005475      
  -0.72           -0.00054018     0.00054        
  -0.71           -0.00053295     0.00053284     
  -0.7            -0.00052543     0.0005252      
  -0.69           -0.00051798     0.00051802     
  -0.68           -0.00051023     0.00051049     
  -0.67           -0.00050245     0.00050273     
  -0.66           -0.000495       0.000495       
  -0.65           -0.00048784     0.00048761     
  -0.64           -0.00048046     0.00048045     
  -0.63           -0.00047281     0.00047301     
  -0.62           -0.00046502     0.00046534     
  -0.61           -0.00045746     0.00045755     
  -0.6            -0.00045019     0.00045008     
  -0.59           -0.00044289     0.00044285     
  -0.58           -0.00043532     0.00043517     
  -0.57           -0.00042792     0.00042799     
  -0.56           -0.00042021     0.00042045     
  -0.55           -0.00041246     0.00041266     
  -0.54           -0.00040499     0.00040502     
  -0.53           -0.00039778     0.00039765     
  -0.52           -0.00039041     0.0003904      
  -0.51           -0.00038276     0.00038293     
  -0.5            -0.00037501     0.00037526     
  -0.49           -0.00036751     0.00036758     
  -0.48           -0.00036016     0.00036009     
  -0.47           -0.00035284     0.00035281     
  -0.46           -0.00034525     0.00034516     
  -0.45           -0.00033787     0.00033792     
  -0.44           -0.0003302      0.00033039     
  -0.43           -0.00032249     0.00032266     
  -0.42           -0.00031499     0.00031501     
  -0.41           -0.00030774     0.00030761     
  -0.4            -0.0003003      0.00030031     
  -0.39           -0.00029271     0.00029287     
  -0.38           -0.000285       0.00028522     
  -0.37           -0.00027749     0.00027759     
  -0.36           -0.00027013     0.00027007     
  -0.35           -0.00026273     0.00026273     
  -0.34           -0.00025518     0.0002551      
  -0.33           -0.00024771     0.00024775     
  -0.32           -0.00024013     0.0002403      
  -0.31           -0.00023246     0.00023264     
  -0.3            -0.00022497     0.00022501     
  -0.29           -0.00021761     0.00021755     
  -0.28           -0.00021021     0.00021021     
  -0.27           -0.00020261     0.00020275     
  -0.26           -0.00019497     0.00019511     
  -0.25           -0.00018744     0.0001875      
  -0.24           -0.00018005     0.00018004     
  -0.23           -0.00017264     0.00017266     
  -0.22           -0.0001651      0.00016506     
  -0.21           -0.00015757     0.00015766     
  -0.2            -0.00015005     0.00015017     
  -0.19           -0.00014245     0.00014253     
  -0.18           -0.00013493     0.000135       
  -0.17           -0.00012748     0.0001275      
  -0.16           -0.00012008     0.00012012     
  -0.15           -0.00011252     0.00011262     
  -0.14           -0.00010495     0.00010506     
  -0.13           -9.739e-005     9.7503e-005    
  -0.12           -8.997e-005     8.9956e-005    
  -0.11           -8.2501e-005    8.2476e-005    
  -0.1            -7.4987e-005    7.4996e-005    
  -0.09           -6.7448e-005    6.7465e-005    
  -0.08           -5.989e-005     5.992e-005     
  -0.07           -5.2436e-005    5.2436e-005    
  -0.06           -4.4934e-005    4.4925e-005    
  -0.05           -3.7435e-005    3.7429e-005    
  -0.04           -2.9901e-005    2.9917e-005    
  -0.03           -2.2432e-005    2.2443e-005    
  -0.02           -1.4904e-005    1.4883e-005    
  -0.01           -7.3974e-006    7.3832e-006    
  0               6.1375e-008     -6.3556e-008   
  0.01            7.5965e-006     -7.5929e-006   
  0.02            1.5116e-005     -1.5095e-005   
  0.03            2.2581e-005     -2.2587e-005   
  0.04            3.0076e-005     -3.0097e-005   
  0.05            3.7591e-005     -3.7588e-005   
  0.06            4.513e-005      -4.5095e-005   
  0.07            5.2617e-005     -5.258e-005    
  0.08            6.0145e-005     -6.0123e-005   
  0.09            6.7626e-005     -6.7657e-005   
  0.1             7.5103e-005     -7.5133e-005   
  0.11            8.2562e-005     -8.2554e-005   
  0.12            9.0121e-005     -9.0079e-005   
  0.13            9.7682e-005     -9.7611e-005   
  0.14            0.00010518      -0.000105202   
  0.15            0.00011271      -0.00011271    
  0.16            0.00012017      -0.00012019    
  0.17            0.00012766      -0.00012761    
  0.18            0.00013525      -0.00013514    
  0.19            0.00014285      -0.0001427     
  0.2             0.00015031      -0.00015027    
  0.21            0.00015775      -0.00015776    
  0.22            0.00016523      -0.00016517    
  0.23            0.00017278      -0.00017265    
  0.24            0.00018037      -0.00018019    
  0.25            0.00018792      -0.0001878     
  0.26            0.00019531      -0.00019536    
  0.27            0.00020275      -0.00020276    
  0.28            0.00021029      -0.00021031    
  0.29            0.00021771      -0.00021766    
  0.3             0.00022535      -0.00022518    
  0.31            0.000233        -0.0002328     
  0.32            0.0002405       -0.00024028    
  0.33            0.000248        -0.00024789    
  0.34            0.00025541      -0.00025545    
  0.35            0.00026278      -0.00026283    
  0.36            0.0002703       -0.00027022    
  0.37            0.00027792      -0.00027769    
  0.38            0.00028556      -0.00028542    
  0.39            0.00029301      -0.00029299    
  0.4             0.00030029      -0.0003004     
  0.41            0.00030775      -0.00030767    
  0.42            0.0003154       -0.00031521    
  0.43            0.00032309      -0.00032289    
  0.44            0.0003306       -0.00033033    
  0.45            0.0003382       -0.00033807    
  0.46            0.00034548      -0.00034553    
  0.47            0.00035278      -0.00035286    
  0.48            0.00036033      -0.00036021    
  0.49            0.00036808      -0.00036779    
  0.5             0.00037565      -0.00037553    
  0.51            0.00038307      -0.00038311    
  0.52            0.00039034      -0.00039048    
  0.53            0.00039783      -0.00039775    
  0.54            0.00040549      -0.00040524    
  0.55            0.00041322      -0.00041296    
  0.56            0.0004207       -0.00042038    
  0.57            0.00042829      -0.00042817    
  0.58            0.00043557      -0.00043569    
  0.59            0.00044281      -0.0004429     
  0.6             0.00045038      -0.00045025    
  0.61            0.0004582       -0.00045784    
  0.62            0.00046584      -0.0004657     
  0.63            0.00047316      -0.00047322    
  0.64            0.00048036      -0.00048054    
  0.65            0.00048781      -0.00048775    
  0.66            0.00049559      -0.00049531    
  0.67            0.0005033       -0.00050303    
  0.68            0.00051079      -0.0005104     
  0.69            0.00051836      -0.00051823    
  0.7             0.0005256       -0.00052575    
  0.71            0.00053283      -0.00053298    
  0.72            0.00054035      -0.0005406     
  0.73            0.00054776      -0.00054778    
  0.74            0.00055552      -0.00055521    
  0.75            0.00056338      -0.00056306    
  0.76            0.0005708       -0.00057079    
  0.77            0.00057802      -0.00057825    
  0.78            0.00058527      -0.00058533    
  0.79            0.00059294      -0.00059271    
  0.8             0.0006008       -0.00060036    
  0.81            0.0006084       -0.00060827    
  0.82            0.0006156       -0.00061579    
  0.83            0.0006228       -0.000623      
  0.84            0.00063029      -0.00063015    
  0.85            0.00063821      -0.00063779    
  0.86            0.00064593      -0.00064575    
  0.87            0.00065325      -0.00065337    
  0.88            0.00066025      -0.00066055    
  0.89            0.00066768      -0.00066765    
  0.9             0.00067555      -0.00067517    
  0.91            0.0006834       -0.00068304    
  0.92            0.00069088      -0.00069038    
  0.93            0.00069844      -0.00069829    
  0.94            0.00070564      -0.00070585    
  0.95            0.00071273      -0.00071296    
  0.96            0.00072025      -0.00072011    
  0.97            0.00072811      -0.00072767    
  0.98            0.00073595      -0.00073571    
  0.99            0.00074323      -0.00074339    
  1               0.00075019      -0.00075058    
END_DB

