! VERSION = 6.00
BEGIN_HEADER
 ICCAP_INPUTS
  VU1        V  E GROUND SMU2 0.1 CON        0
  VU2        V  S GROUND SMU3 0.1 CON        0
  V2         V  B GROUND SMU1 0.015 CON        0
  V1         V  C GROUND SMU4 0.015 LIN        1    -1         1          201  0.01      
 ICCAP_OUTPUTS
  I1         I  C GROUND SMU4 B
  I2         I  B GROUND SMU1 B
END_HEADER

BEGIN_DB
 ICCAP_VAR VU1        0              
 ICCAP_VAR VU2        0              
 ICCAP_VAR V2         0              

 #V1              I1              I2             
  -1              -0.000156       0.00015606     
  -0.99           -0.00015427     0.00015448     
  -0.98           -0.00015268     0.00015277     
  -0.97           -0.00015122     0.00015122     
  -0.96           -0.00014981     0.00014981     
  -0.95           -0.00014822     0.00014835     
  -0.94           -0.00014654     0.00014672     
  -0.93           -0.00014489     0.00014499     
  -0.92           -0.00014342     0.00014342     
  -0.91           -0.00014198     0.00014196     
  -0.9            -0.00014043     0.00014051     
  -0.89           -0.00013877     0.00013894     
  -0.88           -0.00013711     0.00013724     
  -0.87           -0.00013558     0.00013575     
  -0.86           -0.00013397     0.00013407     
  -0.85           -0.00013252     0.00013253     
  -0.84           -0.00013106     0.00013107     
  -0.83           -0.00012949     0.0001296      
  -0.82           -0.00012783     0.00012803     
  -0.81           -0.00012619     0.0001263      
  -0.8            -0.0001247      0.0001247      
  -0.79           -0.00012325     0.00012325     
  -0.78           -0.0001217      0.00012178     
  -0.77           -0.00012005     0.00012022     
  -0.76           -0.0001184      0.00011854     
  -0.75           -0.00011685     0.00011705     
  -0.74           -0.00011528     0.00011539     
  -0.73           -0.00011381     0.00011383     
  -0.72           -0.00011232     0.00011235     
  -0.71           -0.00011075     0.00011085     
  -0.7            -0.0001091      0.00010927     
  -0.69           -0.00010748     0.00010759     
  -0.68           -0.00010595     0.00010601     
  -0.67           -0.00010449     0.00010451     
  -0.66           -0.00010297     0.00010304     
  -0.65           -0.00010134     0.00010147     
  -0.64           -9.9738e-005    9.9823e-005    
  -0.63           -9.8175e-005    9.8181e-005    
  -0.62           -9.6691e-005    9.6639e-005    
  -0.61           -9.5197e-005    9.5154e-005    
  -0.6            -9.3625e-005    9.3648e-005    
  -0.59           -9.1994e-005    9.2066e-005    
  -0.58           -9.0375e-005    9.042e-005     
  -0.57           -8.8836e-005    8.883e-005     
  -0.56           -8.7353e-005    8.7289e-005    
  -0.55           -8.5832e-005    8.5807e-005    
  -0.54           -8.425e-005     8.4193e-005    
  -0.53           -8.2716e-005    8.2715e-005    
  -0.52           -8.1112e-005    8.1158e-005    
  -0.51           -7.9478e-005    7.9544e-005    
  -0.5            -7.7908e-005    7.7919e-005    
  -0.49           -7.6404e-005    7.6373e-005    
  -0.48           -7.4902e-005    7.4864e-005    
  -0.47           -7.3339e-005    7.335e-005     
  -0.46           -7.1729e-005    7.178e-005     
  -0.45           -7.0128e-005    7.0169e-005    
  -0.44           -6.857e-005     6.8571e-005    
  -0.43           -6.7069e-005    6.7021e-005    
  -0.42           -6.5538e-005    6.552e-005     
  -0.41           -6.397e-005     6.3932e-005    
  -0.4            -6.2424e-005    6.2422e-005    
  -0.39           -6.0832e-005    6.0867e-005    
  -0.38           -5.9217e-005    5.9267e-005    
  -0.37           -5.7654e-005    5.7671e-005    
  -0.36           -5.6124e-005    5.6108e-005    
  -0.35           -5.4608e-005    5.458e-005     
  -0.34           -5.3049e-005    5.3056e-005    
  -0.33           -5.1454e-005    5.149e-005     
  -0.32           -4.986e-005     4.9901e-005    
  -0.31           -4.83e-005      4.8308e-005    
  -0.3            -4.6772e-005    4.6752e-005    
  -0.29           -4.5242e-005    4.5237e-005    
  -0.28           -4.3687e-005    4.3702e-005    
  -0.27           -4.2082e-005    4.2128e-005    
  -0.26           -4.0503e-005    4.0523e-005    
  -0.25           -3.8949e-005    3.8986e-005    
  -0.24           -3.7389e-005    3.7404e-005    
  -0.23           -3.5847e-005    3.584e-005     
  -0.22           -3.4317e-005    3.4301e-005    
  -0.21           -3.2753e-005    3.2765e-005    
  -0.2            -3.1186e-005    3.1207e-005    
  -0.19           -2.9598e-005    2.9624e-005    
  -0.18           -2.8034e-005    2.8043e-005    
  -0.17           -2.6488e-005    2.6483e-005    
  -0.16           -2.4957e-005    2.496e-005     
  -0.15           -2.3394e-005    2.3405e-005    
  -0.14           -2.1806e-005    2.1834e-005    
  -0.13           -2.0239e-005    2.0251e-005    
  -0.12           -1.8694e-005    1.8712e-005    
  -0.11           -1.7125e-005    1.7136e-005    
  -0.1            -1.557e-005     1.5573e-005    
  -0.09           -1.4017e-005    1.4019e-005    
  -0.08           -1.2458e-005    1.2467e-005    
  -0.07           -1.0903e-005    1.0913e-005    
  -0.06           -9.3456e-006    9.3346e-006    
  -0.05           -7.7799e-006    7.7787e-006    
  -0.04           -6.2075e-006    6.2101e-006    
  -0.03           -4.6585e-006    4.663e-006     
  -0.02           -3.1008e-006    3.1016e-006    
  -0.01           -1.5377e-006    1.54e-006      
  0               1.2285e-008     -1.6074e-008   
  0.01            1.58e-006       -1.5745e-006   
  0.02            3.1449e-006     -3.1379e-006   
  0.03            4.695e-006      -4.6937e-006   
  0.04            6.2549e-006     -6.2588e-006   
  0.05            7.8104e-006     -7.8142e-006   
  0.06            9.3787e-006     -9.3729e-006   
  0.07            1.09397e-005    -1.09256e-005  
  0.08            1.2509e-005     -1.248e-005    
  0.09            1.407e-005      -1.4061e-005   
  0.1             1.5624e-005     -1.5628e-005   
  0.11            1.716e-005      -1.7169e-005   
  0.12            1.8721e-005     -1.8716e-005   
  0.13            2.03e-005       -2.0275e-005   
  0.14            2.1878e-005     -2.1853e-005   
  0.15            2.344e-005      -2.3432e-005   
  0.16            2.4971e-005     -2.4982e-005   
  0.17            2.6517e-005     -2.6533e-005   
  0.18            2.8085e-005     -2.8072e-005   
  0.19            2.9665e-005     -2.9639e-005   
  0.2             3.1237e-005     -3.1212e-005   
  0.21            3.28e-005       -3.2759e-005   
  0.22            3.4367e-005     -3.4355e-005   
  0.23            3.591e-005      -3.5926e-005   
  0.24            3.7426e-005     -3.7452e-005   
  0.25            3.8985e-005     -3.8983e-005   
  0.26            4.0579e-005     -4.0541e-005   
  0.27            4.2173e-005     -4.2138e-005   
  0.28            4.374e-005      -4.3731e-005   
  0.29            4.5255e-005     -4.5278e-005   
  0.3             4.6787e-005     -4.6811e-005   
  0.31            4.8353e-005     -4.8342e-005   
  0.32            4.9949e-005     -4.9908e-005   
  0.33            5.1535e-005     -5.1498e-005   
  0.34            5.3091e-005     -5.3034e-005   
  0.35            5.4666e-005     -5.465e-005    
  0.36            5.6201e-005     -5.6222e-005   
  0.37            5.7699e-005     -5.7746e-005   
  0.38            5.9252e-005     -5.9253e-005   
  0.39            6.085e-005      -6.0804e-005   
  0.4             6.2465e-005     -6.2408e-005   
  0.41            6.4025e-005     -6.4012e-005   
  0.42            6.554e-005      -6.5578e-005   
  0.43            6.7053e-005     -6.7094e-005   
  0.44            6.8616e-005     -6.8607e-005   
  0.45            7.0232e-005     -7.0175e-005   
  0.46            7.1828e-005     -7.1774e-005   
  0.47            7.3381e-005     -7.3385e-005   
  0.48            7.4891e-005     -7.4938e-005   
  0.49            7.6404e-005     -7.6437e-005   
  0.5             7.7965e-005     -7.8029e-005   
  0.51            7.9513e-005     -7.9519e-005   
  0.52            8.1125e-005     -8.1069e-005   
  0.53            8.2759e-005     -8.2687e-005   
  0.54            8.4317e-005     -8.4306e-005   
  0.55            8.5825e-005     -8.5875e-005   
  0.56            8.732e-005      -8.7376e-005   
  0.57            8.8877e-005     -8.8874e-005   
  0.58            9.0506e-005     -9.044e-005    
  0.59            9.212e-005      -9.2058e-005   
  0.6             9.3678e-005     -9.3681e-005   
  0.61            9.517e-005      -9.5235e-005   
  0.62            9.6671e-005     -9.6725e-005   
  0.63            9.824e-005      -9.832e-005    
  0.64            9.978e-005      -9.9791e-005   
  0.65            0.00010151      -0.000101335   
  0.66            0.00010306      -0.00010303    
  0.67            0.00010452      -0.00010449    
  0.68            0.00010608      -0.00010598    
  0.69            0.00010772      -0.00010756    
  0.7             0.00010938      -0.00010923    
  0.71            0.00011091      -0.00011075    
  0.72            0.00011247      -0.00011238    
  0.73            0.00011395      -0.00011394    
  0.74            0.00011543      -0.0001154     
  0.75            0.00011699      -0.00011702    
  0.76            0.00011853      -0.00011846    
  0.77            0.00012017      -0.00012002    
  0.78            0.00012184      -0.00012169    
  0.79            0.00012339      -0.00012332    
  0.8             0.00012481      -0.00012486    
  0.81            0.00012633      -0.00012628    
  0.82            0.00012796      -0.00012781    
  0.83            0.00012964      -0.00012946    
  0.84            0.00013119      -0.00013113    
  0.85            0.00013265      -0.00013267    
  0.86            0.00013414      -0.00013412    
  0.87            0.00013569      -0.00013573    
  0.88            0.00013723      -0.00013718    
  0.89            0.00013891      -0.00013874    
  0.9             0.00014058      -0.00014041    
  0.91            0.0001421       -0.00014191    
  0.92            0.0001437       -0.00014363    
  0.93            0.00014515      -0.00014516    
  0.94            0.0001466       -0.00014662    
  0.95            0.00014816      -0.00014808    
  0.96            0.00014985      -0.00014965    
  0.97            0.0001515       -0.00015137    
  0.98            0.000153        -0.000153      
  0.99            0.00015441      -0.00015447    
  1               0.00015595      -0.0001559     
END_DB

