! VERSION = 6.00
BEGIN_HEADER
 ICCAP_INPUTS
  VU1        V  E GROUND SMU2 0.1 CON        0
  VU2        V  S GROUND SMU3 0.1 CON        0
  V2         V  B GROUND SMU1 0.015 CON        0
  V1         V  C GROUND SMU4 0.015 LIN        1    -0.5       0.5        101  0.01      
 ICCAP_OUTPUTS
  I1         I  C GROUND SMU4 B
  I2         I  B GROUND SMU1 B
END_HEADER

BEGIN_DB
 ICCAP_VAR VU1        0              
 ICCAP_VAR VU2        0              
 ICCAP_VAR V2         0              

 #V1              I1              I2             
  -0.5            -0.0014656      0.0014653      
  -0.49           -0.0014345      0.0014354      
  -0.48           -0.0014035      0.0014042      
  -0.47           -0.001373       0.0013734      
  -0.46           -0.0013432      0.0013434      
  -0.45           -0.001313       0.0013137      
  -0.44           -0.0012821      0.001283       
  -0.43           -0.0012514      0.0012522      
  -0.42           -0.0012212      0.0012223      
  -0.41           -0.0011911      0.0011919      
  -0.4            -0.0011613      0.0011616      
  -0.39           -0.0011319      0.0011322      
  -0.38           -0.0011018      0.0011025      
  -0.37           -0.0010715      0.0010727      
  -0.36           -0.0010415      0.0010422      
  -0.35           -0.001012       0.0010126      
  -0.34           -0.00098245     0.000983       
  -0.33           -0.0009532      0.00095289     
  -0.32           -0.00092396     0.00092395     
  -0.31           -0.00089419     0.00089443     
  -0.3            -0.00086436     0.0008647      
  -0.29           -0.000835       0.00083503     
  -0.28           -0.00080619     0.00080594     
  -0.27           -0.00077707     0.00077702     
  -0.26           -0.00074777     0.00074756     
  -0.25           -0.00071852     0.00071862     
  -0.24           -0.00068934     0.00068964     
  -0.23           -0.00065996     0.00066008     
  -0.22           -0.000631       0.00063125     
  -0.21           -0.00060197     0.00060195     
  -0.2            -0.00057331     0.00057326     
  -0.19           -0.0005446      0.00054463     
  -0.18           -0.00051557     0.00051547     
  -0.17           -0.00048675     0.0004868      
  -0.16           -0.00045795     0.00045809     
  -0.15           -0.000429       0.0004292      
  -0.14           -0.00040018     0.00040023     
  -0.13           -0.00037175     0.00037152     
  -0.12           -0.00034317     0.00034306     
  -0.11           -0.00031433     0.00031444     
  -0.1            -0.00028548     0.00028564     
  -0.09           -0.00025682     0.00025685     
  -0.08           -0.00022816     0.0002282      
  -0.07           -0.00019982     0.00019988     
  -0.06           -0.00017111     0.00017121     
  -0.05           -0.00014241     0.0001425      
  -0.04           -0.00011372     0.00011387     
  -0.03           -8.5281e-005    8.536e-005     
  -0.02           -5.6746e-005    5.6698e-005    
  -0.01           -2.8139e-005    2.8112e-005    
  0               -1.4038e-007    8.6927e-007    
  0.01            2.8821e-005     -2.8871e-005   
  0.02            5.7481e-005     -5.7493e-005   
  0.03            8.5844e-005     -8.583e-005    
  0.04            0.00011465      -0.00011463    
  0.05            0.00014324      -0.00014327    
  0.06            0.00017192      -0.00017188    
  0.07            0.00020047      -0.00020034    
  0.08            0.00022924      -0.00022909    
  0.09            0.00025797      -0.00025792    
  0.1             0.00028668      -0.00028667    
  0.11            0.00031505      -0.00031499    
  0.12            0.00034389      -0.0003438     
  0.13            0.00037293      -0.0003727     
  0.14            0.00040187      -0.00040169    
  0.15            0.00043051      -0.00043065    
  0.16            0.000459        -0.0004592     
  0.17            0.00048796      -0.00048813    
  0.18            0.00051688      -0.00051685    
  0.19            0.00054605      -0.00054581    
  0.2             0.00057512      -0.00057485    
  0.21            0.00060421      -0.00060415    
  0.22            0.00063311      -0.00063327    
  0.23            0.00066205      -0.000662      
  0.24            0.00069111      -0.00069095    
  0.25            0.00072081      -0.00072048    
  0.26            0.00075019      -0.00075003    
  0.27            0.0007793       -0.00077943    
  0.28            0.00080838      -0.0008087     
  0.29            0.00083765      -0.00083791    
  0.3             0.00086705      -0.00086708    
  0.31            0.00089695      -0.00089653    
  0.32            0.000927        -0.00092665    
  0.33            0.00095633      -0.00095633    
  0.34            0.00098572      -0.00098608    
  0.35            0.00101525      -0.00101522    
  0.36            0.00104531      -0.00104501    
  0.37            0.0010755       -0.00107502    
  0.38            0.00110561      -0.00110546    
  0.39            0.00113534      -0.00113561    
  0.4             0.001166        -0.0011645     
  0.41            0.001195        -0.0011951     
  0.42            0.0012253       -0.0012249     
  0.43            0.0012564       -0.0012551     
  0.44            0.0012871       -0.001286      
  0.45            0.0013177       -0.0013164     
  0.46            0.0013479       -0.0013472     
  0.47            0.0013781       -0.0013779     
  0.48            0.0014083       -0.0014081     
  0.49            0.001439        -0.0014385     
  0.5             0.0014701       -0.0014692     
END_DB

