! VERSION = 6.00
BEGIN_HEADER
 ICCAP_INPUTS
  VU1        V  E GROUND SMU2 0.1 CON        0
  VU2        V  S GROUND SMU3 0.1 CON        0
  V2         V  B GROUND SMU1 0.015 CON        0
  V1         V  C GROUND SMU4 0.015 LIN        1    -0.5       0.5        201  0.005     
 ICCAP_OUTPUTS
  I1         I  C GROUND SMU4 B
  I2         I  B GROUND SMU1 B
END_HEADER

BEGIN_DB
 ICCAP_VAR VU1        0              
 ICCAP_VAR VU2        0              
 ICCAP_VAR V2         0              

 #V1              I1              I2             
  -0.5            -0.00057503     0.00057523     
  -0.495          -0.00056863     0.0005685      
  -0.49           -0.00056181     0.00056219     
  -0.485          -0.0005549      0.00055529     
  -0.48           -0.00054819     0.00054837     
  -0.475          -0.00054169     0.00054148     
  -0.47           -0.00053553     0.00053526     
  -0.465          -0.00052896     0.00052916     
  -0.46           -0.00052228     0.00052258     
  -0.455          -0.00051531     0.00051569     
  -0.45           -0.00050902     0.00050902     
  -0.445          -0.00050309     0.00050275     
  -0.44           -0.00049668     0.00049668     
  -0.435          -0.00049018     0.00049047     
  -0.43           -0.00048341     0.00048378     
  -0.425          -0.00047694     0.00047707     
  -0.42           -0.0004708      0.00047078     
  -0.415          -0.00046493     0.00046475     
  -0.41           -0.00045869     0.00045888     
  -0.405          -0.00045208     0.00045246     
  -0.4            -0.00044551     0.00044573     
  -0.395          -0.00043945     0.00043977     
  -0.39           -0.00043311     0.00043325     
  -0.385          -0.0004271      0.00042707     
  -0.38           -0.0004213      0.00042104     
  -0.375          -0.00041507     0.0004152      
  -0.37           -0.00040872     0.00040909     
  -0.365          -0.00040237     0.00040253     
  -0.36           -0.0003963      0.00039634     
  -0.355          -0.00039057     0.00039031     
  -0.35           -0.00038459     0.00038449     
  -0.345          -0.00037855     0.00037871     
  -0.34           -0.0003722      0.00037253     
  -0.335          -0.00036614     0.00036622     
  -0.33           -0.00036034     0.00036029     
  -0.325          -0.00035465     0.00035448     
  -0.32           -0.00034867     0.00034883     
  -0.315          -0.00034269     0.00034301     
  -0.31           -0.00033659     0.00033678     
  -0.305          -0.00033069     0.00033077     
  -0.3            -0.00032515     0.00032496     
  -0.295          -0.00031932     0.00031928     
  -0.29           -0.00031344     0.00031359     
  -0.285          -0.00030749     0.00030781     
  -0.28           -0.00030163     0.00030177     
  -0.275          -0.00029596     0.00029596     
  -0.27           -0.00029044     0.00029033     
  -0.265          -0.00028469     0.00028478     
  -0.26           -0.00027877     0.00027906     
  -0.255          -0.00027294     0.00027311     
  -0.25           -0.00026732     0.00026755     
  -0.245          -0.00026174     0.0002618      
  -0.24           -0.00025611     0.00025611     
  -0.235          -0.00025065     0.00025056     
  -0.23           -0.00024503     0.00024516     
  -0.225          -0.00023926     0.0002395      
  -0.22           -0.00023354     0.00023366     
  -0.215          -0.00022795     0.00022818     
  -0.21           -0.00022241     0.00022251     
  -0.205          -0.00021697     0.00021697     
  -0.2            -0.00021167     0.00021162     
  -0.195          -0.00020613     0.00020624     
  -0.19           -0.00020051     0.00020073     
  -0.185          -0.00019489     0.000195       
  -0.18           -0.0001895      0.00018967     
  -0.175          -0.00018398     0.00018411     
  -0.17           -0.00017861     0.00017861     
  -0.165          -0.00017331     0.00017327     
  -0.16           -0.00016792     0.00016803     
  -0.155          -0.00016238     0.00016258     
  -0.15           -0.00015691     0.00015703     
  -0.145          -0.00015159     0.00015172     
  -0.14           -0.00014614     0.00014624     
  -0.135          -0.00014087     0.00014091     
  -0.13           -0.00013559     0.0001356      
  -0.125          -0.00013025     0.00013039     
  -0.12           -0.00012493     0.00012509     
  -0.115          -0.00011952     0.00011964     
  -0.11           -0.00011424     0.00011431     
  -0.105          -0.00010901     0.00010906     
  -0.1            -0.00010379     0.00010381     
  -0.095          -9.8469e-005    9.8366e-005    
  -0.09           -9.3086e-005    9.318e-005     
  -0.085          -8.7815e-005    8.783e-005     
  -0.08           -8.2599e-005    8.2648e-005    
  -0.075          -7.7406e-005    7.7451e-005    
  -0.07           -7.2213e-005    7.2197e-005    
  -0.065          -6.7033e-005    6.7001e-005    
  -0.06           -6.1839e-005    6.1828e-005    
  -0.055          -5.6605e-005    5.6645e-005    
  -0.05           -5.1367e-005    5.1398e-005    
  -0.045          -4.6148e-005    4.6187e-005    
  -0.04           -4.0983e-005    4.0973e-005    
  -0.035          -3.5911e-005    3.5904e-005    
  -0.03           -3.076e-005     3.0752e-005    
  -0.025          -2.5585e-005    2.5598e-005    
  -0.02           -2.042e-005     2.0419e-005    
  -0.015          -1.5243e-005    1.5273e-005    
  -0.01           -1.0106e-005    1.011e-005     
  -0.005          -4.97e-006      4.9579e-006    
  0               6.7267e-008     -7.0304e-008   
  0.005           5.2299e-006     -5.2078e-006   
  0.01            1.03405e-005    -1.03242e-005  
  0.015           1.5454e-005     -1.5452e-005   
  0.02            2.0567e-005     -2.0556e-005   
  0.025           2.5623e-005     -2.5595e-005   
  0.03            3.0737e-005     -3.0742e-005   
  0.035           3.5846e-005     -3.5801e-005   
  0.04            4.0968e-005     -4.0943e-005   
  0.045           4.6039e-005     -4.6069e-005   
  0.05            5.1095e-005     -5.1134e-005   
  0.055           5.6189e-005     -5.6189e-005   
  0.06            6.1303e-005     -6.1259e-005   
  0.065           6.6451e-005     -6.6386e-005   
  0.07            7.1478e-005     -7.1448e-005   
  0.075           7.6526e-005     -7.6552e-005   
  0.08            8.1539e-005     -8.1602e-005   
  0.085           8.6646e-005     -8.6653e-005   
  0.09            9.1793e-005     -9.1744e-005   
  0.095           9.6992e-005     -9.6898e-005   
  0.1             0.0001021       -0.000102092   
  0.105           0.00010715      -0.00010709    
  0.11            0.00011227      -0.00011212    
  0.115           0.0001175       -0.00011736    
  0.12            0.00012263      -0.00012254    
  0.125           0.00012768      -0.00012768    
  0.13            0.00013272      -0.00013272    
  0.135           0.00013789      -0.0001379     
  0.14            0.00014303      -0.00014299    
  0.145           0.00014825      -0.00014813    
  0.15            0.0001536       -0.00015343    
  0.155           0.00015867      -0.00015864    
  0.16            0.00016378      -0.0001638     
  0.165           0.0001689       -0.00016888    
  0.17            0.00017412      -0.00017411    
  0.175           0.0001793       -0.00017923    
  0.18            0.00018464      -0.00018446    
  0.185           0.00019003      -0.00018982    
  0.19            0.0001953       -0.00019521    
  0.195           0.00020034      -0.00020047    
  0.2             0.00020554      -0.0002056     
  0.205           0.00021088      -0.00021098    
  0.21            0.00021615      -0.00021611    
  0.215           0.00022167      -0.00022149    
  0.22            0.00022718      -0.00022696    
  0.225           0.00023262      -0.00023254    
  0.23            0.00023783      -0.00023794    
  0.235           0.00024308      -0.00024323    
  0.24            0.00024847      -0.00024863    
  0.245           0.00025392      -0.00025389    
  0.25            0.00025951      -0.00025927    
  0.255           0.00026522      -0.00026501    
  0.26            0.0002708       -0.00027067    
  0.265           0.00027607      -0.00027611    
  0.27            0.00028153      -0.00028164    
  0.275           0.0002871       -0.00028722    
  0.28            0.00029266      -0.00029257    
  0.285           0.0002984       -0.00029816    
  0.29            0.00030426      -0.00030395    
  0.295           0.00030994      -0.00030989    
  0.3             0.00031548      -0.00031561    
  0.305           0.00032092      -0.00032103    
  0.31            0.00032676      -0.00032694    
  0.315           0.0003325       -0.00033244    
  0.32            0.00033847      -0.00033822    
  0.325           0.00034443      -0.00034417    
  0.33            0.0003503       -0.00035019    
  0.335           0.00035588      -0.000356      
  0.34            0.00036157      -0.00036166    
  0.345           0.00036745      -0.00036768    
  0.35            0.00037333      -0.0003733     
  0.355           0.00037948      -0.00037921    
  0.36            0.00038595      -0.00038559    
  0.365           0.00039185      -0.00039176    
  0.37            0.0003976       -0.00039777    
  0.375           0.00040339      -0.00040352    
  0.38            0.00040954      -0.00040971    
  0.385           0.00041549      -0.00041544    
  0.39            0.00042205      -0.0004217     
  0.395           0.00042842      -0.00042811    
  0.4             0.00043473      -0.00043461    
  0.405           0.00044061      -0.00044086    
  0.41            0.00044647      -0.00044663    
  0.415           0.00045302      -0.00045316    
  0.42            0.00045918      -0.00045908    
  0.425           0.00046571      -0.0004654     
  0.43            0.00047255      -0.00047219    
  0.435           0.00047898      -0.00047882    
  0.44            0.00048486      -0.0004852     
  0.445           0.00049105      -0.00049124    
  0.45            0.00049762      -0.00049786    
  0.455           0.00050388      -0.00050391    
  0.46            0.00051073      -0.00051039    
  0.465           0.00051763      -0.00051722    
  0.47            0.00052427      -0.00052412    
  0.475           0.00053053      -0.00053069    
  0.48            0.00053682      -0.00053709    
  0.485           0.00054351      -0.00054389    
  0.49            0.00055014      -0.00055009    
  0.495           0.00055718      -0.00055679    
  0.5             0.00056422      -0.0005638     
END_DB

