! VERSION = 6.00
BEGIN_HEADER
 ICCAP_INPUTS
  VU1        V  E GROUND SMU2 0.1 CON        0
  VU2        V  S GROUND SMU3 0.1 CON        0
  V2         V  B GROUND SMU4 0.015 CON        0
  V1         V  C GROUND SMU1 0.015 LIN        1    -1         1          201  0.01      
 ICCAP_OUTPUTS
  I1         I  C GROUND SMU1 B
  I2         I  B GROUND SMU4 B
END_HEADER

BEGIN_DB
 ICCAP_VAR VU1        0              
 ICCAP_VAR VU2        0              
 ICCAP_VAR V2         0              

 #V1              I1              I2             
  -1              -0.0026434      0.0026459      
  -0.99           -0.0026182      0.0026187      
  -0.98           -0.0025909      0.0025908      
  -0.97           -0.0025633      0.0025638      
  -0.96           -0.0025364      0.002538       
  -0.95           -0.002511       0.0025123      
  -0.94           -0.0024848      0.0024856      
  -0.93           -0.0024577      0.0024579      
  -0.92           -0.0024303      0.002431       
  -0.91           -0.0024035      0.0024049      
  -0.9            -0.0023779      0.0023797      
  -0.89           -0.0023526      0.0023536      
  -0.88           -0.0023259      0.002326       
  -0.87           -0.0022989      0.0022989      
  -0.86           -0.0022726      0.0022725      
  -0.85           -0.0022452      0.0022459      
  -0.84           -0.0022186      0.0022203      
  -0.83           -0.0021931      0.0021946      
  -0.82           -0.0021673      0.002168       
  -0.81           -0.0021407      0.0021408      
  -0.8            -0.0021131      0.0021141      
  -0.79           -0.0020865      0.0020879      
  -0.78           -0.0020606      0.0020623      
  -0.77           -0.0020352      0.002036       
  -0.76           -0.0020087      0.002009       
  -0.75           -0.0019815      0.0019819      
  -0.74           -0.0019556      0.0019557      
  -0.73           -0.0019282      0.001929       
  -0.72           -0.0019017      0.0019032      
  -0.71           -0.0018761      0.0018776      
  -0.7            -0.0018503      0.001851       
  -0.69           -0.0018238      0.0018237      
  -0.68           -0.0017964      0.0017971      
  -0.67           -0.0017697      0.0017712      
  -0.66           -0.0017437      0.0017454      
  -0.65           -0.0017182      0.0017193      
  -0.64           -0.0016918      0.0016923      
  -0.63           -0.0016647      0.001665       
  -0.62           -0.0016386      0.0016387      
  -0.61           -0.0016113      0.0016121      
  -0.6            -0.0015848      0.0015862      
  -0.59           -0.0015592      0.0015606      
  -0.58           -0.0015332      0.0015342      
  -0.57           -0.0015067      0.0015069      
  -0.56           -0.0014795      0.0014804      
  -0.55           -0.001453       0.0014543      
  -0.54           -0.001427       0.0014285      
  -0.53           -0.0014014      0.0014025      
  -0.52           -0.0013749      0.0013752      
  -0.51           -0.0013479      0.0013481      
  -0.5            -0.0013217      0.0013223      
  -0.49           -0.0012949      0.0012954      
  -0.48           -0.0012684      0.0012695      
  -0.47           -0.0012424      0.0012436      
  -0.46           -0.0012163      0.0012171      
  -0.45           -0.0011899      0.0011905      
  -0.44           -0.0011628      0.0011637      
  -0.43           -0.0011363      0.0011374      
  -0.42           -0.0011103      0.0011118      
  -0.41           -0.0010844      0.0010854      
  -0.4            -0.0010581      0.0010585      
  -0.39           -0.0010314      0.0010317      
  -0.38           -0.0010044      0.0010052      
  -0.37           -0.00097903     0.00097842     
  -0.36           -0.00095211     0.00095251     
  -0.35           -0.00092586     0.00092631     
  -0.34           -0.00089932     0.00089982     
  -0.33           -0.00087346     0.00087362     
  -0.32           -0.00084704     0.00084682     
  -0.31           -0.00082014     0.00082001     
  -0.3            -0.0007936      0.00079376     
  -0.29           -0.00076725     0.00076759     
  -0.28           -0.00074111     0.0007413      
  -0.27           -0.00071491     0.00071486     
  -0.26           -0.00068818     0.00068799     
  -0.25           -0.00066136     0.00066143     
  -0.24           -0.00063514     0.00063542     
  -0.23           -0.00060873     0.00060914     
  -0.22           -0.00058225     0.00058258     
  -0.21           -0.00055618     0.00055634     
  -0.2            -0.00052971     0.00052962     
  -0.19           -0.00050293     0.0005029      
  -0.18           -0.00047648     0.00047663     
  -0.17           -0.00045        0.00045027     
  -0.16           -0.00042394     0.00042406     
  -0.15           -0.00039749     0.00039748     
  -0.14           -0.00037082     0.00037077     
  -0.13           -0.00034435     0.00034441     
  -0.12           -0.00031787     0.00031805     
  -0.11           -0.00029132     0.00029165     
  -0.1            -0.00026506     0.00026532     
  -0.09           -0.00023863     0.00023878     
  -0.08           -0.00021215     0.00021215     
  -0.07           -0.00018576     0.00018577     
  -0.06           -0.00015917     0.00015928     
  -0.05           -0.00013268     0.00013274     
  -0.04           -0.00010644     0.00010647     
  -0.03           -7.9706e-005    7.9759e-005    
  -0.02           -5.3272e-005    5.3291e-005    
  -0.01           -2.693e-005     2.6959e-005    
  0               -1.551e-007     1.8475e-007    
  0.01            2.6067e-005     -2.6069e-005   
  0.02            5.2365e-005     -5.2349e-005   
  0.03            7.8882e-005     -7.8899e-005   
  0.04            0.000105405     -0.000105376   
  0.05            0.00013192      -0.0001318     
  0.06            0.00015845      -0.00015827    
  0.07            0.00018495      -0.00018477    
  0.08            0.00021121      -0.00021114    
  0.09            0.00023777      -0.00023775    
  0.1             0.00026443      -0.00026431    
  0.11            0.00029074      -0.00029058    
  0.12            0.00031705      -0.00031703    
  0.13            0.00034378      -0.00034355    
  0.14            0.00036995      -0.00036985    
  0.15            0.0003965       -0.00039651    
  0.16            0.00042321      -0.00042321    
  0.17            0.00044965      -0.00044955    
  0.18            0.00047615      -0.00047585    
  0.19            0.00050244      -0.00050229    
  0.2             0.0005287       -0.00052871    
  0.21            0.00055537      -0.00055547    
  0.22            0.00058219      -0.00058205    
  0.23            0.00060854      -0.00060825    
  0.24            0.0006347       -0.00063453    
  0.25            0.00066153      -0.00066114    
  0.26            0.00068752      -0.00068742    
  0.27            0.00071409      -0.00071416    
  0.28            0.00074089      -0.00074103    
  0.29            0.00076773      -0.00076757    
  0.3             0.00079401      -0.00079354    
  0.31            0.00082014      -0.0008199     
  0.32            0.00084663      -0.00084667    
  0.33            0.00087319      -0.00087343    
  0.34            0.00090015      -0.00090004    
  0.35            0.00092672      -0.00092631    
  0.36            0.00095258      -0.00095233    
  0.37            0.00097951      -0.00097903    
  0.38            0.00100563      -0.0010055     
  0.39            0.00103202      -0.00103217    
  0.4             0.00105893      -0.00105906    
  0.41            0.00108521      -0.0010855     
  0.42            0.00111209      -0.0011121     
  0.43            0.00113872      -0.00113831    
  0.44            0.0011648       -0.0011646     
  0.45            0.001192        -0.0011903     
  0.46            0.0012179       -0.0012167     
  0.47            0.0012444       -0.0012436     
  0.48            0.001271        -0.0012705     
  0.49            0.0012981       -0.0012971     
  0.5             0.0013246       -0.0013231     
  0.51            0.0013502       -0.0013492     
  0.52            0.0013772       -0.0013758     
  0.53            0.0014031       -0.0014023     
  0.54            0.0014297       -0.0014292     
  0.55            0.0014566       -0.0014559     
  0.56            0.0014827       -0.0014826     
  0.57            0.0015103       -0.0015092     
  0.58            0.0015365       -0.0015354     
  0.59            0.0015627       -0.001561      
  0.6             0.0015885       -0.0015875     
  0.61            0.0016149       -0.0016147     
  0.62            0.0016421       -0.0016418     
  0.63            0.001669        -0.0016679     
  0.64            0.001695        -0.0016933     
  0.65            0.0017208       -0.00172       
  0.66            0.0017474       -0.0017469     
  0.67            0.0017745       -0.001774      
  0.68            0.0018016       -0.0018002     
  0.69            0.0018276       -0.0018261     
  0.7             0.0018531       -0.0018519     
  0.71            0.0018793       -0.001879      
  0.72            0.0019065       -0.001906      
  0.73            0.0019334       -0.0019325     
  0.74            0.0019601       -0.0019584     
  0.75            0.0019856       -0.0019843     
  0.76            0.0020126       -0.002011      
  0.77            0.0020382       -0.0020371     
  0.78            0.0020646       -0.0020643     
  0.79            0.0020916       -0.0020914     
  0.8             0.002119        -0.002118      
  0.81            0.0021452       -0.0021435     
  0.82            0.0021706       -0.0021693     
  0.83            0.0021967       -0.0021963     
  0.84            0.002224        -0.0022239     
  0.85            0.002251        -0.0022503     
  0.86            0.0022776       -0.002276      
  0.87            0.0023028       -0.0023014     
  0.88            0.00233         -0.0023281     
  0.89            0.0023556       -0.0023543     
  0.9             0.0023819       -0.0023816     
  0.91            0.0024092       -0.002409      
  0.92            0.0024365       -0.0024353     
  0.93            0.0024624       -0.0024608     
  0.94            0.0024875       -0.0024863     
  0.95            0.002514        -0.0025136     
  0.96            0.002541        -0.0025411     
  0.97            0.0025685       -0.0025676     
  0.98            0.0025948       -0.002593      
  0.99            0.0026203       -0.0026188     
  1               0.0026473       -0.0026452     
END_DB

