! VERSION = 6.00
BEGIN_HEADER
 ICCAP_INPUTS
  VU1        V  E GROUND SMU2 0.1 CON        0
  VU2        V  S GROUND SMU3 0.1 CON        0
  V2         V  B GROUND SMU1 0.015 CON        0
  V1         V  C GROUND SMU4 0.015 LIN        1    -1         1          201  0.01      
 ICCAP_OUTPUTS
  I1         I  C GROUND SMU4 B
  I2         I  B GROUND SMU1 B
END_HEADER

BEGIN_DB
 ICCAP_VAR VU1        0              
 ICCAP_VAR VU2        0              
 ICCAP_VAR V2         0              

 #V1              I1              I2             
  -1              -0.00067908     0.00067915     
  -0.99           -0.00067224     0.00067191     
  -0.98           -0.00066551     0.00066557     
  -0.97           -0.00065832     0.00065871     
  -0.96           -0.00065115     0.00065144     
  -0.95           -0.00064449     0.00064498     
  -0.94           -0.0006376      0.00063771     
  -0.93           -0.00063117     0.00063095     
  -0.92           -0.00062475     0.00062455     
  -0.91           -0.00061793     0.0006181      
  -0.9            -0.00061069     0.00061114     
  -0.89           -0.00060367     0.00060387     
  -0.88           -0.00059711     0.00059695     
  -0.87           -0.00059073     0.00059048     
  -0.86           -0.00058401     0.00058409     
  -0.85           -0.00057684     0.00057724     
  -0.84           -0.00056974     0.00057003     
  -0.83           -0.000563       0.00056343     
  -0.82           -0.00055623     0.0005563      
  -0.81           -0.00054974     0.00054953     
  -0.8            -0.00054327     0.00054316     
  -0.79           -0.00053638     0.00053612     
  -0.78           -0.0005297      0.00052974     
  -0.77           -0.00052263     0.00052292     
  -0.76           -0.00051549     0.00051578     
  -0.75           -0.00050873     0.00050874     
  -0.74           -0.00050236     0.00050213     
  -0.73           -0.00049572     0.00049571     
  -0.72           -0.00048876     0.000489       
  -0.71           -0.0004816      0.00048194     
  -0.7            -0.00047483     0.0004749      
  -0.69           -0.00046832     0.00046813     
  -0.68           -0.00046177     0.00046169     
  -0.67           -0.00045488     0.00045469     
  -0.66           -0.00044819     0.00044823     
  -0.65           -0.00044117     0.00044143     
  -0.64           -0.00043407     0.00043431     
  -0.63           -0.00042736     0.0004277      
  -0.62           -0.00042054     0.00042064     
  -0.61           -0.00041396     0.00041383     
  -0.6            -0.00040744     0.00040731     
  -0.59           -0.00040059     0.00040069     
  -0.58           -0.00039347     0.00039379     
  -0.57           -0.00038658     0.00038674     
  -0.56           -0.00037993     0.00037986     
  -0.55           -0.00037343     0.00037327     
  -0.54           -0.00036663     0.00036671     
  -0.53           -0.00035969     0.00035997     
  -0.52           -0.00035268     0.00035288     
  -0.51           -0.00034594     0.00034623     
  -0.5            -0.00033911     0.00033918     
  -0.49           -0.00033253     0.00033245     
  -0.48           -0.00032593     0.00032588     
  -0.47           -0.00031908     0.00031892     
  -0.46           -0.00031233     0.00031239     
  -0.45           -0.00030543     0.00030563     
  -0.44           -0.00029845     0.00029866     
  -0.43           -0.00029163     0.00029169     
  -0.42           -0.00028507     0.00028494     
  -0.41           -0.00027841     0.00027842     
  -0.4            -0.00027152     0.00027169     
  -0.39           -0.00026454     0.00026476     
  -0.38           -0.00025771     0.00025777     
  -0.37           -0.00025109     0.00025103     
  -0.36           -0.00024446     0.00024445     
  -0.35           -0.0002376      0.00023752     
  -0.34           -0.00023084     0.00023089     
  -0.33           -0.00022392     0.00022409     
  -0.32           -0.00021702     0.00021716     
  -0.31           -0.00021025     0.00021027     
  -0.3            -0.00020361     0.00020354     
  -0.29           -0.00019687     0.0001969      
  -0.28           -0.00019005     0.00019019     
  -0.27           -0.00018309     0.00018328     
  -0.26           -0.00017628     0.00017638     
  -0.25           -0.00016959     0.00016959     
  -0.24           -0.00016292     0.00016298     
  -0.23           -0.00015611     0.00015608     
  -0.22           -0.00014931     0.00014939     
  -0.21           -0.00014246     0.00014256     
  -0.2            -0.0001356      0.00013572     
  -0.19           -0.00012882     0.00012897     
  -0.18           -0.000122       0.00012209     
  -0.17           -0.00011526     0.0001153      
  -0.16           -0.00010859     0.0001086      
  -0.15           -0.00010176     0.00010187     
  -0.14           -9.4935e-005    9.4896e-005    
  -0.13           -8.8084e-005    8.8111e-005    
  -0.12           -8.1343e-005    8.1346e-005    
  -0.11           -7.4609e-005    7.456e-005     
  -0.1            -6.7827e-005    6.7827e-005    
  -0.09           -6.1003e-005    6.0984e-005    
  -0.08           -5.4221e-005    5.4213e-005    
  -0.07           -4.7447e-005    4.747e-005     
  -0.06           -4.062e-005     4.0645e-005    
  -0.05           -3.3817e-005    3.3823e-005    
  -0.04           -2.7027e-005    2.7029e-005    
  -0.03           -2.0292e-005    2.029e-005     
  -0.02           -1.3479e-005    1.3497e-005    
  -0.01           -6.6853e-006    6.6744e-006    
  0               5.9831e-008     -6.3925e-008   
  0.01            6.8898e-006     -6.8649e-006   
  0.02            1.3696e-005     -1.364e-005    
  0.03            2.0414e-005     -2.0429e-005   
  0.04            2.7211e-005     -2.7229e-005   
  0.05            3.4008e-005     -3.4001e-005   
  0.06            4.0823e-005     -4.0789e-005   
  0.07            4.7609e-005     -4.7562e-005   
  0.08            5.442e-005      -5.44e-005     
  0.09            6.1191e-005     -6.1216e-005   
  0.1             6.7936e-005     -6.7977e-005   
  0.11            7.4677e-005     -7.4679e-005   
  0.12            8.1526e-005     -8.1471e-005   
  0.13            8.8375e-005     -8.8323e-005   
  0.14            9.5178e-005     -9.5177e-005   
  0.15            0.00010201      -0.000101977   
  0.16            0.00010874      -0.00010862    
  0.17            0.00011562      -0.00011556    
  0.18            0.00012242      -0.00012236    
  0.19            0.00012911      -0.00012914    
  0.2             0.00013583      -0.00013578    
  0.21            0.00014272      -0.00014259    
  0.22            0.00014963      -0.00014944    
  0.23            0.00015642      -0.00015622    
  0.24            0.00016319      -0.0001631     
  0.25            0.00016992      -0.00016993    
  0.26            0.0001766       -0.00017661    
  0.27            0.00018343      -0.00018332    
  0.28            0.00019038      -0.00019017    
  0.29            0.00019719      -0.00019708    
  0.3             0.00020393      -0.00020394    
  0.31            0.00021058      -0.00021063    
  0.32            0.00021736      -0.00021729    
  0.33            0.00022425      -0.00022406    
  0.34            0.00023118      -0.00023099    
  0.35            0.00023798      -0.00023773    
  0.36            0.00024481      -0.00024472    
  0.37            0.00025143      -0.00025149    
  0.38            0.00025808      -0.00025814    
  0.39            0.00026489      -0.0002648     
  0.4             0.00027187      -0.00027164    
  0.41            0.00027875      -0.00027862    
  0.42            0.00028549      -0.00028549    
  0.43            0.00029207      -0.0002922     
  0.44            0.00029883      -0.00029877    
  0.45            0.00030582      -0.00030559    
  0.46            0.00031273      -0.00031251    
  0.47            0.00031951      -0.0003195     
  0.48            0.00032609      -0.00032624    
  0.49            0.00033279      -0.00033278    
  0.5             0.00033966      -0.00033946    
  0.51            0.00034673      -0.00034642    
  0.52            0.00035358      -0.00035347    
  0.53            0.00036018      -0.00036028    
  0.54            0.00036672      -0.0003668     
  0.55            0.00037354      -0.00037373    
  0.56            0.0003803       -0.00038028    
  0.57            0.00038735      -0.00038707    
  0.58            0.00039439      -0.00039411    
  0.59            0.00040113      -0.00040076    
  0.6             0.00040799      -0.00040785    
  0.61            0.00041459      -0.0004147     
  0.62            0.00042112      -0.00042125    
  0.63            0.00042791      -0.00042777    
  0.64            0.000435        -0.00043464    
  0.65            0.00044197      -0.00044181    
  0.66            0.00044867      -0.00044874    
  0.67            0.00045506      -0.00045527    
  0.68            0.00046182      -0.00046176    
  0.69            0.00046892      -0.00046858    
  0.7             0.000476        -0.0004757     
  0.71            0.00048275      -0.00048235    
  0.72            0.00048958      -0.00048948    
  0.73            0.00049609      -0.00049628    
  0.74            0.0005026       -0.00050275    
  0.75            0.00050948      -0.00050972    
  0.76            0.00051614      -0.00051611    
  0.77            0.00052323      -0.0005229     
  0.78            0.00053038      -0.00053003    
  0.79            0.00053713      -0.00053713    
  0.8             0.00054357      -0.00054381    
  0.81            0.00055014      -0.00055018    
  0.82            0.0005571       -0.00055685    
  0.83            0.00056436      -0.00056391    
  0.84            0.00057119      -0.00057107    
  0.85            0.00057763      -0.00057787    
  0.86            0.0005841       -0.0005843     
  0.87            0.00059097      -0.00059129    
  0.88            0.00059764      -0.0005976     
  0.89            0.00060479      -0.00060441    
  0.9             0.00061197      -0.00061158    
  0.91            0.00061875      -0.00061873    
  0.92            0.00062515      -0.00062546    
  0.93            0.00063162      -0.00063171    
  0.94            0.00063864      -0.00063836    
  0.95            0.00064598      -0.0006455     
  0.96            0.00065283      -0.00065273    
  0.97            0.00065919      -0.00065945    
  0.98            0.00066562      -0.00066586    
  0.99            0.00067251      -0.00067288    
  1               0.00067923      -0.00067921    
END_DB

