,VG,IB,ID,IG,IS
0,0.0,2.043e-13,2.0583e-12,-1.44e-13,-2.13e-13
1,0.0225,1.729e-13,1.9048e-12,-1.2e-13,-4.922e-13
2,0.045,-1.852e-13,2.1627e-12,7.83e-13,-1.4062e-12
3,0.0675,1.19e-14,2.6582e-12,1.147e-12,-2.9293e-12
4,0.09,3.869e-13,4.1208e-12,8.81e-13,-5.0956e-12
5,0.1125,4.139e-13,7.2751e-12,1.88e-13,-8.8419e-12
6,0.135,2.284e-13,1.1427e-11,-1.374e-12,-1.4534e-11
7,0.1575,-7.89e-14,2.4904e-11,3.17e-13,-2.8831e-11
8,0.18,-9.224e-13,4.5071e-11,3.46e-13,-5.1454e-11
9,0.2025,-7.996e-13,8.9731e-11,1.4e-13,-9.0919e-11
10,0.225,-6.69e-13,1.717e-10,-1.7e-13,-1.7871e-10
11,0.2475,-1.1285e-12,3.4126e-10,-4.4e-14,-3.3065e-10
12,0.27,-1.519e-12,6.5718e-10,1.051e-12,-6.581e-10
13,0.2925,-3.5444e-12,1.3048e-09,-3.28e-13,-1.2899e-09
14,0.315,-5.8831e-12,2.5665e-09,1.158e-12,-2.5719e-09
15,0.3375,-1.074e-11,5.0806e-09,-2e-15,-5.0704e-09
16,0.36,-2.1871e-11,1.004e-08,2.79e-13,-1.0044e-08
17,0.3825,-3.9843e-11,1.9824e-08,8.99e-13,-1.9811e-08
18,0.405,-6.9252e-11,3.8884e-08,3.06e-13,-3.8782e-08
19,0.4275,-1.1342e-10,7.5849e-08,5.57e-13,-7.5735e-08
20,0.45,-2.0507e-10,1.4618e-07,5.7e-14,-1.4602e-07
21,0.4725,-3.6661e-10,2.7646e-07,9.32e-13,-2.76e-07
22,0.495,-6.0965e-10,5.1258e-07,-1.1e-13,-5.118e-07
23,0.5175,-1.00894e-09,9.2532e-07,2.03e-13,-9.2448e-07
24,0.54,-1.592e-09,1.6162e-06,1.266e-12,-1.6131e-06
25,0.5625,-2.4254e-09,2.7233e-06,1.161e-12,-2.7206e-06
26,0.585,-3.5455e-09,4.417e-06,1.318e-12,-4.4147e-06
27,0.6075,-4.9392e-09,6.8786e-06,4.3e-14,-6.8737e-06
28,0.63,-6.5432e-09,1.0312e-05,2.6e-14,-1.0298e-05
29,0.6525,-8.3123e-09,1.4876e-05,1.503e-12,-1.487e-05
30,0.675,-1.01089e-08,2.0748e-05,4.11e-13,-2.0734e-05
31,0.6975,-1.1777e-08,2.7984e-05,1.329e-12,-2.7968e-05
32,0.72,-1.2989e-08,3.6744e-05,2.455e-12,-3.6724e-05
33,0.7425,-1.4311e-08,4.7054e-05,1.324e-12,-4.7044e-05
34,0.765,-1.4918e-08,5.8994e-05,1.614e-12,-5.896e-05
35,0.7875,-1.5289e-08,7.241e-05,8.83e-13,-7.2388e-05
36,0.81,-1.6317e-08,8.7626e-05,1.667e-12,-8.761e-05
37,0.8325,-1.6602e-08,0.0001044,-2e-14,-0.00010438
38,0.855,-1.6918e-08,0.00012286,8.84e-13,-0.00012272
39,0.8775,-1.6838e-08,0.00014268,6.08e-13,-0.00014266
40,0.9,-1.7044e-08,0.0001643,2.17e-12,-0.00016426
41,0.9225,-1.6898e-08,0.00018732,5.92e-13,-0.0001873
42,0.945,-1.6656e-08,0.0002116,4.01e-13,-0.00021162
43,0.9675,-1.6385e-08,0.00023744,3.121e-12,-0.00023742
44,0.99,-1.6107e-08,0.00026472,1.733e-12,-0.0002647
45,1.0125,-1.5739e-08,0.00029322,1.461e-12,-0.0002932
46,1.035,-1.5252e-08,0.0003227,8.57e-13,-0.00032256
47,1.0575,-1.475e-08,0.00035406,8.86e-13,-0.00035406
48,1.08,-1.4169e-08,0.00038646,1.471e-12,-0.00038638
49,1.1025,-1.3529e-08,0.00041948,1.325e-12,-0.00041948
50,1.125,-1.2839e-08,0.00045412,2.378e-12,-0.0004541
51,1.1475,-1.2129e-08,0.00048726,1.379e-12,-0.00048702
52,1.17,-1.141e-08,0.00052256,7.66e-13,-0.0005225
53,1.1925,-1.1011e-08,0.00030928,1.247e-12,-0.00047918
54,1.215,-1.0347e-08,0.00031326,1.57e-12,-0.00031322
55,1.2375,-9.6201e-09,0.00033646,1.555e-12,-0.00033654
56,1.26,-8.9187e-09,0.00035744,2.521e-12,-0.00035702
57,1.2825,-8.2244e-09,0.00038092,7.73e-13,-0.00038142
58,1.305,-7.5731e-09,0.00039996,6.99e-13,-0.00039966
59,1.3275,-6.9579e-09,0.00042474,1.258e-12,-0.00042302
60,1.35,-6.3772e-09,0.00044444,1.665e-12,-0.00044462
61,1.3725,-5.808e-09,0.00046744,8.44e-13,-0.00046796
62,1.395,-5.2797e-09,0.00049244,9.41e-13,-0.0004921
63,1.4175,-4.7993e-09,0.00051684,1.178e-12,-0.00051688
64,1.44,-4.3424e-09,0.00054246,6.23e-13,-0.0005407
65,1.4625,-3.9243e-09,0.0005633,1.351e-12,-0.00056332
66,1.485,-3.5505e-09,0.0005874,1.462e-12,-0.00058726
67,1.5075,-3.1896e-09,0.00061218,3.121e-12,-0.00061196
68,1.53,-2.873e-09,0.00063548,1.892e-12,-0.00063578
69,1.5525,-2.568e-09,0.00066178,1.383e-12,-0.0006617
70,1.575,-2.308e-09,0.000686,2.028e-12,-0.00068674
71,1.5975,-2.0625e-09,0.0007099,1.653e-12,-0.00071548
72,1.62,-1.8369e-09,0.00073582,9.95e-13,-0.00073466
73,1.6425,-1.6377e-09,0.00076106,1.249e-12,-0.00076026
74,1.665,-1.4552e-09,0.00078342,1.443e-12,-0.00078392
75,1.6875,-1.3024e-09,0.00081074,2.949e-12,-0.00081132
76,1.71,-1.151e-09,0.00083574,1.388e-12,-0.00083536
77,1.7325,-1.0287e-09,0.0008607,1.848e-12,-0.00086028
78,1.755,-9.1619e-10,0.00088668,2.104e-12,-0.00088678
79,1.7775,-8.047e-10,0.00091344,3.734e-12,-0.00091324
80,1.8,-7.0257e-10,0.00093908,1.012e-12,-0.00093948
