,VD,IB,ID,IG,IS,VG,VB,VS
0,0.0,4.97e-14,-1.5282e-08,4.046e-13,3.2042e-08,1.8,0.0,0.0
1,0.0225,8.03e-14,6.8534e-05,3.243e-13,-6.8518e-05,1.8,0.0,0.0
2,0.045,3.601e-13,0.00013632,8.966e-13,-0.00013628,1.8,0.0,0.0
3,0.0675,5.024e-13,0.00020298,6.044e-13,-0.0002028,1.8,0.0,0.0
4,0.09,5.414e-13,0.00026878,6.935e-13,-0.00026872,1.8,0.0,0.0
5,0.1125,5.924e-13,0.00033374,5.396e-13,-0.0003336,1.8,0.0,0.0
6,0.135,5.772e-13,0.0003973,5.346e-13,-0.0003974,1.8,0.0,0.0
7,0.1575,4.387e-13,0.00046018,5.004e-13,-0.0004601,1.8,0.0,0.0
8,0.18,3.64e-13,0.00052164,4.166e-13,-0.00052158,1.8,0.0,0.0
9,0.2025,2.946e-13,0.00058178,4.009e-13,-0.000582,1.8,0.0,0.0
10,0.225,2.573e-13,0.00064104,3.693e-13,-0.00064096,1.8,0.0,0.0
11,0.2475,9.91e-14,0.0006988,3.357e-13,-0.00069864,1.8,0.0,0.0
12,0.27,2.82e-14,0.00075504,2.923e-13,-0.00075514,1.8,0.0,0.0
13,0.2925,7.05e-14,0.0008103,3.045e-13,-0.0008102,1.8,0.0,0.0
14,0.315,1.353e-13,0.00086376,3.945e-13,-0.0008638,1.8,0.0,0.0
15,0.3375,1.489e-13,0.00091588,3.94e-13,-0.0009159,1.8,0.0,0.0
16,0.36,2.07e-13,0.00096666,4.469e-13,-0.0009667,1.8,0.0,0.0
17,0.3825,3.952e-13,0.0010158,5.179e-13,-0.00101598,1.8,0.0,0.0
18,0.405,4.789e-13,0.00106338,5.251e-13,-0.00106356,1.8,0.0,0.0
19,0.4275,5.334e-13,0.00110954,5.38e-13,-0.00110942,1.8,0.0,0.0
20,0.45,-1.03e-14,0.0011538,8.067e-13,-0.001154,1.8,0.0,0.0
21,0.4725,2.74e-14,0.0011958,3.771e-13,-0.0011962,1.8,0.0,0.0
22,0.495,4.3e-14,0.0012368,3.693e-13,-0.001237,1.8,0.0,0.0
23,0.5175,9.29e-14,0.001276,3.215e-13,-0.0012758,1.8,0.0,0.0
24,0.54,1.862e-13,0.0013132,4.264e-13,-0.0013134,1.8,0.0,0.0
25,0.5625,2.597e-13,0.0013488,4.673e-13,-0.0013484,1.8,0.0,0.0
26,0.585,4.043e-13,0.0013824,4.704e-13,-0.001382,1.8,0.0,0.0
27,0.6075,5.225e-13,0.0014142,5.43e-13,-0.001414,1.8,0.0,0.0
28,0.63,5.776e-13,0.0014444,5.485e-13,-0.0014444,1.8,0.0,0.0
29,0.6525,6.111e-13,0.0014728,5.456e-13,-0.0014728,1.8,0.0,0.0
30,0.675,6.218e-13,0.0014992,4.799e-13,-0.0014992,1.8,0.0,0.0
31,0.6975,5.337e-13,0.0015238,4.513e-13,-0.0015236,1.8,0.0,0.0
32,0.72,4.064e-13,0.001547,4.052e-13,-0.0015464,1.8,0.0,0.0
33,0.7425,3.084e-13,0.0015678,3.379e-13,-0.0015682,1.8,0.0,0.0
34,0.765,2.892e-13,0.0015878,3.467e-13,-0.001588,1.8,0.0,0.0
35,0.7875,1.406e-13,0.0016056,2.961e-13,-0.0016054,1.8,0.0,0.0
36,0.81,5.58e-14,0.0016222,2.512e-13,-0.0016222,1.8,0.0,0.0
37,0.8325,1.07e-14,0.0016372,3.097e-13,-0.0016374,1.8,0.0,0.0
38,0.855,3.85e-14,0.0016516,2.872e-13,-0.001651,1.8,0.0,0.0
39,0.8775,1.094e-13,0.0016638,3.123e-13,-0.0016636,1.8,0.0,0.0
40,0.9,2.202e-13,0.0016748,4.27e-13,-0.0016748,1.8,0.0,0.0
41,0.9225,3.557e-13,0.0016848,4.443e-13,-0.0016848,1.8,0.0,0.0
42,0.945,4.646e-13,0.0016936,5.006e-13,-0.0016936,1.8,0.0,0.0
43,0.9675,5.45e-13,0.0017016,5.398e-13,-0.0017016,1.8,0.0,0.0
44,0.99,6.167e-13,0.0017092,5.192e-13,-0.0017088,1.8,0.0,0.0
45,1.0125,5.309e-13,0.0017154,4.756e-13,-0.0017156,1.8,0.0,0.0
46,1.035,5.22e-13,0.0017212,4.556e-13,-0.001721,1.8,0.0,0.0
47,1.0575,4.079e-13,0.0017266,3.983e-13,-0.0017262,1.8,0.0,0.0
48,1.08,3.328e-13,0.0017314,3.743e-13,-0.001731,1.8,0.0,0.0
49,1.1025,2.672e-13,0.0017354,3.431e-13,-0.0017354,1.8,0.0,0.0
50,1.125,1.455e-13,0.0017392,2.589e-13,-0.0017394,1.8,0.0,0.0
51,1.1475,5.03e-14,0.001743,2.628e-13,-0.0017428,1.8,0.0,0.0
52,1.17,5.27e-14,0.0017462,2.604e-13,-0.001746,1.8,0.0,0.0
53,1.1925,5.83e-14,0.001749,3.411e-13,-0.0017492,1.8,0.0,0.0
54,1.215,1.684e-13,0.001752,3.731e-13,-0.001752,1.8,0.0,0.0
55,1.2375,2.081e-13,0.0017546,3.892e-13,-0.001755,1.8,0.0,0.0
56,1.26,4.243e-13,0.0017574,3.958e-13,-0.001757,1.8,0.0,0.0
57,1.2825,3.928e-13,0.0017594,5.111e-13,-0.0017594,1.8,0.0,0.0
58,1.305,4.621e-13,0.0017618,5.15e-13,-0.0017618,1.8,0.0,0.0
59,1.3275,4.364e-13,0.0017642,5.409e-13,-0.0017642,1.8,0.0,0.0
60,1.35,4.208e-13,0.0017664,4.874e-13,-0.0017662,1.8,0.0,0.0
61,1.3725,2.454e-13,0.0017682,4.629e-13,-0.001768,1.8,0.0,0.0
62,1.395,8.1e-15,0.0017698,4.064e-13,-0.0017702,1.8,0.0,0.0
63,1.4175,-5.224e-13,0.0017722,3.63e-13,-0.0017722,1.8,0.0,0.0
64,1.44,-9.591e-13,0.001774,3.692e-13,-0.0017738,1.8,0.0,0.0
65,1.4625,-1.7308e-12,0.0017756,3.141e-13,-0.0017756,1.8,0.0,0.0
66,1.485,-2.9219e-12,0.0017776,2.434e-13,-0.0017772,1.8,0.0,0.0
67,1.5075,-4.5593e-12,0.001779,2.948e-13,-0.001779,1.8,0.0,0.0
68,1.53,-6.9995e-12,0.0017808,2.963e-13,-0.0017806,1.8,0.0,0.0
69,1.5525,-1.04706e-11,0.0017822,3.322e-13,-0.0017824,1.8,0.0,0.0
70,1.575,-1.4305e-11,0.0017838,3.622e-13,-0.0017838,1.8,0.0,0.0
71,1.5975,-2.2519e-11,0.0017854,2.42e-13,-0.0017856,1.8,0.0,0.0
72,1.62,-3.362e-11,0.0017866,4.618e-13,-0.001787,1.8,0.0,0.0
73,1.6425,-4.8323e-11,0.0017886,3.754e-13,-0.0017884,1.8,0.0,0.0
74,1.665,-6.9346e-11,0.0017898,4.459e-13,-0.0017898,1.8,0.0,0.0
75,1.6875,-1.01597e-10,0.0017914,4.765e-13,-0.0017912,1.8,0.0,0.0
76,1.71,-1.4203e-10,0.0017926,1.0518e-12,-0.0017926,1.8,0.0,0.0
77,1.7325,-2.0306e-10,0.001794,6.015e-13,-0.001794,1.8,0.0,0.0
78,1.755,-2.7701e-10,0.0017956,3.486e-13,-0.0017954,1.8,0.0,0.0
79,1.7775,-3.9695e-10,0.0017966,5.8e-13,-0.0017966,1.8,0.0,0.0
80,1.8,-5.2952e-10,0.001798,4.105e-13,-0.001798,1.8,0.0,0.0
