,VD,IB,ID,IG,IS,VG,VB,VS
0,0.0,7.02e-14,-2.3872e-08,6.486e-13,-2.3358e-07,1.8,0.0,0.0
1,0.0225,1.056e-13,0.00032648,6.356e-13,-0.00032656,1.8,0.0,0.0
2,0.045,-9.67e-14,0.00065096,4.046e-13,-0.00065072,1.8,0.0,0.0
3,0.0675,-1.599e-13,0.00097168,6.485e-13,-0.00097126,1.8,0.0,0.0
4,0.09,4.011e-13,0.0012904,4.585e-13,-0.0012904,1.8,0.0,0.0
5,0.1125,4.591e-13,0.0016062,5.672e-13,-0.0016058,1.8,0.0,0.0
6,0.135,2.115e-13,0.0019174,8.382e-13,-0.0019174,1.8,0.0,0.0
7,0.1575,2.096e-13,0.0022256,5.724e-13,-0.0022254,1.8,0.0,0.0
8,0.18,2.015e-13,0.0025296,2.956e-13,-0.0025294,1.8,0.0,0.0
9,0.2025,4.777e-13,0.0028278,3.485e-13,-0.002828,1.8,0.0,0.0
10,0.225,8.89e-14,0.0031222,7.291e-13,-0.0031222,1.8,0.0,0.0
11,0.2475,-6e-15,0.0034116,2.833e-13,-0.003411,1.8,0.0,0.0
12,0.27,2.64e-14,0.0036936,3.68e-13,-0.0036936,1.8,0.0,0.0
13,0.2925,6.89e-14,0.0039704,3.909e-13,-0.0039706,1.8,0.0,0.0
14,0.315,-1.446e-13,0.004241,7.751e-13,-0.0042408,1.8,0.0,0.0
15,0.3375,2.668e-13,0.0045034,2.978e-13,-0.004503,1.8,0.0,0.0
16,0.36,-1.159e-13,0.004759,6.858e-13,-0.0047588,1.8,0.0,0.0
17,0.3825,1.569e-13,0.0050062,3.353e-13,-0.0050062,1.8,0.0,0.0
18,0.405,9.91e-14,0.0052456,4.99e-13,-0.0052454,1.8,0.0,0.0
19,0.4275,1.394e-13,0.0054758,8.448e-13,-0.0054756,1.8,0.0,0.0
20,0.45,4.623e-13,0.0056964,3.871e-13,-0.0056964,1.8,0.0,0.0
21,0.4725,1.146e-13,0.0059078,8.663e-13,-0.0059074,1.8,0.0,0.0
22,0.495,2.142e-13,0.0061086,3.644e-13,-0.0061096,1.8,0.0,0.0
23,0.5175,3.959e-13,0.0063012,5.845e-13,-0.0063002,1.8,0.0,0.0
24,0.54,4.436e-13,0.0064812,6.101e-13,-0.0064818,1.8,0.0,0.0
25,0.5625,4.785e-13,0.0066534,6.328e-13,-0.0066528,1.8,0.0,0.0
26,0.585,6.229e-13,0.006813,6.143e-13,-0.0068124,1.8,0.0,0.0
27,0.6075,5.028e-13,0.0069628,5.365e-13,-0.0069626,1.8,0.0,0.0
28,0.63,5.104e-13,0.0071024,6.314e-13,-0.0071026,1.8,0.0,0.0
29,0.6525,3.64e-13,0.0072322,4.684e-13,-0.0072322,1.8,0.0,0.0
30,0.675,4.634e-13,0.0073522,6.028e-13,-0.0073514,1.8,0.0,0.0
31,0.6975,3.772e-13,0.0074616,3.977e-13,-0.0074622,1.8,0.0,0.0
32,0.72,3.361e-13,0.007563,5.557e-13,-0.0075624,1.8,0.0,0.0
33,0.7425,7.44e-14,0.0076548,3.324e-13,-0.0076544,1.8,0.0,0.0
34,0.765,2.07e-13,0.0077392,4.646e-13,-0.0077388,1.8,0.0,0.0
35,0.7875,-6.5e-15,0.0078164,2.8e-15,-0.0078164,1.8,0.0,0.0
36,0.81,4.39e-14,0.0078872,1.228e-13,-0.0078874,1.8,0.0,0.0
37,0.8325,1.248e-13,0.007951,4.079e-13,-0.0079514,1.8,0.0,0.0
38,0.855,8.93e-14,0.0080098,1.925e-13,-0.0080094,1.8,0.0,0.0
39,0.8775,5.17e-14,0.0080626,4.808e-13,-0.0080626,1.8,0.0,0.0
40,0.9,-2.8e-14,0.0081114,2.699e-13,-0.0081106,1.8,0.0,0.0
41,0.9225,4.24e-14,0.0081558,4.91e-13,-0.0081558,1.8,0.0,0.0
42,0.945,1.45e-14,0.0081974,3.2e-13,-0.0081974,1.8,0.0,0.0
43,0.9675,2.227e-13,0.0082354,4.787e-13,-0.008235,1.8,0.0,0.0
44,0.99,-1.139e-13,0.0082706,3.636e-13,-0.0082702,1.8,0.0,0.0
45,1.0125,1.71e-14,0.0083028,5.304e-13,-0.0083028,1.8,0.0,0.0
46,1.035,-2.255e-13,0.0083336,1.034e-13,-0.008334,1.8,0.0,0.0
47,1.0575,-2.775e-13,0.008363,1.296e-13,-0.0083632,1.8,0.0,0.0
48,1.08,-5.439e-13,0.008391,3.314e-13,-0.0083904,1.8,0.0,0.0
49,1.1025,-7.455e-13,0.0084166,4.373e-13,-0.0084162,1.8,0.0,0.0
50,1.125,-1.349e-12,0.0084414,6.262e-13,-0.0084416,1.8,0.0,0.0
51,1.1475,-2.3384e-12,0.0084646,5.081e-13,-0.0084648,1.8,0.0,0.0
52,1.17,-3.935e-12,0.008488,7.183e-13,-0.0084882,1.8,0.0,0.0
53,1.1925,-6.2855e-12,0.0085102,3.803e-13,-0.0085102,1.8,0.0,0.0
54,1.215,-1.04745e-11,0.0085312,5.396e-13,-0.0085312,1.8,0.0,0.0
55,1.2375,-1.5511e-11,0.0085518,8.13e-14,-0.0085522,1.8,0.0,0.0
56,1.26,-2.6201e-11,0.0085722,4.735e-13,-0.0085718,1.8,0.0,0.0
57,1.2825,-3.7419e-11,0.008591,5.075e-13,-0.0085908,1.8,0.0,0.0
58,1.305,-5.6385e-11,0.0086102,8.394e-13,-0.0086098,1.8,0.0,0.0
59,1.3275,-8.5518e-11,0.0086286,7.729e-13,-0.008629,1.8,0.0,0.0
60,1.35,-1.2178e-10,0.0086468,7.946e-13,-0.0086462,1.8,0.0,0.0
61,1.3725,-1.7627e-10,0.0086642,3.682e-13,-0.0086644,1.8,0.0,0.0
62,1.395,-2.6347e-10,0.0086824,6.114e-13,-0.008682,1.8,0.0,0.0
63,1.4175,-3.7395e-10,0.008699,4.449e-13,-0.0086994,1.8,0.0,0.0
64,1.44,-5.2825e-10,0.0087162,4.027e-13,-0.008716,1.8,0.0,0.0
65,1.4625,-7.5191e-10,0.0087324,8.897e-13,-0.0087322,1.8,0.0,0.0
66,1.485,-1.03322e-09,0.0087492,3.405e-13,-0.008748,1.8,0.0,0.0
67,1.5075,-1.4395e-09,0.008764,3.901e-13,-0.0087646,1.8,0.0,0.0
68,1.53,-1.9887e-09,0.008781,8.14e-14,-0.0087798,1.8,0.0,0.0
69,1.5525,-2.7195e-09,0.008796,3.596e-13,-0.008796,1.8,0.0,0.0
70,1.575,-3.687e-09,0.008811,2.569e-13,-0.0088108,1.8,0.0,0.0
71,1.5975,-4.9818e-09,0.0088268,6.644e-13,-0.0088266,1.8,0.0,0.0
72,1.62,-6.6507e-09,0.0088422,2.59e-13,-0.0088414,1.8,0.0,0.0
73,1.6425,-8.8512e-09,0.0088572,4.997e-13,-0.0088564,1.8,0.0,0.0
74,1.665,-1.1688e-08,0.008871,8.307e-13,-0.0088702,1.8,0.0,0.0
75,1.6875,-1.5342e-08,0.008885,2.761e-13,-0.0088842,1.8,0.0,0.0
76,1.71,-1.9993e-08,0.0088984,2.868e-13,-0.0088984,1.8,0.0,0.0
77,1.7325,-2.5909e-08,0.008913,6.532e-13,-0.0089126,1.8,0.0,0.0
78,1.755,-3.341e-08,0.008927,7.019e-13,-0.0089268,1.8,0.0,0.0
79,1.7775,-4.275e-08,0.0089408,3.042e-13,-0.0089406,1.8,0.0,0.0
80,1.8,-5.4465e-08,0.0089544,5.069e-13,-0.0089548,1.8,0.0,0.0
