! VERSION = 6.00
BEGIN_HEADER
 ICCAP_INPUTS
  VG         V  B GROUND SMU4 0.001 LIN        1    0          -1.8       37   -0.05     
  VS         V  E GROUND SMU3 0.1 CON        0
  VB         V  C GROUND SMU1 0.1 LIN        3    0          1.8        3    0.9       
  VD         V  S GROUND SMU2 0.1 LIN        2    -0.1       -1.8       2    -1.7      
 ICCAP_OUTPUTS
  IG         I  B GROUND SMU4 B
  ID         I  S GROUND SMU2 B
  IB         I  C GROUND SMU1 B
END_HEADER

BEGIN_DB
 ICCAP_VAR VS         0              
 ICCAP_VAR VB         0              
 ICCAP_VAR VD         -0.1           

 #VG              IG              ID              IB             
  0               3.635e-010      -8.838e-010     -5.007e-009    
  -0.05           -1.9332e-009    1.1782e-009     1.5805e-008    
  -0.1            2.221e-009      -1.2313e-009    -1.7222e-008   
  -0.15           -2.1145e-009    1.0153e-009     1.4391e-008    
  -0.2            2.395e-009      -1.0444e-009    -1.6915e-008   
  -0.25           -2.2652e-009    8.462e-010      1.224e-008     
  -0.3            2.529e-009      -8.423e-010     -1.6276e-008   
  -0.35           -1.53e-010      3.541e-009      8.033e-009     
  -0.4            -2.5929e-009    -1.047e-010     8.182e-009     
  -0.45           1.9079e-009     -3.2408e-009    -1.5148e-008   
  -0.5            -1.8645e-009    -1.216e-010     1.6401e-008    
  -0.55           2.1381e-009     -6.2324e-009    -1.7057e-008   
  -0.6            2.4229e-009     -1.5129e-008    8.477e-009     
  -0.65           -2.1751e-009    -5.2929e-008    9.681e-009     
  -0.7            1.153e-009      -1.4452e-007    -1.7021e-008   
  -0.75           -2.4718e-009    -3.596e-007     8.307e-009     
  -0.8            2.2294e-009     -7.9181e-007    -1.6183e-008   
  -0.85           -2.3487e-009    -1.4942e-006    -1.7205e-008   
  -0.9            2.3726e-009     -2.5796e-006    -1.5701e-008   
  -0.95           -1.5373e-009    -3.9295e-006    1.612e-008     
  -1              2.5103e-009     -5.6652e-006    -1.464e-008    
  -1.05           -1.7155e-009    -7.5172e-006    1.4668e-008    
  -1.1            2.6107e-009     -9.6243e-006    -1.2429e-008   
  -1.15           1.8988e-009     -1.173e-005     -1.5358e-008   
  -1.2            -1.4799e-009    -1.3831e-005    1.6466e-008    
  -1.25           2.4672e-009     -1.6024e-005    -1.5369e-008   
  -1.3            -1.6497e-009    -1.8049e-005    1.5099e-008    
  -1.35           2.5877e-009     -2.0139e-005    -1.347e-008    
  -1.4            -1.8391e-009    -2.2018e-005    1.3362e-008    
  -1.45           2.712e-009      -2.3901e-005    -1.4951e-008   
  -1.5            1.06e-011       -2.5626e-005    7.752e-009     
  -1.55           -2.139e-009     -2.7309e-005    1.0485e-008    
  -1.6            1.5807e-009     -2.8933e-005    -1.6611e-008   
  -1.65           8.649e-010      -3.0412e-005    9.164e-009     
  -1.7            -2.5935e-009    -3.1822e-005    6.825e-009     
  -1.75           2.6123e-009     -3.323e-005     -1.2555e-008   
  -1.8            -1.8945e-009    -3.4475e-005    1.2865e-008    
END_DB

BEGIN_DB
 ICCAP_VAR VS         0              
 ICCAP_VAR VB         0              
 ICCAP_VAR VD         -1.8           

 #VG              IG              ID              IB             
  0               1.181e-010      -1.3936e-009    -1.651e-008    
  -0.05           3.993e-010      4.098e-009      9.558e-009     
  -0.1            -1.9339e-009    -1.9131e-009    1.685e-009     
  -0.15           2.5621e-009     -8.431e-010     -1.6394e-008   
  -0.2            -2.4191e-009    6.371e-010      1.0193e-008    
  -0.25           2.6666e-009     -6.287e-010     -1.5983e-008   
  -0.3            -1.3206e-009    3.2886e-009     7.756e-009     
  -0.35           2.7225e-009     -6.543e-010     -1.4075e-008   
  -0.4            -1.4417e-009    2.1201e-009     9.401e-009     
  -0.45           1.8466e-009     -6.6789e-009    -1.3936e-008   
  -0.5            8.648e-010      -1.2446e-008    -1.6193e-008   
  -0.55           1.6851e-009     -3.9708e-008    -3.51e-009     
  -0.6            -9.8e-010       -1.1814e-007    8.655e-009     
  -0.65           1.5738e-009     -3.0071e-007    -1.6826e-008   
  -0.7            8.574e-010      -6.7846e-007    8.963e-009     
  -0.75           -2.4553e-009    -1.4191e-006    -1.6114e-008   
  -0.8            2.1983e-009     -2.763e-006     -1.613e-008    
  -0.85           -1.5292e-009    -4.8028e-006    1.7787e-008    
  -0.9            2.5565e-009     -7.9598e-006    -1.4559e-008   
  -0.95           6.479e-010      -1.2067e-005    -1.6278e-008   
  -1              -2.5947e-009    -1.7354e-005    5.695e-009     
  -1.05           2.7308e-009     -2.4018e-005    -1.5575e-008   
  -1.1            -4.12e-011      -3.1537e-005    7.646e-009     
  -1.15           -2.2284e-009    -4.0257e-005    9.741e-009     
  -1.2            1.9097e-009     -5.0269e-005    -2.2082e-008   
  -1.25           6.98e-010       -6.0908e-005    9.406e-009     
  -1.3            -2.5984e-009    -7.2381e-005    6.077e-009     
  -1.35           2.7282e-009     -8.5065e-005    -1.4081e-008   
  -1.4            1.4726e-009     -9.8339e-005    8.671e-009     
  -1.45           -1.4225e-009    -0.000111444    1.4465e-008    
  -1.5            -1.5982e-009    -0.00012554     -1.8756e-008   
  -1.55           2.719e-009      -0.0001408      -1.3173e-008   
  -1.6            1.5049e-009     -0.00015632     8.04e-009      
  -1.65           -1.3857e-009    -0.00017132     1.3543e-008    
  -1.7            2.4029e-009     -0.00018778     -1.6128e-008   
  -1.75           -1.5472e-009    -0.00020362     1.5256e-008    
  -1.8            2.5565e-009     -0.00022067     -1.4525e-008   
END_DB

BEGIN_DB
 ICCAP_VAR VS         0              
 ICCAP_VAR VB         0.9            
 ICCAP_VAR VD         -0.1           

 #VG              IG              ID              IB             
  0               -2.802e-010     1.0384e-009     1.3228e-008    
  -0.05           2.068e-009      -2.7922e-009    -1.7482e-008   
  -0.1            -2.0047e-009    1.122e-009      1.4945e-008    
  -0.15           2.323e-009      -1.1618e-009    -1.6774e-008   
  -0.2            -2.2184e-009    9.28e-010       1.3142e-008    
  -0.25           2.5077e-009     -9.191e-010     -1.6516e-008   
  -0.3            -2.3728e-009    7.177e-010      1.0828e-008    
  -0.35           2.6353e-009     -6.779e-010     -1.6203e-008   
  -0.4            1.2022e-009     3.8226e-009     8.178e-009     
  -0.45           -2.5848e-009    -4.871e-010     6.618e-009     
  -0.5            2.5207e-009     -9.142e-010     -1.647e-008    
  -0.55           -1.332e-010     3.5749e-009     8.101e-009     
  -0.6            -2.5797e-009    -1.287e-010     8.174e-009     
  -0.65           1.9032e-009     -3.4777e-009    -1.4796e-008   
  -0.7            -1.4802e-009    -3.6492e-009    1.9311e-008    
  -0.75           -2.5877e-009    -1.2531e-008    6.149e-009     
  -0.8            2.6415e-009     -4.0659e-008    -1.2288e-008   
  -0.85           9.756e-010      -1.3171e-007    -1.6751e-008   
  -0.9            -2.5602e-009    -3.6837e-007    7.254e-009     
  -0.95           2.5392e-009     -8.7639e-007    -1.5092e-008   
  -1              -2.008e-009     -1.7298e-006    -1.5106e-008   
  -1.05           2.7033e-009     -3.0152e-006    -1.8286e-008   
  -1.1            4.81e-011       -4.6093e-006    7.797e-009     
  -1.15           -2.1137e-009    -6.4328e-006    1.0976e-008    
  -1.2            1.7716e-009     -8.6449e-006    -2.0099e-008   
  -1.25           7.731e-010      -1.07998e-005   9.222e-009     
  -1.3            7.827e-010      -1.3001e-005    -1.6517e-008   
  -1.35           -2.5991e-009    -1.5131e-005    6.805e-009     
  -1.4            2.6886e-009     -1.7259e-005    -1.2305e-008   
  -1.45           9.48e-011       -1.9162e-005    8.008e-009     
  -1.5            -2.0428e-009    -2.1137e-005    1.1384e-008    
  -1.55           1.6781e-009     -2.2982e-005    -1.873e-008    
  -1.6            8.085e-010      -2.4687e-005    9.375e-009     
  -1.65           -2.5956e-009    -2.6284e-005    6.642e-009     
  -1.7            2.6803e-009     -2.7884e-005    -1.0876e-008   
  -1.75           1.267e-010      -2.9285e-005    8.227e-009     
  -1.8            -1.9919e-009    -3.0663e-005    1.1869e-008    
END_DB

BEGIN_DB
 ICCAP_VAR VS         0              
 ICCAP_VAR VB         0.9            
 ICCAP_VAR VD         -1.8           

 #VG              IG              ID              IB             
  0               -1.044e-009     -1.7635e-009    -1.5425e-008   
  -0.05           2.6982e-009     -4.171e-010     -1.486e-008    
  -0.1            -1.4214e-009    3.2151e-009     9.032e-009     
  -0.15           1.8424e-009     -2.9005e-009    -1.3775e-008   
  -0.2            -1.8214e-009    1.2757e-009     1.6163e-008    
  -0.25           2.1309e-009     -1.3165e-009    -1.651e-008    
  -0.3            -2.0609e-009    1.0758e-009     1.4662e-008    
  -0.35           2.3787e-009     -1.1038e-009    -1.6721e-008   
  -0.4            -2.2671e-009    8.617e-010      1.2437e-008    
  -0.45           2.5505e-009     -8.664e-010     -1.6541e-008   
  -0.5            -2.4071e-009    3.4453e-009     7.809e-009     
  -0.55           2.6597e-009     -1.0277e-009    -1.5866e-008   
  -0.6            -1.6182e-009    1.0552e-009     1.2106e-008    
  -0.65           -2.5707e-009    -9.78e-009      1.5611e-008    
  -0.7            2.6586e-009     -2.826e-008     -8.015e-009    
  -0.75           9.916e-010      -9.6029e-008    7.89e-009      
  -0.8            6.254e-010      -2.937e-007     -1.5912e-008   
  -0.85           -2.602e-009     -7.5769e-007    5.631e-009     
  -0.9            -2.2432e-009    -1.7428e-006    -1.6841e-008   
  -0.95           2.5279e-009     -3.5377e-006    -1.4789e-008   
  -1              -1.7499e-009    -6.2489e-006    1.4148e-008    
  -1.05           2.6352e-009     -1.0336e-005    -1.1726e-008   
  -1.1            6.143e-010      -1.5474e-005    -1.7037e-008   
  -1.15           -2.606e-009     -2.1875e-005    5.594e-009     
  -1.2            1.6284e-009     -2.9777e-005    -1.6709e-008   
  -1.25           8.398e-010      -3.8479e-005    9.378e-009     
  -1.3            -2.6012e-009    -4.8146e-005    6.997e-009     
  -1.35           2.6469e-009     -5.9252e-005    -1.1336e-008   
  -1.4            -2.0081e-009    -7.0505e-005    1.1681e-008    
  -1.45           1.6712e-009     -8.3133e-005    -1.8295e-008   
  -1.5            8.212e-010      -9.6124e-005    9.127e-009     
  -1.55           -2.6061e-009    -0.000109517    7.017e-009     
  -1.6            -3.025e-010     -0.00012395     -1.6614e-008   
  -1.65           1.9019e-009     -0.00013871     -1.7231e-008   
  -1.7            7.122e-010      -0.00015359     9.428e-009     
  -1.75           -2.6115e-009    -0.00016894     6.507e-009     
  -1.8            2.7041e-009     -0.00018513     -1.4779e-008   
END_DB

BEGIN_DB
 ICCAP_VAR VS         0              
 ICCAP_VAR VB         1.8            
 ICCAP_VAR VD         -0.1           

 #VG              IG              ID              IB             
  0               1.5198e-009     -3.464e-010     7.232e-009     
  -0.05           -1.7375e-009    1.208e-009      1.5511e-008    
  -0.1            2.0239e-009     -1.2456e-009    -1.535e-008    
  -0.15           -1.9672e-009    1.0073e-009     1.3687e-008    
  -0.2            2.289e-009      -1.029e-009     -1.5699e-008   
  -0.25           -2.1919e-009    7.855e-010      1.2013e-008    
  -0.3            2.5097e-009     -8.513e-010     -1.6199e-008   
  -0.35           -2.3638e-009    3.5023e-009     7.773e-009     
  -0.4            2.6254e-009     -5.974e-010     -1.573e-008    
  -0.45           -1.3037e-009    3.3356e-009     7.624e-009     
  -0.5            2.6049e-009     -1.929e-010     -1.2173e-008   
  -0.55           -1.4143e-009    2.9596e-009     9.355e-009     
  -0.6            1.8768e-009     -2.7518e-009    -1.4431e-008   
  -0.65           -1.8061e-009    1.0409e-009     1.3667e-008    
  -0.7            2.0912e-009     -1.2673e-009    -1.5115e-008   
  -0.75           -1.9949e-009    2.203e-010      1.2344e-008    
  -0.8            2.2783e-009     -4.1601e-009    -1.4911e-008   
  -0.85           -2.1614e-009    -1.6032e-008    -1.3117e-008   
  -0.9            2.3048e-009     -5.6272e-008    -1.4041e-008   
  -0.95           -1.052e-009     -1.8817e-007    1.2699e-008    
  -1              2.5345e-009     -5.1492e-007    -8.037e-009    
  -1.05           -1.513e-010     -1.1462e-006    8.981e-009     
  -1.1            -2.2194e-009    -2.1639e-006    7.86e-009      
  -1.15           1.8407e-009     -3.66e-006      -1.4867e-008   
  -1.2            -2.3208e-009    -5.4139e-006    7.541e-009     
  -1.25           2.0947e-009     -7.4378e-006    -1.4596e-008   
  -1.3            -1.3215e-009    -9.5123e-006    1.442e-008     
  -1.35           6.071e-010      -1.1665e-005    -1.493e-008    
  -1.4            -2.4247e-009    -1.3771e-005    5.183e-009     
  -1.45           2.5423e-009     -1.5865e-005    -1.4324e-008   
  -1.5            -2.2601e-009    -1.776e-005     7.743e-009     
  -1.55           1.936e-009      -1.9655e-005    -1.4985e-008   
  -1.6            5.805e-010      -2.1364e-005    8.28e-009      
  -1.65           -2.4267e-009    -2.2992e-005    5.007e-009     
  -1.7            2.5441e-009     -2.4582e-005    -1.4455e-008   
  -1.75           -2.283e-009     -2.6003e-005    7.738e-009     
  -1.8            1.9838e-009     -2.7425e-005    -1.4992e-008   
END_DB

BEGIN_DB
 ICCAP_VAR VS         0              
 ICCAP_VAR VB         1.8            
 ICCAP_VAR VD         -1.8           

 #VG              IG              ID              IB             
  0               -1.2756e-009    -2.912e-010     -1.129e-008    
  -0.05           2.7213e-009     -7.86e-011      -1.0476e-008   
  -0.1            -1.6957e-009    2.9271e-009     1.3721e-008    
  -0.15           2.1877e-009     -2.7269e-009    -1.9524e-008   
  -0.2            -2.1132e-009    1.0354e-009     1.4086e-008    
  -0.25           2.413e-009      -1.0485e-009    -1.7003e-008   
  -0.3            -2.2945e-009    8.359e-010      1.2355e-008    
  -0.35           2.5694e-009     -8.161e-010     -1.6487e-008   
  -0.4            -2.4225e-009    3.5112e-009     7.743e-009     
  -0.45           2.6659e-009     -5.57e-010      -1.5683e-008   
  -0.5            -1.3555e-009    3.3186e-009     7.976e-009     
  -0.55           2.7104e-009     -3.269e-010     -1.3145e-008   
  -0.6            -1.5097e-009    2.9971e-009     1.0487e-008    
  -0.65           1.9606e-009     -3.4029e-009    -1.5713e-008   
  -0.7            -1.5246e-009    -3.5535e-009    1.877e-008     
  -0.75           -2.5123e-009    -1.3755e-008    -1.6563e-008   
  -0.8            2.0687e-009     -4.809e-008     -1.674e-008    
  -0.85           -4.875e-010     -1.6689e-007    8.373e-009     
  -0.9            1.6005e-009     -5.0356e-007    -1.6325e-008   
  -0.95           -2.5905e-009    -1.2742e-006    -1.8012e-008   
  -1              1.6554e-009     -2.8058e-006    -1.8285e-008   
  -1.05           8.197e-010      -5.2872e-006    9.108e-009     
  -1.1            -2.5882e-009    -8.8978e-006    6.87e-009      
  -1.15           -1.778e-009     -1.3816e-005    2.0077e-008    
  -1.2            1.8529e-009     -2.0206e-005    -1.6839e-008   
  -1.25           -2.4319e-009    -2.7372e-005    8.45e-009      
  -1.3            2.1359e-009     -3.6127e-005    -1.6887e-008   
  -1.35           6.029e-010      -4.5488e-005    9.633e-009     
  -1.4            -2.592e-009     -5.5832e-005    5.334e-009     
  -1.45           1.6483e-009     -6.731e-005     -1.8258e-008   
  -1.5            8.22e-010       -7.9222e-005    9.125e-009     
  -1.55           -2.5962e-009    -9.1611e-005    6.875e-009     
  -1.6            2.6631e-009     -0.000105248    -1.135e-008    
  -1.65           5.834e-010      -0.00011872     1.5252e-008    
  -1.7            -2.5901e-009    -0.00013281     5.004e-009     
  -1.75           1.6812e-009     -0.00014769     -1.8683e-008   
  -1.8            8.084e-010      -0.00016249     9.382e-009     
END_DB

