! VERSION = 6.00
BEGIN_HEADER
 ICCAP_INPUTS
  VG         V  B GROUND SMU4 0.001 LIN        1    0          -1.8       37   -0.05     
  VS         V  E GROUND SMU2 0.1 CON        0
  VD         V  S GROUND SMU1 0.1 LIN        2    -0.1       -1.8       2    -1.7      
  VB         V  C GROUND SMU3 0.1 CON        0
 ICCAP_OUTPUTS
  IG         I  B GROUND SMU4 B
  ID         I  S GROUND SMU1 B
END_HEADER

BEGIN_DB
 ICCAP_VAR VS         0              
 ICCAP_VAR VD         -0.1           
 ICCAP_VAR VB         0              

 #VG              IG              ID             
  0               3.3682e-010     -2.3921e-010   
  -0.05           -5.532e-011     -2.3909e-010   
  -0.1            9.472e-011      -2.1565e-010   
  -0.15           -2.8214e-010    -1.08047e-009  
  -0.2            1.3251e-010     -3.408e-009    
  -0.25           1.6077e-010     -1.1782e-008   
  -0.3            -3.0978e-010    -4.1458e-008   
  -0.35           -3.501e-011     -1.4473e-007   
  -0.4            1.0139e-010     -5.0059e-007   
  -0.45           3.2162e-010     -1.6952e-006   
  -0.5            -3.2418e-010    -5.4897e-006   
  -0.55           -3.3954e-010    -1.6465e-005   
  -0.6            2.3899e-010     -4.4732e-005   
  -0.65           -2.0704e-010    -0.000106789   
  -0.7            -1.9052e-010    -0.0002205     
  -0.75           2.7493e-010     -0.00039322    
  -0.8            -2.3213e-010    -0.00061314    
  -0.85           2.028e-010      -0.00085464    
  -0.9            -2.8895e-010    -0.0010883     
  -0.95           -2.551e-010     -0.0012936     
  -1              2.1928e-010     -0.001464      
  -1.05           -1.8592e-010    -0.0016011     
  -1.1            2.6906e-010     -0.00171       
  -1.15           -2.2886e-010    -0.0017963     
  -1.2            1.9872e-010     -0.0018654     
  -1.25           -2.8309e-010    -0.0019216     
  -1.3            2.416e-010      -0.0019671     
  -1.35           -2.0853e-010    -0.0020051     
  -1.4            2.9778e-010     -0.0020366     
  -1.45           -3.3535e-010    -0.0020632     
  -1.5            2.7537e-010     -0.0020861     
  -1.55           -2.3434e-010    -0.0021058     
  -1.6            2.0325e-010     -0.0021227     
  -1.65           -2.9042e-010    -0.0021377     
  -1.7            2.4657e-010     -0.002151      
  -1.75           -2.1297e-010    -0.0021628     
  -1.8            1.7948e-010     -0.0021734     
END_DB

BEGIN_DB
 ICCAP_VAR VS         0              
 ICCAP_VAR VD         -1.8           
 ICCAP_VAR VB         0              

 #VG              IG              ID             
  0               2.4266e-010     -2.1203e-010   
  -0.05           -9.978e-011     -6.9979e-010   
  -0.1            1.5047e-010     -1.9359e-009   
  -0.15           -2.6155e-010    -6.6301e-009   
  -0.2            -3.3406e-010    -2.243e-008    
  -0.25           2.7946e-010     -7.6615e-008   
  -0.3            4.653e-011      -2.6081e-007   
  -0.35           -1.1148e-010    -8.7624e-007   
  -0.4            8.911e-011      -2.8497e-006   
  -0.45           -1.6401e-010    -8.8301e-006   
  -0.5            2.6318e-010     -2.546e-005    
  -0.55           -2.2429e-010    -6.6794e-005   
  -0.6            2.9006e-010     -0.00015647    
  -0.65           -2.4466e-010    -0.00032319    
  -0.7            4.4918e-010     -0.0008838     
  -0.75           1.1326e-009     -0.0011872     
  -0.8            1.7066e-009     -0.0015337     
  -0.85           2.3927e-009     -0.0019672     
  -0.9            2.7237e-009     -0.0024831     
  -0.95           2.5602e-009     -0.0030779     
  -1              2.0123e-009     -0.003741      
  -1.05           1.3244e-009     -0.0044656     
  -1.1            1.1352e-009     -0.0052407     
  -1.15           2.3917e-010     -0.0060619     
  -1.2            4.2749e-010     -0.0070205     
  -1.25           -1.575e-010     -0.0079065     
  -1.3            2.0465e-010     -0.0088178     
  -1.35           -2.6426e-010    -0.009749      
  -1.4            2.2944e-010     -0.0106971     
  -1.45           -2.7047e-010    -0.011608      
  -1.5            2.3195e-010     -0.012581      
  -1.55           -2.0006e-010    -0.013562      
  -1.6            2.8582e-010     -0.014556      
  -1.65           -2.4192e-010    -0.01555       
  -1.7            2.1019e-010     -0.016548      
  -1.75           -2.9907e-010    -0.01755       
  -1.8            2.5593e-010     -0.018554      
END_DB

