! VERSION = 6.00
BEGIN_HEADER
 ICCAP_INPUTS
  VG         V  B GROUND SMU4 0.001 LIN        1    0          -1.8       37   -0.05     
  VS         V  E GROUND SMU2 0.1 CON        0
  VB         V  C GROUND SMU3 0.1 LIN        3    0          1.8        3    0.9       
  VD         V  S GROUND SMU1 0.1 LIN        2    -0.1       -1.8       2    -1.7      
 ICCAP_OUTPUTS
  IG         I  B GROUND SMU4 B
  ID         I  S GROUND SMU1 B
  IB         I  C GROUND SMU3 B
END_HEADER

BEGIN_DB
 ICCAP_VAR VS         0              
 ICCAP_VAR VB         0              
 ICCAP_VAR VD         -0.1           

 #VG              IG              ID              IB             
  0               3.4e-012        2.504e-010      9.076e-009     
  -0.05           2.2086e-009     -6.466e-010     -1.8478e-008   
  -0.1            1.3398e-009     2.022e-009      -4.957e-009    
  -0.15           1.5117e-009     1.781e-009      1.2013e-008    
  -0.2            8.61e-011       2.0897e-009     1.0484e-008    
  -0.25           2.829e-010      2.1909e-009     1.0594e-008    
  -0.3            4.761e-010      2.2592e-009     1.0589e-008    
  -0.35           6.653e-010      2.3053e-009     1.0074e-008    
  -0.4            8.294e-010      2.2822e-009     9.459e-009     
  -0.45           -1.3199e-009    1.2939e-009     9.018e-009     
  -0.5            -2.6141e-009    -1.5461e-009    8.022e-009     
  -0.55           -2.4752e-009    -3.132e-009     5.02e-010      
  -0.6            -2.2503e-009    -8.1994e-009    9.76e-010      
  -0.65           2.8432e-009     -2.044e-008     2.315e-008     
  -0.7            2.6424e-009     -5.2828e-008    3.6e-011       
  -0.75           -9.286e-010     -1.2004e-007    1.2361e-008    
  -0.8            1.3572e-009     -2.3773e-007    -1.2434e-008   
  -0.85           2.837e-009      -4.2403e-007    -9.177e-009    
  -0.9            2.7008e-009     -6.9538e-007    2.18e-010      
  -0.95           1.4526e-009     -1.0635e-006    9.724e-009     
  -1              -2.6985e-009    -1.4925e-006    -2.6785e-008   
  -1.05           2.2089e-009     -1.9955e-006    -2.5709e-008   
  -1.1            1.5291e-009     -2.5317e-006    -4.869e-009    
  -1.15           2.7729e-009     -3.1148e-006    -8.614e-009    
  -1.2            8.699e-010      -3.6975e-006    9.836e-009     
  -1.25           1.242e-009      -4.3084e-006    9.199e-009     
  -1.3            6.49e-011       -4.8877e-006    1.0475e-008    
  -1.35           5.362e-010      -5.473e-006     1.0441e-008    
  -1.4            9.444e-010      -6.0402e-006    9.837e-009     
  -1.45           1.3297e-009     -6.5934e-006    9.26e-009      
  -1.5            1.759e-009      -7.1131e-006    1.173e-008     
  -1.55           6.221e-010      -7.5978e-006    1.0689e-008    
  -1.6            1.0123e-009     -8.08e-006      9.566e-009     
  -1.65           1.4096e-009     -8.5396e-006    1.0622e-008    
  -1.7            2.478e-010      -8.9589e-006    1.0463e-008    
  -1.75           7.068e-010      -9.3736e-006    1.0485e-008    
  -1.8            1.0811e-009     -9.7738e-006    9.268e-009     
END_DB

BEGIN_DB
 ICCAP_VAR VS         0              
 ICCAP_VAR VB         0              
 ICCAP_VAR VD         -1.8           

 #VG              IG              ID              IB             
  0               8.475e-010      8.332e-010      -1.3104e-008   
  -0.05           8.048e-010      2.3278e-009     -8.542e-009    
  -0.1            9.638e-010      2.3126e-009     9.045e-009     
  -0.15           1.1198e-009     2.2285e-009     1.0231e-008    
  -0.2            1.2784e-009     2.0702e-009     1.1308e-008    
  -0.25           1.4578e-009     1.8445e-009     1.1847e-008    
  -0.3            3.4e-011        2.0433e-009     1.061e-008     
  -0.35           2.272e-010      2.0817e-009     1.0518e-008    
  -0.4            4.252e-010      1.9561e-009     1.0534e-008    
  -0.45           -1.3865e-009    1.566e-010      9.766e-009     
  -0.5            -1.3593e-009    -3.5535e-009    8.949e-009     
  -0.55           -2.6733e-009    -1.1815e-008    -1.8817e-008   
  -0.6            2.5051e-009     -3.0955e-008    -2.7089e-008   
  -0.65           1.791e-009      -7.4427e-008    -2.595e-009    
  -0.7            2.3678e-009     -1.7395e-007    4.85e-010      
  -0.75           1.6679e-009     -3.5733e-007    -3.634e-009    
  -0.8            2.7175e-009     -6.9066e-007    -8.648e-009    
  -0.85           -1.3678e-009    -1.2126e-006    -1.1235e-008   
  -0.9            -1.2899e-009    -1.9844e-006    9.092e-009     
  -0.95           -2.1967e-009    -3.071e-006     1.0503e-008    
  -1              2.036e-010      -4.4904e-006    -1.2046e-008   
  -1.05           1.3652e-009     -6.1985e-006    -2.3694e-008   
  -1.1            2.8295e-009     -8.218e-006     -9.131e-009    
  -1.15           2.7094e-009     -1.05445e-005   2.49e-010      
  -1.2            -8.585e-010     -1.3091e-005    1.8432e-008    
  -1.25           1.4268e-009     -1.6026e-005    -1.3444e-008   
  -1.3            2.8069e-009     -1.9147e-005    -8.745e-009    
  -1.35           2.0714e-009     -2.2475e-005    1.2353e-008    
  -1.4            9.082e-010      -2.6022e-005    9.933e-009     
  -1.45           1.2888e-009     -2.9832e-005    9.056e-009     
  -1.5            1.7274e-009     -3.3725e-005    1.1547e-008    
  -1.55           5.876e-010      -3.766e-005     1.0706e-008    
  -1.6            9.862e-010      -4.19e-005      9.351e-009     
  -1.65           1.3801e-009     -4.6276e-005    1.0357e-008    
  -1.7            1.8126e-009     -5.0652e-005    1.2125e-008    
  -1.75           6.735e-010      -5.501e-005     1.0591e-008    
  -1.8            1.0576e-009     -5.9661e-005    9.152e-009     
END_DB

BEGIN_DB
 ICCAP_VAR VS         0              
 ICCAP_VAR VB         0.9            
 ICCAP_VAR VD         -0.1           

 #VG              IG              ID              IB             
  0               -1.1023e-009    -9.639e-010     -1.8917e-008   
  -0.05           1.3081e-009     -1.1782e-009    -2.6552e-008   
  -0.1            1.0952e-009     2.2415e-009     -9.732e-009    
  -0.15           1.2598e-009     2.0903e-009     1.1069e-008    
  -0.2            -1.691e-010     1.9787e-009     1.0431e-008    
  -0.25           -1.4941e-009    9.401e-010      2.5548e-008    
  -0.3            -1.7794e-009    -1.3742e-009    7.559e-009     
  -0.35           -4.427e-010     -2.1915e-009    -1.1141e-008   
  -0.4            2.378e-009      -1.4079e-009    -2.2946e-008   
  -0.45           1.2418e-009     2.1203e-009     -3.631e-009    
  -0.5            -1.908e-010     1.968e-009      1.0437e-008    
  -0.55           -1.5036e-009    9.12e-010       2.5134e-008    
  -0.6            -1.7679e-009    -1.4229e-009    7.391e-009     
  -0.65           -4.222e-010     -2.3543e-009    -1.1225e-008   
  -0.7            2.4057e-009     -2.1469e-009    -2.3306e-008   
  -0.75           2.1041e-009     -2.4213e-009    -3.327e-009    
  -0.8            -2.224e-009     -1.2346e-008    -2.4894e-008   
  -0.85           2.249e-010      -3.781e-008     -1.2556e-008   
  -0.9            1.3887e-009     -9.8105e-008    -2.2724e-008   
  -0.95           -1.4372e-009    -2.1806e-007    2.3271e-008    
  -1              2.105e-009      -4.3518e-007    -2.4439e-008   
  -1.05           1.4673e-009     -7.4755e-007    -6.225e-009    
  -1.1            2.6653e-009     -1.1496e-006    2.1348e-008    
  -1.15           1.7298e-009     -1.6496e-006    1.1871e-008    
  -1.2            5.941e-010      -2.1756e-006    1.0621e-008    
  -1.25           9.912e-010      -2.7646e-006    9.487e-009     
  -1.3            1.3859e-009     -3.3744e-006    1.0233e-008    
  -1.35           1.8283e-009     -3.9721e-006    1.2116e-008    
  -1.4            6.889e-010      -4.5539e-006    1.0792e-008    
  -1.45           1.072e-009      -5.1383e-006    9.382e-009     
  -1.5            1.4746e-009     -5.6912e-006    9.76e-009      
  -1.55           3.223e-010      -6.2104e-006    1.0513e-008    
  -1.6            7.752e-010      -6.7154e-006    1.0574e-008    
  -1.65           1.1463e-009     -7.2049e-006    8.974e-009     
  -1.7            1.568e-009      -7.6667e-006    1.1464e-008    
  -1.75           2.0085e-009     -8.0992e-006    1.2035e-008    
  -1.8            8.564e-010      -8.513e-006     1.0071e-008    
END_DB

BEGIN_DB
 ICCAP_VAR VS         0              
 ICCAP_VAR VB         0.9            
 ICCAP_VAR VD         -1.8           

 #VG              IG              ID              IB             
  0               -8.487e-010     -8.676e-010     -2.6101e-008   
  -0.05           -1.0616e-009    -2.1607e-009    8.336e-009     
  -0.1            1.4304e-009     -1.7525e-009    -1.1724e-008   
  -0.15           9.41e-010       2.3254e-009     -8.896e-009    
  -0.2            1.0924e-009     2.2463e-009     9.107e-009     
  -0.25           1.2597e-009     2.0817e-009     9.961e-009     
  -0.3            -1.673e-010     1.9791e-009     1.0669e-008    
  -0.35           -1.4834e-009    9.416e-010      2.6058e-008    
  -0.4            -1.7886e-009    -1.3551e-009    7.616e-009     
  -0.45           -4.689e-010     -2.1955e-009    -1.1013e-008   
  -0.5            2.3349e-009     -1.4328e-009    -2.2004e-008   
  -0.55           3.027e-010      2.1041e-009     -3.718e-009    
  -0.6            4.98e-010       1.9166e-009     1.0245e-008    
  -0.65           -2.5137e-009    -2.3219e-009    9.625e-009     
  -0.7            -2.3023e-009    -6.5271e-009    6.52e-010      
  -0.75           -1.4727e-009    -2.1243e-008    -1.2462e-008   
  -0.8            -1.3661e-009    -6.2972e-008    7.827e-009     
  -0.85           1.3608e-009     -1.6913e-007    -2.1912e-008   
  -0.9            1.8058e-009     -3.982e-007     1.1895e-008    
  -0.95           6.756e-010      -8.1632e-007    1.0598e-008    
  -1              -1.3775e-009    -1.4846e-006    -1.0982e-008   
  -1.05           -1.298e-009     -2.4431e-006    9.26e-009      
  -1.1            -2.2433e-009    -3.7417e-006    9.685e-009     
  -1.15           2.263e-010      -5.457e-006     -1.2566e-008   
  -1.2            1.3971e-009     -7.4156e-006    -2.3332e-008   
  -1.25           2.8282e-009     -9.661e-006     -9.095e-009    
  -1.3            -2.6903e-009    -1.2192e-005    9.773e-009     
  -1.35           2.0266e-009     -1.5065e-005    -2.3245e-008   
  -1.4            1.4321e-009     -1.8193e-005    -6.579e-009    
  -1.45           2.8134e-009     -2.1479e-005    -8.896e-009    
  -1.5            2.0837e-009     -2.4967e-005    1.2352e-008    
  -1.55           9.214e-010      -2.8645e-005    9.908e-009     
  -1.6            1.3019e-009     -3.2561e-005    9.109e-009     
  -1.65           1.7443e-009     -3.6539e-005    1.1561e-008    
  -1.7            6.142e-010      -4.0559e-005    1.0651e-008    
  -1.75           1.0156e-009     -4.4866e-005    9.565e-009     
  -1.8            1.4079e-009     -4.9206e-005    9.419e-009     
END_DB

BEGIN_DB
 ICCAP_VAR VS         0              
 ICCAP_VAR VB         1.8            
 ICCAP_VAR VD         -0.1           

 #VG              IG              ID              IB             
  0               -1.3706e-009    -1.2751e-009    1.0516e-008    
  -0.05           -3.088e-010     -2.1535e-009    -1.1033e-008   
  -0.1            2.5211e-009     -1.3119e-009    -2.4719e-008   
  -0.15           1.1356e-009     2.2132e-009     -2.434e-009    
  -0.2            1.3019e-009     2.0315e-009     1.1311e-008    
  -0.25           1.4882e-009     1.7961e-009     1.1637e-008    
  -0.3            6.26e-011       2.0691e-009     1.0478e-008    
  -0.35           2.659e-010      2.174e-009      1.0452e-008    
  -0.4            4.675e-010      2.2498e-009     1.0327e-008    
  -0.45           6.639e-010      2.3174e-009     9.565e-009     
  -0.5            8.415e-010      2.3325e-009     9.515e-009     
  -0.55           1.0028e-009     2.2945e-009     8.932e-009     
  -0.6            1.1556e-009     2.1824e-009     9.441e-009     
  -0.65           1.3305e-009     1.9968e-009     1.0325e-008    
  -0.7            -1.4271e-009    1.8597e-009     1.1488e-008    
  -0.75           -1.8631e-009    -1.3905e-009    8.431e-009     
  -0.8            1.6214e-009     -2.2372e-009    -1.2955e-008   
  -0.85           1.4205e-009     -2.2223e-009    -8.625e-009    
  -0.9            -2.1901e-009    -1.1725e-008    -2.4264e-008   
  -0.95           2.028e-010      -3.9507e-008    -1.2362e-008   
  -1              1.3789e-009     -1.10566e-007   -2.3694e-008   
  -1.05           -1.47e-009      -2.5271e-007    2.4313e-008    
  -1.1            2.0139e-009     -5.073e-007     -2.3147e-008   
  -1.15           1.4302e-009     -8.5317e-007    -6.831e-009    
  -1.2            2.8029e-009     -1.2959e-006    2.6333e-008    
  -1.25           2.0509e-009     -1.818e-006     1.1612e-008    
  -1.3            8.962e-010      -2.3826e-006    9.663e-009     
  -1.35           1.2711e-009     -2.9847e-006    9.438e-009     
  -1.4            1.7169e-009     -3.5831e-006    1.1461e-008    
  -1.45           5.822e-010      -4.1596e-006    1.0517e-008    
  -1.5            9.843e-010      -4.7417e-006    9.427e-009     
  -1.55           1.3791e-009     -5.2984e-006    1.027e-008     
  -1.6            1.827e-009      -5.8215e-006    1.1848e-008    
  -1.65           6.919e-010      -6.3151e-006    1.0716e-008    
  -1.7            1.0776e-009     -6.7967e-006    9.352e-009     
  -1.75           1.4926e-009     -7.2628e-006    9.943e-009     
  -1.8            3.35e-010       -7.6732e-006    1.0528e-008    
END_DB

BEGIN_DB
 ICCAP_VAR VS         0              
 ICCAP_VAR VB         1.8            
 ICCAP_VAR VD         -1.8           

 #VG              IG              ID              IB             
  0               8.239e-010      8.031e-010      2.5558e-008    
  -0.05           8.566e-010      2.3325e-009     -8.738e-009    
  -0.1            1.014e-009      2.2864e-009     9.118e-009     
  -0.15           1.1685e-009     2.1625e-009     1.058e-008     
  -0.2            -2.405e-010     1.9418e-009     1.0638e-008    
  -0.25           -1.5369e-009    8.889e-010      2.4913e-008    
  -0.3            -1.7301e-009    -1.4148e-009    6.909e-009     
  -0.35           -3.822e-010     -2.1674e-009    -1.1144e-008   
  -0.4            2.4266e-009     -1.3639e-009    -2.3326e-008   
  -0.45           1.195e-009      2.1553e-009     -2.972e-009    
  -0.5            -2.208e-010     1.9521e-009     1.0703e-008    
  -0.55           -1.5185e-009    9.008e-010      2.5464e-008    
  -0.6            -1.748e-009     -1.4095e-009    7.13e-009      
  -0.65           -4.08e-010      -2.2433e-009    -1.1172e-008   
  -0.7            2.3932e-009     -1.7153e-009    -2.2758e-008   
  -0.75           2.066e-009      -8.749e-010     -3.261e-009    
  -0.8            1.7769e-009     -6.0915e-009    -5.95e-009     
  -0.85           -2.5384e-009    -2.6165e-008    -2.6384e-008   
  -0.9            -1.9735e-009    -8.4556e-008    5.45e-010      
  -0.95           1.8757e-009     -2.3517e-007    -2.6412e-008   
  -1              7.403e-010      -5.4809e-007    1.0322e-008    
  -1.05           1.1216e-009     -1.11456e-006   9.109e-009     
  -1.1            -2.6963e-009    -1.9322e-006    -2.6816e-008   
  -1.15           2.071e-009      -3.1441e-006    -2.3676e-008   
  -1.2            1.4528e-009     -4.6288e-006    -6.308e-009    
  -1.25           2.799e-009      -6.4824e-006    -8.647e-009    
  -1.3            2.0582e-009     -8.6421e-006    1.1747e-008    
  -1.35           9.032e-010      -1.10976e-005   9.656e-009     
  -1.4            -1.8157e-009    -1.3794e-005    1.8095e-008    
  -1.45           -7.928e-010     -1.68e-005      -1.0841e-008   
  -1.5            1.5046e-009     -2.0063e-005    -1.4842e-008   
  -1.55           2.7844e-009     -2.3475e-005    -8.63e-009     
  -1.6            2.0184e-009     -2.7068e-005    1.2254e-008    
  -1.65           8.682e-010      -3.082e-005     1.0143e-008    
  -1.7            1.2475e-009     -3.4749e-005    8.928e-009     
  -1.75           8.04e-011       -3.8714e-005    1.0735e-008    
  -1.8            5.616e-010      -4.2841e-005    1.0489e-008    
END_DB

