! VERSION = 6.00
BEGIN_HEADER
 ICCAP_INPUTS
  VG         V  B GROUND SMU4 0.001 LIN        2    0          -1.8       6    -0.36     
  VS         V  E GROUND SMU2 0.1 CON        0
  VD         V  S GROUND SMU1 0.1 LIN        1    0          -1.8       37   -0.05     
  VB         V  C GROUND SMU3 0.1 LIN        3    0          0.9        2    0.9       
 ICCAP_OUTPUTS
  ID         I  S GROUND SMU1 B
  IB         I  C GROUND SMU3 B
  IG         I  B GROUND SMU4 B
END_HEADER

BEGIN_DB
 ICCAP_VAR VG         0              
 ICCAP_VAR VS         0              
 ICCAP_VAR VB         0              

 #VD              ID              IB              IG             
  0               -1.0349e-009    9.894e-009      -1.2024e-009   
  -0.05           -1.8266e-009    -9.436e-009     9.66e-011      
  -0.1            6.6e-012        -1.3213e-008    1.1565e-009    
  -0.15           -1.516e-010     -1.5304e-008    1.7328e-009    
  -0.2            9.266e-010      -1.062e-009     1.8799e-009    
  -0.25           1.0426e-009     9.539e-009      -1.2367e-009   
  -0.3            -1.305e-009     4.356e-009      -1.2265e-009   
  -0.35           -1.7747e-009    -9.101e-009     1.907e-010     
  -0.4            9.826e-010      -1.2281e-008    2.0759e-009    
  -0.45           1.2284e-009     1.2132e-008     -1.2305e-009   
  -0.5            -1.1089e-009    1.02e-008       -1.4197e-009   
  -0.55           9.271e-010      -1.0092e-008    1.8827e-009    
  -0.6            1.0411e-009     9.48e-009       -1.2364e-009   
  -0.65           -1.3032e-009    4.586e-009      -1.2261e-009   
  -0.7            -1.7846e-009    -9.149e-009     1.974e-010     
  -0.75           9.838e-010      -1.224e-008     2.051e-009     
  -0.8            1.2423e-009     1.209e-008      -1.2316e-009   
  -0.85           -1.1073e-009    1.0317e-008     -1.4167e-009   
  -0.9            9.273e-010      -1.0238e-008    1.89e-009      
  -0.95           1.0417e-009     9.531e-009      -1.2369e-009   
  -1              -1.3021e-009    4.591e-009      -1.231e-009    
  -1.05           -1.7805e-009    -9.174e-009     1.879e-010     
  -1.1            9.838e-010      -1.2436e-008    2.074e-009     
  -1.15           1.2404e-009     1.2026e-008     -1.2292e-009   
  -1.2            -1.1099e-009    1.0088e-008     -1.4191e-009   
  -1.25           9.285e-010      -1.0157e-008    1.8866e-009    
  -1.3            1.0452e-009     9.593e-009      -1.2361e-009   
  -1.35           -1.2964e-009    4.726e-009      -1.2329e-009   
  -1.4            -1.7864e-009    -9.159e-009     1.865e-010     
  -1.45           9.826e-010      -1.2334e-008    2.0771e-009    
  -1.5            1.2382e-009     1.2068e-008     -1.2306e-009   
  -1.55           -1.108e-009     1.0274e-008     -1.4283e-009   
  -1.6            9.287e-010      -1.0106e-008    1.8827e-009    
  -1.65           1.0452e-009     9.653e-009      -1.2365e-009   
  -1.7            -1.2937e-009    4.699e-009      -1.2368e-009   
  -1.75           -1.7861e-009    -9.223e-009     1.84e-010      
  -1.8            9.857e-010      -1.2426e-008    2.0677e-009    
END_DB

BEGIN_DB
 ICCAP_VAR VG         -0.36          
 ICCAP_VAR VS         0              
 ICCAP_VAR VB         0              

 #VD              ID              IB              IG             
  0               -9.875e-010     -1.5799e-008    -1.1632e-009   
  -0.05           9.712e-010      -1.1813e-008    2.0441e-009    
  -0.1            1.2013e-009     1.0496e-008     -1.2341e-009   
  -0.15           -1.1289e-009    9.034e-009      -1.3882e-009   
  -0.2            -1.1733e-009    -1.1023e-008    1.1373e-009    
  -0.25           9.814e-010      -1.2172e-008    2.0566e-009    
  -0.3            1.2289e-009     1.1971e-008     -1.2346e-009   
  -0.35           -1.1121e-009    9.797e-009      -1.4103e-009   
  -0.4            9.281e-010      -9.952e-009     1.8769e-009    
  -0.45           1.036e-009      9.435e-009      -1.2396e-009   
  -0.5            -1.3057e-009    4.602e-009      -1.2236e-009   
  -0.55           -1.7845e-009    -9.139e-009     1.884e-010     
  -0.6            9.833e-010      -1.2241e-008    2.0643e-009    
  -0.65           1.2366e-009     1.209e-008      -1.233e-009    
  -0.7            -1.1074e-009    1.0193e-008     -1.4171e-009   
  -0.75           9.307e-010      -1.0166e-008    1.8865e-009    
  -0.8            1.0436e-009     9.511e-009      -1.2391e-009   
  -0.85           -1.2926e-009    4.677e-009      -1.2219e-009   
  -0.9            -1.7594e-009    -9.254e-009     1.503e-010     
  -0.95           9.884e-010      -1.2381e-008    2.0738e-009    
  -1              1.2463e-009     1.2031e-008     -1.2316e-009   
  -1.05           -1.1046e-009    1.0497e-008     -1.422e-009    
  -1.1            9.312e-010      -1.0165e-008    1.8927e-009    
  -1.15           1.0594e-009     9.658e-009      -1.2388e-009   
  -1.2            -1.2768e-009    4.785e-009      -1.2469e-009   
  -1.25           -1.0771e-009    -1.4975e-008    1.1007e-009    
  -1.3            9.405e-010      -1.0785e-008    1.9164e-009    
  -1.35           1.0845e-009     9.099e-009      -1.2407e-009   
  -1.4            -1.2476e-009    5.6e-009        -1.2793e-009   
  -1.45           -1.8145e-009    -9.443e-009     1.192e-010     
  -1.5            4.2e-011        -1.2955e-008    1.1555e-009    
  -1.55           -1.347e-010     -1.5156e-008    1.7696e-009    
  -1.6            9.234e-010      -6.17e-010      1.867e-009     
  -1.65           1.0239e-009     9.328e-009      -1.24e-009     
  -1.7            -1.3191e-009    3.98e-009       -1.2046e-009   
  -1.75           -1.7744e-009    -9.091e-009     2.12e-010      
  -1.8            -1.8629e-009    -9.573e-009     1.36e-011      
END_DB

BEGIN_DB
 ICCAP_VAR VG         -0.72          
 ICCAP_VAR VS         0              
 ICCAP_VAR VB         0              

 #VD              ID              IB              IG             
  0               -1.0353e-009    1.207e-008      -1.2009e-009   
  -0.05           -3.4257e-009    -9.338e-009     1.179e-010     
  -0.1            -1.9129e-009    -1.2917e-008    1.1524e-009    
  -0.15           -2.1494e-009    -1.4948e-008    1.7547e-009    
  -0.2            -1.0112e-009    -6.66e-010      1.4819e-009    
  -0.25           -1.0713e-009    -3.31e-009      1.2624e-009    
  -0.3            -1.1695e-009    -3.229e-009     1.1226e-009    
  -0.35           -1.2783e-009    -3.42e-009      1.0672e-009    
  -0.4            -1.4054e-009    -4.386e-009     1.0641e-009    
  -0.45           -1.5289e-009    -6.84e-009      1.0888e-009    
  -0.5            -1.6741e-009    -9.809e-009     1.1198e-009    
  -0.55           -1.8375e-009    -1.1296e-008    1.1465e-009    
  -0.6            -1.9988e-009    -1.2671e-008    1.1533e-009    
  -0.65           -2.1828e-009    -1.48e-008      1.7703e-009    
  -0.7            -1.055e-009     -5.55e-010      1.4872e-009    
  -0.75           -1.122e-009     -3.21e-009      1.2669e-009    
  -0.8            -1.2013e-009    -3.116e-009     1.1268e-009    
  -0.85           -1.3122e-009    -3.202e-009     1.0666e-009    
  -0.9            -1.4314e-009    -4.343e-009     1.0626e-009    
  -0.95           -1.5538e-009    -6.659e-009     1.0874e-009    
  -1              -1.7065e-009    -9.841e-009     1.1179e-009    
  -1.05           -1.8621e-009    -1.1257e-008    1.1412e-009    
  -1.1            -2.0283e-009    -1.2595e-008    1.152e-009     
  -1.15           -2.1933e-009    -1.4846e-008    1.76e-009      
  -1.2            -1.0742e-009    3.78e-010       1.4876e-009    
  -1.25           -1.1452e-009    -3.262e-009     1.2773e-009    
  -1.3            -1.2282e-009    -3.175e-009     1.132e-009     
  -1.35           -1.3256e-009    -3.299e-009     1.0703e-009    
  -1.4            -1.45e-009      -4.295e-009     1.0628e-009    
  -1.45           -1.5774e-009    -6.573e-009     1.0867e-009    
  -1.5            -1.711e-009     -9.515e-009     1.1165e-009    
  -1.55           -1.8721e-009    -1.1086e-008    1.1428e-009    
  -1.6            -2.0451e-009    -1.2499e-008    1.1518e-009    
  -1.65           -2.2158e-009    -1.4592e-008    1.1452e-009    
  -1.7            -2.3327e-009    -1.7379e-008    1.5361e-009    
  -1.75           -9.252e-010     1.5114e-008     1.2591e-009    
  -1.8            -2.2585e-009    8.325e-009      -1.2379e-009   
END_DB

BEGIN_DB
 ICCAP_VAR VG         -1.08          
 ICCAP_VAR VS         0              
 ICCAP_VAR VB         0              

 #VD              ID              IB              IG             
  0               -2.851e-010     2.486e-009      1.9944e-009    
  -0.05           -3.9491e-007    -2.1617e-008    8.952e-010     
  -0.1            -6.5056e-007    -8.944e-009     1.1431e-009    
  -0.15           -7.9727e-007    -1.0565e-008    1.1542e-009    
  -0.2            -8.7474e-007    -1.148e-008     1.154e-009     
  -0.25           -9.1432e-007    -1.2783e-008    1.626e-009     
  -0.3            -9.3054e-007    -8.832e-009     -1.49e-011     
  -0.35           -9.3425e-007    1.2762e-008     -1.4547e-009   
  -0.4            -9.4222e-007    8.211e-009      2.737e-010     
  -0.45           -9.5638e-007    -1.7812e-008    1.2225e-009    
  -0.5            -9.5748e-007    -1.0062e-008    1.1503e-009    
  -0.55           -9.5905e-007    -1.1e-008       1.1551e-009    
  -0.6            -9.6123e-007    -1.2159e-008    1.7157e-009    
  -0.65           -9.6524e-007    -1.5481e-008    1.3547e-009    
  -0.7            -9.6037e-007    -9.385e-009     -2.236e-010    
  -0.75           -9.636e-007     6.89e-010       -1.2551e-009   
  -0.8            -9.7411e-007    8.632e-009      5.625e-010     
  -0.85           -9.7756e-007    -4.207e-009     1.0911e-009    
  -0.9            -9.8103e-007    -1.7617e-008    1.238e-009     
  -0.95           -9.8406e-007    -1.0708e-008    1.1502e-009    
  -1              -9.8259e-007    -1.1803e-008    1.1435e-009    
  -1.05           -9.7931e-007    -1.3385e-008    1.5685e-009    
  -1.1            -9.8201e-007    -1.741e-008     1.2454e-009    
  -1.15           -9.8207e-007    -9.859e-009     1.1481e-009    
  -1.2            -9.7517e-007    -9.685e-009     -3.324e-010    
  -1.25           -9.7457e-007    1.991e-009      -1.2475e-009   
  -1.3            -9.8557e-007    8.612e-009      6.702e-010     
  -1.35           -9.8844e-007    -5.464e-009     1.1119e-009    
  -1.4            -9.8988e-007    -7.888e-009     1.1329e-009    
  -1.45           -9.9336e-007    -1.0516e-008    1.151e-009     
  -1.5            -9.9183e-007    -1.1918e-008    1.7503e-009    
  -1.55           -1.001e-006     -1.5296e-008    1.3843e-009    
  -1.6            -1.00171e-006   -7.851e-009     1.1319e-009    
  -1.65           -1.00571e-006   -1.0694e-008    1.1481e-009    
  -1.7            -1.00337e-006   -1.193e-008     1.7528e-009    
  -1.75           -1.00618e-006   -1.4932e-008    1.3974e-009    
  -1.8            -1.00877e-006   -1.28e-008      1.1461e-009    
END_DB

BEGIN_DB
 ICCAP_VAR VG         -1.44          
 ICCAP_VAR VS         0              
 ICCAP_VAR VB         0              

 #VD              ID              IB              IG             
  0               -1.6222e-009    -1.4821e-008    -2.3868e-009   
  -0.05           -1.4668e-006    8.003e-009      1.0572e-009    
  -0.1            -2.75e-006      -1.2736e-008    1.6981e-009    
  -0.15           -3.847e-006     -1.4346e-008    1.4814e-009    
  -0.2            -4.7658e-006    -1.6052e-008    1.2918e-009    
  -0.25           -5.5182e-006    -1.3869e-008    1.1463e-009    
  -0.3            -6.1122e-006    -1.1136e-008    1.1519e-009    
  -0.35           -6.5409e-006    -9.819e-009     -3.186e-010    
  -0.4            -6.8599e-006    7.56e-010       -1.2483e-009   
  -0.45           -7.1139e-006    8.822e-009      4.806e-010     
  -0.5            -7.2813e-006    -3.17e-009      1.0558e-009    
  -0.55           -7.3953e-006    -1.2643e-008    1.7106e-009    
  -0.6            -7.4772e-006    -1.424e-008     1.4923e-009    
  -0.65           -7.537e-006     -1.6246e-008    1.3016e-009    
  -0.7            -7.5798e-006    -7.034e-009     1.1327e-009    
  -0.75           -7.6165e-006    -7.484e-009     1.1368e-009    
  -0.8            -7.6436e-006    -1.2697e-008    1.1498e-009    
  -0.85           -7.6701e-006    -1.0424e-008    1.1528e-009    
  -0.9            -7.6592e-006    -9.712e-009     -3.652e-010    
  -0.95           -7.6693e-006    1.339e-009      -1.245e-009    
  -1              -7.715e-006     8.734e-009      5.134e-010     
  -1.05           -7.7355e-006    -3.258e-009     1.0588e-009    
  -1.1            -7.7507e-006    -1.3187e-008    1.6279e-009    
  -1.15           -7.7682e-006    -1.4974e-008    1.4149e-009    
  -1.2            -7.7678e-006    -9.016e-009     -5.06e-011     
  -1.25           -7.7602e-006    1.0813e-008     -1.5497e-009   
  -1.3            -7.7952e-006    1.4787e-008     1.4724e-009    
  -1.35           -7.8259e-006    -1.0378e-008    1.1582e-009    
  -1.4            -7.8334e-006    -1.1483e-008    1.1554e-009    
  -1.45           -7.8404e-006    -1.1554e-008    1.1568e-009    
  -1.5            -7.8503e-006    -1.185e-008     1.1533e-009    
  -1.55           -7.8556e-006    -1.2007e-008    1.8125e-009    
  -1.6            -7.8653e-006    -1.3617e-008    1.5947e-009    
  -1.65           -7.8786e-006    -1.5466e-008    1.3854e-009    
  -1.7            -7.8755e-006    -9.077e-009     -8.65e-011     
  -1.75           -7.8644e-006    1.1592e-008     -1.5227e-009   
  -1.8            -7.895e-006     1.492e-008      1.4984e-009    
END_DB

BEGIN_DB
 ICCAP_VAR VG         -1.8           
 ICCAP_VAR VS         0              
 ICCAP_VAR VB         0              

 #VD              ID              IB              IG             
  0               -1.5836e-009    -4.442e-009     7.953e-010     
  -0.05           -2.4561e-006    -1.8019e-008    -2.244e-009    
  -0.1            -4.7517e-006    8.553e-009      2.542e-010     
  -0.15           -6.8904e-006    -1.5738e-008    1.3372e-009    
  -0.2            -8.8575e-006    -6.345e-009     1.1261e-009    
  -0.25           -1.06574e-005   -6.843e-009     1.1292e-009    
  -0.3            -1.2291e-005    -1.5421e-008    1.3747e-009    
  -0.35           -1.3757e-005    -1.6356e-008    1.2813e-009    
  -0.4            -1.5024e-005    -9.327e-009     -4.784e-010    
  -0.45           -1.6147e-005    2.788e-009      -1.2388e-009   
  -0.5            -1.716e-005     1.3864e-008     1.3415e-009    
  -0.55           -1.7987e-005    -1.5802e-008    1.3144e-009    
  -0.6            -1.8632e-005    -9.29e-009      -4.468e-010    
  -0.65           -1.9174e-005    2.984e-009      -1.2382e-009   
  -0.7            -1.9667e-005    1.3608e-008     1.3063e-009    
  -0.75           -2.0022e-005    -1.5368e-008    1.3514e-009    
  -0.8            -2.0259e-005    -9.41e-009      -4.171e-010    
  -0.85           -2.0463e-005    3.008e-009      -1.2372e-009   
  -0.9            -2.0694e-005    1.3229e-008     1.2719e-009    
  -0.95           -2.0824e-005    -1.4909e-008    1.3941e-009    
  -1              -2.0897e-005    -9.455e-009     -3.913e-010    
  -1.05           -2.0977e-005    2.9e-009        -1.2389e-009   
  -1.1            -2.1125e-005    1.2961e-008     1.2319e-009    
  -1.15           -2.1191e-005    -1.4566e-008    1.4446e-009    
  -1.2            -2.1254e-005    -1.0421e-008    1.1488e-009    
  -1.25           -2.1309e-005    -1.3854e-008    1.5271e-009    
  -1.3            -2.1359e-005    -1.0553e-008    1.1482e-009    
  -1.35           -2.1395e-005    -1.4566e-008    1.4513e-009    
  -1.4            -2.145e-005     -1.0382e-008    1.1512e-009    
  -1.45           -2.1496e-005    -1.3693e-008    1.5342e-009    
  -1.5            -2.1535e-005    -9.789e-009     1.1485e-009    
  -1.55           -2.156e-005     -1.2978e-008    1.6275e-009    
  -1.6            -2.1598e-005    -1.1478e-008    1.1492e-009    
  -1.65           -2.1634e-005    -1.3693e-008    1.5422e-009    
  -1.7            -2.1682e-005    -1.0746e-008    1.149e-009     
  -1.75           -2.1696e-005    -1.4365e-008    1.4563e-009    
  -1.8            -2.1737e-005    -1.0306e-008    1.1488e-009    
END_DB

BEGIN_DB
 ICCAP_VAR VG         0              
 ICCAP_VAR VS         0              
 ICCAP_VAR VB         0.9            

 #VD              ID              IB              IG             
  0               -1.0405e-009    8.523e-009      -1.2362e-009   
  -0.05           -1.88e-011      -1.3184e-008    1.1541e-009    
  -0.1            -1.615e-010     -1.5554e-008    1.6883e-009    
  -0.15           9.321e-010      -1.416e-009     1.8913e-009    
  -0.2            1.0449e-009     9.599e-009      -1.238e-009    
  -0.25           -1.2856e-009    4.511e-009      -1.2268e-009   
  -0.3            -1.7764e-009    -9.039e-009     1.953e-010     
  -0.35           9.791e-010      -1.1956e-008    2.0554e-009    
  -0.4            1.2235e-009     1.1862e-008     -1.2295e-009   
  -0.45           -1.118e-009     9.613e-009      -1.4029e-009   
  -0.5            -1.1784e-009    -1.0819e-008    1.1315e-009    
  -0.55           9.793e-010      -1.1935e-008    2.0603e-009    
  -0.6            1.2296e-009     1.1743e-008     -1.2287e-009   
  -0.65           -1.1176e-009    9.583e-009      -1.4057e-009   
  -0.7            9.242e-010      -9.674e-009     1.8626e-009    
  -0.75           1.0149e-009     9.239e-009      -1.2332e-009   
  -0.8            -1.3195e-009    3.675e-009      -1.1933e-009   
  -0.85           -1.7554e-009    -8.823e-009     2.38e-010      
  -0.9            -1.847e-009     -9.442e-009     4.37e-011      
  -0.95           -3.61e-011      -1.3478e-008    1.1538e-009    
  -1              -1.627e-010     -1.6075e-008    1.653e-009     
  -1.05           1.2118e-009     1.4062e-008     1.1423e-009    
  -1.1            1.0601e-009     1.5153e-008     1.3317e-009    
  -1.15           1.757e-009      8.706e-009      8.73e-011      
  -1.2            1.814e-009      9.048e-009      2.612e-010     
  -1.25           7.822e-010      8.789e-009      -1.2402e-009   
  -1.3            -1.593e-009     2.19e-009       -9.049e-010    
  -1.35           -1.4e-012       -1.3134e-008    1.1525e-009    
  -1.4            -1.524e-010     -1.5633e-008    1.7009e-009    
  -1.45           1.2403e-009     1.394e-008      1.1154e-009    
  -1.5            1.0759e-009     1.493e-008      1.3078e-009    
  -1.55           1.7269e-009     8.422e-009      8.65e-011      
  -1.6            1.7976e-009     8.76e-009       2.433e-010     
  -1.65           7.561e-010      8.687e-009      -1.2387e-009   
  -1.7            -1.62e-009      2.3e-009        -8.722e-010    
  -1.75           2.25e-011       -1.2683e-008    1.1533e-009    
  -1.8            -1.321e-010     -1.5494e-008    1.7356e-009    
END_DB

BEGIN_DB
 ICCAP_VAR VG         -0.36          
 ICCAP_VAR VS         0              
 ICCAP_VAR VB         0.9            

 #VD              ID              IB              IG             
  0               1.0647e-009     6.14e-010       1.0554e-009    
  -0.05           1.2287e-009     1.195e-008      -1.233e-009    
  -0.1            -1.1241e-009    9.394e-009      -1.399e-009    
  -0.15           9.19e-010       -9.564e-009     1.8472e-009    
  -0.2            9.893e-010      8.916e-009      -1.2364e-009   
  -0.25           -1.3856e-009    3.255e-009      -1.1488e-009   
  -0.3            -1.824e-010     -1.5725e-008    1.6612e-009    
  -0.35           1.2167e-009     1.4522e-008     1.161e-009     
  -0.4            1.0626e-009     1.5895e-008     1.3361e-009    
  -0.45           1.7336e-009     8.83e-009       1.035e-010     
  -0.5            1.793e-009      9.071e-009      2.574e-010     
  -0.55           7.615e-010      8.701e-009      -1.2397e-009   
