! VERSION = 6.00
BEGIN_HEADER
 ICCAP_INPUTS
  VG         V  B GROUND SMU4 0.001 LIN        1    0          -1.8       37   -0.05     
  VS         V  E GROUND SMU2 0.1 CON        0
  VB         V  C GROUND SMU3 0.1 LIN        3    0          1.8        3    0.9       
  VD         V  S GROUND SMU1 0.1 LIN        2    -0.1       -1.8       2    -1.7      
 ICCAP_OUTPUTS
  IG         I  B GROUND SMU4 B
  ID         I  S GROUND SMU1 B
  IB         I  C GROUND SMU3 B
END_HEADER

BEGIN_DB
 ICCAP_VAR VS         0              
 ICCAP_VAR VB         0              
 ICCAP_VAR VD         -0.1           

 #VG              IG              ID              IB             
  0               3.604e-010      6.442e-010      -1.0197e-008   
  -0.05           1.6843e-009     -1.776e-010     -1.5713e-008   
  -0.1            1.166e-009      1.247e-009      1.4478e-008    
  -0.15           1.3427e-009     1.096e-009      1.5715e-008    
  -0.2            9.14e-011       1.7558e-009     8.542e-009     
  -0.25           2.371e-010      1.828e-009      8.689e-009     
  -0.3            -1.2603e-009    7.529e-010      8.437e-009     
  -0.35           -1.6589e-009    -1.0814e-009    2.35e-009      
  -0.4            1.1644e-009     5.63e-011       -1.1975e-008   
  -0.45           1.1649e-009     -1.036e-010     -1.4327e-008   
  -0.5            1.6332e-009     -2.14e-010      -1.6496e-008   
  -0.55           1.2014e-009     1.1808e-009     1.4233e-008    
  -0.6            -3.28e-011      1.568e-009      7.958e-009     
  -0.65           -1.2871e-009    2.62e-011       8.858e-009     
  -0.7            -1.267e-009     -2.5276e-009    2.674e-009     
  -0.75           -1.2609e-009    -8.0816e-009    3.032e-009     
  -0.8            1.1659e-009     -2.6242e-008    8.35e-009      
  -0.85           1.2738e-009     -7.7933e-008    -1.7169e-008   
  -0.9            -7.443e-010     -1.8717e-007    1.4899e-008    
  -0.95           1.1652e-009     -3.9017e-007    -1.1514e-008   
  -1              1.3032e-009     -6.9663e-007    -1.6627e-008   
  -1.05           1.0727e-009     -1.10093e-006   -3.187e-009    
  -1.1            1.204e-009      -1.6009e-006    2.773e-009     
  -1.15           1.924e-010      -2.1579e-006    7.878e-009     
  -1.2            4.985e-010      -2.7843e-006    8.582e-009     
  -1.25           8.104e-010      -3.4406e-006    9.567e-009     
  -1.3            1.258e-009      -4.103e-006     1.3204e-008    
  -1.35           2.431e-010      -4.7549e-006    8.211e-009     
  -1.4            5.188e-010      -5.4264e-006    8.447e-009     
  -1.45           8.663e-010      -6.0811e-006    9.928e-009     
  -1.5            1.3108e-009     -6.712e-006     1.365e-008     
  -1.55           2.771e-010      -7.3195e-006    8.416e-009     
  -1.6            5.454e-010      -7.9291e-006    8.373e-009     
  -1.65           9.128e-010      -8.5163e-006    1.0454e-008    
  -1.7            1.36e-009       -9.0765e-006    1.3875e-008    
  -1.75           3.11e-010       -9.6138e-006    8.597e-009     
  -1.8            5.975e-010      -1.01501e-005   8.31e-009      
END_DB

BEGIN_DB
 ICCAP_VAR VS         0              
 ICCAP_VAR VB         0              
 ICCAP_VAR VD         -1.8           

 #VG              IG              ID              IB             
  0               -1.2078e-009    -1.0409e-009    -1.3311e-008   
  -0.05           1.836e-009      9.392e-010      -8.792e-009    
  -0.1            -1.2565e-009    9.758e-010      8.558e-009     
  -0.15           -1.1101e-009    -1.4637e-009    2.455e-009     
  -0.2            1.7526e-009     -1.52e-010      -1.4855e-008   
  -0.25           1.8778e-009     9.443e-010      -6.72e-010     
  -0.3            -1.2556e-009    1.0231e-009     9.106e-009     
  -0.35           -1.1766e-009    -1.4003e-009    3.23e-009      
  -0.4            2.913e-010      -1.7742e-009    -8.87e-009     
  -0.45           1.021e-010      -1.8567e-009    -9.452e-009    
  -0.5            1.1645e-009     2.65e-011       -1.227e-008    
  -0.55           1.1617e-009     -1.579e-010     -1.4338e-008   
  -0.6            1.5856e-009     -3.682e-010     -1.6791e-008   
  -0.65           -1.2441e-009    6.605e-010      -2.86e-009     
  -0.7            -1.9751e-009    -2.3345e-009    9.249e-009     
  -0.75           1.1314e-009     -9.2344e-009    -9.46e-009     
  -0.8            -2.1148e-009    -3.2701e-008    -1.1031e-008   
  -0.85           -1.07e-011      -9.5975e-008    -9.013e-009    
  -0.9            -1.2862e-009    -2.352e-007     1.3999e-008    
  -0.95           -1.2599e-009    -5.0443e-007    2.657e-009     
  -1              -1.2518e-009    -9.5295e-007    1.966e-009     
  -1.05           -1.2946e-009    -1.6257e-006    -4.172e-009    
  -1.1            -1.413e-010     -2.5777e-006    -9.449e-009    
  -1.15           1.4103e-009     -3.8254e-006    -1.4876e-008   
  -1.2            1.0878e-009     -5.3616e-006    -3.482e-009    
  -1.25           1.1003e-009     -7.2264e-006    -4.068e-009    
  -1.3            1.16e-009       -9.4172e-006    -9.264e-009    
  -1.35           1.1655e-009     -1.1928e-005    2.987e-009     
  -1.4            1.2447e-009     -1.4725e-005    -1.7587e-008   
  -1.45           1.0715e-009     -1.7817e-005    -3.104e-009    
  -1.5            1.1259e-009     -2.1214e-005    -5.451e-009    
  -1.55           1.1623e-009     -2.4889e-005    -1.0777e-008   
  -1.6            1.4833e-009     -2.8779e-005    -1.4713e-008   
  -1.65           1.1054e-009     -3.2903e-005    -3.475e-009    
  -1.7            1.0926e-009     -3.7269e-005    -3.845e-009    
  -1.75           1.1549e-009     -4.1867e-005    -8.643e-009    
  -1.8            1.1516e-009     -4.6613e-005    -1.2178e-008   
END_DB

BEGIN_DB
 ICCAP_VAR VS         0              
 ICCAP_VAR VB         0.9            
 ICCAP_VAR VD         -0.1           

 #VG              IG              ID              IB             
  0               -1.2065e-009    -1.0403e-009    -1.333e-008    
  -0.05           1.8472e-009     9.379e-010      -9.215e-009    
  -0.1            -1.2532e-009    9.945e-010      8.874e-009     
  -0.15           -1.1458e-009    -1.4266e-009    2.795e-009     
  -0.2            1.0938e-009     -1.7452e-009    -8.737e-009    
  -0.25           1.8219e-009     9.333e-010      -8.621e-009    
  -0.3            -1.2539e-009    9.571e-010      8.598e-009     
  -0.35           -1.0957e-009    -1.4733e-009    2.372e-009     
  -0.4            1.0859e-009     -1.7138e-009    -8.689e-009    
  -0.45           1.7875e-009     9.281e-010      -8.06e-009     
  -0.5            -1.2553e-009    9.169e-010      8.447e-009     
  -0.55           -1.0474e-009    -1.5199e-009    1.851e-009     
  -0.6            1.1567e-009     -1.168e-010     -1.4094e-008   
  -0.65           1.5826e-009     -2.171e-010     -1.705e-008    
  -0.7            1.225e-009      1.1774e-009     1.4496e-008    
  -0.75           -5.7e-012       1.6854e-009     7.999e-009     
  -0.8            1.572e-010      1.7397e-009     8.508e-009     
  -0.85           -1.2707e-009    4.308e-010      8.615e-009     
  -0.9            -2.4286e-009    -2.1858e-009    2.979e-009     
  -0.95           1.1623e-009     -5.483e-009     -1.2026e-008   
  -1              -1.2536e-009    -2.2089e-008    -8.992e-009    
  -1.05           -1.2372e-009    -7.0519e-008    2.66e-009      
  -1.1            1.9034e-009     -1.8516e-007    -1.0756e-008   
  -1.15           8.172e-010      -4.0822e-007    8.936e-009     
  -1.2            1.257e-009      -7.4507e-007    1.3116e-008    
  -1.25           -1.8796e-009    -1.1919e-006    -1.2093e-008   
  -1.3            1.4155e-009     -1.7415e-006    -1.4938e-008   
  -1.35           1.099e-009      -2.3417e-006    -3.561e-009    
  -1.4            1.1e-009        -2.9816e-006    -4.095e-009    
  -1.45           1.1587e-009     -3.6317e-006    -9.213e-009    
  -1.5            1.6793e-009     -4.2765e-006    -1.2357e-008   
  -1.55           1.4157e-009     -4.9127e-006    1.4013e-008    
  -1.6            3.587e-010      -5.5312e-006    8.573e-009     
  -1.65           6.278e-010      -6.1449e-006    8.378e-009     
  -1.7            1.0263e-009     -6.7355e-006    1.0477e-008    
  -1.75           1.4736e-009     -7.298e-006     1.456e-008     
  -1.8            3.89e-010       -7.8441e-006    8.953e-009     
END_DB

BEGIN_DB
 ICCAP_VAR VS         0              
 ICCAP_VAR VB         0.9            
 ICCAP_VAR VD         -1.8           

 #VG              IG              ID              IB             
  0               1.0963e-009     9.344e-010      -9.449e-009    
  -0.05           1.05e-009       1.3575e-009     1.397e-008     
  -0.1            1.2358e-009     1.1761e-009     1.4639e-008    
  -0.15           4.1e-012        1.7122e-009     8.233e-009     
  -0.2            1.701e-010      1.7915e-009     8.652e-009     
  -0.25           -1.2633e-009    6.783e-010      8.634e-009     
  -0.3            -1.595e-009     -1.0901e-009    2.909e-009     
  -0.35           2.0463e-009     9.921e-010      -1.1268e-008   
  -0.4            -1.2471e-009    1.2196e-009     1.0356e-008    
  -0.45           -1.3922e-009    -1.1866e-009    8.203e-009     
  -0.5            1.1431e-009     -1.1895e-009    -1.1814e-008   
  -0.55           2.0288e-009     9.856e-010      -1.1219e-008   
  -0.6            -1.2476e-009    1.202e-009      1.008e-008     
  -0.65           -1.3778e-009    -1.2047e-009    7.598e-009     
  -0.7            6.7e-012        -1.8971e-009    -9.54e-009     
  -0.75           1.1687e-009     -7.98e-011      -1.3341e-008   
  -0.8            1.6865e-009     -2.462e-010     -1.5761e-008   
  -0.85           -1.2679e-009    1.1077e-009     1.4189e-008    
  -0.9            -1.2597e-009    -1.9866e-009    3.05e-009      
  -0.95           -1.2556e-009    -7.3099e-009    2.409e-009     
  -1              1.4227e-009     -2.7844e-008    9.9e-009       
  -1.05           1.0908e-009     -8.9943e-008    -3.626e-009    
  -1.1            -6.586e-010     -2.4121e-007    1.3187e-008    
  -1.15           1.1628e-009     -5.4982e-007    -1.094e-008    
  -1.2            1.3638e-009     -1.06541e-006   -1.5344e-008   
  -1.25           1.6918e-009     -1.818e-006     3.206e-009     
  -1.3            5.606e-010      -2.8935e-006    8.348e-009     
  -1.35           9.32e-010       -4.2867e-006    1.0704e-008    
  -1.4            1.3795e-009     -5.9723e-006    1.3972e-008    
  -1.45           3.375e-010      -7.9769e-006    8.688e-009     
  -1.5            6.047e-010      -1.03515e-005   8.348e-009     
  -1.55           -2.912e-010     -1.2942e-005    1.2511e-008    
  -1.6            1.1631e-009     -1.5939e-005    -1.2344e-008   
  -1.65           1.5827e-009     -1.9151e-005    -1.3556e-008   
  -1.7            1.1375e-009     -2.2622e-005    -3.031e-009    
  -1.75           1.0829e-009     -2.635e-005     -3.797e-009    
  -1.8            1.1526e-009     -3.035e-005     -7.845e-009    
END_DB

BEGIN_DB
 ICCAP_VAR VS         0              
 ICCAP_VAR VB         1.8            
 ICCAP_VAR VD         -0.1           

 #VG              IG              ID              IB             
  0               1.1183e-009     -2.28e-010      -5.766e-009    
  -0.05           -1.2565e-009    1.071e-009      8.771e-009     
  -0.1            -1.2418e-009    -1.3447e-009    4.12e-009      
  -0.15           1.5507e-009     -2.383e-010     -1.7315e-008   
  -0.2            1.2712e-009     1.146e-009      1.5155e-008    
  -0.25           3.41e-011       1.7234e-009     8.588e-009     
  -0.3            1.953e-010      1.8051e-009     9.18e-009      
  -0.35           -1.2662e-009    7.113e-010      8.854e-009     
  -0.4            -7.786e-010     -1.7554e-009    2.786e-009     
  -0.45           1.164e-009      9.72e-011       -1.162e-008    
  -0.5            1.1589e-009     -7.72e-011      -1.4033e-008   
  -0.55           1.6505e-009     -2.016e-010     -1.6049e-008   
  -0.6            1.19e-009       1.2165e-009     1.4154e-008    
  -0.65           1.3737e-009     1.0617e-009     1.5209e-008    
  -0.7            1.297e-010      1.7775e-009     8.652e-009     
  -0.75           2.757e-010      1.8459e-009     8.826e-009     
  -0.8            -1.26e-009      7.96e-010       8.472e-009     
  -0.85           -1.7091e-009    -1.0826e-009    1.996e-009     
  -0.9            1.165e-009      -1.48e-011      -1.2775e-008   
  -0.95           1.1526e-009     -1.932e-010     -1.5163e-008   
  -1              1.5225e-009     -4.911e-010     -1.7851e-008   
  -1.05           1.2916e-009     -2.464e-010     -3.367e-009    
  -1.1            1.1535e-009     -4.8726e-009    -3.47e-009     
  -1.15           -1.6769e-009    -2.3555e-008    -1.66e-008     
  -1.2            1.1661e-009     -7.4737e-008    -1.1073e-008   
  -1.25           -6.347e-010     -1.9341e-007    1.1848e-008    
  -1.3            1.1662e-009     -4.218e-007     -1.0616e-008   
  -1.35           1.4227e-009     -7.6816e-007    -1.5076e-008   
  -1.4            9.142e-010      -1.2239e-006    2.279e-009     
  -1.45           1.3714e-009     -1.7623e-006    1.3991e-008    
  -1.5            3.361e-010      -2.3524e-006    8.692e-009     
  -1.55           5.957e-010      -2.9828e-006    8.323e-009     
  -1.6            9.95e-010       -3.6171e-006    1.1216e-008    
  -1.65           1.4494e-009     -4.2308e-006    1.4405e-008    
  -1.7            3.766e-010      -4.8349e-006    8.687e-009     
  -1.75           6.574e-010      -5.4322e-006    8.396e-009     
  -1.8            1.0784e-009     -6.008e-006     1.1754e-008    
END_DB

BEGIN_DB
 ICCAP_VAR VS         0              
 ICCAP_VAR VB         1.8            
 ICCAP_VAR VD         -1.8           

 #VG              IG              ID              IB             
  0               -1.2649e-009    -1.1225e-009    8.758e-009     
  -0.05           1.269e-010      -1.8339e-009    -9.58e-009     
  -0.1            1.1676e-009     4.77e-011       -1.2213e-008   
  -0.15           1.1634e-009     -1.18e-010      -1.454e-008    
  -0.2            1.5736e-009     -2.216e-010     -1.7012e-008   
  -0.25           1.2442e-009     1.1634e-009     1.436e-008     
  -0.3            1.12e-011       1.7033e-009     8.45e-009      
  -0.35           1.792e-010      1.7978e-009     8.824e-009     
  -0.4            -1.2661e-009    6.945e-010      8.66e-009      
  -0.45           -1.6109e-009    -1.0877e-009    2.958e-009     
  -0.5            2.0581e-009     1.0012e-009     -1.1513e-008   
  -0.55           -1.2511e-009    1.2426e-009     1.147e-008     
  -0.6            -1.409e-009     -1.1695e-009    8.636e-009     
  -0.65           1.8568e-009     9.387e-010      -9.137e-009    
  -0.7            -1.261e-009     1.0107e-009     8.911e-009     
  -0.75           -1.1638e-009    -1.419e-009     2.986e-009     
  -0.8            1.0989e-009     -1.0415e-009    -1.7756e-008   
  -0.85           1.8422e-009     9.33e-010       -9.064e-009    
  -0.9            -1.2602e-009    9.841e-010      8.763e-009     
  -0.95           -1.933e-009     -1.135e-009     2.838e-009     
  -1              1.6792e-009     -5.165e-010     -1.5944e-008   
  -1.05           -1.2852e-009    -2.2976e-009    1.4227e-008    
  -1.1            -1.2681e-009    -8.3489e-009    3.122e-009     
  -1.15           1.1622e-009     -3.1298e-008    8.408e-009     
  -1.2            1.2595e-009     -1.01787e-007   -1.7371e-008   
  -1.25           -3.099e-010     -2.6253e-007    4.53e-009      
  -1.3            1.1669e-009     -5.8859e-007    -1.1812e-008   
  -1.35           1.5364e-009     -1.12392e-006   -1.3961e-008   
  -1.4            1.5998e-009     -1.9129e-006    1.794e-009     
  -1.45           4.739e-010      -3.0143e-006    8.68e-009      
  -1.5            8.097e-010      -4.4434e-006    9.513e-009     
  -1.55           1.2681e-009     -6.1692e-006    1.2868e-008    
  -1.6            2.478e-010      -8.177e-006     8.513e-009     
  -1.65           5.261e-010      -1.05653e-005   8.506e-009     
  -1.7            -2.183e-010     -1.3177e-005    1.0069e-008    
  -1.75           1.1621e-009     -1.6143e-005    -1.3966e-008   
  -1.8            1.7064e-009     -1.9341e-005    -1.2311e-008   
END_DB

