! VERSION = 6.00
BEGIN_HEADER
 ICCAP_INPUTS
  VG         V  B GROUND SMU4 0.001 LIN        2    0          -1.8       6    -0.36     
  VS         V  E GROUND SMU2 0.1 CON        0
  VD         V  S GROUND SMU1 0.1 LIN        1    0          -1.8       37   -0.05     
  VB         V  C GROUND SMU3 0.1 LIN        3    0          0.9        2    0.9       
 ICCAP_OUTPUTS
  ID         I  S GROUND SMU1 B
  IB         I  C GROUND SMU3 B
  IG         I  B GROUND SMU4 B
END_HEADER

BEGIN_DB
 ICCAP_VAR VG         0              
 ICCAP_VAR VS         0              
 ICCAP_VAR VB         0              

 #VD              ID              IB              IG             
  0               -9.989e-010     -1.3884e-008    -1.1714e-009   
  -0.05           -1.924e-009     -9.429e-009     -2.348e-010    
  -0.1            -2.161e-010     -1.6295e-008    1.5816e-009    
  -0.15           1.1576e-009     1.4809e-008     1.2026e-009    
  -0.2            1.6554e-009     8.292e-009      -1.7e-012      
  -0.25           1.724e-009      9.044e-009      1.792e-010     
  -0.3            6.583e-010      8.905e-009      -1.2565e-009   
  -0.35           -1.7654e-009    2.956e-009      -7.217e-010    
  -0.4            9.758e-010      -1.1103e-008    2.0078e-009    
  -0.45           1.1818e-009     1.1669e-008     -1.2379e-009   
  -0.5            -1.1576e-009    7.398e-009      -1.3582e-009   
  -0.55           -1.8582e-009    -9.554e-009     -9e-012        
  -0.6            -8.34e-011      -1.2993e-008    1.1517e-009    
  -0.65           -1.842e-010     -1.5509e-008    1.6614e-009    
  -0.7            1.2077e-009     1.4234e-008     1.1411e-009    
  -0.75           1.0562e-009     1.5663e-008     1.3227e-009    
  -0.8            1.7177e-009     8.837e-009      1.071e-010     
  -0.85           1.7953e-009     8.962e-009      2.481e-010     
  -0.9            7.477e-010      8.651e-009      -1.2539e-009   
  -0.95           -1.6779e-009    2.424e-009      -8.365e-010    
  -1              3.2e-011        -1.1986e-008    1.1531e-009    
  -1.05           -1.445e-010     -1.3915e-008    1.802e-009     
  -1.1            9.243e-010      5.69e-010       1.8181e-009    
  -1.15           9.622e-010      8.994e-009      -1.2487e-009   
  -1.2            -1.4005e-009    2.742e-009      -1.1211e-009   
  -1.25           -1.722e-010     -1.494e-008     1.6793e-009    
  -1.3            9.393e-010      -1.453e-009     1.8755e-009    
  -1.35           1.0312e-009     9.684e-009      -1.2462e-009   
  -1.4            -1.3213e-009    3.959e-009      -1.2003e-009   
  -1.45           -2.261e-010     -1.6554e-008    1.5547e-009    
  -1.5            1.1392e-009     1.4715e-008     1.2178e-009    
  -1.55           1.6656e-009     8.47e-009       8.9e-012       
  -1.6            1.755e-009      9.087e-009      1.686e-010     
  -1.65           6.664e-010      8.866e-009      -1.2569e-009   
  -1.7            -1.763e-009     2.875e-009      -7.275e-010    
  -1.75           9.777e-010      -1.1253e-008    2.0182e-009    
  -1.8            1.1906e-009     1.1841e-008     -1.2375e-009   
END_DB

BEGIN_DB
 ICCAP_VAR VG         -0.36          
 ICCAP_VAR VS         0              
 ICCAP_VAR VB         0              

 #VD              ID              IB              IG             
  0               -1.0526e-009    9.242e-009      -1.2242e-009   
  -0.05           -2.088e-010     -1.5681e-008    1.6261e-009    
  -0.1            1.1734e-009     1.4415e-008     1.168e-009     
  -0.15           1.6591e-009     8.168e-009      -6.78e-011     
  -0.2            1.7055e-009     8.703e-009      1.481e-010     
  -0.25           6.261e-010      9.036e-009      -1.2574e-009   
  -0.3            -1.8134e-009    3.043e-009      -6.796e-010    
  -0.35           9.539e-010      -1.1063e-008    1.9818e-009    
  -0.4            1.1451e-009     1.0055e-008     -1.2397e-009   
  -0.45           -1.1994e-009    6.893e-009      -1.3333e-009   
  -0.5            -1.8562e-009    -9.557e-009     2.74e-011      
  -0.55           -6.31e-011      -1.276e-008     1.1529e-009    
  -0.6            -1.828e-010     -1.5073e-008    1.7089e-009    
  -0.65           1.2326e-009     1.4197e-008     1.1032e-009    
  -0.7            1.0603e-009     1.4904e-008     1.2917e-009    
  -0.75           1.6758e-009     8.611e-009      7.46e-011      
  -0.8            1.766e-009      8.775e-009      2.16e-010      
  -0.85           6.995e-010      8.408e-009      -1.2521e-009   
  -0.9            -1.0858e-009    2.559e-009      -1.6257e-009   
  -0.95           3.63e-011       -1.1672e-008    1.1529e-009    
  -1              -1.251e-010     -1.367e-008     1.1465e-009    
  -1.05           -2.272e-010     -1.6013e-008    1.6167e-009    
  -1.1            1.1545e-009     1.4765e-008     1.1749e-009    
  -1.15           1.6218e-009     8.18e-009       -2.83e-011     
  -1.2            1.7063e-009     9.04e-009       1.299e-010     
  -1.25           6.073e-010      8.764e-009      -1.256e-009    
  -1.3            -1.1031e-009    3.105e-009      -1.5403e-009   
  -1.35           9.404e-010      -1.0947e-008    1.9836e-009    
  -1.4            1.1289e-009     1.1265e-008     -1.2399e-009   
  -1.45           -1.2129e-009    7.007e-009      -1.3322e-009   
  -1.5            -1.8999e-009    -9.616e-009     4.61e-011      
  -1.55           -1.101e-010     -1.2565e-008    1.1486e-009    
  -1.6            -1.975e-010     -1.4899e-008    1.7062e-009    
  -1.65           8.967e-010      -1.354e-009     1.8631e-009    
  -1.7            9.783e-010      9.411e-009      -1.2472e-009   
  -1.75           -1.0958e-009    3.529e-009      -1.9763e-009   
  -1.8            -1.7147e-009    -8.778e-009     1.0808e-009    
END_DB

BEGIN_DB
 ICCAP_VAR VG         -0.72          
 ICCAP_VAR VS         0              
 ICCAP_VAR VB         0              

 #VD              ID              IB              IG             
  0               -7.089e-010     8.744e-009      -1.3358e-009   
  -0.05           -1.1504e-007    1.0651e-008     -1.5199e-009   
  -0.1            -1.4326e-007    8.18e-009       1.899e-010     
  -0.15           -1.6377e-007    -1.5673e-008    1.3129e-009    
  -0.2            -1.6917e-007    -9.512e-009     -2.502e-010    
  -0.25           -1.7604e-007    1.128e-009      -1.2625e-009   
  -0.3            -1.8653e-007    8.38e-009       5.693e-010     
  -0.35           -1.9848e-007    -4.387e-009     1.1066e-009    
  -0.4            -2.053e-007     -8.944e-009     4.78e-011      
  -0.45           -2.1198e-007    1.0952e-008     -1.5237e-009   
  -0.5            -2.1623e-007    8.156e-009      1.926e-010     
  -0.55           -2.345e-007     -1.5815e-008    1.2996e-009    
  -0.6            -2.4506e-007    -1.132e-008     1.1542e-009    
  -0.65           -2.5041e-007    -1.0837e-008    1.1531e-009    
  -0.7            -2.6038e-007    -1.1738e-008    1.6926e-009    
  -0.75           -2.6989e-007    -1.512e-008     1.3301e-009    
  -0.8            -2.7097e-007    -9.48e-009      -2.392e-010    
  -0.85           -2.7664e-007    8.88e-010       -1.2644e-009   
  -0.9            -2.9055e-007    8.333e-009      5.538e-010     
  -0.95           -3.0337e-007    -4.229e-009     1.1035e-009    
  -1              -3.0975e-007    -8.979e-009     7.02e-011      
  -1.05           -3.1577e-007    1.0343e-008     -1.5409e-009   
  -1.1            -3.2091e-007    7.961e-009      1.875e-010     
  -1.15           -3.4457e-007    -1.5534e-008    1.3168e-009    
  -1.2            -3.4328e-007    -9.51e-009      -2.482e-010    
  -1.25           -3.4926e-007    1.106e-009      -1.2646e-009   
  -1.3            -3.6716e-007    8.357e-009      5.626e-010     
  -1.35           -3.8026e-007    -4.29e-009      1.1046e-009    
  -1.4            -3.86e-007      -8.962e-009     5.65e-011      
  -1.45           -3.9322e-007    1.0586e-008     -1.5361e-009   
  -1.5            -3.9904e-007    8.104e-009      1.917e-010     
  -1.55           -4.2491e-007    -1.5837e-008    1.3092e-009    
  -1.6            -4.2347e-007    -9.517e-009     -2.55e-010     
  -1.65           -4.2953e-007    1.067e-009      -1.2623e-009   
  -1.7            -4.4951e-007    8.318e-009      5.732e-010     
  -1.75           -4.6766e-007    -2.3398e-008    1.0727e-009    
  -1.8            -4.7814e-007    -1.3411e-008    1.4995e-009    
END_DB

BEGIN_DB
 ICCAP_VAR VG         -1.08          
 ICCAP_VAR VS         0              
 ICCAP_VAR VB         0              

 #VD              ID              IB              IG             
  0               -4.2013e-008    1.2834e-008     1.741e-010     
  -0.05           -1.5297e-005    -1.4105e-008    3.416e-010     
  -0.1            -2.5763e-005    -3.567e-009     1.0871e-009    
  -0.15           -3.2474e-005    -9.424e-009     -8.48e-011     
  -0.2            -3.6599e-005    1.659e-009      -1.2592e-009   
  -0.25           -4.0023e-005    1.0161e-008     8.458e-010     
  -0.3            -4.2011e-005    -1.3761e-008    1.1464e-009    
  -0.35           -4.3571e-005    -1.1442e-008    1.7594e-009    
  -0.4            -4.4724e-005    -9.579e-009     -1.759e-010    
  -0.45           -4.5615e-005    2.349e-009      -1.257e-009    
  -0.5            -4.7263e-005    1.0899e-008     9.238e-010     
  -0.55           -4.8103e-005    -1.1977e-008    1.1519e-009    
  -0.6            -4.8935e-005    -1.2025e-008    1.6351e-009    
  -0.65           -4.9528e-005    -9.52e-009      -2.511e-010    
  -0.7            -5.0113e-005    2.611e-009      -1.2561e-009   
  -0.75           -5.155e-005     1.1855e-008     1.0176e-009    
  -0.8            -5.2243e-005    -1.0678e-008    1.1529e-009    
  -0.85           -5.2896e-005    -1.3118e-008    1.5135e-009    
  -0.9            -5.3705e-005    -9.926e-009     1.1516e-009    
  -0.95           -5.4311e-005    -1.2294e-008    1.6234e-009    
  -1              -5.4723e-005    -9.473e-009     -2.626e-010    
  -1.05           -5.5156e-005    2.464e-009      -1.255e-009    
  -1.1            -5.6539e-005    1.1874e-008     1.0248e-009    
  -1.15           -5.7149e-005    -1.0729e-008    1.1502e-009    
  -1.2            -5.7718e-005    -1.3378e-008    1.4956e-009    
  -1.25           -5.8463e-005    -9.951e-009     1.1519e-009    
  -1.3            -5.9e-005       -1.2164e-008    1.6078e-009    
  -1.35           -5.9781e-005    -1.1335e-008    1.1514e-009    
  -1.4            -6.0273e-005    -1.2852e-008    1.5474e-009    
  -1.45           -6.101e-005     -9.551e-009     1.1504e-009    
  -1.5            -6.1506e-005    -1.1756e-008    1.66e-009      
  -1.55           -6.1848e-005    -9.514e-009     -2.382e-010    
  -1.6            -6.2176e-005    2.527e-009      -1.2572e-009   
  -1.65           -6.358e-005     1.1561e-008     9.984e-010     
  -1.7            -6.4099e-005    -1.0871e-008    1.1525e-009    
  -1.75           -6.4601e-005    -1.2884e-008    1.5364e-009    
  -1.8            -6.5306e-005    -9.587e-009     1.1508e-009    
END_DB

BEGIN_DB
 ICCAP_VAR VG         -1.44          
 ICCAP_VAR VS         0              
 ICCAP_VAR VB         0              

 #VD              ID              IB              IG             
  0               -1.01844e-007   8.63e-009       1.1532e-009    
  -0.05           -5.0153e-005    7.055e-009      -9.55e-011     
  -0.1            -9.4513e-005    1.805e-009      -1.2603e-009   
  -0.15           -0.00013337     8.433e-009      2.399e-009     
  -0.2            -0.0001668      -1.0887e-008    1.1495e-009    
  -0.25           -0.00019435     -1.0978e-008    1.1501e-009    
  -0.3            -0.00021704     -1.1951e-008    1.6524e-009    
  -0.35           -0.00023521     -9.051e-009     -9.1e-012      
  -0.4            -0.0002492      1.1749e-008     -1.4821e-009   
  -0.45           -0.00026087     8.481e-009      2.348e-010     
  -0.5            -0.0002712      -1.6738e-008    1.2614e-009    
  -0.55           -0.00027887     -1.0831e-008    1.1519e-009    
  -0.6            -0.00028517     -1.1067e-008    1.1435e-009    
  -0.65           -0.00029058     -1.2059e-008    1.6426e-009    
  -0.7            -0.00029535     -1.6835e-008    1.1326e-009    
  -0.75           -0.00030005     -1.1233e-008    1.1535e-009    
  -0.8            -0.00030391     -1.0842e-008    1.1513e-009    
  -0.85           -0.00030739     -1.1807e-008    1.6957e-009    
  -0.9            -0.00031095     -1.5115e-008    1.336e-009     
  -0.95           -0.00031335     -9.522e-009     -2.386e-010    
  -1              -0.00031587     7.67e-010       -1.2649e-009   
  -1.05           -0.00031996     8.31e-009       5.541e-010     
  -1.1            -0.00032269     -4.205e-009     1.1031e-009    
  -1.15           -0.00032541     -1.6825e-008    1.2404e-009    
  -1.2            -0.00032813     -9.822e-009     1.1519e-009    
  -1.25           -0.00033068     -2.3154e-008    1.0718e-009    
  -1.3            -0.00033285     -1.2392e-008    1.6154e-009    
  -1.35           -0.00033508     -9.147e-009     -2.67e-011     
  -1.4            -0.00033654     1.2229e-008     -1.4545e-009   
  -1.45           -0.00033897     8.495e-009      2.558e-010     
  -1.5            -0.00034232     -1.7156e-008    1.2347e-009    
  -1.55           -0.00034465     -9.941e-009     1.1516e-009    
  -1.6            -0.00034693     -2.2937e-008    1.0728e-009    
  -1.65           -0.00034867     -1.2361e-008    1.6043e-009    
  -1.7            -0.00035051     -9.273e-009     -2.83e-011     
  -1.75           -0.00035183     1.2509e-008     -1.4494e-009   
  -1.8            -0.00035409     8.543e-009      2.563e-010     
END_DB

BEGIN_DB
 ICCAP_VAR VG         -1.8           
 ICCAP_VAR VS         0              
 ICCAP_VAR VB         0              

 #VD              ID              IB              IG             
  0               7.2374e-007     1.63e-010       -4.878e-010    
  -0.05           -7.6007e-005    -1.0093e-008    -1.2532e-009   
  -0.1            -0.00014799     1.0792e-008     2.2613e-009    
  -0.15           -0.00021572     -9.044e-009     1.0736e-009    
  -0.2            -0.00027853     -1.2199e-008    1.6258e-009    
  -0.25           -0.00033676     -1.6037e-008    1.2879e-009    
  -0.3            -0.00039016     -1.1179e-008    1.1475e-009    
  -0.35           -0.00043785     -9.407e-009     -3.774e-010    
  -0.4            -0.00048073     2.442e-009      -1.2577e-009   
  -0.45           -0.00051986     8.58e-009       6.983e-010     
  -0.5            -0.0005533      -6.3e-009       1.1293e-009    
  -0.55           -0.00058239     -1.1724e-008    1.1489e-009    
  -0.6            -0.00060645     -9.502e-009     -3.499e-010    
  -0.65           -0.0006274      2.208e-009      -1.26e-009     
  -0.7            -0.00064716     8.47e-009       6.682e-010     
  -0.75           -0.00066281     -5.793e-009     1.1242e-009    
  -0.8            -0.00067577     -9.474e-009     -8.76e-011     
  -0.85           -0.00068642     1.3237e-008     -1.4038e-009   
  -0.9            -0.00069719     8.636e-009      2.885e-010     
  -0.95           -0.00070697     -3.388e-009     1.0781e-009    
  -1              -0.00071508     -1.1142e-008    1.7604e-009    
  -1.05           -0.00072267     -1.4551e-008    1.3871e-009    
  -1.1            -0.00072876     -9.615e-009     -2.084e-010    
  -1.15           -0.00073419     4.5e-010        -1.2681e-009   
  -1.2            -0.00074128     8.438e-009      5.204e-010     
  -1.25           -0.00074676     -3.979e-009     1.0955e-009    
  -1.3            -0.00075231     -1.5723e-008    1.2865e-009    
  -1.35           -0.00075733     -1.1126e-008    1.1526e-009    
  -1.4            -0.00076192     -1.0747e-008    1.1494e-009    
  -1.45           -0.00076629     -1.1656e-008    1.6914e-009    
  -1.5            -0.00077095     -1.5074e-008    1.3314e-009    
  -1.55           -0.00077414     -9.515e-009     -2.424e-010    
  -1.6            -0.00077772     9.58e-010       -1.2652e-009   
  -1.65           -0.00078327     8.302e-009      5.614e-010     
  -1.7            -0.00078729     -4.135e-009     1.1033e-009    
  -1.75           -0.00079084     -8.855e-009     6.71e-011      
  -1.8            -0.00079338     1.0258e-008     -1.5428e-009   
END_DB

BEGIN_DB
 ICCAP_VAR VG         0              
 ICCAP_VAR VS         0              
 ICCAP_VAR VB         0.9            

 #VD              ID              IB              IG             
  0               5.765e-010      1.8823e-008     -1.4026e-009   
  -0.05           9.855e-010      -1.1639e-008    2.0539e-009    
  -0.1            1.2228e-009     1.107e-008      -1.2347e-009   
  -0.15           -1.1427e-009    9.16e-009       -1.3913e-009   
  -0.2            -1.1753e-009    -1.126e-008     1.139e-009     
  -0.25           9.753e-010      -1.1331e-008    2.0128e-009    
  -0.3            1.1927e-009     1.1521e-008     -1.2388e-009   
  -0.35           -1.1697e-009    7.848e-009      -1.362e-009    
  -0.4            -1.8636e-009    -9.511e-009     -1.08e-011     
  -0.45           -7.97e-011      -1.3466e-008    1.1527e-009    
  -0.5            -1.835e-010     -1.5696e-008    1.6707e-009    
  -0.55           1.2213e-009     1.4063e-008     1.142e-009     
  -0.6            1.0673e-009     1.5112e-008     1.3179e-009    
  -0.65           1.7115e-009     8.653e-009      9.63e-011      
  -0.7            1.7931e-009     9.114e-009      2.35e-010      
  -0.75           7.339e-010      8.642e-009      -1.252e-009    
  -0.8            -1.6881e-009    2.375e-009      -8.169e-010    
  -0.85           4.34e-011       -1.1745e-008    1.1511e-009    
  -0.9            -1.119e-010     -1.4184e-008    1.1443e-009    
  -0.95           -2.093e-010     -1.635e-008     1.6087e-009    
  -1              1.1765e-009     1.4247e-008     1.1868e-009    
  -1.05           1.6282e-009     8.122e-009      -5.2e-012      
  -1.1            1.7459e-009     8.723e-009      1.249e-010     
  -1.15           1.7956e-009     8.774e-009      2.885e-010     
  -1.2            7.754e-010      8.424e-009      -1.2503e-009   
  -1.25           -1.6458e-009    2.089e-009      -8.664e-010    
  -1.3            1e-013          -1.2388e-008    1.1524e-009    
  -1.35           -1.381e-010     -1.4778e-008    1.7789e-009    
  -1.4            1.3055e-009     1.3832e-008     1.0543e-009    
  -1.45           1.1396e-009     1.5222e-008     1.2361e-009    
  -1.5            1.6698e-009     8.54e-009       2.02e-011      
  -1.55           1.7605e-009     9.114e-009      1.731e-010     
  -1.6            6.739e-010      8.952e-009      -1.2554e-009   
  -1.65           -1.746e-009     3.09e-009       -7.348e-010    
  -1.7            9.739e-010      -1.1147e-008    2.0143e-009    
  -1.75           1.1881e-009     1.0422e-008     -1.2384e-009   
  -1.8            -1.1727e-009    7.805e-009      -1.3572e-009   
END_DB

BEGIN_DB
 ICCAP_VAR VG         -0.36          
 ICCAP_VAR VS         0              
 ICCAP_VAR VB         0.9            

 #VD              ID              IB              IG             
  0               -1.0503e-009    -9.696e-009     -1.2262e-009   
  -0.05           -1.494e-010     -1.5776e-008    1.6793e-009    
  -0.1            1.2385e-009     1.4323e-008     1.1099e-009    
  -0.15           1.0836e-009     1.5775e-008     1.2853e-009    
  -0.2            1.6609e-009     8.871e-009      1.085e-010     
  -0.25           1.7363e-009     9.084e-009      2.701e-010     
  -0.3            7.266e-010      8.808e-009      -1.2503e-009   
  -0.35           -1.6972e-009    2.532e-009      -7.875e-010    
  -0.4            -1.5078e-009    -8.781e-009     1.1397e-009    
  -0.45           -2.388e-010     -1.8133e-008    1.4959e-009    
  -0.5            9.584e-010      -2.694e-009     1.9256e-009    
  -0.55           1.1159e-009     1.0773e-008     -1.2397e-009   
