! VERSION = 6.00
BEGIN_HEADER
 ICCAP_INPUTS
  VG         V  B GROUND SMU4 0.001 LIN        1    0          -1.8       37   -0.05     
  VS         V  E GROUND SMU2 0.1 CON        0
  VB         V  C GROUND SMU3 0.1 LIN        3    0          1.8        3    0.9       
  VD         V  S GROUND SMU1 0.1 LIN        2    -0.1       -1.8       2    -1.7      
 ICCAP_OUTPUTS
  IG         I  B GROUND SMU4 B
  ID         I  S GROUND SMU1 B
  IB         I  C GROUND SMU3 B
END_HEADER

BEGIN_DB
 ICCAP_VAR VS         0              
 ICCAP_VAR VB         0              
 ICCAP_VAR VD         -0.1           

 #VG              IG              ID              IB             
  0               -1.561e-010     4.17e-010       -1.8946e-008   
  -0.05           -1.1258e-009    -1.3989e-009    1.19e-010      
  -0.1            1.6749e-009     -1.761e-010     -1.5341e-008   
  -0.15           1.1335e-009     1.2162e-009     1.4172e-008    
  -0.2            1.3135e-009     1.0661e-009     1.5979e-008    
  -0.25           9.69e-011       1.7061e-009     8.887e-009     
  -0.3            2.465e-010      1.781e-009      9.164e-009     
  -0.35           -1.2481e-009    7.38e-010       8.614e-009     
  -0.4            -8.371e-010     -1.6792e-009    2.165e-009     
  -0.45           1.1504e-009     -5.62e-011      -1.2036e-008   
  -0.5            1.7959e-009     -4.457e-010     -1.4335e-008   
  -0.55           -1.2887e-009    -1.8444e-009    1.3691e-008    
  -0.6            -1.258e-009     -5.0899e-009    2.623e-009     
  -0.65           1.5085e-009     -1.5289e-008    2.753e-009     
  -0.7            4.477e-010      -5.5444e-008    9.066e-009     
  -0.75           4.335e-010      -1.8163e-007    -1.1659e-008   
  -0.8            7.494e-010      -5.4052e-007    8.817e-009     
  -0.85           -1.9306e-009    -1.3891e-006    -1.2297e-008   
  -0.9            1.1482e-009     -3.2402e-006    -9.646e-009    
  -0.95           1.6235e-009     -6.3821e-006    -1.2672e-008   
  -1              1.4204e-009     -1.10678e-005   1.4401e-008    
  -1.05           -2.2998e-009    -1.7254e-005    8.298e-009     
  -1.1            -3.096e-010     -2.4832e-005    -9.75e-009     
  -1.15           1.1487e-009     -3.3582e-005    -1.177e-008    
  -1.2            1.5468e-009     -4.2744e-005    -1.3518e-008   
  -1.25           1.4788e-009     -5.2186e-005    1.5278e-008    
  -1.3            4.133e-010      -6.1722e-005    9.144e-009     
  -1.35           6.974e-010      -7.1218e-005    8.551e-009     
  -1.4            1.1232e-009     -8.0252e-005    1.1938e-008    
  -1.45           1.5428e-009     -8.8785e-005    1.5644e-008    
  -1.5            4.588e-010      -9.7062e-005    8.781e-009     
  -1.55           7.572e-010      -0.000104959    9.384e-009     
  -1.6            1.1905e-009     -0.000112284    1.2857e-008    
  -1.65           2.2627e-009     -0.00011912     1.0525e-008    
  -1.7            8.226e-010      -0.00012589     9.976e-009     
  -1.75           1.2573e-009     -0.00013208     1.3449e-008    
  -1.8            2.619e-010      -0.00013782     8.507e-009     
END_DB

BEGIN_DB
 ICCAP_VAR VS         0              
 ICCAP_VAR VB         0              
 ICCAP_VAR VD         -1.8           

 #VG              IG              ID              IB             
  0               -1.1986e-009    -1.0444e-009    -1.0693e-008   
  -0.05           1.1097e-009     -1.0803e-009    -1.4484e-008   
  -0.1            1.8838e-009     9.422e-010      -1.0435e-008   
  -0.15           -1.2403e-009    1.0553e-009     9.043e-009     
  -0.2            -1.2337e-009    -1.2779e-009    4.18e-009      
  -0.25           1.1053e-009     -1.0735e-009    -1.5079e-008   
  -0.3            1.8709e-009     9.328e-010      -1.0207e-008   
  -0.35           -1.2417e-009    1.0212e-009     8.854e-009     
  -0.4            -2.0054e-009    -1.122e-009     4.025e-009     
  -0.45           1.527e-009      -5.283e-010     -1.7047e-008   
  -0.5            1.2975e-009     -1.812e-010     -3.056e-009    
  -0.55           1.158e-009      -3.4644e-009    -3.193e-009    
  -0.6            -2.2591e-009    -1.6623e-008    -1.2939e-008   
  -0.65           1.1482e-009     -5.5122e-008    -1.0351e-008   
  -0.7            1.67e-011       -1.73e-007      -6.546e-009    
  -0.75           4.024e-010      -5.2522e-007    9.187e-009     
  -0.8            -1.9489e-009    -1.4144e-006    -1.2655e-008   
  -0.85           1.1506e-009     -3.5509e-006    -9.219e-009    
  -0.9            1.6539e-009     -7.671e-006     -1.2314e-008   
  -0.95           -2.3694e-009    -1.4661e-005    9.266e-009     
  -1              1.7495e-009     -2.5832e-005    -1.1596e-008   
  -1.05           1.3365e-009     -4.1337e-005    1.3928e-008    
  -1.1            3.134e-010      -6.136e-005     9.2e-009       
  -1.15           5.865e-010      -8.7028e-005    8.635e-009     
  -1.2            2.3223e-009     -0.00011663     8.655e-009     
  -1.25           1.5712e-009     -0.00015134     1.5938e-008    
  -1.3            4.902e-010      -0.00019048     8.837e-009     
  -1.35           8.268e-010      -0.00023375     9.917e-009     
  -1.4            1.2211e-009     -0.00027991     1.33e-008      
  -1.45           2.92e-010       -0.00032824     8.657e-009     
  -1.5            5.813e-010      -0.00038107     8.465e-009     
  -1.55           8.922e-010      -0.00043617     1.0465e-008    
  -1.6            1.3298e-009     -0.00049261     1.3782e-008    
  -1.65           3.196e-010      -0.00055036     8.77e-009      
  -1.7            6.191e-010      -0.00061157     8.499e-009     
  -1.75           9.694e-010      -0.00067366     9.943e-009     
  -1.8            1.4065e-009     -0.00073608     1.4391e-008    
END_DB

BEGIN_DB
 ICCAP_VAR VS         0              
 ICCAP_VAR VB         0.9            
 ICCAP_VAR VD         -0.1           

 #VG              IG              ID              IB             
  0               1.1437e-009     9.882e-010      2.839e-009     
  -0.05           -1.2369e-009    1.0477e-009     9.944e-009     
  -0.1            -1.2342e-009    -1.2877e-009    4.256e-009     
  -0.15           1.733e-010      -1.7708e-009    -9.405e-009    
  -0.2            2.0416e-009     9.825e-010      -1.1483e-008   
  -0.25           -1.2276e-009    1.213e-009      1.197e-008     
  -0.3            -1.3921e-009    -1.1278e-009    9.222e-009     
  -0.35           1.8389e-009     9.263e-010      -9.654e-009    
  -0.4            -1.2398e-009    9.97e-010       9.338e-009     
  -0.45           -1.1779e-009    -1.3516e-009    3.315e-009     
  -0.5            1.5877e-009     -2.104e-010     -1.6183e-008   
  -0.55           1.2006e-009     1.1576e-009     1.4347e-008    
  -0.6            9.7e-012        1.6435e-009     8.309e-009     
  -0.65           1.877e-010      1.6862e-009     8.783e-009     
  -0.7            -1.2508e-009    4.601e-010      8.682e-009     
  -0.75           -2.3803e-009    -1.9686e-009    2.917e-009     
  -0.8            1.1475e-009     -4.546e-009     -1.2929e-008   
  -0.85           -1.2401e-009    -1.9496e-008    -9.528e-009    
  -0.9            -1.9691e-009    -7.2671e-008    3.613e-009     
  -0.95           3.244e-010      -2.4781e-007    -1.0597e-008   
  -1              5.843e-010      -7.6509e-007    8.4e-009       
  -1.05           -2.0813e-009    -1.9762e-006    -1.4492e-008   
  -1.1            1.1341e-009     -4.4903e-006    -7.106e-009    
  -1.15           1.1411e-009     -8.5643e-006    -1.103e-008    
  -1.2            4.357e-010      -1.4323e-005    -1.6591e-008   
  -1.25           7.405e-010      -2.1746e-005    9.23e-009      
  -1.3            1.1727e-009     -3.0199e-005    1.2823e-008    
  -1.35           2.065e-010      -3.911e-005     8.175e-009     
  -1.4            4.933e-010      -4.8634e-005    8.529e-009     
  -1.45           8.282e-010      -5.8062e-005    9.974e-009     
  -1.5            1.267e-009      -6.7038e-005    1.348e-008     
  -1.55           2.792e-010      -7.5592e-005    8.613e-009     
  -1.6            5.458e-010      -8.3979e-005    8.333e-009     
  -1.65           9.126e-010      -9.1846e-005    1.0814e-008    
  -1.7            1.3597e-009     -9.9122e-005    1.4046e-008    
  -1.75           3.468e-010      -0.000106004    8.728e-009     
  -1.8            6.063e-010      -0.000112671    8.368e-009     
END_DB

BEGIN_DB
 ICCAP_VAR VS         0              
 ICCAP_VAR VB         0.9            
 ICCAP_VAR VD         -1.8           

 #VG              IG              ID              IB             
  0               -1.1858e-009    -1.0187e-009    1.349e-008     
  -0.05           1.8293e-009     9.244e-010      -9.426e-009    
  -0.1            -1.2399e-009    9.855e-010      9.209e-009     
  -0.15           -1.17e-009      -1.3598e-009    3.246e-009     
  -0.2            2.664e-010      -1.7299e-009    -9.092e-009    
  -0.25           7.39e-011       -1.815e-009     -9.548e-009    
  -0.3            1.1502e-009     -1.65e-011      -1.2489e-008   
  -0.35           1.7376e-009     -1.518e-010     -1.4771e-008   
  -0.4            1.0864e-009     1.2567e-009     1.4056e-008    
  -0.45           1.2739e-009     1.0969e-009     1.5846e-008    
  -0.5            7.94e-011       1.6941e-009     8.744e-009     
  -0.55           2.329e-010      1.766e-009      9.111e-009     
  -0.6            -1.2478e-009    6.846e-010      8.615e-009     
  -0.65           -1.6355e-009    -1.2688e-009    2.243e-009     
  -0.7            1.1488e-009     -9.833e-010     -1.1882e-008   
  -0.75           1.8006e-009     -4.6682e-009    -1.4164e-008   
  -0.8            -1.2375e-009    -1.9469e-008    -9.517e-009    
  -0.85           -1.8208e-009    -7.3894e-008    5.687e-009     
  -0.9            1.8004e-009     -2.6008e-007    -1.2557e-008   
  -0.95           7.011e-010      -8.5476e-007    8.474e-009     
  -1              -1.849e-009     -2.3438e-006    -1.1838e-008   
  -1.05           1.4098e-009     -5.7754e-006    -1.4488e-008   
  -1.1            -2.2318e-009    -1.1928e-005    7.32e-009      
  -1.15           1.1489e-009     -2.2401e-005    -9.879e-009    
  -1.2            1.5861e-009     -3.7265e-005    -1.2846e-008   
  -1.25           1.4543e-009     -5.7056e-005    1.4895e-008    
  -1.3            4.068e-010      -8.198e-005     9.22e-009      
  -1.35           6.853e-010      -0.000112357    8.603e-009     
  -1.4            2.1434e-009     -0.00014615     9.135e-009     
  -1.45           1.2135e-009     -0.00018555     1.2944e-008    
  -1.5            2.705e-010      -0.00022692     8.571e-009     
  -1.55           5.093e-010      -0.0002734      8.677e-009     
  -1.6            8.665e-010      -0.0003225      9.472e-009     
  -1.65           1.3075e-009     -0.00037357     1.3877e-008    
  -1.7            3.097e-010      -0.00042628     8.923e-009     
  -1.75           5.753e-010      -0.00048275     8.458e-009     
  -1.8            9.471e-010      -0.00054078     1.0043e-008    
END_DB

BEGIN_DB
 ICCAP_VAR VS         0              
 ICCAP_VAR VB         1.8            
 ICCAP_VAR VD         -0.1           

 #VG              IG              ID              IB             
  0               -1.1608e-009    -9.96e-010      -1.5636e-008   
  -0.05           1.9498e-009     9.597e-010      -1.0759e-008   
  -0.1            -1.2342e-009    1.1337e-009     9.941e-009     
  -0.15           -1.3144e-009    -1.1913e-009    6.114e-009     
  -0.2            1.1198e-009     -1.1196e-009    -1.2606e-008   
  -0.25           1.9374e-009     9.558e-010      -1.0478e-008   
  -0.3            -1.2355e-009    1.1138e-009     1.075e-008     
  -0.35           -1.298e-009     -1.2151e-009    5.505e-009     
  -0.4            8.29e-011       -1.8058e-009    -9.519e-009    
  -0.45           1.1467e-009     8.1e-012        -1.1824e-008   
  -0.5            1.7655e-009     -1.365e-010     -1.4166e-008   
  -0.55           1.0477e-009     1.2853e-009     1.3538e-008    
  -0.6            1.2405e-009     1.1172e-009     1.4297e-008    
  -0.65           3.88e-011       1.6645e-009     8.521e-009     
  -0.7            1.917e-010      1.753e-009      9.032e-009     
  -0.75           -1.2564e-009    6.713e-010      8.713e-009     
  -0.8            -1.5915e-009    -1.1531e-009    2.822e-009     
  -0.85           1.147e-009      -3.578e-010     -1.1026e-008   
  -0.9            1.1401e-009     -2.2296e-009    -1.3269e-008   
  -0.95           1.6392e-009     -1.01498e-008   -1.5461e-008   
  -1              -2.1256e-009    -4.1684e-008    -1.0812e-008   
  -1.05           -1.2597e-009    -1.5023e-007    1.5193e-008    
  -1.1            -1.244e-009     -4.8143e-007    3.027e-009     
  -1.15           -1.5064e-009    -1.3542e-006    -9.275e-009    
  -1.2            1.1406e-009     -3.294e-006     -1.066e-008    
  -1.25           1.3623e-009     -6.7073e-006    -1.5084e-008   
  -1.3            -2.0189e-009    -1.1738e-005    9.492e-009     
  -1.35           1.1429e-009     -1.8634e-005    -1.037e-008    
  -1.4            1.3899e-009     -2.6621e-005    -1.439e-008    
  -1.45           1.086e-009      -3.5389e-005    -3.516e-009    
  -1.5            1.0966e-009     -4.4523e-005    -4.209e-009    
  -1.55           1.1472e-009     -5.361e-005     -9.695e-009    
  -1.6            1.632e-009      -6.2402e-005    -1.2217e-008   
  -1.65           1.4058e-009     -7.0836e-005    1.3971e-008    
  -1.7            3.754e-010      -7.8848e-005    8.666e-009     
  -1.75           6.411e-010      -8.6546e-005    8.465e-009     
  -1.8            1.0514e-009     -9.3693e-005    1.116e-008     
END_DB

BEGIN_DB
 ICCAP_VAR VS         0              
 ICCAP_VAR VB         1.8            
 ICCAP_VAR VD         -1.8           

 #VG              IG              ID              IB             
  0               1.0843e-009     1.0964e-009     -9.278e-009    
  -0.05           -1.234e-009     1.1199e-009     9.624e-009     
  -0.1            -1.3059e-009    -1.2198e-009    5.663e-009     
  -0.15           1.1127e-009     -1.1087e-009    -1.328e-008    
  -0.2            1.9133e-009     9.475e-010      -1.0248e-008   
  -0.25           -1.2348e-009    1.0994e-009     9.478e-009     
  -0.3            -1.2795e-009    -1.2393e-009    5.219e-009     
  -0.35           1.023e-010      -1.7854e-009    -9.435e-009    
  -0.4            1.1461e-009     2.55e-011       -1.1681e-008   
  -0.45           1.7918e-009     -1.192e-010     -1.4348e-008   
  -0.5            -1.2763e-009    1.3373e-009     1.3563e-008    
  -0.55           -5.397e-010     -1.8603e-009    2.839e-009     
  -0.6            1.1455e-009     -1.2924e-009    -9.523e-009    
  -0.65           1.1392e-009     -1.083e-010     -1.3987e-008   
  -0.7            1.6067e-009     -2.259e-010     -1.6604e-008   
  -0.75           -1.2596e-009    1.2946e-009     1.4564e-008    
  -0.8            -2.3885e-009    -1.5163e-009    3.079e-009     
  -0.85           1.1464e-009     -2.5364e-009    -1.148e-008    
  -0.9            -2.0676e-009    -1.2568e-008    -1.0413e-008   
  -0.95           -3.17e-011      -5.1491e-008    -9.073e-009    
  -1              2.3446e-009     -1.9148e-007    -9.422e-009    
  -1.05           6.073e-010      -6.6377e-007    8.415e-009     
  -1.1            -1.7214e-009    -1.9128e-006    -1.0702e-008   
  -1.15           1.5727e-009     -4.9169e-006    -1.2808e-008   
  -1.2            1.458e-009      -1.05881e-005   1.4885e-008    
  -1.25           -2.2494e-009    -2.0031e-005    8.723e-009     
  -1.3            4e-013          -3.4306e-005    -8.938e-009    
  -1.35           1.5474e-009     -5.3663e-005    -1.3005e-008   
  -1.4            1.474e-009      -7.7762e-005    1.4623e-008    
  -1.45           4.186e-010      -0.000106879    8.877e-009     
  -1.5            2.0105e-009     -0.00014012     8.211e-009     
  -1.55           1.0365e-009     -0.00017869     1.1758e-008    
  -1.6            1.469e-009      -0.00021969     1.5295e-008    
  -1.65           4.046e-010      -0.00026428     9.096e-009     
  -1.7            7.02e-010       -0.00031254     8.593e-009     
  -1.75           1.1176e-009     -0.00036283     1.1678e-008    
  -1.8            1.5274e-009     -0.00041466     1.582e-008     
END_DB

