! VERSION = 6.00
BEGIN_HEADER
 ICCAP_INPUTS
  VG         V  B GROUND SMU4 0.001 LIN        2    0          -1.8       6    -0.36     
  VS         V  E GROUND SMU2 0.1 CON        0
  VD         V  S GROUND SMU1 0.1 LIN        1    0          -1.8       37   -0.05     
  VB         V  C GROUND SMU3 0.1 LIN        3    0          0.9        2    0.9       
 ICCAP_OUTPUTS
  ID         I  S GROUND SMU1 B
  IB         I  C GROUND SMU3 B
  IG         I  B GROUND SMU4 B
END_HEADER

BEGIN_DB
 ICCAP_VAR VG         0              
 ICCAP_VAR VS         0              
 ICCAP_VAR VB         0              

 #VD              ID              IB              IG             
  0               9.059e-010      -9.103e-009     7.554e-010     
  -0.05           9.465e-010      -1.0858e-008    1.9279e-009    
  -0.1            1.1043e-009     1.0569e-008     -1.2249e-009   
  -0.15           -1.1849e-009    5.775e-009      -1.2974e-009   
  -0.2            -1.8007e-009    -9.357e-009     8.15e-011      
  -0.25           3e-012          -1.2489e-008    1.1446e-009    
  -0.3            -1.402e-010     -1.5143e-008    1.702e-009     
  -0.35           1.2225e-009     1.412e-008      1.0957e-009    
  -0.4            1.0634e-009     1.4937e-008     1.28e-009      
  -0.45           1.6938e-009     8.492e-009      8.24e-011      
  -0.5            1.7759e-009     8.562e-009      2.387e-010     
  -0.55           7.472e-010      8.424e-009      -1.2358e-009   
  -0.6            -1.6125e-009    2.398e-009      -8.636e-010    
  -0.65           9.7e-012        -1.2426e-008    1.1463e-009    
  -0.7            -1.365e-010     -1.4844e-008    1.7062e-009    
  -0.75           9.233e-010      -8.87e-010      1.8465e-009    
  -0.8            1.0091e-009     9.379e-009      -1.2298e-009   
  -0.85           -1.2952e-009    3.703e-009      -1.1917e-009   
  -0.9            -1.7383e-009    -9.029e-009     2.262e-010     
  -0.95           -1.822e-009     -9.365e-009     3.17e-011      
  -1              -4.74e-011      -1.3261e-008    1.1463e-009    
  -1.05           -1.698e-010     -1.5712e-008    1.6345e-009    
  -1.1            1.1813e-009     1.3966e-008     1.1458e-009    
  -1.15           1.0256e-009     1.4837e-008     1.3338e-009    
  -1.2            1.7192e-009     8.545e-009      1.184e-010     
  -1.25           6.361e-010      8.84e-009       -1.2395e-009   
  -1.3            -1.7287e-009    3.045e-009      -7.101e-010    
  -1.35           -1.5565e-009    -9.11e-009      -9.119e-010    
  -1.4            -3.3e-011       -1.3092e-008    1.1396e-009    
  -1.45           -1.601e-010     -1.5596e-008    1.6452e-009    
  -1.5            1.1912e-009     1.3991e-008     1.1337e-009    
  -1.55           1.039e-009      1.4969e-008     1.3146e-009    
  -1.6            1.7179e-009     8.504e-009      1.078e-010     
  -1.65           6.276e-010      8.522e-009      -1.2411e-009   
  -1.7            -1.7326e-009    3.05e-009       -6.957e-010    
  -1.75           9.662e-010      -1.1244e-008    1.9921e-009    
  -1.8            1.1777e-009     1.1535e-008     -1.2225e-009   
END_DB

BEGIN_DB
 ICCAP_VAR VG         -0.36          
 ICCAP_VAR VS         0              
 ICCAP_VAR VB         0              

 #VD              ID              IB              IG             
  0               -9.837e-010     -1.5567e-008    -1.1792e-009   
  -0.05           9.185e-010      -1.1042e-008    1.9549e-009    
  -0.1            1.0834e-009     1.1001e-008     -1.2227e-009   
  -0.15           -1.2023e-009    6.759e-009      -1.3264e-009   
  -0.2            -1.849e-009     -9.417e-009     1.8e-011       
  -0.25           -1.071e-010     -1.2972e-008    1.1461e-009    
  -0.3            -2.368e-010     -1.5544e-008    1.6372e-009    
  -0.35           1.3186e-009     1.4009e-008     -1.244e-009    
  -0.4            -1.1183e-009    3.008e-009      -1.5079e-009   
  -0.45           1.2527e-009     -1.0979e-008    -1.2542e-009   
  -0.5            -1.1452e-009    2.803e-009      -1.4412e-009   
  -0.55           1.1824e-009     -1.0449e-008    -1.2738e-009   
  -0.6            -1.1913e-009    2.462e-009      -1.3833e-009   
  -0.65           -1.2612e-009    -1.0747e-008    1.1276e-009    
  -0.7            -3.2e-012       -1.1617e-008    1.1422e-009    
  -0.75           -1.859e-010     -1.3705e-008    1.1403e-009    
  -0.8            -3.058e-010     -1.5901e-008    1.6067e-009    
  -0.85           1.6215e-009     -2.175e-009     1.39e-010      
  -0.9            5.134e-010      8.836e-009      -1.2391e-009   
  -0.95           -1.1582e-009    3.067e-009      -1.5625e-009   
  -1              -3.8e-011       -1.152e-008     1.1447e-009    
  -1.05           -2.136e-010     -1.3414e-008    1.1459e-009    
  -1.1            -3.427e-010     -1.5644e-008    1.6255e-009    
  -1.15           1.2446e-009     1.4109e-008     -1.2377e-009   
  -1.2            -1.1889e-009    3.048e-009      -1.5184e-009   
  -1.25           -1.29e-011      -1.1403e-008    1.1431e-009    
  -1.3            -1.913e-010     -1.2901e-008    1.1454e-009    
  -1.35           -3.432e-010     -1.5047e-008    1.7236e-009    
  -1.4            1.176e-009      1.4083e-008     -1.2423e-009   
  -1.45           -1.1866e-009    2.919e-009      -2.3473e-009   
  -1.5            -1.118e-010     -1.1692e-008    1.1467e-009    
  -1.55           -3.17e-010      -1.3437e-008    1.1393e-009    
  -1.6            -4.18e-010      -1.5891e-008    1.6326e-009    
  -1.65           1.173e-009      1.416e-008      -1.2364e-009   
  -1.7            -1.2592e-009    3.108e-009      -1.5148e-009   
  -1.75           -1.067e-010     -1.1398e-008    1.1442e-009    
  -1.8            -2.838e-010     -1.2736e-008    1.1461e-009    
END_DB

BEGIN_DB
 ICCAP_VAR VG         -0.72          
 ICCAP_VAR VS         0              
 ICCAP_VAR VB         0              

 #VD              ID              IB              IG             
  0               5.0254e-009     1.3993e-008     -1.1837e-009   
  -0.05           -2.6323e-007    8.599e-009      -2.1753e-009   
  -0.1            -3.6182e-007    1.1951e-008     1.0285e-009    
  -0.15           -4.557e-007     -1.0554e-008    1.1435e-009    
  -0.2            -4.8184e-007    -1.1492e-008    1.137e-009     
  -0.25           -5.1775e-007    -1.2789e-008    1.5898e-009    
  -0.3            -5.4928e-007    -1.6391e-008    1.2469e-009    
  -0.35           -5.8068e-007    -1.0755e-008    1.1449e-009    
  -0.4            -6.0158e-007    -1.1373e-008    1.1383e-009    
  -0.45           -6.2445e-007    -1.2538e-008    1.5909e-009    
  -0.5            -6.4304e-007    -1.6411e-008    1.2579e-009    
  -0.55           -6.8968e-007    -1.0835e-008    1.1424e-009    
  -0.6            -6.226e-007     -9.282e-009     -3.905e-010    
  -0.65           -6.6351e-007    2.475e-009      -1.2349e-009   
  -0.7            -6.7738e-007    8.519e-009      7.195e-010     
  -0.75           -7.6625e-007    -6.523e-009     1.1248e-009    
  -0.8            -8.1968e-007    -1.0929e-008    1.1445e-009    
  -0.85           -8.2304e-007    -1.1302e-008    1.1448e-009    
  -0.9            -8.4947e-007    -1.2399e-008    1.6358e-009    
  -0.95           -8.8253e-007    -1.6024e-008    1.2789e-009    
  -1              -8.0762e-007    -9.412e-009     -2.594e-010    
  -1.05           -8.4148e-007    1.383e-009      -1.237e-009    
  -1.1            -8.6667e-007    8.249e-009      5.799e-010     
  -1.15           -9.7264e-007    -4.49e-009      1.0967e-009    
  -1.2            -9.2623e-007    -8.872e-009     1.56e-011      
  -1.25           -1.02018e-006   1.1788e-008     -1.4611e-009   
  -1.3            -9.6717e-007    8.252e-009      2.291e-010     
  -1.35           -1.073e-006     -1.6704e-008    -1.6876e-009   
  -1.4            -1.13871e-006   1.4123e-008     1.1465e-009    
  -1.45           -1.1552e-006    -1.1649e-008    1.8221e-009    
  -1.5            -1.1814e-006    -1.2701e-008    1.6101e-009    
  -1.55           -1.2159e-006    -1.4671e-008    1.3924e-009    
  -1.6            -1.154e-006     -9.036e-009     -5.2e-011      
  -1.65           -1.2792e-006    1.0426e-008     -1.53e-009     
  -1.7            -1.1758e-006    1.4815e-008     1.4482e-009    
  -1.75           -1.3612e-006    -1.2696e-008    1.6213e-009    
  -1.8            -1.4003e-006    -1.4458e-008    1.4127e-009    
END_DB

BEGIN_DB
 ICCAP_VAR VG         -1.08          
 ICCAP_VAR VS         0              
 ICCAP_VAR VB         0              

 #VD              ID              IB              IG             
  0               -7.0755e-008    -1.5959e-008    -1.1669e-009   
  -0.05           -1.842e-005     -9.121e-009     2.2059e-009    
  -0.1            -3.1616e-005    -5.417e-009     1.1089e-009    
  -0.15           -4.0396e-005    -9.693e-009     -3.011e-010    
  -0.2            -4.6411e-005    2.757e-009      -1.2261e-009   
  -0.25           -5.1122e-005    1.1525e-008     1.1041e-009    
  -0.3            -5.4584e-005    -1.0069e-008    1.1424e-009    
  -0.35           -5.6956e-005    -1.5347e-008    1.377e-009     
  -0.4            -5.8171e-005    -9.423e-009     -3.935e-010    
  -0.45           -5.9899e-005    3.147e-009      -1.2262e-009   
  -0.5            -6.1862e-005    1.3205e-008     1.2306e-009    
  -0.55           -6.3766e-005    -1.492e-008     1.4181e-009    
  -0.6            -6.5219e-005    -1.0156e-008    1.1429e-009    
  -0.65           -6.6308e-005    -1.4056e-008    1.4924e-009    
  -0.7            -6.7637e-005    -1.0597e-008    1.1439e-009    
  -0.75           -6.8643e-005    -1.4735e-008    1.4162e-009    
  -0.8            -6.9895e-005    -1.0217e-008    1.1431e-009    
  -0.85           -7.0862e-005    -1.4201e-008    1.4871e-009    
  -0.9            -7.2089e-005    -1.0554e-008    1.1428e-009    
  -0.95           -7.2903e-005    -1.4646e-008    1.4277e-009    
  -1              -7.39e-005      -1.0164e-008    1.1441e-009    
  -1.05           -7.4924e-005    -1.3922e-008    1.5047e-009    
  -1.1            -7.6069e-005    -1.0602e-008    1.1443e-009    
  -1.15           -7.6759e-005    -1.4843e-008    1.4308e-009    
  -1.2            -7.7897e-005    -1.0096e-008    1.1431e-009    
  -1.25           -7.8702e-005    -1.3683e-008    1.5092e-009    
  -1.3            -7.9856e-005    -1.0696e-008    1.1442e-009    
  -1.35           -8.0507e-005    -1.4683e-008    1.4335e-009    
  -1.4            -8.1416e-005    -1.0059e-008    1.1445e-009    
  -1.45           -8.2295e-005    -1.3724e-008    1.5117e-009    
  -1.5            -8.3338e-005    -1.0678e-008    1.1445e-009    
  -1.55           -8.4206e-005    -1.4745e-008    1.4347e-009    
  -1.6            -8.5033e-005    -9.971e-009     1.1443e-009    
  -1.65           -8.581e-005     -1.3689e-008    1.5204e-009    
  -1.7            -8.6958e-005    -1.0749e-008    1.1461e-009    
  -1.75           -8.7682e-005    -1.4551e-008    1.4423e-009    
  -1.8            -8.8559e-005    -9.873e-009     1.1434e-009    
END_DB

BEGIN_DB
 ICCAP_VAR VG         -1.44          
 ICCAP_VAR VS         0              
 ICCAP_VAR VB         0              

 #VD              ID              IB              IG             
  0               -1.13436e-007   1.863e-009      1.1436e-009    
  -0.05           -5.4772e-005    1.114e-008      -2.531e-010    
  -0.1            -0.000103642    2.607e-009      -1.2326e-009   
  -0.15           -0.00014699     8.47e-009       2.3188e-009    
  -0.2            -0.0001846      -1.0097e-008    1.146e-009     
  -0.25           -0.00021627     -1.2006e-008    1.7022e-009    
  -0.3            -0.00024263     -8.621e-009     6.4e-011       
  -0.35           -0.00026389     1.0855e-008     -1.5034e-009   
  -0.4            -0.00028182     7.91e-009       2.057e-010     
  -0.45           -0.00029714     -1.6625e-008    1.2779e-009    
  -0.5            -0.00030918     -1.1322e-008    1.1466e-009    
  -0.55           -0.00031783     -9.525e-009     -3.745e-010    
  -0.6            -0.00032576     2.63e-009       -1.2331e-009   
  -0.65           -0.00033455     8.52e-009       7.096e-010     
  -0.7            -0.00034096     -6.372e-009     1.1197e-009    
  -0.75           -0.00034691     -1.1336e-008    1.1451e-009    
  -0.8            -0.0003503      -9.412e-009     -3.811e-010    
  -0.85           -0.000355       2.516e-009      -1.2329e-009   
  -0.9            -0.00036107     8.511e-009      7.044e-010     
  -0.95           -0.00036493     -6.149e-009     1.1203e-009    
  -1              -0.00036873     -1.1492e-008    1.1458e-009    
  -1.05           -0.00037109     -9.444e-009     -3.791e-010    
  -1.1            -0.00037467     2.531e-009      -1.2354e-009   
  -1.15           -0.00037966     8.457e-009      7.023e-010     
  -1.2            -0.00038271     -6.076e-009     1.1195e-009    
  -1.25           -0.00038606     -1.1532e-008    1.1446e-009    
  -1.3            -0.00038809     -9.495e-009     -3.685e-010    
  -1.35           -0.00039082     2.518e-009      -1.2354e-009   
  -1.4            -0.00039521     8.459e-009      6.952e-010     
  -1.45           -0.00039859     -5.941e-009     1.1178e-009    
  -1.5            -0.00040132     -1.1598e-008    1.1446e-009    
  -1.55           -0.00040287     -9.446e-009     -3.684e-010    
  -1.6            -0.00040501     2.528e-009      -1.2346e-009   
  -1.65           -0.00040952     8.411e-009      6.909e-010     
  -1.7            -0.00041252     -5.979e-009     1.1175e-009    
  -1.75           -0.00041417     -9.277e-009     -1.432e-010    
  -1.8            -0.00041599     1.3e-010        -1.2546e-009   
END_DB

BEGIN_DB
 ICCAP_VAR VG         -1.8           
 ICCAP_VAR VS         0              
 ICCAP_VAR VB         0              

 #VD              ID              IB              IG             
  0               7.3955e-007     8.66e-009       -9.673e-010    
  -0.05           -8.1858e-005    2.663e-009      1.0535e-009    
  -0.1            -0.0001595      -1.3986e-008    1.03e-011      
  -0.15           -0.00023231     1.1836e-008     -1.4565e-009   
  -0.2            -0.00030071     8.212e-009      2.248e-010     
  -0.25           -0.00036436     -1.6925e-008    1.2289e-009    
  -0.3            -0.00042281     -1.0581e-008    1.1424e-009    
  -0.35           -0.00047567     -1.1441e-008    1.1365e-009    
  -0.4            -0.00052274     -9.015e-009     -5.59e-010     
  -0.45           -0.0005653      2.704e-009      -1.2329e-009   
  -0.5            -0.0006045      9.868e-009      9.028e-010     
  -0.55           -0.00063729     -9.346e-009     1.1405e-009    
  -0.6            -0.0006663      -1.0859e-008    1.1423e-009    
  -0.65           -0.00069126     -1.1606e-008    1.1389e-009    
  -0.7            -0.00071147     -9.004e-009     -6.071e-010    
  -0.75           -0.00073031     2.879e-009      -1.2311e-009   
  -0.8            -0.00074886     1.005e-008      9.284e-010     
  -0.85           -0.00076281     -9.554e-009     1.1408e-009    
  -0.9            -0.00077546     -1.0952e-008    1.1413e-009    
  -0.95           -0.00078628     -1.1738e-008    1.1374e-009    
  -1              -0.00079513     -8.819e-009     -5.997e-010    
  -1.05           -0.00080451     2.942e-009      -1.2315e-009   
  -1.1            -0.00081485     1.0153e-008     9.553e-010     
  -1.15           -0.00082251     -1.0051e-008    1.1414e-009    
  -1.2            -0.00082967     -1.0833e-008    1.1389e-009    
  -1.25           -0.00083452     -9.187e-009     -4.78e-010     
  -1.3            -0.00084072     2.537e-009      -1.2339e-009   
  -1.35           -0.00084948     9.21e-009       8.189e-010     
  -1.4            -0.00085517     -8.202e-009     1.1339e-009    
  -1.45           -0.00086107     -9.982e-009     1.1408e-009    
  -1.5            -0.00086465     -9.249e-009     -4.753e-010    
  -1.55           -0.00086968     2.617e-009      -1.2338e-009   
  -1.6            -0.00087714     9.16e-009       8.119e-010     
  -1.65           -0.00088213     -8.133e-009     1.132e-009     
  -1.7            -0.00088657     -1.0109e-008    1.1427e-009    
  -1.75           -0.00089138     -1.1151e-008    1.1395e-009    
  -1.8            -0.00089422     -9.161e-009     -4.984e-010    
END_DB

BEGIN_DB
 ICCAP_VAR VG         0              
 ICCAP_VAR VS         0              
 ICCAP_VAR VB         0.9            

 #VD              ID              IB              IG             
  0               1.0131e-009     1.1983e-008     1.141e-009     
  -0.05           9.163e-010      -4.23e-010      1.8331e-009    
  -0.1            1.0007e-009     8.688e-009      -1.2316e-009   
  -0.15           -1.31e-009      3.672e-009      -1.1854e-009   
  -0.2            -2.162e-010     -1.6357e-008    1.5372e-009    
  -0.25           1.1131e-009     1.4922e-008     1.2157e-009    
  -0.3            1.6779e-009     8.339e-009      1.31e-011      
  -0.35           1.7362e-009     8.895e-009      2.068e-010     
  -0.4            7.078e-010      8.672e-009      -1.235e-009    
  -0.45           -1.6741e-009    2.687e-009      -7.977e-010    
  -0.5            9.819e-010      -1.2074e-008    2.0575e-009    
  -0.55           1.2304e-009     1.2298e-008     -1.2176e-009   
  -0.6            -1.8517e-009    1.0162e-008     -4.991e-010    
  -0.65           9.268e-010      -1.0034e-008    1.8647e-009    
  -0.7            1.0314e-009     9.597e-009      -1.2283e-009   
  -0.75           -1.2642e-009    4.584e-009      -1.2228e-009   
  -0.8            -1.7572e-009    -9.22e-009      1.838e-010     
  -0.85           9.742e-010      -1.1894e-008    2.0363e-009    
  -0.9            1.2125e-009     1.1278e-008     -1.2196e-009   
  -0.95           -1.8674e-009    9.359e-009      -4.654e-010    
  -1              9.198e-010      -9.844e-009     1.8504e-009    
  -1.05           1.0083e-009     8.693e-009      -1.2316e-009   
  -1.1            -1.2958e-009    3.91e-009       -1.1993e-009   
  -1.15           -1.744e-009     -9.121e-009     2.182e-010     
  -1.2            -1.8221e-009    -9.475e-009     1.9e-011       
  -1.25           -5.63e-011      -1.3416e-008    1.1433e-009    
  -1.3            -1.786e-010     -1.5664e-008    1.6289e-009    
  -1.35           1.1774e-009     1.4093e-008     1.1585e-009    
  -1.4            1.6243e-009     7.873e-009      -1.2302e-009   
  -1.45           -1.3506e-009    3.2e-009        -1.1425e-009   
  -1.5            -9.993e-010     -1.7197e-008    1.0784e-009    
  -1.55           9.12e-010       -9.17e-009      1.8144e-009    
  -1.6            9.763e-010      8.895e-009      -1.2298e-009   
  -1.65           -1.3396e-009    3.434e-009      -1.1551e-009   
  -1.7            -1.893e-010     -1.5925e-008    1.5832e-009    
  -1.75           1.1504e-009     1.4145e-008     1.1907e-009    
  -1.8            1.6503e-009     8.05e-009       -8e-012        
END_DB

BEGIN_DB
 ICCAP_VAR VG         -0.36          
 ICCAP_VAR VS         0              
 ICCAP_VAR VB         0.9            

 #VD              ID              IB              IG             
  0               -3.857e-010     8.523e-009      1.2574e-009    
  -0.05           8.428e-010      8.345e-009      -1.2296e-009   
  -0.1            -1.5084e-009    1.785e-009      -9.864e-010    
  -0.15           -1.001e-010     -1.3807e-008    1.8263e-009    
  -0.2            9.061e-010      3.73e-010       1.7982e-009    
  -0.25           9.544e-010      8.647e-009      -1.2276e-009   
  -0.3            -1.3727e-009    2.898e-009      -1.1283e-009   
  -0.35           -1.791e-010     -1.5288e-008    1.633e-009     
  -0.4            1.1803e-009     1.4148e-008     1.1593e-009    
  -0.45           1.0157e-009     1.5037e-008     1.3365e-009    
  -0.5            1.7367e-009     8.576e-009      1.247e-010     
  -0.55           6.46e-010       8.676e-009      -1.2314e-009   
