! VERSION = 6.00
BEGIN_HEADER
 ICCAP_INPUTS
  VG         V  B GROUND SMU4 0.001 LIN        1    0          -1.8       37   -0.05     
  VS         V  E GROUND SMU2 0.1 CON        0
  VB         V  C GROUND SMU3 0.1 LIN        3    0          1.8        3    0.9       
  VD         V  S GROUND SMU1 0.1 LIN        2    -0.1       -1.8       2    -1.7      
 ICCAP_OUTPUTS
  IG         I  B GROUND SMU4 B
  ID         I  S GROUND SMU1 B
  IB         I  C GROUND SMU3 B
END_HEADER

BEGIN_DB
 ICCAP_VAR VS         0              
 ICCAP_VAR VB         0              
 ICCAP_VAR VD         -0.1           

 #VG              IG              ID              IB             
  0               -1.1436e-009    -9.589e-010     1.491e-008     
  -0.05           2.042e-009      9.851e-010      -1.1226e-008   
  -0.1            -1.2097e-009    1.2302e-009     1.155e-008     
  -0.15           -5.082e-010     -1.8622e-009    9.979e-009     
  -0.2            1.8625e-009     9.383e-010      -1.012e-008    
  -0.25           -1.229e-009     1.037e-009      9.975e-009     
  -0.3            -1.2284e-009    -1.252e-009     4.213e-009     
  -0.35           1.441e-010      -1.75e-009      -9.435e-009    
  -0.4            2.0302e-009     9.77e-010       -1.0897e-008   
  -0.45           -1.213e-009     1.2049e-009     1.2197e-008    
  -0.5            -1.4042e-009    -1.1677e-009    9.525e-009     
  -0.55           1.1246e-009     3.05e-011       -1.0145e-008   
  -0.6            1.1354e-009     -9.763e-010     -1.0443e-008   
  -0.65           1.1339e-009     -4.4458e-009    -1.1987e-008   
  -0.7            -1.2292e-009    -1.7391e-008    -9.461e-009    
  -0.75           -1.9241e-009    -6.0873e-008    3.612e-009     
  -0.8            4.069e-010      -2.0276e-007    -1.061e-008    
  -0.85           7.232e-010      -6.2054e-007    9.13e-009      
  -0.9            -1.2513e-009    -1.5847e-006    -9.376e-009    
  -0.95           -1.2288e-009    -3.5673e-006    2.736e-009     
  -1              -1.9033e-009    -6.9347e-006    3.759e-009     
  -1.05           3.317e-010      -1.1892e-005    -1.3677e-008   
  -1.1            6.024e-010      -1.8451e-005    8.462e-009     
  -1.15           1.0017e-009     -2.6151e-005    1.0592e-008    
  -1.2            1.4415e-009     -3.4573e-005    1.4942e-008    
  -1.25           4.027e-010      -4.3596e-005    8.938e-009     
  -1.3            6.919e-010      -5.3015e-005    8.629e-009     
  -1.35           1.1198e-009     -6.2225e-005    1.2017e-008    
  -1.4            1.5436e-009     -7.1131e-005    1.5654e-008    
  -1.45           4.73e-010       -7.991e-005     8.841e-009     
  -1.5            8.004e-010      -8.8311e-005    9.061e-009     
  -1.55           1.2444e-009     -9.6184e-005    1.3107e-008    
  -1.6            2.649e-010      -0.000103595    8.613e-009     
  -1.65           5.463e-010      -0.000110816    8.534e-009     
  -1.7            2.3031e-009     -0.0001175      8.611e-009     
  -1.75           1.5319e-009     -0.00012389     1.581e-008     
  -1.8            4.692e-010      -0.00012995     8.87e-009      
END_DB

BEGIN_DB
 ICCAP_VAR VS         0              
 ICCAP_VAR VB         0              
 ICCAP_VAR VD         -1.8           

 #VG              IG              ID              IB             
  0               1.0863e-009     9.305e-010      2.499e-009     
  -0.05           -1.2692e-009    1.3206e-009     1.3009e-008    
  -0.1            -5.346e-010     -1.8494e-009    2.775e-009     
  -0.15           1.1618e-009     -4.902e-010     -2.2563e-008   
  -0.2            1.353e-009      1.0364e-009     -3.268e-009    
  -0.25           1.427e-010      1.7211e-009     8.632e-009     
  -0.3            -1.2517e-009    6.571e-010      8.747e-009     
  -0.35           -7.369e-010     -1.7088e-009    3.121e-009     
  -0.4            1.9941e-009     9.611e-010      -1.0749e-008   
  -0.45           -1.2192e-009    1.1509e-009     1.0647e-008    
  -0.5            -2.1898e-009    -1.2e-009       8.457e-009     
  -0.55           1.1152e-009     -3.601e-010     -9.361e-009    
  -0.6            1.1325e-009     -2.6725e-009    -1.0312e-008   
  -0.65           -1.9491e-009    -1.1909e-008    -9.882e-009    
  -0.7            1.2888e-009     -4.2775e-008    -1.6661e-008   
  -0.75           5.094e-010      -1.5101e-007    -1.2125e-008   
  -0.8            8.503e-010      -4.9604e-007    9.322e-009     
  -0.85           -1.8776e-009    -1.3998e-006    -8.806e-009    
  -0.9            1.1368e-009     -3.615e-006     -9.8e-009      
  -0.95           1.5625e-009     -7.9015e-006    -1.2794e-008   
  -1              -5.94e-010      -1.4985e-005    1.9088e-008    
  -1.05           1.0714e-009     -2.6682e-005    -9.11e-009     
  -1.1            1.1078e-009     -4.2509e-005    -5.417e-009    
  -1.15           1.1401e-009     -6.3223e-005    -1.0267e-008   
  -1.2            1.4105e-009     -8.8664e-005    -1.4171e-008   
  -1.25           2.2766e-009     -0.0001183      1.0326e-008    
  -1.3            8.098e-010      -0.00015388     9.911e-009     
  -1.35           1.2407e-009     -0.00019249     1.3042e-008    
  -1.4            2.626e-010      -0.00023428     8.608e-009     
  -1.45           5.396e-010      -0.00028095     8.43e-009      
  -1.5            9.043e-010      -0.00033027     9.713e-009     
  -1.55           1.3437e-009     -0.0003814      1.3787e-008    
  -1.6            3.361e-010      -0.0004347      8.949e-009     
  -1.65           6.056e-010      -0.00049171     8.489e-009     
  -1.7            1.0011e-009     -0.00055007     1.0479e-008    
  -1.75           1.445e-009      -0.00060888     1.4184e-008    
  -1.8            4.062e-010      -0.00066963     8.691e-009     
END_DB

BEGIN_DB
 ICCAP_VAR VS         0              
 ICCAP_VAR VB         0.9            
 ICCAP_VAR VD         -0.1           

 #VG              IG              ID              IB             
  0               1.137e-009      9.739e-010      2.475e-009     
  -0.05           -1.2255e-009    1.0204e-009     9.82e-009      
  -0.1            -1.2093e-009    -1.2661e-009    3.875e-009     
  -0.15           1.839e-010      -1.7339e-009    -9.28e-009     
  -0.2            2.0024e-009     9.72e-010       -1.0727e-008   
  -0.25           -1.2156e-009    1.1963e-009     1.1833e-008    
  -0.3            -4.456e-010     -1.8887e-009    8.374e-009     
  -0.35           -6.238e-010     -1.7834e-009    -9.352e-009    
  -0.4            1.9169e-009     9.527e-010      -1.0211e-008   
  -0.45           -1.2246e-009    1.1094e-009     1.0708e-008    
  -0.5            -1.2985e-009    -1.1816e-009    5.469e-009     
  -0.55           5.06e-011       -1.7905e-009    -9.403e-009    
  -0.6            1.1374e-009     -1.39e-011      -1.2146e-008   
  -0.65           1.6998e-009     -1.602e-010     -1.4524e-008   
  -0.7            -1.2582e-009    1.318e-009      1.3896e-008    
  -0.75           -1.4741e-009    -1.268e-009     3.001e-009     
  -0.8            1.1316e-009     -7.788e-010     -1.0543e-008   
  -0.85           1.137e-009      -4.464e-009     -1.1451e-008   
  -0.9            -1.2343e-009    -2.0093e-008    -9.28e-009     
  -0.95           -2.0314e-009    -7.946e-008     2.707e-009     
  -1              2.701e-010      -2.8465e-007    -1.0354e-008   
  -1.05           5.446e-010      -9.038e-007     8.368e-009     
  -1.1            -2.0093e-009    -2.2984e-006    -1.3518e-008   
  -1.15           3.33e-011       -5.0213e-006    -9.076e-009    
  -1.2            1.5577e-009     -9.3362e-006    -1.2363e-008   
  -1.25           -1.2449e-009    -1.5066e-005    1.042e-009     
  -1.3            -1.2218e-009    -2.2338e-005    1.998e-009     
  -1.35           -1.7355e-009    -3.0605e-005    5.872e-009     
  -1.4            1.1356e-009     -3.9652e-005    -1.0303e-008   
  -1.45           1.4159e-009     -4.8622e-005    -1.4109e-008   
  -1.5            1.0948e-009     -5.7486e-005    -3.386e-009    
  -1.55           1.0876e-009     -6.613e-005     -4.125e-009    
  -1.6            1.1321e-009     -7.4396e-005    -9.629e-009    
  -1.65           1.6062e-009     -8.2251e-005    -1.2093e-008   
  -1.7            1.4057e-009     -8.9693e-005    1.3849e-008    
  -1.75           3.79e-010       -9.674e-005     8.617e-009     
  -1.8            6.539e-010      -0.00010353     8.704e-009     
END_DB

BEGIN_DB
 ICCAP_VAR VS         0              
 ICCAP_VAR VB         0.9            
 ICCAP_VAR VD         -1.8           

 #VG              IG              ID              IB             
  0               -1.2364e-009    -1.0518e-009    -3.48e-009     
  -0.05           1.8859e-009     9.38e-010       -1.051e-008    
  -0.1            -1.2321e-009    1.069e-009      1.0043e-008    
  -0.15           -1.2499e-009    -1.2459e-009    4.82e-009      
  -0.2            1.272e-010      -1.767e-009     -9.5e-009      
  -0.25           2.0373e-009     9.835e-010      -1.1792e-008   
  -0.3            -1.2177e-009    1.2252e-009     1.209e-008     
  -0.35           -4.824e-010     -1.8653e-009    9.693e-009     
  -0.4            1.8422e-009     9.251e-010      -9.942e-009    
  -0.45           -1.2341e-009    1.0056e-009     9.434e-009     
  -0.5            -1.1787e-009    -1.3188e-009    3.641e-009     
  -0.55           2.241e-010      -1.7283e-009    -9.302e-009    
  -0.6            3.68e-011       -1.8168e-009    -9.507e-009    
  -0.65           1.1404e-009     -7.68e-011      -1.2957e-008   
  -0.7            1.6878e-009     -3.166e-010     -1.5266e-008   
  -0.75           -1.2506e-009    6.363e-010      1.4166e-008    
  -0.8            -1.2425e-009    -3.7645e-009    3.103e-009     
  -0.85           -2.3682e-009    -1.6229e-008    -1.7001e-008   
  -0.9            1.7e-009        -6.7167e-008    -1.1855e-008   
  -0.95           5.204e-010      -2.5748e-007    -1.3096e-008   
  -1              8.731e-010      -8.7443e-007    1.0429e-008    
  -1.05           -1.8986e-009    -2.4513e-006    -1.2528e-008   
  -1.1            1.3305e-009     -6.0345e-006    -1.537e-008    
  -1.15           1.0806e-009     -1.2495e-005    1.977e-009     
  -1.2            1.1359e-009     -2.2996e-005    -9.254e-009    
  -1.25           1.6691e-009     -3.7914e-005    -1.2239e-008   
  -1.3            1.3828e-009     -5.7811e-005    1.4277e-008    
  -1.35           3.572e-010      -8.2455e-005    9.146e-009     
  -1.4            6.268e-010      -0.000112523    8.426e-009     
  -1.45           2.1567e-009     -0.00014594     8.885e-009     
  -1.5            1.2663e-009     -0.00018452     1.3669e-008    
  -1.55           2.752e-010      -0.00022558     8.666e-009     
  -1.6            5.557e-010      -0.00027108     8.383e-009     
  -1.65           9.159e-010      -0.00031935     1.0821e-008    
  -1.7            1.3531e-009     -0.00036944     1.3997e-008    
  -1.75           3.371e-010      -0.00042153     8.802e-009     
  -1.8            6.49e-010       -0.0004769      8.319e-009     
END_DB

BEGIN_DB
 ICCAP_VAR VS         0              
 ICCAP_VAR VB         1.8            
 ICCAP_VAR VD         -0.1           

 #VG              IG              ID              IB             
  0               1.1348e-009     9.991e-010      -1.1719e-008   
  -0.05           1.9958e-009     9.763e-010      -3.396e-009    
  -0.1            -1.2226e-009    1.1935e-009     1.1651e-008    
  -0.15           -1.367e-009     -1.1191e-009    7.91e-009      
  -0.2            1.8039e-009     9.231e-010      -9.243e-009    
  -0.25           -1.2383e-009    9.62e-010       8.968e-009     
  -0.3            -1.1257e-009    -1.3477e-009    2.676e-009     
  -0.35           1.611e-009      -1.768e-010     -1.5436e-008   
  -0.4            1.1418e-009     1.1804e-009     1.389e-008     
  -0.45           1.3258e-009     1.0367e-009     1.4829e-008    
  -0.5            1.175e-010      1.6961e-009     8.887e-009     
  -0.55           2.581e-010      1.779e-009      9.022e-009     
  -0.6            -1.2482e-009    7.627e-010      8.58e-009      
  -0.65           -8.906e-010     -1.5909e-009    2.245e-009     
  -0.7            1.1346e-009     -3.4e-012       -1.1862e-008   
  -0.75           1.7044e-009     -1.46e-010      -1.4436e-008   
  -0.8            1.8262e-009     9.128e-010      -9.72e-010     
  -0.85           -1.2358e-009    9.116e-010      9.411e-009     
  -0.9            -1.9328e-009    -1.43e-009      2.999e-009     
  -0.95           1.5678e-009     -2.2035e-009    -1.589e-008    
  -1              1.1817e-009     -8.1192e-009    1.3793e-008    
  -1.05           -2.3874e-009    -4.2143e-008    -1.9326e-008   
  -1.1            -1.2434e-009    -1.6227e-007    -4.588e-009    
  -1.15           -1.2212e-009    -5.5631e-007    1.886e-009     
  -1.2            -1.8239e-009    -1.5622e-006    -1.0946e-008   
  -1.25           1.1417e-009     -3.694e-006     -1.0085e-008   
  -1.3            1.5173e-009     -7.2345e-006    -1.3004e-008   
  -1.35           -1.3301e-009    -1.2263e-005    1.4725e-008    
  -1.4            1.4477e-009     -1.9048e-005    -1.339e-008    
  -1.45           1.0935e-009     -2.6788e-005    -3.342e-009    
  -1.5            1.0856e-009     -3.5168e-005    -3.971e-009    
  -1.55           1.1354e-009     -4.3853e-005    -8.835e-009    
  -1.6            1.6795e-009     -5.2418e-005    -1.1579e-008   
  -1.65           1.3512e-009     -6.0774e-005    1.3748e-008    
  -1.7            3.436e-010      -6.8741e-005    8.984e-009     
  -1.75           5.97e-010       -7.65e-005      8.439e-009     
  -1.8            9.936e-010      -8.3733e-005    1.0441e-008    
END_DB

BEGIN_DB
 ICCAP_VAR VS         0              
 ICCAP_VAR VB         1.8            
 ICCAP_VAR VD         -1.8           

 #VG              IG              ID              IB             
  0               -1.1756e-009    -1.022e-009     -1.0902e-008   
  -0.05           1.269e-010      -1.7586e-009    -9.516e-009    
  -0.1            2.0383e-009     9.837e-010      -1.155e-008    
  -0.15           -1.2149e-009    1.2219e-009     1.2173e-008    
  -0.2            -4.76e-010      -1.8753e-009    9.49e-009      
  -0.25           1.8414e-009     9.305e-010      -1.0011e-008   
  -0.3            -1.2334e-009    1.0004e-009     9.53e-009      
  -0.35           -1.1832e-009    -1.3122e-009    3.515e-009     
  -0.4            1.5626e-009     -2.16e-010      -1.6104e-008   
  -0.45           1.2003e-009     1.1369e-009     1.4782e-008    
  -0.5            1.92e-011       1.6376e-009     8.451e-009     
  -0.55           1.805e-010      1.7158e-009     8.985e-009     
  -0.6            -1.2454e-009    6.752e-010      8.761e-009     
  -0.65           -7.435e-010     -1.7196e-009    2.925e-009     
  -0.7            2.004e-009      9.719e-010      -1.109e-008    
  -0.75           -1.221e-009     1.1738e-009     1.1851e-008    
  -0.8            -1.3703e-009    -1.1982e-009    8.181e-009     
  -0.85           1.1126e-009     -2.68e-011      -9.484e-009    
  -0.9            1.1347e-009     -1.8495e-009    -1.0645e-008   
  -0.95           -1.229e-009     -1.0718e-008    -9.564e-009    
  -1              -1.8466e-009    -4.5585e-008    4.914e-009     
  -1.05           2.176e-010      -1.8493e-007    -9.466e-009    
  -1.1            4.891e-010      -6.7351e-007    8.52e-009      
  -1.15           -1.678e-009     -1.9889e-006    -1.0781e-008   
  -1.2            1.6054e-009     -5.0641e-006    -1.2227e-008   
  -1.25           1.4139e-009     -1.07734e-005   1.4115e-008    
  -1.3            -2.2766e-009    -2.0145e-005    8.525e-009     
  -1.35           1.1897e-009     -3.4376e-005    -1.7506e-008   
  -1.4            1.0628e-009     -5.311e-005     -3.111e-009    
  -1.45           1.1177e-009     -7.698e-005     -6.104e-009    
  -1.5            1.1324e-009     -0.000105317    -1.0708e-008   
  -1.55           -1.2134e-009    -0.00013726     3.055e-009     
  -1.6            -1.5463e-009    -0.00017393     9.979e-009     
  -1.65           1.7775e-009     -0.00021511     -1.0978e-008   
  -1.7            1.2292e-009     -0.00025863     -3.28e-010     
  -1.75           1.0608e-009     -0.00030532     -3.107e-009    
  -1.8            1.1103e-009     -0.0003547      -5.454e-009    
END_DB

