! VERSION = 6.00
BEGIN_HEADER
 ICCAP_INPUTS
  VG         V  B GROUND SMU4 0.001 LIN        1    0          -1.8       37   -0.05     
  VS         V  E GROUND SMU2 0.1 CON        0
  VB         V  C GROUND SMU3 0.1 LIN        3    0          1.8        3    0.9       
  VD         V  S GROUND SMU1 0.1 LIN        2    -0.1       -1.8       2    -1.7      
 ICCAP_OUTPUTS
  IG         I  B GROUND SMU4 B
  ID         I  S GROUND SMU1 B
  IB         I  C GROUND SMU3 B
END_HEADER

BEGIN_DB
 ICCAP_VAR VS         0              
 ICCAP_VAR VB         0              
 ICCAP_VAR VD         -0.1           

 #VG              IG              ID              IB             
  0               1.0653e-009     1.0325e-009     8.473e-009     
  -0.05           6.612e-010      2.1635e-009     8.978e-009     
  -0.1            8.206e-010      2.1733e-009     8.35e-009      
  -0.15           9.719e-010      2.1536e-009     7.808e-009     
  -0.2            -1.4079e-009    1.7058e-009     1.1156e-008    
  -0.25           -8.956e-010     -2.0712e-009    7.447e-009     
  -0.3            2.7089e-009     -1.5684e-009    -1.3095e-008   
  -0.35           7.312e-010      2.1687e-009     -1.016e-009    
  -0.4            8.884e-010      2.1509e-009     8.111e-009     
  -0.45           -1.8027e-009    1.3781e-009     7.673e-009     
  -0.5            -1.0097e-009    -2.2816e-009    -4.876e-009    
  -0.55           2.7084e-009     -2.0213e-009    -2.3315e-008   
  -0.6            2.6436e-009     -3.1061e-009    -1.179e-009    
  -0.65           -1.6868e-009    -1.4288e-008    -1.7222e-008   
  -0.7            -2.5569e-009    -4.5951e-008    -4.283e-009    
  -0.75           -1.81e-011      -1.4337e-007    -8.849e-009    
  -0.8            -2.348e-009     -3.7315e-007    8.431e-009     
  -0.85           -1.7838e-009    -8.2662e-007    1.812e-009     
  -0.9            -2.2841e-009    -1.612e-006     -1.7787e-008   
  -0.95           2.7097e-009     -2.7872e-006    -1.9181e-008   
  -1              2.4991e-009     -4.2418e-006    -9.79e-010     
  -1.05           6.357e-010      -6.0173e-006    9.734e-009     
  -1.1            1.0136e-009     -8.0483e-006    8.373e-009     
  -1.15           -1.321e-010     -1.01805e-005   1.0617e-008    
  -1.2            -1.149e-010     -1.2473e-005    8.783e-009     
  -1.25           2.433e-009      -1.4762e-005    -2.5084e-008   
  -1.3            1.7766e-009     -1.702e-005     -3.148e-009    
  -1.35           2.5582e-009     -1.9224e-005    -8.189e-009    
  -1.4            6.863e-010      -2.1338e-005    9.67e-009      
  -1.45           1.054e-009      -2.3411e-005    8.248e-009     
  -1.5            -8.49e-011      -2.5322e-005    1.0376e-008    
  -1.55           -2.4167e-009    -2.7139e-005    8.722e-009     
  -1.6            -1.8897e-009    -2.8917e-005    1.662e-009     
  -1.65           2.3691e-009     -3.059e-005     -2.5031e-008   
  -1.7            2.3489e-009     -3.2157e-005    -3.513e-009    
  -1.75           1.3264e-009     -3.3661e-005    8.376e-009     
  -1.8            -1.7739e-009    -3.5e-005       1.4078e-008    
END_DB

BEGIN_DB
 ICCAP_VAR VS         0              
 ICCAP_VAR VB         0              
 ICCAP_VAR VD         -1.8           

 #VG              IG              ID              IB             
  0               -1.3353e-009    -1.4287e-009    9.891e-009     
  -0.05           2.3327e-009     -1.3195e-009    -2.2817e-008   
  -0.1            2.685e-010      2.0313e-009     -3.702e-009    
  -0.15           4.423e-010      2.1042e-009     9.576e-009     
  -0.2            6.203e-010      2.1544e-009     8.866e-009     
  -0.25           7.856e-010      2.1754e-009     8.363e-009     
  -0.3            -1.625e-009     1.5436e-009     1.4476e-008    
  -0.35           -1.1051e-009    -2.0113e-009    -3.991e-009    
  -0.4            2.6754e-009     -1.1843e-009    -2.4279e-008   
  -0.45           -1.7454e-009    1.746e-010      1.9095e-008    
  -0.5            -2.4457e-009    -2.7921e-009    -4.569e-009    
  -0.55           -3.81e-010      -8.9902e-009    -1.0075e-008   
  -0.6            2.4266e-009     -2.3418e-008    9.582e-009     
  -0.65           -1.4144e-009    -8.6368e-008    1.9993e-008    
  -0.7            -2.5384e-009    -2.3814e-007    9.68e-009      
  -0.75           1.7186e-009     -6.5608e-007    -1.8325e-008   
  -0.8            7.545e-010      -1.4286e-006    1.87e-009      
  -0.85           1.108e-009      -2.8897e-006    8.182e-009     
  -0.9            1.4852e-009     -5.2299e-006    8.775e-009     
  -0.95           3.932e-010      -8.5224e-006    9.69e-009      
  -1              -8.959e-010     -1.2951e-005    1.8633e-008    
  -1.05           2.6199e-009     -1.8754e-005    -1.338e-008    
  -1.1            1.3718e-009     -2.5546e-005    8.797e-009     
  -1.15           2.709e-010      -3.3221e-005    9.893e-009     
  -1.2            7.026e-010      -4.2152e-005    9.689e-009     
  -1.25           1.0636e-009     -5.2117e-005    8.229e-009     
  -1.3            -8e-011         -6.2691e-005    1.0349e-008    
  -1.35           -1.2776e-009    -7.407e-005     2.4326e-008    
  -1.4            -2.5601e-009    -8.6259e-005    8.693e-009     
  -1.45           1.7935e-009     -9.9464e-005    -1.7823e-008   
  -1.5            2.5649e-009     -0.000112808    -8.376e-009    
  -1.55           2.4824e-009     -0.0001266      9.687e-009     
  -1.6            1.5297e-009     -0.00014128     9.806e-009     
  -1.65           1.9419e-009     -0.00015578     1.0712e-008    
  -1.7            8.546e-010      -0.00017069     8.891e-009     
  -1.75           1.1989e-009     -0.00018631     7.758e-009     
  -1.8            6.92e-011       -0.0002015      9.815e-009     
END_DB

BEGIN_DB
 ICCAP_VAR VS         0              
 ICCAP_VAR VB         0.9            
 ICCAP_VAR VD         -0.1           

 #VG              IG              ID              IB             
  0               -1.094e-009     -9.42e-010      -1.9431e-008   
  -0.05           1.31e-009       -1.1145e-009    -2.657e-008    
  -0.1            1.0365e-009     2.2079e-009     -9.68e-009     
  -0.15           1.1835e-009     2.0868e-009     9.726e-009     
  -0.2            -2.291e-010     1.9055e-009     1.0396e-008    
  -0.25           -1.5382e-009    8.597e-010      2.4159e-008    
  -0.3            -1.7026e-009    -1.4186e-009    6.629e-009     
  -0.35           -3.278e-010     -2.1217e-009    -1.1477e-008   
  -0.4            2.4868e-009     -1.2891e-009    -2.4835e-008   
  -0.45           1.1194e-009     2.1524e-009     -2.221e-009    
  -0.5            1.2712e-009     2.0023e-009     1.1323e-008    
  -0.55           -1.4279e-009    1.8079e-009     1.19e-008      
  -0.6            -9.452e-010     -2.1538e-009    8.124e-009     
  -0.65           1.5587e-009     -1.749e-009     -1.2662e-008   
  -0.7            1.377e-009      -7.91e-011      -8.845e-009    
  -0.75           2.6988e-009     -1.8401e-009    -9.024e-009    
  -0.8            1.5665e-009     -6.5346e-009    1.2258e-008    
  -0.85           -1.2777e-009    -3.4842e-008    -1.1444e-008   
  -0.9            1.8526e-009     -1.1047e-007    -2.6397e-008   
  -0.95           7.091e-010      -3.3324e-007    1.0597e-008    
  -1              1.0757e-009     -8.1366e-007    9.061e-009     
  -1.05           -2.4244e-009    -1.6256e-006    -2.0587e-008   
  -1.1            -1.8774e-009    -2.8437e-006    7.84e-010      
  -1.15           2.365e-009      -4.495e-006     -2.6373e-008   
  -1.2            1.6841e-009     -6.3564e-006    -3.182e-009    
  -1.25           2.6855e-009     -8.458e-006     -8.771e-009    
  -1.3            1.7967e-009     -1.0704e-005    1.2125e-008    
  -1.35           -2.6495e-009    -1.2934e-005    1.0876e-008    
  -1.4            -8.93e-010      -1.5176e-005    -1.052e-008    
  -1.45           2.6738e-009     -1.7424e-005    -1.3205e-008   
  -1.5            1.4098e-009     -1.9562e-005    1.0608e-008    
  -1.55           2.575e-010      -2.1507e-005    1.0466e-008    
  -1.6            7.051e-010      -2.3437e-005    1.051e-008     
  -1.65           1.0668e-009     -2.5273e-005    9.017e-009     
  -1.7            1.4679e-009     -2.7004e-005    1.1032e-008    
  -1.75           3.152e-010      -2.8568e-005    1.0402e-008    
  -1.8            7.541e-010      -3.0113e-005    1.0346e-008    
END_DB

BEGIN_DB
 ICCAP_VAR VS         0              
 ICCAP_VAR VB         0.9            
 ICCAP_VAR VD         -1.8           

 #VG              IG              ID              IB             
  0               7.801e-010      7.137e-010      2.0766e-008    
  -0.05           5.93e-010       2.1485e-009     -7.781e-009    
  -0.1            7.588e-010      2.1801e-009     8.64e-009      
  -0.15           -1.6701e-009    7.538e-010      1.9918e-008    
  -0.2            -1.0789e-009    -2.0004e-009    -4.065e-009    
  -0.25           2.6918e-009     -1.0158e-009    -2.4193e-008   
  -0.3            8.261e-010      2.1757e-009     -1.29e-009     
  -0.35           -1.5762e-009    1.5836e-009     1.351e-008     
  -0.4            -1.1396e-009    -1.9633e-009    -3.894e-009    
  -0.45           2.6665e-009     -1.0711e-009    -2.4792e-008   
  -0.5            -1.6981e-009    7.273e-010      1.9797e-008    
  -0.55           -1.0635e-009    -2.0657e-009    -4.377e-009    
  -0.6            2.6952e-009     -1.2778e-009    -2.3987e-008   
  -0.65           2.6178e-009     -4.799e-010     -1.259e-009    
  -0.7            -1.608e-009     -4.3596e-009    2.0905e-008    
  -0.75           -2.4603e-009    -2.0227e-008    -2.4714e-008   
  -0.8            -2.0029e-009    -7.3685e-008    1.366e-009     
  -0.85           -2.5525e-009    -2.4235e-007    1.0752e-008    
  -0.9            2.4663e-009     -7.1578e-007    -2.4858e-008   
  -0.95           1.7432e-009     -1.647e-006     9.11e-009      
  -1              6.706e-010      -3.3584e-006    9.755e-009     
  -1.05           1.0359e-009     -6.1206e-006    8.354e-009     
  -1.1            -1.125e-010     -1.00119e-005   1.0467e-008    
  -1.15           7.33e-011       -1.5222e-005    9.041e-009     
  -1.2            2.6421e-009     -2.1512e-005    -2.2451e-008   
  -1.25           -1.3913e-009    -2.8764e-005    2.0411e-008    
  -1.3            -2.564e-009     -3.7234e-005    7.527e-009     
  -1.35           2.3906e-009     -4.7064e-005    -2.5172e-008   
  -1.4            1.7304e-009     -5.7401e-005    -3.393e-009    
  -1.45           2.5758e-009     -6.8677e-005    -8.508e-009    
  -1.5            7.016e-010      -8.0503e-005    9.691e-009     
  -1.55           1.0596e-009     -9.3182e-005    8.115e-009     
  -1.6            -7.99e-011      -0.000106086    1.0236e-008    
  -1.65           1.237e-010      -0.00011974     1.0576e-008    
  -1.7            -2.2035e-009    -0.00013362     2.5948e-008    
  -1.75           1.627e-010      -0.00014859     -1.2392e-008   
  -1.8            2.6883e-009     -0.00016331     -2.0522e-008   
END_DB

BEGIN_DB
 ICCAP_VAR VS         0              
 ICCAP_VAR VB         1.8            
 ICCAP_VAR VD         -0.1           

 #VG              IG              ID              IB             
  0               -8.009e-010     1.899e-010      2.3286e-008    
  -0.05           -1.1212e-009    -2.0478e-009    8.689e-009     
  -0.1            2.6635e-009     -1.7533e-009    -1.1456e-008   
  -0.15           1.1925e-009     2.0809e-009     9.751e-009     
  -0.2            -2.233e-010     1.908e-009      1.0411e-008    
  -0.25           -1.529e-009     8.669e-010      2.4285e-008    
  -0.3            -1.7095e-009    -1.4085e-009    6.821e-009     
  -0.35           1.9783e-009     -1.5278e-009    -1.7404e-008   
  -0.4            5.202e-010      2.2158e-009     -6.964e-009    
  -0.45           6.914e-010      2.2577e-009     9.565e-009     
  -0.5            8.5e-010        2.2561e-009     9.083e-009     
  -0.55           9.968e-010      2.2173e-009     8.955e-009     
  -0.6            1.1422e-009     2.1224e-009     1.046e-008     
  -0.65           1.3054e-009     1.9654e-009     1.169e-008     
  -0.7            -1.4156e-009    1.8104e-009     1.2168e-008    
  -0.75           -1.8393e-009    -1.3392e-009    8.157e-009     
  -0.8            1.6713e-009     -2.065e-009     -1.3608e-008   
  -0.85           1.4521e-009     -1.6828e-009    -8.872e-009    
  -0.9            2.6592e-009     -8.9942e-009    -8.876e-009    
  -0.95           -1.4804e-009    -3.6205e-008    -1.2801e-008   
  -1              -1.4163e-009    -1.3382e-007    -8.288e-009    
  -1.05           -1.3299e-009    -3.7013e-007    8.276e-009     
  -1.1            -2.5207e-009    -8.9059e-007    8.285e-009     
  -1.15           -1.9229e-009    -1.7748e-006    -1.4007e-008   
  -1.2            2.554e-009      -3.1174e-006    -2.5821e-008   
  -1.25           1.9139e-009     -4.7477e-006    -1.733e-009    
  -1.3            1.377e-009      -6.6914e-006    -7.258e-009    
  -1.35           2.7794e-009     -8.8207e-006    -9.062e-009    
  -1.4            2.0823e-009     -1.10323e-005   1.1952e-008    
  -1.45           -2.661e-009     -1.3249e-005    9.933e-009     
  -1.5            2.2412e-009     -1.5476e-005    -2.5887e-008   
  -1.55           1.5725e-009     -1.7588e-005    -4.446e-009    
  -1.6            2.7134e-009     -1.9621e-005    -8.816e-009    
  -1.65           8.197e-010      -2.153e-005     9.895e-009     
  -1.7            1.1826e-009     -2.3383e-005    8.91e-009      
  -1.75           1.19e-011       -2.5052e-005    1.0436e-008    
  -1.8            4.689e-010      -2.6685e-005    1.0484e-008    
END_DB

BEGIN_DB
 ICCAP_VAR VS         0              
 ICCAP_VAR VB         1.8            
 ICCAP_VAR VD         -1.8           

 #VG              IG              ID              IB             
  0               -2.1748e-009    -2.0704e-009    -4.1e-010      
  -0.05           1.7099e-009     -8.39e-010      -2.0257e-008   
  -0.1            6.85e-010       2.171e-009      -8.826e-009    
  -0.15           8.496e-010      2.1743e-009     8.123e-009     
  -0.2            -1.5406e-009    1.6099e-009     1.3032e-008    
  -0.25           -7.846e-010     -2.0878e-009    5.958e-009     
  -0.3            1.8702e-009     -7.795e-010     -1.9215e-008   
  -0.35           5.895e-010      2.1477e-009     -7.485e-009    
  -0.4            -1.9037e-009    6.345e-010      1.7125e-008    
  -0.45           2.6103e-009     -1.1389e-009    -2.5361e-008   
  -0.5            -1.5639e-009    1.5823e-009     9.03e-009      
  -0.55           -7.637e-010     -2.0861e-009    5.774e-009     
  -0.6            1.9069e-009     -1.5198e-009    -1.6408e-008   
  -0.65           5.709e-010      2.0689e-009     -7.21e-009     
  -0.7            -2.2715e-009    8.402e-010      8.691e-009     
  -0.75           2.7133e-009     -3.2646e-009    -1.2978e-008   
  -0.8            2.6586e-009     -6.7738e-009    -1.04e-009     
  -0.85           -2.5001e-009    -3.0792e-008    -1.6801e-008   
  -0.9            -7.29e-011      -1.1975e-007    -8.988e-009    
  -0.95           -2.4163e-009    -3.7213e-007    8.714e-009     
  -1              -1.879e-009     -9.8137e-007    1.609e-009     
  -1.05           -1.8778e-009    -2.2518e-006    -1.3189e-008   
  -1.1            2.5068e-009     -4.5451e-006    -2.4769e-008   
  -1.15           6.455e-010      -7.7664e-006    9.722e-009     
  -1.2            -1.101e-009     -1.2185e-005    2.2734e-008    
  -1.25           2.5296e-009     -1.8149e-005    -2.4479e-008   
  -1.3            6.214e-010      -2.4918e-005    9.62e-009      
  -1.35           -1.5351e-009    -3.2894e-005    1.7761e-008    
  -1.4            -1.2713e-009    -4.1939e-005    5.945e-009     
  -1.45           -2.5671e-009    -5.1927e-005    8.875e-009     
  -1.5            1.9877e-009     -6.3081e-005    -2.3028e-008   
  -1.55           2.4933e-009     -7.4609e-005    -6.511e-009    
  -1.6            5.752e-010      -8.6725e-005    9.695e-009     
  -1.65           -1.594e-009     -9.9435e-005    1.6786e-008    
  -1.7            -2.5795e-009    -0.000112841    -3.786e-009    
  -1.75           -1.1256e-009    -0.0001265      -2.5061e-008   
  -1.8            2.5068e-009     -0.0001411      -2.4784e-008   
END_DB

