! VERSION = 6.00
BEGIN_HEADER
 ICCAP_INPUTS
  VG         V  B GROUND SMU4 0.001 LIN        2    0          -1.8       6    -0.36     
  VS         V  E GROUND SMU2 0.1 CON        0
  VD         V  S GROUND SMU1 0.1 LIN        1    0          -1.8       37   -0.05     
  VB         V  C GROUND SMU3 0.1 LIN        3    0          0.9        2    0.9       
 ICCAP_OUTPUTS
  ID         I  S GROUND SMU1 B
  IB         I  C GROUND SMU3 B
  IG         I  B GROUND SMU4 B
END_HEADER

BEGIN_DB
 ICCAP_VAR VG         0              
 ICCAP_VAR VS         0              
 ICCAP_VAR VB         0              

 #VD              ID              IB              IG             
  0               9.102e-010      3.166e-009      1.1161e-009    
  -0.05           1.1634e-009     1.4326e-008     1.2119e-009    
  -0.1            1.022e-009      1.517e-008      1.3784e-009    
  -0.15           1.7534e-009     8.952e-009      1.27e-010      
  -0.2            1.8141e-009     9.07e-009       2.656e-010     
  -0.25           7.77e-010       8.72e-009       -1.2464e-009   
  -0.3            -1.6464e-009    2.288e-009      -8.623e-010    
  -0.35           4.42e-011       -1.268e-008     1.1557e-009    
  -0.4            -1.119e-010     -1.4689e-008    1.799e-009     
  -0.45           1.3212e-009     1.3525e-008     1.0386e-009    
  -0.5            1.1599e-009     1.4244e-008     1.2071e-009    
  -0.55           1.6741e-009     7.929e-009      -2.07e-011     
  -0.6            1.7431e-009     8.726e-009      1.436e-010     
  -0.65           6.47e-010       8.73e-009       -1.2509e-009   
  -0.7            -1.7675e-009    2.966e-009      -6.822e-010    
  -0.75           9.696e-010      -1.1436e-008    1.9987e-009    
  -0.8            1.1551e-009     1.0884e-008     -1.2409e-009   
  -0.85           -1.195e-009     6.845e-009      -1.3256e-009   
  -0.9            9.091e-010      -7.58e-009      1.7642e-009    
  -0.95           8.761e-010      8.515e-009      -1.246e-009    
  -1              -1.5295e-009    1.963e-009      -9.952e-010    
  -1.05           -7.37e-011      -1.396e-008     1.1497e-009    
  -1.1            -1.859e-010     -1.61e-008      1.6289e-009    
  -1.15           9.401e-010      -1.973e-009     1.9083e-009    
  -1.2            1.0523e-009     9.627e-009      -1.2433e-009   
  -1.25           -1.3138e-009    4.482e-009      -1.2169e-009   
  -1.3            -1.7643e-009    -9.098e-009     2.478e-010     
  -1.35           -1.8418e-009    -9.54e-009      6.46e-011      
  -1.4            4.4e-012        -1.3284e-008    1.1595e-009    
  -1.45           -1.397e-010     -1.5113e-008    1.7355e-009    
  -1.5            1.2785e-009     1.3966e-008     1.0803e-009    
  -1.55           1.1234e-009     1.5266e-008     1.2519e-009    
  -1.6            1.6978e-009     8.349e-009      2.31e-011      
  -1.65           1.7763e-009     9.056e-009      1.694e-010     
  -1.7            6.825e-010      8.927e-009      -1.2497e-009   
  -1.75           -1.7413e-009    2.947e-009      -7.287e-010    
  -1.8            9.773e-010      -1.1726e-008    2.0286e-009    
END_DB

BEGIN_DB
 ICCAP_VAR VG         -0.36          
 ICCAP_VAR VS         0              
 ICCAP_VAR VB         0              

 #VD              ID              IB              IG             
  0               6.844e-010      1.5328e-008     4.655e-010     
  -0.05           -1.169e-010     -1.4798e-008    1.7847e-009    
  -0.1            1.3164e-009     1.3492e-008     1.0445e-009    
  -0.15           1.1442e-009     1.4522e-008     1.2207e-009    
  -0.2            1.6778e-009     7.964e-009      -9.5e-012      
  -0.25           1.7585e-009     8.694e-009      1.392e-010     
  -0.3            6.508e-010      8.728e-009      -1.249e-009    
  -0.35           -1.7631e-009    2.937e-009      -6.886e-010    
  -0.4            9.696e-010      -1.1512e-008    2.0238e-009    
  -0.45           1.1581e-009     9.651e-009      -1.2389e-009   
  -0.5            -1.1958e-009    7.209e-009      -1.3333e-009   
  -0.55           -1.1248e-009    -1.299e-008     1.1211e-009    
  -0.6            9.559e-010      -1.1099e-008    1.9577e-009    
  -0.65           1.1114e-009     9.178e-009      -1.2422e-009   
  -0.7            -1.2457e-009    5.806e-009      -1.2841e-009   
  -0.75           9.044e-010      -6.392e-009     1.725e-009     
  -0.8            8.273e-010      8.672e-009      -1.244e-009    
  -0.85           -1.5979e-009    1.985e-009      -9.248e-010    
  -0.9            -1.43e-011      -1.3373e-008    1.1546e-009    
  -0.95           -1.459e-010     -1.5357e-008    1.7234e-009    
  -1              1.2694e-009     1.4165e-008     1.0985e-009    
  -1.05           1.1127e-009     1.5276e-008     1.269e-009     
  -1.1            1.7026e-009     8.518e-009      3.19e-011      
  -1.15           1.7779e-009     9.138e-009      1.865e-010     
  -1.2            6.926e-010      8.905e-009      -1.2475e-009   
  -1.25           -1.7279e-009    2.82e-009       -7.49e-010     
  -1.3            9.788e-010      -1.1803e-008    2.0401e-009    
  -1.35           1.1967e-009     1.0258e-008     -1.24e-009     
  -1.4            -1.1595e-009    8.285e-009      -1.3666e-009   
  -1.45           -1.854e-009     -9.639e-009     1.99e-011      
  -1.5            -3.74e-011      -1.368e-008     1.159e-009     
  -1.55           -1.628e-010     -1.5707e-008    1.6908e-009    
  -1.6            9.317e-010      -1.321e-009     1.8869e-009    
  -1.65           1.0286e-009     9.262e-009      -1.2447e-009   
  -1.7            -1.347e-009     3.847e-009      -1.1874e-009   
  -1.75           -1.7576e-009    -8.965e-009     2.882e-010     
  -1.8            9.666e-010      -1.1516e-008    1.9989e-009    
END_DB

BEGIN_DB
 ICCAP_VAR VG         -0.72          
 ICCAP_VAR VS         0              
 ICCAP_VAR VB         0              

 #VD              ID              IB              IG             
  0               -1.0468e-009    -1.0681e-008    -1.2024e-009   
  -0.05           -4.206e-009     -1.3736e-008    1.1147e-009    
  -0.1            -3.4402e-009    -1.0966e-008    1.1443e-009    
  -0.15           -3.704e-009     -1.1912e-008    1.1532e-009    
  -0.2            -3.8816e-009    -1.3633e-008    1.1526e-009    
  -0.25           -4.0151e-009    -1.5574e-008    1.703e-009     
  -0.3            -2.5188e-009    1.4116e-008     1.1112e-009    
  -0.35           -2.6744e-009    1.5549e-008     1.2848e-009    
  -0.4            -2.0846e-009    8.513e-009      4.6e-011       
  -0.45           -2.0267e-009    9.14e-009       1.977e-010     
  -0.5            -2.0246e-009    8.814e-009      3.361e-010     
  -0.55           -2.0104e-009    8.509e-009      4.316e-010     
  -0.6            -2.0756e-009    8.561e-009      5.396e-010     
  -0.65           -2.1663e-009    9.175e-009      6.52e-010      
  -0.7            -2.2812e-009    1.0673e-008     7.937e-010     
  -0.75           -2.4356e-009    1.2639e-008     9.646e-010     
  -0.8            -2.6003e-009    1.4366e-008     1.1369e-009    
  -0.85           -2.7478e-009    1.5845e-008     1.3075e-009    
  -0.9            -2.1404e-009    8.599e-009      6.71e-011      
  -0.95           -2.0959e-009    8.585e-009      2.141e-010     
  -1              -2.0743e-009    8.655e-009      3.438e-010     
  -1.05           -2.0794e-009    8.468e-009      4.464e-010     
  -1.1            -2.1356e-009    8.993e-009      5.467e-010     
  -1.15           -2.2252e-009    1.0322e-008     6.64e-010      
  -1.2            -2.3466e-009    1.1901e-008     8.12e-010      
  -1.25           -2.5097e-009    1.3193e-008     9.753e-010     
  -1.3            -2.6758e-009    1.4403e-008     1.152e-009     
  -1.35           -2.8165e-009    1.4964e-008     1.3257e-009    
  -1.4            -2.1876e-009    8.51e-009       8.4e-011       
  -1.45           -2.1348e-009    9.08e-009       2.24e-010      
  -1.5            -2.1134e-009    8.757e-009      3.489e-010     
  -1.55           -2.1247e-009    8.541e-009      4.562e-010     
  -1.6            -2.2032e-009    8.643e-009      5.749e-010     
  -1.65           -2.2907e-009    1.0539e-008     6.859e-010     
  -1.7            -2.4157e-009    1.2083e-008     8.335e-010     
  -1.75           -2.5657e-009    1.3308e-008     9.984e-010     
  -1.8            -2.7376e-009    1.415e-008      1.1718e-009    
END_DB

BEGIN_DB
 ICCAP_VAR VG         -1.08          
 ICCAP_VAR VS         0              
 ICCAP_VAR VB         0              

 #VD              ID              IB              IG             
  0               -1.0842e-009    -3.277e-009     5.731e-010     
  -0.05           -4.4803e-007    -9.023e-009     2.3007e-009    
  -0.1            -7.5921e-007    -1.5428e-008    1.3589e-009    
  -0.15           -9.5049e-007    -8.182e-009     1.1441e-009    
  -0.2            -1.05991e-006   -1.0121e-008    1.1529e-009    
  -0.25           -1.10881e-006   -9.655e-009     -3.439e-010    
  -0.3            -1.13521e-006   2.087e-009      -1.2465e-009   
  -0.35           -1.154e-006     -1.0854e-008    -1.819e-009    
  -0.4            -1.1704e-006    1.3005e-008     1.2388e-009    
  -0.45           -1.1796e-006    -1.1233e-008    1.1553e-009    
  -0.5            -1.1846e-006    -1.1372e-008    1.1551e-009    
  -0.55           -1.1894e-006    -1.1322e-008    1.1558e-009    
  -0.6            -1.1924e-006    -1.1558e-008    1.1554e-009    
  -0.65           -1.1951e-006    -1.1656e-008    1.1551e-009    
  -0.7            -1.1986e-006    -1.1644e-008    1.1562e-009    
  -0.75           -1.2009e-006    -1.1676e-008    1.8086e-009    
  -0.8            -1.2045e-006    -1.3013e-008    1.6082e-009    
  -0.85           -1.2086e-006    -1.4828e-008    1.4135e-009    
  -0.9            -1.2072e-006    -9.025e-009     -3.91e-011     
  -0.95           -1.2031e-006    1.0573e-008     -1.5698e-009   
  -1              -1.2116e-006    1.4374e-008     1.4494e-009    
  -1.05           -1.2212e-006    -1.0549e-008    1.1552e-009    
  -1.1            -1.2226e-006    -1.1058e-008    1.1567e-009    
  -1.15           -1.2241e-006    -1.1235e-008    1.1566e-009    
  -1.2            -1.2264e-006    -1.1269e-008    1.1562e-009    
  -1.25           -1.2275e-006    -1.1349e-008    1.1567e-009    
  -1.3            -1.2292e-006    -1.1558e-008    1.1553e-009    
  -1.35           -1.2311e-006    -1.151e-008     1.1556e-009    
  -1.4            -1.2326e-006    -1.166e-008     1.1535e-009    
  -1.45           -1.2347e-006    -1.1782e-008    1.8107e-009    
  -1.5            -1.2377e-006    -1.3117e-008    1.614e-009     
  -1.55           -1.2402e-006    -1.486e-008     1.4143e-009    
  -1.6            -1.2378e-006    -9.061e-009     -3.84e-011     
  -1.65           -1.2324e-006    1.0488e-008     -1.5672e-009   
  -1.7            -1.2407e-006    1.4398e-008     1.4487e-009    
  -1.75           -1.2502e-006    -1.0502e-008    1.1563e-009    
  -1.8            -1.2507e-006    -1.0898e-008    1.156e-009     
END_DB

BEGIN_DB
 ICCAP_VAR VG         -1.44          
 ICCAP_VAR VS         0              
 ICCAP_VAR VB         0              

 #VD              ID              IB              IG             
  0               -1.4135e-009    1.2823e-008     1.1005e-009    
  -0.05           -1.5141e-006    -1.69e-008      -2.1987e-009   
  -0.1            -2.848e-006     7.814e-009      1.889e-010     
  -0.15           -4.0151e-006    -1.457e-008     1.4664e-009    
  -0.2            -5.0057e-006    -1.5908e-008    1.2876e-009    
  -0.25           -5.8207e-006    -9.449e-009     -1.5e-010      
  -0.3            -6.4759e-006    1.2766e-008     -1.4606e-009   
  -0.35           -7.0091e-006    1.5084e-008     1.5463e-009    
  -0.4            -7.4155e-006    -1.3782e-008    1.5305e-009    
  -0.45           -7.7038e-006    -8.784e-009     5.58e-011      
  -0.5            -7.8926e-006    8.571e-009      -1.6732e-009   
  -0.55           -8.0726e-006    1.4076e-008     1.3574e-009    
  -0.6            -8.1818e-006    -1.1776e-008    1.7959e-009    
  -0.65           -8.2643e-006    -1.3109e-008    1.5917e-009    
  -0.7            -8.3303e-006    -1.4809e-008    1.3985e-009    
  -0.75           -8.3672e-006    -9.128e-009     -4.73e-011     
  -0.8            -8.3872e-006    1.0661e-008     -1.5557e-009   
  -0.85           -8.4484e-006    1.449e-008      1.4575e-009    
  -0.9            -8.4965e-006    -1.0426e-008    1.1557e-009    
  -0.95           -8.5239e-006    -1.1117e-008    1.1572e-009    
  -1              -8.5505e-006    -1.128e-008     1.1575e-009    
  -1.05           -8.5777e-006    -1.1311e-008    1.1562e-009    
  -1.1            -8.5988e-006    -1.142e-008     1.1564e-009    
  -1.15           -8.6182e-006    -1.1608e-008    1.1574e-009    
  -1.2            -8.6372e-006    -1.1741e-008    1.1563e-009    
  -1.25           -8.6499e-006    -1.1687e-008    1.8161e-009    
  -1.3            -8.6675e-006    -1.3016e-008    1.6221e-009    
  -1.35           -8.688e-006     -1.4684e-008    1.42e-009      
  -1.4            -8.7075e-006    -1.6679e-008    1.259e-009     
  -1.45           -8.7256e-006    -7.502e-009     1.1381e-009    
  -1.5            -8.7416e-006    -7.944e-009     1.1394e-009    
  -1.55           -8.7571e-006    -8.176e-009     1.1434e-009    
  -1.6            -8.7506e-006    -9.296e-009     -1.125e-010    
  -1.65           -8.7439e-006    1.208e-008      -1.4905e-009   
  -1.7            -8.7797e-006    1.5174e-008     1.5156e-009    
  -1.75           -8.8045e-006    -1.3468e-008    1.5811e-009    
  -1.8            -8.8214e-006    -1.4937e-008    1.3885e-009    
END_DB

BEGIN_DB
 ICCAP_VAR VG         -1.8           
 ICCAP_VAR VS         0              
 ICCAP_VAR VB         0              

 #VD              ID              IB              IG             
  0               -1.7188e-009    -1.3816e-008    -1.2449e-009   
  -0.05           -2.4775e-006    1.2832e-008     1.4875e-009    
  -0.1            -4.8052e-006    -1.5967e-008    1.3084e-009    
  -0.15           -6.9701e-006    -9.394e-009     -1.432e-010    
  -0.2            -8.9702e-006    1.2619e-008     -1.4686e-009   
  -0.25           -1.08249e-005   1.4986e-008     1.5301e-009    
  -0.3            -1.2507e-005    -1.0704e-008    1.5919e-009    
  -0.35           -1.4044e-005    -1.9622e-008    1.1122e-009    
  -0.4            -1.5392e-005    -1.3267e-008    1.5973e-009    
  -0.45           -1.6609e-005    -1.1425e-008    1.1571e-009    
  -0.5            -1.7651e-005    -1.3719e-008    1.5393e-009    
  -0.55           -1.8554e-005    -9.802e-009     1.1539e-009    
  -0.6            -1.929e-005     -1.2779e-008    1.66e-009      
  -0.65           -1.9914e-005    -9.524e-009     -2.399e-010    
  -0.7            -2.0406e-005    2.411e-009      -1.245e-009    
  -0.75           -2.0881e-005    1.1502e-008     1.0043e-009    
  -0.8            -2.1208e-005    -1.1174e-008    1.1562e-009    
  -0.85           -2.1466e-005    -1.3708e-008    1.5421e-009    
  -0.9            -2.169e-005     -9.727e-009     1.1531e-009    
  -0.95           -2.1857e-005    -1.2693e-008    1.6557e-009    
  -1              -2.1979e-005    -9.555e-009     -2.405e-010    
  -1.05           -2.2078e-005    2.44e-009       -1.246e-009    
  -1.1            -2.2264e-005    1.1505e-008     1.0044e-009    
  -1.15           -2.2352e-005    -1.1168e-008    1.1558e-009    
  -1.2            -2.2421e-005    -1.381e-008     1.532e-009     
  -1.25           -2.251e-005     -1.0844e-008    1.1561e-009    
  -1.3            -2.2554e-005    -1.4215e-008    1.4807e-009    
  -1.35           -2.2644e-005    -1.0251e-008    1.1545e-009    
  -1.4            -2.2695e-005    -1.3141e-008    1.5952e-009    
  -1.45           -2.2723e-005    -9.556e-009     -2.69e-010     
  -1.5            -2.2752e-005    2.413e-009      -1.2454e-009   
  -1.55           -2.2881e-005    1.191e-008      1.0478e-009    
  -1.6            -2.2921e-005    -1.0677e-008    1.1539e-009    
  -1.65           -2.2958e-005    -1.4182e-008    1.4881e-009    
  -1.7            -2.3012e-005    -1.0232e-008    1.1548e-009    
  -1.75           -2.3043e-005    -1.3091e-008    1.5987e-009    
  -1.8            -2.3097e-005    -1.1298e-008    1.1566e-009    
END_DB

BEGIN_DB
 ICCAP_VAR VG         0              
 ICCAP_VAR VS         0              
 ICCAP_VAR VB         0.9            

 #VD              ID              IB              IG             
  0               -1.042e-009     -1.031e-008     -1.2217e-009   
  -0.05           -1.803e-010     -1.5641e-008    1.6283e-009    
  -0.1            9.437e-010      -1.79e-009      1.9094e-009    
  -0.15           1.0493e-009     9.673e-009      -1.2407e-009   
  -0.2            -1.2952e-009    4.359e-009      -1.215e-009    
  -0.25           -1.0502e-009    -1.5624e-008    1.0977e-009    
  -0.3            9.344e-010      -1.0004e-008    1.8759e-009    
  -0.35           1.0088e-009     8.796e-009      -1.2418e-009   
  -0.4            -1.3472e-009    3.564e-009      -1.164e-009    
  -0.45           -1.875e-010     -1.6121e-008    1.6196e-009    
  -0.5            9.458e-010      -2.009e-009     1.9131e-009    
  -0.55           1.0586e-009     9.839e-009      -1.2402e-009   
  -0.6            -1.287e-009     4.392e-009      -1.2275e-009   
  -0.65           -1.7688e-009    -9.131e-009     2.14e-010      
  -0.7            -1.8462e-009    -9.389e-009     3.21e-011      
  -0.75           -2.26e-011      -1.3021e-008    1.1517e-009    
  -0.8            -1.553e-010     -1.5463e-008    1.6851e-009    
  -0.85           9.355e-010      -9.08e-010      1.8882e-009    
  -0.9            1.0125e-009     9.393e-009      -1.241e-009    
  -0.95           -1.3325e-009    3.738e-009      -1.1817e-009   
  -1              -1.7414e-009    -8.923e-009     2.643e-010     
  -1.05           -1.8275e-009    -9.44e-009      9.02e-011      
  -1.1            2.86e-011       -1.2554e-008    1.1525e-009    
  -1.15           -1.264e-010     -1.4661e-008    1.7543e-009    
  -1.2            9.284e-010      -2.88e-010      1.8494e-009    
  -1.25           9.744e-010      9.009e-009      -1.2421e-009   
  -1.3            -1.383e-009     3.086e-009      -1.1306e-009   
  -1.35           -1.7123e-009    -8.938e-009     1.0843e-009    
  -1.4            9.223e-010      -8.898e-009     1.8166e-009    
  -1.45           9.337e-010      8.667e-009      -1.2447e-009   
  -1.5            -1.4357e-009    2.644e-009      -1.0692e-009   
  -1.55           -1.363e-010     -1.4785e-008    1.7344e-009    
  -1.6            9.316e-010      -3.84e-010      1.8578e-009    
  -1.65           9.869e-010      8.711e-009      -1.2425e-009   
  -1.7            -1.3643e-009    3.249e-009      -1.1488e-009   
  -1.75           -1.7208e-009    -8.931e-009     1.0863e-009    
  -1.8            9.236e-010      -9.153e-009     1.8262e-009    
END_DB

BEGIN_DB
 ICCAP_VAR VG         -0.36          
 ICCAP_VAR VS         0              
 ICCAP_VAR VB         0.9            

 #VD              ID              IB              IG             
  0               -1.0377e-009    9.543e-009      -1.2201e-009   
  -0.05           -1.6959e-009    -8.636e-009     1.0768e-009    
  -0.1            9.186e-010      -8.312e-009     1.7928e-009    
  -0.15           9.061e-010      8.645e-009      -1.2426e-009   
  -0.2            -1.461e-009     2.274e-009      -1.0478e-009   
  -0.25           -1.135e-010     -1.4497e-008    1.7722e-009    
  -0.3            9.243e-010      1.18e-010       1.8344e-009    
  -0.35           9.574e-010      8.606e-009      -1.2407e-009   
  -0.4            -1.395e-009     2.864e-009      -1.1095e-009   
  -0.45           -1.6981e-009    -8.71e-009      1.0781e-009    
  -0.5            9.197e-010      -8.4e-009       1.7948e-009    
  -0.55           9.138e-010      8.63e-009       -1.2405e-009   
