! VERSION = 6.00
BEGIN_HEADER
 ICCAP_INPUTS
  VG         V  B GROUND SMU4 0.001 LIN        2    0          -1.8       6    -0.36     
  VS         V  E GROUND SMU2 0.1 CON        0
  VD         V  S GROUND SMU1 0.1 LIN        1    0          -1.8       37   -0.05     
  VB         V  C GROUND SMU3 0.1 CON        0
 ICCAP_OUTPUTS
  ID         I  S GROUND SMU1 B
  IG         I  B GROUND SMU4 B
END_HEADER

BEGIN_DB
 ICCAP_VAR VG         0              
 ICCAP_VAR VS         0              
 ICCAP_VAR VB         0              

 #VD              ID              IG             
  0               5.05e-011       -2.2664e-010   
  -0.05           -1.1501e-010    3.1452e-010    
  -0.1            1.8182e-010     1.0249e-010    
  -0.15           -2.3823e-010    -1.2528e-010   
  -0.2            -1.1266e-010    3.3487e-010    
  -0.25           1.7604e-010     8.595e-011     
  -0.3            -1.8746e-010    -2.0055e-010   
  -0.35           -1.0737e-010    3.4205e-010    
  -0.4            1.6506e-010     6.839e-011     
  -0.45           -2.0931e-010    -1.6871e-010   
  -0.5            -1.4696e-010    2.7939e-010    
  -0.55           1.4745e-010     5.455e-011     
  -0.6            -2.3561e-010    -1.4603e-010   
  -0.65           -1.4521e-010    3.0933e-010    
  -0.7            1.2146e-010     4.245e-011     
  -0.75           3.171e-011      -2.7272e-010   
  -0.8            -2.7084e-010    -1.2226e-010   
  -0.85           -1.411e-010     3.3811e-010    
  -0.9            7.865e-011      1.901e-011     
  -0.95           -2.2817e-010    -1.799e-010    
  -1              -1.7883e-010    2.6838e-010    
  -1.05           -1.673e-011     3.3701e-010    
  -1.1            2.986e-011      -2.3651e-010   
  -1.15           -2.6474e-010    -1.4594e-010   
  -1.2            -1.7689e-010    3.0891e-010    
  -1.25           -6.84e-012      3.1785e-010    
  -1.3            -1.65e-012      -2.7247e-010   
  -1.35           -3.0546e-010    -1.2283e-010   
  -1.4            -1.771e-010     3.3727e-010    
  -1.45           4.143e-011      1.885e-011     
  -1.5            -2.0244e-010    -3.2429e-010   
  -1.55           -2.1866e-010    2.6975e-010    
  -1.6            -5.665e-011     3.3668e-010    
  -1.65           -2.4905e-010    -2.6315e-010   
  -1.7            -2.1194e-010    3.2365e-010    
  -1.75           -3.882e-011     3.0395e-010    
  -1.8            -2.1764e-010    -3.36e-010     
END_DB

BEGIN_DB
 ICCAP_VAR VG         -0.36          
 ICCAP_VAR VS         0              
 ICCAP_VAR VB         0              

 #VD              ID              IG             
  0               2.1096e-008     -2.0886e-010   
  -0.05           -9.3661e-008    -3.407e-010    
  -0.1            -1.2261e-007    1.7409e-010    
  -0.15           -1.3757e-007    2.2884e-010    
  -0.2            -1.5012e-007    2.3793e-010    
  -0.25           -1.625e-007     2.4841e-010    
  -0.3            -1.7513e-007    2.5969e-010    
  -0.35           -1.8797e-007    2.716e-010     
  -0.4            -2.0114e-007    2.8444e-010    
  -0.45           -2.1463e-007    2.9597e-010    
  -0.5            -2.2835e-007    3.0834e-010    
  -0.55           -2.4235e-007    3.1957e-010    
  -0.6            -2.5699e-007    3.2909e-010    
  -0.65           -2.7149e-007    2.2663e-010    
  -0.7            -2.863e-007     2.3659e-010    
  -0.75           -3.0145e-007    2.4621e-010    
  -0.8            -3.17e-007      2.5721e-010    
  -0.85           -3.3275e-007    2.6834e-010    
  -0.9            -3.4887e-007    2.8109e-010    
  -0.95           -3.6541e-007    2.9284e-010    
  -1              -3.8225e-007    3.0571e-010    
  -1.05           -3.9961e-007    3.1668e-010    
  -1.1            -4.1803e-007    3.2659e-010    
  -1.15           -4.3622e-007    2.254e-010     
  -1.2            -4.5478e-007    2.3384e-010    
  -1.25           -4.7411e-007    2.4289e-010    
  -1.3            -4.9385e-007    2.5406e-010    
  -1.35           -5.1386e-007    2.6556e-010    
  -1.4            -5.3476e-007    2.7735e-010    
  -1.45           -5.5613e-007    2.9004e-010    
  -1.5            -5.7811e-007    3.0252e-010    
  -1.55           -6.0071e-007    3.1381e-010    
  -1.6            -6.2391e-007    3.2359e-010    
  -1.65           -6.4888e-007    2.2217e-010    
  -1.7            -6.7339e-007    2.3066e-010    
  -1.75           -6.9883e-007    2.406e-010     
  -1.8            -7.2478e-007    2.5056e-010    
END_DB

BEGIN_DB
 ICCAP_VAR VG         -0.72          
 ICCAP_VAR VS         0              
 ICCAP_VAR VB         0              

 #VD              ID              IG             
  0               -1.7178e-007    1.0154e-010    
  -0.05           -0.0001726      8.8e-011       
  -0.1            -0.0002517      3.4171e-010    
  -0.15           -0.00028951     2.5092e-010    
  -0.2            -0.00031216     2.6228e-010    
  -0.25           -0.00032921     2.7525e-010    
  -0.3            -0.00034387     2.8647e-010    
  -0.35           -0.00035715     2.9948e-010    
  -0.4            -0.00036958     3.1101e-010    
  -0.45           -0.00038137     3.2127e-010    
  -0.5            -0.00039296     3.2999e-010    
  -0.55           -0.00040392     2.2862e-010    
  -0.6            -0.00041456     2.3699e-010    
  -0.65           -0.00042495     2.4682e-010    
  -0.7            -0.00043521     2.5822e-010    
  -0.75           -0.00044522     2.6968e-010    
  -0.8            -0.00045511     2.8199e-010    
  -0.85           -0.00046483     2.9385e-010    
  -0.9            -0.00047452     3.0671e-010    
  -0.95           -0.00048409     3.181e-010     
  -1              -0.00049359     3.2763e-010    
  -1.05           -0.00050332     2.2539e-010    
  -1.1            -0.00051269     2.3313e-010    
  -1.15           -0.00052211     2.442e-010     
  -1.2            -0.00053196     2.5432e-010    
  -1.25           -0.00071567     2.6559e-010    
  -1.3            -0.00075068     2.7759e-010    
  -1.35           -0.00078108     2.8915e-010    
  -1.4            -0.00080979     3.0178e-010    
  -1.45           -0.00083783     3.1411e-010    
  -1.5            -0.00086553     3.2654e-010    
  -1.55           -0.00089335     2.3122e-010    
  -1.6            -0.00092119     2.5692e-010    
  -1.65           -0.00094896     3.0647e-010    
  -1.7            -0.00097702     4.0212e-010    
  -1.75           -0.00100543     3.8674e-010    
  -1.8            -0.00103341     2.8465e-010    
END_DB

BEGIN_DB
 ICCAP_VAR VG         -1.08          
 ICCAP_VAR VS         0              
 ICCAP_VAR VB         0              

 #VD              ID              IG             
  0               -2.8498e-006    -3.387e-010    
  -0.05           -0.00074289     1.272e-010     
  -0.1            -0.0014323      -3.1395e-010   
  -0.15           -0.0020578      -3.2463e-010   
  -0.2            -0.0026007      -2.2249e-010   
  -0.25           -0.0030464      -2.3054e-010   
  -0.3            -0.0033881      -2.3962e-010   
  -0.35           -0.0036307      -2.5047e-010   
  -0.4            -0.0037985      -2.6136e-010   
  -0.45           -0.0039162      -2.7271e-010   
  -0.5            -0.0040027      -2.8577e-010   
  -0.55           -0.0040719      -2.986e-010    
  -0.6            -0.004131       -3.0943e-010   
  -0.65           -0.0041826      -3.2123e-010   
  -0.7            -0.004214       -3.3051e-010   
  -0.75           -0.0042314      -2.2718e-010   
  -0.8            -0.0042488      -2.3644e-010   
  -0.85           -0.0042647      -2.4666e-010   
  -0.9            -0.0042794      -2.5704e-010   
  -0.95           -0.0042927      -2.6967e-010   
  -1              -0.0043071      -2.8176e-010   
  -1.05           -0.0043184      -2.9378e-010   
  -1.1            -0.0043303      -3.0671e-010   
  -1.15           -0.0043443      -3.1719e-010   
  -1.2            -0.0043557      -3.2696e-010   
  -1.25           -0.004368       -2.2477e-010   
  -1.3            -0.0043788      -2.3304e-010   
  -1.35           -0.0043927      -2.4286e-010   
  -1.4            -0.0044066      -2.5252e-010   
  -1.45           -0.0044182      -2.6516e-010   
  -1.5            -0.0044324      -2.7701e-010   
  -1.55           -0.0044471      -2.857e-010    
  -1.6            -0.0044606      -2.8704e-010   
  -1.65           -0.0044745      -2.5989e-010   
  -1.7            -0.0044913      1.7023e-010    
  -1.75           -0.0045132      7.5713e-010    
  -1.8            -0.00453        1.3808e-009    
END_DB

BEGIN_DB
 ICCAP_VAR VG         -1.44          
 ICCAP_VAR VS         0              
 ICCAP_VAR VB         0              

 #VD              ID              IG             
  0               -3.2102e-006    3.2848e-010    
  -0.05           -0.00084785     -1.1663e-010   
  -0.1            -0.0016808      2.2896e-010    
  -0.15           -0.0024985      2.3809e-010    
  -0.2            -0.0032986      2.4834e-010    
  -0.25           -0.0040767      2.5946e-010    
  -0.3            -0.0048319      2.7089e-010    
  -0.35           -0.0055536      2.8387e-010    
  -0.4            -0.006237       2.9688e-010    
  -0.45           -0.0068797      3.0929e-010    
  -0.5            -0.0074658      3.2028e-010    
  -0.55           -0.0079924      3.2984e-010    
  -0.6            -0.0084467      2.2546e-010    
  -0.65           -0.0088219      2.3483e-010    
  -0.7            -0.0091145      2.4424e-010    
  -0.75           -0.0093531      2.5661e-010    
  -0.8            -0.0095231      2.6786e-010    
  -0.85           -0.0096501      2.8039e-010    
  -0.9            -0.0097577      2.9253e-010    
  -0.95           -0.0098422      3.0534e-010    
  -1              -0.0099141      3.1632e-010    
  -1.05           -0.0099804      3.2752e-010    
  -1.1            -0.0100381      2.2317e-010    
  -1.15           -0.010088       2.3142e-010    
  -1.2            -0.010103       2.424e-010     
  -1.25           -0.0101186      2.5259e-010    
  -1.3            -0.0101308      2.6371e-010    
  -1.35           -0.0101406      2.7602e-010    
  -1.4            -0.0101496      2.8905e-010    
  -1.45           -0.0101637      3.0074e-010    
  -1.5            -0.0101724      3.1232e-010    
  -1.55           -0.0101855      3.2298e-010    
  -1.6            -0.0101965      2.1985e-010    
  -1.65           -0.010205       2.2944e-010    
  -1.7            -0.0102131      2.3804e-010    
  -1.75           -0.0102202      2.4857e-010    
  -1.8            -0.0102294      2.6072e-010    
END_DB

BEGIN_DB
 ICCAP_VAR VG         -1.8           
 ICCAP_VAR VS         0              
 ICCAP_VAR VB         0              

 #VD              ID              IG             
  0               -3.2664e-006    2.3599e-010    
  -0.05           -0.00087481     -9.341e-011    
  -0.1            -0.0017414      2.6573e-010    
  -0.15           -0.0026001      2.7811e-010    
  -0.2            -0.0034517      2.9038e-010    
  -0.25           -0.0042948      3.0339e-010    
  -0.3            -0.0051295      3.1442e-010    
  -0.35           -0.0059495      3.2596e-010    
  -0.4            -0.0067561      2.2286e-010    
  -0.45           -0.007549       2.3005e-010    
  -0.5            -0.0083262      2.4063e-010    
  -0.55           -0.0090739      2.5054e-010    
  -0.6            -0.0098155      2.6253e-010    
  -0.65           -0.0105388      2.7421e-010    
  -0.7            -0.0112275      2.8698e-010    
  -0.75           -0.011894       -3.0859e-010   
  -0.8            -0.012521       -3.2218e-010   
  -0.85           -0.013094       -3.3177e-010   
  -0.9            -0.013653       -2.2746e-010   
  -0.95           -0.014142       -2.3722e-010   
  -1              -0.01458        -2.4633e-010   
  -1.05           -0.014954       -2.5538e-010   
  -1.1            -0.015221       -2.696e-010    
  -1.15           -0.015458       -2.8448e-010   
  -1.2            -0.015662       -2.9598e-010   
  -1.25           -0.015827       -3.0841e-010   
  -1.3            -0.015969       -3.2165e-010   
  -1.35           -0.016086       -3.287e-010    
  -1.4            -0.016179       -2.2295e-010   
  -1.45           -0.016247       -2.3402e-010   
  -1.5            -0.016321       -2.4496e-010   
  -1.55           -0.016398       -2.5375e-010   
  -1.6            -0.016455       -2.6859e-010   
  -1.65           -0.016508       -2.7902e-010   
  -1.7            -0.016522       -2.9348e-010   
  -1.75           -0.016526       -3.038e-010    
  -1.8            -0.016533       -3.1796e-010   
END_DB

