! VERSION = 6.00
BEGIN_HEADER
 ICCAP_INPUTS
  VG         V  B GROUND SMU4 0.001 LIN        1    0          -1.8       37   -0.05     
  VS         V  E GROUND SMU2 0.1 CON        0
  VB         V  C GROUND SMU3 0.1 LIN        3    0          1.8        3    0.9       
  VD         V  S GROUND SMU1 0.1 LIN        2    -0.1       -1.8       2    -1.7      
 ICCAP_OUTPUTS
  IG         I  B GROUND SMU4 B
  ID         I  S GROUND SMU1 B
  IB         I  C GROUND SMU3 B
END_HEADER

BEGIN_DB
 ICCAP_VAR VS         0              
 ICCAP_VAR VB         0              
 ICCAP_VAR VD         -0.1           

 #VG              IG              ID              IB             
  0               -1.185e-009     -1.0412e-009    -1.2439e-008   
  -0.05           1.8185e-009     9.239e-010      -8.906e-009    
  -0.1            -1.2505e-009    9.595e-010      8.564e-009     
  -0.15           -1.1165e-009    -1.4239e-009    2.712e-009     
  -0.2            1.6741e-009     -1.623e-010     -1.5433e-008   
  -0.25           1.8961e-009     9.336e-010      -1.791e-009    
  -0.3            -1.2499e-009    1.0269e-009     9.75e-009      
  -0.35           -2.0176e-009    -1.1253e-009    4.04e-009      
  -0.4            1.0875e-009     -1.9417e-009    -8.772e-009    
  -0.45           1.1168e-009     -4.621e-010     -8.708e-009    
  -0.5            1.1444e-009     -3.1138e-009    -1.0543e-008   
  -0.55           -2.3899e-009    -1.3084e-008    -1.6111e-008   
  -0.6            1.7539e-009     -4.3213e-008    -1.1465e-008   
  -0.65           -4.903e-010     -1.3924e-007    8.802e-009     
  -0.7            1.1585e-009     -4.224e-007     -1.0061e-008   
  -0.75           1.5583e-009     -1.113e-006     -1.3226e-008   
  -0.8            1.9128e-009     -2.5106e-006    9.08e-009      
  -0.85           8.555e-010      -5.2078e-006    1.0174e-008    
  -0.9            1.3001e-009     -9.3351e-006    1.383e-008     
  -0.95           -1.3572e-009    -1.4994e-005    1.4711e-008    
  -1              1.4875e-009     -2.252e-005     -1.353e-008    
  -1.05           1.1026e-009     -3.1221e-005    -3.306e-009    
  -1.1            1.09e-009       -4.0939e-005    -3.818e-009    
  -1.15           1.1543e-009     -5.1386e-005    -8.856e-009    
  -1.2            1.7158e-009     -6.2071e-005    -1.1747e-008   
  -1.25           1.1885e-009     -7.2901e-005    -1.124e-009    
  -1.3            1.0717e-009     -8.368e-005     -3.123e-009    
  -1.35           1.131e-009      -9.4202e-005    -6.347e-009    
  -1.4            1.1562e-009     -0.000104249    -1.1001e-008   
  -1.45           1.3565e-009     -0.000113978    -1.4883e-008   
  -1.5            2.3626e-009     -0.00012311     8.544e-009     
  -1.55           6.216e-010      -0.00013209     8.335e-009     
  -1.6            1.0258e-009     -0.00014048     1.1964e-008    
  -1.65           1.4678e-009     -0.00014829     1.4286e-008    
  -1.7            4.031e-010      -0.00015575     8.734e-009     
  -1.75           7.029e-010      -0.00016299     8.834e-009     
  -1.8            1.1215e-009     -0.0001698      1.2381e-008    
END_DB

BEGIN_DB
 ICCAP_VAR VS         0              
 ICCAP_VAR VB         0              
 ICCAP_VAR VD         -1.8           

 #VG              IG              ID              IB             
  0               -1.2513e-009    -1.0813e-009    -3.743e-009    
  -0.05           1.9421e-009     9.564e-010      -1.0522e-008   
  -0.1            -1.2455e-009    1.1141e-009     1.0641e-008    
  -0.15           -1.2964e-009    -1.2306e-009    5.403e-009     
  -0.2            9.09e-011       -1.8295e-009    -9.475e-009    
  -0.25           1.1582e-009     0               -1.188e-008    
  -0.3            1.7597e-009     -1.91e-010      -1.4178e-008   
  -0.35           6.19e-011       1.5159e-009     -5.07e-010     
  -0.4            -1.2673e-009    -1.128e-010     8.757e-009     
  -0.45           -1.2601e-009    -3.0764e-009    2.802e-009     
  -0.5            -2.3507e-009    -1.0837e-008    -1.4345e-008   
  -0.55           1.1575e-009     -3.5484e-008    -1.0841e-008   
  -0.6            1.787e-010      -1.1779e-007    -8.869e-009    
  -0.65           4.836e-010      -3.7758e-007    8.629e-009     
  -0.7            8.036e-010      -1.08883e-006   9.907e-009     
  -0.75           -1.8359e-009    -2.699e-006     -1.1362e-008   
  -0.8            1.4194e-009     -6.1687e-006    -1.4125e-008   
  -0.85           1.0824e-009     -1.2314e-005    1.928e-009     
  -0.9            1.1468e-009     -2.2292e-005    -7.874e-009    
  -0.95           1.1489e-009     -3.6722e-005    -1.1141e-008   
  -1              1.2455e-009     -5.6522e-005    -1.6788e-008   
  -1.05           1.0735e-009     -8.1573e-005    -2.961e-009    
  -1.1            1.1233e-009     -0.000112538    -5.362e-009    
  -1.15           -1.242e-009     -0.00014765     2.858e-009     
  -1.2            -1.671e-009     -0.00018876     7.82e-009      
  -1.25           1.1557e-009     -0.00023599     -1.0565e-008   
  -1.3            1.3382e-009     -0.00028623     -1.5058e-008   
  -1.35           1.0789e-009     -0.00034013     -3.421e-009    
  -1.4            1.1083e-009     -0.00039799     -4.525e-009    
  -1.45           1.1564e-009     -0.00045878     -1.0003e-008   
  -1.5            1.5478e-009     -0.00052178     -1.2847e-008   
  -1.55           1.4823e-009     -0.0005871      1.4756e-008    
  -1.6            4.236e-010      -0.00065455     9.001e-009     
  -1.65           7.073e-010      -0.00072512     9.074e-009     
  -1.7            1.1387e-009     -0.00079613     1.2536e-008    
  -1.75           1.5672e-009     -0.00086727     1.4954e-008    
  -1.8            4.732e-010      -0.00094112     8.697e-009     
END_DB

BEGIN_DB
 ICCAP_VAR VS         0              
 ICCAP_VAR VB         0.9            
 ICCAP_VAR VD         -0.1           

 #VG              IG              ID              IB             
  0               -1.417e-009     6.119e-010      -1.0312e-008   
  -0.05           2.0485e-009     9.838e-010      -1.1073e-008   
  -0.1            -1.2361e-009    1.2246e-009     1.2143e-008    
  -0.15           -1.4023e-009    -1.135e-009     8.814e-009     
  -0.2            1.8588e-009     9.309e-010      -9.794e-009    
  -0.25           -1.2482e-009    1.0024e-009     9.408e-009     
  -0.3            -1.1809e-009    -1.3545e-009    3.333e-009     
  -0.35           1.5757e-009     -2.152e-010     -1.604e-008    
  -0.4            1.2035e-009     1.149e-009      1.4602e-008    
  -0.45           7e-013          1.6676e-009     8.251e-009     
  -0.5            1.679e-010      1.7578e-009     8.982e-009     
  -0.55           -1.2617e-009    6.493e-010      8.596e-009     
  -0.6            -1.5914e-009    -1.1914e-009    2.877e-009     
  -0.65           1.1571e-009     -4.29e-010      -1.1076e-008   
  -0.7            1.1536e-009     -2.4547e-009    -1.2997e-008   
  -0.75           -1.2436e-009    -1.1109e-008    2.888e-009     
  -0.8            -1.9019e-009    -4.2855e-008    4.464e-009     
  -0.85           5.103e-010      -1.5871e-007    -1.2309e-008   
  -0.9            8.567e-010      -5.2923e-007    9.442e-009     
  -0.95           -1.7416e-009    -1.4478e-006    -1.0537e-008   
  -1              1.1593e-009     -3.5159e-006    -1.0593e-008   
  -1.05           1.4234e-009     -7.0666e-006    -1.4303e-008   
  -1.1            -1.2399e-009    -1.231e-005     -3.143e-009    
  -1.15           -1.6907e-009    -1.9495e-005    6.897e-009     
  -1.2            1.1574e-009     -2.8475e-005    -1.0655e-008   
  -1.25           1.361e-009      -3.835e-005     -1.4893e-008   
  -1.3            1.0848e-009     -4.8869e-005    -3.344e-009    
  -1.35           1.1047e-009     -5.9721e-005    -4.487e-009    
  -1.4            1.1538e-009     -7.0453e-005    -9.902e-009    
  -1.45           1.5582e-009     -8.0905e-005    -1.279e-008    
  -1.5            1.4678e-009     -9.0949e-005    1.462e-008     
  -1.55           4.093e-010      -0.000100607    9.065e-009     
  -1.6            7.001e-010      -0.000109908    8.692e-009     
  -1.65           2.3082e-009     -0.00011847     8.78e-009      
  -1.7            1.4934e-009     -0.00012677     1.4815e-008    
  -1.75           4.219e-010      -0.00013456     9.025e-009     
  -1.8            7.242e-010      -0.0001421      8.722e-009     
END_DB

BEGIN_DB
 ICCAP_VAR VS         0              
 ICCAP_VAR VB         0.9            
 ICCAP_VAR VD         -1.8           

 #VG              IG              ID              IB             
  0               1.1515e-009     1.0071e-009     3.92e-009      
  -0.05           -1.2444e-009    1.118e-009      9.578e-009     
  -0.1            -1.3e-009       -1.2314e-009    5.479e-009     
  -0.15           8.75e-011       -1.8297e-009    -9.567e-009    
  -0.2            1.1552e-009     3.2e-012        -1.1904e-008   
  -0.25           1.7591e-009     -1.448e-010     -1.4416e-008   
  -0.3            1.8537e-009     9.322e-010      -6.71e-010     
  -0.35           -1.2501e-009    9.981e-010      9.437e-009     
  -0.4            -1.179e-009     -1.3628e-009    3.415e-009     
  -0.45           2.619e-010      -1.763e-009     -9.031e-009    
  -0.5            6.21e-011       -1.8628e-009    -9.556e-009    
  -0.55           1.1573e-009     -1.354e-010     -1.2187e-008   
  -0.6            1.718e-009      -6.836e-010     -1.4753e-008   
  -0.65           1.104e-009      -1.0955e-009    1.4124e-008    
  -0.7            -2.156e-009     -1.1369e-008    -1.0947e-008   
  -0.75           1.1538e-009     -4.5701e-008    -1.2095e-008   
  -0.8            1.717e-009      -1.6487e-007    -1.5005e-008   
  -0.85           5.859e-010      -5.7889e-007    8.571e-009     
  -0.9            -1.247e-009     -1.6794e-006    -9.264e-009    
  -0.95           -1.965e-009     -4.3373e-006    4.182e-009     
  -1              1.155e-009      -9.828e-006     -9.612e-009    
  -1.05           1.1545e-009     -1.9105e-005    2.945e-009     
  -1.1            1.3008e-009     -3.3225e-005    -1.5599e-008   
  -1.15           1.0732e-009     -5.2799e-005    -3.058e-009    
  -1.2            1.1155e-009     -7.8527e-005    -4.82e-009     
  -1.25           1.1578e-009     -0.000109862    -1.041e-008    
  -1.3            -1.2653e-009    -0.00014561     1.982e-009     
  -1.35           -1.25e-009      -0.00018727     3.215e-009     
  -1.4            -1.2314e-009    -0.0002335      2.801e-009     
  -1.45           -1.5454e-009    -0.00028409     1.0255e-008    
  -1.5            1.7773e-009     -0.00033941     -1.1125e-008   
  -1.55           1.2245e-009     -0.00039652     -2.65e-010     
  -1.6            1.0728e-009     -0.00045677     -3.067e-009    
  -1.65           1.1253e-009     -0.00051967     -5.549e-009    
  -1.7            1.1553e-009     -0.00058441     -1.0675e-008   
  -1.75           1.4105e-009     -0.00065075     -1.4346e-008   
  -1.8            1.0926e-009     -0.00071877     -3.499e-009    
END_DB

BEGIN_DB
 ICCAP_VAR VS         0              
 ICCAP_VAR VB         1.8            
 ICCAP_VAR VD         -0.1           

 #VG              IG              ID              IB             
  0               -1.202e-009     -1.0425e-009    -1.2036e-008   
  -0.05           1.7896e-009     9.197e-010      -8.133e-009    
  -0.1            -1.2456e-009    9.18e-010       8.692e-009     
  -0.15           -1.0731e-009    -1.4557e-009    2.25e-009      
  -0.2            1.7375e-009     -1.493e-010     -1.4627e-008   
  -0.25           1.0752e-009     1.2692e-009     1.3744e-008    
  -0.3            1.2638e-009     1.1094e-009     1.4709e-008    
  -0.35           4.31e-011       1.6982e-009     8.408e-009     
  -0.4            2.06e-010       1.7942e-009     8.813e-009     
  -0.45           -1.2589e-009    7.024e-010      8.6e-009       
  -0.5            -8.039e-010     -1.6986e-009    2.658e-009     
  -0.55           1.1567e-009     7.16e-011       -1.1187e-008   
  -0.6            1.157e-009      -9.82e-011      -1.3822e-008   
  -0.65           1.6074e-009     -2.096e-010     -1.6508e-008   
  -0.7            -1.2653e-009    1.3758e-009     1.4312e-008    
  -0.75           -1.5355e-009    -1.292e-009     3.056e-009     
  -0.8            1.1526e-009     -8.521e-010     -1.0529e-008   
  -0.85           1.1559e-009     -4.8727e-009    -1.2097e-008   
  -0.9            -1.2441e-009    -2.2288e-008    -9.19e-009     
  -0.95           -2.0198e-009    -8.9747e-008    3.003e-009     
  -1              2.833e-010      -3.2386e-007    -9.993e-009    
  -1.05           5.369e-010      -1.01958e-006   8.529e-009     
  -1.1            -2.0192e-009    -2.5798e-006    -1.3907e-008   
  -1.15           6.65e-011       -5.6335e-006    -8.601e-009    
  -1.2            1.6203e-009     -1.05148e-005   -1.22e-008     
  -1.25           -1.6333e-009    -1.7112e-005    1.2776e-008    
  -1.3            1.157e-009      -2.5695e-005    -1.0459e-008   
  -1.35           1.3498e-009     -3.5365e-005    -1.5762e-008   
  -1.4            1.0866e-009     -4.5677e-005    -3.299e-009    
  -1.45           1.1019e-009     -5.6337e-005    -4.577e-009    
  -1.5            1.1566e-009     -6.6831e-005    -9.922e-009    
  -1.55           1.573e-009      -7.7023e-005    -1.2917e-008   
  -1.6            1.4598e-009     -8.6808e-005    1.4183e-008    
  -1.65           3.96e-010       -9.6181e-005    8.781e-009     
  -1.7            6.783e-010      -0.000105172    8.728e-009     
  -1.75           1.0927e-009     -0.000113543    1.2365e-008    
  -1.8            2.3663e-009     -0.00012139     8.761e-009     
END_DB

BEGIN_DB
 ICCAP_VAR VS         0              
 ICCAP_VAR VB         1.8            
 ICCAP_VAR VD         -1.8           

 #VG              IG              ID              IB             
  0               -1.3009e-009    4.748e-010      3.003e-009     
  -0.05           1.8423e-009     -1.091e-010     -1.3861e-008   
  -0.1            1.8152e-009     9.207e-010      5.43e-010      
  -0.15           -1.2503e-009    9.467e-010      8.678e-009     
  -0.2            -1.0973e-009    -1.4533e-009    2.578e-009     
  -0.25           1.7282e-009     -1.604e-010     -1.4846e-008   
  -0.3            1.0941e-009     1.2673e-009     1.4248e-008    
  -0.35           1.2765e-009     1.1036e-009     1.4835e-008    
  -0.4            5.58e-011       1.7071e-009     8.481e-009     
  -0.45           2.021e-010      1.7874e-009     8.76e-009      
  -0.5            -1.2541e-009    7.009e-010      8.681e-009     
  -0.55           -1.6124e-009    -1.0784e-009    2.681e-009     
  -0.6            1.1618e-009     7.25e-011       -1.1408e-008   
  -0.65           1.1591e-009     -1.398e-010     -1.3664e-008   
  -0.7            1.6538e-009     -4.742e-010     -1.5541e-008   
  -0.75           -1.2722e-009    -1.9446e-009    1.4376e-008    
  -0.8            -1.2587e-009    -6.9346e-009    2.466e-009     
  -0.85           -1.4935e-009    -3.0275e-008    -1.3196e-008   
  -0.9            1.8899e-009     -1.1964e-007    -1.0593e-008   
  -0.95           8.032e-010      -4.5376e-007    9.811e-009     
  -1              -1.2699e-009    -1.391e-006     -8.611e-009    
  -1.05           -1.2512e-009    -3.7555e-006    2.746e-009     
  -1.1            -1.2463e-009    -8.6647e-006    1.747e-009     
  -1.15           3.157e-010      -1.7508e-005    -1.398e-008    
  -1.2            5.799e-010      -3.1434e-005    8.384e-009     
  -1.25           9.576e-010      -5.0964e-005    1.0211e-008    
  -1.3            1.3962e-009     -7.594e-005     1.4422e-008    
  -1.35           3.549e-010      -0.000106638    9.234e-009     
  -1.4            1.9602e-009     -0.0001429      7.325e-009     
  -1.45           9.294e-010      -0.00018533     9.988e-009     
  -1.5            1.3703e-009     -0.00023077     1.4356e-008    
  -1.55           3.419e-010      -0.00028004     8.84e-009      
  -1.6            6.035e-010      -0.00033417     8.332e-009     
  -1.65           9.854e-010      -0.00039106     1.1745e-008    
  -1.7            1.426e-009      -0.00044948     1.4198e-008    
  -1.75           3.754e-010      -0.00051043     8.88e-009      
  -1.8            6.436e-010      -0.00057504     8.562e-009     
END_DB

