! VERSION = 6.00
BEGIN_HEADER
 ICCAP_INPUTS
  VG         V  B GROUND SMU4 0.001 LIN        2    0          -1.8       6    -0.36     
  VS         V  E GROUND SMU2 0.1 CON        0
  VD         V  S GROUND SMU1 0.1 LIN        1    0          -1.8       37   -0.05     
  VB         V  C GROUND SMU3 0.1 CON        0
 ICCAP_OUTPUTS
  ID         I  S GROUND SMU1 B
  IG         I  B GROUND SMU4 B
END_HEADER

BEGIN_DB
 ICCAP_VAR VG         0              
 ICCAP_VAR VS         0              
 ICCAP_VAR VB         0              

 #VD              ID              IG             
  0               -5.525e-011     3.3318e-010    
  -0.05           -2.2882e-010    -1.2981e-010   
  -0.1            -1.1715e-010    3.2901e-010    
  -0.15           1.2236e-010     3.136e-011     
  -0.2            4.194e-011      -2.9211e-010   
  -0.25           -2.5769e-010    -1.128e-010    
  -0.3            -1.1607e-010    3.4141e-010    
  -0.35           1.5965e-010     7.663e-011     
  -0.4            -2.03e-010      -1.858e-010    
  -0.45           -1.6088e-010    2.5844e-010    
  -0.5            1.4811e-010     6.51e-011      
  -0.55           -2.2314e-010    -1.6495e-010   
  -0.6            -1.6117e-010    2.7922e-010    
  -0.65           1.3132e-010     5.497e-011     
  -0.7            -2.4618e-010    -1.4811e-010   
  -0.75           -1.641e-010     3.0181e-010    
  -0.8            1.0952e-010     4.599e-011     
  -0.85           1.47e-011       -2.6001e-010   
  -0.9            -2.8043e-010    -1.298e-010    
  -0.95           -1.6954e-010    3.2756e-010    
  -1              6.989e-011      3.216e-011     
  -1.05           -2.4023e-010    -2.0611e-010   
  -1.1            -1.6939e-010    3.4253e-010    
  -1.15           2.802e-011      -3.1737e-010   
  -1.2            -2.0896e-010    -3.1531e-010   
  -1.25           -2.1586e-010    2.7629e-010    
  -1.3            -5.758e-011     3.3565e-010    
  -1.35           -2.5387e-010    -2.6019e-010   
  -1.4            -2.164e-010     3.247e-010     
  -1.45           -4.653e-011     3.0706e-010    
  -1.5            -2.2247e-010    -3.3561e-010   
  -1.55           -2.9681e-010    -2.0171e-010   
  -1.6            -2.2603e-010    3.4248e-010    
  -1.65           -4.98e-011      2.5482e-010    
  -1.7            -2.0401e-010    -3.2648e-010   
  -1.75           -2.8676e-010    -3.0555e-010   
  -1.8            -2.8474e-010    2.892e-010     
END_DB

BEGIN_DB
 ICCAP_VAR VG         -0.36          
 ICCAP_VAR VS         0              
 ICCAP_VAR VB         0              

 #VD              ID              IG             
  0               2.9141e-008     -3.3106e-010   
  -0.05           -1.3388e-007    1.173e-010     
  -0.1            -1.762e-007     3.0672e-010    
  -0.15           -1.9725e-007    3.1738e-010    
  -0.2            -2.1495e-007    3.2627e-010    
  -0.25           -2.3266e-007    2.2286e-010    
  -0.3            -2.5026e-007    2.3051e-010    
  -0.35           -2.6814e-007    2.3931e-010    
  -0.4            -2.8646e-007    2.4883e-010    
  -0.45           -3.0527e-007    2.5921e-010    
  -0.5            -3.2438e-007    2.6971e-010    
  -0.55           -3.4392e-007    2.8099e-010    
  -0.6            -3.6408e-007    2.9272e-010    
  -0.65           -3.848e-007     3.0404e-010    
  -0.7            -4.0599e-007    3.1458e-010    
  -0.75           -4.2863e-007    3.244e-010     
  -0.8            -4.5114e-007    2.2088e-010    
  -0.85           -4.7427e-007    2.2842e-010    
  -0.9            -4.9809e-007    2.3645e-010    
  -0.95           -5.2254e-007    2.4585e-010    
  -1              -5.4767e-007    2.557e-010     
  -1.05           -5.736e-007     2.6686e-010    
  -1.1            -5.9993e-007    2.7866e-010    
  -1.15           -6.2724e-007    2.8988e-010    
  -1.2            -6.5532e-007    3.0125e-010    
  -1.25           -6.8437e-007    3.1228e-010    
  -1.3            -7.1515e-007    3.2213e-010    
  -1.35           -7.457e-007     2.1887e-010    
  -1.4            -7.7709e-007    2.2622e-010    
  -1.45           -8.0923e-007    2.3454e-010    
  -1.5            -8.4251e-007    2.4382e-010    
  -1.55           -8.7652e-007    2.5361e-010    
  -1.6            -9.1147e-007    2.6423e-010    
  -1.65           -9.4788e-007    2.7485e-010    
  -1.7            -9.8491e-007    2.877e-010     
  -1.75           -1.02309e-006   2.9888e-010    
  -1.8            -1.06246e-006   3.104e-010     
END_DB

BEGIN_DB
 ICCAP_VAR VG         -0.72          
 ICCAP_VAR VS         0              
 ICCAP_VAR VB         0              

 #VD              ID              IG             
  0               -1.5433e-007    3.4382e-010    
  -0.05           -0.00017485     1.2963e-010    
  -0.1            -0.00025947     2.8252e-010    
  -0.15           -0.00030205     2.9392e-010    
  -0.2            -0.0003279      3.0507e-010    
  -0.25           -0.00034715     3.165e-010     
  -0.3            -0.00036335     3.2549e-010    
  -0.35           -0.00037807     2.2248e-010    
  -0.4            -0.00039159     2.2862e-010    
  -0.45           -0.00040425     2.3814e-010    
  -0.5            -0.00041653     2.4728e-010    
  -0.55           -0.00042819     2.5684e-010    
  -0.6            -0.00043967     2.6784e-010    
  -0.65           -0.00045096     2.7985e-010    
  -0.7            -0.00046187     2.9121e-010    
  -0.75           -0.00047257     3.0266e-010    
  -0.8            -0.00048317     3.1263e-010    
  -0.85           -0.00049362     3.2262e-010    
  -0.9            -0.00050424     2.2008e-010    
  -0.95           -0.00051446     2.2743e-010    
  -1              -0.00052448     2.3544e-010    
  -1.05           -0.00053444     2.4531e-010    
  -1.1            -0.0005444      2.5515e-010    
  -1.15           -0.00055435     2.6532e-010    
  -1.2            -0.00056423     2.767e-010     
  -1.25           -0.0005745      2.888e-010     
  -1.3            -0.00058576     3.0016e-010    
  -1.35           -0.00062391     3.1077e-010    
  -1.4            -0.00072818     3.1985e-010    
  -1.45           -0.00077966     3.2932e-010    
  -1.5            -0.00081187     2.2638e-010    
  -1.55           -0.00084004     2.3647e-010    
  -1.6            -0.00086615     2.5317e-010    
  -1.65           -0.00089163     2.8332e-010    
  -1.7            -0.0009167      3.4497e-010    
  -1.75           -0.000942       2.7929e-010    
  -1.8            -0.00096652     7.66e-011      
END_DB

BEGIN_DB
 ICCAP_VAR VG         -1.08          
 ICCAP_VAR VS         0              
 ICCAP_VAR VB         0              

 #VD              ID              IG             
  0               -2.9429e-006    3.2653e-010    
  -0.05           -0.00080008     -4.499e-011    
  -0.1            -0.0015333      3.3515e-010    
  -0.15           -0.0021899      2.3228e-010    
  -0.2            -0.0027523      2.4038e-010    
  -0.25           -0.0032098      2.4989e-010    
  -0.3            -0.0035613      2.6016e-010    
  -0.35           -0.0038176      2.7112e-010    
  -0.4            -0.0040002      2.8299e-010    
  -0.45           -0.0041343      2.9384e-010    
  -0.5            -0.0042344      3.0563e-010    
  -0.55           -0.0043147      3.1554e-010    
  -0.6            -0.0043803      3.2569e-010    
  -0.65           -0.0044395      2.2197e-010    
  -0.7            -0.0044912      2.2943e-010    
  -0.75           -0.0045278      2.3835e-010    
  -0.8            -0.0045476      2.4601e-010    
  -0.85           -0.0045644      2.5634e-010    
  -0.9            -0.0045813      2.685e-010     
  -0.95           -0.0045986      2.7855e-010    
  -1              -0.0046133      2.913e-010     
  -1.05           -0.0046247      3.0128e-010    
  -1.1            -0.0046401      3.1277e-010    
  -1.15           -0.0046516      3.2165e-010    
  -1.2            -0.0046643      3.2947e-010    
  -1.25           -0.0046769      2.2713e-010    
  -1.3            -0.0046914      2.3498e-010    
  -1.35           -0.0047046      2.4403e-010    
  -1.4            -0.0047147      2.5337e-010    
  -1.45           -0.0047265      2.6448e-010    
  -1.5            -0.0047372      2.7469e-010    
  -1.55           -0.0047518      2.877e-010     
  -1.6            -0.0047654      3.0251e-010    
  -1.65           -0.0047787      3.2798e-010    
  -1.7            -0.0047899      3.8663e-010    
  -1.75           -0.0048064      2.1733e-010    
  -1.8            -0.0048173      2.7019e-010    
END_DB

BEGIN_DB
 ICCAP_VAR VG         -1.44          
 ICCAP_VAR VS         0              
 ICCAP_VAR VB         0              

 #VD              ID              IG             
  0               -3.5498e-006    1.466e-010     
  -0.05           -0.00095093     -2.574e-011    
  -0.1            -0.0018824      3.3917e-010    
  -0.15           -0.002791       2.8125e-010    
  -0.2            -0.0036752      2.9231e-010    
  -0.25           -0.00453        3.032e-010     
  -0.3            -0.0053566      3.1477e-010    
  -0.35           -0.0061316      3.238e-010     
  -0.4            -0.0068643      2.204e-010     
  -0.45           -0.0075492      2.2841e-010    
  -0.5            -0.00817        2.3568e-010    
  -0.55           -0.0087212      2.4569e-010    
  -0.6            -0.0091865      2.5601e-010    
  -0.65           -0.0095873      2.6507e-010    
  -0.7            -0.0099117      2.761e-010     
  -0.75           -0.0101661      2.8757e-010    
  -0.8            -0.0103663      2.9919e-010    
  -0.85           -0.0105214      3.1047e-010    
  -0.9            -0.0106465      3.1913e-010    
  -0.95           -0.0107476      3.2714e-010    
  -1              -0.0108369      2.2477e-010    
  -1.05           -0.0109246      2.3258e-010    
  -1.1            -0.0110065      2.4331e-010    
  -1.15           -0.0110599      2.5096e-010    
  -1.2            -0.0111191      2.623e-010     
  -1.25           -0.0111479      2.7348e-010    
  -1.3            -0.0111563      2.8334e-010    
  -1.35           -0.0111715      2.9476e-010    
  -1.4            -0.0111875      3.0541e-010    
  -1.45           -0.0111985      3.1537e-010    
  -1.5            -0.0112231      3.2549e-010    
  -1.55           -0.0112481      2.203e-010     
  -1.6            -0.0112491      2.3012e-010    
  -1.65           -0.0112608      2.3874e-010    
  -1.7            -0.0112706      2.4604e-010    
  -1.75           -0.0112812      2.5827e-010    
  -1.8            -0.0113043      2.6857e-010    
END_DB

BEGIN_DB
 ICCAP_VAR VG         -1.8           
 ICCAP_VAR VS         0              
 ICCAP_VAR VB         0              

 #VD              ID              IG             
  0               -3.5802e-006    -3.3954e-010   
  -0.05           -0.00099356     1.2909e-010    
  -0.1            -0.0019745      -3.1792e-010   
  -0.15           -0.0029465      -3.2686e-010   
  -0.2            -0.0039055      -2.2416e-010   
  -0.25           -0.004856       -2.3154e-010   
  -0.3            -0.0057858      -2.3914e-010   
  -0.35           -0.0067058      -2.4939e-010   
  -0.4            -0.0076114      -2.5836e-010   
  -0.45           -0.0084929      -2.6919e-010   
  -0.5            -0.0093521      -2.8073e-010   
  -0.55           -0.0101771      -2.9137e-010   
  -0.6            -0.010982       -3.0273e-010   
  -0.65           -0.011764       3.4239e-010    
  -0.7            -0.012506       2.6947e-010    
  -0.75           -0.013205       2.8019e-010    
  -0.8            -0.013876       2.9027e-010    
  -0.85           -0.014498       3.0247e-010    
  -0.9            -0.015078       3.104e-010     
  -0.95           -0.015596       3.2435e-010    
  -1              -0.016071       3.3169e-010    
  -1.05           -0.016469       2.2312e-010    
  -1.1            -0.016809       2.3755e-010    
  -1.15           -0.017106       2.4457e-010    
  -1.2            -0.017308       2.5316e-010    
  -1.25           -0.017484       2.6374e-010    
  -1.3            -0.017648       2.7295e-010    
  -1.35           -0.01777        2.8578e-010    
  -1.4            -0.017895       2.9658e-010    
  -1.45           -0.017981       3.1041e-010    
  -1.5            -0.018048       3.1802e-010    
  -1.55           -0.018119       3.2582e-010    
  -1.6            -0.018197       2.2523e-010    
  -1.65           -0.018267       2.2998e-010    
  -1.7            -0.018328       2.3848e-010    
  -1.75           -0.018401       2.4846e-010    
  -1.8            -0.018423       2.5838e-010    
END_DB

