! VERSION = 6.00
BEGIN_HEADER
 ICCAP_INPUTS
  VG         V  B GROUND SMU4 0.001 LIN        1    0          -1.8       37   -0.05     
  VS         V  E GROUND SMU3 0.1 CON        0
  VB         V  C GROUND SMU1 0.1 LIN        3    0          1.8        3    0.9       
  VD         V  S GROUND SMU2 0.1 LIN        2    -0.1       -1.8       2    -1.7      
 ICCAP_OUTPUTS
  IG         I  B GROUND SMU4 B
  ID         I  S GROUND SMU2 B
  IB         I  C GROUND SMU1 B
END_HEADER

BEGIN_DB
 ICCAP_VAR VS         0              
 ICCAP_VAR VB         0              
 ICCAP_VAR VD         -0.1           

 #VG              IG              ID              IB             
  0               2.288e-010      -1.143e-009     9.135e-009     
  -0.05           1.2605e-009     3.6501e-009     8.403e-009     
  -0.1            -2.6074e-009    -3.647e-010     7.077e-009     
  -0.15           2.3443e-009     -1.1037e-009    -1.7263e-008   
  -0.2            -2.2054e-009    9.083e-010      1.323e-008     
  -0.25           2.4507e-009     -9.654e-010     -1.6622e-008   
  -0.3            -7.73e-011      3.631e-009      8.216e-009     
  -0.35           -2.564e-009     3.25e-011       8.23e-009      
  -0.4            1.6952e-009     -3.3221e-009    -1.2623e-008   
  -0.45           3.671e-010      2.8429e-009     9.45e-009      
  -0.5            -2.2658e-009    -3.5534e-009    1.2447e-008    
  -0.55           -1.8118e-009    -1.7746e-008    -7.885e-009    
  -0.6            1.6905e-009     -4.3105e-008    -1.7011e-008   
  -0.65           -8.599e-010     -1.1331e-007    1.4223e-008    
  -0.7            2.2939e-009     -2.7263e-007    -1.6134e-008   
  -0.75           1.9702e-009     -5.7761e-007    1.0596e-008    
  -0.8            -1.3878e-009    -1.11537e-006   1.7564e-008    
  -0.85           2.5871e-009     -1.9416e-006    1.7127e-008    
  -0.9            8.792e-010      -3.0799e-006    8.893e-009     
  -0.95           -2.5821e-009    -4.5022e-006    7.09e-009      
  -1              2.5639e-009     -6.2637e-006    -1.3634e-008   
  -1.05           -1.7818e-009    -8.121e-006     1.3688e-008    
  -1.1            2.6856e-009     -1.02135e-005   -1.3779e-008   
  -1.15           5.799e-010      -1.2302e-005    -1.6598e-008   
  -1.2            -2.6009e-009    -1.4428e-005    5.354e-009     
  -1.25           1.5808e-009     -1.6615e-005    -1.6815e-008   
  -1.3            8.764e-010      -1.8665e-005    8.932e-009     
  -1.35           -2.5827e-009    -2.0653e-005    7.156e-009     
  -1.4            2.5636e-009     -2.2654e-005    -1.3466e-008   
  -1.45           -1.7854e-009    -2.4446e-005    1.3827e-008    
  -1.5            2.6311e-009     -2.6264e-005    -1.1571e-008   
  -1.55           -1.9291e-009    -2.7893e-005    1.2371e-008    
  -1.6            1.5242e-009     -2.9501e-005    -1.6161e-008   
  -1.65           9.085e-010      -3.1012e-005    8.701e-009     
  -1.7            -2.5735e-009    -3.2426e-005    7.163e-009     
  -1.75           2.5358e-009     -3.3836e-005    -1.4087e-008   
  -1.8            -1.7436e-009    -3.5092e-005    1.4376e-008    
END_DB

BEGIN_DB
 ICCAP_VAR VS         0              
 ICCAP_VAR VB         0              
 ICCAP_VAR VD         -1.8           

 #VG              IG              ID              IB             
  0               7.784e-010      2.33e-010       -7.39e-009     
  -0.05           -2.5451e-009    1.99e-010       8.34e-009      
  -0.1            1.6325e-009     -3.001e-009     -1.1757e-008   
  -0.15           -1.7846e-009    2.8302e-009     1.5766e-008    
  -0.2            2.0284e-009     -1.3805e-009    -1.6859e-008   
  -0.25           -1.9292e-009    1.1281e-009     1.557e-008     
  -0.3            2.1883e-009     -1.4003e-009    -1.7193e-008   
  -0.35           -2.0707e-009    5.283e-010      1.4702e-008    
  -0.4            2.3326e-009     -2.8969e-009    -1.7042e-008   
  -0.45           -2.1916e-009    -5.0936e-009    1.3279e-008    
  -0.5            1.9023e-009     -1.5833e-008    7.061e-009     
  -0.55           -1.4523e-009    -5.8268e-008    1.6671e-008    
  -0.6            1.0012e-009     -1.6214e-007    -1.7024e-008   
  -0.65           -2.5388e-009    -4.0789e-007    7.885e-009     
  -0.7            2.4209e-009     -9.2765e-007    -1.555e-008    
  -0.75           -2.1876e-009    -1.845e-006     -1.4573e-008   
  -0.8            1.6646e-009     -3.4495e-006    -1.6849e-008   
  -0.85           8.428e-010      -5.7338e-006    9.259e-009     
  -0.9            -2.5908e-009    -9.0116e-006    7.103e-009     
  -0.95           -2.5969e-009    -1.343e-005     9.255e-009     
  -1              2.6162e-009     -1.9127e-005    -1.197e-008    
  -1.05           -1.9049e-009    -2.5674e-005    1.2486e-008    
  -1.1            2.7089e-009     -3.3758e-005    -1.5825e-008   
  -1.15           -9.9e-012       -4.2559e-005    7.767e-009     
  -1.2            -2.1376e-009    -5.255e-005     1.0149e-008    
  -1.25           1.5665e-009     -6.385e-005     -1.6775e-008   
  -1.3            8.834e-010      -7.5624e-005    8.946e-009     
  -1.35           -2.5816e-009    -8.7992e-005    7.231e-009     
  -1.4            2.5604e-009     -0.000101777    -1.3592e-008   
  -1.45           5.308e-010      -0.00011548     1.503e-008     
  -1.5            -1.3818e-009    -0.00012987     1.8014e-008    
  -1.55           2.32e-009       -0.00014541     -1.5865e-008   
  -1.6            1.9407e-009     -0.00016087     1.0684e-008    
  -1.65           -1.4111e-009    -0.00017639     1.7173e-008    
  -1.7            2.3726e-009     -0.00019316     -1.5739e-008   
  -1.75           -1.5273e-009    -0.0002093      1.5967e-008    
  -1.8            2.4731e-009     -0.00022667     -1.5022e-008   
END_DB

BEGIN_DB
 ICCAP_VAR VS         0              
 ICCAP_VAR VB         0.9            
 ICCAP_VAR VD         -0.1           

 #VG              IG              ID              IB             
  0               -2.264e-010     1.0573e-009     1.2392e-008    
  -0.05           1.8863e-009     -2.8665e-009    -1.4665e-008   
  -0.1            -1.8089e-009    1.2624e-009     1.6224e-008    
  -0.15           2.0696e-009     -1.3417e-009    -1.6405e-008   
  -0.2            -1.9593e-009    1.1418e-009     1.5039e-008    
  -0.25           2.2303e-009     -1.2177e-009    -1.7003e-008   
  -0.3            -2.0974e-009    1.0134e-009     1.4261e-008    
  -0.35           2.3627e-009     -1.077e-009     -1.7027e-008   
  -0.4            -2.2213e-009    8.961e-010      1.27e-008      
  -0.45           2.4781e-009     -9.39e-010      -1.6557e-008   
  -0.5            -2.3291e-009    7.431e-010      1.136e-008     
  -0.55           2.5722e-009     -8.653e-010     -1.6124e-008   
  -0.6            -2.4051e-009    3.1406e-009     7.813e-009     
  -0.65           2.6382e-009     -2.2607e-009    -1.6154e-008   
  -0.7            1.1949e-009     -2.869e-009     7.223e-009     
  -0.75           2.3592e-009     -2.4923e-008    7.89e-009      
  -0.8            -1.4977e-009    -8.1827e-008    1.5761e-008    
  -0.85           6.383e-010      -2.3167e-007    -1.4036e-008   
  -0.9            -2.6019e-009    -5.6451e-007    5.722e-009     
  -0.95           2.4473e-009     -1.188e-006     1.3882e-008    
  -1              -2.1073e-009    -2.1516e-006    1.0315e-008    
  -1.05           1.736e-009      -3.5311e-006    -1.9649e-008   
  -1.1            7.96e-010       -5.1928e-006    9.089e-009     
  -1.15           -2.5979e-009    -7.099e-006     6.938e-009     
  -1.2            2.6482e-009     -9.2548e-006    -1.1621e-008   
  -1.25           1.072e-010      -1.137e-005     -1.6572e-008   
  -1.3            -1.9826e-009    -1.355e-005     1.1753e-008    
  -1.35           1.5637e-009     -1.5739e-005    -1.6828e-008   
  -1.4            8.698e-010      -1.7801e-005    8.836e-009     
  -1.45           -2.5812e-009    -1.9764e-005    7.028e-009     
  -1.5            2.5811e-009     -2.1727e-005    -1.3695e-008   
  -1.55           -1.7861e-009    -2.3477e-005    1.3524e-008    
  -1.6            2.7019e-009     -2.5215e-005    -1.3369e-008   
  -1.65           6.77e-011       -2.6804e-005    7.891e-009     
  -1.7            -2.0264e-009    -2.8353e-005    1.1156e-008    
  -1.75           1.6285e-009     -2.9836e-005    -1.7871e-008   
  -1.8            8.429e-010      -3.121e-005     8.933e-009     
END_DB

BEGIN_DB
 ICCAP_VAR VS         0              
 ICCAP_VAR VB         0.9            
 ICCAP_VAR VD         -1.8           

 #VG              IG              ID              IB             
  0               -1.3046e-009    -1.132e-010     -8.925e-009    
  -0.05           1.533e-009      -1.6993e-009    -1.8557e-008   
  -0.1            -1.702e-009     2.8794e-009     1.3794e-008    
  -0.15           2.1609e-009     -2.7218e-009    -1.9168e-008   
  -0.2            -2.0398e-009    1.0695e-009     1.4423e-008    
  -0.25           2.311e-009      -1.1433e-009    -1.663e-008    
  -0.3            -2.171e-009     9.514e-010      1.3225e-008    
  -0.35           2.4402e-009     -1.0039e-009    -1.6586e-008   
  -0.4            -2.2891e-009    8.083e-010      1.1801e-008    
  -0.45           2.5396e-009     -8.962e-010     -1.6545e-008   
  -0.5            -2.3773e-009    4.989e-010      1.0683e-008    
  -0.55           2.6145e-009     -1.4828e-009    -1.6229e-008   
  -0.6            -2.1916e-009    -4.6315e-009    1.29e-008      
  -0.65           -2.5337e-009    -1.5121e-008    -1.6312e-008   
  -0.7            1.8975e-009     -4.8507e-008    -1.6831e-008   
  -0.75           -1.6324e-009    -1.5337e-007    -3.88e-009     
  -0.8            2.5843e-009     -4.4861e-007    -1.4035e-008   
  -0.85           -1.7748e-009    -1.07366e-006   1.3517e-008    
  -0.9            2.7157e-009     -2.3269e-006    8.459e-009     
  -0.95           1.4756e-009     -4.3965e-006    7.682e-009     
  -1              -1.3914e-009    -7.3331e-006    1.3902e-008    
  -1.05           -1.315e-009     -1.152e-005     -7.231e-009    
  -1.1            2.2346e-009     -1.7115e-005    -1.6484e-008   
  -1.15           -1.5239e-009    -2.3607e-005    1.7927e-008    
  -1.2            2.5224e-009     -3.1746e-005    -1.5249e-008   
  -1.25           -1.6589e-009    -4.0496e-005    1.4372e-008    
  -1.3            2.5999e-009     -5.0875e-005    -1.3456e-008   
  -1.35           -1.798e-009     -6.1552e-005    1.332e-008     
  -1.4            2.706e-009      -7.3716e-005    -1.3479e-008   
  -1.45           6.52e-011       -8.6087e-005    7.801e-009     
  -1.5            -2.0393e-009    -9.9335e-005    1.1324e-008    
  -1.55           1.6272e-009     -0.000113558    -1.7993e-008   
  -1.6            1.4929e-009     -0.00012827     2.0573e-008    
  -1.65           -1.3714e-009    -0.00014256     1.3292e-008    
  -1.7            2.3486e-009     -0.00015846     -1.6359e-008   
  -1.75           -1.4678e-009    -0.00017375     1.576e-008     
  -1.8            2.4676e-009     -0.00019036     -1.6066e-008   
END_DB

BEGIN_DB
 ICCAP_VAR VS         0              
 ICCAP_VAR VB         1.8            
 ICCAP_VAR VD         -0.1           

 #VG              IG              ID              IB             
  0               -3.485e-010     8.355e-010      1.0356e-008    
  -0.05           2.1888e-009     -2.7098e-009    -1.9659e-008   
  -0.1            -2.0697e-009    1.0554e-009     1.4424e-008    
  -0.15           2.3443e-009     -1.1155e-009    -1.69e-008     
  -0.2            -2.1986e-009    9.359e-010      1.3103e-008    
  -0.25           2.4594e-009     -9.688e-010     -1.6855e-008   
  -0.3            -2.3056e-009    7.987e-010      1.1778e-008    
  -0.35           2.5551e-009     -8.267e-010     -1.6677e-008   
  -0.4            -1.531e-010     3.5621e-009     7.878e-009     
  -0.45           -2.5669e-009    1.43e-011       8.323e-009     
  -0.5            1.8482e-009     -2.8889e-009    -1.4293e-008   
  -0.55           -1.9772e-009    2.6344e-009     1.9345e-008    
  -0.6            2.2467e-009     -1.2259e-009    -1.6818e-008   
  -0.65           -2.1148e-009    9.327e-010      1.4171e-008    
  -0.7            2.3796e-009     -1.4415e-009    -1.6903e-008   
  -0.75           -2.2203e-009    -3.0741e-009    1.264e-008     
  -0.8            -7.679e-010     -1.1879e-008    9.698e-009     
  -0.85           -1.775e-009     -2.9824e-008    1.3664e-008    
  -0.9            2.697e-009      -1.07571e-007   -1.3311e-008   
  -0.95           -1.986e-009     -3.0442e-007    1.6992e-008    
  -1              2.6941e-009     -7.3949e-007    -1.8333e-008   
  -1.05           -1.967e-009     -1.4992e-006    -1.3641e-008   
  -1.1            2.7016e-009     -2.6825e-006    -1.763e-008    
  -1.15           4.16e-011       -4.1793e-006    7.733e-009     
  -1.2            -2.0718e-009    -6.0183e-006    1.127e-008     
  -1.25           1.6664e-009     -8.116e-006     -1.8858e-008   
  -1.3            8.313e-010      -1.02595e-005   9.198e-009     
  -1.35           1.1132e-009     -1.2471e-005    -1.9127e-008   
  -1.4            -2.4932e-009    -1.4566e-005    8.37e-009      
  -1.45           2.2536e-009     -1.671e-005     -1.6479e-008   
  -1.5            -1.5536e-009    -1.864e-005     1.8592e-008    
  -1.55           2.5324e-009     -2.0605e-005    -1.4938e-008   
  -1.6            -1.7012e-009    -2.235e-005     1.4453e-008    
  -1.65           2.6066e-009     -2.41e-005      -1.2953e-008   
  -1.7            -1.8491e-009    -2.5669e-005    1.3188e-008    
  -1.75           2.7036e-009     -2.7216e-005    -1.4698e-008   
  -1.8            3.27e-011       -2.8634e-005    7.647e-009     
END_DB

BEGIN_DB
 ICCAP_VAR VS         0              
 ICCAP_VAR VB         1.8            
 ICCAP_VAR VD         -1.8           

 #VG              IG              ID              IB             
  0               -6.768e-010     2.615e-010      -7.383e-009    
  -0.05           2.5815e-009     -7.885e-010     -1.6289e-008   
  -0.1            -2.4108e-009    3.5335e-009     7.845e-009     
  -0.15           2.6539e-009     -6.166e-010     -1.6114e-008   
  -0.2            1.1879e-009     3.8247e-009     7.528e-009     
  -0.25           -2.5681e-009    -4.855e-010     6.599e-009     
  -0.3            2.4641e-009     -9.613e-010     -1.6311e-008   
  -0.35           -7.74e-011      3.6677e-009     8.466e-009     
  -0.4            -2.5587e-009    1.472e-010      8.677e-009     
  -0.45           1.6732e-009     -2.9528e-009    -1.1906e-008   
  -0.5            3.721e-010      4.0472e-009     9.595e-009     
  -0.55           -1.9168e-009    -1.9796e-009    1.773e-009     
  -0.6            2.2199e-009     -1.4826e-009    -1.6326e-008   
  -0.65           -2.0922e-009    -1.983e-010     1.3594e-008    
  -0.7            2.374e-009      -6.365e-009     -1.6424e-008   
  -0.75           2.3768e-009     -2.0743e-008    8.925e-009     
  -0.8            -2.252e-009     -8.4582e-008    9.068e-009     
  -0.85           1.416e-010      -2.7411e-007    -7.301e-009    
  -0.9            -1.9228e-009    -7.5668e-007    1.2067e-008    
  -0.95           2.4932e-009     -1.7809e-006    1.4588e-008    
  -1              7.337e-010      -3.5738e-006    9.207e-009     
  -1.05           -2.5914e-009    -6.3506e-006    6.221e-009     
  -1.1            2.6954e-009     -1.04694e-005   -1.0436e-008   
  -1.15           6.126e-010      -1.5619e-005    -1.634e-008    
  -1.2            -2.5834e-009    -2.2077e-005    5.432e-009     
  -1.25           2.7231e-009     -3.0022e-005    -1.5649e-008   
  -1.3            1.4324e-009     -3.9118e-005    8.399e-009     
  -1.35           -1.4351e-009    -4.8637e-005    1.4908e-008    
  -1.4            2.4391e-009     -5.9879e-005    -1.5902e-008   
  -1.45           -1.5578e-009    -7.1308e-005    1.4879e-008    
  -1.5            2.5544e-009     -8.4183e-005    -1.4724e-008   
  -1.55           -1.7051e-009    -9.7034e-005    1.3687e-008    
  -1.6            2.6361e-009     -0.000111254    -1.2983e-008   
  -1.65           3.577e-010      -0.00012522     1.1895e-008    
  -1.7            -1.5872e-009    -0.00013998     1.4821e-008    
  -1.75           2.5752e-009     -0.00015574     -1.4564e-008   
  -1.8            -1.7326e-009    -0.00017092     1.3489e-008    
END_DB

