! VERSION = 6.00
BEGIN_HEADER
 ICCAP_INPUTS
  VG         V  B GROUND SMU4 0.001 LIN        2    0          -1.8       6    -0.36     
  VS         V  E GROUND SMU2 0.1 CON        0
  VD         V  S GROUND SMU1 0.1 LIN        1    0          -1.8       37   -0.05     
  VB         V  C GROUND SMU3 0.1 LIN        3    0          0.9        2    0.9       
 ICCAP_OUTPUTS
  ID         I  S GROUND SMU1 B
  IB         I  C GROUND SMU3 B
  IG         I  B GROUND SMU4 B
END_HEADER

BEGIN_DB
 ICCAP_VAR VG         0              
 ICCAP_VAR VS         0              
 ICCAP_VAR VB         0              

 #VD              ID              IB              IG             
  0               -1.0021e-009    -1.5913e-008    -1.1726e-009   
  -0.05           9.652e-010      -1.0516e-008    1.9281e-009    
  -0.1            1.1021e-009     9.562e-009      -1.2442e-009   
  -0.15           -1.2623e-009    4.809e-009      -1.2691e-009   
  -0.2            9.261e-010      -6.416e-009     1.6994e-009    
  -0.25           8.127e-010      8.665e-009      -1.2524e-009   
  -0.3            -1.6259e-009    2.103e-009      -9.061e-010    
  -0.35           -1.5627e-009    -8.806e-009     1.0733e-009    
  -0.4            9.314e-010      -5.509e-009     1.6492e-009    
  -0.45           7.548e-010      8.744e-009      -1.2543e-009   
  -0.5            -1.6878e-009    2.572e-009      -8.423e-010    
  -0.55           -1.5142e-009    -8.752e-009     1.1446e-009    
  -0.6            -2.577e-010     -1.781e-008     1.4873e-009    
  -0.65           9.748e-010      -3.456e-009     1.9655e-009    
  -0.7            1.1472e-009     9.927e-009      -1.2404e-009   
  -0.75           -1.2164e-009    5.835e-009      -1.3137e-009   
  -0.8            -1.81e-009      -9.579e-009     6.93e-011      
  -0.85           2.52e-011       -1.1911e-008    1.153e-009     
  -0.9            -1.336e-010     -1.4139e-008    1.1459e-009    
  -0.95           -2.188e-010     -1.6685e-008    1.5684e-009    
  -1              1.1642e-009     1.4435e-008     1.2056e-009    
  -1.05           1.6792e-009     8.249e-009      1.2e-012       
  -1.1            1.7562e-009     8.938e-009      1.538e-010     
  -1.15           1.8269e-009     8.904e-009      2.852e-010     
  -1.2            7.89e-010       8.74e-009       -1.2535e-009   
  -1.25           -1.6401e-009    2.276e-009      -8.864e-010    
  -1.3            -1.55e-009      -8.825e-009     1.1436e-009    
  -1.35           9.973e-010      -3.462e-009     2.0499e-009    
  -1.4            1.2326e-009     1.0541e-008     -1.2372e-009   
  -1.45           -1.1441e-009    8.346e-009      -1.3897e-009   
  -1.5            -1.1713e-009    -1.1199e-008    1.1389e-009    
  -1.55           9.876e-010      -1.1145e-008    2.0098e-009    
  -1.6            1.1885e-009     1.127e-008      -1.2394e-009   
  -1.65           -1.1768e-009    6.984e-009      -1.355e-009    
  -1.7            -1.8596e-009    -9.522e-009     2.52e-011      
  -1.75           -5.01e-011      -1.2769e-008    1.1555e-009    
  -1.8            -1.626e-010     -1.5002e-008    1.719e-009     
END_DB

BEGIN_DB
 ICCAP_VAR VG         -0.36          
 ICCAP_VAR VS         0              
 ICCAP_VAR VB         0              

 #VD              ID              IB              IG             
  0               -1.0735e-009    8.763e-009      -1.2475e-009   
  -0.05           9.494e-010      -1.0383e-008    1.8984e-009    
  -0.1            1.0543e-009     9.796e-009      -1.2455e-009   
  -0.15           -1.3226e-009    4.058e-009      -1.228e-009    
  -0.2            -2.382e-010     -1.6729e-008    1.5542e-009    
  -0.25           1.152e-009      1.4414e-008     1.2354e-009    
  -0.3            1.6849e-009     8.23e-009       1.59e-011      
  -0.35           1.769e-009      8.674e-009      1.682e-010     
  -0.4            6.652e-010      8.602e-009      -1.255e-009    
  -0.45           -1.7558e-009    3.157e-009      -7.562e-010    
  -0.5            9.818e-010      -1.0916e-008    1.995e-009     
  -0.55           1.1866e-009     1.1382e-008     -1.2409e-009   
  -0.6            -1.1806e-009    7.124e-009      -1.356e-009    
  -0.65           -1.8667e-009    -9.486e-009     1.72e-011      
  -0.7            -4.5e-011       -1.2869e-008    1.1563e-009    
  -0.75           -1.683e-010     -1.5072e-008    1.6972e-009    
  -0.8            1.266e-009      1.4196e-008     1.1081e-009    
  -0.85           1.1051e-009     1.5657e-008     1.2808e-009    
  -0.9            1.7181e-009     8.61e-009       5.29e-011      
  -0.95           1.7411e-009     8.963e-009      2.487e-010     
  -1              7.29e-010       8.689e-009      -1.2547e-009   
  -1.05           -1.7405e-009    2.916e-009      -7.796e-010    
  -1.1            9.911e-010      -1.1373e-008    2.0108e-009    
  -1.15           1.2372e-009     1.1842e-008     -1.244e-009    
  -1.2            -1.1512e-009    7.706e-009      -1.3789e-009   
  -1.25           -1.1766e-009    -1.1362e-008    1.1374e-009    
  -1.3            9.797e-010      -1.1128e-008    2.0187e-009    
  -1.35           1.1617e-009     1.1297e-008     -1.2408e-009   
  -1.4            -1.1903e-009    7.098e-009      -1.3529e-009   
  -1.45           -1.8499e-009    -9.545e-009     2e-011         
  -1.5            -3.95e-011      -1.2814e-008    1.1552e-009    
  -1.55           -1.587e-010     -1.4968e-008    1.7356e-009    
  -1.6            9.407e-010      1.472e-009      1.838e-009     
  -1.65           9.928e-010      9.154e-009      -1.2457e-009   
  -1.7            -1.382e-009     3.312e-009      -1.1728e-009   
  -1.75           -2.038e-010     -1.5623e-008    1.6477e-009    
  -1.8            1.2065e-009     1.4151e-008     1.1665e-009    
END_DB

BEGIN_DB
 ICCAP_VAR VG         -0.72          
 ICCAP_VAR VS         0              
 ICCAP_VAR VB         0              

 #VD              ID              IB              IG             
  0               -8.39e-010      -1.1042e-008    -1.2074e-009   
  -0.05           -1.642e-008     1.3949e-008     1.0737e-009    
  -0.1            -1.774e-008     -9.68e-009      1.1544e-009    
  -0.15           -2.3321e-008    -8.874e-009     1.0699e-009    
  -0.2            -1.9936e-008    -1.0124e-008    1.1538e-009    
  -0.25           -1.6653e-008    -7.077e-009     1.137e-009     
  -0.3            -1.9972e-008    -1.4828e-008    1.407e-009     
  -0.35           -1.9652e-008    -1.3388e-008    1.5332e-009    
  -0.4            -2.1067e-008    -1.2183e-008    1.6816e-009    
  -0.45           -2.0047e-008    -1.1451e-008    1.1468e-009    
  -0.5            -1.8215e-008    -1.0239e-008    1.1558e-009    
  -0.55           -2.1296e-008    -9.057e-009     1.0697e-009    
  -0.6            -1.8879e-008    -1.0488e-008    1.1536e-009    
  -0.65           -1.9616e-008    -9.319e-009     1.0709e-009    
  -0.7            -1.8222e-008    -9.3e-009       1.4792e-009    
  -0.75           -1.847e-008     -1.2898e-008    1.6197e-009    
  -0.8            -1.9002e-008    -1.1741e-008    1.7591e-009    
  -0.85           -1.7554e-008    -1.1029e-008    1.1503e-009    
  -0.9            -1.7119e-008    -9.717e-009     1.155e-009     
  -0.95           -1.9583e-008    -8.871e-009     1.068e-009     
  -1              -1.7161e-008    -1.0059e-008    1.1559e-009    
  -1.05           -2.0373e-008    -9.007e-009     1.0682e-009    
  -1.1            -1.9012e-008    -1.0427e-008    1.1557e-009    
  -1.15           -2.2201e-008    -9.192e-009     1.0712e-009    
  -1.2            -1.7764e-008    -1.0734e-008    1.1565e-009    
  -1.25           -2.1348e-008    -9.387e-009     1.0733e-009    
  -1.3            -1.762e-008     -1.0906e-008    1.1565e-009    
  -1.35           -1.7688e-008    -1.1378e-008    1.75e-009      
  -1.4            -1.6916e-008    -1.1221e-008    1.155e-009     
  -1.45           -1.6102e-008    -9.85e-009      1.1558e-009    
  -1.5            -1.9299e-008    -8.868e-009     1.0671e-009    
  -1.55           -1.6135e-008    -1.0256e-008    1.1578e-009    
  -1.6            -1.9248e-008    -9.066e-009     1.0674e-009    
  -1.65           -1.5476e-008    -1.0633e-008    1.1581e-009    
  -1.7            -1.938e-008     -9.284e-009     1.0706e-009    
  -1.75           -1.7986e-008    -9.356e-009     1.4878e-009    
  -1.8            -1.7194e-008    -1.2801e-008    1.6248e-009    
END_DB

BEGIN_DB
 ICCAP_VAR VG         -1.08          
 ICCAP_VAR VS         0              
 ICCAP_VAR VB         0              

 #VD              ID              IB              IG             
  0               -1.6566e-008    -9.158e-009     1.1392e-009    
  -0.05           -7.0008e-007    8.609e-009      -2.3515e-009   
  -0.1            -1.138e-006     1.923e-009      1.5291e-009    
  -0.15           -1.5996e-006    -1.3232e-008    1.569e-009     
  -0.2            -1.8036e-006    -1.5035e-008    1.3798e-009    
  -0.25           -1.6755e-006    -9.267e-009     -1.099e-010    
  -0.3            -1.972e-006     1.1188e-008     -1.5263e-009   
  -0.35           -1.6373e-006    1.4645e-008     1.5002e-009    
  -0.4            -2.0488e-006    -1.2956e-008    1.6156e-009    
  -0.45           -2.0602e-006    -1.4741e-008    1.412e-009     
  -0.5            -1.771e-006     -9.161e-009     -7.26e-011     
  -0.55           -2.0656e-006    1.0441e-008     -1.5556e-009   
  -0.6            -1.6803e-006    1.4452e-008     1.4746e-009    
  -0.65           -2.1363e-006    -1.0393e-008    1.157e-009     
  -0.7            -2.0867e-006    -1.1061e-008    1.1569e-009    
  -0.75           -2.1195e-006    -1.1033e-008    1.1562e-009    
  -0.8            -2.1168e-006    -1.0992e-008    1.1564e-009    
  -0.85           -2.1022e-006    -1.1216e-008    1.1566e-009    
  -0.9            -2.1456e-006    -1.1421e-008    1.1581e-009    
  -0.95           -2.1472e-006    -1.1329e-008    1.8029e-009    
  -1              -2.1515e-006    -1.2803e-008    1.5983e-009    
  -1.05           -1.8828e-006    -8.703e-009     7.31e-011      
  -1.1            -2.1451e-006    7.544e-009      -1.7255e-009   
  -1.15           -1.7584e-006    1.3927e-008     1.343e-009     
  -1.2            -2.1822e-006    -1.1231e-008    1.1493e-009    
  -1.25           -2.1908e-006    -1.1332e-008    1.1478e-009    
  -1.3            -2.1929e-006    -1.1511e-008    1.7815e-009    
  -1.35           -2.2108e-006    -1.3187e-008    1.5691e-009    
  -1.4            -2.2079e-006    -1.4899e-008    1.37e-009      
  -1.45           -2.1001e-006    -6.128e-009     1.1296e-009    
  -1.5            -2.2315e-006    -1.4481e-008    1.1461e-009    
  -1.55           -2.2782e-006    -1.1517e-008    1.1572e-009    
  -1.6            -2.2e-006       -1.0459e-008    1.1569e-009    
  -1.65           -2.2067e-006    -1.0529e-008    1.1551e-009    
  -1.7            -1.8412e-006    -9.655e-009     -3.123e-010    
  -1.75           -1.8427e-006    7.75e-010       -1.261e-009    
  -1.8            -1.8166e-006    8.779e-009      4.659e-010     
END_DB

BEGIN_DB
 ICCAP_VAR VG         -1.44          
 ICCAP_VAR VS         0              
 ICCAP_VAR VB         0              

 #VD              ID              IB              IG             
  0               -1.4901e-008    -3.309e-009     -1.2845e-009   
  -0.05           -2.8461e-006    -1.163e-008     -1.888e-009    
  -0.1            -5.2861e-006    2.369e-009      -1.2369e-009   
  -0.15           -7.4063e-006    1.1509e-008     1.0277e-009    
  -0.2            -9.1156e-006    -9.334e-009     1.1478e-009    
  -0.25           -1.05365e-005   -1.0985e-008    1.1524e-009    
  -0.3            -1.1558e-005    -1.4139e-008    3.317e-010     
  -0.35           -1.2472e-005    -2.2415e-008    1.0895e-009    
  -0.4            -1.3102e-005    -1.5167e-008    1.3675e-009    
  -0.45           -1.3577e-005    -2.2747e-008    1.0835e-009    
  -0.5            -1.3922e-005    -1.5997e-008    1.3182e-009    
  -0.55           -1.4178e-005    -1.0524e-008    1.1553e-009    
  -0.6            -1.4323e-005    -1.451e-008     1.4035e-009    
  -0.65           -1.4512e-005    -2.244e-008     1.0881e-009    
  -0.7            -1.4197e-005    -8.676e-009     -9.106e-010    
  -0.75           -1.4601e-005    3.227e-009      -1.2183e-009   
  -0.8            -1.438e-005     8.556e-009      6.298e-010     
  -0.85           -1.4724e-005    -8.686e-009     1.1411e-009    
  -0.9            -1.4444e-005    -9.197e-009     -4.674e-010    
  -0.95           -1.4638e-005    3.211e-009      -1.2422e-009   
  -1              -1.4523e-005    1.3256e-008     1.3135e-009    
  -1.05           -1.4929e-005    -1.544e-008     1.3658e-009    
  -1.1            -1.5004e-005    -1.0402e-008    1.1491e-009    
  -1.15           -1.4997e-005    -1.4009e-008    1.4541e-009    
  -1.2            -1.5031e-005    -2.2372e-008    1.0927e-009    
  -1.25           -1.5154e-005    -1.4891e-008    1.4009e-009    
  -1.3            -1.5153e-005    -2.2601e-008    1.0864e-009    
  -1.35           -1.4771e-005    -8.83e-009      -9.215e-010    
  -1.4            -1.5153e-005    3.216e-009      -1.9648e-009   
  -1.45           -1.4806e-005    1.4232e-008     1.4981e-009    
  -1.5            -1.5292e-005    -1.8993e-008    1.201e-009     
  -1.55           -1.5282e-005    -1.1192e-008    1.7299e-009    
  -1.6            -1.4965e-005    -9.288e-009     -1.981e-010    
  -1.65           -1.499e-005     2.392e-009      -1.2592e-009   
  -1.7            -1.5015e-005    1.0861e-008     9.503e-010     
  -1.75           -1.5392e-005    -1.0874e-008    1.1532e-009    
  -1.8            -1.5002e-005    -8.913e-009     -8.216e-010    
END_DB

BEGIN_DB
 ICCAP_VAR VG         -1.8           
 ICCAP_VAR VS         0              
 ICCAP_VAR VB         0              

 #VD              ID              IB              IG             
  0               -1.6217e-008    2.968e-009      1.1032e-009    
  -0.05           -4.8312e-006    1.2327e-008     1.5714e-009    
  -0.1            -9.3447e-006    -8.707e-009     6.51e-011      
  -0.15           -1.3505e-005    5.63e-009       -8.7e-012      
  -0.2            -1.7308e-005    1.089e-009      -1.2607e-009   
  -0.25           -2.0839e-005    9.504e-009      7.802e-010     
  -0.3            -2.3931e-005    -1.0406e-008    1.1545e-009    
  -0.35           -2.671e-005     -1.3653e-008    1.513e-009     
  -0.4            -2.917e-005     -1.0718e-008    1.1513e-009    
  -0.45           -3.1288e-005    -1.4225e-008    1.4499e-009    
  -0.5            -3.3113e-005    -1.0396e-008    1.1534e-009    
  -0.55           -3.4612e-005    -1.3283e-008    1.5555e-009    
  -0.6            -3.5894e-005    -1.0944e-008    1.1518e-009    
  -0.65           -3.6888e-005    -1.384e-008     1.489e-009     
  -0.7            -3.771e-005     -1.0069e-008    1.1535e-009    
  -0.75           -3.8361e-005    -1.3009e-008    1.5946e-009    
  -0.8            -3.8949e-005    -1.1383e-008    1.154e-009     
  -0.85           -3.9299e-005    -1.3724e-008    1.5284e-009    
  -0.9            -3.9615e-005    -9.919e-009     1.15e-009      
  -0.95           -3.9925e-005    -1.2488e-008    1.6273e-009    
  -1              -4.0217e-005    -1.1638e-008    1.1543e-009    
  -1.05           -4.0333e-005    -1.2974e-008    1.5609e-009    
  -1.1            -4.0479e-005    -9.58e-009      1.1507e-009    
  -1.15           -4.0347e-005    -9.099e-009     -5.222e-010    
  -1.2            -4.0591e-005    2.767e-009      -1.2392e-009   
  -1.25           -4.0648e-005    1.3977e-008     1.3811e-009    
  -1.3            -4.1108e-005    -1.63e-008      1.2925e-009    
  -1.35           -4.0832e-005    -9.223e-009     -4.772e-010    
  -1.4            -4.1029e-005    2.997e-009      -1.2419e-009   
  -1.45           -4.1069e-005    1.3896e-008     1.3264e-009    
  -1.5            -4.147e-005     -1.5491e-008    1.3482e-009    
  -1.55           -4.1197e-005    -9.332e-009     -4.371e-010    
  -1.6            -4.1337e-005    3.003e-009      -1.2418e-009   
  -1.65           -4.1418e-005    1.3296e-008     1.2752e-009    
  -1.7            -4.1774e-005    -1.4762e-008    1.4144e-009    
  -1.75           -4.1525e-005    -9.357e-009     -3.951e-010    
  -1.8            -4.1618e-005    3e-009          -1.2442e-009   
END_DB

BEGIN_DB
 ICCAP_VAR VG         0              
 ICCAP_VAR VS         0              
 ICCAP_VAR VB         0.9            

 #VD              ID              IB              IG             
  0               -1.0985e-009    -3.059e-009     -1.2483e-009   
  -0.05           9.576e-010      -1.037e-008     1.9216e-009    
  -0.1            1.0924e-009     9.18e-009       -1.2382e-009   
  -0.15           -1.2617e-009    4.785e-009      -1.2758e-009   
  -0.2            9.302e-010      -6.654e-009     1.7097e-009    
  -0.25           8.316e-010      8.582e-009      -1.2526e-009   
  -0.3            -1.5736e-009    1.959e-009      -9.489e-010    
  -0.35           -6.41e-011      -1.2803e-008    1.1485e-009    
  -0.4            -1.757e-010     -1.562e-008     1.6573e-009    
  -0.45           1.2242e-009     1.4041e-008     1.1341e-009    
  -0.5            1.0788e-009     1.5864e-008     1.3238e-009    
  -0.55           1.7324e-009     8.606e-009      1.008e-010     
  -0.6            1.8196e-009     8.839e-009      2.414e-010     
  -0.65           7.567e-010      8.667e-009      -1.2586e-009   
  -0.7            -1.6604e-009    2.492e-009      -8.524e-010    
  -0.75           2.7e-011        -1.1696e-008    1.1487e-009    
  -0.8            -1.3e-010       -1.4371e-008    1.1445e-009    
  -0.85           -2.303e-010     -1.7233e-008    1.547e-009     
  -0.9            1.1516e-009     1.4695e-008     1.2299e-009    
  -0.95           1.6831e-009     8.257e-009      2.39e-011      
  -1              1.7777e-009     8.898e-009      1.798e-010     
  -1.05           6.845e-010      8.798e-009      -1.2626e-009   
  -1.1            -1.7464e-009    3.116e-009      -7.507e-010    
  -1.15           9.876e-010      -1.1007e-008    2.0243e-009    
  -1.2            1.2082e-009     1.0421e-008     -1.2353e-009   
  -1.25           -1.1553e-009    7.838e-009      -1.3832e-009   
  -1.3            9.346e-010      -9.087e-009     1.8211e-009    
  -1.35           9.639e-010      8.538e-009      -1.25e-009     
  -1.4            -1.4194e-009    2.634e-009      -1.1181e-009   
  -1.45           -1.7192e-009    -8.871e-009     1.0907e-009    
  -1.5            9.3e-010        -8.674e-009     1.7846e-009    
  -1.55           9.445e-010      8.543e-009      -1.252e-009    
  -1.6            -1.4547e-009    2.334e-009      -1.077e-009    
  -1.65           -1.64e-010      -1.426e-008     1.75e-009      
  -1.7            1.2833e-009     1.3828e-008     1.0893e-009    
  -1.75           1.1124e-009     1.5044e-008     1.2733e-009    
  -1.8            1.7064e-009     8.611e-009      5.62e-011      
END_DB

BEGIN_DB
 ICCAP_VAR VG         -0.36          
 ICCAP_VAR VS         0              
 ICCAP_VAR VB         0.9            

 #VD              ID              IB              IG             
  0               -1.0727e-009    -3.633e-009     -1.2482e-009   
  -0.05           9.563e-010      -1.0545e-008    1.9193e-009    
  -0.1            1.0859e-009     1.0053e-008     -1.2433e-009   
  -0.15           -1.287e-009     4.674e-009      -1.2591e-009   
  -0.2            9.196e-010      -6.19e-009      1.6965e-009    
  -0.25           8.05e-010       8.464e-009      -1.2514e-009   
  -0.3            -1.6281e-009    2.005e-009      -9.218e-010    
  -0.35           -3.81e-011      -1.2566e-008    1.1526e-009    
  -0.4            -1.654e-010     -1.4998e-008    1.7356e-009    
  -0.45           9.408e-010      -1.111e-009     1.8661e-009    
  -0.5            1.0238e-009     9.351e-009      -1.2449e-009   
  -0.55           -1.3585e-009    3.426e-009      -1.1873e-009   
