! VERSION = 6.00
BEGIN_HEADER
 ICCAP_INPUTS
  VG         V  B GROUND SMU4 0.001 LIN        2    0          -1.8       6    -0.36     
  VS         V  E GROUND SMU2 0.1 CON        0
  VD         V  S GROUND SMU1 0.1 LIN        1    0          -1.8       37   -0.05     
  VB         V  C GROUND SMU3 0.1 LIN        3    0          0.9        2    0.9       
 ICCAP_OUTPUTS
  ID         I  S GROUND SMU1 B
  IB         I  C GROUND SMU3 B
  IG         I  B GROUND SMU4 B
END_HEADER

BEGIN_DB
 ICCAP_VAR VG         0              
 ICCAP_VAR VS         0              
 ICCAP_VAR VB         0              

 #VD              ID              IB              IG             
  0               9.124e-010      -8.849e-009     1.124e-009     
  -0.05           1.0902e-009     1.5383e-008     1.2826e-009    
  -0.1            1.6944e-009     8.772e-009      8.57e-011      
  -0.15           1.7797e-009     8.908e-009      2.401e-010     
  -0.2            7.411e-010      8.498e-009      -1.2435e-009   
  -0.25           -1.6491e-009    2.445e-009      -8.638e-010    
  -0.3            1e-013          -1.2356e-008    1.1457e-009    
  -0.35           -1.424e-010     -1.464e-008     1.7514e-009    
  -0.4            1.2647e-009     1.3963e-008     1.0891e-009    
  -0.45           1.088e-009      1.4788e-008     1.277e-009     
  -0.5            1.6976e-009     8.569e-009      8.42e-011      
  -0.55           1.7831e-009     8.574e-009      2.419e-010     
  -0.6            7.495e-010      8.224e-009      -1.2439e-009   
  -0.65           -1.6465e-009    2.441e-009      -8.599e-010    
  -0.7            1.7e-012        -1.2399e-008    1.1467e-009    
  -0.75           -1.461e-010     -1.4721e-008    1.7467e-009    
  -0.8            1.257e-009      1.3995e-008     1.09e-009      
  -0.85           1.0875e-009     1.4699e-008     1.2774e-009    
  -0.9            1.6984e-009     8.519e-009      8.16e-011      
  -0.95           1.7794e-009     8.605e-009      2.39e-010      
  -1              7.433e-010      8.249e-009      -1.244e-009    
  -1.05           -1.6467e-009    2.349e-009      -8.642e-010    
  -1.1            2e-012          -1.2297e-008    1.1467e-009    
  -1.15           -1.461e-010     -1.4449e-008    1.7487e-009    
  -1.2            1.2629e-009     1.3933e-008     1.0809e-009    
  -1.25           1.0865e-009     1.4666e-008     1.2757e-009    
  -1.3            1.7016e-009     8.579e-009      8.22e-011      
  -1.35           1.777e-009      8.639e-009      2.467e-010     
  -1.4            7.439e-010      8.226e-009      -1.2435e-009   
  -1.45           -1.6421e-009    2.397e-009      -8.555e-010    
  -1.5            -2e-012         -1.2337e-008    1.1418e-009    
  -1.55           -1.445e-010     -1.455e-008     1.7391e-009    
  -1.6            1.2587e-009     1.3948e-008     1.0929e-009    
  -1.65           1.0856e-009     1.5519e-008     1.2829e-009    
  -1.7            1.6966e-009     8.62e-009       8.81e-011      
  -1.75           1.7799e-009     8.568e-009      2.417e-010     
  -1.8            7.427e-010      8.224e-009      -1.2429e-009   
END_DB

BEGIN_DB
 ICCAP_VAR VG         -0.36          
 ICCAP_VAR VS         0              
 ICCAP_VAR VB         0              

 #VD              ID              IB              IG             
  0               1.0145e-009     1.3258e-008     1.1748e-009    
  -0.05           1.3453e-009     1.4242e-008     -1.2507e-009   
  -0.1            -1.1162e-009    3.076e-009      -1.5172e-009   
  -0.15           1.2767e-009     -1.0885e-008    -1.2596e-009   
  -0.2            -1.1487e-009    2.82e-009       -1.4513e-009   
  -0.25           1.2112e-009     -1.0509e-008    -1.2096e-009   
  -0.3            -1.1526e-009    1.1469e-008     -1.4645e-009   
  -0.35           1.2125e-009     -1.0648e-008    -1.2801e-009   
  -0.4            -1.1989e-009    2.741e-009      -1.4025e-009   
  -0.45           1.6632e-009     -9.62e-009      1.917e-010     
  -0.5            6.109e-010      8.307e-009      -1.2447e-009   
  -0.55           -1.1464e-009    2.867e-009      -1.6211e-009   
  -0.6            -5.3e-011       -1.1849e-008    1.1468e-009    
  -0.65           -2.226e-010     -1.4057e-008    1.1465e-009    
  -0.7            -3.358e-010     -1.6267e-008    1.5853e-009    
  -0.75           1.3023e-009     1.4433e-008     -1.2455e-009   
  -0.8            -1.1772e-009    3.205e-009      -1.5694e-009   
  -0.85           -2.89e-011      -1.1324e-008    1.1486e-009    
  -0.9            -2.054e-010     -1.3348e-008    1.1467e-009    
  -0.95           -3.354e-010     -1.536e-008     1.6632e-009    
  -1              1.2443e-009     1.4165e-008     -1.2497e-009   
  -1.05           -1.2163e-009    3.182e-009      -1.5299e-009   
  -1.1            -2.0625e-009    -9.074e-009     -2.957e-010    
  -1.15           -1.3032e-009    -1.2245e-008    1.1268e-009    
  -1.2            -1.1e-011       -1.1053e-008    1.1452e-009    
  -1.25           -1.981e-010     -1.2582e-008    1.1467e-009    
  -1.3            -3.505e-010     -1.463e-008     1.7519e-009    
  -1.35           1.1627e-009     1.3773e-008     -1.2539e-009   
  -1.4            -1.2182e-009    3.096e-009      -2.3544e-009   
  -1.45           -1.164e-010     -1.1311e-008    1.1474e-009    
  -1.5            -3.066e-010     -1.3287e-008    1.1449e-009    
  -1.55           -4.326e-010     -1.5332e-008    1.6653e-009    
  -1.6            1.1435e-009     1.4193e-008     -1.2487e-009   
  -1.65           -1.2565e-009    3.243e-009      -2.3718e-009   
  -1.7            -2.283e-010     -1.1897e-008    1.146e-009     
  -1.75           -4.11e-010      -1.4209e-008    1.1389e-009    
  -1.8            -5.253e-010     -1.6331e-008    1.567e-009     
END_DB

BEGIN_DB
 ICCAP_VAR VG         -0.72          
 ICCAP_VAR VS         0              
 ICCAP_VAR VB         0              

 #VD              ID              IB              IG             
  0               -1.2291e-009    -1.635e-008     -1.1781e-009   
  -0.05           -3.8013e-007    1.3405e-008     -1.3196e-009   
  -0.1            -5.1215e-007    8.686e-009      3.805e-010     
  -0.15           -5.8379e-007    -3.066e-009     1.0627e-009    
  -0.2            -6.3599e-007    -1.3167e-008    1.576e-009     
  -0.25           -6.6429e-007    -9.457e-009     -8.06e-011     
  -0.3            -7.0103e-007    1.3309e-008     -1.422e-009    
  -0.35           -7.3819e-007    8.577e-009      2.919e-010     
  -0.4            -7.9777e-007    -1.7604e-008    1.1917e-009    
  -0.45           -8.3426e-007    -1.0248e-008    1.1492e-009    
  -0.5            -8.676e-007     -1.1141e-008    1.1453e-009    
  -0.55           -9.0623e-007    -1.2386e-008    1.6872e-009    
  -0.6            -9.4983e-007    -1.5344e-008    1.3278e-009    
  -0.65           -9.5883e-007    -9.54e-009      -2.676e-010    
  -0.7            -9.8904e-007    1.218e-009      -1.247e-009    
  -0.75           -1.04953e-006   8.064e-009      5.734e-010     
  -0.8            -1.09702e-006   -4.244e-009     1.1002e-009    
  -0.85           -1.111e-006     -1.7115e-008    -1.6484e-009   
  -0.9            -1.1576e-006    1.4349e-008     1.3805e-009    
  -0.95           -1.2174e-006    -1.1381e-008    1.1467e-009    
  -1              -1.2564e-006    -1.0572e-008    1.1445e-009    
  -1.05           -1.2628e-006    -9.764e-009     -3.136e-010    
  -1.1            -1.2918e-006    7.41e-010       -1.2506e-009   
  -1.15           -1.3508e-006    8.786e-009      4.568e-010     
  -1.2            -1.4009e-006    -3.059e-009     1.0602e-009    
  -1.25           -1.4147e-006    -8.535e-009     -6.11e-010     
  -1.3            -1.4527e-006    2.735e-009      -1.2399e-009   
  -1.35           -1.5325e-006    8.275e-009      6.98e-010      
  -1.4            -1.583e-006     -4.443e-009     1.1057e-009    
  -1.45           -1.629e-006     -1.5594e-008    1.3033e-009    
  -1.5            -1.6412e-006    -9.742e-009     -1.78e-010     
  -1.55           -1.6803e-006    1.2699e-008     -1.4494e-009   
  -1.6            -1.731e-006     1.5884e-008     1.5467e-009    
  -1.65           -1.809e-006     -1.3936e-008    1.5046e-009    
  -1.7            -1.8561e-006    -1.5656e-008    1.3127e-009    
  -1.75           -1.8676e-006    -9.621e-009     -1.609e-010    
  -1.8            -1.9078e-006    1.255e-008      -1.4547e-009   
END_DB

BEGIN_DB
 ICCAP_VAR VG         -1.08          
 ICCAP_VAR VS         0              
 ICCAP_VAR VB         0              

 #VD              ID              IB              IG             
  0               -4.8109e-008    3.781e-009      1.1464e-009    
  -0.05           -2.0403e-005    1.5068e-008     -1.3049e-009   
  -0.1            -3.5359e-005    8.15e-009       5.494e-010     
  -0.15           -4.5735e-005    -6.924e-009     1.1331e-009    
  -0.2            -5.2763e-005    -1.1113e-008    1.1443e-009    
  -0.25           -5.7813e-005    -1.5154e-008    1.3498e-009    
  -0.3            -6.157e-005     -1.0841e-008    1.1447e-009    
  -0.35           -6.4387e-005    -1.4429e-008    1.4376e-009    
  -0.4            -6.6879e-005    -1.0438e-008    1.1475e-009    
  -0.45           -6.881e-005     -1.3575e-008    1.5421e-009    
  -0.5            -7.0776e-005    -9.751e-009     1.1464e-009    
  -0.55           -7.2322e-005    -1.2532e-008    1.6356e-009    
  -0.6            -7.4005e-005    -1.1492e-008    1.1475e-009    
  -0.65           -7.5392e-005    -1.3347e-008    1.5632e-009    
  -0.7            -7.6964e-005    -9.596e-009     1.1439e-009    
  -0.75           -7.8185e-005    -1.2486e-008    1.6592e-009    
  -0.8            -7.962e-005     -1.1899e-008    1.1457e-009    
  -0.85           -8.0804e-005    -1.3167e-008    1.5854e-009    
  -0.9            -8.2192e-005    -1.1202e-008    1.144e-009     
  -0.95           -8.3322e-005    -1.3816e-008    1.5121e-009    
  -1              -8.4656e-005    -9.873e-009     1.1438e-009    
  -1.05           -8.5681e-005    -1.2908e-008    1.6104e-009    
  -1.1            -8.6971e-005    -1.1339e-008    1.145e-009     
  -1.15           -8.8019e-005    -1.3544e-008    1.5369e-009    
  -1.2            -8.9287e-005    -9.711e-009     1.1453e-009    
  -1.25           -9.0254e-005    -1.2626e-008    1.6396e-009    
  -1.3            -9.0952e-005    -9.541e-009     -2.61e-010     
  -1.35           -9.1732e-005    2.584e-009      -1.2415e-009   
  -1.4            -9.3847e-005    1.1509e-008     1.0346e-009    
  -1.45           -9.4797e-005    -1.082e-008     1.1468e-009    
  -1.5            -9.5748e-005    -1.3902e-008    1.4922e-009    
  -1.55           -9.6969e-005    -1.0109e-008    1.1475e-009    
  -1.6            -9.7814e-005    -1.3091e-008    1.5809e-009    
  -1.65           -9.9051e-005    -1.1096e-008    1.1445e-009    
  -1.7            -0.000100011    -1.3636e-008    1.5169e-009    
  -1.75           -0.000101189    -9.895e-009     1.1468e-009    
  -1.8            -0.000102055    -1.2815e-008    1.6101e-009    
END_DB

BEGIN_DB
 ICCAP_VAR VG         -1.44          
 ICCAP_VAR VS         0              
 ICCAP_VAR VB         0              

 #VD              ID              IB              IG             
  0               -9.6313e-008    3.788e-009      1.1441e-009    
  -0.05           -5.7902e-005    -3.63e-010      1.1123e-009    
  -0.1            -0.000109882    -1.028e-008     1.1439e-009    
  -0.15           -0.00015557     -9.597e-009     -2.2749e-009   
  -0.2            -0.00019544     8.918e-009      3.879e-010     
  -0.25           -0.00022945     -3.095e-009     1.0676e-009    
  -0.3            -0.00025799     -1.3067e-008    1.5567e-009    
  -0.35           -0.00028145     -1.6861e-008    1.2397e-009    
  -0.4            -0.00030072     -9.676e-009     1.1417e-009    
  -0.45           -0.00031567     -9.546e-009     -3.348e-010    
  -0.5            -0.00032801     2.024e-009      -1.2518e-009   
  -0.55           -0.00034008     8.23e-009       6.487e-010     
  -0.6            -0.00034934     -5.213e-009     1.1145e-009    
  -0.65           -0.00035697     -1.2717e-008    1.1418e-009    
  -0.7            -0.00036296     -9.591e-009     -3.16e-010     
  -0.75           -0.00036854     1.913e-009      -1.2529e-009   
  -0.8            -0.00037579     8.197e-009      6.244e-010     
  -0.85           -0.00038085     -4.999e-009     1.112e-009     
  -0.9            -0.00038534     -1.334e-008     1.141e-009     
  -0.95           -0.00039016     -1.0512e-008    1.1414e-009    
  -1              -0.00039402     -1.095e-008     1.1365e-009    
  -1.05           -0.00039811     -1.228e-008     1.6297e-009    
  -1.1            -0.00040243     -1.5821e-008    1.2925e-009    
  -1.15           -0.00040618     -1.1172e-008    1.1419e-009    
  -1.2            -0.00040849     -9.369e-009     -3.862e-010    
  -1.25           -0.00041166     2.546e-009      -1.2493e-009   
  -1.3            -0.00041699     8.436e-009      7.285e-010     
  -1.35           -0.00042015     -6.295e-009     1.1249e-009    
  -1.4            -0.00042336     -1.1658e-008    1.1417e-009    
  -1.45           -0.00042554     -9.374e-009     -3.695e-010    
  -1.5            -0.00042817     2.316e-009      -1.2494e-009   
  -1.55           -0.00043316     8.276e-009      6.832e-010     
  -1.6            -0.00043627     -5.967e-009     1.1218e-009    
  -1.65           -0.00043908     -1.1929e-008    1.1432e-009    
  -1.7            -0.00044086     -9.431e-009     -3.444e-010    
  -1.75           -0.00044328     2.338e-009      -1.2503e-009   
  -1.8            -0.00044818     8.322e-009      6.569e-010     
END_DB

BEGIN_DB
 ICCAP_VAR VG         -1.8           
 ICCAP_VAR VS         0              
 ICCAP_VAR VB         0              

 #VD              ID              IB              IG             
  0               -1.4784e-007    8.002e-009      5.615e-010     
  -0.05           -8.5617e-005    -1.4381e-008    3.372e-010     
  -0.1            -0.00016694     -1.7296e-008    -2.423e-010    
  -0.15           -0.0002433      7.97e-010       -1.259e-009    
  -0.2            -0.00031515     8.361e-009      5.476e-010     
  -0.25           -0.00038159     -4.044e-009     1.0953e-009    
  -0.3            -0.00044297     -1.6546e-008    1.2519e-009    
  -0.35           -0.00049861     -9.605e-009     1.1444e-009    
  -0.4            -0.00054829     -9.567e-009     -3.227e-010    
  -0.45           -0.00059278     1.847e-009      -1.2517e-009   
  -0.5            -0.00063356     8.211e-009      6.317e-010     
  -0.55           -0.00066851     -5.055e-009     1.1144e-009    
  -0.6            -0.00069826     -9.352e-009     -6.5e-011      
  -0.65           -0.00072392     1.3128e-008     -1.4246e-009   
  -0.7            -0.00074688     8.594e-009      2.798e-010     
  -0.75           -0.00076766     -1.7665e-008    1.2095e-009    
  -0.8            -0.00078533     -2.1595e-008    1.0798e-009    
  -0.85           -0.00079985     -1.1357e-008    1.7499e-009    
  -0.9            -0.00081301     -8.889e-009     7.7e-011       
  -0.95           -0.00082387     1.0083e-008     -1.5531e-009   
  -1              -0.00083545     1.4863e-008     1.5515e-009    
  -1.05           -0.00084579     -1.54e-008      1.3326e-009    
  -1.1            -0.00085357     -9.48e-009      -2.527e-010    
  -1.15           -0.00086113     8.45e-010       -1.2566e-009   
  -1.2            -0.00087049     8.16e-009       5.563e-010     
  -1.25           -0.00087777     -4.132e-009     1.0991e-009    
  -1.3            -0.00088431     -8.986e-009     4.94e-011      
  -1.35           -0.0008894      1.0713e-008     -1.5295e-009   
  -1.4            -0.00089598     8.11e-009       2.243e-010     
  -1.45           -0.00090358     -1.6316e-008    1.3095e-009    
  -1.5            -0.00090955     -1.1378e-008    1.1462e-009    
  -1.55           -0.00091511     -1.0848e-008    1.1367e-009    
  -1.6            -0.00092005     -1.1718e-008    1.6813e-009    
  -1.65           -0.00092569     -1.5215e-008    1.3424e-009    
  -1.7            -0.00093087     -1.1866e-008    1.1433e-009    
  -1.75           -0.00093465     -9.47e-009      -3.563e-010    
  -1.8            -0.0009391      2.13e-009       -1.2515e-009   
END_DB

BEGIN_DB
 ICCAP_VAR VG         0              
 ICCAP_VAR VS         0              
 ICCAP_VAR VB         0.9            

 #VD              ID              IB              IG             
  0               -1.0062e-009    -1.327e-008     -1.1585e-009   
  -0.05           -1.8899e-009    -9.459e-009     -2.112e-010    
  -0.1            -1.929e-010     -1.5622e-008    1.6518e-009    
  -0.15           1.2041e-009     1.4275e-008     1.1504e-009    
  -0.2            1.0496e-009     1.5628e-008     1.3237e-009    
  -0.25           1.7164e-009     8.856e-009      1.192e-010     
  -0.3            1.7881e-009     8.962e-009      2.648e-010     
  -0.35           7.687e-010      8.326e-009      -1.2401e-009   
  -0.4            -1.6337e-009    2.513e-009      -8.896e-010    
  -0.45           -8.3e-012       -1.2524e-008    1.1436e-009    
  -0.5            -1.458e-010     -1.4647e-008    1.762e-009     
  -0.55           1.2897e-009     1.3901e-008     1.0611e-009    
  -0.6            1.124e-009      1.534e-008      1.2422e-009    
  -0.65           1.6729e-009     8.588e-009      4.45e-011      
  -0.7            1.762e-009      9.012e-009      1.993e-010     
  -0.75           6.982e-010      8.592e-009      -1.2442e-009   
  -0.8            -1.708e-009     3.084e-009      -7.831e-010    
  -0.85           9.817e-010      -1.1467e-008    2.0251e-009    
  -0.9            1.2085e-009     1.1835e-008     -1.221e-009    
  -0.95           -1.1241e-009    8.929e-009      -1.4054e-009   
  -1              9.225e-010      -9.05e-009      1.8107e-009    
  -1.05           9.772e-010      8.774e-009      -1.2367e-009   
  -1.1            -1.3816e-009    3.406e-009      -1.1521e-009   
  -1.15           -1.898e-010     -1.5404e-008    1.6569e-009    
  -1.2            1.2114e-009     1.4249e-008     1.1375e-009    
  -1.25           1.0554e-009     1.5881e-008     1.3197e-009    
  -1.3            1.7115e-009     8.853e-009      1.138e-010     
  -1.35           1.777e-009      8.89e-009       2.696e-010     
  -1.4            7.592e-010      8.327e-009      -1.2418e-009   
  -1.45           -1.6434e-009    2.518e-009      -8.713e-010    
  -1.5            5.9e-012        -1.2419e-008    1.1486e-009    
  -1.55           -1.379e-010     -1.4621e-008    1.7768e-009    
  -1.6            1.3011e-009     1.3928e-008     1.047e-009     
  -1.65           1.125e-009      1.4743e-008     1.2264e-009    
  -1.7            1.6692e-009     8.423e-009      3.15e-011      
  -1.75           1.7523e-009     8.627e-009      1.874e-010     
  -1.8            6.843e-010      8.372e-009      -1.2443e-009   
END_DB

BEGIN_DB
 ICCAP_VAR VG         -0.36          
 ICCAP_VAR VS         0              
 ICCAP_VAR VB         0.9            

 #VD              ID              IB              IG             
  0               9.472e-010      -9.322e-009     -3.74e-010     
  -0.05           -1.8852e-009    9.439e-009      -4.783e-010    
  -0.1            -1.7825e-009    -9.366e-009     -6.487e-010    
  -0.15           9.591e-010      -1.0619e-008    1.9328e-009    
  -0.2            1.1342e-009     1.0691e-008     -1.2207e-009   
  -0.25           -1.1878e-009    6.543e-009      -1.3443e-009   
  -0.3            -1.8155e-009    -9.592e-009     2.64e-011      
  -0.35           -3.48e-011      -1.2581e-008    1.1463e-009    
  -0.4            -1.595e-010     -1.4936e-008    1.7045e-009    
  -0.45           1.2377e-009     1.3607e-008     1.1039e-009    
  -0.5            1.0784e-009     1.4624e-008     1.2847e-009    
  -0.55           1.6992e-009     8.533e-009      9.4e-011       
