! VERSION = 6.00
BEGIN_HEADER
 ICCAP_INPUTS
  VG         V  B GROUND SMU4 0.001 LIN        2    0          -1.8       6    -0.36     
  VS         V  E GROUND SMU2 0.1 CON        0
  VD         V  S GROUND SMU1 0.1 LIN        1    0          -1.8       37   -0.05     
  VB         V  C GROUND SMU3 0.1 CON        0
 ICCAP_OUTPUTS
  ID         I  S GROUND SMU1 B
  IG         I  B GROUND SMU4 B
END_HEADER

BEGIN_DB
 ICCAP_VAR VG         0              
 ICCAP_VAR VS         0              
 ICCAP_VAR VB         0              

 #VD              ID              IG             
  0               4.267e-011      -2.4858e-010   
  -0.05           -9.823e-011     3.3027e-010    
  -0.1            1.9386e-010     9.092e-011     
  -0.15           -2.3583e-010    -1.1565e-010   
  -0.2            -9.356e-011     3.3732e-010    
  -0.25           1.8976e-010     7.938e-011     
  -0.3            -2.4422e-010    -1.0532e-010   
  -0.35           -8.743e-011     3.388e-010     
  -0.4            1.8411e-010     6.831e-011     
  -0.45           -1.8838e-010    -1.7097e-010   
  -0.5            -1.2742e-010    2.7544e-010    
  -0.55           1.7617e-010     5.883e-011     
  -0.6            -2.0312e-010    -1.5278e-010   
  -0.65           -1.2239e-010    2.9506e-010    
  -0.7            1.6315e-010     4.971e-011     
  -0.75           -2.183e-010     -1.399e-010    
  -0.8            -1.173e-010     3.1404e-010    
  -0.85           1.8283e-010     1.0387e-010    
  -0.9            -2.3409e-010    -1.2826e-010   
  -0.95           -1.1263e-010    3.293e-010     
  -1              1.8157e-010     9.251e-011     
  -1.05           -2.4741e-010    -1.1733e-010   
  -1.1            -1.0727e-010    3.3753e-010    
  -1.15           1.7663e-010     8.037e-011     
  -1.2            -1.8852e-010    -1.9289e-010   
  -1.25           -1.0252e-010    3.3902e-010    
  -1.3            1.7051e-010     6.949e-011     
  -1.35           -2.0208e-010    -1.7269e-010   
  -1.4            -1.4352e-010    2.7179e-010    
  -1.45           1.606e-010      6.008e-011     
  -1.5            -2.1774e-010    -1.5554e-010   
  -1.55           -1.3992e-010    2.9239e-010    
  -1.6            1.4696e-010     5.118e-011     
  -1.65           -2.3463e-010    -1.4136e-010   
  -1.7            -1.3761e-010    3.1147e-010    
  -1.75           1.2922e-010     4.271e-011     
  -1.8            4.127e-011      -2.7004e-010   
END_DB

BEGIN_DB
 ICCAP_VAR VG         -0.36          
 ICCAP_VAR VS         0              
 ICCAP_VAR VB         0              

 #VD              ID              IG             
  0               1.3465e-008     3.2724e-010    
  -0.05           -5.0335e-008    2.4215e-010    
  -0.1            -6.4569e-008    2.901e-010     
  -0.15           -7.0895e-008    2.2699e-010    
  -0.2            -7.5819e-008    2.7106e-010    
  -0.25           -8.0564e-008    3.1948e-010    
  -0.3            -8.5402e-008    2.5255e-010    
  -0.35           -9.0115e-008    3.016e-010     
  -0.4            -9.5006e-008    2.3543e-010    
  -0.45           -9.9784e-008    2.8295e-010    
  -0.5            -1.04797e-007   3.2702e-010    
  -0.55           -1.09709e-007   2.6314e-010    
  -0.6            -1.1418e-007    7.332e-011     
  -0.65           -1.1976e-007    3.3733e-010    
  -0.7            -1.2502e-007    2.7151e-010    
  -0.75           -1.3035e-007    2.8208e-010    
  -0.8            -1.3575e-007    2.9247e-010    
  -0.85           -1.4127e-007    3.033e-010     
  -0.9            -1.4692e-007    3.1208e-010    
  -0.95           -1.5268e-007    3.2095e-010    
  -1              -1.5855e-007    3.2784e-010    
  -1.05           -1.648e-007     2.303e-010     
  -1.1            -1.7094e-007    2.3765e-010    
  -1.15           -1.7716e-007    2.4635e-010    
  -1.2            -1.8362e-007    2.5616e-010    
  -1.25           -1.9019e-007    2.659e-010     
  -1.3            -1.9688e-007    2.7535e-010    
  -1.35           -2.0377e-007    2.8625e-010    
  -1.4            -2.1083e-007    2.9614e-010    
  -1.45           -2.1794e-007    3.0592e-010    
  -1.5            -2.2542e-007    3.1562e-010    
  -1.55           -2.3299e-007    3.2336e-010    
  -1.6            -2.4103e-007    2.2504e-010    
  -1.65           -2.4903e-007    2.3264e-010    
  -1.7            -2.5712e-007    2.407e-010     
  -1.75           -2.6538e-007    2.4889e-010    
  -1.8            -2.7384e-007    2.5955e-010    
END_DB

BEGIN_DB
 ICCAP_VAR VG         -0.72          
 ICCAP_VAR VS         0              
 ICCAP_VAR VB         0              

 #VD              ID              IG             
  0               -1.5368e-007    -3.3528e-010   
  -0.05           -0.0001414      -7.579e-011    
  -0.1            -0.00019934     -3.3983e-010   
  -0.15           -0.0002254      -2.6634e-010   
  -0.2            -0.00024084     -2.772e-010    
  -0.25           -0.00025249     -2.8692e-010   
  -0.3            -0.00026248     -2.9735e-010   
  -0.35           -0.00027158     -3.0659e-010   
  -0.4            -0.00028005     -3.1604e-010   
  -0.45           -0.00028804     -3.2411e-010   
  -0.5            -0.00029579     -2.27e-010     
  -0.55           -0.00030335     -2.3428e-010   
  -0.6            -0.00031066     -2.4201e-010   
  -0.65           -0.00031786     -2.5041e-010   
  -0.7            -0.00032485     -2.6051e-010   
  -0.75           -0.0003317      -2.7008e-010   
  -0.8            -0.00033845     -2.8054e-010   
  -0.85           -0.00034511     -2.9068e-010   
  -0.9            -0.00035168     -3.0082e-010   
  -0.95           -0.00035814     -3.1084e-010   
  -1              -0.00036456     -3.193e-010    
  -1.05           -0.00037065     -3.2676e-010   
  -1.1            -0.00037701     -3.3243e-010   
  -1.15           -0.00038329     -2.3745e-010   
  -1.2            -0.00038955     -2.4564e-010   
  -1.25           -0.00039575     -2.5442e-010   
  -1.3            -0.00040198     -2.6367e-010   
  -1.35           -0.00040812     -2.7397e-010   
  -1.4            -0.00041428     -2.8403e-010   
  -1.45           -0.00042039     -2.9454e-010   
  -1.5            -0.00042651     -3.0498e-010   
  -1.55           -0.00043262     -3.1373e-010   
  -1.6            -0.00043839     -3.2233e-010   
  -1.65           -0.0004445      -3.2881e-010   
  -1.7            -0.00045068     -2.3166e-010   
  -1.75           -0.00045682     -2.4054e-010   
  -1.8            -0.00046301     -2.4822e-010   
END_DB

BEGIN_DB
 ICCAP_VAR VG         -1.08          
 ICCAP_VAR VS         0              
 ICCAP_VAR VB         0              

 #VD              ID              IG             
  0               -3.2581e-006    2.7995e-010    
  -0.05           -0.00085842     -8.439e-011    
  -0.1            -0.0016257      2.7262e-010    
  -0.15           -0.0022812      2.8277e-010    
  -0.2            -0.0028069      2.9358e-010    
  -0.25           -0.0031964      3.0246e-010    
  -0.3            -0.0034647      3.1172e-010    
  -0.35           -0.0036415      3.1968e-010    
  -0.4            -0.0037609      3.2695e-010    
  -0.45           -0.0038455      2.3101e-010    
  -0.5            -0.0039104      2.3949e-010    
  -0.55           -0.0039641      2.481e-010     
  -0.6            -0.0040104      2.5771e-010    
  -0.65           -0.0040285      2.6671e-010    
  -0.7            -0.0040428      2.7734e-010    
  -0.75           -0.0040552      2.8642e-010    
  -0.8            -0.0040664      2.9645e-010    
  -0.85           -0.0040767      3.064e-010     
  -0.9            -0.0040859      3.1521e-010    
  -0.95           -0.0040952      3.2293e-010    
  -1              -0.0041041      2.2675e-010    
  -1.05           -0.0041124      2.3409e-010    
  -1.1            -0.0041207      2.4186e-010    
  -1.15           -0.0041288      2.5157e-010    
  -1.2            -0.004137       2.6045e-010    
  -1.25           -0.0041451      2.7068e-010    
  -1.3            -0.0041537      2.8045e-010    
  -1.35           -0.0041625      2.9036e-010    
  -1.4            -0.0041718      3.0131e-010    
  -1.45           -0.0041814      3.1031e-010    
  -1.5            -0.0041914      3.2174e-010    
  -1.55           -0.0042021      3.388e-010     
  -1.6            -0.0042139      2.7704e-010    
  -1.65           -0.0042261      3.875e-010     
  -1.7            -0.0042394      4.6925e-010    
  -1.75           -0.0043498      1.1456e-009    
  -1.8            -0.0042716      2.4845e-009    
END_DB

BEGIN_DB
 ICCAP_VAR VG         -1.44          
 ICCAP_VAR VS         0              
 ICCAP_VAR VB         0              

 #VD              ID              IG             
  0               -3.8515e-006    2.4826e-010    
  -0.05           -0.0010367      -2.6526e-010   
  -0.1            -0.0020499      -2.7569e-010   
  -0.15           -0.0030338      -2.8553e-010   
  -0.2            -0.0039845      -2.9579e-010   
  -0.25           -0.0048942      -3.056e-010    
  -0.3            -0.0057542      -3.1449e-010   
  -0.35           -0.0065503      -3.2274e-010   
  -0.4            -0.0072724      -3.2991e-010   
  -0.45           -0.0079081      -2.3328e-010   
  -0.5            -0.0084443      -2.4128e-010   
  -0.55           -0.0088772      -2.4958e-010   
  -0.6            -0.0092105      -2.5897e-010   
  -0.65           -0.0094593      -2.6872e-010   
  -0.7            -0.0096425      -2.7926e-010   
  -0.75           -0.0097807      -2.8949e-010   
  -0.8            -0.0098885      -2.9974e-010   
  -0.85           -0.0099758      -3.0949e-010   
  -0.9            -0.0100499      -3.1789e-010   
  -0.95           -0.010114       -3.2615e-010   
  -1              -0.010172       -2.275e-010    
  -1.05           -0.010195       -2.3587e-010   
  -1.1            -0.0102093      -2.4362e-010   
  -1.15           -0.0102216      -2.5216e-010   
  -1.2            -0.0102322      -2.6236e-010   
  -1.25           -0.0102418      -2.7247e-010   
  -1.3            -0.0102495      -2.8308e-010   
  -1.35           -0.0102567      -2.9309e-010   
  -1.4            -0.0102626      -3.0258e-010   
  -1.45           -0.0102685      -3.13e-010     
  -1.5            -0.0102721      -3.215e-010    
  -1.55           -0.0102765      -3.2794e-010   
  -1.6            -0.0102808      -2.3072e-010   
  -1.65           -0.0102848      -2.3927e-010   
  -1.7            -0.0102888      -2.4707e-010   
  -1.75           -0.0102926      -2.5651e-010   
  -1.8            -0.0102965      -2.6385e-010   
END_DB

BEGIN_DB
 ICCAP_VAR VG         -1.8           
 ICCAP_VAR VS         0              
 ICCAP_VAR VB         0              

 #VD              ID              IG             
  0               -3.8312e-006    3.2713e-010    
  -0.05           -0.0010905      -3.2614e-010   
  -0.1            -0.0021707      -3.3152e-010   
  -0.15           -0.0032382      -2.357e-010    
  -0.2            -0.0042934      -2.4469e-010   
  -0.25           -0.0053338      -2.5341e-010   
  -0.3            -0.0063592      -2.625e-010    
  -0.35           -0.0073626      -2.7257e-010   
  -0.4            -0.0083431      -2.8242e-010   
  -0.45           -0.0092977      -2.9284e-010   
  -0.5            -0.0102188      -3.0339e-010   
  -0.55           -0.0111021      -3.126e-010    
  -0.6            -0.011936       3.1866e-010    
  -0.65           -0.012723       3.2712e-010    
  -0.7            -0.013449       2.3006e-010    
  -0.75           -0.014104       2.3813e-010    
  -0.8            -0.014682       2.4611e-010    
  -0.85           -0.015172       2.5571e-010    
  -0.9            -0.015579       2.6594e-010    
  -0.95           -0.015903       2.7524e-010    
  -1              -0.016155       2.8552e-010    
  -1.05           -0.016351       2.9503e-010    
  -1.1            -0.016504       3.0486e-010    
  -1.15           -0.01663        3.1395e-010    
  -1.2            -0.016732       3.2307e-010    
  -1.25           -0.016821       2.2553e-010    
  -1.3            -0.016898       2.3227e-010    
  -1.35           -0.016967       2.4038e-010    
  -1.4            -0.01703        2.4912e-010    
  -1.45           -0.017056       2.5865e-010    
  -1.5            -0.01707        2.6726e-010    
  -1.55           -0.017081       2.7869e-010    
  -1.6            -0.017091       2.8857e-010    
  -1.65           -0.017099       2.9864e-010    
  -1.7            -0.017109       3.0817e-010    
  -1.75           -0.017115       3.1751e-010    
  -1.8            -0.01712        3.2532e-010    
END_DB

