! VERSION = 6.00
BEGIN_HEADER
 ICCAP_INPUTS
  VG         V  B GROUND SMU4 0.001 LIN        1    0          -1.8       37   -0.05     
  VS         V  E GROUND SMU2 0.1 CON        0
  VB         V  C GROUND SMU3 0.1 LIN        3    0          1.8        3    0.9       
  VD         V  S GROUND SMU1 0.1 LIN        2    -0.1       -1.8       2    -1.7      
 ICCAP_OUTPUTS
  IG         I  B GROUND SMU4 B
  ID         I  S GROUND SMU1 B
  IB         I  C GROUND SMU3 B
END_HEADER

BEGIN_DB
 ICCAP_VAR VS         0              
 ICCAP_VAR VB         0              
 ICCAP_VAR VD         -0.1           

 #VG              IG              ID              IB             
  0               -1.2083e-009    -1.0307e-009    -1.3646e-008   
  -0.05           4.93e-011       -1.8602e-009    -9.108e-009    
  -0.1            1.1661e-009     -6.2e-012       -1.3944e-008   
  -0.15           1.7182e-009     -1.429e-010     -1.5812e-008   
  -0.2            1.1073e-009     1.2584e-009     1.425e-008     
  -0.25           1.2788e-009     1.0965e-009     1.4778e-008    
  -0.3            4.51e-011       1.7223e-009     8.075e-009     
  -0.35           1.903e-010      1.7973e-009     8.902e-009     
  -0.4            -1.2381e-009    7.107e-010      8.782e-009     
  -0.45           -7.758e-010     -1.7053e-009    2.698e-009     
  -0.5            2.0712e-009     9.795e-010      -1.2232e-008   
  -0.55           -1.2392e-009    1.1977e-009     1.0793e-008    
  -0.6            -1.3887e-009    -1.2006e-009    9.183e-009     
  -0.65           -1.2395e-009    9.318e-010      -8.928e-009    
  -0.7            -1.9894e-009    -2.0303e-009    8.67e-009      
  -0.75           1.1086e-009     -3.8174e-009    -8.67e-009     
  -0.8            -2.2715e-009    -1.4791e-008    -1.3535e-008   
  -0.85           1.1586e-009     -3.9036e-008    -9.758e-009    
  -0.9            1.6131e-009     -9.4669e-008    -1.3785e-008   
  -0.95           -5.559e-010     -1.8742e-007    1.1253e-008    
  -1              1.0579e-009     -3.321e-007     -8.967e-009    
  -1.05           1.1003e-009     -5.187e-007     -4.47e-009     
  -1.1            1.16e-009       -7.482e-007     -1.0291e-008   
  -1.15           1.5461e-009     -1.00906e-006   -1.4286e-008   
  -1.2            7.839e-010      -1.2893e-006    9.64e-010      
  -1.25           1.2108e-009     -1.5865e-006    1.3326e-008    
  -1.3            2.098e-010      -1.8856e-006    7.635e-009     
  -1.35           4.947e-010      -2.1978e-006    8.692e-009     
  -1.4            8.509e-010      -2.5085e-006    1.0142e-008    
  -1.45           1.2679e-009     -2.8107e-006    1.3646e-008    
  -1.5            2.541e-010      -3.104e-006     7.917e-009     
  -1.55           5.169e-010      -3.3981e-006    8.592e-009     
  -1.6            8.837e-010      -3.6881e-006    9.415e-009     
  -1.65           1.3087e-009     -3.9638e-006    1.4083e-008    
  -1.7            2.746e-010      -4.2322e-006    8.399e-009     
  -1.75           5.601e-010      -4.4985e-006    8.9e-009       
  -1.8            9.254e-010      -4.7572e-006    9.676e-009     
END_DB

BEGIN_DB
 ICCAP_VAR VS         0              
 ICCAP_VAR VB         0              
 ICCAP_VAR VD         -1.8           

 #VG              IG              ID              IB             
  0               1.081e-009      9.1e-010        -9.763e-009    
  -0.05           -1.2595e-009    1.3502e-009     1.3724e-008    
  -0.1            -1.4441e-009    -1.0901e-009    2.646e-009     
  -0.15           1.8948e-009     9.3e-010        -1.024e-008    
  -0.2            -1.2392e-009    1.0411e-009     8.973e-009     
  -0.25           -1.2007e-009    -1.3251e-009    3.859e-009     
  -0.3            1.5825e-009     -2.03e-010      -1.7071e-008   
  -0.35           1.208e-009      1.1675e-009     1.4987e-008    
  -0.4            -1.25e-011      1.6709e-009     7.667e-009     
  -0.45           1.137e-010      1.7773e-009     8.975e-009     
  -0.5            2.776e-010      1.8002e-009     9.196e-009     
  -0.55           -1.238e-009     7.766e-010      8.813e-009     
  -0.6            -1.6856e-009    -1.1134e-009    2.305e-009     
  -0.65           1.163e-009      -2.66e-010      -1.3343e-008   
  -0.7            1.7814e-009     -1.3352e-009    -1.5051e-008   
  -0.75           1.0536e-009     -3.1875e-009    1.3953e-008    
  -0.8            -2.0925e-009    -1.6153e-008    -1.1045e-008   
  -0.85           2.22e-011       -4.6278e-008    -8.799e-009    
  -0.9            1.5754e-009     -1.12474e-007   -1.4191e-008   
  -0.95           -1.77e-011      -2.3886e-007    1.905e-009     
  -1              -3.964e-010     -4.4536e-007    -9.705e-009    
  -1.05           1.1468e-009     -7.5907e-007    -8.349e-009    
  -1.1            -1.3141e-009    -1.18e-006      -4.417e-009    
  -1.15           1.1489e-009     -1.7604e-006    -1.3801e-008   
  -1.2            1.6914e-009     -2.4748e-006    -1.3309e-008   
  -1.25           1.385e-009      -3.3206e-006    1.4376e-008    
  -1.3            3.292e-010      -4.3124e-006    9.001e-009     
  -1.35           6.069e-010      -5.4827e-006    8.784e-009     
  -1.4            9.968e-010      -6.7947e-006    1.0456e-008    
  -1.45           1.4294e-009     -8.2193e-006    1.4759e-008    
  -1.5            3.604e-010      -9.7845e-006    9.168e-009     
  -1.55           -2.3837e-009    -1.1465e-005    9.047e-009     
  -1.6            1.4806e-009     -1.332e-005     -1.4789e-008   
  -1.65           1.0947e-009     -1.5257e-005    -3.327e-009    
  -1.7            1.0746e-009     -1.7312e-005    -3.679e-009    
  -1.75           1.1453e-009     -1.9474e-005    -8.402e-009    
  -1.8            1.7734e-009     -2.1728e-005    -1.2624e-008   
END_DB

BEGIN_DB
 ICCAP_VAR VS         0              
 ICCAP_VAR VB         0.9            
 ICCAP_VAR VD         -0.1           

 #VG              IG              ID              IB             
  0               -1.2283e-009    -1.0353e-009    9.52e-009      
  -0.05           1.5618e-009     -2.035e-010     -1.7022e-008   
  -0.1            1.9407e-009     9.433e-010      -2.691e-009    
  -0.15           -1.2353e-009    1.093e-009      1.0271e-008    
  -0.2            -1.2694e-009    -1.2493e-009    5.104e-009     
  -0.25           1.648e-010      -1.8041e-009    -8.979e-009    
  -0.3            2.0753e-009     9.851e-010      -1.2404e-008   
  -0.35           -1.2328e-009    1.2327e-009     1.1201e-008    
  -0.4            -1.4022e-009    -1.1201e-009    9.493e-009     
  -0.45           1.861e-009      9.207e-010      -9.442e-009    
  -0.5            -1.235e-009     9.844e-010      8.942e-009     
  -0.55           -1.1456e-009    -1.3744e-009    2.994e-009     
  -0.6            1.0777e-009     -1.7176e-009    -8.722e-009    
  -0.65           1.812e-009      9.148e-010      -8.751e-009    
  -0.7            -1.2355e-009    9.432e-010      9.082e-009     
  -0.75           -1.0897e-009    -1.4294e-009    2.454e-009     
  -0.8            1.7165e-009     -1.597e-010     -1.5315e-008   
  -0.85           -1.2518e-009    1.2834e-009     1.4042e-008    
  -0.9            -2.3919e-009    -1.5048e-009    2.865e-009     
  -0.95           1.1536e-009     -2.1777e-009    -1.1426e-008   
  -1              1.1635e-009     -9.7656e-009    -1.3371e-008   
  -1.05           -1.2379e-009    -3.3788e-008    -8.917e-009    
  -1.1            -2.0159e-009    -9.1898e-008    3.175e-009     
  -1.15           3.489e-010      -1.9877e-007    -1.0936e-008   
  -1.2            6.306e-010      -3.6736e-007    8.862e-009     
  -1.25           1.0296e-009     -5.869e-007     1.1866e-008    
  -1.3            1.4575e-009     -8.4299e-007    1.4632e-008    
  -1.35           3.885e-010      -1.12779e-006   8.796e-009     
  -1.4            -2.0145e-009    -1.4252e-006    -1.4359e-008   
  -1.45           9.33e-011       -1.7316e-006    -8.623e-009    
  -1.5            1.6406e-009     -2.0333e-006    -1.3056e-008   
  -1.55           1.4007e-009     -2.3336e-006    1.419e-008     
  -1.6            3.335e-010      -2.623e-006     8.654e-009     
  -1.65           6.276e-010      -2.9139e-006    8.871e-009     
  -1.7            1.0283e-009     -3.1984e-006    1.1782e-008    
  -1.75           1.4575e-009     -3.4694e-006    1.466e-008     
  -1.8            3.777e-010      -3.7365e-006    8.822e-009     
END_DB

BEGIN_DB
 ICCAP_VAR VS         0              
 ICCAP_VAR VB         0.9            
 ICCAP_VAR VD         -1.8           

 #VG              IG              ID              IB             
  0               -1.2337e-009    -1.0364e-009    -5.571e-009    
  -0.05           1.1652e-009     4e-011          -1.3096e-008   
  -0.1            1.7635e-009     -1.11e-010      -1.5471e-008   
  -0.15           1.0567e-009     1.3009e-009     1.38e-008      
  -0.2            1.2389e-009     1.143e-009      1.5544e-008    
  -0.25           3.8e-011        1.6692e-009     7.821e-009     
  -0.3            1.364e-010      1.8043e-009     9.094e-009     
  -0.35           -1.2452e-009    6.854e-010      8.875e-009     
  -0.4            -7.458e-010     -1.7194e-009    2.759e-009     
  -0.45           2.031e-009      9.737e-010      -1.16e-008     
  -0.5            -1.2359e-009    1.2018e-009     1.157e-008     
  -0.55           -1.3773e-009    -1.1493e-009    8.529e-009     
  -0.6            1.8206e-009     9.148e-010      -8.587e-009    
  -0.65           -1.2347e-009    9.49e-010       9.166e-009     
  -0.7            -1.1029e-009    -1.4116e-009    2.452e-009     
  -0.75           1.7045e-009     -1.404e-010     -1.5613e-008   
  -0.8            -1.2561e-009    1.3675e-009     1.4008e-008    
  -0.85           -1.4869e-009    -1.1802e-009    2.835e-009     
  -0.9            1.1399e-009     -2.785e-010     -1.0559e-008   
  -0.95           1.1589e-009     -2.4076e-009    -1.2349e-008   
  -1              -1.2369e-009    -1.1148e-008    -9.098e-009    
  -1.05           -1.8427e-009    -3.7156e-008    5.791e-009     
  -1.1            1.1595e-009     -1.07684e-007   -1.0131e-008   
  -1.15           -1.352e-010     -2.4772e-007    2.147e-009     
  -1.2            1.367e-009      -4.9581e-007    -1.5439e-008   
  -1.25           1.069e-009      -8.6216e-007    -3.589e-009    
  -1.3            2.0447e-009     -1.3627e-006    1.3657e-008    
  -1.35           1.0293e-009     -2.0342e-006    1.0519e-008    
  -1.4            1.4615e-009     -2.836e-006     1.4877e-008    
  -1.45           4.035e-010      -3.7936e-006    9.22e-009      
  -1.5            6.715e-010      -4.9186e-006    9.012e-009     
  -1.55           1.0896e-009     -6.1777e-006    1.2263e-008    
  -1.6            1.5102e-009     -7.5519e-006    1.4967e-008    
  -1.65           4.236e-010      -9.0764e-006    8.927e-009     
  -1.7            7.273e-010      -1.07393e-005   9.314e-009     
  -1.75           5.55e-011       -1.25e-005      4.92e-009      
  -1.8            1.5909e-009     -1.4397e-005    -1.3481e-008   
END_DB

BEGIN_DB
 ICCAP_VAR VS         0              
 ICCAP_VAR VB         1.8            
 ICCAP_VAR VD         -0.1           

 #VG              IG              ID              IB             
  0               -1.2184e-009    -1.0391e-009    1.0163e-008    
  -0.05           2.722e-010      -1.7739e-009    -8.854e-009    
  -0.1            7.29e-011       -1.826e-009     -9.136e-009    
  -0.15           1.167e-009      2.98e-011       -1.3674e-008   
  -0.2            1.7394e-009     -1.245e-010     -1.551e-008    
  -0.25           1.083e-009      1.2764e-009     1.3907e-008    
  -0.3            1.2663e-009     1.1094e-009     1.4881e-008    
  -0.35           3.38e-011       1.7126e-009     8.049e-009     
  -0.4            1.794e-010      1.7901e-009     8.85e-009      
  -0.45           -1.2428e-009    7.022e-010      8.791e-009     
  -0.5            -7.707e-010     -1.7067e-009    2.849e-009     
  -0.55           2.0647e-009     9.834e-010      -1.2389e-008   
  -0.6            -1.2381e-009    1.2213e-009     1.0731e-008    
  -0.65           -1.3966e-009    -1.1297e-009    9.34e-009      
  -0.7            1.8416e-009     9.177e-010      -9.186e-009    
  -0.75           -1.2427e-009    9.774e-010      9.21e-009      
  -0.8            -1.131e-009     -1.3935e-009    2.878e-009     
  -0.85           1.6629e-009     -1.599e-010     -1.6175e-008   
  -0.9            1.8982e-009     9.305e-010      -1.514e-009    
  -0.95           -1.2408e-009    1.0327e-009     9.718e-009     
  -1              -2.025e-009     -1.1257e-009    4.074e-009     
  -1.05           1.5468e-009     -6.856e-010     -1.7572e-008   
  -1.1            1.3087e-009     -1.4446e-009    -2.756e-009    
  -1.15           -1.2346e-009    -1.1109e-008    2.129e-009     
  -1.2            -1.5756e-009    -3.7253e-008    1.057e-008     
  -1.25           1.1574e-009     -1.03745e-007   -1.2157e-008   
  -1.3            -5.688e-010     -2.2355e-007    1.0662e-008    
  -1.35           1.1643e-009     -4.0728e-007    -1.0585e-008   
  -1.4            1.4793e-009     -6.3943e-007    -1.5016e-008   
  -1.45           1.0927e-009     -9.0136e-007    -3.254e-009    
  -1.5            1.0152e-009     -1.1851e-006    2.643e-009     
  -1.55           1.4493e-009     -1.4746e-006    1.4416e-008    
  -1.6            3.743e-010      -1.7654e-006    9.362e-009     
  -1.65           6.638e-010      -2.0642e-006    8.887e-009     
  -1.7            1.0834e-009     -2.3522e-006    1.1171e-008    
  -1.75           1.5125e-009     -2.6315e-006    1.5328e-008    
  -1.8            4.179e-010      -2.9074e-006    9.357e-009     
END_DB

BEGIN_DB
 ICCAP_VAR VS         0              
 ICCAP_VAR VB         1.8            
 ICCAP_VAR VD         -1.8           

 #VG              IG              ID              IB             
  0               -1.1829e-009    -1.021e-009     1.4137e-008    
  -0.05           -1.029e-010     -1.9158e-009    -9.796e-009    
  -0.1            1.7193e-009     -1.268e-010     -1.5352e-008   
  -0.15           1.0944e-009     1.26e-009       1.3931e-008    
  -0.2            1.2746e-009     1.0992e-009     1.5483e-008    
  -0.25           3.77e-011       1.7116e-009     8.039e-009     
  -0.3            1.741e-010      1.7955e-009     9.173e-009     
  -0.35           -1.2468e-009    7.062e-010      8.982e-009     
  -0.4            -7.789e-010     -1.7028e-009    2.828e-009     
  -0.45           2.064e-009      9.829e-010      -1.2205e-008   
  -0.5            -1.2369e-009    1.2245e-009     1.0709e-008    
  -0.55           -1.3936e-009    -1.1238e-009    9.027e-009     
  -0.6            1.8392e-009     9.203e-010      -9.156e-009    
  -0.65           -1.2418e-009    9.806e-010      8.926e-009     
  -0.7            -1.1291e-009    -1.3804e-009    2.674e-009     
  -0.75           1.66e-009       -1.531e-010     -1.6126e-008   
  -0.8            1.8888e-009     9.348e-010      -1.518e-009    
  -0.85           -1.2425e-009    1.0414e-009     9.774e-009     
  -0.9            -1.2096e-009    -1.3086e-009    3.915e-009     
  -0.95           2.358e-010      -1.7877e-009    -8.965e-009    
  -1              5.61e-011       -1.9485e-009    -9.158e-009    
  -1.05           1.1651e-009     -5.192e-010     -1.3696e-008   
  -1.1            1.6986e-009     -2.7665e-009    -1.5826e-008   
  -1.15           -1.6562e-009    -1.2582e-008    -1.6301e-008   
  -1.2            1.0593e-009     -4.3439e-008    -8.833e-009    
  -1.25           4.914e-010      -1.1903e-007    -1.3406e-008   
  -1.3            8.327e-010      -2.8204e-007    9.164e-009     
  -1.35           1.2655e-009     -5.538e-007     1.323e-008     
  -1.4            2.397e-010      -9.5313e-007    8.077e-009     
  -1.45           -2.0846e-009    -1.502e-006     -1.4924e-008   
  -1.5            1.1423e-009     -2.2056e-006    -1.4447e-008   
  -1.55           1.7175e-009     -3.055e-006     -1.258e-008    
  -1.6            1.3521e-009     -4.0406e-006    1.4048e-008    
  -1.65           2.985e-010      -5.1715e-006    8.6e-009       
  -1.7            5.846e-010      -6.4646e-006    9.013e-009     
  -1.75           9.734e-010      -7.888e-006     1.0292e-008    
  -1.8            1.4132e-009     -9.4229e-006    1.5019e-008    
END_DB

