! VERSION = 6.00
BEGIN_HEADER
 ICCAP_INPUTS
  VG         V  B GROUND SMU4 0.001 LIN        2    0          -1.8       6    -0.36     
  VS         V  E GROUND SMU2 0.1 CON        0
  VD         V  S GROUND SMU1 0.1 LIN        1    0          -1.8       37   -0.05     
  VB         V  C GROUND SMU3 0.1 LIN        3    0          0.9        2    0.9       
 ICCAP_OUTPUTS
  ID         I  S GROUND SMU1 B
  IB         I  C GROUND SMU3 B
  IG         I  B GROUND SMU4 B
END_HEADER

BEGIN_DB
 ICCAP_VAR VG         0              
 ICCAP_VAR VS         0              
 ICCAP_VAR VB         0              

 #VD              ID              IB              IG             
  0               -1.0137e-009    -1.429e-008     -1.1768e-009   
  -0.05           9.481e-010      -1.0349e-008    1.902e-009     
  -0.1            1.0618e-009     1.0198e-008     -1.2446e-009   
  -0.15           -1.2775e-009    4.506e-009      -1.2477e-009   
  -0.2            -1.7914e-009    -9.471e-009     1.683e-010     
  -0.25           9.904e-010      -1.1326e-008    2.0485e-009    
  -0.3            1.2216e-009     1.2323e-008     -1.2333e-009   
  -0.35           -1.1295e-009    8.854e-009      -1.3966e-009   
  -0.4            9.333e-010      -9.607e-009     1.8468e-009    
  -0.45           9.938e-010      8.78e-009       -1.2473e-009   
  -0.5            -1.3632e-009    3.203e-009      -1.1698e-009   
  -0.55           -2.024e-010     -1.5759e-008    1.6023e-009    
  -0.6            1.17e-009       1.4661e-008     1.1825e-009    
  -0.65           1.6557e-009     8.324e-009      -7e-012        
  -0.7            1.753e-009      9.033e-009      1.539e-010     
  -0.75           6.491e-010      8.911e-009      -1.2572e-009   
  -0.8            -1.7745e-009    2.942e-009      -7.159e-010    
  -0.85           9.793e-010      -1.0907e-008    2.015e-009     
  -0.9            1.1903e-009     1.0589e-008     -1.2389e-009   
  -0.95           -1.1543e-009    7.749e-009      -1.3705e-009   
  -1              -1.1668e-009    -1.1309e-008    1.1407e-009    
  -1.05           9.771e-010      -1.0941e-008    1.9926e-009    
  -1.1            1.176e-009      1.0494e-008     -1.242e-009    
  -1.15           -1.1693e-009    7.352e-009      -1.3596e-009   
  -1.2            -1.1572e-009    -1.1522e-008    1.138e-009     
  -1.25           9.722e-010      -1.0858e-008    1.9914e-009    
  -1.3            1.1633e-009     1.0317e-008     -1.2413e-009   
  -1.35           -1.1774e-009    6.912e-009      -1.3472e-009   
  -1.4            -1.8556e-009    -9.529e-009     1.6e-011       
  -1.45           -6.48e-011      -1.295e-008     1.1597e-009    
  -1.5            -1.798e-010     -1.5349e-008    1.6687e-009    
  -1.55           1.2157e-009     1.3975e-008     1.14e-009      
  -1.6            1.0558e-009     1.4807e-008     1.3252e-009    
  -1.65           1.7296e-009     8.667e-009      1.126e-010     
  -1.7            1.8093e-009     8.725e-009      2.565e-010     
  -1.75           7.584e-010      8.436e-009      -1.2525e-009   
  -1.8            -1.6569e-009    2.033e-009      -8.723e-010    
END_DB

BEGIN_DB
 ICCAP_VAR VG         -0.36          
 ICCAP_VAR VS         0              
 ICCAP_VAR VB         0              

 #VD              ID              IB              IG             
  0               1.0038e-009     3.51e-009       1.1512e-009    
  -0.05           1.031e-009      9.399e-009      -1.2453e-009   
  -0.1            -1.1104e-009    4.824e-009      -2.0623e-009   
  -0.15           1.6062e-009     -6.491e-009     -1.78e-011     
  -0.2            1.689e-009      8.692e-009      1.54e-010      
  -0.25           5.86e-010       8.714e-009      -1.256e-009    
  -0.3            -1.1483e-009    2.903e-009      -1.5666e-009   
  -0.35           4.56e-011       -1.1021e-008    1.1568e-009    
  -0.4            -1.35e-010      -1.2794e-008    1.1556e-009    
  -0.45           -2.578e-010     -1.5045e-008    1.7063e-009    
  -0.5            1.2866e-009     1.4106e-008     -1.261e-009    
  -0.55           -1.1887e-009    2.903e-009      -1.4951e-009   
  -0.6            -2.0363e-009    -9.426e-009     -2.422e-010    
  -0.65           -3.424e-010     -1.6486e-008    1.5716e-009    
  -0.7            1.3085e-009     1.5056e-008     -1.2561e-009   
  -0.75           -1.2032e-009    3.003e-009      -1.5621e-009   
  -0.8            -2.08e-011      -1.1036e-008    1.1567e-009    
  -0.85           -1.979e-010     -1.2921e-008    1.1526e-009    
  -0.9            -3.223e-010     -1.5074e-008    1.7075e-009    
  -0.95           1.2277e-009     1.4205e-008     -1.2616e-009   
  -1              -1.2553e-009    2.946e-009      -1.4952e-009   
  -1.05           -2.1062e-009    -9.427e-009     -2.407e-010    
  -1.1            -4.189e-010     -1.6515e-008    1.5622e-009    
  -1.15           1.2346e-009     1.4902e-008     -1.2551e-009   
  -1.2            -1.2789e-009    2.873e-009      -1.5637e-009   
  -1.25           -9.22e-011      -1.1028e-008    1.1557e-009    
  -1.3            -2.766e-010     -1.3052e-008    1.1531e-009    
  -1.35           -4.109e-010     -1.4994e-008    1.7072e-009    
  -1.4            1.1218e-009     1.4522e-008     -1.263e-009    
  -1.45           -1.2862e-009    2.912e-009      -2.3778e-009   
  -1.5            -1.745e-010     -1.1174e-008    1.1574e-009    
  -1.55           -3.578e-010     -1.3313e-008    1.1515e-009    
  -1.6            -4.866e-010     -1.5272e-008    1.6787e-009    
  -1.65           1.088e-009      1.4296e-008     -1.26e-009     
  -1.7            -1.3459e-009    2.975e-009      -2.3843e-009   
  -1.75           -2.604e-010     -1.1333e-008    1.16e-009      
  -1.8            -4.483e-010     -1.3501e-008    1.1579e-009    
END_DB

BEGIN_DB
 ICCAP_VAR VG         -0.72          
 ICCAP_VAR VS         0              
 ICCAP_VAR VB         0              

 #VD              ID              IB              IG             
  0               9.421e-010      -3.864e-009     -1.2503e-009   
  -0.05           -3.08e-007      1.0777e-008     -1.5039e-009   
  -0.1            -4.0891e-007    8.105e-009      2.011e-010     
  -0.15           -4.7236e-007    -1.6072e-008    1.2949e-009    
  -0.2            -5.0771e-007    -1.1186e-008    1.1556e-009    
  -0.25           -5.1636e-007    -9.5e-009       -3.737e-010    
  -0.3            -5.415e-007     2.32e-009       -1.2575e-009   
  -0.35           -5.8087e-007    8.634e-009      6.943e-010     
  -0.4            -6.1011e-007    -6.199e-009     1.1323e-009    
  -0.45           -6.3796e-007    -1.1448e-008    1.1545e-009    
  -0.5            -6.3883e-007    -9.509e-009     -3.516e-010    
  -0.55           -6.6045e-007    2.181e-009      -1.2583e-009   
  -0.6            -6.9853e-007    8.535e-009      6.845e-010     
  -0.65           -7.2928e-007    -5.791e-009     1.129e-009     
  -0.7            -7.3682e-007    -9.498e-009     -1.061e-010    
  -0.75           -7.5584e-007    1.4344e-008     -1.3909e-009   
  -0.8            -7.7653e-007    8.796e-009      2.915e-010     
  -0.85           -8.0758e-007    -3.331e-009     1.0799e-009    
  -0.9            -8.411e-007     -1.1381e-008    1.7341e-009    
  -0.95           -8.665e-007     -1.4651e-008    1.3703e-009    
  -1              -8.9076e-007    -1.2082e-008    1.1527e-009    
  -1.05           -8.8286e-007    -9.589e-009     -3.256e-010    
  -1.1            -9.0238e-007    1.949e-009      -1.2603e-009   
  -1.15           -9.456e-007     8.465e-009      6.444e-010     
  -1.2            -9.7684e-007    -5.546e-009     1.1246e-009    
  -1.25           -1.00277e-006   -1.2525e-008    1.153e-009     
  -1.3            -9.9415e-007    -9.735e-009     -3.038e-010    
  -1.35           -1.01254e-006   1.707e-009      -1.261e-009    
  -1.4            -1.05762e-006   8.455e-009      6.179e-010     
  -1.45           -1.08867e-006   -5.052e-009     1.1189e-009    
  -1.5            -1.11687e-006   -1.3118e-008    1.1511e-009    
  -1.55           -1.13641e-006   -1.0338e-008    1.1531e-009    
  -1.6            -1.1285e-006    -1.0979e-008    2.1933e-009    
  -1.65           -1.1889e-006    -9.13e-009      1.0777e-009    
  -1.7            -1.2033e-006    -1.0915e-008    1.1479e-009    
  -1.75           -1.2285e-006    -1.0939e-008    1.147e-009     
  -1.8            -1.2509e-006    -1.1061e-008    1.795e-009     
END_DB

BEGIN_DB
 ICCAP_VAR VG         -1.08          
 ICCAP_VAR VS         0              
 ICCAP_VAR VB         0              

 #VD              ID              IB              IG             
  0               -5.4939e-008    1.0414e-008     -1.2285e-009   
  -0.05           -1.8337e-005    -1.1982e-008    2.057e-010     
  -0.1            -3.1538e-005    -3.14e-009      1.07e-009      
  -0.15           -4.0509e-005    -1.6542e-008    1.1376e-009    
  -0.2            -4.6246e-005    -9.567e-009     -3.753e-010    
  -0.25           -5.0177e-005    2.921e-009      -1.2511e-009   
  -0.3            -5.3614e-005    1.2938e-008     1.2025e-009    
  -0.35           -5.576e-005     -1.3855e-008    1.4767e-009    
  -0.4            -5.7638e-005    -1.0032e-008    1.1558e-009    
  -0.45           -5.9041e-005    -1.2824e-008    1.5894e-009    
  -0.5            -6.0475e-005    -1.1034e-008    1.1526e-009    
  -0.55           -6.1596e-005    -1.3442e-008    1.5193e-009    
  -0.6            -6.2824e-005    -9.62e-009      1.1545e-009    
  -0.65           -6.3791e-005    -1.2369e-008    1.625e-009     
  -0.7            -6.4885e-005    -1.1463e-008    1.1553e-009    
  -0.75           -6.5774e-005    -1.3155e-008    1.5676e-009    
  -0.8            -6.6809e-005    -9.576e-009     1.155e-009     
  -0.85           -6.7592e-005    -1.2235e-008    1.671e-009     
  -0.9            -6.8573e-005    -1.1955e-008    1.1555e-009    
  -0.95           -6.9336e-005    -1.2768e-008    1.6027e-009    
  -1              -7.0286e-005    -1.1344e-008    1.156e-009     
  -1.05           -7.1007e-005    -1.3428e-008    1.5371e-009    
  -1.1            -7.1916e-005    -9.623e-009     1.1554e-009    
  -1.15           -7.1922e-005    -8.937e-009     -5.278e-010    
  -1.2            -7.2696e-005    2.331e-009      -1.245e-009    
  -1.25           -7.4052e-005    1.4494e-008     1.3897e-009    
  -1.3            -7.5002e-005    -1.639e-008     1.2704e-009    
  -1.35           -7.5019e-005    -9.18e-009      -4.813e-010    
  -1.4            -7.5684e-005    2.786e-009      -1.2448e-009   
  -1.45           -7.7114e-005    1.4012e-008     1.3406e-009    
  -1.5            -7.7968e-005    -1.5545e-008    1.332e-009     
  -1.55           -7.8006e-005    -9.336e-009     -4.375e-010    
  -1.6            -7.861e-005     2.921e-009      -1.2482e-009   
  -1.65           -8.0086e-005    1.3731e-008     1.2861e-009    
  -1.7            -8.082e-005     -1.4757e-008    1.3856e-009    
  -1.75           -8.1643e-005    -1.039e-008     1.1547e-009    
  -1.8            -8.221e-005     -1.3731e-008    1.49e-009      
END_DB

BEGIN_DB
 ICCAP_VAR VG         -1.44          
 ICCAP_VAR VS         0              
 ICCAP_VAR VB         0              

 #VD              ID              IB              IG             
  0               -1.02159e-007   -8.636e-009     -1.2229e-009   
  -0.05           -5.2579e-005    -1.287e-008     2.481e-010     
  -0.1            -9.9722e-005    -3.184e-009     1.0699e-009    
  -0.15           -0.0001412      -1.2436e-008    1.33e-010      
  -0.2            -0.00017657     9.258e-009      -1.618e-009    
  -0.25           -0.00020723     1.4988e-008     1.5274e-009    
  -0.3            -0.00023265     -1.482e-008     1.3928e-009    
  -0.35           -0.00025286     -9.585e-009     -2.323e-010    
  -0.4            -0.00026909     5.86e-010       -1.2646e-009   
  -0.45           -0.00028321     8.492e-009      5.524e-010     
  -0.5            -0.00029405     -4.015e-009     1.0939e-009    
  -0.55           -0.00030315     -1.6143e-008    1.2876e-009    
  -0.6            -0.00031052     -9.309e-009     1.1552e-009    
  -0.65           -0.00031682     -2.226e-008     1.069e-009     
  -0.7            -0.00032193     -1.2295e-008    1.6654e-009    
  -0.75           -0.00032694     -1.5781e-008    1.313e-009     
  -0.8            -0.00033146     -1.1608e-008    1.1578e-009    
  -0.85           -0.00033515     -1.0857e-008    1.1573e-009    
  -0.9            -0.00033774     -9.045e-009     -4.98e-010     
  -0.95           -0.00034103     2.642e-009      -1.2484e-009   
  -1              -0.000346       9.314e-009      8.315e-010     
  -1.05           -0.00034897     -8.491e-009     1.1487e-009    
  -1.1            -0.00035196     -1.0181e-008    1.1555e-009    
  -1.15           -0.00035362     -9.515e-009     -3.718e-010    
  -1.2            -0.00035585     2.354e-009      -1.2513e-009   
  -1.25           -0.00036024     8.547e-009      6.949e-010     
  -1.3            -0.00036262     -6.08e-009      1.13e-009      
  -1.35           -0.00036521     -1.2167e-008    1.1559e-009    
  -1.4            -0.00036646     -9.594e-009     -3.504e-010    
  -1.45           -0.00036865     2.427e-009      -1.2529e-009   
  -1.5            -0.00037245     8.594e-009      6.681e-010     
  -1.55           -0.00037467     -5.709e-009     1.1269e-009    
  -1.6            -0.00037647     -9.372e-009     -1.055e-010    
  -1.65           -0.00037793     1.4378e-008     -1.4053e-009   
  -1.7            -0.00038055     8.675e-009      3.178e-010     
  -1.75           -0.00038329     -3.261e-009     1.0742e-009    
  -1.8            -0.00038563     -1.1684e-008    1.7344e-009    
END_DB

BEGIN_DB
 ICCAP_VAR VG         -1.8           
 ICCAP_VAR VS         0              
 ICCAP_VAR VB         0              

 #VD              ID              IB              IG             
  0               -1.3186e-007    -3.651e-009     1.045e-009     
  -0.05           -7.7184e-005    -5.973e-009     -1.2582e-009   
  -0.1            -0.00015042     8.438e-009      2.3599e-009    
  -0.15           -0.00021954     -1.0812e-008    1.156e-009     
  -0.2            -0.00028382     -1.1183e-008    1.157e-009     
  -0.25           -0.00034362     -1.2259e-008    1.6275e-009    
  -0.3            -0.00039857     -9.103e-009     -4.29e-011     
  -0.35           -0.00044814     1.243e-008      -1.4569e-009   
  -0.4            -0.00049318     8.459e-009      2.714e-010     
  -0.45           -0.00053383     -1.7274e-008    1.2329e-009    
  -0.5            -0.00056927     -9.811e-009     1.1553e-009    
  -0.55           -0.00060008     -1.0761e-008    1.1557e-009    
  -0.6            -0.00062661     -1.1337e-008    1.7654e-009    
  -0.65           -0.00064971     -1.449e-008     1.3925e-009    
  -0.7            -0.00066868     -9.557e-009     -2.091e-010    
  -0.75           -0.00068488     5.65e-010       -1.2643e-009   
  -0.8            -0.00070053     8.375e-009      5.313e-010     
  -0.85           -0.00071301     -4.059e-009     1.099e-009     
  -0.9            -0.00072427     -1.6e-008       1.274e-009     
  -0.95           -0.00073401     -1.1032e-008    1.156e-009     
  -1              -0.00074232     -1.0928e-008    1.1533e-009    
  -1.05           -0.00075001     -1.2252e-008    1.6474e-009    
  -1.1            -0.00075691     -9.026e-009     -9.2e-012      
  -1.15           -0.0007625      1.1864e-008     -1.4724e-009   
  -1.2            -0.00076847     8.405e-009      2.452e-010     
  -1.25           -0.00077554     -1.6884e-008    1.2435e-009    
  -1.3            -0.00078088     -9.701e-009     1.1538e-009    
  -1.35           -0.00078614     -1.0594e-008    1.1539e-009    
  -1.4            -0.00079067     -1.1377e-008    1.7904e-009    
  -1.45           -0.00079547     -1.444e-008     1.4058e-009    
  -1.5            -0.0007991      -9.573e-009     -1.966e-010    
  -1.55           -0.00080279     5.26e-010       -1.2666e-009   
  -1.6            -0.00080834     8.424e-009      5.211e-010     
  -1.65           -0.0008123      -3.864e-009     1.0964e-009    
  -1.7            -0.00081614     -8.727e-009     1.103e-010     
  -1.75           -0.00081869     9.184e-009      -1.5975e-009   
  -1.8            -0.00082358     1.4958e-008     1.5385e-009    
END_DB

BEGIN_DB
 ICCAP_VAR VG         0              
 ICCAP_VAR VS         0              
 ICCAP_VAR VB         0.9            

 #VD              ID              IB              IG             
  0               -1.2908e-009    7.04e-010       -1.2802e-009   
  -0.05           -1.656e-010     -1.4775e-008    1.6892e-009    
  -0.1            1.2237e-009     1.3772e-008     1.1143e-009    
  -0.15           1.067e-009      1.5758e-008     1.3067e-009    
  -0.2            1.7208e-009     8.686e-009      9.54e-011      
  -0.25           1.8011e-009     8.92e-009       2.512e-010     
  -0.3            7.564e-010      8.543e-009      -1.2574e-009   
  -0.35           -1.6577e-009    2.023e-009      -8.729e-010    
  -0.4            -1.33e-011      -1.1974e-008    1.1516e-009    
  -0.45           -1.476e-010     -1.4685e-008    1.7347e-009    
  -0.5            1.2574e-009     1.3822e-008     1.0913e-009    
  -0.55           1.0898e-009     1.4719e-008     1.2782e-009    
  -0.6            1.705e-009      8.513e-009      7.33e-011      
  -0.65           1.7769e-009     8.687e-009      2.455e-010     
  -0.7            7.338e-010      8.472e-009      -1.2564e-009   
  -0.75           -1.675e-009     2.383e-009      -8.442e-010    
  -0.8            1.27e-011       -1.1784e-008    1.1549e-009    
  -0.85           -1.404e-010     -1.4295e-008    1.7654e-009    
  -0.9            1.2806e-009     1.3902e-008     1.0619e-009    
  -0.95           1.1058e-009     1.4434e-008     1.2585e-009    
  -1              1.6919e-009     8.472e-009      5.83e-011      
  -1.05           1.7832e-009     8.588e-009      2.194e-010     
  -1.1            7.213e-010      8.424e-009      -1.2597e-009   
  -1.15           -1.6972e-009    2.46e-009       -8.237e-010    
  -1.2            2.99e-011       -1.152e-008     1.1545e-009    
  -1.25           -1.295e-010     -1.4011e-008    1.7836e-009    
  -1.3            9.313e-010      -3.52e-010      1.8307e-009    
  -1.35           9.835e-010      9.158e-009      -1.2482e-009   
  -1.4            -1.3704e-009    2.945e-009      -1.1523e-009   
  -1.45           -2.027e-010     -1.5795e-008    1.598e-009     
  -1.5            1.162e-009      1.4001e-008     1.186e-009     
  -1.55           1.6649e-009     8.279e-009      -1.3e-011      
  -1.6            1.7545e-009     9.009e-009      1.605e-010     
  -1.65           6.666e-010      8.806e-009      -1.2609e-009   
  -1.7            -1.7563e-009    2.837e-009      -7.429e-010    
  -1.75           9.825e-010      -1.1073e-008    2.0297e-009    
  -1.8            1.2122e-009     1.1025e-008     -1.2354e-009   
END_DB

BEGIN_DB
 ICCAP_VAR VG         -0.36          
 ICCAP_VAR VS         0              
 ICCAP_VAR VB         0.9            

 #VD              ID              IB              IG             
  0               -1.0569e-009    -8.565e-009     -1.2284e-009   
  -0.05           -1.707e-010     -1.5295e-008    1.6544e-009    
  -0.1            1.201e-009      1.3651e-008     1.1291e-009    
  -0.15           1.0589e-009     1.5046e-008     1.3209e-009    
  -0.2            1.7301e-009     8.343e-009      1.128e-010     
  -0.25           1.8214e-009     8.607e-009      2.638e-010     
  -0.3            7.815e-010      8.659e-009      -1.2589e-009   
  -0.35           -1.5964e-009    1.982e-009      -8.851e-010    
  -0.4            -5.53e-011      -1.2164e-008    1.1477e-009    
  -0.45           -1.683e-010     -1.5445e-008    1.6589e-009    
  -0.5            1.2118e-009     1.3825e-008     1.124e-009     
  -0.55           1.0635e-009     1.5619e-008     1.32e-009      
