! VERSION = 6.00
BEGIN_HEADER
 ICCAP_INPUTS
  VG         V  B GROUND SMU4 0.001 LIN        2    0          -1.8       6    -0.36     
  VS         V  E GROUND SMU2 0.1 CON        0
  VD         V  S GROUND SMU1 0.1 LIN        1    0          -1.8       37   -0.05     
  VB         V  C GROUND SMU3 0.1 CON        0
 ICCAP_OUTPUTS
  ID         I  S GROUND SMU1 B
  IG         I  B GROUND SMU4 B
END_HEADER

BEGIN_DB
 ICCAP_VAR VG         0              
 ICCAP_VAR VS         0              
 ICCAP_VAR VB         0              

 #VD              ID              IG             
  0               -5.323e-011     -1.4133e-010   
  -0.05           -1.0217e-010    3.3214e-010    
  -0.1            1.844e-010      8.84e-011      
  -0.15           -2.4689e-010    -1.1249e-010   
  -0.2            -1.0312e-010    3.412e-010     
  -0.25           1.7418e-010     7.406e-011     
  -0.3            -1.9177e-010    -1.7927e-010   
  -0.35           -1.4448e-010    2.6276e-010    
  -0.4            1.6108e-010     6.091e-011     
  -0.45           -2.1282e-010    -1.5586e-010   
  -0.5            -1.4294e-010    2.8825e-010    
  -0.55           1.4131e-010     4.922e-011     
  -0.6            -2.377e-010     -1.3913e-010   
  -0.65           -1.4214e-010    3.1376e-010    
  -0.7            1.159e-010      3.918e-011     
  -0.75           2.744e-011      -2.7216e-010   
  -0.8            -2.719e-010     -1.2004e-010   
  -0.85           -1.4219e-010    3.3737e-010    
  -0.9            7.496e-011      1.782e-011     
  -0.95           -2.2729e-010    -1.7965e-010   
  -1              -1.8297e-010    2.6078e-010    
  -1.05           -2.243e-011     3.3939e-010    
  -1.1            2.642e-011      -2.2709e-010   
  -1.15           -2.6259e-010    -1.5019e-010   
  -1.2            -1.8668e-010    2.9641e-010    
  -1.25           -2.122e-011     3.2571e-010    
  -1.3            -2.3369e-010    -2.4243e-010   
  -1.35           -1.8705e-010    3.3064e-010    
  -1.4            -1.393e-011     2.9196e-010    
  -1.45           -2.0342e-010    -3.324e-010    
  -1.5            -1.8913e-010    3.4285e-010    
  -1.55           -2.3891e-010    -2.9779e-010   
  -1.6            -2.2924e-010    2.937e-010     
  -1.65           -6.705e-011     3.2669e-010    
  -1.7            -2.1167e-010    -3.4448e-010   
  -1.75           -2.8856e-010    -2.337e-010    
  -1.8            -2.4016e-010    3.3469e-010    
END_DB

BEGIN_DB
 ICCAP_VAR VG         -0.36          
 ICCAP_VAR VS         0              
 ICCAP_VAR VB         0              

 #VD              ID              IG             
  0               2.6746e-008     -1.0206e-010   
  -0.05           -1.3318e-007    1.2355e-010    
  -0.1            -1.7355e-007    2.9407e-010    
  -0.15           -1.9315e-007    3.0631e-010    
  -0.2            -2.0953e-007    3.1602e-010    
  -0.25           -2.2584e-007    3.2604e-010    
  -0.3            -2.4194e-007    2.2064e-010    
  -0.35           -2.5823e-007    2.2922e-010    
  -0.4            -2.7479e-007    2.3869e-010    
  -0.45           -2.9186e-007    2.4758e-010    
  -0.5            -3.0916e-007    2.5923e-010    
  -0.55           -3.2699e-007    2.7078e-010    
  -0.6            -3.4528e-007    2.8222e-010    
  -0.65           -3.6415e-007    2.9538e-010    
  -0.7            -3.8344e-007    3.071e-010     
  -0.75           -4.0326e-007    3.1637e-010    
  -0.8            -4.2452e-007    3.2699e-010    
  -0.85           -4.4565e-007    2.2165e-010    
  -0.9            -4.6735e-007    2.2916e-010    
  -0.95           -4.8974e-007    2.3886e-010    
  -1              -5.1272e-007    2.4954e-010    
  -1.05           -5.3658e-007    2.6015e-010    
  -1.1            -5.6115e-007    2.7184e-010    
  -1.15           -5.8638e-007    2.8348e-010    
  -1.2            -6.1266e-007    2.9519e-010    
  -1.25           -6.3977e-007    3.0735e-010    
  -1.3            -6.6766e-007    3.1791e-010    
  -1.35           -6.9742e-007    3.2773e-010    
  -1.4            -7.2709e-007    2.2153e-010    
  -1.45           -7.5754e-007    2.3012e-010    
  -1.5            -7.8903e-007    2.3931e-010    
  -1.55           -8.2156e-007    2.4972e-010    
  -1.6            -8.5459e-007    2.6019e-010    
  -1.65           -8.893e-007     2.7261e-010    
  -1.7            -9.2474e-007    2.8384e-010    
  -1.75           -9.6176e-007    2.9589e-010    
  -1.8            -9.9974e-007    3.0776e-010    
END_DB

BEGIN_DB
 ICCAP_VAR VG         -0.72          
 ICCAP_VAR VS         0              
 ICCAP_VAR VB         0              

 #VD              ID              IG             
  0               -1.8157e-007    -1.1942e-010   
  -0.05           -0.00016952     -1.0852e-010   
  -0.1            -0.00025082     -3.161e-010    
  -0.15           -0.00028981     -3.2592e-010   
  -0.2            -0.00031262     -2.2201e-010   
  -0.25           -0.00032919     -2.2955e-010   
  -0.3            -0.00034319     -2.3963e-010   
  -0.35           -0.00035563     -2.4914e-010   
  -0.4            -0.00036709     -2.5967e-010   
  -0.45           -0.00037813     -2.7087e-010   
  -0.5            -0.00038859     -2.8269e-010   
  -0.55           -0.00039854     -2.9428e-010   
  -0.6            -0.00040817     -3.0598e-010   
  -0.65           -0.00041771     -3.1689e-010   
  -0.7            -0.00042667     -3.2652e-010   
  -0.75           -0.00043568     -2.223e-010    
  -0.8            -0.00044453     -2.3073e-010   
  -0.85           -0.00045319     -2.4004e-010   
  -0.9            -0.00046187     -2.504e-010    
  -0.95           -0.00047029     -2.6087e-010   
  -1              -0.00047868     -2.7151e-010   
  -1.05           -0.00048733     -2.8317e-010   
  -1.1            -0.0004952      -2.949e-010    
  -1.15           -0.0005035      -3.0706e-010   
  -1.2            -0.00051178     -3.1704e-010   
  -1.25           -0.00051966     -3.269e-010    
  -1.3            -0.00052797     -2.228e-010    
  -1.35           -0.00067751     -2.2865e-010   
  -1.4            -0.00075061     -2.3959e-010   
  -1.45           -0.00078615     -2.4944e-010   
  -1.5            -0.00081664     -2.588e-010    
  -1.55           -0.00084568     -2.6726e-010   
  -1.6            -0.00087304     -2.7176e-010   
  -1.65           -0.00090071     -2.6434e-010   
  -1.7            -0.00092767     -3.239e-011    
  -1.75           -0.00095588     5.128e-010     
  -1.8            -0.00098301     4.4389e-010    
END_DB

BEGIN_DB
 ICCAP_VAR VG         -1.08          
 ICCAP_VAR VS         0              
 ICCAP_VAR VB         0              

 #VD              ID              IG             
  0               -2.1847e-006    -3.3175e-010   
  -0.05           -0.00057101     1.1858e-010    
  -0.1            -0.00110615     3.0183e-010    
  -0.15           -0.0015931      2.9547e-010    
  -0.2            -0.0020179      3.0815e-010    
  -0.25           -0.0023667      3.1911e-010    
  -0.3            -0.0026357      3.2804e-010    
  -0.35           -0.0028217      2.235e-010     
  -0.4            -0.0029428      2.3183e-010    
  -0.45           -0.0030269      2.4097e-010    
  -0.5            -0.0030936      2.5124e-010    
  -0.55           -0.0031407      2.6327e-010    
  -0.6            -0.0031842      2.742e-010     
  -0.65           -0.0032177      2.8574e-010    
  -0.7            -0.0032454      2.9518e-010    
  -0.75           -0.0032595      3.0996e-010    
  -0.8            -0.0032771      3.1795e-010    
  -0.85           -0.0032939      3.2877e-010    
  -0.9            -0.003303       2.2312e-010    
  -0.95           -0.0033123      2.3156e-010    
  -1              -0.0033283      2.4098e-010    
  -1.05           -0.0033381      2.5123e-010    
  -1.1            -0.0033514      2.6169e-010    
  -1.15           -0.0033642      2.7287e-010    
  -1.2            -0.0033776      2.8604e-010    
  -1.25           -0.0033926      2.9687e-010    
  -1.3            -0.0034043      3.0901e-010    
  -1.35           -0.0034186      3.1868e-010    
  -1.4            -0.0034316      3.2592e-010    
  -1.45           -0.0034471      2.2256e-010    
  -1.5            -0.0034611      2.3104e-010    
  -1.55           -0.0034775      2.4292e-010    
  -1.6            -0.003491       2.5761e-010    
  -1.65           -0.0035082      2.898e-010     
  -1.7            -0.0035326      3.597e-010     
  -1.75           -0.0035469      3.3382e-010    
  -1.8            -0.0035668      2.7023e-010    
END_DB

BEGIN_DB
 ICCAP_VAR VG         -1.44          
 ICCAP_VAR VS         0              
 ICCAP_VAR VB         0              

 #VD              ID              IG             
  0               -2.4575e-006    2.1514e-010    
  -0.05           -0.00063626     -1.0494e-010   
  -0.1            -0.0012632      2.1787e-010    
  -0.15           -0.0018807      2.2616e-010    
  -0.2            -0.0024873      2.3605e-010    
  -0.25           -0.0030767      2.4581e-010    
  -0.3            -0.0036482      2.5596e-010    
  -0.35           -0.0042053      2.6694e-010    
  -0.4            -0.0047385      2.7894e-010    
  -0.45           -0.00522        2.8958e-010    
  -0.5            -0.0056585      3.0169e-010    
  -0.55           -0.0060488      3.153e-010     
  -0.6            -0.0063567      3.2341e-010    
  -0.65           -0.0066065      2.1725e-010    
  -0.7            -0.0067885      2.2665e-010    
  -0.75           -0.0069388      2.3399e-010    
  -0.8            -0.007053       2.4571e-010    
  -0.85           -0.0071343      2.5617e-010    
  -0.9            -0.0072003      2.6699e-010    
  -0.95           -0.0072424      2.7688e-010    
  -1              -0.0072858      2.9063e-010    
  -1.05           -0.0073313      3.0333e-010    
  -1.1            -0.0073673      3.1459e-010    
  -1.15           -0.0073756      3.2349e-010    
  -1.2            -0.0073922      2.1809e-010    
  -1.25           -0.007408       2.26e-010      
  -1.3            -0.0074234      2.3615e-010    
  -1.35           -0.0074297      2.4641e-010    
  -1.4            -0.0074462      2.5381e-010    
  -1.45           -0.007449       2.6507e-010    
  -1.5            -0.0074591      2.786e-010     
  -1.55           -0.0074692      2.9221e-010    
  -1.6            -0.0074885      3.0204e-010    
  -1.65           -0.0075015      3.1401e-010    
  -1.7            -0.007503       3.2293e-010    
  -1.75           -0.0075048      2.1845e-010    
  -1.8            -0.0075187      2.2692e-010    
END_DB

BEGIN_DB
 ICCAP_VAR VG         -1.8           
 ICCAP_VAR VS         0              
 ICCAP_VAR VB         0              

 #VD              ID              IG             
  0               -2.4298e-006    3.1142e-010    
  -0.05           -0.00065856     -5.128e-011    
  -0.1            -0.0013107      3.1246e-010    
  -0.15           -0.001958       3.2224e-010    
  -0.2            -0.0026024      2.1769e-010    
  -0.25           -0.0032431      2.2622e-010    
  -0.3            -0.0038798      2.3547e-010    
  -0.35           -0.0045015      2.4499e-010    
  -0.4            -0.0051297      2.5541e-010    
  -0.45           -0.0057455      2.6726e-010    
  -0.5            -0.0063442      2.7947e-010    
  -0.55           -0.006916       2.9073e-010    
  -0.6            -0.0074847      3.0206e-010    
  -0.65           -0.0080147      3.1239e-010    
  -0.7            -0.0085299      3.2198e-010    
  -0.75           -0.0090248      2.2118e-010    
  -0.8            -0.0094628      2.2593e-010    
  -0.85           -0.009842       2.3394e-010    
  -0.9            -0.0102036      2.4257e-010    
  -0.95           -0.0105293      2.5571e-010    
  -1              -0.0107583      2.6547e-010    
  -1.05           -0.0109537      2.7982e-010    
  -1.1            -0.0110576      2.8491e-010    
  -1.15           -0.0110856      3.1164e-010    
  -1.2            -0.0111714      3.2067e-010    
  -1.25           -0.0112987      3.2955e-010    
  -1.3            -0.0112892      3.2562e-010    
  -1.35           -0.0113562      2.2516e-010    
  -1.4            -0.011412       -3.2967e-010   
  -1.45           -0.0115         -3.024e-010    
  -1.5            -0.011495       -3.1525e-010   
  -1.55           -0.01148        -3.2341e-010   
  -1.6            -0.011496       -3.2592e-010   
  -1.65           -0.011411       -2.254e-010    
  -1.7            -0.011389       -2.3676e-010   
  -1.75           -0.011385       -2.4545e-010   
  -1.8            -0.011516       -2.5069e-010   
END_DB

