! VERSION = 6.00
BEGIN_HEADER
 ICCAP_INPUTS
  VG         V  B GROUND SMU4 0.001 LIN        2    0          -1.8       6    -0.36     
  VS         V  E GROUND SMU2 0.1 CON        0
  VD         V  S GROUND SMU1 0.1 LIN        1    0          -1.8       37   -0.05     
  VB         V  C GROUND SMU3 0.1 LIN        3    0          0.9        2    0.9       
 ICCAP_OUTPUTS
  ID         I  S GROUND SMU1 B
  IB         I  C GROUND SMU3 B
  IG         I  B GROUND SMU4 B
END_HEADER

BEGIN_DB
 ICCAP_VAR VG         0              
 ICCAP_VAR VS         0              
 ICCAP_VAR VB         0              

 #VD              ID              IB              IG             
  0               -1.127e-009     -3.104e-009     -1.2468e-009   
  -0.05           -1.8188e-009    -9.38e-009      1.425e-010     
  -0.1            -1.899e-009     -9.481e-009     -5.92e-011     
  -0.15           -1.133e-010     -1.4143e-008    1.1816e-009    
  -0.2            -2.199e-010     -1.6707e-008    1.604e-009     
  -0.25           1.1773e-009     1.3965e-008     1.2068e-009    
  -0.3            1.6892e-009     8.172e-009      1.75e-011      
  -0.35           1.8015e-009     8.644e-009      1.681e-010     
  -0.4            6.903e-010      8.544e-009      -1.2474e-009   
  -0.45           -1.7514e-009    3.635e-009      -7.868e-010    
  -0.5            -1.4882e-009    -8.662e-009     1.183e-009     
  -0.55           -2.451e-010     -1.7473e-008    1.5468e-009    
  -0.6            1.1379e-009     1.4057e-008     1.2549e-009    
  -0.65           1.7217e-009     8.431e-009      5.68e-011      
  -0.7            1.8081e-009     8.7e-009        2.064e-010     
  -0.75           7.338e-010      8.509e-009      -1.245e-009    
  -0.8            -1.7148e-009    3.438e-009      -8.404e-010    
  -0.85           -1.5246e-009    -8.646e-009     1.185e-009     
  -0.9            9.987e-010      -3.481e-009     2.0143e-009    
  -0.95           1.2243e-009     1.1172e-008     -1.2254e-009   
  -1              -1.1603e-009    9.398e-009      -1.4217e-009   
  -1.05           -1.8984e-009    -9.459e-009     -8.02e-011     
  -1.1            -1.261e-010     -1.4067e-008    1.183e-009     
  -1.15           -2.225e-010     -1.7018e-008    1.5783e-009    
  -1.2            1.1677e-009     1.3804e-008     1.2218e-009    
  -1.25           1.7086e-009     8.254e-009      2.25e-011      
  -1.3            1.7959e-009     8.691e-009      1.864e-010     
  -1.35           7.064e-010      8.503e-009      -1.2466e-009   
  -1.4            -1.7442e-009    3.613e-009      -8.059e-010    
  -1.45           -1.5003e-009    -8.642e-009     1.1824e-009    
  -1.5            -2.512e-010     -1.7371e-008    1.5265e-009    
  -1.55           9.789e-010      -3.302e-009     1.9438e-009    
  -1.6            1.1608e-009     1.0394e-008     -1.2314e-009   
  -1.65           -1.2155e-009    7.39e-009       -1.3634e-009   
  -1.7            -1.8639e-009    -9.511e-009     3.25e-011      
  -1.75           -3.96e-011      -1.2916e-008    1.1817e-009    
  -1.8            -1.733e-010     -1.5399e-008    1.7082e-009    
END_DB

BEGIN_DB
 ICCAP_VAR VG         -0.36          
 ICCAP_VAR VS         0              
 ICCAP_VAR VB         0              

 #VD              ID              IB              IG             
  0               -1.0629e-009    8.871e-009      -1.2195e-009   
  -0.05           -1.563e-010     -1.4611e-008    1.1709e-009    
  -0.1            9.904e-010      -3.473e-009     1.9914e-009    
  -0.15           1.2043e-009     1.0103e-008     -1.2263e-009   
  -0.2            -1.1652e-009    8.609e-009      -1.4041e-009   
  -0.25           -1.8982e-009    -9.554e-009     -4.64e-011     
  -0.3            -1.07e-010      -1.3451e-008    1.1801e-009    
  -0.35           -2.122e-010     -1.6198e-008    1.6117e-009    
  -0.4            1.1832e-009     1.3448e-008     1.1837e-009    
  -0.45           1.6771e-009     8.069e-009      -1.24e-011     
  -0.5            1.7744e-009     8.635e-009      1.535e-010     
  -0.55           6.717e-010      8.502e-009      -1.2511e-009   
  -0.6            -1.7775e-009    3.698e-009      -7.617e-010    
  -0.65           9.948e-010      -1.0894e-008    2.0125e-009    
  -0.7            1.2158e-009     1.0298e-008     -1.2254e-009   
  -0.75           -1.156e-009     8.977e-009      -1.4185e-009   
  -0.8            -1.1936e-009    -1.0397e-008    1.1598e-009    
  -0.85           9.926e-010      -1.1059e-008    2.0075e-009    
  -0.9            1.2144e-009     1.0245e-008     -1.2275e-009   
  -0.95           -1.1574e-009    8.879e-009      -1.4134e-009   
  -1              -1.191e-009     -1.0528e-008    1.1584e-009    
  -1.05           9.934e-010      -1.0955e-008    2.0037e-009    
  -1.1            1.2078e-009     1.1224e-008     -1.2258e-009   
  -1.15           -1.1646e-009    8.573e-009      -1.4082e-009   
  -1.2            -1.8995e-009    -9.517e-009     -5.46e-011     
  -1.25           -1.116e-010     -1.378e-008     1.1798e-009    
  -1.3            -2.178e-010     -1.6505e-008    1.6017e-009    
  -1.35           1.1761e-009     1.398e-008      1.1977e-009    
  -1.4            1.6834e-009     8.232e-009      1.9e-012       
  -1.45           1.7858e-009     8.968e-009      1.539e-010     
  -1.5            6.831e-010      8.787e-009      -1.2475e-009   
  -1.55           -1.7731e-009    3.601e-009      -7.704e-010    
  -1.6            9.966e-010      -1.1058e-008    2.025e-009     
  -1.65           1.2251e-009     1.1418e-008     -1.225e-009    
  -1.7            -1.1516e-009    9.327e-009      -1.425e-009    
  -1.75           -1.9064e-009    -9.499e-009     -8.49e-011     
  -1.8            -1.275e-010     -1.418e-008     1.1817e-009    
END_DB

BEGIN_DB
 ICCAP_VAR VG         -0.72          
 ICCAP_VAR VS         0              
 ICCAP_VAR VB         0              

 #VD              ID              IB              IG             
  0               -1.0538e-009    -8.499e-009     -1.2123e-009   
  -0.05           -5.2895e-009    -8.725e-009     -5.641e-010    
  -0.1            -5.4661e-009    -9.184e-009     1.1737e-009    
  -0.15           -4.4949e-009    -1.3723e-008    1.1711e-009    
  -0.2            -4.6531e-009    -1.6712e-008    1.5932e-009    
  -0.25           -3.1644e-009    1.4024e-008     1.197e-009     
  -0.3            -2.723e-009     7.96e-009       1.1e-012       
  -0.35           -2.657e-009     8.501e-009      1.562e-010     
  -0.4            -2.6305e-009    8.577e-009      2.984e-010     
  -0.45           -2.6655e-009    8.391e-009      4.254e-010     
  -0.5            -2.732e-009     8.798e-009      5.211e-010     
  -0.55           -2.8714e-009    1.0215e-008     6.527e-010     
  -0.6            -3.031e-009     1.1444e-008     8.037e-010     
  -0.65           -3.2245e-009    1.2744e-008     9.827e-010     
  -0.7            -3.4194e-009    1.3583e-008     1.1775e-009    
  -0.75           -2.961e-009     7.955e-009      -1.2e-011      
  -0.8            -2.8908e-009    8.863e-009      1.449e-010     
  -0.85           -2.8554e-009    8.808e-009      2.891e-010     
  -0.9            -2.8558e-009    8.443e-009      4.065e-010     
  -0.95           -2.9215e-009    8.4e-009        5.11e-010      
  -1              -3.0561e-009    9.098e-009      6.342e-010     
  -1.05           -3.205e-009     1.0451e-008     7.943e-010     
  -1.1            -3.388e-009     1.2466e-008     9.739e-010     
  -1.15           -3.5762e-009    1.3825e-008     1.1576e-009    
  -1.2            -3.1381e-009    7.829e-009      -2.12e-011     
  -1.25           -3.0637e-009    8.815e-009      1.397e-010     
  -1.3            -3.0096e-009    8.783e-009      2.801e-010     
  -1.35           -3.0047e-009    8.609e-009      3.987e-010     
  -1.4            -3.0673e-009    8.271e-009      5.078e-010     
  -1.45           -3.1753e-009    9.001e-009      6.241e-010     
  -1.5            -3.333e-009     1.0341e-008     7.841e-010     
  -1.55           -3.5038e-009    1.2318e-008     9.654e-010     
  -1.6            -3.6808e-009    1.3535e-008     1.1377e-009    
  -1.65           -3.2511e-009    7.725e-009      -1.2331e-009   
  -1.7            -5.068e-009     3.918e-009      -1.2266e-009   
  -1.75           -4.9559e-009    6.133e-009      -1.2161e-009   
  -1.8            -4.8501e-009    9.714e-009      -1.9464e-009   
END_DB

BEGIN_DB
 ICCAP_VAR VG         -1.08          
 ICCAP_VAR VS         0              
 ICCAP_VAR VB         0              

 #VD              ID              IB              IG             
  0               -1.6045e-009    -5.89e-009      2.595e-010     
  -0.05           -8.0413e-007    -9.029e-009     4.253e-010     
  -0.1            -1.3088e-006    2.812e-009      1.5141e-009    
  -0.15           -1.6023e-006    -1.348e-008     1.537e-009     
  -0.2            -1.7461e-006    -8.572e-009     2.74e-011      
  -0.25           -1.8041e-006    9.045e-009      -1.6769e-009   
  -0.3            -1.8533e-006    1.3351e-008     1.3609e-009    
  -0.35           -1.8857e-006    -1.1134e-008    1.1766e-009    
  -0.4            -1.8826e-006    -9.754e-009     -2.987e-010    
  -0.45           -1.8874e-006    1.84e-010       -1.276e-009    
  -0.5            -1.91e-006      8.837e-009      4.409e-010     
  -0.55           -1.9243e-006    -3.122e-009     1.0846e-009    
  -0.6            -1.9128e-006    -9.054e-009     -5.758e-010    
  -0.65           -1.9225e-006    2.883e-009      -1.2418e-009   
  -0.7            -1.9517e-006    8.346e-009      6.801e-010     
  -0.75           -1.9625e-006    -3.792e-009     1.1164e-009    
  -0.8            -1.9385e-006    -8.884e-009     -9.447e-010    
  -0.85           -1.9499e-006    3.465e-009      -1.228e-009    
  -0.9            -1.9825e-006    9.762e-009      9.794e-010     
  -0.95           -1.9891e-006    -7.959e-009     1.1664e-009    
  -1              -1.9968e-006    -1.0938e-008    1.1751e-009    
  -1.05           -1.984e-006     -9.724e-009     -3.258e-010    
  -1.1            -1.9813e-006    4.49e-010       -1.2707e-009   
  -1.15           -2.0012e-006    8.887e-009      4.538e-010     
  -1.2            -2.011e-006     -3.062e-009     1.0838e-009    
  -1.25           -1.9934e-006    -8.945e-009     -6.044e-010    
  -1.3            -2.001e-006     2.914e-009      -1.2405e-009   
  -1.35           -2.0296e-006    8.344e-009      6.757e-010     
  -1.4            -2.037e-006     -4.078e-009     1.1197e-009    
  -1.45           -2.0101e-006    -8.907e-009     -9.757e-010    
  -1.5            -2.0191e-006    3.264e-009      -1.2272e-009   
  -1.55           -2.05e-006      9.936e-009      1.0011e-009    
  -1.6            -2.0553e-006    -8.177e-009     1.169e-009     
  -1.65           -2.0619e-006    -1.0669e-008    1.1748e-009    
  -1.7            -2.045e-006     -9.645e-009     -3.354e-010    
  -1.75           -2.0427e-006    7.74e-010       -1.2667e-009   
  -1.8            -2.0628e-006    8.862e-009      4.671e-010     
END_DB

BEGIN_DB
 ICCAP_VAR VG         -1.44          
 ICCAP_VAR VS         0              
 ICCAP_VAR VB         0              

 #VD              ID              IB              IG             
  0               -1.0571e-008    -9.687e-009     -5.38e-011     
  -0.05           -3.0646e-006    -3.495e-009     -8.822e-010    
  -0.1            -5.7318e-006    3.714e-009      -1.2361e-009   
  -0.15           -8.0372e-006    9.491e-009      9.159e-010     
  -0.2            -9.9347e-006    -7.207e-009     1.1645e-009    
  -0.25           -1.1436e-005    -9.533e-009     2.3146e-009    
  -0.3            -1.2662e-005    -8.674e-009     1.0909e-009    
  -0.35           -1.3543e-005    -9.097e-009     -6.99e-011     
  -0.4            -1.4151e-005    1.701e-009      -1.2528e-009   
  -0.45           -1.469e-005     8.825e-009      8.12e-010      
  -0.5            -1.4998e-005    -1.0107e-008    1.1767e-009    
  -0.55           -1.5217e-005    -1.4177e-008    1.4403e-009    
  -0.6            -1.5326e-005    -9.568e-009     -3.629e-010    
  -0.65           -1.5433e-005    3.632e-009      -1.2379e-009   
  -0.7            -1.562e-005     1.2188e-008     1.195e-009     
  -0.75           -1.5695e-005    -1.3525e-008    1.493e-009     
  -0.8            -1.578e-005     -9.17e-009      1.1759e-009    
  -0.85           -1.5755e-005    -8.593e-009     -5.935e-010    
  -0.9            -1.5817e-005    3.233e-009      -1.2318e-009   
  -0.95           -1.5937e-005    1.3413e-008     1.4175e-009    
  -1              -1.6018e-005    -1.7117e-008    1.2287e-009    
  -1.05           -1.6048e-005    -1.0957e-008    1.1806e-009    
  -1.1            -1.6003e-005    -9.02e-009      -8.566e-010    
  -1.15           -1.607e-005     3.759e-009      -2.103e-009    
  -1.2            -1.6179e-005    1.3449e-008     1.4143e-009    
  -1.25           -1.6246e-005    -1.7014e-008    1.2357e-009    
  -1.3            -1.627e-005     -1.085e-008     1.1794e-009    
  -1.35           -1.6211e-005    -9.059e-009     -8.456e-010    
  -1.4            -1.6269e-005    3.638e-009      -2.1278e-009   
  -1.45           -1.6375e-005    1.3388e-008     1.3989e-009    
  -1.5            -1.6432e-005    -1.6725e-008    1.2489e-009    
  -1.55           -1.6455e-005    -1.0885e-008    1.1808e-009    
  -1.6            -1.6388e-005    -8.996e-009     -8.286e-010    
  -1.65           -1.6439e-005    3.457e-009      -2.1357e-009   
  -1.7            -1.6543e-005    1.3343e-008     1.387e-009     
  -1.75           -1.6598e-005    -1.6527e-008    1.259e-009     
  -1.8            -1.6614e-005    -1.0815e-008    1.1811e-009    
END_DB

BEGIN_DB
 ICCAP_VAR VG         -1.8           
 ICCAP_VAR VS         0              
 ICCAP_VAR VB         0              

 #VD              ID              IB              IG             
  0               -1.2616e-008    9.307e-009      -1.2299e-009   
  -0.05           -5.1149e-006    -9.441e-009     -1.2393e-009   
  -0.1            -9.9072e-006    8.807e-009      8.363e-010     
  -0.15           -1.4324e-005    -3.62e-009      -1.2636e-009   
  -0.2            -1.8436e-005    8.318e-009      7.148e-010     
  -0.25           -2.2181e-005    -9.275e-009     1.1743e-009    
  -0.3            -2.5565e-005    -1.3081e-008    1.5948e-009    
  -0.35           -2.8571e-005    -9.456e-009     -3.05e-010     
  -0.4            -3.1213e-005    3.155e-009      -1.2432e-009   
  -0.45           -3.3626e-005    1.1626e-008     1.0745e-009    
  -0.5            -3.5606e-005    -9.9e-009       1.1787e-009    
  -0.55           -3.726e-005     -1.4517e-008    1.4389e-009    
  -0.6            -3.8572e-005    -9.157e-009     -3.917e-010    
  -0.65           -3.9656e-005    3.475e-009      -1.2393e-009   
  -0.7            -4.0654e-005    1.2125e-008     1.2008e-009    
  -0.75           -4.1327e-005    -1.4127e-008    1.4851e-009    
  -0.8            -4.1896e-005    -9.427e-009     1.1768e-009    
  -0.85           -4.2193e-005    -8.649e-009     -6.034e-010    
  -0.9            -4.2539e-005    3.113e-009      -1.2317e-009   
  -0.95           -4.2924e-005    1.3666e-008     1.4378e-009    
  -1              -4.3219e-005    -1.7638e-008    1.2188e-009    
  -1.05           -4.34e-005      -1.1138e-008    1.1781e-009    
  -1.1            -4.3602e-005    -1.6386e-008    1.278e-009     
  -1.15           -4.3753e-005    -1.0637e-008    1.1785e-009    
  -1.2            -4.3762e-005    -8.801e-009     -7.902e-010    
  -1.25           -4.3921e-005    3.274e-009      -1.221e-009    
  -1.3            -4.418e-005     8.277e-009      5.525e-010     
  -1.35           -4.4325e-005    -6.056e-009     1.1552e-009    
  -1.4            -4.4424e-005    -1.0648e-008    1.1781e-009    
  -1.45           -4.4544e-005    -1.5316e-008    1.3663e-009    
  -1.5            -4.4655e-005    -1.0161e-008    1.1784e-009    
  -1.55           -4.4744e-005    -1.4535e-008    1.439e-009     
  -1.6            -4.4757e-005    -9.21e-009      -3.802e-010    
  -1.65           -4.4807e-005    3.58e-009       -1.2387e-009   
  -1.7            -4.5054e-005    1.2181e-008     1.1908e-009    
  -1.75           -4.5115e-005    -1.3909e-008    1.4926e-009    
  -1.8            -4.5215e-005    -9.233e-009     1.1773e-009    
END_DB

BEGIN_DB
 ICCAP_VAR VG         0              
 ICCAP_VAR VS         0              
 ICCAP_VAR VB         0.9            

 #VD              ID              IB              IG             
  0               1.0444e-009     1.1603e-008     1.2122e-009    
  -0.05           1.2072e-009     1.3758e-008     1.1716e-009    
  -0.1            1.6751e-009     8.004e-009      -9e-012        
  -0.15           1.7767e-009     8.61e-009       1.574e-010     
  -0.2            6.807e-010      8.549e-009      -1.2498e-009   
  -0.25           -1.761e-009     3.718e-009      -7.837e-010    
  -0.3            -1.4922e-009    -8.63e-009      1.1815e-009    
  -0.35           -2.66e-010      -1.6912e-008    1.5484e-009    
  -0.4            9.714e-010      -3.278e-009     1.9275e-009    
  -0.45           1.1491e-009     1.0399e-008     -1.23e-009     
  -0.5            -1.2213e-009    7.533e-009      -1.3613e-009   
  -0.55           -1.8686e-009    -9.556e-009     2.35e-011      
  -0.6            -5.92e-011      -1.3053e-008    1.1799e-009    
  -0.65           -1.828e-010     -1.5613e-008    1.6943e-009    
  -0.7            1.2339e-009     1.3408e-008     1.1467e-009    
  -0.75           1.0619e-009     1.4319e-008     1.3314e-009    
  -0.8            1.7651e-009     8.57e-009       1.325e-010     
  -0.85           1.8356e-009     8.609e-009      2.829e-010     
  -0.9            8.108e-010      8.268e-009      -1.2404e-009   
  -0.95           -1.6237e-009    2.966e-009      -9.621e-010    
  -1              -6.92e-011      -1.3108e-008    1.1812e-009    
  -1.05           -1.891e-010     -1.5811e-008    1.6761e-009    
  -1.1            1.2222e-009     1.3453e-008     1.1527e-009    
  -1.15           1.6697e-009     7.92e-009       -1.2363e-009   
  -1.2            -1.4191e-009    4.128e-009      -1.1814e-009   
  -1.25           -2.005e-010     -1.5814e-008    1.6465e-009    
  -1.3            1.2067e-009     1.4051e-008     1.1726e-009    
  -1.35           1.6558e-009     8.028e-009      1.39e-011      
  -1.4            1.794e-009      8.889e-009      1.412e-010     
  -1.45           6.859e-010      8.733e-009      -1.2495e-009   
  -1.5            -1.7631e-009    3.614e-009      -7.821e-010    
  -1.55           -1.4884e-009    -8.565e-009     1.1821e-009    
  -1.6            -2.486e-010     -1.7247e-008    1.5419e-009    
  -1.65           1.1329e-009     1.4166e-008     1.2529e-009    
  -1.7            1.7223e-009     8.442e-009      6.18e-011      
  -1.75           1.8229e-009     8.608e-009      2.1e-010       
  -1.8            7.383e-010      8.417e-009      -1.2447e-009   
END_DB

BEGIN_DB
 ICCAP_VAR VG         -0.36          
 ICCAP_VAR VS         0              
 ICCAP_VAR VB         0.9            

 #VD              ID              IB              IG             
  0               -4.14e-010      8.257e-009      -1.352e-010    
  -0.05           1.0399e-009     -3.436e-009     2.2462e-009    
  -0.1            1.2693e-009     1.3366e-008     1.1019e-009    
  -0.15           1.0903e-009     1.4235e-008     1.2922e-009    
  -0.2            1.7402e-009     8.577e-009      1.008e-010     
  -0.25           1.8272e-009     8.691e-009      2.489e-010     
  -0.3            7.73e-010       8.349e-009      -1.2418e-009   
  -0.35           -1.6663e-009    2.968e-009      -9.126e-010    
  -0.4            -2.58e-011      -1.2711e-008    1.1807e-009    
  -0.45           -1.674e-010     -1.5286e-008    1.1852e-009    
  -0.5            9.928e-010      -3.408e-009     2.0311e-009    
  -0.55           1.2223e-009     1.1643e-008     -1.2112e-009   
