! VERSION = 6.00
BEGIN_HEADER
 ICCAP_INPUTS
  VG         V  B GROUND SMU4 0.001 LIN        2    0          -1.8       6    -0.36     
  VS         V  E GROUND SMU2 0.1 CON        0
  VD         V  S GROUND SMU1 0.1 LIN        1    0          -1.8       37   -0.05     
  VB         V  C GROUND SMU3 0.1 LIN        3    0          0.9        2    0.9       
 ICCAP_OUTPUTS
  ID         I  S GROUND SMU1 B
  IB         I  C GROUND SMU3 B
  IG         I  B GROUND SMU4 B
END_HEADER

BEGIN_DB
 ICCAP_VAR VG         0              
 ICCAP_VAR VS         0              
 ICCAP_VAR VB         0              

 #VD              ID              IB              IG             
  0               -1.0696e-009    8.678e-009      -1.2484e-009   
  -0.05           9.856e-010      -1.1362e-008    2.0429e-009    
  -0.1            1.2158e-009     1.0859e-008     -1.2416e-009   
  -0.15           -1.1507e-009    8.713e-009      -1.3926e-009   
  -0.2            -1.1871e-009    -1.0988e-008    1.1438e-009    
  -0.25           9.866e-010      -1.132e-008     2.0441e-009    
  -0.3            1.2157e-009     1.0839e-008     -1.2404e-009   
  -0.35           -1.1493e-009    8.617e-009      -1.3911e-009   
  -0.4            -1.1862e-009    -1.1004e-008    1.1444e-009    
  -0.45           9.85e-010       -1.137e-008     2.0416e-009    
  -0.5            1.2134e-009     1.0812e-008     -1.2405e-009   
  -0.55           -1.1534e-009    8.735e-009      -1.3943e-009   
  -0.6            -1.185e-009     -1.0937e-008    1.1439e-009    
  -0.65           9.843e-010      -1.1395e-008    2.0399e-009    
  -0.7            1.2158e-009     1.1868e-008     -1.2424e-009   
  -0.75           -1.1531e-009    8.612e-009      -1.3909e-009   
  -0.8            -1.1849e-009    -1.1074e-008    1.1458e-009    
  -0.85           9.835e-010      -1.136e-008     2.041e-009     
  -0.9            1.2097e-009     1.188e-008      -1.2408e-009   
  -0.95           -1.1541e-009    8.436e-009      -1.3904e-009   
  -1              9.281e-010      -9.275e-009     1.8397e-009    
  -1.05           9.863e-010      8.659e-009      -1.2502e-009   
  -1.1            -1.3948e-009    3.219e-009      -1.1576e-009   
  -1.15           -1.963e-010     -1.5619e-008    1.6321e-009    
  -1.2            1.1912e-009     1.4569e-008     1.1792e-009    
  -1.25           1.6619e-009     8.147e-009      -2.22e-011     
  -1.3            1.759e-009      8.987e-009      1.469e-010     
  -1.35           6.568e-010      8.958e-009      -1.2579e-009   
  -1.4            -1.7802e-009    2.95e-009       -7.245e-010    
  -1.45           9.812e-010      -1.1312e-008    2.0235e-009    
  -1.5            1.2005e-009     1.0658e-008     -1.2397e-009   
  -1.55           -1.1616e-009    8.248e-009      -1.3812e-009   
  -1.6            -1.1761e-009    -1.1251e-008    1.1418e-009    
  -1.65           9.801e-010      -1.1271e-008    2.0272e-009    
  -1.7            1.1969e-009     1.061e-008      -1.2424e-009   
  -1.75           -1.1646e-009    8.031e-009      -1.374e-009    
  -1.8            -1.1723e-009    -1.1389e-008    1.1394e-009    
END_DB

BEGIN_DB
 ICCAP_VAR VG         -0.36          
 ICCAP_VAR VS         0              
 ICCAP_VAR VB         0              

 #VD              ID              IB              IG             
  0               -1.0503e-009    -1.185e-008     -1.1883e-009   
  -0.05           -1.2652e-009    -1.0719e-008    1.1463e-009    
  -0.1            8.9e-012        -1.154e-008     1.1575e-009    
  -0.15           -1.731e-010     -1.3458e-008    1.153e-009     
  -0.2            -2.872e-010     -1.5705e-008    1.6528e-009    
  -0.25           1.3072e-009     1.437e-008      -1.2621e-009   
  -0.3            -1.1844e-009    2.91e-009       -1.5336e-009   
  -0.35           -2.028e-009     -9.297e-009     -2.877e-010    
  -0.4            -1.2532e-009    -1.236e-008     1.1307e-009    
  -0.45           7.44e-011       -1.0924e-008    1.1551e-009    
  -0.5            -8.14e-011      -1.2014e-008    1.1586e-009    
  -0.55           -2.471e-010     -1.4255e-008    1.1497e-009    
  -0.6            -3.587e-010     -1.6562e-008    1.5614e-009    
  -0.65           1.3165e-009     1.4684e-008     -1.2602e-009   
  -0.7            -1.2096e-009    2.907e-009      -1.5699e-009   
  -0.75           -1.3e-011       -1.1183e-008    1.159e-009     
  -0.8            -1.858e-010     -1.2915e-008    1.1588e-009    
  -0.85           -3.188e-010     -1.5201e-008    1.7008e-009    
  -0.9            1.2505e-009     1.4011e-008     -1.2634e-009   
  -0.95           -1.2412e-009    2.917e-009      -1.505e-009    
  -1              5.22e-011       -1.0946e-008    1.1546e-009    
  -1.05           -1.141e-010     -1.1866e-008    1.1586e-009    
  -1.1            -2.852e-010     -1.3903e-008    1.152e-009     
  -1.15           -3.929e-010     -1.6329e-008    1.594e-009     
  -1.2            1.2606e-009     1.4868e-008     -1.2594e-009   
  -1.25           -1.2594e-009    3.021e-009      -1.5568e-009   
  -1.3            -4.72e-011      -1.098e-008     1.1584e-009    
  -1.35           -2.244e-010     -1.2793e-008    1.1597e-009    
  -1.4            -3.636e-010     -1.4805e-008    1.7309e-009    
  -1.45           1.5222e-009     -1.212e-009     9.7e-011       
  -1.5            4.061e-010      8.785e-009      -1.2624e-009   
  -1.55           -1.2956e-009    2.979e-009      -1.5235e-009   
  -1.6            -3.74e-011      -1.0828e-008    1.157e-009     
  -1.65           -2.065e-010     -1.2142e-008    1.161e-009     
  -1.7            -3.702e-010     -1.4414e-008    1.7875e-009    
  -1.75           1.129e-009      1.3783e-008     -1.2712e-009   
  -1.8            -1.2805e-009    2.817e-009      -2.3638e-009   
END_DB

BEGIN_DB
 ICCAP_VAR VG         -0.72          
 ICCAP_VAR VS         0              
 ICCAP_VAR VB         0              

 #VD              ID              IB              IG             
  0               -1.8218e-009    -1.4494e-008    -3.326e-010    
  -0.05           -4.7769e-007    2.422e-009      1.1567e-009    
  -0.1            -6.3201e-007    -1.2845e-008    1.5544e-009    
  -0.15           -6.8585e-007    -9.28e-009      -6.99e-011     
  -0.2            -7.2368e-007    1.3604e-008     -1.424e-009    
  -0.25           -7.5775e-007    8.585e-009      2.896e-010     
  -0.3            -8.1143e-007    -1.8228e-008    1.2029e-009    
  -0.35           -8.4132e-007    -2.2074e-008    1.0857e-009    
  -0.4            -8.6703e-007    -1.1399e-008    1.7399e-009    
  -0.45           -8.9706e-007    -1.485e-008     1.3746e-009    
  -0.5            -9.0025e-007    -9.527e-009     -2.178e-010    
  -0.55           -9.1998e-007    6.58e-010       -1.2731e-009   
  -0.6            -9.6576e-007    8.541e-009      5.421e-010     
  -0.65           -9.9802e-007    -3.995e-009     1.1027e-009    
  -0.7            -1.01141e-006   -8.803e-009     9.64e-011      
  -0.75           -1.0279e-006    9.56e-009       -1.5761e-009   
  -0.8            -1.05045e-006   1.4961e-008     1.5621e-009    
  -0.85           -1.10512e-006   -1.5195e-008    1.3475e-009    
  -0.9            -1.10053e-006   -9.494e-009     -2.27e-010     
  -0.95           -1.11571e-006   8.34e-010       -1.2723e-009   
  -1              -1.1442e-006    -5.597e-009     -1.3708e-009   
  -1.05           -1.1755e-006    5.553e-009      -1.7942e-009   
  -1.1            -1.2149e-006    1.3231e-008     1.2621e-009    
  -1.15           -1.2537e-006    -1.3174e-008    1.1525e-009    
  -1.2            -1.2845e-006    -1.1022e-008    1.1556e-009    
  -1.25           -1.309e-006     -2.2565e-008    1.0789e-009    
  -1.3            -1.3271e-006    -1.1013e-008    1.1515e-009    
  -1.35           -1.3513e-006    -1.1067e-008    1.7968e-009    
  -1.4            -1.3788e-006    -1.2752e-008    1.5826e-009    
  -1.45           -1.3933e-006    -8.833e-009     8.27e-011      
  -1.5            -1.4017e-006    7.153e-009      -1.7119e-009   
  -1.55           -1.4432e-006    1.3878e-008     1.333e-009     
  -1.6            -1.486e-006     -1.0939e-008    1.1575e-009    
  -1.65           -1.5146e-006    -1.1138e-008    1.1567e-009    
  -1.7            -1.5389e-006    -1.1343e-008    1.7614e-009    
  -1.75           -1.5714e-006    -1.2919e-008    1.5543e-009    
  -1.8            -1.5876e-006    -8.873e-009     6.65e-011      
END_DB

BEGIN_DB
 ICCAP_VAR VG         -1.08          
 ICCAP_VAR VS         0              
 ICCAP_VAR VB         0              

 #VD              ID              IB              IG             
  0               -7.0953e-008    1.3059e-008     1.081e-010     
  -0.05           -2.1314e-005    -1.5291e-008    3.764e-010     
  -0.1            -3.6967e-005    -3.953e-009     1.1005e-009    
  -0.15           -4.7789e-005    -9.481e-009     -1.47e-010     
  -0.2            -5.5004e-005    2.153e-009      -1.2646e-009   
  -0.25           -6.0797e-005    1.0603e-008     9.042e-010     
  -0.3            -6.4331e-005    -1.0812e-008    1.1571e-009    
  -0.35           -6.7196e-005    -1.5231e-008    1.348e-009     
  -0.4            -6.9513e-005    -1.0621e-008    1.1575e-009    
  -0.45           -7.1349e-005    -1.3975e-008    1.442e-009     
  -0.5            -7.3115e-005    -1.0262e-008    1.1578e-009    
  -0.55           -7.4519e-005    -1.2833e-008    1.5411e-009    
  -0.6            -7.6015e-005    -9.489e-009     1.1581e-009    
  -0.65           -7.7208e-005    -1.1864e-008    1.6623e-009    
  -0.7            -7.811e-005     -9.431e-009     -2.664e-010    
  -0.75           -7.9004e-005    2.377e-009      -1.2615e-009   
  -0.8            -8.1e-005       1.1427e-008     1.0081e-009    
  -0.85           -8.2021e-005    -1.1022e-008    1.1588e-009    
  -0.9            -8.2995e-005    -1.2882e-008    1.5368e-009    
  -0.95           -8.4155e-005    -9.597e-009     1.1572e-009    
  -1              -8.5023e-005    -1.1985e-008    1.64e-009      
  -1.05           -8.5655e-005    -9.427e-009     -2.418e-010    
  -1.1            -8.6293e-005    2.514e-009      -1.2614e-009   
  -1.15           -8.8212e-005    1.1449e-008     1.0125e-009    
  -1.2            -8.9048e-005    -1.0924e-008    1.1582e-009    
  -1.25           -8.9867e-005    -1.312e-008     1.5252e-009    
  -1.3            -9.0896e-005    -9.882e-009     1.1575e-009    
  -1.35           -9.1649e-005    -1.1937e-008    1.6292e-009    
  -1.4            -9.2675e-005    -1.1454e-008    1.1546e-009    
  -1.45           -9.3437e-005    -1.2487e-008    1.5713e-009    
  -1.5            -9.4455e-005    -1.102e-008     1.1582e-009    
  -1.55           -9.5197e-005    -1.3208e-008    1.5149e-009    
  -1.6            -9.6156e-005    -9.694e-009     1.1564e-009    
  -1.65           -9.6873e-005    -1.2018e-008    1.6187e-009    
  -1.7            -9.728e-005     -9.358e-009     -2.503e-010    
  -1.75           -9.7748e-005    2.604e-009      -1.2601e-009   
  -1.8            -9.9622e-005    1.1784e-008     1.0364e-009    
END_DB

BEGIN_DB
 ICCAP_VAR VG         -1.44          
 ICCAP_VAR VS         0              
 ICCAP_VAR VB         0              

 #VD              ID              IB              IG             
  0               -1.16745e-007   -1.4063e-008    -1.3125e-009   
  -0.05           -5.8959e-005    -3.073e-009     -1.2436e-009   
  -0.1            -0.000112011    1.4858e-008     1.507e-009     
  -0.15           -0.00015894     -1.2755e-008    6.4e-011       
  -0.2            -0.00019928     1.0372e-008     -1.531e-009    
  -0.25           -0.00023399     7.963e-009      1.82e-010      
  -0.3            -0.00026366     -1.5859e-008    1.3213e-009    
  -0.35           -0.00028764     -1.1451e-008    1.1559e-009    
  -0.4            -0.00030649     -9.567e-009     -3.564e-010    
  -0.45           -0.00032192     2.41e-009       -1.2653e-009   
  -0.5            -0.0003363      8.612e-009      7.087e-010     
  -0.55           -0.00034686     -5.723e-009     1.1289e-009    
  -0.6            -0.00035563     -1.206e-008     1.1536e-009    
  -0.65           -0.00036244     -9.662e-009     -3.301e-010    
  -0.7            -0.00036845     1.946e-009      -1.266e-009    
  -0.75           -0.00037592     8.511e-009      6.525e-010     
  -0.8            -0.00038118     -5.102e-009     1.1217e-009    
  -0.85           -0.00038554     -9.176e-009     -4.93e-011     
  -0.9            -0.00038897     1.3109e-008     -1.4288e-009   
  -0.95           -0.00039347     8.479e-009      2.725e-010     
  -1              -0.00039868     -1.8115e-008    1.2173e-009    
  -1.05           -0.00040231     -1e-008         1.157e-009     
  -1.1            -0.00040597     -1.0552e-008    1.156e-009     
  -1.15           -0.0004091      -1.1188e-008    1.7299e-009    
  -1.2            -0.0004125      -1.4932e-008    1.3747e-009    
  -1.25           -0.00041497     -9.437e-009     -2.036e-010    
  -1.3            -0.00041728     5.62e-010       -1.2755e-009   
  -1.35           -0.00042184     8.481e-009      5.293e-010     
  -1.4            -0.00042493     -2.3071e-008    1.0779e-009    
  -1.45           -0.00042759     -1.2443e-008    1.5859e-009    
  -1.5            -0.00043015     -9.118e-009     -3.94e-011     
  -1.55           -0.00043181     1.2778e-008     -1.4434e-009   
  -1.6            -0.00043491     8.442e-009      2.621e-010     
  -1.65           -0.00043888     -1.78e-008      1.2301e-009    
  -1.7            -0.00044137     -2.2049e-008    1.0938e-009    
  -1.75           -0.00044358     -1.0947e-008    1.1475e-009    
  -1.8            -0.00044619     -1.2502e-008    1.5815e-009    
END_DB

BEGIN_DB
 ICCAP_VAR VG         -1.8           
 ICCAP_VAR VS         0              
 ICCAP_VAR VB         0              

 #VD              ID              IB              IG             
  0               7.5727e-007     -3.262e-009     2.3154e-009    
  -0.05           -8.7016e-005    1.0008e-008     -1.916e-009    
  -0.1            -0.00016967     1.1963e-008     2.0068e-009    
  -0.15           -0.00024752     -1.1806e-008    1.663e-009     
  -0.2            -0.00032039     -1.5945e-008    1.3315e-009    
  -0.25           -0.00038798     -1.1768e-008    1.152e-009     
  -0.3            -0.00044968     -9.591e-009     -3.559e-010    
  -0.35           -0.00050599     2.441e-009      -1.2631e-009   
  -0.4            -0.00055772     8.506e-009      6.783e-010     
  -0.45           -0.00060308     -5.792e-009     1.1237e-009    
  -0.5            -0.00064337     -1.2265e-008    1.1526e-009    
  -0.55           -0.00067756     -9.622e-009     -3.192e-010    
  -0.6            -0.00070767     2.145e-009      -1.2646e-009   
  -0.65           -0.0007354      8.589e-009      6.444e-010     
  -0.7            -0.0007582      -5.33e-009      1.1186e-009    
  -0.75           -0.00077729     -9.053e-009     -5.2e-011      
  -0.8            -0.00079316     1.3564e-008     -1.436e-009    
  -0.85           -0.0008083      8.479e-009      2.638e-010     
  -0.9            -0.00082254     -1.8288e-008    1.2278e-009    
  -0.95           -0.00083388     -9.869e-009     1.155e-009     
  -1              -0.00084436     -2.2855e-008    1.075e-009     
  -1.05           -0.00085315     -1.3079e-008    1.5628e-009    
  -1.1            -0.0008611      -9.209e-009     -6.39e-011     
  -1.15           -0.00086787     1.373e-008      -1.4298e-009   
  -1.2            -0.00087542     8.481e-009      2.789e-010     
  -1.25           -0.00088378     -1.8515e-008    1.2234e-009    
  -1.3            -0.00089038     -2.1982e-008    1.0933e-009    
  -1.35           -0.00089578     -1.1192e-008    1.7426e-009    
  -1.4            -0.000902       -1.4864e-008    1.3967e-009    
  -1.45           -0.00090673     -9.376e-009     -1.995e-010    
  -1.5            -0.00091111     4.48e-010       -1.2787e-009   
  -1.55           -0.00091786     8.796e-009      5.278e-010     
  -1.6            -0.00092314     -2.275e-008     1.0788e-009    
  -1.65           -0.00092779     -1.2426e-008    1.6082e-009    
  -1.7            -0.00093216     -1.5885e-008    1.1327e-009    
  -1.75           -0.00093726     -1.127e-008     1.1537e-009    
  -1.8            -0.00094014     -9.485e-009     -3.9e-010      
END_DB

BEGIN_DB
 ICCAP_VAR VG         0              
 ICCAP_VAR VS         0              
 ICCAP_VAR VB         0.9            

 #VD              ID              IB              IG             
  0               -1.2023e-009    7.54e-009       -1.2664e-009   
  -0.05           9.175e-010      -6.828e-009     1.7339e-009    
  -0.1            8.476e-010      8.532e-009      -1.2573e-009   
  -0.15           -1.5774e-009    1.842e-009      -9.567e-010    
  -0.2            -6.48e-011      -1.3078e-008    1.1584e-009    
  -0.25           -1.815e-010     -1.5588e-008    1.6652e-009    
  -0.3            1.2201e-009     1.3688e-008     1.1433e-009    
  -0.35           1.069e-009      1.4688e-008     1.3178e-009    
  -0.4            1.7167e-009     8.509e-009      7.58e-011      
  -0.45           1.8059e-009     8.815e-009      2.204e-010     
  -0.5            7.303e-010      8.583e-009      -1.2615e-009   
  -0.55           -1.7048e-009    2.679e-009      -8.089e-010    
  -0.6            6.73e-011       -1.1346e-008    1.1546e-009    
  -0.65           -9.37e-011      -1.3551e-008    1.1503e-009    
  -0.7            -2.025e-010     -1.6443e-008    1.6126e-009    
  -0.75           1.1861e-009     1.407e-008      1.1802e-009    
  -0.8            1.6468e-009     7.821e-009      -1.2515e-009   
  -0.85           -1.4095e-009    2.638e-009      -1.1103e-009   
  -0.9            -1.668e-010     -1.5151e-008    1.6851e-009    
  -0.95           1.2346e-009     1.3792e-008     1.1126e-009    
  -1              1.091e-009      1.4892e-008     1.2916e-009    
  -1.05           1.7069e-009     8.436e-009      5.08e-011      
  -1.1            1.7956e-009     8.733e-009      2.068e-010     
  -1.15           7.147e-010      8.668e-009      -1.2632e-009   
  -1.2            -1.7259e-009    2.787e-009      -7.85e-010     
  -1.25           9.829e-010      -1.1162e-008    2.0485e-009    
  -1.3            1.2241e-009     1.0585e-008     -1.2379e-009   
  -1.35           -1.1545e-009    8.308e-009      -1.3805e-009   
  -1.4            -1.1733e-009    -1.1228e-008    1.1375e-009    
  -1.45           9.734e-010      -1.0961e-008    2.0067e-009    
  -1.5            1.1877e-009     1.0121e-008     -1.2428e-009   
  -1.55           -1.179e-009     6.959e-009      -1.3503e-009   
  -1.6            -1.1499e-009    -1.1831e-008    1.1297e-009    
  -1.65           9.63e-010       -1.052e-008     1.9794e-009    
  -1.7            1.1551e-009     9.585e-009      -1.2439e-009   
  -1.75           -1.2151e-009    5.931e-009      -1.3157e-009   
  -1.8            9.194e-010      -7.626e-009     1.7559e-009    
END_DB

BEGIN_DB
 ICCAP_VAR VG         -0.36          
 ICCAP_VAR VS         0              
 ICCAP_VAR VB         0.9            

 #VD              ID              IB              IG             
  0               -1.0533e-009    -1.1087e-008    -1.1945e-009   
  -0.05           -1.1667e-009    -1.1442e-008    1.1351e-009    
  -0.1            9.707e-010      -1.1007e-008    1.9968e-009    
  -0.15           1.1762e-009     1.1118e-008     -1.2439e-009   
  -0.2            -1.191e-009     6.549e-009      -1.3421e-009   
  -0.25           -1.8614e-009    -9.515e-009     3.43e-011      
  -0.3            -4.31e-011      -1.2717e-008    1.1543e-009    
  -0.35           -1.575e-010     -1.5158e-008    1.704e-009     
  -0.4            9.36e-010       -1.586e-009     1.8669e-009    
  -0.45           1.0255e-009     9.379e-009      -1.251e-009    
  -0.5            -1.3543e-009    3.597e-009      -1.1853e-009   
  -0.55           -1.0441e-009    -1.6521e-008    1.0981e-009    
