! VERSION = 6.00
BEGIN_HEADER
 ICCAP_INPUTS
  VG         V  B GROUND SMU4 0.001 LIN        1    0          -1.8       37   -0.05     
  VS         V  E GROUND SMU2 0.1 CON        0
  VB         V  C GROUND SMU3 0.1 LIN        3    0          1.8        3    0.9       
  VD         V  S GROUND SMU1 0.1 LIN        2    -0.1       -1.8       2    -1.7      
 ICCAP_OUTPUTS
  IG         I  B GROUND SMU4 B
  ID         I  S GROUND SMU1 B
  IB         I  C GROUND SMU3 B
END_HEADER

BEGIN_DB
 ICCAP_VAR VS         0              
 ICCAP_VAR VB         0              
 ICCAP_VAR VD         -0.1           

 #VG              IG              ID              IB             
  0               -1.3763e-009    -1.31e-009      1.0924e-008    
  -0.05           -2.066e-010     -2.1213e-009    -1.1188e-008   
  -0.1            -4.006e-010     -2.1756e-009    -1.1376e-008   
  -0.15           2.4465e-009     -1.3692e-009    -2.3885e-008   
  -0.2            1.1782e-009     2.1625e-009     -2.855e-009    
  -0.25           -2.49e-010      1.935e-009      1.0495e-008    
  -0.3            -1.5785e-009    8.681e-010      2.3973e-008    
  -0.35           -1.7068e-009    -1.4768e-009    6.355e-009     
  -0.4            -3.071e-010     -2.1547e-009    -1.1323e-008   
  -0.45           2.5497e-009     -1.3056e-009    -2.5259e-008   
  -0.5            1.1104e-009     2.22e-009       -1.998e-009    
  -0.55           1.2692e-009     2.0744e-009     1.1327e-008    
  -0.6            1.436e-009      1.8831e-009     1.1976e-008    
  -0.65           1.4e-012        2.0462e-009     1.0646e-008    
  -0.7            1.877e-010      2.1306e-009     1.0627e-008    
  -0.75           3.759e-010      2.1847e-009     1.082e-008     
  -0.8            5.645e-010      2.1454e-009     9.988e-009     
  -0.85           -1.3679e-009    7.441e-010      9.718e-009     
  -0.9            -2.6849e-009    -2.512e-009     8.992e-009     
  -0.95           2.5795e-009     -5.4548e-009    -2.5531e-008   
  -1              2.3418e-009     -8.3937e-009    -1.694e-009    
  -1.05           -2.5465e-009    -1.7947e-008    -2.6217e-008   
  -1.1            -2.043e-009     -2.9143e-008    4.67e-010      
  -1.15           2.5249e-009     -4.2389e-008    -2.6368e-008   
  -1.2            1.868e-009      -5.6817e-008    -1.97e-009     
  -1.25           1.3701e-009     -7.5074e-008    -8.091e-009    
  -1.3            2.8183e-009     -9.4515e-008    -9.403e-009    
  -1.35           1.0412e-009     -1.1411e-007    -1.0541e-008   
  -1.4            1.6745e-009     -1.3608e-007    -1.9215e-008   
  -1.45           2.7297e-009     -1.5556e-007    -8.829e-009    
  -1.5            7.883e-010      -1.7481e-007    1.0443e-008    
  -1.55           1.149e-009      -1.9491e-007    8.768e-009     
  -1.6            1.5602e-009     -2.1548e-007    1.0565e-008    
  -1.65           1.9964e-009     -2.3667e-007    1.2142e-008    
  -1.7            8.398e-010      -2.56e-007      9.953e-009     
  -1.75           1.2e-009        -2.7518e-007    8.827e-009     
  -1.8            5.1e-012        -2.9574e-007    1.0526e-008    
END_DB

BEGIN_DB
 ICCAP_VAR VS         0              
 ICCAP_VAR VB         0              
 ICCAP_VAR VD         -1.8           

 #VG              IG              ID              IB             
  0               1.276e-009      1.3423e-009     -1.1427e-008   
  -0.05           1.2585e-009     2.0815e-009     1.1211e-008    
  -0.1            1.4305e-009     1.8916e-009     1.2016e-008    
  -0.15           -1.12e-011      2.0424e-009     1.0505e-008    
  -0.2            -1.4251e-009    1.0363e-009     2.6595e-008    
  -0.25           -9.923e-010     -2.1767e-009    8.251e-009     
  -0.3            1.5246e-009     -1.7068e-009    -1.2203e-008   
  -0.35           8.511e-010      2.3083e-009     -8.735e-009    
  -0.4            9.877e-010      2.2806e-009     8.747e-009     
  -0.45           1.1333e-009     2.1929e-009     9.452e-009     
  -0.5            1.2942e-009     2.0495e-009     1.0411e-008    
  -0.55           1.4696e-009     1.8525e-009     1.1681e-008    
  -0.6            2e-011          2.0593e-009     1.0529e-008    
  -0.65           -1.4164e-009    1.06e-009       2.6837e-008    
  -0.7            -1.021e-009     -2.1672e-009    8.441e-009     
  -0.75           1.4876e-009     -1.0154e-009    -2.5039e-008   
  -0.8            8.745e-010      2.1663e-009     -8.748e-009    
  -0.85           -1.3135e-009    9.949e-010      8.876e-009     
  -0.9            -2.5851e-009    -2.5158e-009    8.969e-009     
  -0.95           -2.4474e-009    -5.2419e-009    1.98e-010      
  -1              -1.8096e-009    -1.2071e-008    -8.65e-009     
  -1.05           -7.464e-010     -2.2141e-008    -1.1283e-008   
  -1.1            1.5998e-009     -3.6449e-008    -1.6843e-008   
  -1.15           2.7471e-009     -5.6026e-008    -8.773e-009    
  -1.2            8.324e-010      -8.3542e-008    9.856e-009     
  -1.25           1.9252e-009     -1.2102e-007    -2.6095e-008   
  -1.3            7.59e-010       -1.6591e-007    1.028e-008     
  -1.35           1.1186e-009     -2.1986e-007    8.644e-009     
  -1.4            1.53e-009       -2.8272e-007    1.0319e-008    
  -1.45           1.9634e-009     -3.5427e-007    1.2611e-008    
  -1.5            8.006e-010      -4.3347e-007    1.0412e-008    
  -1.55           1.1591e-009     -5.2253e-007    8.631e-009     
  -1.6            1.5809e-009     -6.1986e-007    1.0603e-008    
  -1.65           2.0102e-009     -7.2491e-007    1.2588e-008    
  -1.7            8.402e-010      -8.3755e-007    1.0372e-008    
  -1.75           1.199e-009      -9.6027e-007    8.731e-009     
  -1.8            3.1e-012        -1.08737e-006   1.0526e-008    
END_DB

BEGIN_DB
 ICCAP_VAR VS         0              
 ICCAP_VAR VB         0.9            
 ICCAP_VAR VD         -0.1           

 #VG              IG              ID              IB             
  0               -1.4799e-009    -1.6279e-009    -4.85e-009     
  -0.05           2.5431e-009     -1.3107e-009    -2.5312e-008   
  -0.1            1.1226e-009     2.2176e-009     -2.061e-009    
  -0.15           1.275e-009      2.0642e-009     1.0362e-008    
  -0.2            1.447e-009      1.8766e-009     1.1564e-008    
  -0.25           7.3e-012        2.0503e-009     1.0565e-008    
  -0.3            -1.4155e-009    1.0467e-009     2.6844e-008    
  -0.35           -1.0116e-009    -2.1684e-009    8.304e-009     
  -0.4            1.499e-009      -9.681e-010     -2.4832e-008   
  -0.45           8.623e-010      2.3063e-009     -8.704e-009    
  -0.5            1.0057e-009     2.2768e-009     8.811e-009     
  -0.55           1.1525e-009     2.1808e-009     9.547e-009     
  -0.6            1.3146e-009     2.0337e-009     1.0531e-008    
  -0.65           1.4848e-009     1.8221e-009     1.1823e-008    
  -0.7            4.37e-011       2.0675e-009     1.0556e-008    
  -0.75           2.28e-010       2.1547e-009     1.0787e-008    
  -0.8            4.198e-010      2.225e-009      1.0742e-008    
  -0.85           5.984e-010      2.2797e-009     1.0192e-008    
  -0.9            7.621e-010      2.3015e-009     9.533e-009     
  -0.95           9.08e-010       2.2742e-009     8.861e-009     
  -1              -1.305e-009     1.4347e-009     9.07e-009      
  -1.05           -2.3299e-009    -1.603e-009     9.81e-009      
  -1.1            2.2552e-009     -3.1591e-009    -2.1165e-008   
  -1.15           1.9589e-009     -4.0606e-009    -4.642e-009    
  -1.2            -1.9542e-009    -1.1669e-008    -2.0891e-008   
  -1.25           2.4515e-009     -2.012e-008     -2.6962e-008   
  -1.3            1.7688e-009     -3.0576e-008    -2.739e-009    
  -1.35           2.6845e-009     -4.5664e-008    -8.555e-009    
  -1.4            1.7767e-009     -6.0927e-008    1.213e-008     
  -1.45           6.187e-010      -7.9255e-008    1.0892e-008    
  -1.5            9.993e-010      -9.7495e-008    9.165e-009     
  -1.55           2.1193e-009     -1.1764e-007    -2.3144e-008   
  -1.6            9.379e-010      -1.3595e-007    9.853e-009     
  -1.65           1.3134e-009     -1.5481e-007    9.21e-009      
  -1.7            1.7482e-009     -1.7447e-007    1.2148e-008    
  -1.75           5.931e-010      -1.9391e-007    1.0802e-008    
  -1.8            9.729e-010      -2.1214e-007    9.414e-009     
END_DB

BEGIN_DB
 ICCAP_VAR VS         0              
 ICCAP_VAR VB         0.9            
 ICCAP_VAR VD         -1.8           

 #VG              IG              ID              IB             
  0               -1.1589e-009    -1.0772e-009    1.1337e-008    
  -0.05           -1.0265e-009    -2.1654e-009    7.44e-010      
  -0.1            1.4701e-009     -9.895e-010     -2.5214e-008   
  -0.15           8.772e-010      2.304e-009      -8.684e-009    
  -0.2            1.0195e-009     2.265e-009      9.085e-009     
  -0.25           1.1674e-009     2.1636e-009     1.0671e-008    
  -0.3            1.329e-009      2.0101e-009     1.1727e-008    
  -0.35           1.5031e-009     1.8003e-009     1.2093e-008    
  -0.4            -1.82e-010      1.9636e-009     1.2416e-008    
  -0.45           -1.5121e-009    9.107e-010      2.5187e-008    
  -0.5            -1.7505e-009    -1.4024e-009    7.1e-009       
  -0.55           -3.854e-010     -2.1662e-009    -1.1441e-008   
  -0.6            2.4859e-009     -1.3565e-009    -2.4346e-008   
  -0.65           1.1571e-009     2.185e-009      -2.57e-009     
  -0.7            1.3178e-009     2.0191e-009     1.1724e-008    
  -0.75           1.4925e-009     1.8112e-009     1.2118e-008    
  -0.8            5.63e-011       2.0683e-009     1.0517e-008    
  -0.85           2.422e-010      2.1554e-009     1.0827e-008    
  -0.9            4.217e-010      2.2205e-009     1.0697e-008    
  -0.95           6.035e-010      2.257e-009      1.0103e-008    
  -1              7.676e-010      2.1857e-009     9.409e-009     
  -1.05           -1.3357e-009    9.181e-010      8.758e-009     
  -1.1            -2.6401e-009    -2.6493e-009    8.155e-009     
  -1.15           2.3103e-009     -6.4712e-009    -2.1961e-008   
  -1.2            -2.0825e-009    -1.2954e-008    -2.2911e-008   
  -1.25           2.5625e-009     -2.393e-008     -2.6497e-008   
  -1.3            1.9052e-009     -4.0147e-008    -1.922e-009    
  -1.35           1.3814e-009     -6.5411e-008    -7.58e-009     
  -1.4            2.8058e-009     -9.8456e-008    -8.937e-009    
  -1.45           2.1937e-009     -1.4019e-007    -5.467e-009    
  -1.5            1.5364e-009     -1.8818e-007    -5.084e-009    
  -1.55           2.753e-009      -2.4586e-007    -8.662e-009    
  -1.6            8.65e-010       -3.0989e-007    9.747e-009     
  -1.65           1.2277e-009     -3.8434e-007    8.911e-009     
  -1.7            4.06e-011       -4.6595e-007    1.0613e-008    
  -1.75           4.996e-010      -5.563e-007     1.077e-008     
  -1.8            8.995e-010      -6.5497e-007    9.57e-009      
END_DB

BEGIN_DB
 ICCAP_VAR VS         0              
 ICCAP_VAR VB         1.8            
 ICCAP_VAR VD         -0.1           

 #VG              IG              ID              IB             
  0               1.575e-010      3.597e-010      1.1994e-008    
  -0.05           2.5193e-009     -4.437e-010     -1.6986e-008   
  -0.1            1.1286e-009     2.206e-009      -2.286e-009    
  -0.15           1.2866e-009     2.0571e-009     1.0331e-008    
  -0.2            1.4616e-009     1.8582e-009     1.1252e-008    
  -0.25           2.02e-011       2.0588e-009     1.0529e-008    
  -0.3            2.015e-010      2.1409e-009     1.0646e-008    
  -0.35           3.828e-010      2.2093e-009     1.0703e-008    
  -0.4            5.674e-010      2.2678e-009     9.966e-009     
  -0.45           7.326e-010      2.3012e-009     9.419e-009     
  -0.5            8.814e-010      2.303e-009      8.758e-009     
  -0.55           1.0215e-009     2.2634e-009     9.143e-009     
  -0.6            1.1687e-009     2.1701e-009     1.0645e-008    
  -0.65           1.3296e-009     2.0105e-009     1.1765e-008    
  -0.7            1.5022e-009     1.8e-009        1.2163e-008    
  -0.75           5.81e-011       2.0752e-009     1.0635e-008    
  -0.8            2.433e-010      2.1632e-009     1.0826e-008    
  -0.85           4.264e-010      2.2311e-009     1.0744e-008    
  -0.9            6.054e-010      2.2854e-009     1.0181e-008    
  -0.95           7.732e-010      2.3086e-009     9.455e-009     
  -1              9.132e-010      2.3001e-009     8.782e-009     
  -1.05           1.0564e-009     2.248e-009      9.515e-009     
  -1.1            1.2068e-009     2.1042e-009     1.0979e-008    
  -1.15           -2.297e-010     1.8238e-009     1.053e-008     
  -1.2            -1.5491e-009    3.45e-010       2.4421e-008    
  -1.25           -1.4373e-009    -2.3046e-009    6.62e-009      
  -1.3            -1.3917e-009    -5.46e-009      8.105e-009     
  -1.35           -2.4836e-009    -1.2626e-008    -1.6632e-008   
  -1.4            1.5965e-009     -2.1971e-008    -1.6889e-008   
  -1.45           2.7391e-009     -3.2139e-008    -8.731e-009    
  -1.5            8.218e-010      -4.5217e-008    1.0275e-008    
  -1.55           1.1823e-009     -6.0767e-008    8.741e-009     
  -1.6            -1.5e-011       -7.9197e-008    1.0516e-008    
  -1.65           -1.372e-009     -9.7967e-008    2.6639e-008    
  -1.7            2.4226e-009     -1.1516e-007    -1.3526e-008   
  -1.75           1.2993e-009     -1.3137e-007    9.528e-009     
  -1.8            1.7233e-009     -1.4988e-007    1.1962e-008    
END_DB

BEGIN_DB
 ICCAP_VAR VS         0              
 ICCAP_VAR VB         1.8            
 ICCAP_VAR VD         -1.8           

 #VG              IG              ID              IB             
  0               2.778e-010      -6.812e-010     -2.2157e-008   
  -0.05           2.6841e-009     -2.928e-010     -1.6538e-008   
  -0.1            1.2233e-009     2.1272e-009     9.94e-009      
  -0.15           -2.134e-010     1.9574e-009     1.056e-008     
  -0.2            -1.5341e-009    8.871e-010      2.4685e-008    
  -0.25           -1.7262e-009    -1.4315e-009    6.701e-009     
  -0.3            -3.391e-010     -2.1587e-009    -1.1424e-008   
  -0.35           2.5342e-009     -1.3219e-009    -2.5149e-008   
  -0.4            1.1284e-009     2.2107e-009     -2.195e-009    
  -0.45           1.2824e-009     2.0676e-009     1.1485e-008    
  -0.5            1.4553e-009     1.8681e-009     1.1991e-008    
  -0.55           5.3e-012        2.0457e-009     1.061e-008     
  -0.6            1.865e-010      2.1361e-009     1.0731e-008    
  -0.65           3.718e-010      2.2077e-009     1.0798e-008    
  -0.7            5.583e-010      2.2635e-009     1.0052e-008    
  -0.75           7.244e-010      2.3044e-009     9.529e-009     
  -0.8            8.759e-010      2.3067e-009     8.831e-009     
  -0.85           1.0168e-009     2.2742e-009     8.892e-009     
  -0.9            1.1616e-009     2.1733e-009     9.648e-009     
  -0.95           1.3172e-009     2.0212e-009     1.0568e-008    
  -1              1.4911e-009     1.8155e-009     1.1873e-008    
  -1.05           5.16e-011       2.064e-009      1.0581e-008    
  -1.1            2.39e-010       2.1331e-009     1.0807e-008    
  -1.15           4.218e-010      2.0972e-009     1.0684e-008    
  -1.2            -1.3891e-009    5.894e-010      1.0189e-008    
  -1.25           -1.3613e-009    -2.1512e-009    8.797e-009     
  -1.3            -1.3331e-009    -5.6264e-009    8.901e-009     
  -1.35           1.6398e-009     -1.3139e-008    9.765e-009     
  -1.4            2.7239e-009     -2.4538e-008    -8.835e-009    
  -1.45           7.898e-010      -4.1966e-008    1.0444e-008    
  -1.5            1.1496e-009     -6.7564e-008    8.754e-009     
  -1.55           1.5616e-009     -1.01127e-007   1.0568e-008    
  -1.6            2.1877e-009     -1.4336e-007    -2.1021e-008   
  -1.65           1.0071e-009     -1.9161e-007    9.352e-009     
  -1.7            1.398e-009      -2.4884e-007    1.05e-008      
  -1.75           1.8232e-009     -3.143e-007     1.2401e-008    
  -1.8            6.727e-010      -3.8646e-007    1.0705e-008    
END_DB

