! VERSION = 6.00
BEGIN_HEADER
 ICCAP_INPUTS
  VG         V  B GROUND SMU4 0.001 LIN        2    0          -1.8       6    -0.36     
  VS         V  E GROUND SMU2 0.1 CON        0
  VD         V  S GROUND SMU1 0.1 LIN        1    0          -1.8       37   -0.05     
  VB         V  C GROUND SMU3 0.1 LIN        3    0          0.9        2    0.9       
 ICCAP_OUTPUTS
  ID         I  S GROUND SMU1 B
  IB         I  C GROUND SMU3 B
  IG         I  B GROUND SMU4 B
END_HEADER

BEGIN_DB
 ICCAP_VAR VG         0              
 ICCAP_VAR VS         0              
 ICCAP_VAR VB         0              

 #VD              ID              IB              IG             
  0               -1.0459e-009    8.841e-009      -1.2388e-009   
  -0.05           9.559e-010      -1.1289e-008    1.9637e-009    
  -0.1            1.1291e-009     1.0444e-008     -1.2377e-009   
  -0.15           -1.2042e-009    6.244e-009      -1.2911e-009   
  -0.2            -1.8119e-009    -9.334e-009     1.233e-010     
  -0.25           6.24e-011       -1.2897e-008    1.1574e-009    
  -0.3            -8.5e-011       -1.4837e-008    1.1583e-009    
  -0.35           -2.211e-010     -1.6539e-008    1.5908e-009    
  -0.4            9.419e-010      -2.172e-009     1.9081e-009    
  -0.45           1.0715e-009     9.823e-009      -1.24e-009     
  -0.5            -1.2714e-009    4.807e-009      -1.2302e-009   
  -0.55           -1.7724e-009    -9.127e-009     2.038e-010     
  -0.6            9.777e-010      -1.2151e-008    2.0248e-009    
  -0.65           1.1966e-009     1.0335e-008     -1.2346e-009   
  -0.7            -1.136e-009     8.243e-009      -1.3543e-009   
  -0.75           -1.8537e-009    -9.804e-009     2.17e-011      
  -0.8            -1.897e-009     -9.644e-009     -1.556e-010    
  -0.85           -1.0572e-009    -1.5182e-008    1.0998e-009    
  -0.9            9.307e-010      -1.0109e-008    1.8707e-009    
  -0.95           1.0213e-009     9.249e-009      -1.2399e-009   
  -1              -1.329e-009     3.738e-009      -1.1713e-009   
  -1.05           -1.7323e-009    -8.927e-009     2.735e-010     
  -1.1            -1.8221e-009    -9.445e-009     1.032e-010     
  -1.15           4.65e-011       -1.2875e-008    1.1586e-009    
  -1.2            -1.027e-010     -1.4858e-008    1.7908e-009    
  -1.25           1.3165e-009     1.3432e-008     1.0317e-009    
  -1.3            1.1533e-009     1.4332e-008     1.2039e-009    
  -1.35           1.6564e-009     7.797e-009      -3.3e-011      
  -1.4            1.7383e-009     8.789e-009      1.164e-010     
  -1.45           6.331e-010      8.734e-009      -1.2413e-009   
  -1.5            -1.7596e-009    3.226e-009      -6.616e-010    
  -1.55           9.636e-010      -1.1441e-008    1.9807e-009    
  -1.6            1.1484e-009     1.08e-008       -1.2375e-009   
  -1.65           -1.1876e-009    6.565e-009      -1.3084e-009   
  -1.7            -1.8458e-009    -9.506e-009     1.048e-010     
  -1.75           1.4e-011        -1.2951e-008    1.1552e-009    
  -1.8            -1.032e-010     -1.5068e-008    1.786e-009     
END_DB

BEGIN_DB
 ICCAP_VAR VG         -0.36          
 ICCAP_VAR VS         0              
 ICCAP_VAR VB         0              

 #VD              ID              IB              IG             
  0               -1.034e-009     -1.1886e-008    -1.2077e-009   
  -0.05           9.033e-010      -5.262e-009     1.6578e-009    
  -0.1            7.538e-010      8.861e-009      -1.2394e-009   
  -0.15           -1.6436e-009    2.538e-009      -8.379e-010    
  -0.2            7.1e-011        -1.2759e-008    1.1554e-009    
  -0.25           -8.29e-011      -1.4846e-008    1.1518e-009    
  -0.3            -1.907e-010     -1.6805e-008    1.6008e-009    
  -0.35           1.1755e-009     1.4199e-008     1.1738e-009    
  -0.4            1.0343e-009     1.5052e-008     1.3507e-009    
  -0.45           1.6861e-009     8.693e-009      1.244e-010     
  -0.5            1.8183e-009     8.854e-009      1.896e-010     
  -0.55           7.491e-010      8.77e-009       -1.2364e-009   
  -0.6            -1.6385e-009    2.582e-009      -8.386e-010    
  -0.65           9.864e-010      -1.2582e-008    2.0747e-009    
  -0.7            1.2305e-009     1.1902e-008     -1.2331e-009   
  -0.75           -1.1114e-009    9.467e-009      -1.3955e-009   
  -0.8            -1.1643e-009    -1.091e-008     1.1349e-009    
  -0.85           9.712e-010      -1.2004e-008    2.0149e-009    
  -0.9            1.1853e-009     1.0032e-008     -1.2341e-009   
  -0.95           -1.1557e-009    7.814e-009      -1.3512e-009   
  -1              -1.844e-009     -9.591e-009     4.19e-011      
  -1.05           -6.4e-012       -1.372e-008     1.1584e-009    
  -1.1            -1.39e-010      -1.5667e-008    1.7124e-009    
  -1.15           1.2552e-009     1.3912e-008     1.0861e-009    
  -1.2            1.1023e-009     1.4805e-008     1.2441e-009    
  -1.25           1.6944e-009     8.174e-009      8.7e-012       
  -1.3            1.7486e-009     8.82e-009       1.75e-010      
  -1.35           6.755e-010      8.716e-009      -1.2384e-009   
  -1.4            -1.7191e-009    2.996e-009      -7.263e-010    
  -1.45           9.707e-010      -1.1685e-008    2.0094e-009    
  -1.5            1.1795e-009     9.992e-009      -1.2347e-009   
  -1.55           -1.1555e-009    7.718e-009      -1.3449e-009   
  -1.6            -1.8383e-009    -9.655e-009     4.85e-011      
  -1.65           -1.8907e-009    -9.69e-009      -1.219e-010    
  -1.7            -1.9057e-009    -9.288e-009     -2.668e-010    
  -1.75           -1.1247e-009    -1.2559e-008    1.1197e-009    
  -1.8            9.515e-010      -1.1046e-008    1.9405e-009    
END_DB

BEGIN_DB
 ICCAP_VAR VG         -0.72          
 ICCAP_VAR VS         0              
 ICCAP_VAR VB         0              

 #VD              ID              IB              IG             
  0               -1.0368e-009    8.379e-009      -1.2425e-009   
  -0.05           -2.3856e-009    -6.573e-009     1.0869e-009    
  -0.1            -3.1734e-009    -9.245e-009     1.1135e-009    
  -0.15           -3.4887e-009    -1.0763e-008    1.1354e-009    
  -0.2            -3.7964e-009    -1.2023e-008    1.1489e-009    
  -0.25           -3.958e-009     -1.3643e-008    1.1488e-009    
  -0.3            -4.0945e-009    -1.5871e-008    1.6753e-009    
  -0.35           -2.6339e-009    -1.281e-009     1.4308e-009    
  -0.4            -2.8425e-009    -3.278e-009     1.2415e-009    
  -0.45           -3.0824e-009    -3.324e-009     1.1261e-009    
  -0.5            -3.198e-009     -3.304e-009     1.0692e-009    
  -0.55           -3.3895e-009    -4.111e-009     1.0583e-009    
  -0.6            -3.4749e-009    -5.513e-009     1.0763e-009    
  -0.65           -3.5502e-009    -8.145e-009     1.1011e-009    
  -0.7            -3.7253e-009    -1.0237e-008    1.1268e-009    
  -0.75           -4.1017e-009    -1.1576e-008    1.1443e-009    
  -0.8            -4.2765e-009    -1.271e-008     1.1514e-009    
  -0.85           -4.5087e-009    -1.4802e-008    1.1483e-009    
  -0.9            -4.4549e-009    -1.7422e-008    1.5446e-009    
  -0.95           -2.9677e-009    -2.278e-009     1.3258e-009    
  -1              -3.0953e-009    -3.479e-009     1.173e-009     
  -1.05           -3.459e-009     -2.986e-009     1.0865e-009    
  -1.1            -3.5039e-009    -3.726e-009     1.0582e-009    
  -1.15           -3.6044e-009    -4.625e-009     1.0669e-009    
  -1.2            -3.841e-009     -6.893e-009     1.0902e-009    
  -1.25           -3.9216e-009    -9.386e-009     1.1157e-009    
  -1.3            -4.001e-009     -1.1033e-008    1.1392e-009    
  -1.35           -4.2033e-009    -1.2371e-008    1.153e-009     
  -1.4            -4.1984e-009    -1.3844e-008    1.1494e-009    
  -1.45           -4.433e-009     -1.5852e-008    1.6716e-009    
  -1.5            -2.8548e-009    -1.267e-009     1.4279e-009    
  -1.55           -3.1011e-009    -3.352e-009     1.2431e-009    
  -1.6            -3.2903e-009    -3.181e-009     1.1232e-009    
  -1.65           -3.414e-009     -3.237e-009     1.0635e-009    
  -1.7            -3.6066e-009    -4.041e-009     1.0542e-009    
  -1.75           -3.8384e-009    -5.575e-009     1.0751e-009    
  -1.8            -3.8767e-009    -8.262e-009     1.1039e-009    
END_DB

BEGIN_DB
 ICCAP_VAR VG         -1.08          
 ICCAP_VAR VS         0              
 ICCAP_VAR VB         0              

 #VD              ID              IB              IG             
  0               1.9398e-009     -9.304e-009     2.3089e-009    
  -0.05           -3.6714e-007    -9.053e-009     1.906e-009     
  -0.1            -6.1758e-007    -2.1563e-008    1.0559e-009    
  -0.15           -7.6254e-007    -1.2663e-008    1.6719e-009    
  -0.2            -8.4113e-007    -1.5779e-008    1.3154e-009    
  -0.25           -8.8052e-007    -8.517e-009     1.142e-009     
  -0.3            -9.057e-007     -9.814e-009     1.153e-009     
  -0.35           -9.1344e-007    -1.2053e-008    1.7395e-009    
  -0.4            -9.2191e-007    -1.5213e-008    1.3696e-009    
  -0.45           -9.0452e-007    -9.454e-009     -1.979e-010    
  -0.5            -9.0921e-007    7.75e-010       -1.247e-009    
  -0.55           -9.1982e-007    8.62e-009       5.272e-010     
  -0.6            -9.3998e-007    -3.862e-009     1.0856e-009    
  -0.65           -9.5175e-007    -1.6374e-008    1.279e-009     
  -0.7            -9.2757e-007    -9.541e-009     -2.625e-010    
  -0.75           -9.3199e-007    1.469e-009      -1.2408e-009   
  -0.8            -9.401e-007     8.648e-009      5.815e-010     
  -0.85           -9.5673e-007    -4.378e-009     1.0984e-009    
  -0.9            -9.4729e-007    -8.801e-009     4.96e-011      
  -0.95           -9.592e-007     1.1491e-008     -1.5095e-009   
  -1              -9.4852e-007    7.845e-009      1.932e-010     
  -1.05           -9.7702e-007    -1.6323e-008    1.2826e-009    
  -1.1            -9.5178e-007    -9.561e-009     -2.588e-010    
  -1.15           -9.5315e-007    1.373e-009      -1.2411e-009   
  -1.2            -9.626e-007     8.553e-009      5.742e-010     
  -1.25           -9.7777e-007    -4.343e-009     1.0975e-009    
  -1.3            -9.6819e-007    -8.87e-009      5.16e-011      
  -1.35           -9.7859e-007    1.1599e-008     -1.5112e-009   
  -1.4            -9.6924e-007    7.845e-009      1.915e-010     
  -1.45           -9.9993e-007    -1.6331e-008    1.2818e-009    
  -1.5            -9.7363e-007    -9.577e-009     -2.571e-010    
  -1.55           -9.7417e-007    1.41e-009       -1.2413e-009   
  -1.6            -9.8222e-007    8.7e-009        5.755e-010     
  -1.65           -9.9777e-007    -4.345e-009     1.0991e-009    
  -1.7            -1.01096e-006   -1.7303e-008    1.2029e-009    
  -1.75           -1.01826e-006   -1.013e-008     1.1545e-009    
  -1.8            -1.01045e-006   -1.1981e-008    1.1452e-009    
END_DB

BEGIN_DB
 ICCAP_VAR VG         -1.44          
 ICCAP_VAR VS         0              
 ICCAP_VAR VB         0              

 #VD              ID              IB              IG             
  0               -1.02941e-009   8.552e-009      -2.667e-010    
  -0.05           -1.3587e-006    7.437e-009      1.8521e-009    
  -0.1            -2.5493e-006    -6.134e-009     1.124e-009     
  -0.15           -3.5602e-006    -8.889e-009     8.8e-012       
  -0.2            -4.3991e-006    9.476e-009      -1.6026e-009   
  -0.25           -5.1055e-006    1.4082e-008     1.4049e-009    
  -0.3            -5.6524e-006    -1.2151e-008    1.7145e-009    
  -0.35           -6.0689e-006    -1.3766e-008    1.5103e-009    
  -0.4            -6.3772e-006    -1.5654e-008    1.3228e-009    
  -0.45           -6.5734e-006    -9.168e-009     -1.076e-010    
  -0.5            -6.7231e-006    1.1917e-008     -1.4804e-009   
  -0.55           -6.8429e-006    1.4522e-008     1.5071e-009    
  -0.6            -6.9413e-006    -1.338e-008     1.5686e-009    
  -0.65           -7.0112e-006    -1.5066e-008    1.3738e-009    
  -0.7            -7.032e-006     -9.037e-009     -6.08e-011     
  -0.75           -7.0652e-006    1.1021e-008     -1.5298e-009   
  -0.8            -7.114e-006     1.4274e-008     1.4688e-009    
  -0.85           -7.1679e-006    -1.2926e-008    1.6238e-009    
  -0.9            -7.1992e-006    -1.4786e-008    1.4206e-009    
  -0.95           -7.2011e-006    -8.953e-009     -1.57e-011     
  -1              -7.2204e-006    1.0097e-008     -1.5725e-009   
  -1.05           -7.2537e-006    1.4149e-008     1.4262e-009    
  -1.1            -7.2997e-006    -1.2649e-008    1.6787e-009    
  -1.15           -7.3237e-006    -1.4126e-008    1.4746e-009    
  -1.2            -7.3414e-006    -1.5996e-008    1.2969e-009    
  -1.25           -7.365e-006     -6.764e-009     1.1296e-009    
  -1.3            -7.3847e-006    -7.018e-009     1.1308e-009    
  -1.35           -7.3972e-006    -7.247e-009     1.1347e-009    
  -1.4            -7.3795e-006    -9.093e-009     -5.47e-011     
  -1.45           -7.3914e-006    1.112e-008      -1.5201e-009   
  -1.5            -7.4174e-006    1.5108e-008     1.472e-009     
  -1.55           -7.4649e-006    -9.971e-009     1.1552e-009    
  -1.6            -7.4355e-006    -9.698e-009     -3.411e-010    
  -1.65           -7.4391e-006    1.341e-009      -1.2461e-009   
  -1.7            -7.4888e-006    8.856e-009      4.894e-010     
  -1.75           -7.5143e-006    -3.186e-009     1.0596e-009    
  -1.8            -7.5544e-006    -1.2462e-008    1.6726e-009    
END_DB

BEGIN_DB
 ICCAP_VAR VG         -1.8           
 ICCAP_VAR VS         0              
 ICCAP_VAR VB         0              

 #VD              ID              IB              IG             
  0               -2.4735e-009    -9.311e-009     -1.2428e-009   
  -0.05           -2.2832e-006    9.395e-009      1.1574e-009    
  -0.1            -4.4166e-006    -1.0792e-008    1.1555e-009    
  -0.15           -6.3968e-006    -1.0937e-008    1.1557e-009    
  -0.2            -8.2215e-006    -1.1009e-008    1.1551e-009    
  -0.25           -9.8878e-006    -1.1303e-008    1.1559e-009    
  -0.3            -1.1386e-005    -1.129e-008     -1.2432e-009   
  -0.35           -1.2764e-005    9.833e-009      8.165e-010     
  -0.4            -1.396e-005     -1.1019e-008    1.1537e-009    
  -0.45           -1.4996e-005    -1.4459e-008    1.4425e-009    
  -0.5            -1.5897e-005    -1.0429e-008    1.1531e-009    
  -0.55           -1.6647e-005    -1.3491e-008    1.5572e-009    
  -0.6            -1.7287e-005    -9.41e-009      1.1491e-009    
  -0.65           -1.7786e-005    -1.2384e-008    1.6666e-009    
  -0.7            -1.8154e-005    -9.61e-009      -2.276e-010    
  -0.75           -1.8463e-005    2.62e-009       -1.2384e-009   
  -0.8            -1.88e-005      1.0138e-008     9.942e-010     
  -0.85           -1.9e-005       -1.1907e-008    1.7459e-009    
  -0.9            -1.9181e-005    -7.33e-009      1.1323e-009    
  -0.95           -1.924e-005     -9.537e-009     -3.906e-010    
  -1              -1.9363e-005    2.965e-009      -1.2355e-009   
  -1.05           -1.9536e-005    1.2564e-008     1.2157e-009    
  -1.1            -1.9628e-005    -1.4363e-008    1.4536e-009    
  -1.15           -1.9717e-005    -1.0032e-008    1.1504e-009    
  -1.2            -1.9779e-005    -1.4815e-008    1.3973e-009    
  -1.25           -1.9773e-005    -9.638e-009     -3.816e-010    
  -1.3            -1.9836e-005    2.971e-009      -1.2354e-009   
  -1.35           -1.9962e-005    1.2854e-008     1.2091e-009    
  -1.4            -2.0022e-005    -1.4072e-008    1.4615e-009    
  -1.45           -2.0094e-005    -1.0171e-008    1.154e-009     
  -1.5            -2.0034e-005    -8.994e-009     -5.663e-010    
  -1.55           -2.0114e-005    2.338e-009      -1.2323e-009   
  -1.6            -2.0197e-005    1.4083e-008     1.4242e-009    
  -1.65           -2.0277e-005    -1.7097e-008    1.2278e-009    
  -1.7            -2.0324e-005    -1.162e-008     1.1582e-009    
  -1.75           -2.0369e-005    -1.583e-008     1.3103e-009    
  -1.8            -2.0413e-005    -1.1092e-008    1.1582e-009    
END_DB

BEGIN_DB
 ICCAP_VAR VG         0              
 ICCAP_VAR VS         0              
 ICCAP_VAR VB         0.9            

 #VD              ID              IB              IG             
  0               7.216e-010      1.4301e-008     5.1e-010       
  -0.05           -6.38e-011      -1.4201e-008    1.1551e-009    
  -0.1            -1.79e-010      -1.6136e-008    1.6407e-009    
  -0.15           9.32e-010       -1.902e-009     1.8967e-009    
  -0.2            1.048e-009      9.717e-009      -1.2333e-009   
  -0.25           -1.2893e-009    4.588e-009      -1.2243e-009   
  -0.3            -1.7598e-009    -8.922e-009     2.227e-010     
  -0.35           -1.8316e-009    -9.514e-009     3.17e-011      
  -0.4            -3.5e-011       -1.3379e-008    1.1558e-009    
  -0.45           -1.635e-010     -1.5621e-008    1.6865e-009    
  -0.5            9.252e-010      -1.327e-009     1.8746e-009    
  -0.55           1.0222e-009     9.368e-009      -1.2313e-009   
  -0.6            -1.3274e-009    4.134e-009      -1.1933e-009   
  -0.65           -1.7413e-009    -8.855e-009     2.522e-010     
  -0.7            -1.8217e-009    -9.457e-009     7.18e-011      
  -0.75           7.4e-012        -1.2965e-008    1.1542e-009    
  -0.8            -1.373e-010     -1.5242e-008    1.7359e-009    
  -0.85           9.186e-010      -7.08e-010      1.8497e-009    
  -0.9            9.979e-010      9.117e-009      -1.233e-009    
  -0.95           -1.356e-009     3.721e-009      -1.1633e-009   
  -1              -1.843e-010     -1.6217e-008    1.6263e-009    
  -1.05           9.325e-010      -2.107e-009     1.8995e-009    
  -1.1            1.0555e-009     9.797e-009      -1.2334e-009   
  -1.15           -1.2832e-009    4.839e-009      -1.2307e-009   
  -1.2            -1.748e-009     -8.992e-009     1.895e-010     
  -1.25           -1.8405e-009    -9.577e-009     2.01e-011      
  -1.3            -4.46e-011      -1.3635e-008    1.1559e-009    
  -1.35           -1.677e-010     -1.5647e-008    1.6679e-009    
  -1.4            9.269e-010      -1.534e-009     1.8817e-009    
  -1.45           1.0304e-009     9.531e-009      -1.2322e-009   
  -1.5            -1.3118e-009    4.312e-009      -1.2061e-009   
  -1.55           -2.105e-010     -1.6734e-008    1.5565e-009    
  -1.6            1.1418e-009     1.473e-008      1.2122e-009    
  -1.65           1.6723e-009     8e-009          3e-013         
  -1.7            1.7516e-009     8.69e-009       1.595e-010     
  -1.75           6.593e-010      8.765e-009      -1.2369e-009   
  -1.8            -1.7356e-009    3.022e-009      -7.218e-010    
END_DB

BEGIN_DB
 ICCAP_VAR VG         -0.36          
 ICCAP_VAR VS         0              
 ICCAP_VAR VB         0.9            

 #VD              ID              IB              IG             
  0               -3.521e-010     8.51e-009       1.2247e-009    
  -0.05           8.691e-010      8.47e-009       -1.2362e-009   
  -0.1            -1.503e-009     2.008e-009      -9.978e-010    
  -0.15           -8.13e-011      -1.3844e-008    1.1528e-009    
  -0.2            -1.886e-010     -1.6376e-008    1.5911e-009    
  -0.25           9.387e-010      -2.392e-009     1.9095e-009    
  -0.3            1.0675e-009     9.95e-009       -1.233e-009    
  -0.35           -1.2464e-009    5.112e-009      -1.2478e-009   
  -0.4            -1.7706e-009    -9.108e-009     1.76e-010      
  -0.45           9.794e-010      -1.1781e-008    2.0509e-009    
  -0.5            1.2116e-009     1.1813e-008     -1.2278e-009   
  -0.55           -1.1082e-009    9.285e-009      -1.3913e-009   
