! VERSION = 6.00
BEGIN_HEADER
 ICCAP_INPUTS
  VG         V  B GROUND SMU4 0.001 LIN        1    0          -1.8       37   -0.05     
  VS         V  E GROUND SMU3 0.1 CON        0
  VB         V  C GROUND SMU1 0.1 LIN        3    0          1.8        3    0.9       
  VD         V  S GROUND SMU2 0.1 LIN        2    -0.1       -1.8       2    -1.7      
 ICCAP_OUTPUTS
  IG         I  B GROUND SMU4 B
  ID         I  S GROUND SMU2 B
  IB         I  C GROUND SMU1 B
END_HEADER

BEGIN_DB
 ICCAP_VAR VS         0              
 ICCAP_VAR VB         0              
 ICCAP_VAR VD         -0.1           

 #VG              IG              ID              IB             
  0               -1.0756e-009    -1.8012e-009    -1.4679e-008   
  -0.05           2.7001e-009     -2.874e-010     -1.2765e-008   
  -0.1            -1.4988e-009    3.1298e-009     1.0422e-008    
  -0.15           1.9082e-009     -2.866e-009     -1.521e-008    
  -0.2            1.6965e-009     2.4024e-009     1.0495e-008    
  -0.25           -2.5267e-009    2.467e-010      8.197e-009     
  -0.3            2.7103e-009     -1.829e-010     -1.1531e-008   
  -0.35           -1.5817e-009    2.973e-009      1.2069e-008    
  -0.4            2.0402e-009     -3.0049e-009    -1.7073e-008   
  -0.45           -1.9523e-009    4.115e-010      1.5526e-008    
  -0.5            2.2435e-009     -3.8919e-009    -1.7213e-008   
  -0.55           -2.555e-009     -1.1803e-008    -1.6881e-008   
  -0.6            1.8947e-009     -3.2825e-008    -1.7155e-008   
  -0.65           7.283e-010      -9.336e-008     9.316e-009     
  -0.7            8.382e-010      -2.5317e-007    -1.6121e-008   
  -0.75           -2.586e-009     -5.7356e-007    6.988e-009     
  -0.8            -2.6029e-009    -1.128e-006     -1.7021e-008   
  -0.85           2.6986e-009     -1.9906e-006    -1.6121e-008   
  -0.9            -2.43e-011      -3.1056e-006    7.656e-009     
  -0.95           -2.1735e-009    -4.5413e-006    9.891e-009     
  -1              1.6346e-009     -6.2751e-006    -1.6651e-008   
  -1.05           8.388e-010      -8.1292e-006    9.026e-009     
  -1.1            -2.5858e-009    -1.0102e-005    6.98e-009      
  -1.15           -1.8557e-009    -1.2157e-005    -6.664e-009    
  -1.2            2.6993e-009     -1.4289e-005    -1.5264e-008   
  -1.25           1.5e-012        -1.6296e-005    7.613e-009     
  -1.3            -2.1369e-009    -1.8305e-005    1.0362e-008    
  -1.35           1.5851e-009     -2.0275e-005    -1.6823e-008   
  -1.4            8.631e-010      -2.211e-005     8.963e-009     
  -1.45           -2.5822e-009    -2.3851e-005    6.853e-009     
  -1.5            2.6021e-009     -2.5591e-005    -1.2548e-008   
  -1.55           -1.8939e-009    -2.7141e-005    1.3013e-008    
  -1.6            2.6995e-009     -2.8673e-005    -1.5879e-008   
  -1.65           1.4415e-009     -3.014e-005     8.128e-009     
  -1.7            -1.4602e-009    -3.1437e-005    1.5827e-008    
  -1.75           2.4515e-009     -3.2796e-005    -1.5683e-008   
  -1.8            -1.6295e-009    -3.3984e-005    1.5144e-008    
END_DB

BEGIN_DB
 ICCAP_VAR VS         0              
 ICCAP_VAR VB         0              
 ICCAP_VAR VD         -1.8           

 #VG              IG              ID              IB             
  0               -1.869e-010     1.1599e-009     1.4032e-008    
  -0.05           1.8525e-009     -2.9007e-009    -1.432e-008    
  -0.1            -1.7963e-009    1.2936e-009     1.671e-008     
  -0.15           2.0735e-009     -1.3532e-009    -1.6804e-008   
  -0.2            -1.9829e-009    1.1287e-009     1.5358e-008    
  -0.25           2.2656e-009     -1.2334e-009    -1.6979e-008   
  -0.3            -2.1493e-009    8.238e-010      1.3762e-008    
  -0.35           2.4259e-009     -1.5395e-009    -1.6806e-008   
  -0.4            -2.2757e-009    -3.3557e-009    1.1903e-008    
  -0.45           2.545e-009      -7.6503e-009    -1.6375e-008   
  -0.5            -2.2791e-009    -2.5046e-008    -1.3385e-008   
  -0.55           2.4447e-009     -7.391e-008     -1.5318e-008   
  -0.6            -8.679e-010     -1.9956e-007    9.803e-009     
  -0.65           2.7189e-009     -4.8519e-007    -7.416e-009    
  -0.7            -2.4594e-009    -1.03871e-006   8.144e-009     
  -0.75           2.7194e-009     -2.0753e-006    9.131e-009     
  -0.8            -1.273e-010     -3.6587e-006    8.458e-009     
  -0.85           -2.3013e-009    -6.0514e-006    8.558e-009     
  -0.9            1.8509e-009     -9.4888e-006    -1.7217e-008   
  -0.95           5.214e-010      -1.3816e-005    -1.6204e-008   
  -1              -1.4042e-009    -1.9292e-005    1.7418e-008    
  -1.05           2.3755e-009     -2.6163e-005    -1.5667e-008   
  -1.1            1.8916e-009     -3.3953e-005    1.073e-008     
  -1.15           -1.4868e-009    -4.2584e-005    1.6346e-008    
  -1.2            2.4569e-009     -5.2765e-005    -1.5217e-008   
  -1.25           -1.656e-009     -6.3245e-005    1.5143e-008    
  -1.3            2.5762e-009     -7.5249e-005    -1.317e-008    
  -1.35           -1.8372e-009    -8.7268e-005    1.3422e-008    
  -1.4            2.6989e-009     -0.000100679    -1.4981e-008   
  -1.45           -2.6076e-009    -0.00011404     -1.6364e-008   
  -1.5            2.6901e-009     -0.00012857     -1.4256e-008   
  -1.55           3.91e-011       -0.00014301     7.769e-009     
  -1.6            -2.0831e-009    -0.00015805     1.0901e-008    
  -1.65           1.7345e-009     -0.00017401     -1.9635e-008   
  -1.7            7.893e-010      -0.0001898      9.52e-009      
  -1.75           -2.5962e-009    -0.00020572     6.97e-009      
  -1.8            2.6496e-009     -0.00022263     -1.2045e-008   
END_DB

BEGIN_DB
 ICCAP_VAR VS         0              
 ICCAP_VAR VB         0.9            
 ICCAP_VAR VD         -0.1           

 #VG              IG              ID              IB             
  0               -4.359e-010     7.126e-010      9.592e-009     
  -0.05           2.2076e-009     -1.2457e-009    -1.6482e-008   
  -0.1            -2.1095e-009    1.0182e-009     1.3735e-008    
  -0.15           2.3983e-009     -1.0445e-009    -1.6577e-008   
  -0.2            -2.2714e-009    8.412e-010      1.206e-008     
  -0.25           2.5456e-009     -8.39e-010      -1.6496e-008   
  -0.3            -2.3979e-009    3.5469e-009     7.929e-009     
  -0.35           2.6418e-009     -6.208e-010     -1.5844e-008   
  -0.4            -1.3213e-009    3.3753e-009     7.846e-009     
  -0.45           2.6983e-009     -3.87e-010      -1.4538e-008   
  -0.5            -1.4311e-009    3.1861e-009     9.471e-009     
  -0.55           2.7215e-009     -2.239e-010     -1.1856e-008   
  -0.6            -1.5915e-009    2.7793e-009     1.2112e-008    
  -0.65           2.0542e-009     -3.8207e-009    -1.7206e-008   
  -0.7            -1.9799e-009    -3.683e-009     1.4892e-008    
  -0.75           2.4642e-009     -1.6461e-008    9.196e-009     
  -0.8            -2.0797e-009    -6.7732e-008    1.0626e-008    
  -0.85           6.769e-010      -2.0764e-007    -1.4783e-008   
  -0.9            -2.5982e-009    -5.3555e-007    6.032e-009     
  -0.95           1.8672e-009     -1.1655e-006    -1.642e-008    
  -1              -2.4404e-009    -2.1002e-006    8.585e-009     
  -1.05           2.1003e-009     -3.4549e-006    -1.6268e-008   
  -1.1            6.098e-010      -5.0666e-006    9.52e-009      
  -1.15           -2.5884e-009    -6.9379e-006    5.373e-009     
  -1.2            1.5679e-009     -9.026e-006     -1.6635e-008   
  -1.25           8.62e-010       -1.11298e-005   8.78e-009      
  -1.3            2.156e-010      -1.3227e-005    -1.3158e-008   
  -1.35           -1.8137e-009    -1.53e-005      1.3099e-008    
  -1.4            2.6732e-009     -1.7369e-005    -1.1161e-008   
  -1.45           1.365e-010      -1.9233e-005    8.306e-009     
  -1.5            -1.9374e-009    -2.1075e-005    1.1955e-008    
  -1.55           1.5639e-009     -2.2842e-005    -1.6439e-008   
  -1.6            8.649e-010      -2.448e-005     8.98e-009      
  -1.65           -2.5884e-009    -2.6013e-005    6.971e-009     
  -1.7            2.6258e-009     -2.7532e-005    -1.2705e-008   
  -1.75           -1.8816e-009    -2.8896e-005    1.2282e-008    
  -1.8            2.7243e-009     -3.0231e-005    -1.55e-008     
END_DB

BEGIN_DB
 ICCAP_VAR VS         0              
 ICCAP_VAR VB         0.9            
 ICCAP_VAR VD         -1.8           

 #VG              IG              ID              IB             
  0               2.603e-010      -1.128e-009     -1.6347e-008   
  -0.05           -1.8894e-009    2.7149e-009     1.7391e-008    
  -0.1            2.3759e-009     -2.568e-009     -2.25e-008     
  -0.15           -2.2506e-009    8.614e-010      1.2192e-008    
  -0.2            2.5365e-009     -8.668e-010     -1.6419e-008   
  -0.25           -1.495e-010     3.5716e-009     7.979e-009     
  -0.3            -2.5801e-009    2.3e-012        8.536e-009     
  -0.35           1.8987e-009     -2.8675e-009    -1.4686e-008   
  -0.4            1.6868e-009     2.3873e-009     1.0219e-008    
  -0.45           -2.5432e-009    2.139e-010      8.465e-009     
  -0.5            2.7246e-009     -3.272e-010     -1.1636e-008   
  -0.55           -1.5878e-009    2.2613e-009     1.2006e-008    
  -0.6            2.0575e-009     -5.9261e-009    -1.7122e-008   
  -0.65           -2.3483e-009    -1.4926e-008    -1.5278e-008   
  -0.7            2.3745e-009     -4.837e-008     -1.6291e-008   
  -0.75           -1.0105e-009    -1.6161e-007    1.2346e-008    
  -0.8            2.7207e-009     -4.5464e-007    -8.177e-009    
  -0.85           -1.095e-010     -1.07971e-006   7.995e-009     
  -0.9            -1.059e-009     -2.2798e-006    -4.852e-009    
  -0.95           2.7195e-009     -4.331e-006     -8.682e-009    
  -1              1.4055e-009     -7.3681e-006    8.071e-009     
  -1.05           7.643e-010      -1.1396e-005    -1.6454e-008   
  -1.1            -2.5882e-009    -1.6665e-005    6.706e-009     
  -1.15           2.6832e-009     -2.3421e-005    -1.2214e-008   
  -1.2            -2.0767e-009    -3.0975e-005    1.0877e-008    
  -1.25           1.714e-009      -4.0046e-005    -1.9229e-008   
  -1.3            7.924e-010      -4.986e-005     9.199e-009     
  -1.35           -2.5868e-009    -6.0496e-005    6.74e-009      
  -1.4            2.67e-009       -7.2474e-005    -1.1433e-008   
  -1.45           -2.0176e-009    -8.452e-005     1.1261e-008    
  -1.5            1.6381e-009     -9.7856e-005    -1.8207e-008   
  -1.55           8.266e-010      -0.000111422    9.043e-009     
  -1.6            -8.79e-011      -0.00012534     8.529e-009     
  -1.65           -2.2766e-009    -0.00013988     9.156e-009     
  -1.7            1.769e-009      -0.00015526     -1.6389e-008   
  -1.75           7.73e-010       -0.00017048     9.232e-009     
  -1.8            -2.5875e-009    -0.00018599     6.697e-009     
END_DB

BEGIN_DB
 ICCAP_VAR VS         0              
 ICCAP_VAR VB         1.8            
 ICCAP_VAR VD         -0.1           

 #VG              IG              ID              IB             
  0               9.808e-010      1.683e-009      9.173e-009     
  -0.05           -1.394e-009     3.2457e-009     8.45e-009      
  -0.1            2.7058e-009     -2.18e-010      -1.2282e-008   
  -0.15           -1.5501e-009    3.0752e-009     1.1227e-008    
  -0.2            1.9923e-009     -2.8296e-009    -1.6283e-008   
  -0.25           1.6567e-009     2.509e-009      1.0716e-008    
  -0.3            -2.5415e-009    1.789e-010      8.424e-009     
  -0.35           1.6617e-009     -2.9729e-009    -1.2031e-008   
  -0.4            3.759e-010      4.0915e-009     9.407e-009     
  -0.45           -1.9221e-009    -1.9237e-009    1.463e-009     
  -0.5            2.5408e-009     -8.267e-010     -1.6679e-008   
  -0.55           -1.671e-010     3.5316e-009     7.841e-009     
  -0.6            -2.5786e-009    -4.35e-011      8.301e-009     
  -0.65           1.9366e-009     -2.9065e-009    -1.5584e-008   
  -0.7            1.683e-009      2.2002e-009     1.0529e-008    
  -0.75           -2.5295e-009    -2.6562e-009    8.274e-009     
  -0.8            2.7116e-009     -5.5289e-009    -1.1183e-008   
  -0.85           2.5929e-009     -2.1068e-008    1.2675e-008    
  -0.9            8.844e-010      -8.266e-008     8.773e-009     
  -0.95           8.886e-010      -2.739e-007     -1.6884e-008   
  -1              -2.5689e-009    -6.6594e-007    6.82e-009      
  -1.05           2.5555e-009     -1.4046e-006    1.9111e-008    
  -1.1            -1.7998e-009    -2.5013e-006    1.3573e-008    
  -1.15           2.6917e-009     -4.0159e-006    -1.4108e-008   
  -1.2            3.66e-011       -5.7588e-006    7.706e-009     
  -1.25           -2.0914e-009    -7.754e-006     1.0911e-008    
  -1.3            1.7445e-009     -9.9098e-006    -1.9755e-008   
  -1.35           3.438e-010      -1.1989e-005    -1.5211e-008   
  -1.4            -1.6304e-009    -1.408e-005     1.5074e-008    
  -1.45           2.5728e-009     -1.6178e-005    -1.3552e-008   
  -1.5            -1.8164e-009    -1.8045e-005    1.3365e-008    
  -1.55           2.6931e-009     -1.9926e-005    -1.4445e-008   
  -1.6            2.58e-011       -2.1616e-005    7.685e-009     
  -1.65           -2.1101e-009    -2.3271e-005    1.0707e-008    
  -1.7            1.7543e-009     -2.4867e-005    -1.9938e-008   
  -1.75           7.841e-010      -2.6323e-005    9.328e-009     
  -1.8            -2.5903e-009    -2.7706e-005    6.954e-009     
END_DB

BEGIN_DB
 ICCAP_VAR VS         0              
 ICCAP_VAR VB         1.8            
 ICCAP_VAR VD         -1.8           

 #VG              IG              ID              IB             
  0               9.52e-011       -1.3906e-009    -8.111e-009    
  -0.05           4.298e-010      4.1153e-009     9.571e-009     
  -0.1            1.7667e-009     -2.9175e-009    -1.3261e-008   
  -0.15           3.262e-010      4.0425e-009     9.594e-009     
  -0.2            1.98e-009       -2.8208e-009    -1.6313e-008   
  -0.25           -1.9053e-009    1.2011e-009     1.5432e-008    
  -0.3            2.1786e-009     -1.2627e-009    -1.6834e-008   
  -0.35           -2.0796e-009    1.0543e-009     1.4441e-008    
  -0.4            2.3603e-009     -1.1033e-009    -1.695e-008    
  -0.45           -2.2261e-009    9.021e-010      1.2883e-008    
  -0.5            2.4937e-009     -9.328e-010     -1.6829e-008   
  -0.55           -1.192e-010     3.5732e-009     8.035e-009     
  -0.6            -2.554e-009     -1.412e-010     8.397e-009     
  -0.65           1.7961e-009     -3.8329e-009    -1.3597e-008   
  -0.7            -2.5507e-009    -4.2194e-009    8.4e-009       
  -0.75           -2.3642e-009    -2.0444e-008    -1.5081e-008   
  -0.8            2.3486e-009     -7.3048e-008    -1.6525e-008   
  -0.85           -4.988e-010     -2.4758e-007    8.24e-009      
  -0.9            1.5481e-009     -6.9559e-007    -1.6418e-008   
  -0.95           -1.8188e-009    -1.613e-006     -9.203e-009    
  -1              1.6782e-009     -3.347e-006     -1.6621e-008   
  -1.05           8.21e-010       -5.9869e-006    9.177e-009     
  -1.1            -2.5823e-009    -9.7509e-006    6.896e-009     
  -1.15           -2.5958e-009    -1.4858e-005    9.604e-009     
  -1.2            2.6973e-009     -2.1327e-005    -1.5094e-008   
  -1.25           -1.1e-012       -2.8737e-005    7.633e-009     
  -1.3            -2.1329e-009    -3.7395e-005    1.0606e-008    
  -1.35           1.5574e-009     -4.7381e-005    -1.6456e-008   
  -1.4            8.791e-010      -5.7955e-005    8.849e-009     
  -1.45           -2.5706e-009    -6.9242e-005    7.001e-009     
  -1.5            2.59e-009       -8.1819e-005    -1.3311e-008   
  -1.55           -1.8331e-009    -9.4409e-005    1.3116e-008    
  -1.6            2.7e-009        -0.000108242    -1.4532e-008   
  -1.65           4.984e-010      -0.000122       1.4338e-008    
  -1.7            -1.4129e-009    -0.00013636     1.6875e-008    
  -1.75           2.4102e-009     -0.00015163     -1.6095e-008   
  -1.8            -1.5474e-009    -0.00016653     1.5539e-008    
END_DB

