! VERSION = 6.00
BEGIN_HEADER
 ICCAP_INPUTS
  VG         V  B GROUND SMU4 0.001 LIN        1    0          -1.8       37   -0.05     
  VS         V  E GROUND SMU2 0.1 CON        0
  VB         V  C GROUND SMU3 0.1 LIN        3    0          1.8        3    0.9       
  VD         V  S GROUND SMU1 0.1 LIN        2    -0.1       -1.8       2    -1.7      
 ICCAP_OUTPUTS
  IG         I  B GROUND SMU4 B
  ID         I  S GROUND SMU1 B
  IB         I  C GROUND SMU3 B
END_HEADER

BEGIN_DB
 ICCAP_VAR VS         0              
 ICCAP_VAR VB         0              
 ICCAP_VAR VD         -0.1           

 #VG              IG              ID              IB             
  0               -1.254e-009     -1.0682e-009    -4.222e-009    
  -0.05           2.0171e-009     9.771e-010      -1.1302e-008   
  -0.1            -1.2498e-009    1.1713e-009     1.0813e-008    
  -0.15           -1.3419e-009    -1.2022e-009    7.145e-009     
  -0.2            1.1275e-009     -1.1434e-009    -1.2523e-008   
  -0.25           1.9886e-009     9.676e-010      -1.1436e-008   
  -0.3            -1.2508e-009    1.1406e-009     9.562e-009     
  -0.35           -1.3112e-009    -1.2277e-009    6.314e-009     
  -0.4            1.13e-010       -1.857e-009     -9.603e-009    
  -0.45           1.1632e-009     1.06e-011       -1.2695e-008   
  -0.5            1.7795e-009     -2.66e-010      -1.4597e-008   
  -0.55           -1.2511e-009    6.771e-010      -2.5e-011      
  -0.6            -2.1193e-009    -2.7328e-009    6.506e-009     
  -0.65           9.92e-011       -8.0358e-009    -9.57e-009     
  -0.7            1.341e-009      -1.7966e-008    1.963e-009     
  -0.75           2.986e-010      -5.2514e-008    8.773e-009     
  -0.8            4.818e-010      -1.289e-007     -1.2643e-008   
  -0.85           8.033e-010      -2.7367e-007    8.953e-009     
  -0.9            1.2401e-009     -5.0196e-007    1.274e-008     
  -0.95           2.288e-010      -8.1739e-007    8.15e-009      
  -1              -1.933e-009     -1.2162e-006    -1.3086e-008   
  -1.05           1.3486e-009     -1.6837e-006    -1.5603e-008   
  -1.1            1.0692e-009     -2.1888e-006    -3.287e-009    
  -1.15           1.1039e-009     -2.7282e-006    -4.246e-009    
  -1.2            1.1636e-009     -3.2845e-006    -1.0055e-008   
  -1.25           1.6037e-009     -3.8462e-006    -1.3619e-008   
  -1.3            1.1365e-009     -4.4056e-006    -2.433e-009    
  -1.35           1.0742e-009     -4.9599e-006    -3.373e-009    
  -1.4            1.1447e-009     -5.5003e-006    -7.112e-009    
  -1.45           1.1612e-009     -6.0179e-006    -1.1815e-008   
  -1.5            1.3003e-009     -6.5209e-006    -1.6292e-008   
  -1.55           1.0673e-009     -6.9987e-006    -3.219e-009    
  -1.6            1.1113e-009     -7.463e-006     -4.535e-009    
  -1.65           1.1631e-009     -7.9021e-006    -1.0449e-008   
  -1.7            1.5337e-009     -8.3212e-006    -1.4074e-008   
  -1.75           1.1133e-009     -8.7207e-006    -3.06e-009     
  -1.8            1.0796e-009     -9.1064e-006    -3.384e-009    
END_DB

BEGIN_DB
 ICCAP_VAR VS         0              
 ICCAP_VAR VB         0              
 ICCAP_VAR VD         -1.8           

 #VG              IG              ID              IB             
  0               -1.1786e-009    -1.038e-009     -1.3726e-008   
  -0.05           -1.631e-010     -1.9349e-009    -9.664e-009    
  -0.1            1.6764e-009     -1.658e-010     -1.5767e-008   
  -0.15           1.1488e-009     1.2281e-009     1.4283e-008    
  -0.2            1.3282e-009     1.0712e-009     1.5483e-008    
  -0.25           8.18e-011       1.752e-009      8.691e-009     
  -0.3            2.52e-010       1.7993e-009     9.067e-009     
  -0.35           -1.257e-009     7.525e-010      8.884e-009     
  -0.4            -8.403e-010     -1.7025e-009    2.39e-009      
  -0.45           1.167e-009      -5.6e-012       -1.2534e-008   
  -0.5            1.1677e-009     -3.804e-010     -1.502e-008    
  -0.55           1.5792e-009     -1.3738e-009    -1.6562e-008   
  -0.6            1.3425e-009     -3.3398e-009    -2.519e-009    
  -0.65           -1.2514e-009    -1.569e-008     -8.962e-009    
  -0.7            -1.2386e-009    -4.7172e-008    2.939e-009     
  -0.75           4.129e-010      -1.266e-007     -1.1692e-008   
  -0.8            7.058e-010      -3.0572e-007    8.606e-009     
  -0.85           1.1255e-009     -6.3809e-007    1.1546e-008    
  -0.9            -1.7945e-009    -1.1716e-006    -1.0695e-008   
  -0.95           -3.722e-010     -1.9724e-006    -9.631e-009    
  -1              1.166e-009      -3.0901e-006    -1.0508e-008   
  -1.05           1.4219e-009     -4.4795e-006    -1.4929e-008   
  -1.1            1.087e-009      -6.167e-006     -3.359e-009    
  -1.15           1.0922e-009     -8.1571e-006    -3.918e-009    
  -1.2            1.1585e-009     -1.04428e-005   -9.278e-009    
  -1.25           1.0773e-009     -1.2959e-005    1.937e-009     
  -1.3            1.1469e-009     -1.5742e-005    -7.82e-009     
  -1.35           1.1585e-009     -1.8724e-005    -1.1955e-008   
  -1.4            1.2594e-009     -2.1933e-005    -1.653e-008    
  -1.45           1.0635e-009     -2.5295e-005    -3.23e-009     
  -1.5            1.1176e-009     -2.8857e-005    -4.824e-009    
  -1.55           1.166e-009      -3.2553e-005    -1.0933e-008   
  -1.6            1.4806e-009     -3.6372e-005    -1.4562e-008   
  -1.65           1.0956e-009     -4.0306e-005    -3.219e-009    
  -1.7            1.0842e-009     -4.4362e-005    -3.79e-009     
  -1.75           1.1538e-009     -4.8529e-005    -8.585e-009    
  -1.8            1.7499e-009     -5.2738e-005    -1.2265e-008   
END_DB

BEGIN_DB
 ICCAP_VAR VS         0              
 ICCAP_VAR VB         0.9            
 ICCAP_VAR VD         -0.1           

 #VG              IG              ID              IB             
  0               -1.2591e-009    -1.1505e-009    8.172e-009     
  -0.05           1.734e-009      9.126e-010      -6.384e-009    
  -0.1            -1.2533e-009    8.367e-010      8.661e-009     
  -0.15           -9.417e-010     -1.5998e-009    2.071e-009     
  -0.2            1.1637e-009     -3e-011         -1.3684e-008   
  -0.25           1.6908e-009     -1.62e-010      -1.5564e-008   
  -0.3            1.1367e-009     1.2461e-009     1.4159e-008    
  -0.35           1.3214e-009     1.0812e-009     1.4796e-008    
  -0.4            7.08e-011       1.7505e-009     8.486e-009     
  -0.45           2.192e-010      1.8184e-009     8.902e-009     
  -0.5            -1.2539e-009    7.383e-010      8.719e-009     
  -0.55           -8.016e-010     -1.7153e-009    2.505e-009     
  -0.6            1.1716e-009     7.67e-011       -1.2308e-008   
  -0.65           1.1672e-009     -1.155e-010     -1.4537e-008   
  -0.7            1.6205e-009     -3.607e-010     -1.6299e-008   
  -0.75           -1.25e-009      5.704e-010      -2.095e-009    
  -0.8            -1.2345e-009    -2.7161e-009    9.15e-009      
  -0.85           -1.6664e-009    -1.1701e-008    -5.579e-009    
  -0.9            1.7305e-009     -3.5541e-008    -1.2476e-008   
  -0.95           1.1917e-009     -9.869e-008     -7.58e-010     
  -1              1.1698e-009     -2.3822e-007    2.98e-010      
  -1.05           1.4063e-009     -4.7058e-007    -1.5172e-008   
  -1.1            1.0749e-009     -8.029e-007     -3.506e-009    
  -1.15           1.3467e-009     -1.2254e-006    2.855e-009     
  -1.2            3.05e-010       -1.7079e-006    8.596e-009     
  -1.25           5.855e-010      -2.2458e-006    8.512e-009     
  -1.3            9.626e-010      -2.8068e-006    1.0987e-008    
  -1.35           1.4085e-009     -3.367e-006     1.4204e-008    
  -1.4            3.534e-010      -3.9252e-006    8.7e-009       
  -1.45           6.274e-010      -4.484e-006     8.543e-009     
  -1.5            1.0256e-009     -5.0205e-006    1.1492e-008    
  -1.55           1.4648e-009     -5.5289e-006    1.4252e-008    
  -1.6            3.93e-010       -6.0205e-006    8.744e-009     
  -1.65           6.727e-010      -6.4997e-006    8.634e-009     
  -1.7            1.0835e-009     -6.9509e-006    1.2094e-008    
  -1.75           1.5162e-009     -7.3755e-006    1.4491e-008    
  -1.8            4.161e-010      -7.7874e-006    8.788e-009     
END_DB

BEGIN_DB
 ICCAP_VAR VS         0              
 ICCAP_VAR VB         0.9            
 ICCAP_VAR VD         -1.8           

 #VG              IG              ID              IB             
  0               -1.1875e-009    -1.0498e-009    -1.2195e-008   
  -0.05           1.8628e-009     9.315e-010      -9.466e-009    
  -0.1            -1.2518e-009    9.801e-010      8.777e-009     
  -0.15           -1.136e-009     -1.4077e-009    2.937e-009     
  -0.2            1.09e-009       -1.7363e-009    -8.714e-009    
  -0.25           1.8278e-009     9.277e-010      -8.814e-009    
  -0.3            -1.2526e-009    9.372e-010      8.752e-009     
  -0.35           -1.0901e-009    -1.4476e-009    2.494e-009     
  -0.4            1.7279e-009     -1.3e-010       -1.4849e-008   
  -0.45           1.8814e-009     9.382e-010      -4.99e-010     
  -0.5            -1.2503e-009    1.0018e-009     9.276e-009     
  -0.55           -1.1527e-009    -1.3766e-009    3.518e-009     
  -0.6            2.961e-010      -1.7606e-009    -8.798e-009    
  -0.65           1.334e-010      -1.9662e-009    -9.34e-009     
  -0.7            1.1655e-009     -5.257e-010     -1.2188e-008   
  -0.75           1.1683e-009     -2.6867e-009    -1.458e-008    
  -0.8            -2.1651e-009    -1.1301e-008    -1.1287e-008   
  -0.85           -5.05e-011      -3.9251e-008    -9.023e-009    
  -0.9            3.686e-010      -1.1526e-007    -1.1123e-008   
  -0.95           6.491e-010      -3.0422e-007    8.668e-009     
  -1              1.0481e-009     -6.674e-007     1.1725e-008    
  -1.05           -1.2625e-009    -1.2525e-006    -9.276e-009    
  -1.1            -1.2495e-009    -2.1352e-006    2.817e-009     
  -1.15           -1.9465e-009    -3.3333e-006    4.49e-009      
  -1.2            1.1624e-009     -4.8999e-006    -9.925e-009    
  -1.25           1.3247e-009     -6.726e-006     -1.5955e-008   
  -1.3            1.0776e-009     -8.8445e-006    -3.327e-009    
  -1.35           1.108e-009      -1.12563e-005   -4.56e-009     
  -1.4            1.0743e-009     -1.3913e-005    2.414e-009     
  -1.45           1.1321e-009     -1.68e-005      -6.415e-009    
  -1.5            1.1668e-009     -1.989e-005     -1.1086e-008   
  -1.55           1.3609e-009     -2.3171e-005    -1.5428e-008   
  -1.6            1.0834e-009     -2.6605e-005    -3.447e-009    
  -1.65           1.1008e-009     -3.0195e-005    -4.213e-009    
  -1.7            1.1563e-009     -3.3944e-005    -9.805e-009    
  -1.75           1.613e-009      -3.7769e-005    -1.2655e-008   
  -1.8            1.1607e-009     -4.1719e-005    -2.082e-009    
END_DB

BEGIN_DB
 ICCAP_VAR VS         0              
 ICCAP_VAR VB         1.8            
 ICCAP_VAR VD         -0.1           

 #VG              IG              ID              IB             
  0               1.1058e-009     9.177e-010      2.598e-009     
  -0.05           1.1211e-009     1.2497e-009     1.3977e-008    
  -0.1            1.2989e-009     1.0915e-009     1.4621e-008    
  -0.15           5.53e-011       1.7405e-009     8.389e-009     
  -0.2            2.144e-010      1.8097e-009     8.7e-009       
  -0.25           -1.2603e-009    7.264e-010      8.723e-009     
  -0.3            -7.917e-010     -1.7142e-009    2.622e-009     
  -0.35           2.0872e-009     9.944e-010      -1.1831e-008   
  -0.4            -1.245e-009     1.24e-009       1.1844e-008    
  -0.45           -1.4096e-009    -1.1454e-009    9.362e-009     
  -0.5            1.1407e-009     -1.1973e-009    -1.1124e-008   
  -0.55           2.0586e-009     9.853e-010      -1.1502e-008   
  -0.6            -1.2474e-009    1.2078e-009     1.0256e-008    
  -0.65           -1.3761e-009    -1.1699e-009    7.994e-009     
  -0.7            1.1351e-009     -1.1705e-009    -1.1732e-008   
  -0.75           2.0164e-009     9.532e-010      -1.1247e-008   
  -0.8            -1.2454e-009    1.0673e-009     9.843e-009     
  -0.85           -2.1755e-009    -1.5451e-009    6.959e-009     
  -0.9            1.1075e-009     -1.8396e-009    -8.052e-009    
  -0.95           1.1339e-009     -9.2479e-009    -1.0311e-008   
  -1              -2.3334e-009    -3.4085e-008    -1.4024e-008   
  -1.05           1.0743e-009     -9.9339e-008    -2.2104e-008   
  -1.1            1.0745e-009     -2.3948e-007    2.413e-009     
  -1.15           1.1339e-009     -4.7939e-007    -6.848e-009    
  -1.2            1.1606e-009     -8.2367e-007    -1.1233e-008   
  -1.25           1.4122e-009     -1.25e-006      2.665e-009     
  -1.3            3.374e-010      -1.7433e-006    8.662e-009     
  -1.35           6.522e-010      -2.2862e-006    8.687e-009     
  -1.4            1.035e-009      -2.8437e-006    1.153e-008     
  -1.45           1.4746e-009     -3.396e-006     1.3993e-008    
  -1.5            4.065e-010      -3.9436e-006    8.727e-009     
  -1.55           6.858e-010      -4.486e-006     8.673e-009     
  -1.6            1.09e-009       -5.0043e-006    1.1199e-008    
  -1.65           1.5179e-009     -5.4926e-006    1.4935e-008    
  -1.7            3.92e-010       -5.9677e-006    9.105e-009     
  -1.75           7.423e-010      -6.4258e-006    8.71e-009      
  -1.8            1.1486e-009     -6.8574e-006    1.1723e-008    
END_DB

BEGIN_DB
 ICCAP_VAR VS         0              
 ICCAP_VAR VB         1.8            
 ICCAP_VAR VD         -1.8           

 #VG              IG              ID              IB             
  0               -1.2657e-009    3.179e-010      2.062e-009     
  -0.05           1.5529e-009     -2.166e-010     -1.6884e-008   
  -0.1            1.9655e-009     9.58e-010       -2.636e-009    
  -0.15           -1.2506e-009    1.1073e-009     9.315e-009     
  -0.2            -1.2777e-009    -1.2703e-009    5.587e-009     
  -0.25           1.7245e-009     9.147e-010      -6.382e-009    
  -0.3            -1.2537e-009    8.238e-010      8.788e-009     
  -0.35           -9.247e-010     -1.6144e-009    1.952e-009     
  -0.4            1.1624e-009     -7.8e-012       -1.3148e-008   
  -0.45           1.7182e-009     -1.439e-010     -1.5461e-008   
  -0.5            1.8948e-009     9.362e-010      -9.31e-010     
  -0.55           -1.2525e-009    1.0231e-009     8.768e-009     
  -0.6            -1.1846e-009    -1.371e-009     3.786e-009     
  -0.65           1.6108e-009     -1.96e-010      -1.6139e-008   
  -0.7            1.9473e-009     9.227e-010      -2.042e-009    
  -0.75           -1.2507e-009    9.461e-010      9.83e-009      
  -0.8            -2.2169e-009    -1.616e-009     4.844e-009     
  -0.85           2.092e-010      -4.7642e-009    -9.093e-009    
  -0.9            2.3349e-009     -1.1854e-008    1.547e-008     
  -0.95           1.5118e-009     -4.6963e-008    1.4303e-008    
  -1              4.818e-010      -1.47e-007      -1.2419e-008   
  -1.05           7.948e-010      -3.7694e-007    8.935e-009     
  -1.1            1.23e-009       -7.9862e-007    1.2701e-008    
  -1.15           -1.4552e-009    -1.4688e-006    -7.351e-009    
  -1.2            1.1624e-009     -2.4661e-006    -1.0391e-008   
  -1.25           1.5448e-009     -3.7586e-006    -1.3934e-008   
  -1.3            1.4921e-009     -5.3621e-006    1.4916e-008    
  -1.35           4.105e-010      -7.2822e-006    9.134e-009     
  -1.4            6.967e-010      -9.5242e-006    8.597e-009     
  -1.45           -2.3959e-009    -1.1955e-005    8.83e-009      
  -1.5            -4.007e-010     -1.4652e-005    -9.629e-009    
  -1.55           1.1614e-009     -1.7668e-005    -1.0409e-008   
  -1.6            1.3994e-009     -2.0787e-005    -1.5363e-008   
  -1.65           1.0828e-009     -2.409e-005     -3.47e-009     
  -1.7            1.0936e-009     -2.7556e-005    -3.963e-009    
  -1.75           1.1561e-009     -3.1186e-005    -9.56e-009     
  -1.8            1.6625e-009     -3.4912e-005    -1.2822e-008   
END_DB

