! VERSION = 6.00
BEGIN_HEADER
 ICCAP_INPUTS
  VG         V  B GROUND SMU4 0.001 LIN        1    0          -1.8       37   -0.05     
  VS         V  E GROUND SMU3 0.1 CON        0
  VB         V  C GROUND SMU1 0.1 LIN        3    0          1.8        3    0.9       
  VD         V  S GROUND SMU2 0.1 LIN        2    -0.1       -1.8       2    -1.7      
 ICCAP_OUTPUTS
  IG         I  B GROUND SMU4 B
  ID         I  S GROUND SMU2 B
  IB         I  C GROUND SMU1 B
END_HEADER

BEGIN_DB
 ICCAP_VAR VS         0              
 ICCAP_VAR VB         0              
 ICCAP_VAR VD         -0.1           

 #VG              IG              ID              IB             
  0               -1.256e-009     -3.551e-010     -1.1413e-008   
  -0.05           2.7245e-009     -1.834e-010     -1.1827e-008   
  -0.1            -1.5865e-009    3.0582e-009     1.1882e-008    
  -0.15           2.0398e-009     -2.8244e-009    -1.7053e-008   
  -0.2            -1.9697e-009    1.1694e-009     1.5717e-008    
  -0.25           2.2591e-009     -1.2223e-009    -1.7068e-008   
  -0.3            -2.1539e-009    1.0016e-009     1.4163e-008    
  -0.35           2.4296e-009     -1.0174e-009    -1.6973e-008   
  -0.4            -2.3045e-009    8.247e-010      1.2247e-008    
  -0.45           2.5596e-009     -8.162e-010     -1.6459e-008   
  -0.5            -1.721e-010     3.5586e-009     7.854e-009     
  -0.55           -2.5976e-009    -4.98e-011      8.219e-009     
  -0.6            1.9668e-009     -2.9465e-009    -1.5835e-008   
  -0.65           1.6853e-009     2.1399e-009     1.0623e-008    
  -0.7            -2.5506e-009    -2.9147e-009    8.274e-009     
  -0.75           1.6377e-009     -8.8793e-009    -1.169e-008    
  -0.8            -2.2564e-009    -2.5021e-008    -1.2922e-008   
  -0.85           2.5246e-009     -8.2736e-008    -1.5073e-008   
  -0.9            -1.123e-009     -2.4801e-007    1.4564e-008    
  -0.95           2.71e-009       -6.2545e-007    -9.161e-009    
  -1              -2.1629e-009    -1.29e-006      -1.3626e-008   
  -1.05           1.6115e-009     -2.3489e-006    -1.6576e-008   
  -1.1            8.583e-010      -3.7158e-006    8.992e-009     
  -1.15           -2.598e-009     -5.373e-006     6.851e-009     
  -1.2            2.6292e-009     -7.3431e-006    -1.2458e-008   
  -1.25           -1.9282e-009    -9.347e-006     1.2697e-008    
  -1.3            -1.84e-011      -1.1533e-005    9.474e-009     
  -1.35           -2.1776e-009    -1.3711e-005    1.047e-008     
  -1.4            1.6287e-009     -1.5978e-005    -1.6706e-008   
  -1.45           8.536e-010      -1.8138e-005    8.931e-009     
  -1.5            -2.6008e-009    -2.0254e-005    6.787e-009     
  -1.55           2.6326e-009     -2.2417e-005    -1.2123e-008   
  -1.6            -1.941e-009     -2.4388e-005    1.2574e-008    
  -1.65           1.5468e-009     -2.6396e-005    -1.6497e-008   
  -1.7            8.908e-010      -2.8304e-005    8.827e-009     
  -1.75           -2.5925e-009    -3.0113e-005    7.036e-009     
  -1.8            2.6039e-009     -3.1955e-005    -1.3031e-008   
END_DB

BEGIN_DB
 ICCAP_VAR VS         0              
 ICCAP_VAR VB         0              
 ICCAP_VAR VD         -1.8           

 #VG              IG              ID              IB             
  0               3.165e-010      -9.9e-010       -1.6521e-008   
  -0.05           -1.8388e-009    1.2874e-009     1.6383e-008    
  -0.1            2.3126e-009     -2.6515e-009    -2.1655e-008   
  -0.15           -2.1951e-009    9.564e-010      1.3749e-008    
  -0.2            2.4633e-009     -9.772e-010     -1.6822e-008   
  -0.25           -2.3331e-009    7.853e-010      1.2039e-008    
  -0.3            2.5808e-009     -7.843e-010     -1.6336e-008   
  -0.35           -2.43e-009      3.5318e-009     7.759e-009     
  -0.4            2.6562e-009     -5.724e-010     -1.5664e-008   
  -0.45           -1.3433e-009    3.3671e-009     7.925e-009     
  -0.5            2.7044e-009     -3.65e-010      -1.4062e-008   
  -0.55           -2.5472e-009    2.138e-010      8.548e-009     
  -0.6            2.7258e-009     -2.471e-010     -1.1346e-008   
  -0.65           -1.6129e-009    2.6679e-009     1.2244e-008    
  -0.7            2.0607e-009     -4.3915e-009    -1.723e-008    
  -0.75           -1.9858e-009    -5.5511e-009    1.5546e-008    
  -0.8            -2.4661e-009    -2.8174e-008    -1.5903e-008   
  -0.85           2.2105e-009     -9.529e-008     -1.6483e-008   
  -0.9            5.349e-010      -2.8524e-007    -1.3954e-008   
  -0.95           -1.3987e-009    -7.4119e-007    1.7636e-008    
  -1              2.7364e-009     -1.6724e-006    9.182e-009     
  -1.05           -2.4481e-009    -3.1645e-006    8.251e-009     
  -1.1            2.145e-009      -5.5486e-006    -1.6778e-008   
  -1.15           -1.5017e-009    -8.6871e-006    1.6924e-008    
  -1.2            -1.4425e-009    -1.2899e-005    -8.144e-009    
  -1.25           2.4151e-009     -1.8329e-005    -1.5846e-008   
  -1.3            -1.5864e-009    -2.448e-005     1.5641e-008    
  -1.35           2.544e-009      -3.2088e-005    -1.4447e-008   
  -1.4            -1.7669e-009    -4.0267e-005    1.4226e-008    
  -1.45           2.6937e-009     -4.9943e-005    -1.363e-008    
  -1.5            7.22e-011       -6.0099e-005    8.008e-009     
  -1.55           -2.0514e-009    -7.1343e-005    1.1503e-008    
  -1.6            1.6863e-009     -8.3774e-005    -1.8735e-008   
  -1.65           8.285e-010      -9.6684e-005    9.321e-009     
  -1.7            -2.6089e-009    -0.000110206    6.992e-009     
  -1.75           -9.74e-010      -0.00012477     -1.9406e-008   
  -1.8            2.729e-009      -0.0001402      -7.891e-009    
END_DB

BEGIN_DB
 ICCAP_VAR VS         0              
 ICCAP_VAR VB         0.9            
 ICCAP_VAR VD         -0.1           

 #VG              IG              ID              IB             
  0               -6.505e-010     2.357e-010      -7.581e-009    
  -0.05           2.5715e-009     -7.909e-010     -1.6587e-008   
  -0.1            -2.425e-009     3.5493e-009     7.804e-009     
  -0.15           2.6524e-009     -5.947e-010     -1.5843e-008   
  -0.2            -1.3292e-009    3.394e-009      7.736e-009     
  -0.25           2.7009e-009     -3.943e-010     -1.4308e-008   
  -0.3            -1.4304e-009    3.2318e-009     9.069e-009     
  -0.35           2.7212e-009     -1.86e-010      -1.2043e-008   
  -0.4            -1.5748e-009    3.065e-009      1.1671e-008    
  -0.45           2.0271e-009     -2.8288e-009    -1.6758e-008   
  -0.5            -1.955e-009     1.1938e-009     1.5479e-008    
  -0.55           2.2283e-009     -1.2406e-009    -1.6837e-008   
  -0.6            -2.1242e-009    1.038e-009      1.4324e-008    
  -0.65           2.4004e-009     -1.069e-009     -1.6884e-008   
  -0.7            -2.2755e-009    8.683e-010      1.2809e-008    
  -0.75           2.5394e-009     -8.88e-010      -1.6952e-008   
  -0.8            -1.389e-010     3.5865e-009     7.982e-009     
  -0.85           -2.5782e-009    -1.333e-010     8.439e-009     
  -0.9            1.8653e-009     -3.6742e-009    -1.4244e-008   
  -0.95           -1.4445e-009    -4.7345e-009    1.9605e-008    
  -1              1.7599e-009     -1.2919e-008    5.912e-009     
  -1.05           -1.6638e-009    -6.9253e-008    1.4565e-008    
  -1.1            9.382e-010      -2.3355e-007    -1.6811e-008   
  -1.15           -2.5726e-009    -6.2216e-007    6.938e-009     
  -1.2            2.5153e-009     -1.3685e-006    1.6629e-008    
  -1.25           -1.6868e-009    -2.4882e-006    1.429e-008     
  -1.3            2.632e-009      -4.0328e-006    -1.3303e-008   
  -1.35           -1.8806e-009    -5.7632e-006    1.3127e-008    
  -1.4            2.7184e-009     -7.7851e-006    -1.4911e-008   
  -1.45           1.4707e-009     -9.895e-006     8.421e-009     
  -1.5            1.8633e-009     -1.1992e-005    -1.6119e-008   
  -1.55           -1.4984e-009    -1.4059e-005    1.5481e-008    
  -1.6            2.526e-009      -1.6214e-005    -1.5844e-008   
  -1.65           -1.6754e-009    -1.8201e-005    1.4495e-008    
  -1.7            2.6217e-009     -2.0254e-005    -1.3523e-008   
  -1.75           -1.8598e-009    -2.2127e-005    1.3009e-008    
  -1.8            2.7151e-009     -2.4029e-005    -1.4566e-008   
END_DB

BEGIN_DB
 ICCAP_VAR VS         0              
 ICCAP_VAR VB         0.9            
 ICCAP_VAR VD         -1.8           

 #VG              IG              ID              IB             
  0               6.146e-010      -2.821e-010     6.97e-009      
  -0.05           7.915e-010      4.2332e-009     7.97e-009      
  -0.1            2.6186e-009     -6.53e-010      -1.5987e-008   
  -0.15           -1.3136e-009    3.4435e-009     7.884e-009     
  -0.2            2.6794e-009     -4.553e-010     -1.4863e-008   
  -0.25           -1.3947e-009    3.2941e-009     8.731e-009     
  -0.3            2.7151e-009     -2.562e-010     -1.2865e-008   
  -0.35           -1.5248e-009    3.137e-009      1.0857e-008    
  -0.4            1.9365e-009     -2.8802e-009    -1.5441e-008   
  -0.45           1.6982e-009     2.4396e-009     1.0608e-008    
  -0.5            -2.5424e-009    2.512e-010      8.339e-009     
  -0.55           2.7205e-009     -1.646e-010     -1.1506e-008   
  -0.6            -1.6012e-009    3.0533e-009     1.2082e-008    
  -0.65           2.0376e-009     -2.8296e-009    -1.7051e-008   
  -0.7            -1.9636e-009    1.177e-009      1.5739e-008    
  -0.75           2.2371e-009     -1.2324e-009    -1.7084e-008   
  -0.8            -2.1297e-009    9.909e-010      1.4412e-008    
  -0.85           2.4002e-009     -1.2243e-009    -1.7116e-008   
  -0.9            -2.2754e-009    -2.49e-011      1.249e-008     
  -0.95           2.5353e-009     -5.0713e-009    -1.6609e-008   
  -1              -2.5916e-009    -2.1717e-008    -1.6977e-008   
  -1.05           1.7817e-009     -8.1901e-008    -1.6972e-008   
  -1.1            -8.218e-010     -2.7644e-007    9.467e-009     
  -1.15           2.7237e-009     -7.7214e-007    -7.668e-009    
  -1.2            -2.5878e-009    -1.7535e-006    -1.734e-008    
  -1.25           1.8069e-009     -3.5037e-006    -1.6993e-008   
  -1.3            7.81e-010       -6.0653e-006    9.46e-009      
  -1.35           -2.6129e-009    -9.5948e-006    6.757e-009     
  -1.4            -1.897e-010     -1.4341e-005    8.45e-009      
  -1.45           2.0624e-009     -2.0087e-005    -1.699e-008    
  -1.5            -1.4434e-009    -2.6675e-005    1.5361e-008    
  -1.55           2.4247e-009     -3.4732e-005    -1.5838e-008   
  -1.6            -1.5892e-009    -4.3269e-005    1.5623e-008    
  -1.65           2.5477e-009     -5.3308e-005    -1.4529e-008   
  -1.7            -1.7609e-009    -6.3658e-005    1.4162e-008    
  -1.75           2.691e-009      -7.5475e-005    -1.3502e-008   
  -1.8            7.19e-011       -8.7511e-005    7.973e-009     
END_DB

BEGIN_DB
 ICCAP_VAR VS         0              
 ICCAP_VAR VB         1.8            
 ICCAP_VAR VD         -0.1           

 #VG              IG              ID              IB             
  0               2.103e-010      -1.2223e-009    -1.6861e-008   
  -0.05           1.2838e-009     3.6429e-009     8.527e-009     
  -0.1            -2.621e-009     -3.686e-010     6.95e-009      
  -0.15           2.3794e-009     -1.0849e-009    -1.6961e-008   
  -0.2            -2.2534e-009    8.825e-010      1.2948e-008    
  -0.25           2.5141e-009     -8.789e-010     -1.6732e-008   
  -0.3            -1.362e-010     3.6162e-009     8.186e-009     
  -0.35           -2.5922e-009    3.23e-011       8.382e-009     
  -0.4            1.8701e-009     -2.9155e-009    -1.4594e-008   
  -0.45           1.7338e-009     2.3595e-009     1.0652e-008    
  -0.5            -2.5346e-009    2.911e-010      8.656e-009     
  -0.55           2.7165e-009     -2.125e-010     -1.2148e-008   
  -0.6            -1.5597e-009    3.0948e-009     1.1627e-008    
  -0.65           1.9931e-009     -2.859e-009     -1.6351e-008   
  -0.7            -1.9233e-009    1.2052e-009     1.5855e-008    
  -0.75           2.2047e-009     -1.2604e-009    -1.6975e-008   
  -0.8            -2.1058e-009    1.0458e-009     1.4579e-008    
  -0.85           2.3701e-009     -1.0775e-009    -1.6975e-008   
  -0.9            -2.2517e-009    8.77e-010       1.2894e-008    
  -0.95           2.5167e-009     -9.064e-010     -1.6681e-008   
  -1              -1.36e-010      3.4831e-009     8.158e-009     
  -1.05           -2.5876e-009    -6.888e-010     8.447e-009     
  -1.1            1.8794e-009     -6.6148e-009    -1.4614e-008   
  -1.15           2.537e-009      -1.5806e-008    1.0672e-008    
  -1.2            7.78e-010       -6.9314e-008    9.171e-009     
  -1.25           7.897e-010      -2.4088e-007    -1.6007e-008   
  -1.3            -2.6138e-009    -6.394e-007     6.77e-009      
  -1.35           2.5218e-009     -1.3903e-006    1.5698e-008    
  -1.4            7.55e-010       -2.5224e-006    9.543e-009     
  -1.45           -2.6178e-009    -3.9993e-006    6.75e-009      
  -1.5            2.6835e-009     -5.8009e-006    -1.3333e-008   
  -1.55           8.57e-011       -7.6811e-006    8.081e-009     
  -1.6            -2.03e-009      -9.6874e-006    1.193e-008     
  -1.65           7.863e-010      -1.1743e-005    -1.6941e-008   
  -1.7            -2.6176e-009    -1.3729e-005    6.741e-009     
  -1.75           2.671e-009      -1.5773e-005    -1.2538e-008   
  -1.8            1.2e-010        -1.7656e-005    8.199e-009     
END_DB

BEGIN_DB
 ICCAP_VAR VS         0              
 ICCAP_VAR VB         1.8            
 ICCAP_VAR VD         -1.8           

 #VG              IG              ID              IB             
  0               1.4039e-009     3.23e-011       7.932e-009     
  -0.05           -1.5972e-009    1.4876e-009     1.8592e-008    
  -0.1            2.0506e-009     -2.8341e-009    -1.7202e-008   
  -0.15           -1.9659e-009    1.1734e-009     1.5832e-008    
  -0.2            2.2456e-009     -1.2227e-009    -1.7153e-008   
  -0.25           -2.1446e-009    1.0101e-009     1.4321e-008    
  -0.3            2.4116e-009     -1.0262e-009    -1.7135e-008   
  -0.35           -2.2865e-009    8.285e-010      1.2535e-008    
  -0.4            2.5428e-009     -8.258e-010     -1.669e-008    
  -0.45           -1.631e-010     3.5732e-009     8.044e-009     
  -0.5            -2.5958e-009    -2.17e-011      8.281e-009     
  -0.55           1.9499e-009     -2.8821e-009    -1.5601e-008   
  -0.6            1.6969e-009     2.4488e-009     1.0648e-008    
  -0.65           -2.5469e-009    2.379e-010      8.488e-009     
  -0.7            1.622e-009      -3.025e-009     -1.176e-008    
  -0.75           -1.8097e-009    2.8406e-009     1.5937e-008    
  -0.8            2.0853e-009     -1.3535e-009    -1.685e-008    
  -0.85           -2.0028e-009    1.1498e-009     1.5538e-008    
  -0.9            2.284e-009      -1.1951e-009    -1.7008e-008   
  -0.95           -2.1715e-009    9.436e-010      1.3922e-008    
  -1              2.4455e-009     -1.1418e-009    -1.6885e-008   
  -1.05           -2.3097e-009    -4.6e-012       1.2263e-008    
  -1.1            2.5669e-009     -4.9205e-009    -1.649e-008    
  -1.15           -1.6765e-009    -2.4808e-008    -7.555e-009    
  -1.2            2.1195e-009     -8.5423e-008    -1.6818e-008   
  -1.25           4.503e-010      -2.8327e-007    -1.2369e-008   
  -1.3            -1.4978e-009    -7.861e-007     1.6808e-008    
  -1.35           2.4287e-009     -1.8234e-006    1.5376e-008    
  -1.4            -1.6319e-009    -3.5551e-006    1.5462e-008    
  -1.45           2.5632e-009     -6.2907e-006    -1.388e-008    
  -1.5            -1.816e-009     -9.832e-006     1.3931e-008    
  -1.55           -1.7372e-009    -1.4501e-005    -7.374e-009    
  -1.6            2.6221e-009     -2.0435e-005    -1.2356e-008   
  -1.65           -1.9336e-009    -2.7012e-005    1.2721e-008    
  -1.7            2.7185e-009     -3.4995e-005    -1.6314e-008   
  -1.75           -3.78e-011      -4.3552e-005    7.878e-009     
  -1.8            -2.2033e-009    -5.3173e-005    9.99e-009      
END_DB

