! VERSION = 6.00
BEGIN_HEADER
 ICCAP_INPUTS
  VG         V  B GROUND SMU4 0.001 LIN        2    0          -1.8       6    -0.36     
  VS         V  E GROUND SMU2 0.1 CON        0
  VD         V  S GROUND SMU1 0.1 LIN        1    0          -1.8       37   -0.05     
  VB         V  C GROUND SMU3 0.1 LIN        3    0          0.9        2    0.9       
 ICCAP_OUTPUTS
  ID         I  S GROUND SMU1 B
  IB         I  C GROUND SMU3 B
  IG         I  B GROUND SMU4 B
END_HEADER

BEGIN_DB
 ICCAP_VAR VG         0              
 ICCAP_VAR VS         0              
 ICCAP_VAR VB         0              

 #VD              ID              IB              IG             
  0               -1.0481e-009    1.3716e-008     -1.2021e-009   
  -0.05           9.38e-010       -9.652e-009     1.8856e-009    
  -0.1            1.0275e-009     8.8e-009        -1.2534e-009   
  -0.15           -1.3815e-009    3.798e-009      -1.2159e-009   
  -0.2            -2.291e-010     -1.6774e-008    1.5837e-009    
  -0.25           1.1541e-009     1.4958e-008     1.2455e-009    
  -0.3            1.7192e-009     8.562e-009      3.88e-011      
  -0.35           1.8149e-009     8.791e-009      1.972e-010     
  -0.4            7.124e-010      8.621e-009      -1.2628e-009   
  -0.45           -1.0908e-009    2.614e-009      -1.6411e-009   
  -0.5            6.5e-011        -1.1976e-008    1.1677e-009    
  -0.55           -1.113e-010     -1.4346e-008    1.1637e-009    
  -0.6            -2.237e-010     -1.677e-008     1.6064e-009    
  -0.65           1.1637e-009     1.4543e-008     1.232e-009     
  -0.7            1.7157e-009     8.423e-009      2.58e-011      
  -0.75           1.7481e-009     8.774e-009      2.413e-010     
  -0.8            6.992e-010      8.617e-009      -1.2634e-009   
  -0.85           -1.7646e-009    2.776e-009      -7.886e-010    
  -0.9            -1.558e-009     -8.762e-009     1.1653e-009    
  -0.95           -2.429e-010     -1.829e-008     1.5202e-009    
  -1              9.705e-010      -3.149e-009     1.9683e-009    
  -1.05           1.1653e-009     1.0998e-008     -1.2531e-009   
  -1.1            -1.2343e-009    7.031e-009      -1.3568e-009   
  -1.15           -1.9151e-009    -9.611e-009     4.84e-011      
  -1.2            -4.9e-011       -1.3315e-008    1.1654e-009    
  -1.25           -1.811e-010     -1.5694e-008    1.7048e-009    
  -1.3            1.2299e-009     1.4065e-008     1.1542e-009    
  -1.35           1.0712e-009     1.5296e-008     1.3423e-009    
  -1.4            1.7747e-009     8.757e-009      1.181e-010     
  -1.45           1.8283e-009     8.791e-009      2.889e-010     
  -1.5            7.853e-010      8.746e-009      -1.2596e-009   
  -1.55           -1.6682e-009    2.071e-009      -9.135e-010    
  -1.6            -3.3e-011       -1.3006e-008    1.1652e-009    
  -1.65           -1.711e-010     -1.5745e-008    1.7279e-009    
  -1.7            1.2584e-009     1.4599e-008     1.138e-009     
  -1.75           1.0878e-009     1.4884e-008     1.3283e-009    
  -1.8            1.763e-009      8.691e-009      1.06e-010      
END_DB

BEGIN_DB
 ICCAP_VAR VG         -0.36          
 ICCAP_VAR VS         0              
 ICCAP_VAR VB         0              

 #VD              ID              IB              IG             
  0               -1.0939e-009    9.078e-009      -1.2557e-009   
  -0.05           9.61e-010       -1.0768e-008    1.9836e-009    
  -0.1            1.1189e-009     1.093e-008      -1.2518e-009   
  -0.15           -1.2618e-009    6.727e-009      -1.3467e-009   
  -0.2            -1.8988e-009    -9.686e-009     6.76e-011      
  -0.25           -4.03e-011      -1.3144e-008    1.1735e-009    
  -0.3            -1.933e-010     -1.5423e-008    1.7305e-009    
  -0.35           1.2409e-009     1.4458e-008     1.1296e-009    
  -0.4            1.0694e-009     1.5721e-008     1.323e-009     
  -0.45           1.746e-009      8.957e-009      1.152e-010     
  -0.5            1.8226e-009     9.151e-009      2.684e-010     
  -0.55           7.525e-010      8.705e-009      -1.2585e-009   
  -0.6            -1.1033e-009    2.145e-009      -1.7052e-009   
  -0.65           -1.9707e-009    -8.462e-009     -4.272e-010    
  -0.7            9.126e-010      -9.226e-009     1.8557e-009    
  -0.75           9.635e-010      9.072e-009      -1.2544e-009   
  -0.8            -1.0971e-009    3.248e-009      -1.9633e-009   
  -0.85           -2.325e-010     -1.5807e-008    1.6525e-009    
  -0.9            1.1768e-009     1.4386e-008     1.1859e-009    
  -0.95           1.6809e-009     8.218e-009      -1.43e-011     
  -1              1.7715e-009     9.171e-009      1.48e-010      
  -1.05           6.406e-010      8.977e-009      -1.2641e-009   
  -1.1            -1.122e-009     2.715e-009      -1.5988e-009   
  -1.15           9.18e-011       -1.1413e-008    1.1667e-009    
  -1.2            -9.09e-011      -1.36e-008      1.1605e-009    
  -1.25           -2.216e-010     -1.6074e-008    1.6816e-009    
  -1.3            1.1901e-009     1.44e-008       1.1687e-009    
  -1.35           1.0287e-009     1.5351e-008     1.3721e-009    
  -1.4            1.752e-009      9.152e-009      1.451e-010     
  -1.45           6.186e-010      9.1e-009        -1.265e-009    
  -1.5            -1.1302e-009    2.819e-009      -1.5863e-009   
  -1.55           9.579e-010      -1.1562e-008    2.0433e-009    
  -1.6            1.1743e-009     1.0879e-008     -1.2483e-009   
  -1.65           -1.2229e-009    8.707e-009      -1.402e-009    
  -1.7            -1.2412e-009    -1.1537e-008    1.154e-009     
  -1.75           8.99e-011       -1.152e-008     1.166e-009     
  -1.8            -9.58e-011      -1.349e-008     1.1633e-009    
END_DB

BEGIN_DB
 ICCAP_VAR VG         -0.72          
 ICCAP_VAR VS         0              
 ICCAP_VAR VB         0              

 #VD              ID              IB              IG             
  0               -9.246e-010     -9.874e-009     -1.2597e-009   
  -0.05           -9.9804e-008    9.113e-009      1.4334e-009    
  -0.1            -1.2603e-007    1.395e-008      -1.2819e-009   
  -0.15           -1.3954e-007    8.591e-009      5.043e-010     
  -0.2            -1.5133e-007    -3.757e-009     1.0957e-009    
  -0.25           -1.5765e-007    -9.341e-009     -9.317e-010    
  -0.3            -1.6627e-007    1.849e-009      -1.2511e-009   
  -0.35           -1.7359e-007    1.3529e-008     1.2729e-009    
  -0.4            -1.8799e-007    -1.1363e-008    1.1684e-009    
  -0.45           -1.9299e-007    -1.12e-008      1.1673e-009    
  -0.5            -2.0141e-007    -1.2381e-008    1.6804e-009    
  -0.55           -2.0964e-007    -1.7571e-008    1.1424e-009    
  -0.6            -2.1216e-007    -9.568e-009     -1.509e-010    
  -0.65           -2.1668e-007    3.2e-011        -1.2794e-009   
  -0.7            -2.2583e-007    8.634e-009      5.073e-010     
  -0.75           -2.354e-007     -3.775e-009     1.0958e-009    
  -0.8            -2.4614e-007    -1.5861e-008    1.3343e-009    
  -0.85           -2.545e-007     -1.185e-008     1.1665e-009    
  -0.9            -2.5293e-007    -9.594e-009     -3.65e-010     
  -0.95           -2.5916e-007    2.195e-009      -1.2614e-009   
  -1              -2.7098e-007    8.458e-009      6.989e-010     
  -1.05           -2.8216e-007    -6.036e-009     1.1412e-009    
  -1.1            -2.9225e-007    -1.1986e-008    1.1654e-009    
  -1.15           -2.8942e-007    -9.573e-009     -3.587e-010    
  -1.2            -2.9541e-007    2.072e-009      -1.2623e-009   
  -1.25           -3.0903e-007    8.463e-009      7.133e-010     
  -1.3            -3.2003e-007    -5.851e-009     1.1382e-009    
  -1.35           -3.3083e-007    -1.23e-008      1.1638e-009    
  -1.4            -3.2798e-007    -9.619e-009     -3.451e-010    
  -1.45           -3.343e-007     2.247e-009      -1.2632e-009   
  -1.5            -3.497e-007     8.458e-009      6.792e-010     
  -1.55           -3.6138e-007    -5.929e-009     1.1369e-009    
  -1.6            -3.7298e-007    -1.248e-008     1.1662e-009    
  -1.65           -3.684e-007     -9.699e-009     -3.372e-010    
  -1.7            -3.755e-007     2.202e-009      -1.2646e-009   
  -1.75           -3.917e-007     8.337e-009      6.884e-010     
  -1.8            -4.0506e-007    -5.542e-009     1.1353e-009    
END_DB

BEGIN_DB
 ICCAP_VAR VG         -1.08          
 ICCAP_VAR VS         0              
 ICCAP_VAR VB         0              

 #VD              ID              IB              IG             
  0               -3.7197e-008    9.978e-009      3.848e-010     
  -0.05           -1.2798e-005    -1.2687e-008    2.192e-010     
  -0.1            -2.1323e-005    -3.219e-009     1.0718e-009    
  -0.15           -2.6746e-005    -1.7038e-008    1.2661e-009    
  -0.2            -3.0141e-005    -1.1306e-008    1.1588e-009    
  -0.25           -3.2048e-005    -8.558e-009     -7.983e-010    
  -0.3            -3.3811e-005    2.489e-009      -1.2415e-009   
  -0.35           -3.5547e-005    8.603e-009      5.644e-010     
  -0.4            -3.679e-005     -7.122e-009     1.1483e-009    
  -0.45           -3.7379e-005    -9.49e-009      -3.728e-010    
  -0.5            -3.8226e-005    3.035e-009      -1.255e-009    
  -0.55           -3.9565e-005    1.3177e-008     1.2506e-009    
  -0.6            -4.0351e-005    -1.4452e-008    1.4776e-009    
  -0.65           -4.1192e-005    -1.03e-008      1.1645e-009    
  -0.7            -4.1847e-005    -1.3502e-008    1.5672e-009    
  -0.75           -4.2645e-005    -1.092e-008     1.1648e-009    
  -0.8            -4.3275e-005    -1.4372e-008    1.4905e-009    
  -0.85           -4.4031e-005    -1.0304e-008    1.165e-009     
  -0.9            -4.4608e-005    -1.3574e-008    1.5791e-009    
  -0.95           -4.5338e-005    -9.57e-009      1.1621e-009    
  -1              -4.5874e-005    -1.2567e-008    1.6709e-009    
  -1.05           -4.658e-005     -1.2094e-008    1.1639e-009    
  -1.1            -4.7129e-005    -1.3329e-008    1.5951e-009    
  -1.15           -4.7833e-005    -1.1269e-008    1.1638e-009    
  -1.2            -4.8346e-005    -1.4151e-008    1.5161e-009    
  -1.25           -4.903e-005     -1.0158e-008    1.1625e-009    
  -1.3            -4.9523e-005    -1.3198e-008    1.6056e-009    
  -1.35           -5.0209e-005    -1.1289e-008    1.1652e-009    
  -1.4            -5.0706e-005    -1.3964e-008    1.5296e-009    
  -1.45           -5.1372e-005    -9.983e-009     1.1655e-009    
  -1.5            -5.1828e-005    -1.2952e-008    1.6224e-009    
  -1.55           -5.2497e-005    -9.173e-009     1.1618e-009    
  -1.6            -5.2944e-005    -1.2175e-008    1.7062e-009    
  -1.65           -5.3222e-005    -9.516e-009     -2.233e-010    
  -1.7            -5.354e-005     2.494e-009      -1.2574e-009   
  -1.75           -5.4804e-005    1.159e-008      1.0064e-009    
  -1.8            -5.5295e-005    -1.13e-008      1.1672e-009    
END_DB

BEGIN_DB
 ICCAP_VAR VG         -1.44          
 ICCAP_VAR VS         0              
 ICCAP_VAR VB         0              

 #VD              ID              IB              IG             
  0               -9.6568e-008    5.147e-009      1.1652e-009    
  -0.05           -4.7413e-005    8.507e-009      -2.277e-009    
  -0.1            -8.9305e-005    1.3309e-008     1.2589e-009    
  -0.15           -0.00012534     -1.343e-008     7.16e-011      
  -0.2            -0.00015555     1.0858e-008     -1.5643e-009   
  -0.25           -0.00018091     7.989e-009      1.91e-010      
  -0.3            -0.00020188     -1.6102e-008    1.3274e-009    
  -0.35           -0.00021785     -9.519e-009     -2.641e-010    
  -0.4            -0.00023053     1.412e-009      -1.2686e-009   
  -0.45           -0.00024193     8.415e-009      5.886e-010     
  -0.5            -0.00025053     -4.411e-009     1.1126e-009    
  -0.55           -0.0002572      -8.821e-009     3.46e-011      
  -0.6            -0.00026255     1.1693e-008     -1.5269e-009   
  -0.65           -0.00026777     8.157e-009      2.254e-010     
  -0.7            -0.00027347     -1.6826e-008    1.2861e-009    
  -0.75           -0.00027764     -9.361e-009     1.1617e-009    
  -0.8            -0.00028152     -1.0784e-008    1.1657e-009    
  -0.85           -0.00028477     -1.1602e-008    1.1643e-009    
  -0.9            -0.00028818     -1.3046e-008    1.6151e-009    
  -0.95           -0.00029094     -9.162e-009     -4.98e-011     
  -1              -0.00029332     1.3251e-008     -1.4593e-009   
  -1.05           -0.00029647     8.44e-009       2.89e-010      
  -1.1            -0.00030035     -1.8065e-008    1.2227e-009    
  -1.15           -0.00030299     -1.0061e-008    1.1654e-009    
  -1.2            -0.00030559     -1.1077e-008    1.1655e-009    
  -1.25           -0.00030785     -1.2051e-008    1.7358e-009    
  -1.3            -0.00031013     -8.771e-009     4.87e-011      
  -1.35           -0.00031168     1.1236e-008     -1.5469e-009   
  -1.4            -0.00031429     8.15e-009       2.127e-010     
  -1.45           -0.00031766     -1.6471e-008    1.3068e-009    
  -1.5            -0.00032013     -1.147e-008     1.1661e-009    
  -1.55           -0.00032218     -1.1329e-008    1.1653e-009    
  -1.6            -0.00032428     -1.2591e-008    1.6895e-009    
  -1.65           -0.00032659     -1.5929e-008    1.3222e-009    
  -1.7            -0.00032796     -9.518e-009     -2.64e-010     
  -1.75           -0.00032945     1.526e-009      -1.2687e-009   
  -1.8            -0.00033289     8.423e-009      5.896e-010     
END_DB

BEGIN_DB
 ICCAP_VAR VG         -1.8           
 ICCAP_VAR VS         0              
 ICCAP_VAR VB         0              

 #VD              ID              IB              IG             
  0               -1.16748e-007   2.43e-009       -1.0671e-009   
  -0.05           -7.3852e-005    1.5194e-008     -1.3182e-009   
  -0.1            -0.00014371     8.677e-009      2.2679e-009    
  -0.15           -0.0002091      -1.4011e-008    1.4955e-009    
  -0.2            -0.00026986     -9.458e-009     -1.436e-010    
  -0.25           -0.00032565     1.5219e-008     -1.391e-009    
  -0.3            -0.00037706     8.753e-009      3.439e-010     
  -0.35           -0.00042362     -3.319e-009     1.0735e-009    
  -0.4            -0.00046418     -8.52e-009      -6.269e-010    
  -0.45           -0.00050064     2.841e-009      -1.2581e-009   
  -0.5            -0.00053388     1.123e-008      9.87e-010      
  -0.55           -0.00056117     -1.0134e-008    1.1626e-009    
  -0.6            -0.00058488     -1.0957e-008    1.1649e-009    
  -0.65           -0.00060504     -1.2225e-008    1.7307e-009    
  -0.7            -0.00062274     -1.5208e-008    1.3637e-009    
  -0.75           -0.00063688     -9.576e-009     -2.626e-010    
  -0.8            -0.00064935     9.36e-010       -1.2724e-009   
  -0.85           -0.00066193     8.425e-009      5.937e-010     
  -0.9            -0.0006719      -4.142e-009     1.107e-009     
  -0.95           -0.00068051     -8.795e-009     5.89e-011      
  -1              -0.00068761     1.1082e-008     -1.5617e-009   
  -1.05           -0.00069531     8.027e-009      2.04e-010      
  -1.1            -0.00070328     -1.6261e-008    1.3187e-009    
  -1.15           -0.00070976     -1.1541e-008    1.1648e-009    
  -1.2            -0.00071562     -1.1159e-008    1.1641e-009    
  -1.25           -0.00072106     -1.1976e-008    1.7105e-009    
  -1.3            -0.00072678     -1.5553e-008    1.3453e-009    
  -1.35           -0.0007308      -9.545e-009     -2.365e-010    
  -1.4            -0.00073508     1.122e-009      -1.271e-009    
  -1.45           -0.00074157     8.333e-009      5.659e-010     
  -1.5            -0.00074603     -4.261e-009     1.1082e-009    
  -1.55           -0.00075        -8.753e-009     5.51e-011      
  -1.6            -0.00075331     1.1199e-008     -1.549e-009    
  -1.65           -0.00075774     8.009e-009      2.008e-010     
  -1.7            -0.0007634      -1.6113e-008    1.3136e-009    
  -1.75           -0.0007674      -1.1402e-008    1.1652e-009    
  -1.8            -0.00077138     -1.1119e-008    1.166e-009     
END_DB

BEGIN_DB
 ICCAP_VAR VG         0              
 ICCAP_VAR VS         0              
 ICCAP_VAR VB         0.9            

 #VD              ID              IB              IG             
  0               -1.0273e-009    -1.4969e-008    -1.2017e-009   
  -0.05           9.751e-010      -1.1107e-008    2.019e-009     
  -0.1            1.1789e-009     1.117e-008      -1.2515e-009   
  -0.15           -1.2163e-009    7.026e-009      -1.3589e-009   
  -0.2            -1.9185e-009    -9.562e-009     4.59e-011      
  -0.25           -7.58e-011      -1.2881e-008    1.1629e-009    
  -0.3            -1.727e-010     -1.5425e-008    1.72e-009      
  -0.35           9.395e-010      -1.412e-009     1.896e-009     
  -0.4            1.0383e-009     9.459e-009      -1.2562e-009   
  -0.45           -1.378e-009     4.129e-009      -1.211e-009    
  -0.5            -1.8067e-009    -9.115e-009     2.489e-010     
  -0.55           -1.891e-009     -9.609e-009     5.38e-011      
  -0.6            -3.17e-011      -1.299e-008     1.1675e-009    
  -0.65           -1.645e-010     -1.5241e-008    1.7542e-009    
  -0.7            1.2763e-009     1.4332e-008     1.1128e-009    
  -0.75           1.1077e-009     1.5817e-008     1.2979e-009    
  -0.8            1.7366e-009     8.656e-009      6.48e-011      
  -0.85           1.8119e-009     9.164e-009      2.139e-010     
  -0.9            7.223e-010      8.515e-009      -1.2624e-009   
  -0.95           -1.0923e-009    2.528e-009      -1.6391e-009   
  -1              5.76e-011       -1.1968e-008    1.1698e-009    
  -1.05           -1.048e-010     -1.4011e-008    1.1663e-009    
  -1.1            -2.121e-010     -1.6292e-008    1.6338e-009    
  -1.15           1.1942e-009     1.4561e-008     1.1973e-009    
  -1.2            1.6791e-009     8.016e-009      -2.36e-011     
  -1.25           1.7654e-009     8.713e-009      1.316e-010     
  -1.3            1.8193e-009     8.753e-009      2.955e-010     
  -1.35           7.91e-010       8.492e-009      -1.2612e-009   
  -1.4            -1.0895e-009    2.067e-009      -1.709e-009    
  -1.45           -1.78e-011      -1.272e-008     1.1671e-009    
  -1.5            -1.54e-010      -1.4964e-008    1.7743e-009    
  -1.55           1.2919e-009     1.4245e-008     1.0922e-009    
  -1.6            1.1177e-009     1.475e-008      1.2812e-009    
  -1.65           1.7207e-009     8.541e-009      4.79e-011      
  -1.7            1.804e-009      8.83e-009       2.027e-010     
  -1.75           7.114e-010      8.572e-009      -1.2644e-009   
  -1.8            -1.0945e-009    2.473e-009      -1.6241e-009   
END_DB

BEGIN_DB
 ICCAP_VAR VG         -0.36          
 ICCAP_VAR VS         0              
 ICCAP_VAR VB         0.9            

 #VD              ID              IB              IG             
  0               1.11e-009       -9.144e-009     1.0846e-009    
  -0.05           1.1276e-009     1.0617e-008     -1.2531e-009   
  -0.1            -1.2629e-009    5.832e-009      -1.3101e-009   
  -0.15           -1.8677e-009    -9.639e-009     1.028e-010     
  -0.2            1.92e-011       -1.223e-008     1.1623e-009    
  -0.25           -1.369e-010     -1.4591e-008    1.1563e-009    
  -0.3            -2.389e-010     -1.7169e-008    1.5588e-009    
  -0.35           1.1377e-009     1.4418e-008     1.2499e-009    
  -0.4            1.7042e-009     8.347e-009      2.39e-011      
  -0.45           1.7563e-009     8.705e-009      2.064e-010     
  -0.5            7.006e-010      8.651e-009      -1.2659e-009   
  -0.55           -1.0967e-009    2.703e-009      -1.6031e-009   
