! VERSION = 6.00
BEGIN_HEADER
 ICCAP_INPUTS
  VG         V  B GROUND SMU4 0.001 LIN        2    0          -1.8       6    -0.36     
  VS         V  E GROUND SMU2 0.1 CON        0
  VD         V  S GROUND SMU1 0.1 LIN        1    0          -1.8       37   -0.05     
  VB         V  C GROUND SMU3 0.1 CON        0
 ICCAP_OUTPUTS
  ID         I  S GROUND SMU1 B
  IG         I  B GROUND SMU4 B
END_HEADER

BEGIN_DB
 ICCAP_VAR VG         0              
 ICCAP_VAR VS         0              
 ICCAP_VAR VB         0              

 #VD              ID              IG             
  0               2.578e-011      -2.9023e-010   
  -0.05           -7.085e-011     3.2118e-010    
  -0.1            6.048e-011      -2.6152e-010   
  -0.15           -2.3492e-010    -1.2631e-010   
  -0.2            -1.18e-010      3.307e-010     
  -0.25           1.1625e-010     2.8e-011       
  -0.3            3.862e-011      -2.9309e-010   
  -0.35           -2.6278e-010    -1.1119e-010   
  -0.4            -1.1746e-010    3.4399e-010    
  -0.45           1.5773e-010     7.376e-011     
  -0.5            -2.0915e-010    -1.7726e-010   
  -0.55           -1.6346e-010    2.6166e-010    
  -0.6            1.421e-010      6.225e-011     
  -0.65           -2.3226e-010    -1.5815e-010   
  -0.7            -1.6588e-010    2.8492e-010    
  -0.75           1.1946e-010     5.147e-011     
  -0.8            -1.9569e-010    -2.8e-010      
  -0.85           -1.7052e-010    3.0798e-010    
  -0.9            9.299e-011      4.196e-011     
  -0.95           6.1e-013        -2.6508e-010   
  -1              -2.9741e-010    -1.2497e-010   
  -1.05           -1.7905e-010    3.3338e-010    
  -1.1            4.855e-011      2.579e-011     
  -1.15           -2.5876e-010    -1.9192e-010   
  -1.2            -1.8156e-010    3.4429e-010    
  -1.25           -2.3172e-010    -3.0055e-010   
  -1.3            -2.2259e-010    2.9128e-010    
  -1.35           -6.066e-011     3.3071e-010    
  -1.4            -2.0131e-010    -3.4474e-010   
  -1.45           -2.7748e-010    -2.413e-010    
  -1.5            -2.3355e-010    3.313e-010     
  -1.55           -6.184e-011     2.9349e-010    
  -1.6            -1.7622e-010    -2.9346e-010   
  -1.65           -2.6399e-010    -3.3003e-010   
  -1.7            -2.4767e-010    3.4398e-010    
  -1.75           -7.179e-011     2.3579e-010    
  -1.8            -2.4063e-010    -3.3326e-010   
END_DB

BEGIN_DB
 ICCAP_VAR VG         -0.36          
 ICCAP_VAR VS         0              
 ICCAP_VAR VB         0              

 #VD              ID              IG             
  0               2.6353e-008     -2.9017e-010   
  -0.05           -1.4374e-007    1.3098e-010    
  -0.1            -1.8842e-007    2.7683e-010    
  -0.15           -2.1107e-007    2.884e-010     
  -0.2            -2.3042e-007    3.0003e-010    
  -0.25           -2.4932e-007    3.109e-010     
  -0.3            -2.6873e-007    3.2034e-010    
  -0.35           -2.8873e-007    2.1703e-010    
  -0.4            -3.0868e-007    2.2418e-010    
  -0.45           -3.2936e-007    2.3288e-010    
  -0.5            -3.5036e-007    2.4286e-010    
  -0.55           -3.7195e-007    2.5229e-010    
  -0.6            -3.9422e-007    2.6289e-010    
  -0.65           -4.1689e-007    2.7499e-010    
  -0.7            -4.4029e-007    2.8583e-010    
  -0.75           -4.6437e-007    2.9713e-010    
  -0.8            -4.89e-007      3.0882e-010    
  -0.85           -5.1441e-007    3.2012e-010    
  -0.9            -5.4129e-007    2.1709e-010    
  -0.95           -5.6779e-007    2.238e-010     
  -1              -5.9526e-007    2.3221e-010    
  -1.05           -6.2362e-007    2.4077e-010    
  -1.1            -6.5227e-007    2.5098e-010    
  -1.15           -6.8182e-007    2.6155e-010    
  -1.2            -7.1243e-007    2.7297e-010    
  -1.25           -7.4406e-007    2.8449e-010    
  -1.3            -7.7658e-007    2.9638e-010    
  -1.35           -8.0964e-007    3.0791e-010    
  -1.4            -8.4412e-007    3.1814e-010    
  -1.45           -8.8068e-007    3.2753e-010    
  -1.5            -9.1687e-007    2.229e-010     
  -1.55           -9.5409e-007    2.305e-010     
  -1.6            -9.9234e-007    2.3874e-010    
  -1.65           -1.03226e-006   2.5046e-010    
  -1.7            -1.07268e-006   2.5957e-010    
  -1.75           -1.11473e-006   2.7152e-010    
  -1.8            -1.1591e-006    3.1674e-010    
END_DB

BEGIN_DB
 ICCAP_VAR VG         -0.72          
 ICCAP_VAR VS         0              
 ICCAP_VAR VB         0              

 #VD              ID              IG             
  0               -1.817e-007     2.3005e-010    
  -0.05           -0.00016659     7.384e-011     
  -0.1            -0.00025025     3.4333e-010    
  -0.15           -0.00029162     2.6795e-010    
  -0.2            -0.00031587     2.7982e-010    
  -0.25           -0.00033331     2.9226e-010    
  -0.3            -0.00034792     3.0363e-010    
  -0.35           -0.00036078     3.1441e-010    
  -0.4            -0.00037285     3.2439e-010    
  -0.45           -0.00038449     2.1963e-010    
  -0.5            -0.00039515     2.2767e-010    
  -0.55           -0.00040562     2.3562e-010    
  -0.6            -0.00041575     2.4449e-010    
  -0.65           -0.00042546     2.5522e-010    
  -0.7            -0.00043539     2.6558e-010    
  -0.75           -0.00044443     2.7742e-010    
  -0.8            -0.00045371     2.8988e-010    
  -0.85           -0.0004629      3.0138e-010    
  -0.9            -0.00047167     3.1217e-010    
  -0.95           -0.00048078     3.2204e-010    
  -1              -0.00048933     2.1863e-010    
  -1.05           -0.00049805     2.2546e-010    
  -1.1            -0.00050626     2.3377e-010    
  -1.15           -0.00051476     2.427e-010     
  -1.2            -0.00052297     2.5248e-010    
  -1.25           -0.00053138     2.6325e-010    
  -1.3            -0.00053968     2.7489e-010    
  -1.35           -0.00054797     2.8635e-010    
  -1.4            -0.00055612     2.9758e-010    
  -1.45           -0.00056447     3.0917e-010    
  -1.5            -0.00062932     3.1901e-010    
  -1.55           -0.00073096     2.1688e-010    
  -1.6            -0.00077777     2.2548e-010    
  -1.65           -0.00081028     2.4115e-010    
  -1.7            -0.00083636     2.7176e-010    
  -1.75           -0.00086181     3.3891e-010    
  -1.8            -0.00088677     2.8494e-010    
END_DB

BEGIN_DB
 ICCAP_VAR VG         -1.08          
 ICCAP_VAR VS         0              
 ICCAP_VAR VB         0              

 #VD              ID              IG             
  0               -2.1637e-006    2.3209e-010    
  -0.05           -0.00054084     -9.323e-011    
  -0.1            -0.00105238     -3.3923e-010   
  -0.15           -0.0015237      -3.3485e-010   
  -0.2            -0.0019476      -2.3026e-010   
  -0.25           -0.0023135      -2.3903e-010   
  -0.3            -0.0026066      -2.4881e-010   
  -0.35           -0.0028282      -2.5912e-010   
  -0.4            -0.0029844      -2.7011e-010   
  -0.45           -0.0030903      -2.8068e-010   
  -0.5            -0.003168       -2.9298e-010   
  -0.55           -0.003228       -3.056e-010    
  -0.6            -0.0032785      -3.1569e-010   
  -0.65           -0.003316       -3.2601e-010   
  -0.7            -0.0033568      -2.1901e-010   
  -0.75           -0.003383       -2.2796e-010   
  -0.8            -0.0034043      -2.3773e-010   
  -0.85           -0.0034147      -2.4595e-010   
  -0.9            -0.0034302      -2.5505e-010   
  -0.95           -0.0034431      -2.6775e-010   
  -1              -0.0034527      -2.7975e-010   
  -1.05           -0.0034685      -2.9016e-010   
  -1.1            -0.0034766      -3.0273e-010   
  -1.15           -0.0034873      -3.1345e-010   
  -1.2            -0.0035023      -3.2516e-010   
  -1.25           -0.0035135      -2.1795e-010   
  -1.3            -0.0035237      -2.2662e-010   
  -1.35           -0.0035352      -2.3418e-010   
  -1.4            -0.003545       -2.4429e-010   
  -1.45           -0.003558       -2.534e-010    
  -1.5            -0.0035721      -2.6437e-010   
  -1.55           -0.003582       -2.7656e-010   
  -1.6            -0.0035927      -2.8586e-010   
  -1.65           -0.0036051      -2.9346e-010   
  -1.7            -0.0036174      -2.8864e-010   
  -1.75           -0.0036335      7.405e-011     
  -1.8            -0.0036512      4.9413e-010    
END_DB

BEGIN_DB
 ICCAP_VAR VG         -1.44          
 ICCAP_VAR VS         0              
 ICCAP_VAR VB         0              

 #VD              ID              IG             
  0               -2.3845e-006    -2.8768e-010   
  -0.05           -0.00060097     6.359e-011     
  -0.1            -0.0011916      -3.4248e-010   
  -0.15           -0.0017762      -2.4418e-010   
  -0.2            -0.0023514      -2.5335e-010   
  -0.25           -0.0029141      -2.6444e-010   
  -0.3            -0.0034633      -2.7661e-010   
  -0.35           -0.0039978      -2.871e-010    
  -0.4            -0.0045029      -2.9892e-010   
  -0.45           -0.0049935      -3.1064e-010   
  -0.5            -0.0054423      -3.2109e-010   
  -0.55           -0.0058602      -3.3116e-010   
  -0.6            -0.0062363      -2.2549e-010   
  -0.65           -0.0065621      -2.3417e-010   
  -0.7            -0.0068284      -2.3861e-010   
  -0.75           -0.0070264      -2.5286e-010   
  -0.8            -0.0071892      -2.629e-010    
  -0.85           -0.0073141      -2.723e-010    
  -0.9            -0.007417       -2.8561e-010   
  -0.95           -0.0074915      -2.969e-010    
  -1              -0.0075693      -3.0944e-010   
  -1.05           -0.0076196      -3.185e-010    
  -1.1            -0.0076584      -3.2822e-010   
  -1.15           -0.0077007      -2.2384e-010   
  -1.2            -0.007742       -2.3267e-010   
  -1.25           -0.0077617      -2.3932e-010   
  -1.3            -0.0077777      -2.4941e-010   
  -1.35           -0.0077965      -2.6043e-010   
  -1.4            -0.0078048      -2.7102e-010   
  -1.45           -0.0078252      -2.8364e-010   
  -1.5            -0.0078309      -2.9602e-010   
  -1.55           -0.0078473      -3.0671e-010   
  -1.6            -0.0078492      -3.1687e-010   
  -1.65           -0.0078538      -3.2769e-010   
  -1.7            -0.0078655      -3.342e-010    
  -1.75           -0.0078668      -2.2848e-010   
  -1.8            -0.0078703      -2.3834e-010   
END_DB

BEGIN_DB
 ICCAP_VAR VG         -1.8           
 ICCAP_VAR VS         0              
 ICCAP_VAR VB         0              

 #VD              ID              IG             
  0               -2.4068e-006    -8.71e-011     
  -0.05           -0.0006162      -2.6967e-010   
  -0.1            -0.0012262      -3.3102e-010   
  -0.15           -0.0018335      -2.2698e-010   
  -0.2            -0.002437       -2.3449e-010   
  -0.25           -0.0030304      -2.4512e-010   
  -0.3            -0.0036332      -2.534e-010    
  -0.35           -0.0042234      -2.651e-010    
  -0.4            -0.0048006      -2.7748e-010   
  -0.45           -0.0053635      -2.8833e-010   
  -0.5            -0.0059298      -3.0015e-010   
  -0.55           -0.0064721      -3.122e-010    
  -0.6            -0.007011       -3.2296e-010   
  -0.65           -0.0075303      -2.1775e-010   
  -0.7            -0.0080275      -2.2735e-010   
  -0.75           -0.0085073      -2.3621e-010   
  -0.8            -0.0089885      -2.4418e-010   
  -0.85           -0.0094332      -2.557e-010    
  -0.9            -0.0098602      -2.6395e-010   
  -0.95           -0.0102492      -2.7643e-010   
  -1              -0.0106173      -2.8778e-010   
  -1.05           -0.0109137      -2.9981e-010   
  -1.1            -0.0111682      -3.1477e-010   
  -1.15           -0.0113973      -3.1919e-010   
  -1.2            -0.011596       3.423e-010     
  -1.25           -0.011743       2.3944e-010    
  -1.3            -0.01187        2.4074e-010    
  -1.35           -0.011969       2.5196e-010    
  -1.4            -0.01206        2.6753e-010    
  -1.45           -0.012112       2.8021e-010    
  -1.5            -0.012189       2.9158e-010    
  -1.55           -0.012239       3.0078e-010    
  -1.6            -0.012293       3.0898e-010    
  -1.65           -0.01232        3.1918e-010    
  -1.7            -0.012368       2.1624e-010    
  -1.75           -0.012367       2.2497e-010    
  -1.8            -0.012394       2.3269e-010    
END_DB

