! VERSION = 6.00
BEGIN_HEADER
 ICCAP_INPUTS
  VG         V  B GROUND SMU4 0.001 LIN        2    0          -1.8       6    -0.36     
  VS         V  E GROUND SMU2 0.1 CON        0
  VD         V  S GROUND SMU1 0.1 LIN        1    0          -1.8       37   -0.05     
  VB         V  C GROUND SMU3 0.1 LIN        3    0          0.9        2    0.9       
 ICCAP_OUTPUTS
  ID         I  S GROUND SMU1 B
  IB         I  C GROUND SMU3 B
  IG         I  B GROUND SMU4 B
END_HEADER

BEGIN_DB
 ICCAP_VAR VG         0              
 ICCAP_VAR VS         0              
 ICCAP_VAR VB         0              

 #VD              ID              IB              IG             
  0               -1.0477e-009    -1.0789e-008    -1.2141e-009   
  -0.05           -1.7497e-009    -8.927e-009     2.578e-010     
  -0.1            -1.8426e-009    -9.548e-009     6.66e-011      
  -0.15           -2.1e-011       -1.2745e-008    1.1575e-009    
  -0.2            -1.587e-010     -1.5194e-008    1.7354e-009    
  -0.25           1.2692e-009     1.3905e-008     1.1188e-009    
  -0.3            1.1e-009        1.4933e-008     1.3043e-009    
  -0.35           1.7226e-009     8.574e-009      8.18e-011      
  -0.4            1.8053e-009     8.833e-009      2.344e-010     
  -0.45           7.564e-010      8.489e-009      -1.2459e-009   
  -0.5            -1.674e-009     2.45e-009       -8.487e-010    
  -0.55           2.77e-011       -1.2492e-008    1.1552e-009    
  -0.6            -1.333e-010     -1.4592e-008    1.7893e-009    
  -0.65           1.313e-009      1.3725e-008     1.0776e-009    
  -0.7            1.1315e-009     1.4893e-008     1.261e-009     
  -0.75           1.7042e-009     8.415e-009      4.63e-011      
  -0.8            1.7867e-009     8.826e-009      2.091e-010     
  -0.85           7.189e-010      8.535e-009      -1.2472e-009   
  -0.9            -1.7051e-009    2.619e-009      -8.109e-010    
  -0.95           6.8e-011        -1.1946e-008    1.1554e-009    
  -1              -1.056e-010     -1.4174e-008    1.1469e-009    
  -1.05           -2.148e-010     -1.6462e-008    1.5954e-009    
  -1.1            1.1696e-009     1.4388e-008     1.2205e-009    
  -1.15           1.6838e-009     8.214e-009      7e-012         
  -1.2            1.7732e-009     8.675e-009      1.709e-010     
  -1.25           6.862e-010      8.643e-009      -1.2496e-009   
  -1.3            -1.734e-009     2.807e-009      -7.644e-010    
  -1.35           9.9e-010        -1.1587e-008    2.0371e-009    
  -1.4            1.2266e-009     1.1697e-008     -1.2364e-009   
  -1.45           -1.14e-009      8.933e-009      -1.395e-009    
  -1.5            -1.1812e-009    -1.1172e-008    1.14e-009      
  -1.55           9.88e-010       -1.1603e-008    2.0332e-009    
  -1.6            1.2201e-009     1.1626e-008     -1.2357e-009   
  -1.65           -1.1442e-009    8.68e-009       -1.3889e-009   
  -1.7            -1.1784e-009    -1.1294e-008    1.1391e-009    
  -1.75           9.87e-010       -1.1595e-008    2.0329e-009    
  -1.8            1.218e-009      1.1562e-008     -1.2386e-009   
END_DB

BEGIN_DB
 ICCAP_VAR VG         -0.36          
 ICCAP_VAR VS         0              
 ICCAP_VAR VB         0              

 #VD              ID              IB              IG             
  0               1.0372e-009     -9.412e-009     1.0589e-009    
  -0.05           1.1973e-009     1.1366e-008     -1.2384e-009   
  -0.1            -1.1585e-009    8.017e-009      -1.3725e-009   
  -0.15           -1.1647e-009    -1.1256e-008    1.1359e-009    
  -0.2            9.775e-010      -1.1274e-008    2.0061e-009    
  -0.25           1.1904e-009     1.1256e-008     -1.2382e-009   
  -0.3            -1.1588e-009    7.76e-009       -1.3698e-009   
  -0.35           -1.1632e-009    -1.1517e-008    1.1342e-009    
  -0.4            9.755e-010      -1.1177e-008    1.997e-009     
  -0.45           1.1861e-009     1.1297e-008     -1.2382e-009   
  -0.5            -1.1633e-009    7.51e-009       -1.3634e-009   
  -0.55           -1.1583e-009    -1.1517e-008    1.1317e-009    
  -0.6            9.733e-010      -1.1155e-008    1.9976e-009    
  -0.65           1.1825e-009     1.0182e-008     -1.2376e-009   
  -0.7            -1.1668e-009    7.372e-009      -1.3623e-009   
  -0.75           -1.8658e-009    -9.552e-009     -6.6e-012      
  -0.8            -8.58e-011      -1.333e-008     1.1532e-009    
  -0.85           -1.944e-010     -1.5719e-008    1.6274e-009    
  -0.9            1.1831e-009     1.3982e-008     1.171e-009     
  -0.95           1.6912e-009     7.996e-009      -7.73e-011     
  -1              1.7326e-009     8.722e-009      1.558e-010     
  -1.05           6.637e-010      8.685e-009      -1.2518e-009   
  -1.1            -1.7659e-009    3.019e-009      -7.306e-010    
  -1.15           9.704e-010      -1.1053e-008    2.0085e-009    
  -1.2            1.2005e-009     1.0358e-008     -1.2222e-009   
  -1.25           -1.1507e-009    7.864e-009      -1.3762e-009   
  -1.3            -1.1683e-009    -1.115e-008     1.1269e-009    
  -1.35           9.727e-010      -1.1213e-008    2.0126e-009    
  -1.4            1.1948e-009     1.1463e-008     -1.2308e-009   
  -1.45           -1.1525e-009    7.601e-009      -1.3733e-009   
  -1.5            -1.8826e-009    -9.496e-009     -9.6e-012      
  -1.55           -1.025e-010     -1.337e-008     1.1524e-009    
  -1.6            -2.064e-010     -1.5992e-008    1.6075e-009    
  -1.65           1.172e-009      1.4305e-008     1.1738e-009    
  -1.7            1.6647e-009     8.069e-009      -5.7e-012      
  -1.75           1.7572e-009     8.681e-009      1.565e-010     
  -1.8            6.728e-010      8.504e-009      -1.2529e-009   
END_DB

BEGIN_DB
 ICCAP_VAR VG         -0.72          
 ICCAP_VAR VS         0              
 ICCAP_VAR VB         0              

 #VD              ID              IB              IG             
  0               1.0047e-009     4.143e-009      1.1461e-009    
  -0.05           -1.8182e-009    9.513e-009      -1.5617e-009   
  -0.1            -1.0513e-009    -1.1332e-008    1.1531e-009    
  -0.15           -1.2507e-009    -1.313e-008     1.1499e-009    
  -0.2            -1.3808e-009    -1.5371e-008    1.6737e-009    
  -0.25           -2.111e-009     1.4397e-008     -2.2049e-009   
  -0.3            -2.94e-009      -9.297e-009     1.744e-010     
  -0.35           -1.1415e-009    -1.161e-008     1.1579e-009    
  -0.4            -1.3253e-009    -1.3645e-008    1.1542e-009    
  -0.45           -1.4251e-009    -1.5978e-008    1.6216e-009    
  -0.5            -2.1594e-009    1.4189e-008     -2.1695e-009   
  -0.55           -2.9701e-009    -9.385e-009     1.306e-010     
  -0.6            -1.1903e-009    -1.1972e-008    1.1557e-009    
  -0.65           -1.3678e-009    -1.4095e-008    1.1547e-009    
  -0.7            -1.4721e-009    -1.648e-008     1.5725e-009    
  -0.75           -2.1457e-009    1.4724e-008     -2.1223e-009   
  -0.8            -2.3925e-009    -1.1005e-008    1.1366e-009    
  -0.85           -1.1289e-009    -1.1341e-008    1.1541e-009    
  -0.9            -1.3033e-009    -1.3167e-008    1.1505e-009    
  -0.95           -1.4374e-009    -1.5207e-008    1.6947e-009    
  -1              -1.8399e-009    1.3952e-008     -1.2665e-009   
  -1.05           -2.2432e-009    2.632e-009      -2.3334e-009   
  -1.1            -1.0674e-009    -1.0931e-008    1.1496e-009    
  -1.15           -1.2314e-009    -1.207e-008     1.1569e-009    
  -1.2            -1.3941e-009    -1.4273e-008    1.8052e-009    
  -1.25           -1.893e-009     1.3669e-008     -1.2848e-009   
  -1.3            -2.2602e-009    2.531e-009      -2.2905e-009   
  -1.35           -9.953e-010     -1.0416e-008    1.1399e-009    
  -1.4            -1.1723e-009    -1.1429e-008    1.153e-009     
  -1.45           -1.3432e-009    -1.3162e-008    1.1496e-009    
  -1.5            -1.4614e-009    -1.5232e-008    1.6922e-009    
  -1.55           -1.8762e-009    1.4312e-008     -1.2664e-009   
  -1.6            -2.2667e-009    2.647e-009      -2.3417e-009   
  -1.65           -3.1151e-009    -9.627e-009     -1.557e-010    
  -1.7            -1.4556e-009    -1.4877e-008    1.7029e-009    
  -1.75           -1.8818e-009    1.4056e-008     -1.2688e-009   
  -1.8            -2.3045e-009    2.723e-009      -2.3511e-009   
END_DB

BEGIN_DB
 ICCAP_VAR VG         -1.08          
 ICCAP_VAR VS         0              
 ICCAP_VAR VB         0              

 #VD              ID              IB              IG             
  0               -2.5931e-010    8.677e-009      -3.714e-010    
  -0.05           -6.0315e-007    -6.969e-009     -1.2467e-009   
  -0.1            -9.6745e-007    9.01e-009       8.495e-010     
  -0.15           -1.1487e-006    -2.47e-009      -1.5213e-009   
  -0.2            -1.2379e-006    1.5119e-008     1.4836e-009    
  -0.25           -1.2857e-006    -1.2565e-008    1.6146e-009    
  -0.3            -1.3096e-006    -1.4477e-008    1.408e-009     
  -0.35           -1.3212e-006    -1.5676e-008    1.1412e-009    
  -0.4            -1.323e-006     -9.301e-009     -9.81e-011     
  -0.45           -1.3232e-006    1.1009e-008     -1.5156e-009   
  -0.5            -1.3341e-006    1.5284e-008     1.4933e-009    
  -0.55           -1.3497e-006    -1.2691e-008    1.603e-009     
  -0.6            -1.3548e-006    -1.452e-008     1.3973e-009    
  -0.65           -1.3633e-006    -1.6728e-008    1.2401e-009    
  -0.7            -1.3549e-006    -9.524e-009     -2.176e-010    
  -0.75           -1.3541e-006    1.3979e-008     -1.399e-009    
  -0.8            -1.3562e-006    8.085e-009      2.176e-010     
  -0.85           -1.3771e-006    -1.4436e-008    1.429e-009     
  -0.9            -1.3738e-006    -9.135e-009     -4.28e-011     
  -0.95           -1.3685e-006    1.0038e-008     -1.5682e-009   
  -1              -1.379e-006     1.4175e-008     1.4543e-009    
  -1.05           -1.3948e-006    -1.054e-008     1.1563e-009    
  -1.1            -1.3975e-006    -1.1025e-008    1.1592e-009    
  -1.15           -1.3984e-006    -1.0809e-008    1.1577e-009    
  -1.2            -1.4017e-006    -1.0811e-008    1.155e-009     
  -1.25           -1.4016e-006    -1.1342e-008    1.1559e-009    
  -1.3            -1.4054e-006    -1.1049e-008    1.1546e-009    
  -1.35           -1.4078e-006    -1.1192e-008    1.8354e-009    
  -1.4            -1.4118e-006    -1.2754e-008    1.5733e-009    
  -1.45           -1.415e-006     -1.5084e-008    1.3783e-009    
  -1.5            -1.4083e-006    -9.241e-009     -9.54e-011     
  -1.55           -1.4023e-006    1.1206e-008     -1.5149e-009   
  -1.6            -1.4115e-006    1.4575e-008     1.4911e-009    
  -1.65           -1.4228e-006    -1.2683e-008    1.6e-009       
  -1.7            -1.4272e-006    -1.44e-008      1.4128e-009    
  -1.75           -1.4326e-006    -1.6724e-008    1.2435e-009    
  -1.8            -1.4346e-006    -1.2351e-008    1.1531e-009    
END_DB

BEGIN_DB
 ICCAP_VAR VG         -1.44          
 ICCAP_VAR VS         0              
 ICCAP_VAR VB         0              

 #VD              ID              IB              IG             
  0               -7.872e-009     -1.0583e-008    -1.2438e-009   
  -0.05           -2.6808e-006    -1.848e-008     -2.2466e-009   
  -0.1            -4.9942e-006    8.382e-009      2.568e-010     
  -0.15           -6.9626e-006    -1.5567e-008    1.38e-009      
  -0.2            -8.5727e-006    -1.4891e-008    1.1395e-009    
  -0.25           -9.8563e-006    -1.2017e-008    1.1538e-009    
  -0.3            -1.08408e-005   -1.0441e-008    1.1538e-009    
  -0.35           -1.152e-005     -9.591e-009     2.361e-009     
  -0.4            -1.2063e-005    -2.1427e-008    1.0852e-009    
  -0.45           -1.2402e-005    -1.4854e-008    1.4234e-009    
  -0.5            -1.2587e-005    -9.5e-009       -3.833e-010    
  -0.55           -1.2739e-005    2.918e-009      -1.239e-009    
  -0.6            -1.2932e-005    1.2531e-008     1.2096e-009    
  -0.65           -1.3017e-005    -1.4141e-008    1.4923e-009    
  -0.7            -1.3108e-005    -9.797e-009     1.1542e-009    
  -0.75           -1.3159e-005    -1.3107e-008    1.5842e-009    
  -0.8            -1.3223e-005    -1.1277e-008    1.1559e-009    
  -0.85           -1.3267e-005    -1.3883e-008    1.5163e-009    
  -0.9            -1.3326e-005    -2.1287e-008    1.0885e-009    
  -0.95           -1.3356e-005    -1.4567e-008    1.4504e-009    
  -1              -1.3406e-005    -1.0057e-008    1.1545e-009    
  -1.05           -1.3436e-005    -1.3482e-008    1.5426e-009    
  -1.1            -1.3479e-005    -1.1113e-008    1.1551e-009    
  -1.15           -1.3503e-005    -1.4323e-008    1.4739e-009    
  -1.2            -1.3545e-005    -9.84e-009      1.1531e-009    
  -1.25           -1.3567e-005    -1.3169e-008    1.5663e-009    
  -1.3            -1.3607e-005    -1.1289e-008    1.1547e-009    
  -1.35           -1.3623e-005    -1.4012e-008    1.4973e-009    
  -1.4            -1.367e-005     -9.671e-009     1.1533e-009    
  -1.45           -1.3685e-005    -1.2802e-008    1.5988e-009    
  -1.5            -1.3718e-005    -1.1436e-008    1.1543e-009    
  -1.55           -1.3739e-005    -1.3747e-008    1.5272e-009    
  -1.6            -1.3778e-005    -1.0965e-008    1.1519e-009    
  -1.65           -1.3791e-005    -1.4576e-008    1.4663e-009    
  -1.7            -1.383e-005     -2.1697e-008    1.0802e-009    
  -1.75           -1.3846e-005    -1.524e-008     1.4029e-009    
  -1.8            -1.3804e-005    -9.54e-009      -4.039e-010    
END_DB

BEGIN_DB
 ICCAP_VAR VG         -1.8           
 ICCAP_VAR VS         0              
 ICCAP_VAR VB         0              

 #VD              ID              IB              IG             
  0               -1.3763e-008    -9.103e-009     -4.297e-010    
  -0.05           -4.5791e-006    3.351e-009      1.7035e-009    
  -0.1            -8.8568e-006    -1.6505e-008    1.2974e-009    
  -0.15           -1.2799e-005    -9.139e-009     2.1904e-009    
  -0.2            -1.6449e-005    -1.6028e-008    1.3169e-009    
  -0.25           -1.9767e-005    -1.0655e-008    1.1552e-009    
  -0.3            -2.2765e-005    -1.4953e-008    1.3944e-009    
  -0.35           -2.5434e-005    -2.196e-008     1.0697e-009    
  -0.4            -2.7714e-005    -9.229e-009     -9.361e-010    
  -0.45           -2.9746e-005    3.691e-009      -1.9678e-009   
  -0.5            -3.1516e-005    1.5003e-008     1.5055e-009    
  -0.55           -3.298e-005     -1.8771e-008    1.1765e-009    
  -0.6            -3.4131e-005    -1.1791e-008    1.7165e-009    
  -0.65           -3.5033e-005    -9.392e-009     -2.107e-010    
  -0.7            -3.5718e-005    2.531e-009      -1.2473e-009   
  -0.75           -3.6406e-005    1.1007e-008     9.737e-010     
  -0.8            -3.684e-005     -1.1693e-008    1.1546e-009    
  -0.85           -3.718e-005     -1.2932e-008    1.5777e-009    
  -0.9            -3.7482e-005    -1.1199e-008    1.1557e-009    
  -0.95           -3.7699e-005    -1.3776e-008    1.5167e-009    
  -1              -3.7909e-005    -9.706e-009     1.1525e-009    
  -1.05           -3.8066e-005    -1.2679e-008    1.6044e-009    
  -1.1            -3.8232e-005    -1.1519e-008    1.1529e-009    
  -1.15           -3.8351e-005    -1.3502e-008    1.5338e-009    
  -1.2            -3.8495e-005    -1.0939e-008    1.1523e-009    
  -1.25           -3.8587e-005    -1.4184e-008    1.4692e-009    
  -1.3            -3.872e-005     -2.1281e-008    1.0802e-009    
  -1.35           -3.88e-005      -1.4861e-008    1.4047e-009    
  -1.4            -3.8804e-005    -9.476e-009     -3.963e-010    
  -1.45           -3.8872e-005    2.77e-009       -1.2402e-009   
  -1.5            -3.9085e-005    1.2847e-008     1.2243e-009    
  -1.55           -3.9157e-005    -1.4179e-008    1.4584e-009    
  -1.6            -3.9257e-005    -2.1474e-008    1.0773e-009    
  -1.65           -3.9314e-005    -1.4673e-008    1.3991e-009    
  -1.7            -3.9295e-005    -9.511e-009     -3.971e-010    
  -1.75           -3.9344e-005    2.878e-009      -1.2421e-009   
  -1.8            -3.955e-005     1.2846e-008     1.2299e-009    
END_DB

BEGIN_DB
 ICCAP_VAR VG         0              
 ICCAP_VAR VS         0              
 ICCAP_VAR VB         0.9            

 #VD              ID              IB              IG             
  0               -1.056e-009     8.4e-009        -1.2365e-009   
  -0.05           -1.335e-010     -1.4732e-008    1.7657e-009    
  -0.1            1.2877e-009     1.3893e-008     1.07e-009      
  -0.15           1.1226e-009     1.4661e-008     1.2651e-009    
  -0.2            1.7041e-009     8.532e-009      3.89e-011      
  -0.25           1.7936e-009     8.949e-009      1.938e-010     
  -0.3            7.133e-010      8.934e-009      -1.2518e-009   
  -0.35           -1.7136e-009    2.612e-009      -7.903e-010    
  -0.4            -1.4869e-009    -8.605e-009     1.1455e-009    
  -0.45           -2.543e-010     -1.7272e-008    1.5238e-009    
  -0.5            9.657e-010      -3.293e-009     1.9502e-009    
  -0.55           1.144e-009      1.0471e-008     -1.2451e-009   
  -0.6            -1.2229e-009    6.264e-009      -1.3231e-009   
  -0.65           -1.8404e-009    -9.638e-009     8.46e-011      
  -0.7            1.2e-012        -1.2575e-008    1.1573e-009    
  -0.75           -1.424e-010     -1.5139e-008    1.7415e-009    
  -0.8            9.336e-010      -8.88e-010      1.8558e-009    
  -0.85           1.017e-009      9.007e-009      -1.2473e-009   
  -0.9            -1.3599e-009    3.533e-009      -1.1862e-009   
  -0.95           -1.0453e-009    -1.6888e-008    1.0955e-009    
  -1              9.299e-010      -9.376e-009     1.8447e-009    
  -1.05           1.0045e-009     8.857e-009      -1.2478e-009   
  -1.1            -1.381e-009     3.091e-009      -1.1696e-009   
  -1.15           -1.941e-010     -1.611e-008     1.6261e-009    
  -1.2            1.189e-009      1.4151e-008     1.1822e-009    
  -1.25           1.0424e-009     1.5068e-008     1.3627e-009    
  -1.3            1.7548e-009     8.858e-009      1.288e-010     
  -1.35           1.8244e-009     8.83e-009       2.807e-010     
  -1.4            7.975e-010      8.51e-009       -1.2479e-009   
  -1.45           -1.6171e-009    2.085e-009      -9.087e-010    
  -1.5            -1.69e-011      -1.2724e-008    1.1571e-009    
  -1.55           -1.517e-010     -1.5442e-008    1.7166e-009    
  -1.6            1.2541e-009     1.4063e-008     1.11e-009      
  -1.65           1.0911e-009     1.4863e-008     1.294e-009     
  -1.7            1.7223e-009     8.76e-009       7.18e-011      
  -1.75           1.7984e-009     8.958e-009      2.303e-010     
  -1.8            7.36e-010       8.668e-009      -1.2498e-009   
END_DB

BEGIN_DB
 ICCAP_VAR VG         -0.36          
 ICCAP_VAR VS         0              
 ICCAP_VAR VB         0.9            

 #VD              ID              IB              IG             
  0               -1.0576e-009    8.626e-009      -1.2445e-009   
  -0.05           -6.49e-011      -1.367e-008     1.1575e-009    
  -0.1            -1.828e-010     -1.591e-008     1.6523e-009    
  -0.15           1.2152e-009     1.4147e-008     1.1634e-009    
  -0.2            1.0617e-009     1.4817e-008     1.343e-009     
  -0.25           1.735e-009      8.732e-009      1.093e-010     
  -0.3            1.8088e-009     8.942e-009      2.62e-010      
  -0.35           7.707e-010      8.488e-009      -1.2464e-009   
  -0.4            -1.6571e-009    2.287e-009      -8.764e-010    
  -0.45           1.77e-011       -1.2645e-008    1.1601e-009    
  -0.5            -1.379e-010     -1.4984e-008    1.779e-009     
  -0.55           1.3067e-009     1.3905e-008     1.0679e-009    
