! VERSION = 6.00
BEGIN_HEADER
 ICCAP_INPUTS
  VG         V  B GROUND SMU4 0.001 LIN        1    0          -1.8       37   -0.05     
  VS         V  E GROUND SMU2 0.1 CON        0
  VB         V  C GROUND SMU3 0.1 LIN        3    0          1.8        3    0.9       
  VD         V  S GROUND SMU1 0.1 LIN        2    -0.1       -1.8       2    -1.7      
 ICCAP_OUTPUTS
  IG         I  B GROUND SMU4 B
  ID         I  S GROUND SMU1 B
  IB         I  C GROUND SMU3 B
END_HEADER

BEGIN_DB
 ICCAP_VAR VS         0              
 ICCAP_VAR VB         0              
 ICCAP_VAR VD         -0.1           

 #VG              IG              ID              IB             
  0               1.1768e-009     1.0445e-009     1.2042e-008    
  -0.05           1.8799e-009     9.38e-010       -1.22e-010     
  -0.1            -1.2561e-009    1.0061e-009     9.064e-009     
  -0.15           -1.1847e-009    -1.373e-009     3.731e-009     
  -0.2            2.662e-010      -1.7942e-009    -8.831e-009    
  -0.25           6.58e-011       -1.8915e-009    -9.449e-009    
  -0.3            1.1695e-009     -2.45e-011      -1.3127e-008   
  -0.35           1.6765e-009     -1.786e-010     -1.6013e-008   
  -0.4            1.9405e-009     9.102e-010      -1.805e-009    
  -0.45           -1.2556e-009    9.377e-010      9.805e-009     
  -0.5            -2.207e-009     -1.5206e-009    5.29e-009      
  -0.55           1.654e-010      -3.65e-009      -9.215e-009    
  -0.6            1.1679e-009     -5.9218e-009    -1.2206e-008   
  -0.65           -1.2565e-009    -1.8032e-008    -9.012e-009    
  -0.7            -2.03e-009      -4.5723e-008    3.707e-009     
  -0.75           1.1706e-009     -1.07225e-007   -1.0357e-008   
  -0.8            -5.169e-010     -2.1471e-007    9.177e-009     
  -0.85           1.1682e-009     -3.9556e-007    -1.049e-008    
  -0.9            1.4961e-009     -6.5519e-007    -1.433e-008    
  -0.95           1.568e-009      -9.8983e-007    1.5256e-008    
  -1              -2.3286e-009    -1.4052e-006    -1.925e-008    
  -1.05           1.1696e-009     -1.8922e-006    -1.0158e-008   
  -1.1            1.3392e-009     -2.4117e-006    -1.616e-008    
  -1.15           1.0845e-009     -2.965e-006     -3.226e-009    
  -1.2            1.1145e-009     -3.5426e-006    -4.591e-009    
  -1.25           1.17e-009       -4.1236e-006    -1.061e-008    
  -1.3            1.4868e-009     -4.7027e-006    -1.4115e-008   
  -1.35           1.1127e-009     -5.2708e-006    -3.295e-009    
  -1.4            1.0976e-009     -5.8285e-006    -3.729e-009    
  -1.45           1.1621e-009     -6.3704e-006    -9.217e-009    
  -1.5            1.655e-009      -6.8855e-006    -1.2653e-008   
  -1.55           1.174e-009      -7.3835e-006    -2.002e-009    
  -1.6            1.0822e-009     -7.8575e-006    -3.021e-009    
  -1.65           1.1429e-009     -8.3183e-006    -7.102e-009    
  -1.7            1.1716e-009     -8.7543e-006    -1.1767e-008   
  -1.75           1.2833e-009     -9.1782e-006    -1.7277e-008   
  -1.8            1.0772e-009     -9.5676e-006    -3.135e-009    
END_DB

BEGIN_DB
 ICCAP_VAR VS         0              
 ICCAP_VAR VB         0              
 ICCAP_VAR VD         -1.8           

 #VG              IG              ID              IB             
  0               -1.2171e-009    -1.0547e-009    -1.1694e-008   
  -0.05           5.25e-011       -1.889e-009     -9.459e-009    
  -0.1            1.169e-009      -2.55e-011      -1.3078e-008   
  -0.15           1.6648e-009     -1.726e-010     -1.6093e-008   
  -0.2            1.9395e-009     9.438e-010      -1.866e-009    
  -0.25           -1.2546e-009    1.0526e-009     9.904e-009     
  -0.3            -2.0864e-009    -1.1891e-009    5.225e-009     
  -0.35           1.0963e-009     -2.2145e-009    -8.851e-009    
  -0.4            1.127e-009      -1.0388e-009    -9.478e-009    
  -0.45           1.1555e-009     -4.1376e-009    -1.1012e-008   
  -0.5            -2.3849e-009    -1.2762e-008    -1.4216e-008   
  -0.55           -3.488e-010     -3.0359e-008    -9.757e-009    
  -0.6            1.1652e-009     -6.3208e-008    -1.1068e-008   
  -0.65           2.82e-010       -1.2462e-007    2.897e-009     
  -0.7            -1.967e-010     -2.3042e-007    -9.43e-009     
  -0.75           1.1575e-009     -4.135e-007     -1.3823e-008   
  -0.8            1.6783e-009     -7.0605e-007    -1.2401e-008   
  -0.85           1.1294e-009     -1.1615e-006    2.574e-009     
  -0.9            1.5798e-009     -1.8174e-006    1.4674e-008    
  -0.95           4.783e-010      -2.7302e-006    8.995e-009     
  -1              8.139e-010      -3.9364e-006    8.96e-009      
  -1.05           1.2638e-009     -5.4174e-006    1.2387e-008    
  -1.1            2.471e-010      -7.1718e-006    8.254e-009     
  -1.15           5.566e-010      -9.298e-006     8.928e-009     
  -1.2            -2.4065e-009    -1.1638e-005    8.357e-009     
  -1.25           1.1686e-009     -1.4332e-005    -1.1508e-008   
  -1.3            1.3025e-009     -1.7236e-005    -1.6831e-008   
  -1.35           1.0803e-009     -2.0355e-005    -3.216e-009    
  -1.4            1.1193e-009     -2.3709e-005    -4.937e-009    
  -1.45           1.1679e-009     -2.7234e-005    -1.076e-008    
  -1.5            1.445e-009      -3.0896e-005    -1.4845e-008   
  -1.55           1.1029e-009     -3.4717e-005    -3.536e-009    
  -1.6            1.0995e-009     -3.8679e-005    -4.016e-009    
  -1.65           1.1609e-009     -4.2741e-005    -9.467e-009    
  -1.7            1.6132e-009     -4.6906e-005    -1.3027e-008   
  -1.75           1.1549e-009     -5.1132e-005    -2.524e-009    
  -1.8            1.0833e-009     -5.5503e-005    -3.28e-009     
END_DB

BEGIN_DB
 ICCAP_VAR VS         0              
 ICCAP_VAR VB         0.9            
 ICCAP_VAR VD         -0.1           

 #VG              IG              ID              IB             
  0               1.1168e-009     9.221e-010      2.83e-009      
  -0.05           1.2976e-009     1.1138e-009     1.5175e-008    
  -0.1            5.9e-011        1.7558e-009     8.326e-009     
  -0.15           2.231e-010      1.8346e-009     8.614e-009     
  -0.2            -1.2623e-009    7.649e-010      8.605e-009     
  -0.25           -8.571e-010     -1.686e-009     2.516e-009     
  -0.3            1.1768e-009     3.66e-011       -1.2587e-008   
  -0.35           1.1645e-009     -1.155e-010     -1.5135e-008   
  -0.4            1.4969e-009     -2.344e-010     -1.7919e-008   
  -0.45           2.028e-009      9.744e-010      -3.071e-009    
  -0.5            -1.2546e-009    1.1713e-009     9.812e-009     
  -0.55           -1.3681e-009    -1.2063e-009    7.58e-009      
  -0.6            1.37e-011       -1.9238e-009    -9.79e-009     
  -0.65           -1.834e-010     -2.0707e-009    -9.58e-009     
  -0.7            1.1168e-009     -1.6524e-009    -1.4746e-008   
  -0.75           1.1505e-009     -1.8808e-009    -1.1062e-008   
  -0.8            1.168e-009      -7.771e-009     -1.2076e-008   
  -0.85           -1.2582e-009    -2.5428e-008    -8.76e-009     
  -0.9            -1.2452e-009    -6.8518e-008    2.926e-009     
  -0.95           6.07e-010       -1.6211e-007    -1.4504e-008   
  -1              1.0106e-009     -3.3668e-007    1.0047e-008    
  -1.05           1.4683e-009     -6.046e-007     1.468e-008     
  -1.1            4.017e-010      -9.7504e-007    9.056e-009     
  -1.15           -2.0943e-009    -1.4262e-006    -1.4542e-008   
  -1.2            1.1545e-009     -1.9493e-006    -1.4942e-008   
  -1.25           1.7438e-009     -2.5015e-006    -1.2382e-008   
  -1.3            1.1982e-009     -3.0788e-006    -9.1e-010      
  -1.35           1.0728e-009     -3.6656e-006    -3.099e-009    
  -1.4            1.1382e-009     -4.2498e-006    -6.495e-009    
  -1.45           1.1649e-009     -4.816e-006     -1.1657e-008   
  -1.5            1.3495e-009     -5.3712e-006    -1.581e-008    
  -1.55           1.0736e-009     -5.901e-006     -3.436e-009    
  -1.6            1.115e-009      -6.4169e-006    -4.774e-009    
  -1.65           1.1688e-009     -6.9037e-006    -1.0673e-008   
  -1.7            1.4942e-009     -7.3717e-006    -1.4404e-008   
  -1.75           1.1014e-009     -7.8209e-006    -3.473e-009    
  -1.8            1.0953e-009     -8.2375e-006    -3.851e-009    
END_DB

BEGIN_DB
 ICCAP_VAR VS         0              
 ICCAP_VAR VB         0.9            
 ICCAP_VAR VD         -1.8           

 #VG              IG              ID              IB             
  0               1.0677e-009     1.0587e-009     -8.917e-009    
  -0.05           1.6068e-009     9.481e-010      -4.576e-009    
  -0.1            -1.2643e-009    7.145e-010      8.676e-009     
  -0.15           -1.6483e-009    -1.0809e-009    2.845e-009     
  -0.2            1.1685e-009     9.62e-011       -1.246e-008    
  -0.25           1.1601e-009     -1.221e-010     -1.4356e-008   
  -0.3            1.5979e-009     -2.089e-010     -1.7109e-008   
  -0.35           1.992e-009      9.615e-010      -2.841e-009    
  -0.4            -1.2541e-009    1.1418e-009     9.264e-009     
  -0.45           -1.3273e-009    -1.2745e-009    6.389e-009     
  -0.5            4.09e-011       1.6878e-009     -7.425e-009    
  -0.55           -1.2744e-009    3.643e-010      9.147e-009     
  -0.6            -2.4145e-009    -2.017e-009     2.9e-009       
  -0.65           1.1682e-009     -3.6296e-009    -1.2228e-008   
  -0.7            -2.4239e-009    -1.2929e-008    -1.6485e-008   
  -0.75           1.1597e-009     -3.249e-008     -1.2107e-008   
  -0.8            1.2319e-009     -7.8336e-008    -1.7759e-008   
  -0.85           4.259e-010      -1.6532e-007    -1.1869e-008   
  -0.9            7.266e-010      -3.349e-007     8.793e-009     
  -0.95           1.17e-009       -6.3154e-007    1.2296e-008    
  -1              1.6035e-009     -1.1095e-006    1.5501e-008    
  -1.05           -1.7891e-009    -1.8379e-006    -1.1803e-008   
  -1.1            1.5529e-009     -2.8691e-006    -1.3895e-008   
  -1.15           1.5428e-009     -4.1879e-006    1.4595e-008    
  -1.2            4.516e-010      -5.8413e-006    8.707e-009     
  -1.25           7.662e-010      -7.8355e-006    9.105e-009     
  -1.3            1.2187e-009     -1.01089e-005   1.2229e-008    
  -1.35           -2.3745e-009    -1.2604e-005    8.32e-009      
  -1.4            -3.521e-010     -1.5393e-005    -9.678e-009    
  -1.45           1.168e-009      -1.8496e-005    -1.0994e-008   
  -1.5            1.4391e-009     -2.172e-005     -1.477e-008    
  -1.55           1.0842e-009     -2.513e-005     -3.595e-009    
  -1.6            1.1019e-009     -2.8721e-005    -4.066e-009    
  -1.65           1.1663e-009     -3.2479e-005    -9.83e-009     
  -1.7            1.6117e-009     -3.6325e-005    -1.3283e-008   
  -1.75           1.1361e-009     -4.0275e-005    -2.631e-009    
  -1.8            1.0805e-009     -4.436e-005     -3.503e-009    
END_DB

BEGIN_DB
 ICCAP_VAR VS         0              
 ICCAP_VAR VB         1.8            
 ICCAP_VAR VD         -0.1           

 #VG              IG              ID              IB             
  0               1.1652e-009     9.886e-010      2.228e-009     
  -0.05           -1.2594e-009    1.0306e-009     8.792e-009     
  -0.1            -1.2021e-009    -1.3652e-009    3.969e-009     
  -0.15           2.615e-010      -1.809e-009     -9.006e-009    
  -0.2            3.97e-011       -1.8641e-009    -9.415e-009    
  -0.25           1.1672e-009     -2.88e-011      -1.2957e-008   
  -0.3            1.6771e-009     -1.712e-010     -1.579e-008    
  -0.35           1.9369e-009     9.53e-010       -1.708e-009    
  -0.4            -1.2559e-009    1.0818e-009     9.773e-009     
  -0.45           -1.2688e-009    -1.3018e-009    5.002e-009     
  -0.5            1.801e-010      -1.8347e-009    -9.171e-009    
  -0.55           1.1666e-009     8.65e-011       -1.1921e-008   
  -0.6            1.1659e-009     -9.36e-011      -1.421e-008    
  -0.65           1.5805e-009     -2.116e-010     -1.6868e-008   
  -0.7            1.2392e-009     1.1446e-009     1.4694e-008    
  -0.75           2.18e-011       1.6496e-009     8.211e-009     
  -0.8            -1.2809e-009    2.465e-010      8.932e-009     
  -0.85           -1.2674e-009    -1.9069e-009    2.706e-009     
  -0.9            -1.2622e-009    -6.0521e-009    2.794e-009     
  -0.95           -1.5869e-009    -2.1046e-008    -1.5069e-008   
  -1              1.169e-009      -5.9862e-008    -1.1948e-008   
  -1.05           2.42e-010       -1.5404e-007    2.807e-009     
  -1.1            -2.277e-010     -3.301e-007     -9.608e-009    
  -1.15           -5.843e-010     -6.0782e-007    -9.171e-009    
  -1.2            1.1684e-009     -1.00135e-006   -1.118e-008    
  -1.25           2.0859e-009     -1.4595e-006    1.3718e-008    
  -1.3            1.0727e-009     -1.9962e-006    1.0309e-008    
  -1.35           1.5253e-009     -2.5516e-006    1.4803e-008    
  -1.4            4.438e-010      -3.1288e-006    8.77e-009      
  -1.45           7.439e-010      -3.7155e-006    8.945e-009     
  -1.5            1.1881e-009     -4.2848e-006    1.2396e-008    
  -1.55           1.6175e-009     -4.833e-006     1.5163e-008    
  -1.6            4.998e-010      -5.3712e-006    8.732e-009     
  -1.65           8.518e-010      -5.8912e-006    9.949e-009     
  -1.7            1.3095e-009     -6.3798e-006    1.3729e-008    
  -1.75           2.929e-010      -6.8394e-006    8.479e-009     
  -1.8            5.767e-010      -7.2974e-006    8.512e-009     
END_DB

BEGIN_DB
 ICCAP_VAR VS         0              
 ICCAP_VAR VB         1.8            
 ICCAP_VAR VD         -1.8           

 #VG              IG              ID              IB             
  0               -1.924e-010     2.874e-010      2.195e-009     
  -0.05           2.3311e-009     1.0454e-009     -4.016e-009    
  -0.1            1.2327e-009     1.1825e-009     1.4529e-008    
  -0.15           5.6e-012        1.7261e-009     8.099e-009     
  -0.2            2.046e-010      1.7772e-009     8.786e-009     
  -0.25           -1.2668e-009    7.317e-010      8.814e-009     
  -0.3            -1.6458e-009    -1.0781e-009    2.812e-009     
  -0.35           1.1734e-009     8.69e-011       -1.2427e-008   
  -0.4            1.1696e-009     -1.072e-010     -1.4484e-008   
  -0.45           1.5742e-009     -2.158e-010     -1.7179e-008   
  -0.5            1.9908e-009     9.648e-010      -2.928e-009    
  -0.55           -1.2584e-009    1.146e-009      1.0433e-008    
  -0.6            -1.3395e-009    -1.2645e-009    6.751e-009     
  -0.65           8.86e-011       -2.0227e-009    -9.686e-009    
  -0.7            1.168e-009      -6.686e-010     -1.3313e-008   
  -0.75           1.7093e-009     -2.8643e-009    -1.56e-008     
  -0.8            1.4375e-009     -8.6957e-009    -1.359e-009    
  -0.85           -2.1477e-009    -2.9702e-008    -1.1331e-008   
  -0.9            -2.38e-011      -7.5168e-008    -8.981e-009    
  -0.95           5.493e-010      -1.6707e-007    -1.3705e-008   
  -1              9.22e-010       -3.5518e-007    1.041e-008     
  -1.05           1.3883e-009     -6.9075e-007    1.3837e-008    
  -1.1            -1.2611e-009    -1.2336e-006    -9.573e-009    
  -1.15           -1.2384e-009    -2.0518e-006    3.911e-009     
  -1.2            -1.4998e-009    -3.1819e-006    1.2811e-008    
  -1.25           1.6744e-009     -4.6627e-006    -1.2799e-008   
  -1.3            1.1667e-009     -6.4337e-006    -2.034e-009    
  -1.35           1.0777e-009     -8.5318e-006    -3.237e-009    
  -1.4            1.1461e-009     -1.09257e-005   -7.125e-009    
  -1.45           1.1704e-009     -1.3571e-005    3.028e-009     
  -1.5            1.1942e-009     -1.6447e-005    -1.8051e-008   
  -1.55           1.0745e-009     -1.9525e-005    -3.084e-009    
  -1.6            1.1435e-009     -2.2831e-005    -6.69e-009     
  -1.65           1.171e-009      -2.6284e-005    -1.1584e-008   
  -1.7            1.3048e-009     -2.9908e-005    -1.6472e-008   
  -1.75           1.0743e-009     -3.3635e-005    -3.365e-009    
  -1.8            1.1221e-009     -3.7537e-005    -4.783e-009    
END_DB

