! VERSION = 6.00
BEGIN_HEADER
 ICCAP_INPUTS
  VG         V  B GROUND SMU4 0.001 LIN        2    0          -1.8       6    -0.36     
  VS         V  E GROUND SMU2 0.1 CON        0
  VD         V  S GROUND SMU1 0.1 LIN        1    0          -1.8       37   -0.05     
  VB         V  C GROUND SMU3 0.1 LIN        3    0          0.9        2    0.9       
 ICCAP_OUTPUTS
  ID         I  S GROUND SMU1 B
  IB         I  C GROUND SMU3 B
  IG         I  B GROUND SMU4 B
END_HEADER

BEGIN_DB
 ICCAP_VAR VG         0              
 ICCAP_VAR VS         0              
 ICCAP_VAR VB         0              

 #VD              ID              IB              IG             
  0               -2.0631e-009    -8.57e-010      -2.2824e-009   
  -0.05           -1.4513e-009    -1.9095e-008    2.0726e-009    
  -0.1            2.1093e-009     -5.981e-009     4.639e-010     
  -0.15           2.1641e-009     8.74e-009       6.436e-010     
  -0.2            2.1792e-009     8.397e-009      8.094e-010     
  -0.25           7.99e-010       2.091e-008      -1.6057e-009   
  -0.3            -1.9639e-009    -3.959e-009     -1.1348e-009   
  -0.35           -1.0666e-009    -2.4723e-008    2.6609e-009    
  -0.4            1.434e-009      1.8862e-008     -1.8686e-009   
  -0.45           -1.1578e-009    -2.518e-008     2.5891e-009    
  -0.5            1.6032e-009     9.285e-009      -1.5499e-009   
  -0.55           -2.0818e-009    5.868e-009      -7.862e-010    
  -0.6            -1.5187e-009    -1.6059e-008    1.8681e-009    
  -0.65           2.1523e-009     -7.748e-009     5.938e-010     
  -0.7            6.396e-010      1.7182e-008     -1.9073e-009   
  -0.75           -1.1422e-009    -2.5173e-008    2.6048e-009    
  -0.8            1.5885e-009     9.138e-009      -1.5733e-009   
  -0.85           -2.0846e-009    5.69e-009       -7.636e-010    
  -0.9            -1.5104e-009    -1.6783e-008    1.9147e-009    
  -0.95           2.1422e-009     -7.454e-009     5.743e-010     
  -1              2.1752e-009     8.647e-009      7.478e-010     
  -1.05           2.1664e-009     8.107e-009      9.017e-010     
  -1.1            1.4627e-009     7.74e-009       -1.7974e-009   
  -1.15           -2.0276e-009    -4.813e-009     -1.0196e-009   
  -1.2            -9.697e-010     -2.3188e-008    2.6971e-009    
  -1.25           2.1759e-009     -1.186e-009     7.715e-010     
  -1.3            1.5477e-009     1.5145e-008     -1.6567e-009   
  -1.35           -1.9851e-009    -4.111e-009     -1.1004e-009   
  -1.4            -1.0383e-009    -2.4288e-008    2.672e-009     
  -1.45           7.212e-010      1.9024e-008     -1.7555e-009   
  -1.5            -2.0146e-009    -4.474e-009     -1.0421e-009   
  -1.55           -9.893e-010     -2.359e-008     2.6963e-009    
  -1.6            2.1792e-009     -1.24e-009      7.961e-010     
  -1.65           7.893e-010      2.0708e-008     -1.6182e-009   
  -1.7            -2.0815e-009    5.523e-009      -7.241e-010    
  -1.75           -1.4913e-009    -1.7672e-008    1.9766e-009    
  -1.8            2.1316e-009     -6.813e-009     5.304e-010     
END_DB

BEGIN_DB
 ICCAP_VAR VG         -0.36          
 ICCAP_VAR VS         0              
 ICCAP_VAR VB         0              

 #VD              ID              IB              IG             
  0               6.608e-010      -1.2359e-008    7.042e-010     
  -0.05           2.1769e-009     -8.928e-009     8.758e-010     
  -0.1            1.4371e-009     7.74e-009       -1.7958e-009   
  -0.15           -1.1866e-009    -2.5235e-008    2.5626e-009    
  -0.2            1.6228e-009     8.643e-009      -1.4883e-009   
  -0.25           -2.0963e-009    6.244e-009      -8.272e-010    
  -0.3            -8.217e-010     -2.0002e-008    1.7716e-009    
  -0.35           2.1507e-009     -8.268e-009     6.462e-010     
  -0.4            2.1738e-009     8.334e-009      8.166e-010     
  -0.45           1.5737e-009     1.3555e-008     -1.5681e-009   
  -0.5            -1.962e-009     -3.688e-009     -1.1511e-009   
  -0.55           -1.0942e-009    -2.5241e-008    2.6589e-009    
  -0.6            7.529e-010      2.0477e-008     -1.6412e-009   
  -0.65           -2.0021e-009    -4.034e-009     -1.1027e-009   
  -0.7            -1.056e-009     -2.4767e-008    2.6812e-009    
  -0.75           7.071e-010      1.9537e-008     -1.715e-009    
  -0.8            -2.0349e-009    -4.263e-009     -1.0533e-009   
  -0.85           -1.0192e-009    -2.4427e-008    2.7048e-009    
  -0.9            2.1683e-009     -1.305e-009     8.139e-010     
  -0.95           1.5671e-009     1.3682e-008     -1.5662e-009   
  -1              -1.9743e-009    -3.848e-009     -1.1493e-009   
  -1.05           -1.1038e-009    -2.5198e-008    2.6573e-009    
  -1.1            1.4237e-009     1.7851e-008     -1.806e-009    
  -1.15           -1.205e-009     -2.5012e-008    2.5591e-009    
  -1.2            1.6049e-009     8.642e-009      -1.489e-009    
  -1.25           -2.1155e-009    6.195e-009      -8.222e-010    
  -1.3            -8.434e-010     -1.9871e-008    1.7721e-009    
  -1.35           2.1319e-009     -8.216e-009     6.433e-010     
  -1.4            2.1558e-009     8.293e-009      8.164e-010     
  -1.45           1.351e-009      7.784e-009      -1.9051e-009   
  -1.5            -1.1691e-009    -2.5357e-008    2.6173e-009    
  -1.55           1.5421e-009     8.313e-009      -1.5653e-009   
  -1.6            -1.9871e-009    -3.76e-009      -1.153e-009    
  -1.65           -1.1267e-009    -2.5251e-008    2.6544e-009    
  -1.7            1.4091e-009     1.7536e-008     -1.8029e-009   
  -1.75           -1.2304e-009    -2.5107e-008    2.5557e-009    
  -1.8            1.5883e-009     8.624e-009      -1.4907e-009   
END_DB

BEGIN_DB
 ICCAP_VAR VG         -0.72          
 ICCAP_VAR VS         0              
 ICCAP_VAR VB         0              

 #VD              ID              IB              IG             
  0               2.4378e-009     1.482e-009      2.6122e-009    
  -0.05           -5.5117e-008    -1.4102e-008    -2.2169e-009   
  -0.1            -7.7159e-008    2.0404e-008     -1.4285e-009   
  -0.15           -7.9972e-008    1.0555e-008     1.9341e-009    
  -0.2            -9.9088e-008    -1.7126e-008    2.7108e-009    
  -0.25           -1.04792e-007   -1.829e-008     1.7298e-009    
  -0.3            -1.0208e-007    -1.7124e-008    -1.5902e-009   
  -0.35           -1.0927e-007    9.58e-009       6.323e-010     
  -0.4            -1.2656e-007    -2.0116e-008    2.7205e-009    
  -0.45           -1.3564e-007    -1.3403e-008    2.6164e-009    
  -0.5            -1.4208e-007    -2.4425e-008    2.4841e-009    
  -0.55           -1.499e-007     -2.4743e-008    2.3068e-009    
  -0.6            -1.5635e-007    -1.7042e-008    1.9021e-009    
  -0.65           -1.6642e-007    -1.861e-008     2.7233e-009    
  -0.7            -1.7236e-007    -2.1826e-008    2.6836e-009    
  -0.75           -1.7971e-007    -2.3834e-008    2.5923e-009    
  -0.8            -1.8784e-007    -2.4731e-008    2.4485e-009    
  -0.85           -1.9609e-007    -2.4514e-008    2.2539e-009    
  -0.9            -2.0249e-007    -1.7466e-008    1.8418e-009    
  -0.95           -2.1319e-007    -1.7804e-008    2.715e-009     
  -1              -2.2217e-007    -1.2913e-008    2.5831e-009    
  -1.05           -2.2918e-007    -2.4754e-008    2.4346e-009    
  -1.1            -2.3848e-007    -2.4512e-008    2.241e-009     
  -1.15           -2.458e-007     -1.7638e-008    1.8316e-009    
  -1.2            -2.5816e-007    -1.7556e-008    2.7155e-009    
  -1.25           -2.6713e-007    -1.2671e-008    1.597e-010     
  -1.3            -2.6142e-007    9.153e-009      -2.4719e-009   
  -1.35           -2.7617e-007    1.0829e-008     -9.54e-011     
  -1.4            -2.906e-007     -1.3532e-008    2.5306e-009    
  -1.45           -3.0332e-007    -2.4828e-008    2.3586e-009    
  -1.5            -3.1128e-007    -1.6697e-008    1.9631e-009    
  -1.55           -3.2569e-007    -1.9474e-008    2.7262e-009    
  -1.6            -3.3698e-007    -1.393e-008     2.639e-009     
  -1.65           -3.4344e-007    -2.4567e-008    2.5189e-009    
  -1.7            -3.5583e-007    -2.4948e-008    2.3448e-009    
  -1.75           -3.6704e-007    -2.3767e-008    2.1321e-009    
  -1.8            -3.7619e-007    -1.8506e-008    2.7114e-009    
END_DB

BEGIN_DB
 ICCAP_VAR VG         -1.08          
 ICCAP_VAR VS         0              
 ICCAP_VAR VB         0              

 #VD              ID              IB              IG             
  0               -1.2813e-008    -1.9219e-008    -2.793e-010    
  -0.05           -4.187e-006     -1.7916e-008    -2.2863e-009   
  -0.1            -7.1836e-006    2.4778e-008     -1.2754e-009   
  -0.15           -9.2676e-006    2.5302e-008     -2.201e-009    
  -0.2            -1.07389e-005   1.0166e-008     4.48e-011      
  -0.25           -1.1755e-005    8.009e-009      -2.453e-009    
  -0.3            -1.256e-005     9.955e-009      1.466e-010     
  -0.35           -1.3292e-005    -1.7842e-008    1.8378e-009    
  -0.4            -1.3862e-005    -1.2962e-008    2.6031e-009    
  -0.45           -1.4318e-005    -1.6836e-008    1.9446e-009    
  -0.5            -1.4796e-005    -1.4012e-008    2.6453e-009    
  -0.55           -1.5203e-005    -2.454e-008     2.239e-009     
  -0.6            -1.5591e-005    -2.0133e-008    2.7189e-009    
  -0.65           -1.5961e-005    -2.4708e-008    2.479e-009     
  -0.7            -1.6307e-005    -1.833e-008     1.7446e-009    
  -0.75           -1.6675e-005    -2.4242e-008    2.5463e-009    
  -0.8            -1.6985e-005    -1.7566e-008    1.8503e-009    
  -0.85           -1.7344e-005    -1.3195e-008    2.6082e-009    
  -0.9            -1.7617e-005    -2.3921e-008    2.1498e-009    
  -0.95           -1.7948e-005    -2.0762e-008    2.7009e-009    
  -1              -1.8269e-005    -2.4868e-008    2.4164e-009    
  -1.05           -1.8544e-005    -1.8717e-008    2.7155e-009    
  -1.1            -1.8872e-005    -1.1823e-008    9.85e-011      
  -1.15           -1.8941e-005    9.818e-009      -2.1301e-009   
  -1.2            -1.9345e-005    1.0246e-008     1.9694e-009    
  -1.25           -1.9716e-005    -2.0893e-008    2.7007e-009    
  -1.3            -1.9998e-005    -2.4771e-008    2.3961e-009    
  -1.35           -2.026e-005     -1.8926e-008    2.7192e-009    
  -1.4            -2.0548e-005    -2.3649e-008    2.5995e-009    
  -1.45           -2.0804e-005    -1.6765e-008    1.9396e-009    
  -1.5            -2.0916e-005    -9.693e-009     -8.102e-010    
  -1.55           -2.1178e-005    2.4949e-008     -1.2705e-009   
  -1.6            -2.1615e-005    8.282e-009      1.3008e-009    
  -1.65           -2.1913e-005    -1.521e-008     2.3654e-009    
  -1.7            -2.2153e-005    -1.9206e-008    2.7194e-009    
  -1.75           -2.2432e-005    -2.3997e-008    2.5664e-009    
  -1.8            -2.2666e-005    -1.7148e-008    1.8889e-009    
END_DB

BEGIN_DB
 ICCAP_VAR VG         -1.44          
 ICCAP_VAR VS         0              
 ICCAP_VAR VB         0              

 #VD              ID              IB              IG             
  0               1.8521e-008     -3.08e-009      -1.7333e-009   
  -0.05           -1.2137e-005    -9.946e-009     2.6641e-009    
  -0.1            -2.3011e-005    -2.0932e-008    2.6967e-009    
  -0.15           -3.258e-005     -2.4693e-008    2.4018e-009    
  -0.2            -4.0856e-005    -1.9067e-008    2.7156e-009    
  -0.25           -4.7934e-005    -1.1826e-008    9.95e-011      
  -0.3            -5.3619e-005    9.841e-009      -2.1274e-009   
  -0.35           -5.8682e-005    1.0458e-008     1.9728e-009    
  -0.4            -6.27e-005      -2.0935e-008    2.6958e-009    
  -0.45           -6.6065e-005    -2.4719e-008    2.3926e-009    
  -0.5            -6.8805e-005    -1.9117e-008    2.7155e-009    
  -0.55           -7.1125e-005    -2.3832e-008    2.5954e-009    
  -0.6            -7.3116e-005    -1.6928e-008    1.9362e-009    
  -0.65           -7.4701e-005    -9.714e-009     -8.09e-010     
  -0.7            -7.618e-005     2.4977e-008     -1.2708e-009   
  -0.75           -7.8011e-005    8.315e-009      1.3042e-009    
  -0.8            -7.9228e-005    -1.768e-008     2.7098e-009    
  -0.85           -8.0505e-005    -2.448e-008     2.4683e-009    
  -0.9            -8.1621e-005    -1.8452e-008    1.735e-009     
  -0.95           -8.2706e-005    -2.426e-008     2.5369e-009    
  -1              -8.3706e-005    -1.7599e-008    1.836e-009     
  -1.05           -8.4736e-005    -1.309e-008     2.5989e-009    
  -1.1            -8.564e-005     -1.6887e-008    1.9457e-009    
  -1.15           -8.6364e-005    -9.739e-009     -7.949e-010    
  -1.2            -8.7162e-005    2.4929e-008     -1.2732e-009   
  -1.25           -8.8465e-005    8.243e-009      1.2987e-009    
  -1.3            -8.9209e-005    -1.7987e-008    2.7127e-009    
  -1.35           -9.0101e-005    -2.453e-008     2.4755e-009    
  -1.4            -9.0853e-005    -1.8323e-008    1.7581e-009    
  -1.45           -9.1706e-005    -2.4045e-008    2.5534e-009    
  -1.5            -9.242e-005     -1.7427e-008    1.8629e-009    
  -1.55           -9.3262e-005    -1.3252e-008    2.61e-009      
  -1.6            -9.3966e-005    -1.6748e-008    1.9726e-009    
  -1.65           -9.4747e-005    -2.263e-008     2.6579e-009    
  -1.7            -9.5475e-005    -2.4653e-008    2.2602e-009    
  -1.75           -9.6197e-005    -1.831e-008     2.7179e-009    
  -1.8            -9.6951e-005    -2.4521e-008    2.499e-009     
END_DB

BEGIN_DB
 ICCAP_VAR VG         -1.8           
 ICCAP_VAR VS         0              
 ICCAP_VAR VB         0              

 #VD              ID              IB              IG             
  0               2.6767e-008     8.723e-009      4.084e-010     
  -0.05           -1.799e-005     -9.981e-009     -1.434e-010    
  -0.1            -3.506e-005     -1.5939e-008    2.2552e-009    
  -0.15           -5.1135e-005    -1.8678e-008    2.7206e-009    
  -0.2            -6.6164e-005    -2.4436e-008    2.4945e-009    
  -0.25           -8.0139e-005    -1.7778e-008    1.7681e-009    
  -0.3            -9.2992e-005    -1.2654e-008    2.5564e-009    
  -0.35           -0.000104636    -1.6862e-008    1.8769e-009    
  -0.4            -0.00011522     -4.453e-009     -2.4597e-009   
  -0.45           -0.00012462     1.0501e-008     -1.086e-010    
  -0.5            -0.00013308     -1.3585e-008    2.5057e-009    
  -0.55           -0.00014048     -2.508e-008     2.3383e-009    
  -0.6            -0.00014688     -1.6352e-008    1.9341e-009    
  -0.65           -0.00015252     -1.9281e-008    2.7146e-009    
  -0.7            -0.0001575      -1.3749e-008    2.63e-009      
  -0.75           -0.00016182     -2.4549e-008    2.5142e-009    
  -0.8            -0.00016551     -2.5278e-008    2.3394e-009    
  -0.85           -0.00016882     -2.428e-008     2.1241e-009    
  -0.9            -0.0001718      -1.7848e-008    2.7001e-009    
  -0.95           -0.00017456     -1.9392e-008    2.7145e-009    
  -1              -0.00017699     -1.3136e-008    2.6175e-009    
  -1.05           -0.00017919     -2.4782e-008    2.4941e-009    
  -1.1            -0.00018134     -2.5542e-008    2.3063e-009    
  -1.15           -0.00018315     -1.6627e-008    1.8943e-009    
  -1.2            -0.00018497     -1.8914e-008    2.7155e-009    
  -1.25           -0.00018674     -1.2905e-008    2.6185e-009    
  -1.3            -0.00018833     -2.4896e-008    2.5044e-009    
  -1.35           -0.00018996     -2.5845e-008    2.3151e-009    
  -1.4            -0.0001914      -1.6738e-008    1.8975e-009    
  -1.45           -0.0001928      -1.906e-008     2.7066e-009    
  -1.5            -0.0001942      -1.2872e-008    2.6227e-009    
  -1.55           -0.0001956      -2.473e-008     2.5027e-009    
  -1.6            -0.00019699     -2.5632e-008    2.3228e-009    
  -1.65           -0.00019828     -1.6925e-008    1.8917e-009    
  -1.7            -0.00019941     -1.9072e-008    2.706e-009     
  -1.75           -0.0002007      -1.3026e-008    2.6179e-009    
  -1.8            -0.00020179     -2.4675e-008    2.4953e-009    
END_DB

BEGIN_DB
 ICCAP_VAR VG         0              
 ICCAP_VAR VS         0              
 ICCAP_VAR VB         0.9            

 #VD              ID              IB              IG             
  0               1.1436e-009     6.993e-009      1.1357e-009    
  -0.05           2.0745e-009     9.52e-009       3.646e-010     
  -0.1            2.1411e-009     9.031e-009      5.534e-010     
  -0.15           6.102e-010      1.6782e-008     -1.911e-009    
  -0.2            -1.1139e-009    -2.4954e-008    2.6119e-009    
  -0.25           1.571e-009      8.229e-009      -1.5743e-009   
  -0.3            -1.9439e-009    -3.866e-009     -1.1382e-009   
  -0.35           -1.0732e-009    -2.4966e-008    2.6475e-009    
  -0.4            7.628e-010      2.0804e-008     -1.641e-009    
  -0.45           -1.9848e-009    -4.101e-009     -1.0929e-009   
  -0.5            -1.0322e-009    -2.4835e-008    2.6821e-009    
  -0.55           7.218e-010      1.9759e-008     -1.7135e-009   
  -0.6            -2.0124e-009    -4.528e-009     -1.0435e-009   
  -0.65           -9.927e-010     -2.4449e-008    2.7015e-009    
  -0.7            2.1877e-009     -1.472e-009     8.107e-010     
  -0.75           1.5828e-009     1.3886e-008     -1.5704e-009   
  -0.8            -1.9398e-009    -3.916e-009     -1.1423e-009   
  -0.85           -1.0743e-009    -2.4988e-008    2.6487e-009    
  -0.9            1.4417e-009     1.7661e-008     -1.8011e-009   
  -0.95           -1.1684e-009    -2.4567e-008    2.5462e-009    
  -1              1.6297e-009     8.607e-009      -1.4921e-009   
  -1.05           -2.0936e-009    6.25e-009       -8.208e-010    
  -1.1            -8.091e-010     -2.0377e-008    1.7725e-009    
  -1.15           2.1602e-009     -8.221e-009     6.382e-010     
  -1.2            2.1893e-009     8.267e-009      8.173e-010     
  -1.25           1.5852e-009     1.3827e-008     -1.5704e-009   
  -1.3            -1.9398e-009    -3.845e-009     -1.1436e-009   
  -1.35           -1.0732e-009    -2.4908e-008    2.649e-009     
  -1.4            7.679e-010      2.0899e-008     -1.6359e-009   
  -1.45           -1.9843e-009    -3.866e-009     -1.093e-009    
  -1.5            -1.0332e-009    -2.4857e-008    2.6814e-009    
  -1.55           7.213e-010      1.9758e-008     -1.7048e-009   
  -1.6            -2.014e-009     -4.461e-009     -1.0504e-009   
  -1.65           -9.952e-010     -2.4625e-008    2.7077e-009    
  -1.7            2.1902e-009     -1.499e-009     8.133e-010     
  -1.75           8.07e-010       2.1865e-008     -1.5684e-009   
  -1.8            -1.9425e-009    -3.974e-009     -1.143e-009    
END_DB

BEGIN_DB
 ICCAP_VAR VG         -0.36          
 ICCAP_VAR VS         0              
 ICCAP_VAR VB         0.9            

 #VD              ID              IB              IG             
  0               -5.409e-010     -2.1518e-008    1.34e-010      
  -0.05           -4.169e-010     -1.6235e-008    2.4968e-009    
  -0.1            2.0836e-009     9.67e-009       3.926e-010     
  -0.15           2.1415e-009     8.855e-009      5.737e-010     
  -0.2            2.1808e-009     8.521e-009      7.529e-010     
  -0.25           7.615e-010      2.0544e-008     -1.6338e-009   
  -0.3            -1.995e-009     -3.958e-009     -1.0953e-009   
  -0.35           -1.0313e-009    -2.5002e-008    2.6933e-009    
  -0.4            1.4744e-009     7.797e-009      -1.7184e-009   
  -0.45           -2.03e-009      -4.341e-009     -1.0474e-009   
  -0.5            -9.945e-010     -2.4553e-008    2.7123e-009    
  -0.55           2.1829e-009     -1.382e-009     8.07e-010      
