! VERSION = 6.00
BEGIN_HEADER
 ICCAP_INPUTS
  VG         V  B GROUND SMU4 0.001 LIN        1    0          -1.8       37   -0.05     
  VS         V  E GROUND SMU2 0.1 CON        0
  VB         V  C GROUND SMU3 0.1 LIN        3    0          1.8        3    0.9       
  VD         V  S GROUND SMU1 0.1 LIN        2    -0.1       -1.8       2    -1.7      
 ICCAP_OUTPUTS
  IG         I  B GROUND SMU4 B
  ID         I  S GROUND SMU1 B
  IB         I  C GROUND SMU3 B
END_HEADER

BEGIN_DB
 ICCAP_VAR VS         0              
 ICCAP_VAR VB         0              
 ICCAP_VAR VD         -0.1           

 #VG              IG              ID              IB             
  0               -1.2041e-009    -1.0508e-009    -1.246e-008    
  -0.05           1.1514e-009     -1.2181e-009    -1.0665e-008   
  -0.1            1.1588e-009     8.38e-011       -1.1723e-008   
  -0.15           1.1591e-009     -8.51e-011      -1.3562e-008   
  -0.2            1.6627e-009     -1.917e-010     -1.576e-008    
  -0.25           1.1636e-009     1.2201e-009     1.4058e-008    
  -0.3            1.3431e-009     1.0617e-009     1.5286e-008    
  -0.35           1.148e-010      1.7263e-009     8.655e-009     
  -0.4            2.472e-010      1.808e-009      8.707e-009     
  -0.45           -1.2585e-009    7.164e-010      8.391e-009     
  -0.5            -1.6678e-009    -1.2556e-009    2.269e-009     
  -0.55           1.1599e-009     -6.507e-010     -1.1866e-008   
  -0.6            1.1588e-009     -2.6638e-009    -1.4348e-008   
  -0.65           1.5926e-009     -9.4126e-009    -1.6582e-008   
  -0.7            -2.1909e-009    -3.1326e-008    -1.1344e-008   
  -0.75           -1.043e-010     -9.7089e-008    -9.542e-009    
  -0.8            -2.3551e-009    -2.7638e-007    9.069e-009     
  -0.85           1.2808e-009     -7.5601e-007    -1.6559e-008   
  -0.9            7.714e-010      -1.7913e-006    7.65e-010      
  -0.95           1.2001e-009     -3.8193e-006    1.2606e-008    
  -1              2.055e-010      -7.1359e-006    8.077e-009     
  -1.05           -2.4099e-009    -1.2177e-005    8.488e-009     
  -1.1            1.4524e-009     -1.8899e-005    -1.4447e-008   
  -1.15           1.0994e-009     -2.6874e-005    -3.473e-009    
  -1.2            1.0936e-009     -3.5835e-005    -3.855e-009    
  -1.25           1.1543e-009     -4.5434e-005    -8.892e-009    
  -1.3            1.7179e-009     -5.5204e-005    -1.2075e-008   
  -1.35           1.3784e-009     -6.502e-005     1.3835e-008    
  -1.4            3.31e-010       -7.4515e-005    8.733e-009     
  -1.45           6.031e-010      -8.3929e-005    8.403e-009     
  -1.5            9.897e-010      -9.2785e-005    1.1065e-008    
  -1.55           1.4248e-009     -0.000101093    1.4074e-008    
  -1.6            3.43e-010       -0.000109035    8.718e-009     
  -1.65           2.1732e-009     -0.00011661     8.652e-009     
  -1.7            1.2259e-009     -0.00012384     1.2813e-008    
  -1.75           2.258e-010      -0.00013042     8.173e-009     
  -1.8            5.068e-010      -0.00013691     8.407e-009     
END_DB

BEGIN_DB
 ICCAP_VAR VS         0              
 ICCAP_VAR VB         0              
 ICCAP_VAR VD         -1.8           

 #VG              IG              ID              IB             
  0               1.0787e-009     1.0444e-009     -9.435e-009    
  -0.05           -1.2418e-009    1.1902e-009     1.1046e-008    
  -0.1            -1.3656e-009    -1.2102e-009    7.231e-009     
  -0.15           1.1278e-009     -1.1642e-009    -1.2334e-008   
  -0.2            1.9838e-009     9.626e-010      -1.0734e-008   
  -0.25           -1.2415e-009    1.1572e-009     9.53e-009      
  -0.3            -1.3338e-009    -1.2428e-009    6.299e-009     
  -0.35           7.08e-011       -1.8806e-009    -9.463e-009    
  -0.4            1.1588e-009     -7.5e-011       -1.2481e-008   
  -0.45           1.1564e-009     -3.911e-010     -1.5236e-008   
  -0.5            1.5381e-009     -1.2109e-009    -1.7617e-008   
  -0.55           1.2624e-009     -2.1578e-009    1.4554e-008    
  -0.6            -2.3266e-009    -1.2727e-008    -1.3866e-008   
  -0.65           1.0798e-009     -4.0046e-008    -2.211e-008    
  -0.7            5.331e-010      -1.2089e-007    -1.3329e-008   
  -0.75           8.773e-010      -3.5156e-007    1.0186e-008    
  -0.8            1.3174e-009     -9.1784e-007    1.3311e-008    
  -0.85           -1.2624e-009    -2.1831e-006    -9.396e-009    
  -0.9            -1.2453e-009    -4.8082e-006    2.674e-009     
  -0.95           -1.9324e-009    -9.6933e-006    4.3e-009       
  -1              2.14e-010       -1.7837e-005    -1.2009e-008   
  -1.05           5.015e-010      -3.0376e-005    8.77e-009      
  -1.1            8.297e-010      -4.7773e-005    9.866e-009     
  -1.15           1.2728e-009     -7.0056e-005    1.3073e-008    
  -1.2            2.621e-010      -9.7016e-005    8.609e-009     
  -1.25           2.338e-010      -0.00012928     1.5087e-008    
  -1.3            5.122e-010      -0.0001672      8.995e-009     
  -1.35           8.495e-010      -0.00020907     9.237e-009     
  -1.4            1.2873e-009     -0.00025438     1.3309e-008    
  -1.45           2.812e-010      -0.00030231     8.548e-009     
  -1.5            5.483e-010      -0.00035495     8.652e-009     
  -1.55           9.165e-010      -0.00041012     1.0384e-008    
  -1.6            1.347e-009      -0.00046675     1.3863e-008    
  -1.65           3.148e-010      -0.00052492     8.643e-009     
  -1.7            5.849e-010      -0.00058712     8.49e-009      
  -1.75           9.608e-010      -0.0006499      1.0818e-008    
  -1.8            1.4044e-009     -0.00071346     1.4109e-008    
END_DB

BEGIN_DB
 ICCAP_VAR VS         0              
 ICCAP_VAR VB         0.9            
 ICCAP_VAR VD         -0.1           

 #VG              IG              ID              IB             
  0               -1.1764e-009    -1.0361e-009    -1.4482e-008   
  -0.05           -1.057e-010     -1.9313e-009    -9.805e-009    
  -0.1            -2.559e-010     -1.9583e-009    -9.329e-009    
  -0.15           1.68e-009       9.179e-010      -5.48e-009     
  -0.2            -1.2581e-009    7.737e-010      8.603e-009     
  -0.25           -8.685e-010     -1.6885e-009    2.122e-009     
  -0.3            1.1567e-009     1.28e-011       -1.2293e-008   
  -0.35           1.1553e-009     -1.356e-010     -1.4754e-008   
  -0.4            1.5803e-009     -2.338e-010     -1.7024e-008   
  -0.45           1.2425e-009     1.1648e-009     1.4655e-008    
  -0.5            3.27e-011       1.6413e-009     8.237e-009     
  -0.55           1.47e-010       1.7848e-009     8.715e-009     
  -0.6            -1.2627e-009    6.63e-010       8.714e-009     
  -0.65           -1.5783e-009    -1.1231e-009    3.03e-009      
  -0.7            1.1588e-009     4e-013          -1.1359e-008   
  -0.75           1.1561e-009     -6.47e-010      -1.311e-008    
  -0.8            1.1447e-009     -2.8946e-009    -1.477e-008    
  -0.85           -1.2281e-009    -1.158e-008     -9.316e-009    
  -0.9            -1.5328e-009    -4.1138e-008    1.1362e-008    
  -0.95           -1.2252e-009    -1.3882e-007    -3.491e-009    
  -1              -1.4931e-009    -4.2692e-007    1.2394e-008    
  -1.05           -1.7823e-009    -1.1548e-006    -1.1533e-008   
  -1.1            1.5525e-009     -2.7795e-006    -1.3543e-008   
  -1.15           1.1247e-009     -5.6855e-006    -3.02e-009     
  -1.2            1.0813e-009     -1.02682e-005   -3.523e-009    
  -1.25           -1.2518e-009    -1.638e-005     -3.45e-009     
  -1.3            -1.9374e-009    -2.4059e-005    5.013e-009     
  -1.35           1.0702e-009     -3.3044e-005    -2.2402e-008   
  -1.4            1.1199e-009     -4.2384e-005    -5.019e-009    
  -1.45           1.1589e-009     -5.1859e-005    -1.0562e-008   
  -1.5            1.4972e-009     -6.123e-005     -1.4126e-008   
  -1.55           1.1058e-009     -7.0344e-005    -3.298e-009    
  -1.6            1.0872e-009     -7.9094e-005    -3.856e-009    
  -1.65           1.1503e-009     -8.7424e-005    -8.353e-009    
  -1.7            1.8005e-009     -9.524e-005     -1.1631e-008   
  -1.75           1.3481e-009     -0.000102687    1.3662e-008    
  -1.8            2.983e-010      -0.000109669    8.691e-009     
END_DB

BEGIN_DB
 ICCAP_VAR VS         0              
 ICCAP_VAR VB         0.9            
 ICCAP_VAR VD         -1.8           

 #VG              IG              ID              IB             
  0               -1.2453e-009    -1.0734e-009    8.593e-009     
  -0.05           1.1509e-009     -9.81e-011      -1.3899e-008   
  -0.1            1.6664e-009     -1.997e-010     -1.6068e-008   
  -0.15           1.1776e-009     1.2215e-009     1.4507e-008    
  -0.2            1.3585e-009     1.0681e-009     1.6311e-008    
  -0.25           1.167e-010      1.7476e-009     8.909e-009     
  -0.3            2.542e-010      1.8214e-009     9.15e-009      
  -0.35           -1.2595e-009    7.627e-010      8.657e-009     
  -0.4            -8.528e-010     -1.6998e-009    2.252e-009     
  -0.45           1.1446e-009     -1.5683e-009    -8.691e-009    
  -0.5            1.4852e-009     -2.767e-010     -1.8261e-008   
  -0.55           2.0131e-009     9.543e-010      -3.506e-009    
  -0.6            -1.2461e-009    1.1136e-009     9.537e-009     
  -0.65           -2.1592e-009    -1.2808e-009    6.718e-009     
  -0.7            1.1247e-009     -2.1102e-009    -1.3379e-008   
  -0.75           1.1489e-009     -3.957e-009     -1.0847e-008   
  -0.8            -1.2378e-009    -1.7175e-008    -9.473e-009    
  -0.85           -1.598e-009     -6.1142e-008    1.0374e-008    
  -0.9            2.862e-010      -2.0265e-007    -1.0433e-008   
  -0.95           5.764e-010      -6.2258e-007    8.333e-009     
  -1              -1.6535e-009    -1.6563e-006    -1.0695e-008   
  -1.05           1.7556e-009     -4.0553e-006    -1.1995e-008   
  -1.1            1.3714e-009     -8.6589e-006    1.3956e-008    
  -1.15           -2.299e-009     -1.6499e-005    8.512e-009     
  -1.2            4e-012          -2.8892e-005    -8.854e-009    
  -1.25           1.5805e-009     -4.6321e-005    -1.3271e-008   
  -1.3            1.4825e-009     -6.8762e-005    1.4586e-008    
  -1.35           4.07e-010       -9.6453e-005    8.951e-009     
  -1.4            1.9526e-009     -0.00012889     6.82e-009      
  -1.45           8.892e-010      -0.00016716     1.0294e-008    
  -1.5            1.3332e-009     -0.00020822     1.3774e-008    
  -1.55           3.295e-010      -0.00025251     8.722e-009     
  -1.6            5.527e-010      -0.00030156     8.649e-009     
  -1.65           9.479e-010      -0.00035332     9.588e-009     
  -1.7            1.3836e-009     -0.00040665     1.4071e-008    
  -1.75           3.297e-010      -0.00046186     9.1e-009       
  -1.8            6.077e-010      -0.00052068     8.248e-009     
END_DB

BEGIN_DB
 ICCAP_VAR VS         0              
 ICCAP_VAR VB         1.8            
 ICCAP_VAR VD         -0.1           

 #VG              IG              ID              IB             
  0               -1.2246e-009    -1.0719e-009    -9.679e-009    
  -0.05           1.0857e-009     -1.7396e-009    -8.799e-009    
  -0.1            1.8055e-009     9.171e-010      -8.349e-009    
  -0.15           -1.256e-009     9.277e-010      8.296e-009     
  -0.2            -1.0641e-009    -1.5143e-009    2.171e-009     
  -0.25           1.1583e-009     -1.374e-010     -1.4563e-008   
  -0.3            1.5533e-009     -2.101e-010     -1.7729e-008   
  -0.35           1.2447e-009     1.2005e-009     1.4455e-008    
  -0.4            3.35e-011       1.6556e-009     8.303e-009     
  -0.45           1.172e-010      1.812e-009      8.828e-009     
  -0.5            -1.2634e-009    6.771e-010      8.7e-009       
  -0.55           -1.5808e-009    -1.0923e-009    2.938e-009     
  -0.6            2.0337e-009     9.773e-010      -1.1296e-008   
  -0.65           -1.249e-009     1.1893e-009     1.1141e-008    
  -0.7            -1.3647e-009    -1.2079e-009    7.276e-009     
  -0.75           3.33e-011       -1.8973e-009    -9.567e-009    
  -0.8            1.1582e-009     -1.072e-010     -1.2966e-008   
  -0.85           1.7176e-009     -4.5e-010       -1.5174e-008   
  -0.9            1.4706e-009     -3.738e-010     -9.34e-010     
  -0.95           1.2765e-009     -5.1594e-009    -3.376e-009    
  -1              -2.3394e-009    -2.5381e-008    -1.399e-008    
  -1.05           -3.137e-010     -9.1907e-008    -9.768e-009    
  -1.1            -2.1591e-009    -2.9829e-007    8.601e-009     
  -1.15           -1.452e-010     -8.6341e-007    -9.469e-009    
  -1.2            1.0977e-009     -2.1751e-006    8.645e-009     
  -1.25           1.1551e-009     -4.695e-006     -9.282e-009    
  -1.3            1.6951e-009     -8.7531e-006    -1.2117e-008   
  -1.35           -1.2604e-009    -1.432e-005     5.72e-010      
  -1.4            -1.2454e-009    -2.1543e-005    2.004e-009     
  -1.45           -1.7837e-009    -2.9888e-005    6.32e-009      
  -1.5            1.1568e-009     -3.9068e-005    -1.0264e-008   
  -1.55           1.4937e-009     -4.8227e-005    -1.3927e-008   
  -1.6            1.5379e-009     -5.7232e-005    1.4624e-008    
  -1.65           4.477e-010      -6.6066e-005    8.672e-009     
  -1.7            7.295e-010      -7.4584e-005    9.034e-009     
  -1.75           1.1595e-009     -8.2519e-005    1.2229e-008    
  -1.8            1.5763e-009     -8.9994e-005    1.4923e-008    
END_DB

BEGIN_DB
 ICCAP_VAR VS         0              
 ICCAP_VAR VB         1.8            
 ICCAP_VAR VD         -1.8           

 #VG              IG              ID              IB             
  0               -1.2039e-009    -1.0533e-009    1.276e-008     
  -0.05           5.82e-011       -1.8663e-009    -9.564e-009    
  -0.1            1.1574e-009     -1.16e-011      -1.2321e-008   
  -0.15           1.7448e-009     -1.525e-010     -1.4687e-008   
  -0.2            1.8678e-009     9.321e-010      -5.65e-010     
  -0.25           -1.2553e-009    1.0003e-009     8.645e-009     
  -0.3            -1.1627e-009    -1.3975e-009    3.231e-009     
  -0.35           1.0974e-009     -1.0283e-009    -1.7281e-008   
  -0.4            1.8505e-009     9.342e-010      -9.074e-009    
  -0.45           -1.2564e-009    9.595e-010      8.427e-009     
  -0.5            -1.1091e-009    -1.4535e-009    2.511e-009     
  -0.55           1.0897e-009     -1.7214e-009    -8.858e-009    
  -0.6            1.796e-009      9.182e-010      -8.272e-009    
  -0.65           -1.2579e-009    9.039e-010      8.417e-009     
  -0.7            -1.8401e-009    -1.1075e-009    2.04e-009      
  -0.75           1.1555e-009     -2.591e-010     -1.4082e-008   
  -0.8            1.5587e-009     -8.481e-010     -1.684e-008    
  -0.85           1.2252e-009     -1.6563e-009    1.3927e-008    
  -0.9            -1.2359e-009    -1.3024e-008    -9.428e-009    
  -0.95           -1.622e-009     -4.87e-008      9.236e-009     
  -1              4.262e-010      -1.7177e-007    -1.1271e-008   
  -1.05           7.165e-010      -5.5561e-007    8.794e-009     
  -1.1            -2.1031e-009    -1.5256e-006    -1.4519e-008   
  -1.15           -1.05e-011      -3.7956e-006    -9.011e-009    
  -1.2            1.5606e-009     -8.3381e-006    -1.2963e-008   
  -1.25           -2.2257e-009    -1.6031e-005    9.113e-009     
  -1.3            1.1304e-009     -2.8478e-005    -5.662e-009    
  -1.35           1.1521e-009     -4.5691e-005    -1.091e-008    
  -1.4            1.3968e-009     -6.8085e-005    -1.4609e-008   
  -1.45           1.0908e-009     -9.5561e-005    -3.522e-009    
  -1.5            2.3056e-009     -0.00012735     1.046e-008     
  -1.55           8.42e-010       -0.00016508     9.928e-009     
  -1.6            1.2782e-009     -0.00020568     1.3314e-008    
  -1.65           2.696e-010      -0.00024923     8.534e-009     
  -1.7            5.395e-010      -0.00029737     8.406e-009     
  -1.75           8.929e-010      -0.00034812     1.0326e-008    
  -1.8            1.3295e-009     -0.0004005      1.3807e-008    
END_DB

