! VERSION = 6.00
BEGIN_HEADER
 ICCAP_INPUTS
  VG         V  B GROUND SMU4 0.001 LIN        1    0          -1.8       37   -0.05     
  VS         V  E GROUND SMU2 0.1 CON        0
  VB         V  C GROUND SMU3 0.1 LIN        3    0          1.8        3    0.9       
  VD         V  S GROUND SMU1 0.1 LIN        2    -0.1       -1.8       2    -1.7      
 ICCAP_OUTPUTS
  IG         I  B GROUND SMU4 B
  ID         I  S GROUND SMU1 B
  IB         I  C GROUND SMU3 B
END_HEADER

BEGIN_DB
 ICCAP_VAR VS         0              
 ICCAP_VAR VB         0              
 ICCAP_VAR VD         -0.1           

 #VG              IG              ID              IB             
  0               -1.2901e-009    4.991e-010      3.021e-009     
  -0.05           1.1404e-009     -9.23e-011      -1.4258e-008   
  -0.1            1.5899e-009     -2.02e-010      -1.6356e-008   
  -0.15           1.9219e-009     9.376e-010      -2.428e-009    
  -0.2            -1.231e-009     1.0802e-009     9.904e-009     
  -0.25           -1.2633e-009    -1.2509e-009    5.355e-009     
  -0.3            1.636e-010      -1.7778e-009    -9.38e-009     
  -0.35           2.0668e-009     9.819e-010      -1.2134e-008   
  -0.4            -1.2238e-009    1.2275e-009     1.1855e-008    
  -0.45           -1.4075e-009    -1.1067e-009    9.893e-009     
  -0.5            1.1349e-009     -1.195e-009     -1.0598e-008   
  -0.55           1.153e-009      1.21e-011       -1.1907e-008   
  -0.6            1.1422e-009     -4.21e-010      -1.3979e-008   
  -0.65           1.6268e-009     -1.3282e-009    -1.5928e-008   
  -0.7            1.1716e-009     -7.086e-010     1.4318e-008    
  -0.75           -1.4068e-009    -8.193e-009     -1.1665e-008   
  -0.8            1.5947e-009     -2.9807e-008    -1.3183e-008   
  -0.85           1.4436e-009     -4.3246e-008    1.4484e-008    
  -0.9            1.0514e-009     -1.2402e-007    2.362e-009     
  -0.95           1.107e-009      -2.1313e-007    -5.149e-009    
  -1              1.1456e-009     -3.504e-007     -1.0927e-008   
  -1.05           1.4518e-009     -5.2051e-007    -1.4644e-008   
  -1.1            1.0785e-009     -7.0675e-007    -3.404e-009    
  -1.15           1.0756e-009     -9.477e-007     -3.795e-009    
  -1.2            2.0092e-009     -1.1923e-006    1.3411e-008    
  -1.25           1.0101e-009     -1.4725e-006    1.0158e-008    
  -1.3            1.4498e-009     -1.7502e-006    1.4763e-008    
  -1.35           3.983e-010      -2.0326e-006    8.977e-009     
  -1.4            6.722e-010      -2.3218e-006    8.408e-009     
  -1.45           1.0977e-009     -2.6037e-006    1.2016e-008    
  -1.5            1.5202e-009     -2.8781e-006    1.5028e-008    
  -1.55           4.401e-010      -3.1497e-006    8.745e-009     
  -1.6            7.535e-010      -3.419e-006     8.976e-009     
  -1.65           1.1853e-009     -3.6779e-006    1.2474e-008    
  -1.7            1.975e-010      -3.9241e-006    7.981e-009     
  -1.75           4.903e-010      -4.172e-006     8.645e-009     
  -1.8            8.185e-010      -4.4124e-006    8.855e-009     
END_DB

BEGIN_DB
 ICCAP_VAR VS         0              
 ICCAP_VAR VB         0              
 ICCAP_VAR VD         -1.8           

 #VG              IG              ID              IB             
  0               -1.2322e-009    -1.0351e-009    8.309e-009     
  -0.05           1.1464e-009     6.6e-012        -1.2993e-008   
  -0.1            1.7341e-009     -1.48e-010      -1.5074e-008   
  -0.15           1.0956e-009     1.2526e-009     1.3889e-008    
  -0.2            1.2796e-009     1.0845e-009     1.5369e-008    
  -0.25           6.3e-011        1.6949e-009     8.759e-009     
  -0.3            2.122e-010      1.7715e-009     9.057e-009     
  -0.35           -1.236e-009     7.169e-010      8.885e-009     
  -0.4            -8.074e-010     -1.6675e-009    2.566e-009     
  -0.45           1.1485e-009     5.99e-011       -1.2218e-008   
  -0.5            1.1382e-009     -1.157e-010     -1.4523e-008   
  -0.55           1.5779e-009     -2.804e-010     -1.6682e-008   
  -0.6            -1.2394e-009    1.2416e-009     1.4926e-008    
  -0.65           -2.3775e-009    -1.6373e-009    3.046e-009     
  -0.7            1.1469e-009     -3.6135e-009    -1.266e-008    
  -0.75           1.1396e-009     -1.10601e-008   -1.484e-008    
  -0.8            -2.3086e-009    -2.0436e-008    -1.4623e-008   
  -0.85           -3.245e-010     -6.0377e-008    -9.693e-009    
  -0.9            -2.349e-009     -1.2129e-007    8.586e-009     
  -0.95           1.3727e-009     -2.8567e-007    -1.5377e-008   
  -1              1.0621e-009     -4.694e-007     -3.417e-009    
  -1.05           1.0894e-009     -7.8541e-007    -4.086e-009    
  -1.1            1.1403e-009     -1.2219e-006    9.098e-009     
  -1.15           1.305e-009      -1.7664e-006    -1.6087e-008   
  -1.2            1.055e-009      -2.4073e-006    -3.399e-009    
  -1.25           1.0993e-009     -3.24e-006      -4.575e-009    
  -1.3            1.1496e-009     -4.2043e-006    -1.0499e-008   
  -1.35           1.5239e-009     -5.2781e-006    -1.3988e-008   
  -1.4            1.0971e-009     -6.4541e-006    -3.219e-009    
  -1.45           1.0686e-009     -7.8101e-006    -3.486e-009    
  -1.5            1.137e-009      -9.3015e-006    -8.101e-009    
  -1.55           1.7531e-009     -1.08867e-005   -1.1953e-008   
  -1.6            -2.2931e-009    -1.2512e-005    8.032e-009     
  -1.65           1.1489e-009     -1.4402e-005    -1.085e-008    
  -1.7            1.4472e-009     -1.6292e-005    -1.4777e-008   
  -1.75           1.0793e-009     -1.8263e-005    -3.502e-009    
  -1.8            1.0769e-009     -2.0355e-005    -3.872e-009    
END_DB

BEGIN_DB
 ICCAP_VAR VS         0              
 ICCAP_VAR VB         0.9            
 ICCAP_VAR VD         -0.1           

 #VG              IG              ID              IB             
  0               1.1133e-009     9.018e-010      -8.768e-009    
  -0.05           1.2406e-009     1.1187e-009     1.444e-008     
  -0.1            3.38e-011       1.6755e-009     8.4e-009       
  -0.15           1.857e-010      1.7621e-009     8.7e-009       
  -0.2            -1.2376e-009    6.894e-010      8.565e-009     
  -0.25           -7.661e-010     -1.6921e-009    2.925e-009     
  -0.3            2.0419e-009     9.744e-010      -1.1848e-008   
  -0.35           -1.2236e-009    1.2129e-009     1.1628e-008    
  -0.4            -1.3907e-009    -1.1191e-009    9.198e-009     
  -0.45           1.1324e-009     -1.1724e-009    -1.09e-008     
  -0.5            2.0367e-009     9.698e-010      -1.1745e-008   
  -0.55           -1.2261e-009    1.2018e-009     1.1339e-008    
  -0.6            -1.3795e-009    -1.1306e-009    8.716e-009     
  -0.65           1.128e-009      -1.1569e-009    -1.1309e-008   
  -0.7            2.0107e-009     9.628e-010      -1.1537e-008   
  -0.75           -1.2281e-009    1.142e-009      1.1202e-008    
  -0.8            -2.1838e-009    -1.141e-009     8.066e-009     
  -0.85           1.29e-010       -2.524e-009     -9.545e-009    
  -0.9            1.1484e-009     -6.0601e-009    -1.2329e-008   
  -0.95           -1.2681e-009    -1.9711e-008    1.5403e-008    
  -1              -1.2356e-009    -3.9869e-008    2.535e-009     
  -1.05           1.8014e-009     -4.867e-008     1.87e-009      
  -1.1            1.8937e-009     -1.1341e-007    -1.0495e-008   
  -1.15           8.259e-010      -2.3726e-007    8.877e-009     
  -1.2            1.2695e-009     -3.8806e-007    1.3468e-008    
  -1.25           2.68e-010       -5.8887e-007    8.542e-009     
  -1.3            5.423e-010      -8.2253e-007    8.488e-009     
  -1.35           8.987e-010      -1.07795e-006   1.0428e-008    
  -1.4            -1.6791e-009    -1.3412e-006    -1.1163e-008   
  -1.45           1.6422e-009     -1.612e-006     -1.2831e-008   
  -1.5            1.4156e-009     -1.8942e-006    1.4359e-008    
  -1.55           3.716e-010      -2.1665e-006    8.745e-009     
  -1.6            6.371e-010      -2.4423e-006    8.181e-009     
  -1.65           1.0588e-009     -2.71e-006      1.1768e-008    
  -1.7            1.4873e-009     -2.9657e-006    1.4635e-008    
  -1.75           4.127e-010      -3.2145e-006    8.714e-009     
  -1.8            7.013e-010      -3.464e-006     8.592e-009     
END_DB

BEGIN_DB
 ICCAP_VAR VS         0              
 ICCAP_VAR VB         0.9            
 ICCAP_VAR VD         -1.8           

 #VG              IG              ID              IB             
  0               -1.197e-009     -1.029e-009     -1.0444e-008   
  -0.05           2.271e-010      -1.742e-009     -9.159e-009    
  -0.1            3.91e-011       -1.8208e-009    -9.573e-009    
  -0.15           1.1461e-009     -3.05e-011      -1.3182e-008   
  -0.2            1.6922e-009     -1.59e-010      -1.555e-008    
  -0.25           1.1164e-009     1.2339e-009     1.3925e-008    
  -0.3            1.3095e-009     1.0669e-009     1.5281e-008    
  -0.35           8.71e-011       1.7056e-009     8.687e-009     
  -0.4            2.371e-010      1.7719e-009     8.996e-009     
  -0.45           -1.237e-009     7.404e-010      8.686e-009     
  -0.5            -8.435e-010     -1.6475e-009    2.391e-009     
  -0.55           1.1472e-009     4.21e-011       -1.25e-008     
  -0.6            1.787e-009      -1.221e-010     -1.48e-008     
  -0.65           -1.2514e-009    1.3494e-009     1.3595e-008    
  -0.7            -5.479e-010     -1.8352e-009    2.81e-009      
  -0.75           2.669e-010      1.7518e-009     -1.0662e-008   
  -0.8            -1.2348e-009    3.522e-010      8.464e-009     
  -0.85           -1.2343e-009    -2.2935e-009    2.244e-009     
  -0.9            -1.2322e-009    -7.7104e-009    2.36e-009      
  -0.95           -3.468e-010     -1.9891e-008    -7.505e-009    
  -1              1.1482e-009     -8.4875e-008    -1.0839e-008   
  -1.05           -1.2389e-009    -1.1209e-007    1.4744e-008    
  -1.1            -1.2339e-009    -2.5506e-007    2.95e-009      
  -1.15           -2.036e-009     -4.8614e-007    3.392e-009     
  -1.2            1.1487e-009     -8.0244e-007    -1.028e-008    
  -1.25           1.1024e-009     -1.1853e-006    1.5164e-008    
  -1.3            1.0682e-009     -1.558e-006     -3.642e-009    
  -1.35           1.1368e-009     -2.2943e-006    -8.037e-009    
  -1.4            1.7675e-009     -3.1184e-006    -1.2087e-008   
  -1.45           1.2157e-009     -3.8183e-006    -3.68e-010     
  -1.5            1.0503e-009     -4.926e-006     -3.029e-009    
  -1.55           1.1095e-009     -6.1531e-006    -5.383e-009    
  -1.6            1.1437e-009     -7.5455e-006    -1.1108e-008   
  -1.65           1.4204e-009     -8.9667e-006    -1.4976e-008   
  -1.7            1.0706e-009     -1.03594e-005   -3.51e-009     
  -1.75           1.736e-010      -1.1986e-005    -1.2017e-008   
  -1.8            4.772e-010      -1.3743e-005    8.654e-009     
END_DB

BEGIN_DB
 ICCAP_VAR VS         0              
 ICCAP_VAR VB         1.8            
 ICCAP_VAR VD         -0.1           

 #VG              IG              ID              IB             
  0               1.1043e-009     8.989e-010      2.745e-009     
  -0.05           1.1562e-009     1.1879e-009     1.4433e-008    
  -0.1            1.3455e-009     1.0247e-009     1.5669e-008    
  -0.15           1.219e-010      1.7196e-009     8.871e-009     
  -0.2            -1.2422e-009    6.5e-010        8.879e-009     
  -0.25           -7.177e-010     -1.7265e-009    2.932e-009     
  -0.3            1.9952e-009     9.64e-010       -1.1503e-008   
  -0.35           -1.2283e-009    1.1652e-009     1.1117e-008    
  -0.4            -1.3442e-009    -1.148e-009     7.499e-009     
  -0.45           1.03e-011       -1.8278e-009    -9.564e-009    
  -0.5            1.1462e-009     -5.8e-011       -1.3361e-008   
  -0.55           1.6431e-009     -1.772e-010     -1.5671e-008   
  -0.6            1.1462e-009     1.1955e-009     1.3857e-008    
  -0.65           1.329e-009      1.0376e-009     1.4856e-008    
  -0.7            1.078e-010      1.7182e-009     8.906e-009     
  -0.75           2.543e-010      1.786e-009      9.018e-009     
  -0.8            -1.2395e-009    7.6e-010        8.625e-009     
  -0.85           -8.715e-010     -1.6212e-009    2.292e-009     
  -0.9            1.139e-009      -7.59e-011      -1.2752e-008   
  -0.95           1.7391e-009     -5.758e-010     -1.4727e-008   
  -1              -1.2495e-009    4.455e-010      1.3783e-008    
  -1.05           -1.2421e-009    -6.168e-009     2.93e-009      
  -1.1            1.1384e-009     -2.1855e-008    -8.577e-009    
  -1.15           1.2991e-009     -5.2708e-008    -1.5932e-008   
  -1.2            1.0554e-009     -8.3062e-008    -3.272e-009    
  -1.25           2.227e-009      -1.4048e-007    -9.542e-009    
  -1.3            8.633e-010      -2.7738e-007    9.175e-009     
  -1.35           1.3064e-009     -4.4247e-007    1.3644e-008    
  -1.4            3.16e-010       -6.5564e-007    8.725e-009     
  -1.45           5.553e-010      -8.9659e-007    8.556e-009     
  -1.5            1.6337e-009     -1.1458e-006    2.714e-009     
  -1.55           5.152e-010      -1.4148e-006    8.447e-009     
  -1.6            8.758e-010      -1.6861e-006    1.0294e-008    
  -1.65           1.3164e-009     -1.9509e-006    1.3656e-008    
  -1.7            3.113e-010      -2.2092e-006    8.65e-009      
  -1.75           5.718e-010      -2.4711e-006    8.279e-009     
  -1.8            9.555e-010      -2.7252e-006    1.0905e-008    
END_DB

BEGIN_DB
 ICCAP_VAR VS         0              
 ICCAP_VAR VB         1.8            
 ICCAP_VAR VD         -1.8           

 #VG              IG              ID              IB             
  0               -1.2237e-009    -1.0336e-009    8.216e-009     
  -0.05           1.7455e-009     -1.402e-010     -1.493e-008    
  -0.1            1.8535e-009     9.192e-010      -6.23e-010     
  -0.15           -1.2335e-009    9.993e-010      8.536e-009     
  -0.2            -1.1805e-009    -1.3433e-009    3.905e-009     
  -0.25           1.5954e-009     -2.049e-010     -1.6085e-008   
  -0.3            1.1862e-009     1.1544e-009     1.4604e-008    
  -0.35           -2e-011         1.6741e-009     8.237e-009     
  -0.4            1.567e-010      1.7379e-009     9.015e-009     
  -0.45           -1.2409e-009    6.602e-010      8.973e-009     
  -0.5            -7.33e-010      -1.7214e-009    2.911e-009     
  -0.55           2.0263e-009     9.719e-010      -1.1686e-008   
  -0.6            -1.2255e-009    1.1941e-009     1.0227e-008    
  -0.65           -1.3781e-009    -1.1386e-009    8.756e-009     
  -0.7            1.129e-009      -1.1538e-009    -1.1406e-008   
  -0.75           2.0083e-009     9.67e-010       -1.1583e-008   
  -0.8            -1.2274e-009    1.1854e-009     1.0188e-008    
  -0.85           -1.372e-009     -1.1493e-009    8.436e-009     
  -0.9            1.1261e-009     -1.2117e-009    -1.1639e-008   
  -0.95           1.1478e-009     -2.547e-010     -1.163e-008    
  -1              1.1446e-009     -1.94e-009      -1.3259e-008   
  -1.05           1.7137e-009     -7.4523e-009    -1.517e-008    
  -1.1            -2.2719e-009    -8.871e-009     -1.3582e-008   
  -1.15           1.1487e-009     -6.7914e-008    -1.0728e-008   
  -1.2            -1.242e-009     -1.1217e-007    1.4614e-008    
  -1.25           -1.2333e-009    -2.5386e-007    2.939e-009     
  -1.3            -1.2107e-009    -4.9533e-007    3.446e-009     
  -1.35           -1.5319e-009    -8.0367e-007    1.1367e-008    
  -1.4            1.6245e-009     -1.2474e-006    1.1626e-008    
  -1.45           1.4214e-009     -1.6674e-006    1.4133e-008    
  -1.5            3.751e-010      -2.3687e-006    8.692e-009     
  -1.55           6.52e-010       -3.194e-006     8.391e-009     
  -1.6            1.0705e-009     -4.1611e-006    1.1687e-008    
  -1.65           1.5047e-009     -5.2217e-006    1.459e-008     
  -1.7            4.367e-010      -6.451e-006     8.684e-009     
  -1.75           7.287e-010      -7.8068e-006    8.964e-009     
  -1.8            1.1578e-009     -9.258e-006     1.2359e-008    
END_DB

