! VERSION = 6.00
BEGIN_HEADER
 ICCAP_INPUTS
  VG         V  B GROUND SMU4 0.001 LIN        2    0          -1.8       6    -0.36     
  VS         V  E GROUND SMU2 0.1 CON        0
  VD         V  S GROUND SMU1 0.1 LIN        1    0          -1.8       37   -0.05     
  VB         V  C GROUND SMU3 0.1 LIN        3    0          0.9        2    0.9       
 ICCAP_OUTPUTS
  ID         I  S GROUND SMU1 B
  IB         I  C GROUND SMU3 B
  IG         I  B GROUND SMU4 B
END_HEADER

BEGIN_DB
 ICCAP_VAR VG         0              
 ICCAP_VAR VS         0              
 ICCAP_VAR VB         0              

 #VD              ID              IB              IG             
  0               3.811e-010      2.461e-009      -1.2801e-009   
  -0.05           -1.766e-010     -1.5534e-008    1.6822e-009    
  -0.1            1.2485e-009     1.4376e-008     1.1567e-009    
  -0.15           1.0855e-009     1.5149e-008     1.3246e-009    
  -0.2            1.7778e-009     8.525e-009      7.41e-011      
  -0.25           1.8236e-009     8.594e-009      2.546e-010     
  -0.3            7.593e-010      8.357e-009      -1.2612e-009   
  -0.35           -1.7245e-009    2.4e-009        -8.308e-010    
  -0.4            6.38e-011       -1.1975e-008    1.1629e-009    
  -0.45           -9.86e-011      -1.4007e-008    1.1559e-009    
  -0.5            -2.013e-010     -1.6373e-008    1.6265e-009    
  -0.55           1.2108e-009     1.4852e-008     1.204e-009     
  -0.6            1.6885e-009     7.959e-009      -2.19e-011     
  -0.65           1.7833e-009     8.852e-009      1.325e-010     
  -0.7            1.8476e-009     8.832e-009      2.739e-010     
  -0.75           7.938e-010      8.471e-009      -1.2594e-009   
  -0.8            -1.6898e-009    2.118e-009      -8.783e-010    
  -0.85           1.82e-011       -1.231e-008     1.1612e-009    
  -0.9            -1.246e-010     -1.4664e-008    1.1557e-009    
  -0.95           -2.268e-010     -1.7026e-008    1.5644e-009    
  -1              1.1666e-009     1.5072e-008     1.2491e-009    
  -1.05           1.7123e-009     8.308e-009      1.89e-011      
  -1.1            1.7998e-009     8.936e-009      1.707e-010     
  -1.15           6.845e-010      8.733e-009      -1.2631e-009   
  -1.2            -1.793e-009     2.841e-009      -7.32e-010     
  -1.25           9.937e-010      -1.1354e-008    2.0407e-009    
  -1.3            1.2119e-009     1.0314e-008     -1.2464e-009   
  -1.35           -1.1891e-009    7.587e-009      -1.3739e-009   
  -1.4            -1.89e-009      -9.483e-009     1.27e-011      
  -1.45           -5.26e-011      -1.3098e-008    1.1649e-009    
  -1.5            -1.691e-010     -1.5595e-008    1.7085e-009    
  -1.55           1.263e-009      1.4222e-008     1.1402e-009    
  -1.6            1.1015e-009     1.4923e-008     1.3249e-009    
  -1.65           1.7538e-009     8.442e-009      8.34e-011      
  -1.7            1.8243e-009     8.684e-009      2.291e-010     
  -1.75           7.404e-010      8.649e-009      -1.2602e-009   
  -1.8            -1.7383e-009    2.549e-009      -8.084e-010    
END_DB

BEGIN_DB
 ICCAP_VAR VG         -0.36          
 ICCAP_VAR VS         0              
 ICCAP_VAR VB         0              

 #VD              ID              IB              IG             
  0               9.27e-010       2.748e-009      1.1065e-009    
  -0.05           1.3022e-009     1.4154e-008     1.1033e-009    
  -0.1            1.1347e-009     1.5562e-008     1.2865e-009    
  -0.15           1.7295e-009     8.449e-009      4.17e-011      
  -0.2            1.8151e-009     9.092e-009      1.988e-010     
  -0.25           7.076e-010      8.749e-009      -1.2666e-009   
  -0.3            -1.7687e-009    2.783e-009      -7.637e-010    
  -0.35           9.952e-010      -1.1496e-008    2.0597e-009    
  -0.4            1.2262e-009     1.0503e-008     -1.2435e-009   
  -0.45           -1.1838e-009    8.318e-009      -1.3972e-009   
  -0.5            -1.1864e-009    -1.182e-008     1.1411e-009    
  -0.55           9.867e-010      -1.1208e-008    2.022e-009     
  -0.6            1.1934e-009     9.901e-009      -1.2477e-009   
  -0.65           -1.2203e-009    7.212e-009      -1.3642e-009   
  -0.7            -1.1662e-009    -1.2619e-008    1.134e-009     
  -0.75           9.747e-010      -1.089e-008     1.9854e-009    
  -0.8            1.1563e-009     9.416e-009      -1.2504e-009   
  -0.85           -1.257e-009     6.245e-009      -1.3294e-009   
  -0.9            -1.8636e-009    -9.518e-009     9.36e-011      
  -0.95           1.78e-011       -1.2434e-008    1.1654e-009    
  -1              -1.243e-010     -1.4745e-008    1.1651e-009    
  -1.05           -2.211e-010     -1.7057e-008    1.5795e-009    
  -1.1            1.1724e-009     1.4482e-008     1.2399e-009    
  -1.15           1.6828e-009     8.265e-009      2.48e-011      
  -1.2            1.8127e-009     8.682e-009      1.376e-010     
  -1.25           1.8425e-009     8.831e-009      3.098e-010     
  -1.3            8.197e-010      8.46e-009       -1.2616e-009   
  -1.35           -1.661e-009     1.934e-009      -9.157e-010    
  -1.4            -1.71e-011      -1.2954e-008    1.163e-009     
  -1.45           -1.488e-010     -1.5048e-008    1.155e-009     
  -1.5            -2.504e-010     -1.7595e-008    1.5345e-009    
  -1.55           9.744e-010      -3.296e-009     1.9794e-009    
  -1.6            1.1487e-009     9.464e-009      -1.2524e-009   
  -1.65           -1.2613e-009    5.804e-009      -1.3165e-009   
  -1.7            -1.8587e-009    -9.576e-009     1.087e-010     
  -1.75           3.8e-011        -1.2189e-008    1.1647e-009    
  -1.8            -1.177e-010     -1.466e-008     1.1571e-009    
END_DB

BEGIN_DB
 ICCAP_VAR VG         -0.72          
 ICCAP_VAR VS         0              
 ICCAP_VAR VB         0              

 #VD              ID              IB              IG             
  0               -1.1038e-009    -3.764e-009     -1.2609e-009   
  -0.05           -2.7528e-009    -1.0133e-008    1.1437e-009    
  -0.1            -3.4167e-009    -1.1338e-008    1.162e-009     
  -0.15           -3.6666e-009    -1.3045e-008    1.1637e-009    
  -0.2            -3.8738e-009    -1.4537e-008    1.1564e-009    
  -0.25           -3.9707e-009    -1.7295e-008    1.5685e-009    
  -0.3            -2.7644e-009    -2.945e-009     1.3345e-009    
  -0.35           -2.8858e-009    -3.382e-009     1.1822e-009    
  -0.4            -2.9867e-009    -3.228e-009     1.1007e-009    
  -0.45           -3.1104e-009    -3.985e-009     1.0727e-009    
  -0.5            -3.2875e-009    -5.154e-009     1.0835e-009    
  -0.55           -3.3698e-009    -7.477e-009     1.1086e-009    
  -0.6            -3.5435e-009    -9.874e-009     1.1369e-009    
  -0.65           -3.7106e-009    -1.1056e-008    1.1582e-009    
  -0.7            -3.8789e-009    -1.2169e-008    1.1665e-009    
  -0.75           -4.0514e-009    -1.4303e-008    1.1645e-009    
  -0.8            -4.1694e-009    -1.6309e-008    1.6328e-009    
  -0.85           -2.6472e-009    1.4485e-008     1.2054e-009    
  -0.9            -2.2173e-009    7.873e-009      -2.88e-011     
  -0.95           -2.1783e-009    8.583e-009      1.367e-010     
  -1              -2.1042e-009    8.686e-009      2.582e-010     
  -1.05           -2.1063e-009    8.353e-009      3.827e-010     
  -1.1            -2.1475e-009    8.314e-009      4.867e-010     
  -1.15           -2.2295e-009    9.584e-009      5.9e-010       
  -1.2            -2.3579e-009    1.1027e-008     7.269e-010     
  -1.25           -2.5145e-009    1.2262e-008     8.872e-010     
  -1.3            -2.6928e-009    1.4002e-008     1.0667e-009    
  -1.35           -2.868e-009     1.496e-008      1.2457e-009    
  -1.4            -2.3776e-009    8.2e-009        1.22e-011      
  -1.45           -2.3085e-009    8.585e-009      1.575e-010     
  -1.5            -2.2839e-009    8.634e-009      2.961e-010     
  -1.55           -2.2908e-009    8.4e-009        4.071e-010     
  -1.6            -2.3429e-009    8.508e-009      5.123e-010     
  -1.65           -2.4759e-009    9.825e-009      6.654e-010     
  -1.7            -2.5616e-009    1.1401e-008     7.647e-010     
  -1.75           -2.7402e-009    1.276e-008      9.348e-010     
  -1.8            -2.917e-009     1.3946e-008     1.1135e-009    
END_DB

BEGIN_DB
 ICCAP_VAR VG         -1.08          
 ICCAP_VAR VS         0              
 ICCAP_VAR VB         0              

 #VD              ID              IB              IG             
  0               -1.0097e-009    7.507e-009      1.1287e-009    
  -0.05           -8.4936e-007    -1.3093e-008    1.508e-009     
  -0.1            -1.3897e-006    1.0527e-008     1.1662e-009    
  -0.15           -1.6914e-006    -1.1255e-008    1.1665e-009    
  -0.2            -1.8463e-006    -1.1294e-008    1.1671e-009    
  -0.25           -1.9217e-006    -1.1668e-008    1.1647e-009    
  -0.3            -1.961e-006     -1.1639e-008    1.1666e-009    
  -0.35           -1.9847e-006    -1.1866e-008    1.7685e-009    
  -0.4            -2.0019e-006    -1.3586e-008    1.555e-009     
  -0.45           -2.0166e-006    -1.5394e-008    1.3562e-009    
  -0.5            -2.0163e-006    -9.299e-009     -1.154e-010    
  -0.55           -2.015e-006     1.1668e-008     -1.5247e-009   
  -0.6            -2.0331e-006    1.4853e-008     1.5236e-009    
  -0.65           -2.0498e-006    -1.3062e-008    1.615e-009     
  -0.7            -2.0535e-006    -8.686e-009     9.36e-011      
  -0.75           -2.0448e-006    7.438e-009      -1.7557e-009   
  -0.8            -2.0689e-006    1.3873e-008     1.3419e-009    
  -0.85           -2.0826e-006    -1.2431e-008    1.1635e-009    
  -0.9            -2.0882e-006    -9.686e-009     1.1673e-009    
  -0.95           -2.0956e-006    -9.947e-009     1.1666e-009    
  -1              -2.1013e-006    -1.0253e-008    1.165e-009     
  -1.05           -2.1067e-006    -1.0252e-008    1.1655e-009    
  -1.1            -2.1134e-006    -2.1887e-008    1.0743e-009    
  -1.15           -2.1121e-006    -1.1387e-008    1.1645e-009    
  -1.2            -2.1173e-006    -1.1345e-008    1.1679e-009    
  -1.25           -2.1228e-006    -1.1429e-008    1.1664e-009    
  -1.3            -2.1281e-006    -1.1754e-008    1.1654e-009    
  -1.35           -2.1333e-006    -1.1776e-008    1.7725e-009    
  -1.4            -2.1398e-006    -1.3636e-008    1.5733e-009    
  -1.45           -2.1482e-006    -1.5279e-008    1.378e-009     
  -1.5            -2.1408e-006    -9.326e-009     -1.067e-010    
  -1.55           -2.134e-006     1.1667e-008     -1.5385e-009   
  -1.6            -2.1499e-006    1.4758e-008     1.5182e-009    
  -1.65           -2.1629e-006    -1.2977e-008    1.6347e-009    
  -1.7            -2.1635e-006    -8.686e-009     1.066e-010     
  -1.75           -2.1511e-006    7.285e-009      -1.7726e-009   
  -1.8            -2.1756e-006    1.3825e-008     1.3336e-009    
END_DB

BEGIN_DB
 ICCAP_VAR VG         -1.44          
 ICCAP_VAR VS         0              
 ICCAP_VAR VB         0              

 #VD              ID              IB              IG             
  0               -9.761e-009     4.321e-009      -1.2151e-009   
  -0.05           -3.1693e-006    -1.5418e-008    -2.1511e-009   
  -0.1            -5.9339e-006    7.131e-009      1.227e-010     
  -0.15           -8.3187e-006    -1.3244e-008    1.606e-009     
  -0.2            -1.02973e-005   -8.778e-009     9.07e-011      
  -0.25           -1.1887e-005    7.778e-009      -1.199e-010    
  -0.3            -1.3112e-005    1.976e-009      -1.2633e-009   
  -0.35           -1.412e-005     1.0329e-008     8.788e-010     
  -0.4            -1.4789e-005    -1.0989e-008    1.1652e-009    
  -0.45           -1.5268e-005    -1.4764e-008    1.4113e-009    
  -0.5            -1.5616e-005    -1.0543e-008    1.1659e-009    
  -0.55           -1.5839e-005    -1.4117e-008    1.5226e-009    
  -0.6            -1.6023e-005    -9.842e-009     1.1667e-009    
  -0.65           -1.6062e-005    -8.713e-009     -5.797e-010    
  -0.7            -1.6161e-005    2.19e-009       -1.2522e-009   
  -0.75           -1.6312e-005    1.4408e-008     1.4262e-009    
  -0.8            -1.641e-005     -1.665e-008     1.2675e-009    
  -0.85           -1.6459e-005    -1.1164e-008    1.1658e-009    
  -0.9            -1.6522e-005    -1.5466e-008    1.36e-009      
  -0.95           -1.6589e-005    -1.0729e-008    1.1664e-009    
  -1              -1.6619e-005    -1.4322e-008    1.4596e-009    
  -1.05           -1.6681e-005    -1.0175e-008    1.1665e-009    
  -1.1            -1.6707e-005    -1.3188e-008    1.5849e-009    
  -1.15           -1.6763e-005    -1.1085e-008    1.1666e-009    
  -1.2            -1.6784e-005    -1.3883e-008    1.5251e-009    
  -1.25           -1.6829e-005    -9.875e-009     1.1658e-009    
  -1.3            -1.6775e-005    -8.707e-009     -5.473e-010    
  -1.35           -1.6802e-005    2.543e-009      -1.2524e-009   
  -1.4            -1.6922e-005    1.4397e-008     1.4217e-009    
  -1.45           -1.6967e-005    -1.6558e-008    1.2721e-009    
  -1.5            -1.6997e-005    -1.113e-008     1.1676e-009    
  -1.55           -1.7037e-005    -1.5484e-008    1.3594e-009    
  -1.6            -1.7068e-005    -1.0748e-008    1.1669e-009    
  -1.65           -1.7087e-005    -1.4195e-008    1.4665e-009    
  -1.7            -1.7129e-005    -1.0172e-008    1.1668e-009    
  -1.75           -1.7142e-005    -1.3284e-008    1.5841e-009    
  -1.8            -1.7188e-005    -1.1104e-008    1.167e-009     
END_DB

BEGIN_DB
 ICCAP_VAR VG         -1.8           
 ICCAP_VAR VS         0              
 ICCAP_VAR VB         0              

 #VD              ID              IB              IG             
  0               -1.3603e-008    2.487e-009      1.1589e-009    
  -0.05           -5.2439e-006    1.4585e-008     1.2149e-009    
  -0.1            -1.01457e-005   -9.459e-009     -2.406e-010    
  -0.15           -1.4697e-005    9.625e-009      -1.925e-010    
  -0.2            -1.8889e-005    2.366e-009      -1.2625e-009   
  -0.25           -2.2779e-005    1.0898e-008     9.728e-010     
  -0.3            -2.6286e-005    -1.1991e-008    1.1613e-009    
  -0.35           -2.9368e-005    -8.698e-009     -5.825e-010    
  -0.4            -3.2137e-005    2.435e-009      -1.2534e-009   
  -0.45           -3.4619e-005    1.4374e-008     1.423e-009     
  -0.5            -3.6716e-005    -1.6796e-008    1.2667e-009    
  -0.55           -3.8455e-005    -1.1255e-008    1.1658e-009    
  -0.6            -3.9917e-005    -1.5219e-008    1.3552e-009    
  -0.65           -4.1095e-005    -1.0918e-008    1.1651e-009    
  -0.7            -4.2022e-005    -1.4318e-008    1.4563e-009    
  -0.75           -4.2769e-005    -1.0351e-008    1.1666e-009    
  -0.8            -4.3329e-005    -1.3447e-008    1.5627e-009    
  -0.85           -4.3801e-005    -9.425e-009     1.1603e-009    
  -0.9            -4.4037e-005    -8.774e-009     -5.182e-010    
  -0.95           -4.432e-005     2.674e-009      -1.2518e-009   
  -1              -4.4687e-005    1.4015e-008     1.393e-009     
  -1.05           -4.4919e-005    -1.5999e-008    1.308e-009     
  -1.1            -4.4985e-005    -9.172e-009     -4.659e-010    
  -1.15           -4.5129e-005    2.811e-009      -1.254e-009    
  -1.2            -4.5412e-005    1.4091e-008     1.3319e-009    
  -1.25           -4.5553e-005    -1.5241e-008    1.3718e-009    
  -1.3            -4.5567e-005    -9.377e-009     -4.128e-010    
  -1.35           -4.5657e-005    2.913e-009      -1.2569e-009   
  -1.4            -4.5912e-005    1.3182e-008     1.2727e-009    
  -1.45           -4.6004e-005    -1.4639e-008    1.4469e-009    
  -1.5            -4.6123e-005    -1.0259e-008    1.1637e-009    
  -1.55           -4.6193e-005    -1.3566e-008    1.5556e-009    
  -1.6            -4.6298e-005    -9.785e-009     1.1609e-009    
  -1.65           -4.6248e-005    -8.987e-009     -5.28e-010     
  -1.7            -4.632e-005     2.582e-009      -1.2513e-009   
  -1.75           -4.6535e-005    1.4222e-008     1.4004e-009    
  -1.8            -4.6639e-005    -1.6357e-008    1.2896e-009    
END_DB

BEGIN_DB
 ICCAP_VAR VG         0              
 ICCAP_VAR VS         0              
 ICCAP_VAR VB         0.9            

 #VD              ID              IB              IG             
  0               -1.0739e-009    -8.912e-009     -1.2462e-009   
  -0.05           -1.235e-010     -1.437e-008     1.1639e-009    
  -0.1            -2.217e-010     -1.6882e-008    1.5865e-009    
  -0.15           1.1704e-009     1.4353e-008     1.2341e-009    
  -0.2            1.7012e-009     8.179e-009      -8.7e-012      
  -0.25           1.7832e-009     8.678e-009      1.566e-010     
  -0.3            1.8518e-009     8.861e-009      2.862e-010     
  -0.35           8.092e-010      8.446e-009      -1.2612e-009   
  -0.4            -1.6657e-009    2.069e-009      -8.99e-010     
  -0.45           -5.5e-012       -1.28e-008      1.1617e-009    
  -0.5            -1.45e-010      -1.4841e-008    1.1613e-009    
  -0.55           -2.43e-010      -1.7283e-008    1.5488e-009    
  -0.6            9.697e-010      -3.191e-009     1.9723e-009    
  -0.65           1.1398e-009     1.0307e-008     -1.2527e-009   
  -0.7            -1.2731e-009    5.662e-009      -1.3093e-009   
  -0.75           -1.8564e-009    -9.521e-009     1.281e-010     
  -0.8            5.67e-011       -1.2223e-008    1.165e-009     
  -0.85           -1.122e-010     -1.4501e-008    1.1649e-009    
  -0.9            -2.118e-010     -1.6643e-008    1.619e-009     
  -0.95           1.1944e-009     1.4676e-008     1.2087e-009    
  -1              1.6909e-009     8.07e-009       -1.96e-011     
  -1.05           1.781e-009      8.987e-009      1.411e-010     
  -1.1            1.8415e-009     8.963e-009      2.806e-010     
  -1.15           7.966e-010      8.588e-009      -1.2636e-009   
  -1.2            -1.6791e-009    2.028e-009      -8.811e-010    
  -1.25           7.4e-012        -1.2536e-008    1.1665e-009    
  -1.3            -1.29e-010      -1.4849e-008    1.1648e-009    
  -1.35           -2.356e-010     -1.7137e-008    1.5664e-009    
  -1.4            1.1673e-009     1.4634e-008     1.2473e-009    
  -1.45           1.711e-009      8.28e-009       4.8e-012       
  -1.5            1.7932e-009     8.72e-009       1.674e-010     
  -1.55           1.8201e-009     8.622e-009      3.321e-010     
  -1.6            8.333e-010      8.225e-009      -1.2619e-009   
  -1.65           -1.6407e-009    1.968e-009      -9.306e-010    
  -1.7            -2.4e-011       -1.2947e-008    1.1626e-009    
  -1.75           -1.56e-010      -1.5182e-008    1.7621e-009    
  -1.8            1.2968e-009     1.3962e-008     1.1077e-009    
END_DB

BEGIN_DB
 ICCAP_VAR VG         -0.36          
 ICCAP_VAR VS         0              
 ICCAP_VAR VB         0.9            

 #VD              ID              IB              IG             
  0               3.805e-010      -1.7668e-008    1.1612e-009    
  -0.05           9.331e-010      8.427e-009      -1.2582e-009   
  -0.1            -1.4959e-009    2.083e-009      -1.0707e-009   
  -0.15           -1.295e-010     -1.4542e-008    1.1654e-009    
  -0.2            -2.299e-010     -1.7468e-008    1.5583e-009    
  -0.25           1.1543e-009     1.4251e-008     1.2452e-009    
  -0.3            1.7058e-009     8.148e-009      8.6e-012       
  -0.35           1.7927e-009     8.561e-009      1.645e-010     
  -0.4            1.8323e-009     8.577e-009      3.208e-010     
  -0.45           8.181e-010      8.524e-009      -1.2651e-009   
  -0.5            -1.6399e-009    2.064e-009      -9.169e-010    
  -0.55           -1.84e-011      -1.2584e-008    1.1583e-009    
