! VERSION = 6.00
BEGIN_HEADER
 ICCAP_INPUTS
  VG         V  B GROUND SMU4 0.001 LIN        2    0          -1.8       6    -0.36     
  VS         V  E GROUND SMU2 0.1 CON        0
  VD         V  S GROUND SMU1 0.1 LIN        1    0          -1.8       37   -0.05     
  VB         V  C GROUND SMU3 0.1 CON        0
 ICCAP_OUTPUTS
  ID         I  S GROUND SMU1 B
  IG         I  B GROUND SMU4 B
END_HEADER

BEGIN_DB
 ICCAP_VAR VG         0              
 ICCAP_VAR VS         0              
 ICCAP_VAR VB         0              

 #VD              ID              IG             
  0               -5.297e-011     3.2709e-010    
  -0.05           -2.3358e-010    -1.2547e-010   
  -0.1            -1.1166e-010    3.3733e-010    
  -0.15           1.7414e-010     8.621e-011     
  -0.2            -2.5666e-010    -1.1266e-010   
  -0.25           -1.0891e-010    3.4385e-010    
  -0.3            1.6239e-010     7.193e-011     
  -0.35           -2.0204e-010    -1.7904e-010   
  -0.4            -1.5336e-010    2.6913e-010    
  -0.45           1.4942e-010     5.985e-011     
  -0.5            -2.2493e-010    -1.5717e-010   
  -0.55           -1.5189e-010    2.9513e-010    
  -0.6            1.2902e-010     4.945e-011     
  -0.65           -2.5048e-010    -1.4062e-010   
  -0.7            -1.5241e-010    3.1881e-010    
  -0.75           1.0377e-010     3.841e-011     
  -0.8            1.71e-011       -2.7796e-010   
  -0.85           -2.8578e-010    -1.214e-010    
  -0.9            -1.5418e-010    3.4057e-010    
  -0.95           6.306e-011      1.945e-011     
  -1              -2.4156e-010    -1.8402e-010   
  -1.05           -1.9778e-010    2.6639e-010    
  -1.1            -3.852e-011     3.3767e-010    
  -1.15           1.303e-011      -2.2931e-010   
  -1.2            -2.7945e-010    -1.5299e-010   
  -1.25           -2.0348e-010    3.0097e-010    
  -1.3            -4.029e-011     3.2384e-010    
  -1.35           -2.5072e-010    -2.4757e-010   
  -1.4            -2.0595e-010    3.3389e-010    
  -1.45           -3.328e-011     2.9272e-010    
  -1.5            -2.1899e-010    -3.299e-010    
  -1.55           -2.083e-010     3.4295e-010    
  -1.6            -3.111e-011     2.4607e-010    
  -1.65           -1.9072e-010    -3.323e-010    
  -1.7            -2.7224e-010    -2.9604e-010   
  -1.75           -2.6371e-010    3.0019e-010    
  -1.8            -1.0348e-010    3.2356e-010    
END_DB

BEGIN_DB
 ICCAP_VAR VG         -0.36          
 ICCAP_VAR VS         0              
 ICCAP_VAR VB         0              

 #VD              ID              IG             
  0               2.3232e-008     3.1441e-010    
  -0.05           -1.3286e-007    -1.2816e-010   
  -0.1            -1.726e-007     -2.8649e-010   
  -0.15           -1.9261e-007    -2.9849e-010   
  -0.2            -2.0954e-007    -3.0998e-010   
  -0.25           -2.2606e-007    -3.2101e-010   
  -0.3            -2.4232e-007    -3.3107e-010   
  -0.35           -2.5921e-007    -3.3698e-010   
  -0.4            -2.7648e-007    -2.3447e-010   
  -0.45           -2.9411e-007    -2.4318e-010   
  -0.5            -3.1206e-007    -2.5416e-010   
  -0.55           -3.3044e-007    -2.6492e-010   
  -0.6            -3.4929e-007    -2.7677e-010   
  -0.65           -3.6856e-007    -2.8863e-010   
  -0.7            -3.8851e-007    -3.0115e-010   
  -0.75           -4.0874e-007    -3.1284e-010   
  -0.8            -4.2964e-007    -3.2284e-010   
  -0.85           -4.5037e-007    -3.3157e-010   
  -0.9            -4.7252e-007    -2.2791e-010   
  -0.95           -4.9515e-007    -2.361e-010    
  -1              -5.1858e-007    -2.4478e-010   
  -1.05           -5.4245e-007    -2.5434e-010   
  -1.1            -5.6735e-007    -2.6732e-010   
  -1.15           -5.9259e-007    -2.7918e-010   
  -1.2            -6.1881e-007    -2.9043e-010   
  -1.25           -6.4571e-007    -3.0364e-010   
  -1.3            -6.7345e-007    -3.1502e-010   
  -1.35           -7.0071e-007    -3.2499e-010   
  -1.4            -7.299e-007     -2.2073e-010   
  -1.45           -7.599e-007     -2.2851e-010   
  -1.5            -7.9089e-007    -2.3774e-010   
  -1.55           -8.2305e-007    -2.4642e-010   
  -1.6            -8.5578e-007    -2.5771e-010   
  -1.65           -8.8967e-007    -2.6896e-010   
  -1.7            -9.2455e-007    -2.8061e-010   
  -1.75           -9.6025e-007    -2.93e-010     
  -1.8            -9.9735e-007    -3.044e-010    
END_DB

BEGIN_DB
 ICCAP_VAR VG         -0.72          
 ICCAP_VAR VS         0              
 ICCAP_VAR VB         0              

 #VD              ID              IG             
  0               -1.5413e-007    3.3478e-010    
  -0.05           -0.00018148     1.1358e-010    
  -0.1            -0.00026952     3.1808e-010    
  -0.15           -0.00031378     3.2774e-010    
  -0.2            -0.00033928     2.2416e-010    
  -0.25           -0.00035852     2.32e-010      
  -0.3            -0.00037474     2.4177e-010    
  -0.35           -0.00038922     2.5094e-010    
  -0.4            -0.00040277     2.617e-010     
  -0.45           -0.00041557     2.7338e-010    
  -0.5            -0.00042783     2.8548e-010    
  -0.55           -0.00043975     2.975e-010     
  -0.6            -0.00045124     3.0907e-010    
  -0.65           -0.00046246     3.1972e-010    
  -0.7            -0.00047384     3.3023e-010    
  -0.75           -0.00048504     2.2511e-010    
  -0.8            -0.00049506     2.3309e-010    
  -0.85           -0.0005056      2.4233e-010    
  -0.9            -0.00051603     2.5267e-010    
  -0.95           -0.00052613     2.6332e-010    
  -1              -0.00053638     2.7461e-010    
  -1.05           -0.00054642     2.8654e-010    
  -1.1            -0.00055654     2.9844e-010    
  -1.15           -0.00056726     3.1088e-010    
  -1.2            -0.00060719     3.2011e-010    
  -1.25           -0.00076306     3.3007e-010    
  -1.3            -0.00080485     2.2559e-010    
  -1.35           -0.00083944     2.3471e-010    
  -1.4            -0.0008711      2.4424e-010    
  -1.45           -0.00090142     2.5465e-010    
  -1.5            -0.00093137     2.6768e-010    
  -1.55           -0.00096173     2.8434e-010    
  -1.6            -0.00099168     3.1098e-010    
  -1.65           -0.00102196     3.5955e-010    
  -1.7            -0.00105228     2.5146e-010    
  -1.75           -0.0010826      2.3802e-010    
  -1.8            -0.00111381     3.9836e-010    
END_DB

BEGIN_DB
 ICCAP_VAR VG         -1.08          
 ICCAP_VAR VS         0              
 ICCAP_VAR VB         0              

 #VD              ID              IG             
  0               -2.6304e-006    -2.3721e-010   
  -0.05           -0.00071816     9.301e-011     
  -0.1            -0.0013889      -2.511e-010    
  -0.15           -0.0020042      -2.6309e-010   
  -0.2            -0.0025483      -2.7357e-010   
  -0.25           -0.0030058      -2.861e-010    
  -0.3            -0.0033723      -2.9813e-010   
  -0.35           -0.0036448      -3.0951e-010   
  -0.4            -0.0038391      -3.203e-010    
  -0.45           -0.0039791      -3.3003e-010   
  -0.5            -0.0040804      -2.2594e-010   
  -0.55           -0.0041613      -2.3324e-010   
  -0.6            -0.0042282      -2.4189e-010   
  -0.65           -0.0042856      -2.5283e-010   
  -0.7            -0.0043333      -2.6207e-010   
  -0.75           -0.0043778      -2.7522e-010   
  -0.8            -0.0044017      -2.8709e-010   
  -0.85           -0.0044218      -2.9863e-010   
  -0.9            -0.004441       -3.1007e-010   
  -0.95           -0.0044602      -3.2056e-010   
  -1              -0.00448        -3.2981e-010   
  -1.05           -0.0044989      -2.2612e-010   
  -1.1            -0.0045156      -2.3437e-010   
  -1.15           -0.0045328      -2.4235e-010   
  -1.2            -0.004549       -2.5301e-010   
  -1.25           -0.0045638      -2.6441e-010   
  -1.3            -0.0045805      -2.7573e-010   
  -1.35           -0.0045984      -2.8775e-010   
  -1.4            -0.0046163      -2.9996e-010   
  -1.45           -0.0046342      -3.1178e-010   
  -1.5            -0.0046499      -3.2188e-010   
  -1.55           -0.0046681      -3.3105e-010   
  -1.6            -0.0046868      -2.2211e-010   
  -1.65           -0.0047053      -3.2637e-010   
  -1.7            -0.0047272      1.441e-011     
  -1.75           -0.0047516      5.1401e-010    
  -1.8            -0.0047728      5.4416e-010    
END_DB

BEGIN_DB
 ICCAP_VAR VG         -1.44          
 ICCAP_VAR VS         0              
 ICCAP_VAR VB         0              

 #VD              ID              IG             
  0               -2.8875e-006    -1.9108e-010   
  -0.05           -0.00082155     4.953e-011     
  -0.1            -0.0016289      -3.3156e-010   
  -0.15           -0.0024244      -2.2659e-010   
  -0.2            -0.0032021      -2.3396e-010   
  -0.25           -0.0039639      -2.4345e-010   
  -0.3            -0.0047006      -2.5535e-010   
  -0.35           -0.0054134      -2.6575e-010   
  -0.4            -0.0060948      -2.7732e-010   
  -0.45           -0.0067413      -2.8857e-010   
  -0.5            -0.0073419      -3.0151e-010   
  -0.55           -0.0078929      -3.1403e-010   
  -0.6            -0.0083866      -3.2276e-010   
  -0.65           -0.0088108      -3.3343e-010   
  -0.7            -0.009166       -2.2653e-010   
  -0.75           -0.0094503      -2.3593e-010   
  -0.8            -0.0096781      -2.4414e-010   
  -0.85           -0.0098428      -2.551e-010    
  -0.9            -0.0099829      -2.6614e-010   
  -0.95           -0.0100882      -2.7698e-010   
  -1              -0.0101854      -2.912e-010    
  -1.05           -0.0102668      -3.0233e-010   
  -1.1            -0.010342       -3.1392e-010   
  -1.15           -0.0104072      -3.2387e-010   
  -1.2            -0.0104631      -3.338e-010    
  -1.25           -0.0105121      -2.279e-010    
  -1.3            -0.0105401      -2.3635e-010   
  -1.35           -0.0105671      -2.4496e-010   
  -1.4            -0.010587       -2.5457e-010   
  -1.45           -0.0106061      -2.6692e-010   
  -1.5            -0.0106225      -2.785e-010    
  -1.55           -0.0106371      -2.9031e-010   
  -1.6            -0.010652       -3.0179e-010   
  -1.65           -0.0106643      -3.1442e-010   
  -1.7            -0.0106844      -3.2525e-010   
  -1.75           -0.0107079      -2.198e-010    
  -1.8            -0.010714       -2.2814e-010   
END_DB

BEGIN_DB
 ICCAP_VAR VG         -1.8           
 ICCAP_VAR VS         0              
 ICCAP_VAR VB         0              

 #VD              ID              IG             
  0               -3.0029e-006    -2.456e-010    
  -0.05           -0.00085177     8.832e-011     
  -0.1            -0.0016961      -2.7243e-010   
  -0.15           -0.0025331      -2.8408e-010   
  -0.2            -0.0033634      -2.9657e-010   
  -0.25           -0.0041883      -3.084e-010    
  -0.3            -0.0050034      -3.1939e-010   
  -0.35           -0.0058141      -3.2882e-010   
  -0.4            -0.0066058      -2.243e-010    
  -0.45           -0.0073855      -2.317e-010    
  -0.5            -0.0081563      -2.4096e-010   
  -0.55           -0.0089043      -2.5038e-010   
  -0.6            -0.0096363      -2.6003e-010   
  -0.65           -0.0103529      -2.7285e-010   
  -0.7            -0.011042       -2.8397e-010   
  -0.75           -0.011694       3.4248e-010    
  -0.8            -0.012335       2.5074e-010    
  -0.85           -0.012951       2.6099e-010    
  -0.9            -0.013528       2.7376e-010    
  -0.95           -0.014077       2.8658e-010    
  -1              -0.014559       2.9915e-010    
  -1.05           -0.015004       3.0891e-010    
  -1.1            -0.015384       3.1805e-010    
  -1.15           -0.015706       3.2867e-010    
  -1.2            -0.01598        3.3607e-010    
  -1.25           -0.016209       2.3201e-010    
  -1.3            -0.01642        2.4062e-010    
  -1.35           -0.016562       2.492e-010     
  -1.4            -0.016679       2.6346e-010    
  -1.45           -0.016782       2.7434e-010    
  -1.5            -0.016864       2.8558e-010    
  -1.55           -0.01696        2.9438e-010    
  -1.6            -0.017023       3.0909e-010    
  -1.65           -0.017082       3.1971e-010    
  -1.7            -0.01716        3.2868e-010    
  -1.75           -0.017208       2.2399e-010    
  -1.8            -0.017245       2.3004e-010    
END_DB

