! VERSION = 6.00
BEGIN_HEADER
 ICCAP_INPUTS
  VG         V  B GROUND SMU4 0.001 LIN        2    0          -1.8       6    -0.36     
  VS         V  E GROUND SMU3 0.1 CON        0
  VD         V  S GROUND SMU2 0.1 LIN        1    0          -1.8       37   -0.05     
  VB         V  C GROUND SMU1 0.1 LIN        3    0          0.9        2    0.9       
 ICCAP_OUTPUTS
  ID         I  S GROUND SMU2 B
  IB         I  C GROUND SMU1 B
  IG         I  B GROUND SMU4 B
END_HEADER

BEGIN_DB
 ICCAP_VAR VG         0              
 ICCAP_VAR VS         0              
 ICCAP_VAR VB         0              

 #VD              ID              IB              IG             
  0               -7.977e-010     -1.6214e-008    4.132e-010     
  -0.05           1.0716e-009     1.4369e-008     -2.0797e-009   
  -0.1            -1.083e-009     -1.6869e-008    2.3839e-009    
  -0.15           8.655e-010      1.2565e-008     -2.2791e-009   
  -0.2            -8.53e-010      -1.6647e-008    2.5583e-009    
  -0.25           3.5816e-009     7.902e-009      -1.687e-010    
  -0.3            -4.08e-011      8.413e-009      -2.5972e-009   
  -0.35           -2.8447e-009    -1.5747e-008    1.9738e-009    
  -0.4            1.1845e-009     1.5343e-008     -1.9339e-009   
  -0.45           -1.2163e-009    -1.6716e-008    2.2482e-009    
  -0.5            9.823e-010      1.3728e-008     -2.1643e-009   
  -0.55           -9.903e-010     -1.6719e-008    2.4626e-009    
  -0.6            3.6845e-009     8.385e-009      -8.81e-011     
  -0.65           9.59e-011       8.695e-009      -2.5835e-009   
  -0.7            -2.9226e-009    -1.3271e-008    1.8115e-009    
  -0.75           2.6597e-009     1.9297e-008     -1.9908e-009   
  -0.8            -1.1631e-009    -1.6753e-008    2.3068e-009    
  -0.85           9.407e-010      1.316e-008      -2.2115e-009   
  -0.9            -9.308e-010     -1.6491e-008    2.5043e-009    
  -0.95           3.6471e-009     8.139e-009      -1.193e-010    
  -1              3.32e-011       8.418e-009      -2.5863e-009   
  -1.05           -2.8895e-009    -1.4302e-008    1.889e-009     
  -1.1            2.5977e-009     2.0705e-008     -2.0643e-009   
  -1.15           -1.0988e-009    -1.6891e-008    2.3658e-009    
  -1.2            8.798e-010      1.295e-008      -2.2651e-009   
  -1.25           -8.542e-010     -1.6609e-008    2.5395e-009    
  -1.3            3.5666e-009     7.887e-009      -1.569e-010    
  -1.35           -3.95e-011      8.318e-009      -2.6025e-009   
  -1.4            -2.8481e-009    -1.6407e-008    2.0064e-009    
  -1.45           1.1892e-009     1.5731e-008     -1.9616e-009   
  -1.5            -1.2143e-009    -1.7174e-008    2.258e-009     
  -1.55           9.858e-010      1.419e-008      -2.1709e-009   
  -1.6            -9.783e-010     -1.7125e-008    2.4554e-009    
  -1.65           3.6683e-009     8.269e-009      -9.7e-011      
  -1.7            7.61e-011       8.539e-009      -2.5828e-009   
  -1.75           -2.9187e-009    -1.4237e-008    1.8415e-009    
  -1.8            2.3456e-009     1.0342e-008     1.7334e-009    
END_DB

BEGIN_DB
 ICCAP_VAR VG         -0.36          
 ICCAP_VAR VS         0              
 ICCAP_VAR VB         0              

 #VD              ID              IB              IG             
  0               -1.8276e-009    -1.4822e-008    -1.0989e-009   
  -0.05           -1.845e-010     -1.1265e-008    2.7301e-009    
  -0.1            2.9091e-009     1.2816e-008     -1.6478e-009   
  -0.15           -2.8132e-009    -1.8601e-008    2.147e-009     
  -0.2            9.841e-010      1.4231e-008     -2.0779e-009   
  -0.25           -1.1448e-009    -1.6593e-008    2.3876e-009    
  -0.3            7.699e-010      1.2358e-008     -2.2885e-009   
  -0.35           -9.102e-010     -1.6323e-008    2.5635e-009    
  -0.4            3.5564e-009     8.93e-009       1.2835e-009    
  -0.45           -4.849e-010     6.955e-009      -2.6024e-009   
  -0.5            -1.1408e-009    -1.6481e-008    2.413e-009     
  -0.55           7.062e-010      1.2111e-008     -2.3037e-009   
  -0.6            -9.156e-010     -1.6361e-008    2.5829e-009    
  -0.65           3.406e-009      7.741e-009      -1.2745e-009   
  -0.7            -6.787e-010     -1.5824e-008    2.684e-009     
  -0.75           3.1793e-009     8.22e-009       -1.362e-009    
  -0.8            -4.228e-010     -1.334e-008     2.7264e-009    
  -0.85           -1.87e-011      8.704e-009      -2.5761e-009   
  -0.9            -3.113e-009     -1.2654e-008    1.7577e-009    
  -0.95           3.8805e-009     9.654e-009      3.224e-010     
  -1              5.297e-010      1.1276e-008     -2.3865e-009   
  -1.05           -8.654e-010     -1.6232e-008    2.6388e-009    
  -1.1            3.2251e-009     7.758e-009      -1.3094e-009   
  -1.15           -6.367e-010     -1.4758e-008    2.7085e-009    
  -1.2            2.986e-009      9.286e-009      -1.4267e-009   
  -1.25           -4.024e-010     -1.1729e-008    2.7272e-009    
  -1.3            2.7316e-009     1.2404e-008     -1.6246e-009   
  -1.35           -3.0351e-009    -1.8268e-008    2.1147e-009    
  -1.4            7.763e-010      1.4382e-008     -2.0618e-009   
  -1.45           -1.3965e-009    -1.6632e-008    2.3704e-009    
  -1.5            5.447e-010      1.2554e-008     -2.2704e-009   
  -1.55           -1.1885e-009    -1.642e-008     2.5581e-009    
  -1.6            2.921e-010      1.0491e-008     -2.4264e-009   
  -1.65           -9.647e-010     -1.6231e-008    2.6634e-009    
  -1.7            2.9802e-009     7.845e-009      -1.3293e-009   
  -1.75           -7.567e-010     -1.413e-008     2.7212e-009    
  -1.8            2.7196e-009     9.834e-009      -1.4702e-009   
END_DB

BEGIN_DB
 ICCAP_VAR VG         -0.72          
 ICCAP_VAR VS         0              
 ICCAP_VAR VB         0              

 #VD              ID              IB              IG             
  0               -9.56e-011      -1.5529e-008    -1.89e-011     
  -0.05           -3.257e-007     6.402e-009      2.81e-011      
  -0.1            -4.4038e-007    -1.4529e-008    2.7006e-009    
  -0.15           -4.9642e-007    -8.54e-009      2.7187e-009    
  -0.2            -5.3821e-007    -7.531e-009     2.7279e-009    
  -0.25           -5.7497e-007    -7.399e-009     2.7271e-009    
  -0.3            -6.1049e-007    -7.662e-009     2.7113e-009    
  -0.35           -6.4556e-007    -8.093e-009     2.6849e-009    
  -0.4            -6.8392e-007    -1.6927e-008    1.4477e-009    
  -0.45           -7.2022e-007    -1.6758e-008    1.6096e-009    
  -0.5            -7.5661e-007    -1.7152e-008    1.8101e-009    
  -0.55           -7.9403e-007    -1.7279e-008    2.0054e-009    
  -0.6            -8.3226e-007    -1.2528e-008    2.6764e-009    
  -0.65           -8.7184e-007    -8.893e-009     2.7082e-009    
  -0.7            -9.122e-007     -8.157e-009     2.724e-009     
  -0.75           -9.5172e-007    -7.451e-009     2.7282e-009    
  -0.8            -9.9241e-007    -7.351e-009     2.726e-009     
  -0.85           -1.034e-006     -8.026e-009     2.7078e-009    
  -0.9            -1.07626e-006   -8.073e-009     2.6736e-009    
  -0.95           -1.12285e-006   -1.6807e-008    1.4984e-009    
  -1              -1.1528e-006    -1.6915e-008    -1.2252e-009   
  -1.05           -1.2269e-006    -1.4369e-008    2.7015e-009    
  -1.1            -1.2639e-006    -7.597e-009     2.7317e-009    
  -1.15           -1.3078e-006    -7.996e-009     2.7078e-009    
  -1.2            -1.3713e-006    -1.6734e-008    1.5237e-009    
  -1.25           -1.4202e-006    -1.7164e-008    1.9497e-009    
  -1.3            -1.4735e-006    -1.4927e-008    2.7072e-009    
  -1.35           -1.5159e-006    -7.38e-009      2.7298e-009    
  -1.4            -1.5635e-006    -8.203e-009     2.6998e-009    
  -1.45           -1.6363e-006    -1.6763e-008    1.5802e-009    
  -1.5            -1.6893e-006    -1.7143e-008    2.0026e-009    
  -1.55           -1.7461e-006    -1.5612e-008    2.7133e-009    
  -1.6            -1.7952e-006    -7.2e-009       2.7295e-009    
  -1.65           -1.8482e-006    -8.112e-009     2.6907e-009    
  -1.7            -1.9273e-006    -1.6855e-008    1.6322e-009    
  -1.75           -1.9881e-006    -1.703e-008     2.0627e-009    
  -1.8            -2.0499e-006    -1.6305e-008    1.562e-009     
END_DB

BEGIN_DB
 ICCAP_VAR VG         -1.08          
 ICCAP_VAR VS         0              
 ICCAP_VAR VB         0              

 #VD              ID              IB              IG             
  0               3.1837e-008     -1.4027e-008    8.442e-010     
  -0.05           -2.6495e-005    8.539e-009      -1.07e-010     
  -0.1            -4.5406e-005    -1.6682e-008    2.2637e-009    
  -0.15           -5.8362e-005    -1.7066e-008    2.0098e-009    
  -0.2            -6.7248e-005    -1.6799e-008    1.7468e-009    
  -0.25           -7.3542e-005    -1.65e-008      1.4923e-009    
  -0.3            -7.8282e-005    -1.7755e-008    2.7176e-009    
  -0.35           -8.2152e-005    -1.1248e-008    2.6732e-009    
  -0.4            -8.531e-005     -1.4317e-008    2.5802e-009    
  -0.45           -8.7966e-005    -1.6348e-008    1.568e-009     
  -0.5            -9.0624e-005    -1.7214e-008    2.7222e-009    
  -0.55           -9.3119e-005    -1.0194e-008    2.6873e-009    
  -0.6            -9.5373e-005    -1.3339e-008    2.6105e-009    
  -0.65           -9.7326e-005    -1.7953e-008    1.6538e-009    
  -0.7            -9.9551e-005    -1.6726e-008    1.4196e-009    
  -0.75           -0.000101598    -1.825e-008     2.7004e-009    
  -0.8            -0.000103685    -1.2354e-008    2.6408e-009    
  -0.85           -0.000105367    -1.9244e-008    1.7368e-009    
  -0.9            -0.000107422    -1.6474e-008    1.4863e-009    
  -0.95           -0.000109341    -1.755e-008     2.7157e-009    
  -1              -0.000111316    -1.128e-008     2.6706e-009    
  -1.05           -0.000113117    -1.4295e-008    2.5764e-009    
  -1.1            -0.00011375     -1.6432e-008    -1.3544e-009   
  -1.15           -0.00011551     1.249e-008      -1.9623e-009   
  -1.2            -0.00011722     1.3869e-008     -1.4017e-009   
  -1.25           -0.00011905     1.5748e-008     -1.523e-009    
  -1.3            -0.00012083     1.4787e-008     -1.6743e-009   
  -1.35           -0.00012258     1.3451e-008     -1.8408e-009   
  -1.4            -0.00012426     1.1853e-008     -1.3344e-009   
  -1.45           -0.00012605     1.6657e-008     -1.4322e-009   
  -1.5            -0.00012775     1.5551e-008     -1.5574e-009   
  -1.55           -0.00012952     1.4545e-008     -1.7171e-009   
  -1.6            -0.00013118     1.3115e-008     -1.8825e-009   
  -1.65           -0.00013283     1.2773e-008     -1.3574e-009   
  -1.7            -0.00013467     1.6428e-008     -1.4613e-009   
  -1.75           -0.00013636     1.5438e-008     -1.5999e-009   
  -1.8            -0.00013816     1.4519e-008     -1.7592e-009   
END_DB

BEGIN_DB
 ICCAP_VAR VG         -1.44          
 ICCAP_VAR VS         0              
 ICCAP_VAR VB         0              

 #VD              ID              IB              IG             
  0               5.3646e-008     6.873e-009      1.1471e-009    
  -0.05           -7.6499e-005    7.992e-009      -2.0987e-009   
  -0.1            -0.00014592     7.736e-009      1.9889e-009    
  -0.15           -0.00020802     -9.165e-009     2.7149e-009    
  -0.2            -0.00026235     -8.39e-009      2.7257e-009    
  -0.25           -0.00030905     -7.527e-009     2.7275e-009    
  -0.3            -0.00034873     -7.329e-009     2.7188e-009    
  -0.35           -0.00038171     -7.874e-009     2.7044e-009    
  -0.4            -0.00040902     -8.017e-009     2.6691e-009    
  -0.45           -0.00043156     -1.6616e-008    1.5011e-009    
  -0.5            -0.0004502      -1.6703e-008    1.6836e-009    
  -0.55           -0.00046584     -1.7136e-008    1.8843e-009    
  -0.6            -0.00047908     -1.7064e-008    2.0814e-009    
  -0.65           -0.00049067     -1.3233e-008    2.7011e-009    
  -0.7            -0.00050116     -8.64e-009      2.7206e-009    
  -0.75           -0.00051016     -7.877e-009     2.7292e-009    
  -0.8            -0.0005185      -7.432e-009     2.7259e-009    
  -0.85           -0.00052607     -7.496e-009     2.7127e-009    
  -0.9            -0.00053333     -7.981e-009     2.6902e-009    
  -0.95           -0.00054039     -1.6892e-008    1.4073e-009    
  -1              -0.00054687     -1.6422e-008    1.5693e-009    
  -1.05           -0.00055312     -1.6855e-008    1.762e-009     
  -1.1            -0.00055918     -1.7101e-008    1.9616e-009    
  -1.15           -0.00056503     -1.6943e-008    2.1545e-009    
  -1.2            -0.00057076     -1.4474e-008    2.7108e-009    
  -1.25           -0.0005765      -8.243e-009     2.7257e-009    
  -1.3            -0.00058179     -7.69e-009      2.7291e-009    
  -1.35           -0.00058707     -7.276e-009     2.7206e-009    
  -1.4            -0.00059207     -7.861e-009     2.7033e-009    
  -1.45           -0.00059731     -8.104e-009     2.672e-009     
  -1.5            -0.00060241     -1.6606e-008    1.4731e-009    
  -1.55           -0.0006073      -1.6499e-008    1.6484e-009    
  -1.6            -0.00061213     -1.6957e-008    1.8507e-009    
  -1.65           -0.00061698     -1.6962e-008    2.0517e-009    
  -1.7            -0.00062177     -1.2859e-008    2.6976e-009    
  -1.75           -0.00062695     -8.573e-009     2.7185e-009    
  -1.8            -0.0006313      -7.936e-009     2.7291e-009    
END_DB

BEGIN_DB
 ICCAP_VAR VG         -1.8           
 ICCAP_VAR VS         0              
 ICCAP_VAR VB         0              

 #VD              ID              IB              IG             
  0               6.5429e-008     -6.369e-009     -1.4112e-009   
  -0.05           -0.00010892     1.3811e-008     4.356e-010     
  -0.1            -0.00021336     7.9e-009        9.978e-010     
  -0.15           -0.00031274     9.524e-009      7.024e-010     
  -0.2            -0.00040677     1.605e-008      -1.5104e-009   
  -0.25           -0.00049527     1.5073e-008     -1.6624e-009   
  -0.3            -0.00057801     1.3676e-008     -1.8241e-009   
  -0.35           -0.00065487     1.2326e-008     -1.9881e-009   
  -0.4            -0.0007253      1.4685e-008     -1.4206e-009   
  -0.45           -0.0007897      1.5699e-008     -1.5489e-009   
  -0.5            -0.00084752     1.4613e-008     -1.7061e-009   
  -0.55           -0.00089931     1.3396e-008     -1.8693e-009   
  -0.6            -0.00094506     1.1953e-008     -2.0314e-009   
  -0.65           -0.00098533     1.5479e-008     -1.4517e-009   
  -0.7            -0.00102087     1.5368e-008     -1.5885e-009   
  -0.75           -0.00105183     1.4333e-008     -1.7575e-009   
  -0.8            -0.00107899     1.2919e-008     -1.9133e-009   
  -0.85           -0.0011026      1.3517e-008     -1.3832e-009   
  -0.9            -0.00112398     1.6136e-008     -1.4974e-009   
  -0.95           -0.001144       -1.6874e-008    -1.9e-012      
  -1              -0.0011595      8.242e-009      -2.5115e-009   
  -1.05           -0.0011749      7.746e-009      -2.5456e-009   
  -1.1            -0.0011889      6.937e-009      -2.5735e-009   
  -1.15           -0.0012022      6.781e-009      -2.5942e-009   
  -1.2            -0.0012145      6.601e-009      -2.611e-009    
  -1.25           -0.0012261      6.002e-009      -2.6126e-009   
  -1.3            -0.0012371      5.033e-009      -2.6013e-009   
  -1.35           -0.0012472      1.6383e-008     -1.4752e-009   
  -1.4            -0.0012571      1.5212e-008     -1.6238e-009   
  -1.45           -0.0012667      1.4241e-008     -1.7882e-009   
  -1.5            -0.0012761      1.2728e-008     -1.944e-009    
  -1.55           -0.0012847      1.3789e-008     -1.3953e-009   
  -1.6            -0.0012936      1.6007e-008     -1.5156e-009   
  -1.65           -0.0013021      1.4972e-008     -1.6629e-009   
  -1.7            -0.0013106      1.3736e-008     -1.8294e-009   
  -1.75           -0.0013187      1.2218e-008     -1.9911e-009   
  -1.8            -0.0013263      1.4719e-008     -1.4244e-009   
END_DB

BEGIN_DB
 ICCAP_VAR VG         0              
 ICCAP_VAR VS         0              
 ICCAP_VAR VB         0.9            

 #VD              ID              IB              IG             
  0               1.7395e-009     8.338e-009      1.058e-009     
  -0.05           2.9244e-009     1.3963e-008     -1.7114e-009   
  -0.1            -2.7186e-009    -1.989e-008     2.2192e-009    
  -0.15           1.0231e-009     1.4235e-008     -2.1426e-009   
  -0.2            -1.0279e-009    -1.6947e-008    2.4305e-009    
  -0.25           8.175e-010      1.2171e-008     -2.3177e-009   
  -0.3            -7.873e-010     -1.6905e-008    2.5831e-009    
  -0.35           3.514e-009      7.703e-009      -2.4444e-009   
  -0.4            -5.319e-010     -1.5841e-008    2.6752e-009    
  -0.45           3.3161e-009     8.072e-009      -1.3655e-009   
  -0.5            -2.728e-010     -1.2803e-008    2.7114e-009    
  -0.55           3.1073e-009     1.0794e-008     -1.5394e-009   
  -0.6            -2.8378e-009    -1.6518e-008    2.0081e-009    
  -0.65           1.1772e-009     1.5384e-008     -1.9619e-009   
  -0.7            -1.2159e-009    -1.6944e-008    2.2656e-009    
  -0.75           9.805e-010      1.3705e-008     -2.1777e-009   
  -0.8            -9.831e-010     -1.6952e-008    2.4747e-009    
  -0.85           7.672e-010      1.1876e-008     -2.3518e-009   
  -0.9            -7.302e-010     -1.6798e-008    2.6099e-009    
  -0.95           3.7682e-009     8.315e-009      1.2352e-009    
  -1              -4.467e-010     6.71e-009       -2.6005e-009   
  -1.05           -9.596e-010     -1.7184e-008    2.4869e-009    
  -1.1            3.6502e-009     8.178e-009      -1.075e-010    
  -1.15           5.47e-011       8.43e-009       -2.5692e-009   
  -1.2            -2.9016e-009    -1.4467e-008    1.8613e-009    
  -1.25           2.3758e-009     1.0427e-008     1.7137e-009    
  -1.3            2.633e-010      8.462e-009      -2.5406e-009   
  -1.35           -1.535e-010     -1.1465e-008    2.7153e-009    
  -1.4            3.0063e-009     1.2681e-008     -1.6361e-009   
  -1.45           -2.7775e-009    -1.8513e-008    2.1259e-009    
  -1.5            1.0949e-009     1.4835e-008     -2.0649e-009   
  -1.55           -1.1092e-009    -1.6846e-008    2.369e-009     
  -1.6            8.915e-010      1.2936e-008     -2.2595e-009   
  -1.65           -8.711e-010     -1.6904e-008    2.5371e-009    
  -1.7            3.5774e-009     7.944e-009      -1.578e-010    
  -1.75           -2.48e-011      8.183e-009      -2.5855e-009   
  -1.8            -2.8529e-009    -1.5944e-008    1.9832e-009    
END_DB

BEGIN_DB
 ICCAP_VAR VG         -0.36          
 ICCAP_VAR VS         0              
 ICCAP_VAR VB         0.9            

 #VD              ID              IB              IG             
  0               1.26e-011       -8.78e-009      7.288e-010     
  -0.05           4.2118e-009     9.244e-009      5.944e-010     
  -0.1            -2.489e-010     -1.259e-008     2.7118e-009    
  -0.15           1.164e-010      8.285e-009      -2.5643e-009   
  -0.2            -2.9403e-009    -1.3502e-008    1.7865e-009    
  -0.25           2.6888e-009     1.924e-008      -1.9795e-009   
  -0.3            -1.1938e-009    -1.7032e-008    2.2818e-009    
  -0.35           9.661e-010      1.373e-008      -2.1927e-009   
  -0.4            -9.567e-010     -1.7113e-008    2.4791e-009    
  -0.45           3.6536e-009     8.188e-009      -1.119e-010    
  -0.5            5.17e-011       8.37e-009       -2.5746e-009   
  -0.55           -2.9007e-009    -1.468e-008     1.8779e-009    
