! VERSION = 6.00
BEGIN_HEADER
 ICCAP_INPUTS
  VG         V  B GROUND SMU4 0.001 LIN        1    0          -1.8       37   -0.05     
  VS         V  E GROUND SMU2 0.1 CON        0
  VD         V  S GROUND SMU1 0.1 LIN        2    -0.1       -1.8       2    -1.7      
  VB         V  C GROUND SMU3 0.1 CON        0
 ICCAP_OUTPUTS
  IG         I  B GROUND SMU4 B
  ID         I  S GROUND SMU1 B
END_HEADER

BEGIN_DB
 ICCAP_VAR VS         0              
 ICCAP_VAR VD         -0.1           
 ICCAP_VAR VB         0              

 #VG              IG              ID             
  0               -2.8804e-010    -1.043e-011    
  -0.05           1.1951e-010     -2.451e-011    
  -0.1            -1.6612e-010    -3.1771e-010   
  -0.15           2.8129e-010     -1.029e-009    
  -0.2            -3.344e-010     -3.1459e-009   
  -0.25           1.8359e-010     -1.10938e-008  
  -0.3            -3.3068e-010    -3.8432e-008   
  -0.35           -4.912e-011     -1.3495e-007   
  -0.4            1.1911e-010     -4.6829e-007   
  -0.45           -2.208e-011     -1.5873e-006   
  -0.5            8.994e-011      -5.1428e-006   
  -0.55           2.5344e-010     -1.5489e-005   
  -0.6            -2.1769e-010    -4.234e-005    
  -0.65           1.8312e-010     -0.000101726   
  -0.7            2.9238e-010     -0.00021065    
  -0.75           -3.4095e-010    -0.00037412    
  -0.8            2.678e-010      -0.0005762     
  -0.85           -2.2655e-010    -0.00078713    
  -0.9            1.946e-010      -0.0009789     
  -0.95           -2.7946e-010    -0.00113676    
  -1              1.8522e-010     -0.0012598     
  -1.05           -2.6881e-010    -0.0013536     
  -1.1            2.2846e-010     -0.0014257     
  -1.15           -1.9791e-010    -0.0014815     
  -1.2            2.8402e-010     -0.0015257     
  -1.25           -2.3805e-010    -0.0015602     
  -1.3            2.0572e-010     -0.0015892     
  -1.35           -2.9761e-010    -0.001612      
  -1.4            2.5181e-010     -0.0016317     
  -1.45           -2.1625e-010    -0.0016477     
  -1.5            1.8272e-010     -0.0016616     
  -1.55           -2.6432e-010    -0.0016736     
  -1.6            2.262e-010      -0.0016845     
  -1.65           -1.9397e-010    -0.0016923     
  -1.7            2.7958e-010     -0.001701      
  -1.75           -2.366e-010     -0.0017057     
  -1.8            2.0412e-010     -0.0017126     
END_DB

BEGIN_DB
 ICCAP_VAR VS         0              
 ICCAP_VAR VD         -1.8           
 ICCAP_VAR VB         0              

 #VG              IG              ID             
  0               2.2244e-010     -3.8124e-010   
  -0.05           -2.3744e-010    -5.0077e-010   
  -0.1            2.1238e-010     -1.8016e-009   
  -0.15           -3.2697e-010    -6.0072e-009   
  -0.2            -3.3764e-010    -2.0391e-008   
  -0.25           2.7545e-010     -6.9498e-008   
  -0.3            -3.4184e-010    -2.3528e-007   
  -0.35           2.3463e-010     -7.8766e-007   
  -0.4            -9.058e-011     -2.5654e-006   
  -0.45           1.6999e-010     -7.9896e-006   
  -0.5            3.2261e-010     -2.3279e-005   
  -0.55           -3.105e-010     -6.1919e-005   
  -0.6            3.2159e-010     -0.00014708    
  -0.65           -1.8189e-010    -0.00030687    
  -0.7            5.0109e-010     -0.00099774    
  -0.75           9.936e-010      -0.0012942     
  -0.8            1.4208e-009     -0.0016289     
  -0.85           1.9815e-009     -0.0020418     
  -0.9            2.202e-009      -0.0025266     
  -0.95           1.9395e-009     -0.0030783     
  -1              1.3436e-009     -0.0036907     
  -1.05           1.1701e-009     -0.0043564     
  -1.1            2.6709e-010     -0.0050762     
  -1.15           3.8344e-010     -0.0059321     
  -1.2            -1.5868e-010    -0.0067271     
  -1.25           2.9792e-010     -0.0075564     
  -1.3            -3.408e-010     -0.008393      
  -1.35           2.6465e-010     -0.0092532     
  -1.4            -2.2821e-010    -0.010133      
  -1.45           1.9674e-010     -0.0110157     
  -1.5            -2.5052e-010    -0.011867      
  -1.55           2.1645e-010     -0.012792      
  -1.6            -3.1023e-010    -0.013698      
  -1.65           3.3299e-010     -0.014608      
  -1.7            -2.8718e-010    -0.015531      
  -1.75           2.419e-010      -0.016435      
  -1.8            -2.1079e-010    -0.017291      
END_DB

