! VERSION = 6.00
BEGIN_HEADER
 ICCAP_INPUTS
  VG         V  B GROUND SMU4 0.001 LIN        1    0          -1.8       37   -0.05     
  VS         V  E GROUND SMU2 0.1 CON        0
  VB         V  C GROUND SMU3 0.1 LIN        3    0          1.8        3    0.9       
  VD         V  S GROUND SMU1 0.1 LIN        2    -0.1       -1.8       2    -1.7      
 ICCAP_OUTPUTS
  IG         I  B GROUND SMU4 B
  ID         I  S GROUND SMU1 B
  IB         I  C GROUND SMU3 B
END_HEADER

BEGIN_DB
 ICCAP_VAR VS         0              
 ICCAP_VAR VB         0              
 ICCAP_VAR VD         -0.1           

 #VG              IG              ID              IB             
  0               -1.2124e-009    -1.0561e-009    -1.229e-008    
  -0.05           9.89e-011       -1.8748e-009    -9.441e-009    
  -0.1            1.1674e-009     2.63e-011       -1.269e-008    
  -0.15           1.7531e-009     -1.396e-010     -1.494e-008    
  -0.2            1.9019e-009     9.402e-010      -4.24e-010     
  -0.25           -1.2567e-009    1.031e-009      9.158e-009     
  -0.3            -1.1892e-009    -1.3923e-009    3.871e-009     
  -0.35           1.596e-009      -2.537e-010     -1.6211e-008   
  -0.4            -1.2485e-009    1.0892e-009     -2.423e-009    
  -0.45           -2.2755e-009    -1.6482e-009    9.301e-009     
  -0.5            1.1483e-009     -3.2765e-009    -1.0754e-008   
  -0.55           1.1657e-009     -6.8254e-009    -1.1916e-008   
  -0.6            -2.4321e-009    -2.1803e-008    -1.7442e-008   
  -0.65           1.6614e-009     -5.7014e-008    -1.2783e-008   
  -0.7            -6.815e-010     -1.3302e-007    1.3626e-008    
  -0.75           1.1659e-009     -2.6866e-007    -1.1504e-008   
  -0.8            1.3257e-009     -4.7417e-007    -1.6007e-008   
  -0.85           1.0712e-009     -7.4817e-007    -3.377e-009    
  -0.9            1.112e-009      -1.09754e-006   -4.489e-009    
  -0.95           1.7199e-009     -1.5003e-006    3.298e-009     
  -1              5.776e-010      -1.9667e-006    8.595e-009     
  -1.05           9.589e-010      -2.4735e-006    1.0754e-008    
  -1.1            1.408e-009      -2.999e-006     1.3978e-008    
  -1.15           3.554e-010      -3.5412e-006    8.857e-009     
  -1.2            6.365e-010      -4.1037e-006    8.621e-009     
  -1.25           1.0332e-009     -4.6629e-006    1.0256e-008    
  -1.3            1.4838e-009     -5.1991e-006    1.4329e-008    
  -1.35           4.023e-010      -5.7326e-006    9e-009         
  -1.4            7.052e-010      -6.2555e-006    8.544e-009     
  -1.45           1.1226e-009     -6.7553e-006    1.1975e-008    
  -1.5            1.5629e-009     -7.2264e-006    1.4604e-008    
  -1.55           4.572e-010      -7.6877e-006    8.677e-009     
  -1.6            7.717e-010      -8.1339e-006    9.187e-009     
  -1.65           1.2047e-009     -8.5547e-006    1.2367e-008    
  -1.7            1.6261e-009     -8.9534e-006    1.4975e-008    
  -1.75           4.747e-010      -9.3411e-006    8.685e-009     
  -1.8            8.448e-010      -9.7141e-006    9.839e-009     
END_DB

BEGIN_DB
 ICCAP_VAR VS         0              
 ICCAP_VAR VB         0              
 ICCAP_VAR VD         -1.8           

 #VG              IG              ID              IB             
  0               -1.2099e-009    -1.0683e-009    1.0556e-008    
  -0.05           1.1366e-009     -1.1706e-009    -1.2727e-008   
  -0.1            2.0233e-009     9.781e-010      -1.1744e-008   
  -0.15           -1.2574e-009    1.1768e-009     1.0504e-008    
  -0.2            -1.3399e-009    -1.2424e-009    7.006e-009     
  -0.25           9.44e-011       -1.9187e-009    -9.639e-009    
  -0.3            1.1731e-009     -8.94e-011      -1.3102e-008   
  -0.35           1.7664e-009     -5.19e-010      -1.5235e-008   
  -0.4            -1.2958e-009    -1.9386e-009    1.366e-008     
  -0.45           -1.2692e-009    -4.7612e-009    2.71e-009      
  -0.5            -1.8369e-009    -1.4035e-008    -8.277e-009    
  -0.55           1.5032e-009     -3.679e-008     -1.4762e-008   
  -0.6            1.1081e-009     -9.197e-008     -3.114e-009    
  -0.65           5.954e-010      -2.1141e-007    -1.4444e-008   
  -0.7            9.811e-010      -4.3821e-007    9.635e-009     
  -0.75           1.4328e-009     -8.1271e-007    1.4174e-008    
  -0.8            -1.7962e-009    -1.3771e-006    -1.0722e-008   
  -0.85           1.1711e-009     -2.1945e-006    -1.0996e-008   
  -0.9            1.472e-009      -3.2369e-006    -1.4909e-008   
  -0.95           1.0992e-009     -4.5372e-006    -3.238e-009    
  -1              1.0963e-009     -6.1086e-006    -3.908e-009    
  -1.05           1.164e-009      -7.964e-006     -8.996e-009    
  -1.1            1.7294e-009     -1.00522e-005   -1.2652e-008   
  -1.15           2.35e-010       -1.2389e-005    3.115e-009     
  -1.2            1.1595e-009     -1.5003e-005    -1.2168e-008   
  -1.25           1.285e-009      -1.7832e-005    -1.6952e-008   
  -1.3            1.0728e-009     -2.083e-005     -3.261e-009    
  -1.35           1.124e-009      -2.4085e-005    -5.049e-009    
  -1.4            1.1721e-009     -2.7462e-005    -1.0818e-008   
  -1.45           1.4958e-009     -3.0995e-005    -1.4615e-008   
  -1.5            1.107e-009      -3.4667e-005    -3.181e-009    
  -1.55           1.0914e-009     -3.8473e-005    -3.691e-009    
  -1.6            1.1611e-009     -4.2433e-005    -8.656e-009    
  -1.65           1.7518e-009     -4.6455e-005    -1.26e-008     
  -1.7            1.2185e-009     -5.0553e-005    -4.15e-010     
  -1.75           1.0719e-009     -5.476e-005     -3.257e-009    
  -1.8            1.135e-009      -5.9074e-005    -5.704e-009    
END_DB

BEGIN_DB
 ICCAP_VAR VS         0              
 ICCAP_VAR VB         0.9            
 ICCAP_VAR VD         -0.1           

 #VG              IG              ID              IB             
  0               -1.2163e-009    -1.0669e-009    -1.1301e-008   
  -0.05           1.1306e-009     -1.1558e-009    -1.3475e-008   
  -0.1            1.9746e-009     9.691e-010      -1.1277e-008   
  -0.15           -1.2569e-009    1.1697e-009     9.066e-009     
  -0.2            -1.323e-009     -1.2603e-009    6.719e-009     
  -0.25           1.1257e-009     -1.1422e-009    -1.3852e-008   
  -0.3            1.9922e-009     9.65e-010       -1.1081e-008   
  -0.35           -1.257e-009     1.1439e-009     9.134e-009     
  -0.4            -1.3128e-009    -1.2759e-009    6.198e-009     
  -0.45           1.1215e-009     -1.1396e-009    -1.4264e-008   
  -0.5            1.9781e-009     9.561e-010      -1.1006e-008   
  -0.55           -1.2581e-009    1.1018e-009     8.974e-009     
  -0.6            -2.129e-009     -1.1878e-009    5.84e-009      
  -0.65           1.1191e-009     -1.6607e-009    -1.4549e-008   
  -0.7            1.1504e-009     -1.9685e-009    -1.0878e-008   
  -0.75           1.1677e-009     -8.7988e-009    -1.2099e-008   
  -0.8            -2.4341e-009    -3.1003e-008    -1.7431e-008   
  -0.85           1.6861e-009     -8.6646e-008    -1.2909e-008   
  -0.9            -4.285e-010     -2.0218e-007    8.121e-009     
  -0.95           1.1699e-009     -4.0633e-007    -1.0017e-008   
  -1              1.3444e-009     -6.9877e-007    -1.5831e-008   
  -1.05           1.0743e-009     -1.07775e-006   -3.375e-009    
  -1.1            1.1894e-009     -1.5372e-006    2.637e-009     
  -1.15           1.6181e-009     -2.0388e-006    1.5963e-008    
  -1.2            4.97e-010       -2.585e-006     9.03e-009      
  -1.25           8.263e-010      -3.1528e-006    8.706e-009     
  -1.3            1.2797e-009     -3.7182e-006    1.2791e-008    
  -1.35           2.621e-010      -4.2728e-006    8.454e-009     
  -1.4            5.494e-010      -4.8257e-006    8.787e-009     
  -1.45           9.143e-010      -5.3613e-006    9.119e-009     
  -1.5            1.3721e-009     -5.8696e-006    1.3733e-008    
  -1.55           3.257e-010      -6.3552e-006    8.954e-009     
  -1.6            6.118e-010      -6.8322e-006    8.617e-009     
  -1.65           1e-009          -7.2826e-006    9.906e-009     
  -1.7            1.4521e-009     -7.7104e-006    1.4372e-008    
  -1.75           3.83e-010       -8.1129e-006    9.2e-009       
  -1.8            6.69e-010       -8.5128e-006    8.494e-009     
END_DB

BEGIN_DB
 ICCAP_VAR VS         0              
 ICCAP_VAR VB         0.9            
 ICCAP_VAR VD         -1.8           

 #VG              IG              ID              IB             
  0               -1.2599e-009    -1.0984e-009    -3.307e-009    
  -0.05           1.157e-009      -1.2343e-009    -1.0789e-008   
  -0.1            1.1687e-009     8.59e-011       -1.2458e-008   
  -0.15           1.1667e-009     -9.37e-011      -1.468e-008    
  -0.2            1.6203e-009     -2.042e-010     -1.6795e-008   
  -0.25           1.9721e-009     9.604e-010      -2.522e-009    
  -0.3            -1.2564e-009    1.1296e-009     9.933e-009     
  -0.35           -1.2966e-009    -1.288e-009     5.993e-009     
  -0.4            1.7635e-009     9.169e-010      -6.732e-009    
  -0.45           -1.26e-009      8.673e-010      8.7e-009       
  -0.5            -1.8064e-009    -1.1162e-009    1.96e-009      
  -0.55           1.162e-009      -2.705e-010     -1.4186e-008   
  -0.6            1.6518e-009     -1.044e-009     -1.6564e-008   
  -0.65           1.3882e-009     -2.5746e-009    -2.208e-009    
  -0.7            -2.2637e-009    -1.4504e-008    -1.2333e-008   
  -0.75           -1.605e-010     -4.8472e-008    -9.603e-009    
  -0.8            3.758e-010      -1.3757e-007    -1.133e-008    
  -0.85           6.652e-010      -3.4865e-007    8.453e-009     
  -0.9            1.087e-009      -7.3735e-007    1.155e-008     
  -0.95           -1.263e-009     -1.337e-006     -9.573e-009    
  -1              -1.2571e-009    -2.2084e-006    2.537e-009     
  -1.05           -1.9116e-009    -3.3683e-006    5.838e-009     
  -1.1            1.1714e-009     -4.8645e-006    -1.0315e-008   
  -1.15           1.564e-009      -6.601e-006     -1.4335e-008   
  -1.2            1.1239e-009     -8.6155e-006    -2.971e-009    
  -1.25           1.0837e-009     -1.09091e-005   -3.571e-009    
  -1.3            1.1683e-009     -1.3465e-005    3.069e-009     
  -1.35           1.2179e-009     -1.624e-005     -1.7778e-008   
  -1.4            1.0699e-009     -1.92e-005      -3.222e-009    
  -1.45           1.1364e-009     -2.236e-005     -5.949e-009    
  -1.5            1.1713e-009     -2.5696e-005    -1.151e-008    
  -1.55           1.3932e-009     -2.9183e-005    -1.5702e-008   
  -1.6            1.0802e-009     -3.2798e-005    -3.465e-009    
  -1.65           1.1061e-009     -3.6538e-005    -4.186e-009    
  -1.7            1.1713e-009     -4.0413e-005    -9.98e-009     
  -1.75           1.602e-009      -4.4347e-005    -1.3655e-008   
  -1.8            1.1369e-009     -4.8395e-005    -2.33e-009     
END_DB

BEGIN_DB
 ICCAP_VAR VS         0              
 ICCAP_VAR VB         1.8            
 ICCAP_VAR VD         -0.1           

 #VG              IG              ID              IB             
  0               -1.2016e-009    -1.0605e-009    -1.2637e-008   
  -0.05           1.9085e-009     9.429e-010      -9.864e-009    
  -0.1            -1.2598e-009    1.0521e-009     8.976e-009     
  -0.15           -1.209e-009     -1.3775e-009    4.267e-009     
  -0.2            1.598e-009      -2.113e-010     -1.6687e-008   
  -0.25           1.9812e-009     9.616e-010      -2.522e-009    
  -0.3            -1.2602e-009    1.142e-009      9.987e-009     
  -0.35           -1.3076e-009    -1.2763e-009    6.09e-009      
  -0.4            1.448e-010      -1.867e-009     -9.532e-009    
  -0.45           1.1711e-009     5.7e-011        -1.278e-008    
  -0.5            1.1658e-009     -1.208e-010     -1.4798e-008   
  -0.55           1.5634e-009     -2.249e-010     -1.7284e-008   
  -0.6            1.9948e-009     9.64e-010       -2.937e-009    
  -0.65           -1.2602e-009    1.1397e-009     1.011e-008     
  -0.7            -2.1656e-009    -1.1581e-009    6.46e-009      
  -0.75           2.601e-010      -2.2373e-009    -9.073e-009    
  -0.8            6.12e-011       -3.8063e-009    -9.671e-009    
  -0.85           1.1714e-009     -8.3856e-009    -1.3682e-008   
  -0.9            -1.2611e-009    -2.9812e-008    -9.503e-009    
  -0.95           -1.9889e-009    -8.4336e-008    4.847e-009     
  -1              5.07e-010       -1.9903e-007    -1.2996e-008   
  -1.05           8.348e-010      -4.0631e-007    9.547e-009     
  -1.1            1.2944e-009     -7.1161e-007    1.3098e-008    
  -1.15           2.678e-010      -1.1096e-006    8.447e-009     
  -1.2            -1.7522e-009    -1.5871e-006    -1.1474e-008   
  -1.25           1.6245e-009     -2.1181e-006    -1.3448e-008   
  -1.3            1.1427e-009     -2.6731e-006    -2.207e-009    
  -1.35           1.0771e-009     -3.2426e-006    -3.506e-009    
  -1.4            1.1508e-009     -3.8105e-006    -7.475e-009    
  -1.45           1.1614e-009     -4.3573e-006    -1.2035e-008   
  -1.5            1.2854e-009     -4.8941e-006    -1.6983e-008   
  -1.55           1.0679e-009     -5.4071e-006    -3.325e-009    
  -1.6            1.1235e-009     -5.9025e-006    -5.057e-009    
  -1.65           1.1702e-009     -6.3706e-006    -1.0843e-008   
  -1.7            1.479e-009      -6.8259e-006    -1.4849e-008   
  -1.75           1.0959e-009     -7.2534e-006    -3.449e-009    
  -1.8            1.0935e-009     -7.6625e-006    -4.1e-009      
END_DB

BEGIN_DB
 ICCAP_VAR VS         0              
 ICCAP_VAR VB         1.8            
 ICCAP_VAR VD         -1.8           

 #VG              IG              ID              IB             
  0               -1.2533e-009    -1.0713e-009    8.65e-009      
  -0.05           1.1578e-009     -1.177e-010     -1.4655e-008   
  -0.1            1.5567e-009     -2.288e-010     -1.6953e-008   
  -0.15           1.9996e-009     9.713e-010      -2.784e-009    
  -0.2            -1.2597e-009    1.1586e-009     9.223e-009     
  -0.25           -1.3249e-009    -1.2471e-009    6.814e-009     
  -0.3            1.087e-010      -1.879e-009     -9.675e-009    
  -0.35           1.1682e-009     2.47e-011       -1.2967e-008   
  -0.4            1.7618e-009     -1.384e-010     -1.5167e-008   
  -0.45           1.9057e-009     9.426e-010      -4.9e-010      
  -0.5            -1.2622e-009    1.0419e-009     9.098e-009     
  -0.55           -1.2061e-009    -1.3837e-009    4.226e-009     
  -0.6            1.1045e-009     -1.098e-009     -1.6755e-008   
  -0.65           -1.2537e-009    1.1201e-009     -9.905e-009    
  -0.7            -1.9423e-009    -1.6696e-009    1.0155e-008    
  -0.75           1.1658e-009     -4.6795e-009    -9.418e-009    
  -0.8            -2.4082e-009    -1.5239e-008    -1.5563e-008   
  -0.85           -4.105e-010     -5.4409e-008    -9.667e-009    
  -0.9            5.721e-010      -1.6281e-007    -1.4078e-008   
  -0.95           9.569e-010      -4.1127e-007    1.0513e-008    
  -1              1.4141e-009     -8.5319e-007    1.4017e-008    
  -1.05           -1.7844e-009    -1.5424e-006    -1.0471e-008   
  -1.1            1.168e-009      -2.5465e-006    -1.0946e-008   
  -1.15           1.4408e-009     -3.8269e-006    -1.4899e-008   
  -1.2            1.0866e-009     -5.4005e-006    -3.453e-009    
  -1.25           1.1025e-009     -7.2689e-006    -4.038e-009    
  -1.3            1.1623e-009     -9.4339e-006    -9.419e-009    
  -1.35           8.01e-011       -1.1813e-005    5.171e-009     
  -1.4            1.6271e-009     -1.4467e-005    -1.3193e-008   
  -1.45           1.1427e-009     -1.7319e-005    -2.187e-009    
  -1.5            1.0795e-009     -2.0377e-005    -3.325e-009    
  -1.55           1.1477e-009     -2.359e-005     -7.247e-009    
  -1.6            1.1674e-009     -2.6969e-005    -1.1869e-008   
  -1.65           1.2836e-009     -3.0505e-005    -1.6271e-008   
  -1.7            1.0676e-009     -3.4145e-005    -3.26e-009     
  -1.75           1.125e-009      -3.7953e-005    -5.033e-009    
  -1.8            1.1679e-009     -4.1796e-005    -1.0895e-008   
END_DB

