! VERSION = 6.00
BEGIN_HEADER
 ICCAP_INPUTS
  VG         V  B GROUND SMU4 0.001 LIN        1    0          -1.8       37   -0.05     
  VS         V  E GROUND SMU3 0.1 CON        0
  VB         V  C GROUND SMU1 0.1 LIN        3    0          1.8        3    0.9       
  VD         V  S GROUND SMU2 0.1 LIN        2    -0.1       -1.8       2    -1.7      
 ICCAP_OUTPUTS
  IG         I  B GROUND SMU4 B
  ID         I  S GROUND SMU2 B
  IB         I  C GROUND SMU1 B
END_HEADER

BEGIN_DB
 ICCAP_VAR VS         0              
 ICCAP_VAR VB         0              
 ICCAP_VAR VD         -0.1           

 #VG              IG              ID              IB             
  0               -1.0936e-009    -1.8191e-009    -1.4044e-008   
  -0.05           2.7252e-009     -2.188e-010     -1.1993e-008   
  -0.1            -1.5502e-009    3.0885e-009     1.1522e-008    
  -0.15           1.9841e-009     -2.8417e-009    -1.6205e-008   
  -0.2            -1.9174e-009    1.2011e-009     1.5913e-008    
  -0.25           2.1966e-009     -1.2687e-009    -1.7152e-008   
  -0.3            -2.0888e-009    1.036e-009      1.4388e-008    
  -0.35           2.3708e-009     -1.1173e-009    -1.7008e-008   
  -0.4            -2.2397e-009    7.574e-010      1.2635e-008    
  -0.45           2.5063e-009     -1.3167e-009    -1.6381e-008   
  -0.5            -1.239e-010     2.0455e-009     8.09e-009      
  -0.55           -2.5872e-009    -5.7387e-009    8.275e-009     
  -0.6            -2.441e-009     -2.0752e-008    -1.5589e-008   
  -0.65           2.2246e-009     -5.7722e-008    -1.6393e-008   
  -0.7            -5.703e-010     -1.5693e-007    8.336e-009     
  -0.75           1.466e-009      -3.649e-007     -1.7102e-008   
  -0.8            9.355e-010      -7.5047e-007    8.518e-009     
  -0.85           -1.6285e-009    -1.3765e-006    -7.279e-009    
  -0.9            2.6823e-009     -2.3563e-006    -1.2905e-008   
  -0.95           9.48e-011       -3.5948e-006    8.027e-009     
  -1              -2.0116e-009    -5.1427e-006    1.1632e-008    
  -1.05           1.6417e-009     -6.9469e-006    -1.8101e-008   
  -1.1            8.433e-010      -8.8388e-006    9.321e-009     
  -1.15           -2.6054e-009    -1.07835e-005   6.937e-009     
  -1.2            -1.9026e-009    -1.2803e-005    1.4086e-008    
  -1.25           1.4636e-009     -1.4824e-005    -1.7037e-008   
  -1.3            9.346e-010      -1.675e-005     8.625e-009     
  -1.35           -2.5791e-009    -1.8587e-005    7.054e-009     
  -1.4            2.5407e-009     -2.0447e-005    -1.4363e-008   
  -1.45           -1.7629e-009    -2.2113e-005    1.4125e-008    
  -1.5            2.6948e-009     -2.377e-005     -1.3537e-008   
  -1.55           7.53e-011       -2.529e-005     7.946e-009     
  -1.6            -2.0498e-009    -2.6766e-005    1.116e-008     
  -1.65           1.6739e-009     -2.8191e-005    -1.8579e-008   
  -1.7            8.285e-010      -2.9494e-005    9.336e-009     
  -1.75           -2.6048e-009    -3.0728e-005    7.024e-009     
  -1.8            2.641e-009      -3.1954e-005    -1.173e-008    
END_DB

BEGIN_DB
 ICCAP_VAR VS         0              
 ICCAP_VAR VB         0              
 ICCAP_VAR VD         -1.8           

 #VG              IG              ID              IB             
  0               -2.588e-010     8.705e-010      1.1112e-008    
  -0.05           2.0205e-009     -2.8259e-009    -1.6783e-008   
  -0.1            -1.9454e-009    1.1834e-009     1.5497e-008    
  -0.15           2.2345e-009     -1.2326e-009    -1.7e-008      
  -0.2            -2.1225e-009    1.0054e-009     1.4102e-008    
  -0.25           2.4176e-009     -1.0581e-009    -1.684e-008    
  -0.3            -2.2804e-009    7.901e-010      1.2356e-008    
  -0.35           2.5448e-009     -9.798e-010     -1.628e-008    
  -0.4            -1.552e-010     3.033e-009      7.873e-009     
  -0.45           -2.5861e-009    -3.3919e-009    8.226e-009     
  -0.5            1.9416e-009     -9.2457e-009    -1.562e-008    
  -0.55           2.694e-009      -1.8864e-008    1.5208e-008    
  -0.6            -1.4525e-009    -6.2671e-008    1.5938e-008    
  -0.65           8.511e-010      -1.8288e-007    -1.624e-008    
  -0.7            -2.6004e-009    -4.6858e-007    6.93e-009      
  -0.75           2.6308e-009     -1.08027e-006   -1.2006e-008   
  -0.8            -2.2352e-009    -2.1438e-006    -1.4949e-008   
  -0.85           1.7328e-009     -3.9549e-006    -1.6992e-008   
  -0.9            8.038e-010      -6.5397e-006    9.208e-009     
  -0.95           -2.6101e-009    -1.01004e-005   6.957e-009     
  -1              -7.604e-010     -1.4825e-005    1.395e-008     
  -1.05           2.7026e-009     -2.0688e-005    -7.929e-009    
  -1.1            -1.4249e-009    -2.7378e-005    1.5014e-008    
  -1.15           2.4128e-009     -3.5508e-005    -1.5693e-008   
  -1.2            -1.5751e-009    -4.4114e-005    1.5556e-008    
  -1.25           2.5402e-009     -5.4193e-005    -1.4276e-008   
  -1.3            -1.7585e-009    -6.4539e-005    1.4057e-008    
  -1.35           2.6392e-009     -7.617e-005     -1.1742e-008   
  -1.4            -1.9616e-009    -8.7824e-005    1.2179e-008    
  -1.45           1.5801e-009     -0.000100763    -1.7056e-008   
  -1.5            8.728e-010      -0.000113867    8.928e-009     
  -1.55           -1.42e-010      -0.00012725     8.3e-009       
  -1.6            -2.3432e-009    -0.0001413      8.564e-009     
  -1.65           1.9198e-009     -0.00015622     -1.7064e-008   
  -1.7            7.186e-010      -0.00017081     9.282e-009     
  -1.75           -2.6146e-009    -0.00018578     6.409e-009     
  -1.8            2.6998e-009     -0.00020165     -1.4159e-008   
END_DB

BEGIN_DB
 ICCAP_VAR VS         0              
 ICCAP_VAR VB         0.9            
 ICCAP_VAR VD         -0.1           

 #VG              IG              ID              IB             
  0               1.5167e-009     -1.005e-010     7.128e-009     
  -0.05           -1.727e-009     1.3532e-009     1.6995e-008    
  -0.1            2.2242e-009     -2.7079e-009    -2.0097e-008   
  -0.15           -2.1207e-009    1.0244e-009     1.3954e-008    
  -0.2            2.4088e-009     -1.0473e-009    -1.6693e-008   
  -0.25           -2.2844e-009    8.495e-010      1.2215e-008    
  -0.3            2.5582e-009     -8.42e-010      -1.6617e-008   
  -0.35           -1.653e-010     3.5546e-009     7.842e-009     
  -0.4            -2.5818e-009    -2.93e-011      8.12e-009      
  -0.45           1.9522e-009     -2.8575e-009    -1.5507e-008   
  -0.5            1.6763e-009     2.4332e-009     1.0598e-008    
  -0.55           -2.5487e-009    1.593e-010      8.411e-009     
  -0.6            1.6305e-009     -3.2102e-009    -1.136e-008    
  -0.65           -1.8295e-009    1.8263e-009     1.6052e-008    
  -0.7            2.1153e-009     -5.2828e-009    -1.6345e-008   
  -0.75           -2.3482e-009    -1.7141e-008    -1.5155e-008   
  -0.8            2.4107e-009     -5.0632e-008    -1.6354e-008   
  -0.85           -1.0037e-009    -1.8582e-007    1.2178e-008    
  -0.9            2.7268e-009     -3.6911e-007    -8.042e-009    
  -0.95           -1.246e-010     -7.9191e-007    8.082e-009     
  -1              -1.5991e-009    -1.5251e-006    -7.138e-009    
  -1.05           2.7079e-009     -2.672e-006     -1.3212e-008   
  -1.1            -2.1596e-009    -4.0997e-006    1.0306e-008    
  -1.15           1.5908e-009     -6.0252e-006    -1.6108e-008   
  -1.2            8.568e-010      -7.7973e-006    8.921e-009     
  -1.25           -2.5884e-009    -9.7895e-006    6.847e-009     
  -1.3            -1.6578e-009    -1.1828e-005    -7.832e-009    
  -1.35           2.6181e-009     -1.3914e-005    -1.3583e-008   
  -1.4            1.6946e-009     -1.586e-005     1.0214e-008    
  -1.45           -1.7832e-009    -1.7672e-005    1.3526e-008    
  -1.5            2.7115e-009     -1.9489e-005    -1.361e-008    
  -1.55           3.95e-011       -2.1114e-005    7.758e-009     
  -1.6            -2.116e-009     -2.2752e-005    1.0916e-008    
  -1.65           1.7508e-009     -2.4295e-005    -1.9862e-008   
  -1.7            7.863e-010      -2.5707e-005    9.061e-009     
  -1.75           -2.5976e-009    -2.7047e-005    6.583e-009     
  -1.8            2.6872e-009     -2.8339e-005    -1.1681e-008   
END_DB

BEGIN_DB
 ICCAP_VAR VS         0              
 ICCAP_VAR VB         0.9            
 ICCAP_VAR VD         -1.8           

 #VG              IG              ID              IB             
  0               1.4616e-009     -5.43e-011      7.575e-009     
  -0.05           -1.677e-009     1.3717e-009     1.7196e-008    
  -0.1            2.1693e-009     -2.7171e-009    -1.8944e-008   
  -0.15           -2.0908e-009    1.0333e-009     1.3507e-008    
  -0.2            2.3937e-009     -1.0638e-009    -1.5934e-008   
  -0.25           -2.2775e-009    8.553e-010      1.1718e-008    
  -0.3            2.5621e-009     -8.58e-010      -1.6057e-008   
  -0.35           -1.604e-010     3.5721e-009     8.086e-009     
  -0.4            -2.5898e-009    -1.19e-011      8.545e-009     
  -0.45           1.9061e-009     -2.8729e-009    -1.4331e-008   
  -0.5            -2.0539e-009    2.4773e-009     2.0562e-008    
  -0.55           2.3708e-009     -1.3779e-009    -1.5845e-008   
  -0.6            -2.257e-009     -3.744e-010     1.1916e-008    
  -0.65           2.5484e-009     -5.9152e-009    -1.6044e-008   
  -0.7            -2.5891e-009    -2.1852e-008    -1.8523e-008   
  -0.75           2.5974e-009     -7.0109e-008    -1.45e-008     
  -0.8            -9.639e-010     -2.1988e-007    1.1143e-008    
  -0.85           2.7364e-009     -5.9501e-007    -7.4e-009      
  -0.9            -1.9314e-009    -1.3613e-006    -1.3099e-008   
  -0.95           2.7477e-009     -2.9948e-006    -1.6909e-008   
  -1              -6.3e-011       -5.0328e-006    7.946e-009     
  -1.05           -2.2537e-009    -8.331e-006     9.238e-009     
  -1.1            6.021e-010      -1.2827e-005    -1.5554e-008   
  -1.15           -2.5785e-009    -1.8419e-005    4.949e-009     
  -1.2            1.5753e-009     -2.5392e-005    -1.5763e-008   
  -1.25           8.499e-010      -3.3191e-005    8.564e-009     
  -1.3            -2.6048e-009    -4.1913e-005    6.834e-009     
  -1.35           2.6658e-009     -5.1995e-005    -1.274e-008    
  -1.4            -1.8994e-009    -6.2284e-005    1.1369e-008    
  -1.45           2.7535e-009     -7.3885e-005    -1.5584e-008   
  -1.5            -5.2e-011       -8.5646e-005    7.96e-009      
  -1.55           -2.2324e-009    -9.8163e-005    9.317e-009     
  -1.6            1.6878e-009     -0.000111608    -1.5805e-008   
  -1.65           6.584e-010      -0.00012489     1.6369e-008    
  -1.7            -2.5838e-009    -0.00013879     5.379e-009     
  -1.75           2.7535e-009     -0.00015347     -1.4496e-008   
  -1.8            1.4241e-009     -0.00016849     8.402e-009     
END_DB

BEGIN_DB
 ICCAP_VAR VS         0              
 ICCAP_VAR VB         1.8            
 ICCAP_VAR VD         -0.1           

 #VG              IG              ID              IB             
  0               1.0094e-009     1.7026e-009     8.802e-009     
  -0.05           -1.5118e-009    3.0791e-009     1.0926e-008    
  -0.1            2.7532e-009     -6.56e-011      -1.0979e-008   
  -0.15           -1.6978e-009    1.3277e-009     1.7045e-008    
  -0.2            1.9713e-009     -1.3819e-009    -1.615e-008    
  -0.25           -1.9156e-009    1.1423e-009     1.4634e-008    
  -0.3            2.2175e-009     -1.193e-009     -1.5725e-008   
  -0.35           -2.1246e-009    9.623e-010      1.2617e-008    
  -0.4            2.5794e-009     -2.3211e-009    -2.3404e-008   
  -0.45           1.256e-009      3.627e-009      8.743e-009     
  -0.5            -2.5745e-009    -4.116e-010     7.039e-009     
  -0.55           2.3868e-009     -2.5216e-009    -2.178e-008    
  -0.6            -2.275e-009     7.943e-010      1.0876e-008    
  -0.65           2.671e-009      -2.2228e-009    -2.375e-008    
  -0.7            -1.3361e-009    3.0587e-009     8.168e-009     
  -0.75           2.7467e-009     -1.7304e-009    -1.3713e-008   
  -0.8            -1.45e-009      -2.7187e-009    1.0031e-008    
  -0.85           -2.3688e-009    -2.3783e-008    -1.5318e-008   
  -0.9            2.2865e-009     -7.0817e-008    -2.3632e-008   
  -0.95           -1.2274e-009    -1.9313e-007    1.5346e-008    
  -1              2.0645e-009     -4.7462e-007    -2.224e-008    
  -1.05           6.022e-010      -1.01119e-006   9.223e-009     
  -1.1            -2.3044e-009    -1.9077e-006    -1.5524e-008   
  -1.15           2.4169e-009     -3.2157e-006    -1.5367e-008   
  -1.2            -1.5622e-009    -4.791e-006     1.4522e-008    
  -1.25           2.5802e-009     -6.7027e-006    -1.4208e-008   
  -1.3            -1.7644e-009    -8.6406e-006    1.222e-008     
  -1.35           2.7446e-009     -1.07255e-005   -1.366e-008    
  -1.4            2.442e-010      -1.2705e-005    -1.3884e-008   
  -1.45           -1.7498e-009    -1.4666e-005    1.255e-008     
  -1.5            2.6919e-009     -1.6601e-005    -1.1759e-008   
  -1.55           1.569e-010      -1.8341e-005    8.84e-009      
  -1.6            -1.9082e-009    -2.0038e-005    1.1065e-008    
  -1.65           2.7559e-009     -2.1668e-005    -1.5929e-008   
  -1.7            -6.75e-011      -2.3147e-005    8.167e-009     
  -1.75           -2.236e-009     -2.4589e-005    8.932e-009     
  -1.8            1.731e-009      -2.5973e-005    -1.5739e-008   
END_DB

BEGIN_DB
 ICCAP_VAR VS         0              
 ICCAP_VAR VB         1.8            
 ICCAP_VAR VD         -1.8           

 #VG              IG              ID              IB             
  0               -7.206e-010     3.728e-010      -7.352e-009    
  -0.05           2.6765e-009     -5.745e-010     -1.5999e-008   
  -0.1            -1.3319e-009    3.3205e-009     7.926e-009     
  -0.15           2.7153e-009     -3.267e-010     -1.3699e-008   
  -0.2            -1.4779e-009    3.1148e-009     1.0141e-008    
  -0.25           1.9234e-009     -2.8499e-009    -1.4942e-008   
  -0.3            -1.887e-009     1.2113e-009     1.5216e-008    
  -0.35           2.1945e-009     -1.2609e-009    -1.6271e-008   
  -0.4            -2.1105e-009    1.0253e-009     1.3639e-008    
  -0.45           2.4174e-009     -1.0535e-009    -1.638e-008    
  -0.5            -2.3003e-009    8.249e-010      1.179e-008     
  -0.55           2.5753e-009     -8.436e-010     -1.6483e-008   
  -0.6            1.2781e-009     3.5202e-009     9.037e-009     
  -0.65           -2.5828e-009    -2.228e-009     6.872e-009     
  -0.7            2.4089e-009     -3.5393e-009    -1.655e-008    
  -0.75           -2.5853e-009    -1.2256e-008    9.219e-009     
  -0.8            2.7172e-009     -4.3922e-008    -1.44e-008     
  -0.85           -1.3413e-009    -1.4202e-007    1.7077e-008    
  -0.9            2.6109e-009     -4.0994e-007    -1.3636e-008   
  -0.95           -1.8522e-009    -1.00104e-006   1.2756e-008    
  -1              2.7199e-009     -2.2206e-006    8.772e-009     
  -1.05           -1.331e-010     -4.1758e-006    8.234e-009     
  -1.1            -2.3333e-009    -7.2029e-006    9.252e-009     
  -1.15           -2.5833e-009    -1.1435e-005    9.483e-009     
  -1.2            2.7221e-009     -1.6959e-005    -1.4413e-008   
  -1.25           1.4473e-009     -2.3686e-005    8.614e-009     
  -1.3            -1.4373e-009    -3.1061e-005    1.4966e-008    
  -1.35           2.4802e-009     -4.003e-005     -1.5971e-008   
  -1.4            -1.6255e-009    -4.9393e-005    1.4277e-008    
  -1.45           2.6231e-009     -6.0166e-005    -1.3829e-008   
  -1.5            -1.8536e-009    -7.1047e-005    1.2432e-008    
  -1.55           2.7212e-009     -8.3176e-005    -1.4928e-008   
  -1.6            1.4327e-009     -9.5844e-005    7.612e-009     
  -1.65           -1.4508e-009    -0.000108253    1.5449e-008    
  -1.7            -1.6624e-009    -0.00012159     -1.5982e-008   
  -1.75           2.1219e-009     -0.00013593     -1.6383e-008   
  -1.8            6.059e-010      -0.00014996     9.607e-009     
END_DB

