! VERSION = 6.00
BEGIN_HEADER
 ICCAP_INPUTS
  VG         V  B GROUND SMU4 0.001 LIN        2    0          -1.8       6    -0.36     
  VS         V  E GROUND SMU3 0.1 CON        0
  VD         V  S GROUND SMU2 0.1 LIN        1    0          -1.8       37   -0.05     
  VB         V  C GROUND SMU1 0.1 LIN        3    0          0.9        2    0.9       
 ICCAP_OUTPUTS
  ID         I  S GROUND SMU2 B
  IB         I  C GROUND SMU1 B
  IG         I  B GROUND SMU4 B
END_HEADER

BEGIN_DB
 ICCAP_VAR VG         0              
 ICCAP_VAR VS         0              
 ICCAP_VAR VB         0              

 #VD              ID              IB              IG             
  0               9.866e-010      1.206e-008      -2.73e-010     
  -0.05           -2.8054e-009    -1.6805e-008    2.0185e-009    
  -0.1            1.1721e-009     1.557e-008      -1.9232e-009   
  -0.15           -1.2418e-009    -1.73e-008      2.1896e-009    
  -0.2            1.0358e-009     1.4402e-008     -2.0711e-009   
  -0.25           -1.0962e-009    -1.7077e-008    2.3374e-009    
  -0.3            8.93e-010       1.3073e-008     -2.2012e-009   
  -0.35           -9.201e-010     -1.6686e-008    2.4657e-009    
  -0.4            3.6326e-009     8.178e-009      -1.047e-010    
  -0.45           8.27e-011       8.362e-009      -2.5667e-009   
  -0.5            -2.9328e-009    -1.3353e-008    1.764e-009     
  -0.55           4.0615e-009     9.529e-009      3.238e-010     
  -0.6            -2.8428e-009    -1.5973e-008    1.9567e-009    
  -0.65           2.4539e-009     1.0647e-008     1.6811e-009    
  -0.7            2.276e-010      8.242e-009      -2.5375e-009   
  -0.75           -1.604e-010     -1.14e-008      2.7147e-009    
  -0.8            8.69e-011       8.356e-009      -2.5675e-009   
  -0.85           -2.9242e-009    -1.3421e-008    1.7707e-009    
  -0.9            2.7086e-009     1.8148e-008     -1.9062e-009   
  -0.95           -1.2609e-009    -1.7144e-008    2.1652e-009    
  -1              1.0534e-009     1.4662e-008     -2.0588e-009   
  -1.05           -1.112e-009     -1.7327e-008    2.3253e-009    
  -1.1            9.138e-010      1.3131e-008     -2.1889e-009   
  -1.15           -9.429e-010     -1.6817e-008    2.4514e-009    
  -1.2            7.632e-010      1.1577e-008     -2.2972e-009   
  -1.25           -7.776e-010     -1.6268e-008    2.5467e-009    
  -1.3            3.5228e-009     7.731e-009      -2.3905e-009   
  -1.35           -6.066e-010     -1.5618e-008    2.624e-009     
  -1.4            3.3898e-009     7.647e-009      -1.3121e-009   
  -1.45           -4.264e-010     -1.4557e-008    2.6743e-009    
  -1.5            3.2538e-009     8.604e-009      -1.3918e-009   
  -1.55           -2.467e-010     -1.2413e-008    2.704e-009     
  -1.6            3.1145e-009     1.0521e-008     -1.5026e-009   
  -1.65           -2.8576e-009    -1.5183e-008    1.9148e-009    
  -1.7            2.3877e-009     1.0421e-008     1.6981e-009    
  -1.75           2.732e-010      8.316e-009      -2.522e-009    
  -1.8            -2.113e-010     -1.2053e-008    2.7065e-009    
END_DB

BEGIN_DB
 ICCAP_VAR VG         -0.36          
 ICCAP_VAR VS         0              
 ICCAP_VAR VB         0              

 #VD              ID              IB              IG             
  0               -1.2275e-009    -1.6459e-008    1.892e-010     
  -0.05           2.8207e-009     1.4277e-008     -1.7059e-009   
  -0.1            -2.7752e-009    -1.904e-008     2.1714e-009    
  -0.15           9.713e-010      1.4111e-008     -2.056e-009    
  -0.2            -1.2025e-009    -1.6578e-008    2.3244e-009    
  -0.25           8.363e-010      1.2834e-008     -2.1904e-009   
  -0.3            -1.0576e-009    -1.6486e-008    2.4576e-009    
  -0.35           3.5563e-009     8.385e-009      -8.22e-011     
  -0.4            1.72e-011       8.65e-009       -2.5602e-009   
  -0.45           -3.0618e-009    -1.2314e-008    1.7006e-009    
  -0.5            3.9317e-009     9.599e-009      3.619e-010     
  -0.55           6.708e-010      1.1875e-008     -2.2942e-009   
  -0.6            -9.779e-010     -1.6226e-008    2.5466e-009    
  -0.65           3.4002e-009     7.934e-009      -1.555e-010    
  -0.7            -1.636e-010     8.602e-009      -2.5754e-009   
  -0.75           -3.0592e-009    -1.417e-008     1.8554e-009    
  -0.8            2.1101e-009     1.0143e-008     1.7173e-009    
  -0.85           1.112e-010      8.687e-009      -2.5281e-009   
  -0.9            -4.853e-010     -1.3018e-008    2.7168e-009    
  -0.95           -6.79e-011      8.646e-009      -2.5542e-009   
  -1              -3.2201e-009    -1.1785e-008    1.6481e-009    
  -1.05           3.8085e-009     9.48e-009       3.873e-010     
  -1.1            5.528e-010      1.2293e-008     -2.2569e-009   
  -1.15           -1.1757e-009    -1.6288e-008    2.5218e-009    
  -1.2            3.258e-009      8.078e-009      -1.31e-010     
  -1.25           -3.023e-010     8.604e-009      -2.5728e-009   
  -1.3            -3.2751e-009    -1.3569e-008    1.8023e-009    
  -1.35           2.2634e-009     1.8596e-008     -1.9339e-009   
  -1.4            -1.659e-009     -1.6322e-008    2.2059e-009    
  -1.45           5.622e-010      1.3841e-008     -2.083e-009    
  -1.5            -1.5602e-009    -1.6507e-008    2.3656e-009    
  -1.55           3.642e-010      1.2537e-008     -2.2245e-009   
  -1.6            -1.4674e-009    -1.6471e-008    2.4866e-009    
  -1.65           1.501e-010      1.1151e-008     -2.3338e-009   
  -1.7            -1.3789e-009    -1.6116e-008    2.5828e-009    
  -1.75           2.9952e-009     7.769e-009      1.2617e-009    
  -1.8            -2.3696e-009    6.995e-009      -2.5905e-009   
END_DB

BEGIN_DB
 ICCAP_VAR VG         -0.72          
 ICCAP_VAR VS         0              
 ICCAP_VAR VB         0              

 #VD              ID              IB              IG             
  0               7.618e-009      -1.3392e-008    2.6577e-009    
  -0.05           -2.5584e-007    8.88e-009       -2.4643e-009   
  -0.1            -3.5816e-007    8.136e-009      -2.5128e-009   
  -0.15           -4.112e-007     7.776e-009      -2.5462e-009   
  -0.2            -4.4738e-007    6.99e-009       -2.5689e-009   
  -0.25           -4.776e-007     7.008e-009      -2.5861e-009   
  -0.3            -5.0545e-007    6.605e-009      -2.5993e-009   
  -0.35           -5.3247e-007    6.253e-009      -2.601e-009    
  -0.4            -5.5878e-007    5.313e-009      -2.5905e-009   
  -0.45           -5.8304e-007    1.7114e-008     -1.404e-009    
  -0.5            -6.0931e-007    1.571e-008      -1.5105e-009   
  -0.55           -6.3508e-007    1.4742e-008     -1.6397e-009   
  -0.6            -6.6091e-007    1.345e-008      -1.7859e-009   
  -0.65           -6.8724e-007    1.2245e-008     -1.9315e-009   
  -0.7            -7.1225e-007    1.3628e-008     -1.3797e-009   
  -0.75           -7.3888e-007    1.597e-008      -1.4785e-009   
  -0.8            -7.6558e-007    1.4897e-008     -1.612e-009    
  -0.85           -7.924e-007     1.3839e-008     -1.7432e-009   
  -0.9            -8.1997e-007    1.2467e-008     -1.8941e-009   
  -0.95           -8.4669e-007    1.2941e-008     -1.3557e-009   
  -1              -8.7449e-007    1.612e-008      -1.4492e-009   
  -1.05           -9.0285e-007    1.5168e-008     -1.5754e-009   
  -1.1            -9.3186e-007    1.4123e-008     -1.7143e-009   
  -1.15           -9.6081e-007    1.2774e-008     -1.8589e-009   
  -1.2            -9.9071e-007    1.1384e-008     -2.0085e-009   
  -1.25           -1.01967e-006   1.4975e-008     -1.429e-009    
  -1.3            -1.05025e-006   1.5408e-008     -1.5409e-009   
  -1.35           -1.08095e-006   1.4431e-008     -1.6796e-009   
  -1.4            -1.11252e-006   1.3133e-008     -1.8243e-009   
  -1.45           -1.1513e-006    -1.663e-008     -2.456e-009    
  -1.5            -1.1802e-006    1.1363e-008     -2.0353e-009   
  -1.55           -1.2112e-006    8.764e-009      -2.314e-009    
  -1.6            -1.2434e-006    8.371e-009      -2.483e-009    
  -1.65           -1.2767e-006    7.152e-009      -2.5579e-009   
  -1.7            -1.3105e-006    6.826e-009      -2.5998e-009   
  -1.75           -1.3452e-006    5.069e-009      -2.5886e-009   
  -1.8            -1.3814e-006    1.5221e-008     -1.5864e-009   
END_DB

BEGIN_DB
 ICCAP_VAR VG         -1.08          
 ICCAP_VAR VS         0              
 ICCAP_VAR VB         0              

 #VD              ID              IB              IG             
  0               1.3157e-008     -1.5538e-008    1.138e-009     
  -0.05           -5.2147e-006    -1.7335e-008    -2.3989e-009   
  -0.1            -9.2964e-006    1.0271e-008     -2.1255e-009   
  -0.15           -1.2448e-005    -1.6627e-008    5.839e-010     
  -0.2            -1.4751e-005    1.7998e-008     -1.3509e-009   
  -0.25           -1.6477e-005    2.008e-008      -1.2581e-009   
  -0.3            -1.7778e-005    8.322e-009      -2.3709e-009   
  -0.35           -1.8796e-005    9.055e-009      -2.2247e-009   
  -0.4            -1.9619e-005    1.3016e-008     -1.3548e-009   
  -0.45           -2.0303e-005    1.9847e-008     -1.2643e-009   
  -0.5            -2.0898e-005    8.221e-009      -2.3818e-009   
  -0.55           -2.1444e-005    1.7469e-008     -1.5334e-009   
  -0.6            -2.1946e-005    1.796e-008      -1.3649e-009   
  -0.65           -2.2394e-005    8.337e-009      -2.4882e-009   
  -0.7            -2.2839e-005    8.114e-009      -2.3887e-009   
  -0.75           -2.3263e-005    1.772e-008      -1.5402e-009   
  -0.8            -2.3674e-005    1.7847e-008     -1.3705e-009   
  -0.85           -2.4062e-005    1.9747e-008     -1.2689e-009   
  -0.9            -2.4433e-005    8.165e-009      -2.3907e-009   
  -0.95           -2.4813e-005    8.9e-009        -2.2424e-009   
  -1              -2.5182e-005    1.3624e-008     -1.3765e-009   
  -1.05           -2.5537e-005    1.9675e-008     -1.2717e-009   
  -1.1            -2.588e-005     8.139e-009      -2.3961e-009   
  -1.15           -2.6232e-005    8.917e-009      -2.2489e-009   
  -1.2            -2.6582e-005    1.3899e-008     -1.3851e-009   
  -1.25           -2.6916e-005    1.9532e-008     -1.2821e-009   
  -1.3            -2.7242e-005    8.143e-009      -2.41e-009     
  -1.35           -2.7574e-005    8.705e-009      -2.268e-009    
  -1.4            -2.7916e-005    1.4e-008        -1.3946e-009   
  -1.45           -2.8239e-005    1.9526e-008     -1.2838e-009   
  -1.5            -2.8556e-005    8.246e-009      -2.4129e-009   
  -1.55           -2.888e-005     8.636e-009      -2.2725e-009   
  -1.6            -2.9209e-005    1.4268e-008     -1.4017e-009   
  -1.65           -2.9525e-005    1.9335e-008     -1.2878e-009   
  -1.7            -2.9837e-005    8.104e-009      -2.4172e-009   
  -1.75           -3.0156e-005    8.643e-009      -2.2807e-009   
  -1.8            -3.0485e-005    1.4536e-008     -1.4076e-009   
END_DB

BEGIN_DB
 ICCAP_VAR VG         -1.44          
 ICCAP_VAR VS         0              
 ICCAP_VAR VB         0              

 #VD              ID              IB              IG             
  0               1.495e-008      1.2382e-008     -9.091e-010    
  -0.05           -1.2273e-005    1.3174e-008     -7.078e-010    
  -0.1            -2.3532e-005    1.483e-009      -1.9402e-009   
  -0.15           -3.3738e-005    1.4257e-008     -1.7265e-009   
  -0.2            -4.2894e-005    1.5901e-008     -1.5073e-009   
  -0.25           -5.0978e-005    1.8014e-008     -1.3468e-009   
  -0.3            -5.8078e-005    8.229e-009      -2.4844e-009   
  -0.35           -6.4197e-005    8.371e-009      -2.3802e-009   
  -0.4            -6.9428e-005    1.7255e-008     -1.5132e-009   
  -0.45           -7.3881e-005    1.7836e-008     -1.3525e-009   
  -0.5            -7.7629e-005    1.9933e-008     -1.2602e-009   
  -0.55           -8.0778e-005    8.523e-009      -2.3895e-009   
  -0.6            -8.3509e-005    1.7398e-008     -1.5168e-009   
  -0.65           -8.5941e-005    1.7744e-008     -1.3534e-009   
  -0.7            -8.8001e-005    2.0003e-008     -1.2607e-009   
  -0.75           -8.9824e-005    8.445e-009      -2.3956e-009   
  -0.8            -9.1484e-005    9.089e-009      -2.2417e-009   
  -0.85           -9.2977e-005    1.3112e-008     -1.3656e-009   
  -0.9            -9.4342e-005    1.9857e-008     -1.2698e-009   
  -0.95           -9.5544e-005    8.379e-009      -2.4042e-009   
  -1              -9.6822e-005    9.008e-009      -2.2518e-009   
  -1.05           -9.7961e-005    1.3449e-008     -1.3706e-009   
  -1.1            -9.9038e-005    1.9646e-008     -1.2696e-009   
  -1.15           -0.000100063    8.303e-009      -2.4103e-009   
  -1.2            -0.00010105     1.8132e-008     -1.5526e-009   
  -1.25           -0.000102029    1.7384e-008     -1.3782e-009   
  -1.3            -0.000102958    1.9556e-008     -1.2737e-009   
  -1.35           -0.000103846    8.499e-009      -2.4133e-009   
  -1.4            -0.000104743    8.798e-009      -2.2704e-009   
  -1.45           -0.000105616    1.3737e-008     -1.3889e-009   
  -1.5            -0.000106448    1.9477e-008     -1.2748e-009   
  -1.55           -0.000107275    8.297e-009      -2.4171e-009   
  -1.6            -0.000108095    8.933e-009      -2.2787e-009   
  -1.65           -0.000108915    1.3978e-008     -1.3893e-009   
  -1.7            -0.000109704    1.9418e-008     -1.2833e-009   
  -1.75           -0.000110471    8.528e-009      -2.4271e-009   
  -1.8            -0.000111249    8.716e-009      -2.2912e-009   
END_DB

BEGIN_DB
 ICCAP_VAR VG         -1.8           
 ICCAP_VAR VS         0              
 ICCAP_VAR VB         0              

 #VD              ID              IB              IG             
  0               1.3928e-008     -1.666e-008     -9.322e-010    
  -0.05           -1.7381e-005    9.989e-009      -4.971e-010    
  -0.1            -3.4051e-005    -1.6485e-008    1.5922e-009    
  -0.15           -4.9931e-005    -1.7204e-008    2.7102e-009    
  -0.2            -6.5018e-005    -1.0331e-008    2.6731e-009    
  -0.25           -7.9205e-005    -1.3365e-008    2.5853e-009    
  -0.3            -9.2521e-005    -1.7147e-008    1.6012e-009    
  -0.35           -0.000104971    -1.7126e-008    2.7115e-009    
  -0.4            -0.0001164      -1.6993e-008    -5.807e-010    
  -0.45           -0.00012703     -1.6884e-008    1.9076e-009    
  -0.5            -0.0001367      -1.6823e-008    2.0816e-009    
  -0.55           -0.00014541     -1.3352e-008    2.6906e-009    
  -0.6            -0.00015335     -8.76e-009      2.7106e-009    
  -0.65           -0.0001604      -7.876e-009     2.7191e-009    
  -0.7            -0.00016668     -7.227e-009     2.7164e-009    
  -0.75           -0.0001723      -7.282e-009     2.7048e-009    
  -0.8            -0.00017727     -7.848e-009     2.6875e-009    
  -0.85           -0.00018173     -8.093e-009     2.6539e-009    
  -0.9            -0.00018576     -1.6644e-008    1.4241e-009    
  -0.95           -0.00018929     -1.6373e-008    1.5825e-009    
  -1              -0.00019252     -1.6783e-008    1.7519e-009    
  -1.05           -0.00019547     -1.6766e-008    1.9383e-009    
  -1.1            -0.00019814     -1.6593e-008    2.1126e-009    
  -1.15           -0.00020063     -1.3595e-008    2.6924e-009    
  -1.2            -0.00020294     -8.466e-009     2.7113e-009    
  -1.25           -0.00020501     -7.743e-009     2.7139e-009    
  -1.3            -0.00020697     -7.146e-009     2.7128e-009    
  -1.35           -0.00020882     -7.312e-009     2.7042e-009    
  -1.4            -0.0002106      -7.918e-009     2.6846e-009    
  -1.45           -0.00021225     -8.058e-009     2.6501e-009    
  -1.5            -0.00021391     -1.6586e-008    1.446e-009     
  -1.55           -0.00021549     -1.6242e-008    1.5993e-009    
  -1.6            -0.000217       -1.6756e-008    1.7815e-009    
  -1.65           -0.00021846     -1.6882e-008    1.9647e-009    
  -1.7            -0.00021987     -1.6742e-008    2.1383e-009    
  -1.75           -0.00022126     -1.3806e-008    2.701e-009     
  -1.8            -0.00022276     -8.36e-009      2.7132e-009    
END_DB

BEGIN_DB
 ICCAP_VAR VG         0              
 ICCAP_VAR VS         0              
 ICCAP_VAR VB         0.9            

 #VD              ID              IB              IG             
  0               -7.967e-010     9.446e-009      3.952e-010     
  -0.05           1.1415e-009     1.4817e-008     -1.9696e-009   
  -0.1            -1.2118e-009    -1.6621e-008    2.2444e-009    
  -0.15           9.996e-010      1.3772e-008     -2.1216e-009   
  -0.2            -1.0588e-009    -1.6744e-008    2.4016e-009    
  -0.25           8.643e-010      1.2278e-008     -2.2571e-009   
  -0.3            -9.008e-010     -1.6404e-008    2.5148e-009    
  -0.35           3.6011e-009     8.09e-009       -1.199e-010    
  -0.4            6.99e-011       8.543e-009      -2.5648e-009   
  -0.45           -2.9038e-009    -1.332e-008     1.7876e-009    
  -0.5            2.6765e-009     1.8586e-008     -1.9319e-009   
  -0.55           -1.2411e-009    -1.6474e-008    2.2138e-009    
  -0.6            1.0318e-009     1.4045e-008     -2.0982e-009   
  -0.65           -1.0896e-009    -1.6801e-008    2.3718e-009    
  -0.7            9.006e-010      1.2655e-008     -2.2274e-009   
  -0.75           -9.287e-010     -1.6579e-008    2.4968e-009    
  -0.8            7.577e-010      1.137e-008      -2.3414e-009   
  -0.85           -7.671e-010     -1.6571e-008    2.5886e-009    
  -0.9            3.5054e-009     7.612e-009      -2.4255e-009   
  -0.95           -5.868e-010     -1.6094e-008    2.6559e-009    
  -1              3.3611e-009     7.65e-009       -1.3092e-009   
  -1.05           -4.212e-010     -1.4591e-008    2.6968e-009    
  -1.1            3.2263e-009     8.638e-009      -1.3896e-009   
  -1.15           -2.462e-010     -1.2382e-008    2.7163e-009    
  -1.2            1.43e-010       8.381e-009      -2.5538e-009   
  -1.25           -2.9469e-009    -1.1973e-008    1.6918e-009    
  -1.3            4.0664e-009     9.711e-009      3.676e-010     
  -1.35           -2.8603e-009    -1.4661e-008    1.8856e-009    
  -1.4            2.3382e-009     1.0338e-008     1.7008e-009    
  -1.45           2.956e-010      8.638e-009      -2.5283e-009   
  -1.5            -2.43e-010      -1.2248e-008    2.7091e-009    
  -1.55           3.086e-009      1.049e-008      -1.5141e-009   
  -1.6            -2.8427e-009    -1.5344e-008    1.931e-009     
  -1.65           2.401e-009      1.0475e-008     1.6814e-009    
  -1.7            2.699e-010      8.476e-009      -2.5315e-009   
  -1.75           -1.964e-010     -1.1798e-008    2.7121e-009    
  -1.8            3.0522e-009     1.1065e-008     -1.539e-009    
END_DB

BEGIN_DB
 ICCAP_VAR VG         -0.36          
 ICCAP_VAR VS         0              
 ICCAP_VAR VB         0.9            

 #VD              ID              IB              IG             
  0               -1.7864e-009    -1.2904e-008    -1.0609e-009   
  -0.05           -4.237e-010     -1.431e-008     2.6818e-009    
  -0.1            3.2482e-009     8.753e-009      -1.3928e-009   
  -0.15           -2.563e-010     -1.24e-008      2.7052e-009    
  -0.2            3.1229e-009     1.0598e-008     -1.5033e-009   
  -0.25           -2.8723e-009    -1.4911e-008    1.8869e-009    
  -0.3            2.3462e-009     1.0734e-008     1.7172e-009    
  -0.35           3.035e-010      8.422e-009      -2.5183e-009   
  -0.4            -2.472e-010     -1.2341e-008    2.7076e-009    
  -0.45           1.605e-010      8.341e-009      -2.5486e-009   
  -0.5            -2.9668e-009    -1.212e-008     1.6594e-009    
  -0.55           4.0989e-009     9.52e-009       3.866e-010     
