! VERSION = 6.00
BEGIN_HEADER
 ICCAP_INPUTS
  VG         V  B GROUND SMU4 0.001 LIN        1    0          -1.8       37   -0.05     
  VS         V  E GROUND SMU2 0.1 CON        0
  VB         V  C GROUND SMU3 0.1 LIN        3    0          1.8        3    0.9       
  VD         V  S GROUND SMU1 0.1 LIN        2    -0.1       -1.8       2    -1.7      
 ICCAP_OUTPUTS
  IG         I  B GROUND SMU4 B
  ID         I  S GROUND SMU1 B
  IB         I  C GROUND SMU3 B
END_HEADER

BEGIN_DB
 ICCAP_VAR VS         0              
 ICCAP_VAR VB         0              
 ICCAP_VAR VD         -0.1           

 #VG              IG              ID              IB             
  0               -1.2338e-009    -1.0525e-009    -9.533e-009    
  -0.05           1.7744e-009     -1.456e-010     -1.449e-008    
  -0.1            1.0784e-009     1.3072e-009     1.4044e-008    
  -0.15           1.2479e-009     1.1412e-009     1.4768e-008    
  -0.2            3.2e-011        1.6982e-009     8.295e-009     
  -0.25           1.782e-010      1.7839e-009     8.624e-009     
  -0.3            -1.2535e-009    6.811e-010      8.62e-009      
  -0.35           -7.372e-010     -1.7804e-009    2.882e-009     
  -0.4            2.0269e-009     9.826e-010      -1.1167e-008   
  -0.45           -1.2406e-009    1.1884e-009     1.1397e-008    
  -0.5            -1.3592e-009    -1.1922e-009    7.25e-009      
  -0.55           1.86e-011       -1.8807e-009    -9.399e-009    
  -0.6            1.1591e-009     -1.054e-010     -1.3056e-008   
  -0.65           1.7382e-009     -4.165e-010     -1.5148e-008   
  -0.7            -2.2427e-009    -1.9879e-009    1.4089e-008    
  -0.75           2.307e-010      -5.8033e-009    -9.041e-009    
  -0.8            1.1631e-009     -1.2769e-008    7.74e-010      
  -0.85           1.5823e-009     -4.5577e-008    1.5942e-008    
  -0.9            8.226e-010      -1.2273e-007    -1.8366e-008   
  -0.95           1.25e-009       -2.7289e-007    1.323e-008     
  -1              2.438e-010      -5.1444e-007    8.232e-009     
  -1.05           5.149e-010      -8.6272e-007    8.414e-009     
  -1.1            -2.1806e-009    -1.2934e-006    -1.6273e-008   
  -1.15           -1.169e-010     -1.8031e-006    -9.279e-009    
  -1.2            1.4475e-009     -2.3688e-006    -1.4767e-008   
  -1.25           1.0964e-009     -2.9618e-006    -3.393e-009    
  -1.3            1.0896e-009     -3.5801e-006    -3.968e-009    
  -1.35           1.1514e-009     -4.2032e-006    -9.041e-009    
  -1.4            1.7411e-009     -4.8269e-006    -1.2231e-008   
  -1.45           1.216e-009      -5.4435e-006    -1.216e-009    
  -1.5            1.0687e-009     -6.0515e-006    -3.13e-009     
  -1.55           1.1254e-009     -6.6467e-006    -5.708e-009    
  -1.6            1.1557e-009     -7.2228e-006    -1.0874e-008   
  -1.65           1.4611e-009     -7.7849e-006    -1.472e-008    
  -1.7            1.1002e-009     -8.328e-006     -3.475e-009    
  -1.75           1.0898e-009     -8.8542e-006    -3.892e-009    
  -1.8            1.1498e-009     -9.3676e-006    -8.697e-009    
END_DB

BEGIN_DB
 ICCAP_VAR VS         0              
 ICCAP_VAR VB         0              
 ICCAP_VAR VD         -1.8           

 #VG              IG              ID              IB             
  0               -1.2095e-009    -1.0498e-009    -1.0176e-008   
  -0.05           2.379e-010      -1.7629e-009    -9.006e-009    
  -0.1            5.51e-011       -1.8485e-009    -9.441e-009    
  -0.15           1.1584e-009     -9.9e-012       -1.2284e-008   
  -0.2            1.758e-009      -1.446e-010     -1.4658e-008   
  -0.25           1.0757e-009     1.2892e-009     1.372e-008     
  -0.3            1.2609e-009     1.1309e-009     1.5112e-008    
  -0.35           4.14e-011       1.6886e-009     8.387e-009     
  -0.4            1.822e-010      1.7824e-009     8.979e-009     
  -0.45           -1.2593e-009    6.864e-010      8.748e-009     
  -0.5            -7.441e-010     -1.7717e-009    2.882e-009     
  -0.55           2.0145e-009     9.709e-010      -1.1101e-008   
  -0.6            -1.2377e-009    1.1426e-009     1.1553e-008    
  -0.65           -2.1883e-009    -1.3058e-009    7.608e-009     
  -0.7            1.345e-010      -2.8781e-009    -9.42e-009     
  -0.75           1.1556e-009     -4.4248e-009    -1.1639e-008   
  -0.8            -2.2692e-009    -1.7158e-008    -1.2502e-008   
  -0.85           1.1532e-009     -5.263e-008     -1.003e-008    
  -0.9            6.2e-012        -1.4584e-007    2.083e-009     
  -0.95           1.5847e-009     -3.4004e-007    -1.2748e-008   
  -1              1.4647e-009     -6.7851e-007    1.4542e-008    
  -1.05           -1.6049e-009    -1.2198e-006    -1.0363e-008   
  -1.1            1.8001e-009     -2.0121e-006    -1.1198e-008   
  -1.15           1.2541e-009     -3.0597e-006    -8.7e-011      
  -1.2            1.0735e-009     -4.4019e-006    -3.163e-009    
  -1.25           1.1168e-009     -6.0495e-006    -4.991e-009    
  -1.3            1.1579e-009     -7.9843e-006    -1.0487e-008   
  -1.35           1.5113e-009     -1.02016e-005   -1.3743e-008   
  -1.4            -2.2904e-009    -1.2647e-005    8.444e-009     
  -1.45           1.2064e-009     -1.548e-005     -1.7731e-008   
  -1.5            1.0724e-009     -1.8503e-005    -3.116e-009    
  -1.55           1.1298e-009     -2.1813e-005    -5.968e-009    
  -1.6            1.1544e-009     -2.5345e-005    -1.0728e-008   
  -1.65           1.421e-009      -2.9084e-005    -1.4721e-008   
  -1.7            1.09e-009       -3.3034e-005    -3.408e-009    
  -1.75           1.097e-009      -3.7189e-005    -4.016e-009    
  -1.8            1.1536e-009     -4.1555e-005    -9.325e-009    
END_DB

BEGIN_DB
 ICCAP_VAR VS         0              
 ICCAP_VAR VB         0.9            
 ICCAP_VAR VD         -0.1           

 #VG              IG              ID              IB             
  0               -1.1946e-009    -1.0461e-009    -1.138e-008    
  -0.05           1.215e-010      -1.8283e-009    -9.519e-009    
  -0.1            1.1562e-009     4.7e-011        -1.198e-008    
  -0.15           1.1508e-009     -1.192e-010     -1.4081e-008   
  -0.2            1.5996e-009     -2.187e-010     -1.6621e-008   
  -0.25           1.9255e-009     9.564e-010      -2.695e-009    
  -0.3            -1.2461e-009    1.0927e-009     9.3e-009       
  -0.35           -1.2699e-009    -1.2781e-009    4.684e-009     
  -0.4            1.7011e-009     9.206e-010      -6.159e-009    
  -0.45           -1.2524e-009    8.185e-010      8.494e-009     
  -0.5            -9.284e-010     -1.6263e-009    2.069e-009     
  -0.55           1.1565e-009     -3.85e-011      -1.2907e-008   
  -0.6            1.7096e-009     -1.574e-010     -1.5134e-008   
  -0.65           1.1276e-009     1.2774e-009     1.4143e-008    
  -0.7            1.2912e-009     1.1014e-009     1.4839e-008    
  -0.75           6.22e-011       1.7231e-009     8.53e-009      
  -0.8            2.132e-010      1.7771e-009     8.688e-009     
  -0.85           -1.2548e-009    6.148e-010      8.463e-009     
  -0.9            -2.4155e-009    -1.5396e-009    2.661e-009     
  -0.95           1.1545e-009     -2.6962e-009    -1.3097e-008   
  -1              -1.3444e-009    -1.2145e-008    -1.0342e-008   
  -1.05           1.4838e-009     -4.0447e-008    -1.4012e-008   
  -1.1            1.1493e-009     -1.2006e-007    1.616e-009     
  -1.15           1.2633e-009     -2.8193e-007    -1.6753e-008   
  -1.2            1.0687e-009     -5.4921e-007    -3.276e-009    
  -1.25           1.1191e-009     -9.3156e-007    -5.098e-009    
  -1.3            7.57e-010       -1.3944e-006    7.79e-010      
  -1.35           1.1902e-009     -1.931e-006     1.2679e-008    
  -1.4            1.976e-010      -2.4961e-006    8.04e-009      
  -1.45           4.901e-010      -3.1026e-006    8.774e-009     
  -1.5            8.149e-010      -3.7134e-006    8.956e-009     
  -1.55           1.2519e-009     -4.3116e-006    1.3167e-008    
  -1.6            2.517e-010      -4.8909e-006    8.45e-009      
  -1.65           5.282e-010      -5.4774e-006    8.338e-009     
  -1.7            8.781e-010      -6.0454e-006    1.0429e-008    
  -1.75           1.322e-009      -6.588e-006     1.3878e-008    
  -1.8            3.325e-010      -7.1107e-006    8.501e-009     
END_DB

BEGIN_DB
 ICCAP_VAR VS         0              
 ICCAP_VAR VB         0.9            
 ICCAP_VAR VD         -1.8           

 #VG              IG              ID              IB             
  0               -1.2433e-009    -1.0661e-009    8.627e-009     
  -0.05           1.1523e-009     -1.25e-011      -1.2487e-008   
  -0.1            1.7661e-009     -1.482e-010     -1.4664e-008   
  -0.15           1.0833e-009     1.2971e-009     1.4069e-008    
  -0.2            1.2704e-009     1.1246e-009     1.5162e-008    
  -0.25           4.96e-011       1.7009e-009     8.493e-009     
  -0.3            2.002e-010      1.7889e-009     8.928e-009     
  -0.35           -1.2546e-009    7.048e-010      8.48e-009      
  -0.4            -7.852e-010     -1.7518e-009    2.812e-009     
  -0.45           2.0504e-009     9.898e-010      -1.1382e-008   
  -0.5            -1.2356e-009    1.2223e-009     1.195e-008     
  -0.55           -1.3974e-009    -1.1472e-009    8.668e-009     
  -0.6            1.8384e-009     9.31e-010       -9.344e-009    
  -0.65           -1.2481e-009    9.841e-010      8.848e-009     
  -0.7            -1.1431e-009    -1.4074e-009    2.961e-009     
  -0.75           1.6818e-009     -1.932e-010     -1.517e-008    
  -0.8            1.1546e-009     1.2076e-009     1.436e-008     
  -0.85           -1.2539e-009    1.3721e-009     1.5979e-008    
  -0.9            -2.4066e-009    -1.5726e-009    2.477e-009     
  -0.95           1.1551e-009     -2.9293e-009    -1.3257e-008   
  -1              -2.3595e-009    -1.3013e-008    -1.444e-008    
  -1.05           1.1554e-009     -4.4611e-008    -1.0888e-008   
  -1.1            7.85e-011       -1.375e-007     2.551e-009     
  -1.15           1.6829e-009     -3.4436e-007    -1.2132e-008   
  -1.2            1.1781e-009     -7.2214e-007    -1.803e-009    
  -1.25           1.8878e-009     -1.3211e-006    8.079e-009     
  -1.3            8.063e-010      -2.2149e-006    9.625e-009     
  -1.35           1.2452e-009     -3.3778e-006    1.3203e-008    
  -1.4            2.481e-010      -4.7893e-006    8.261e-009     
  -1.45           5.264e-010      -6.5764e-006    8.404e-009     
  -1.5            8.688e-010      -8.6544e-006    1.0237e-008    
  -1.55           1.3183e-009     -1.09811e-005   1.389e-008     
  -1.6            -2.3375e-009    -1.3548e-005    8.223e-009     
  -1.65           1.1564e-009     -1.648e-005     -1.0656e-008   
  -1.7            1.4547e-009     -1.959e-005     -1.4249e-008   
  -1.75           1.0951e-009     -2.2926e-005    -3.535e-009    
  -1.8            1.0905e-009     -2.6494e-005    -4.026e-009    
END_DB

BEGIN_DB
 ICCAP_VAR VS         0              
 ICCAP_VAR VB         1.8            
 ICCAP_VAR VD         -0.1           

 #VG              IG              ID              IB             
  0               -1.2737e-009    3.671e-010      2.731e-009     
  -0.05           1.6659e-009     -1.926e-010     -1.542e-008    
  -0.1            1.1547e-009     1.2195e-009     1.4266e-008    
  -0.15           1.3359e-009     1.0671e-009     1.49e-008      
  -0.2            1.076e-010      1.7435e-009     8.521e-009     
  -0.25           2.6e-010        1.8168e-009     8.622e-009     
  -0.3            -1.2541e-009    7.616e-010      8.421e-009     
  -0.35           -8.723e-010     -1.6748e-009    2.304e-009     
  -0.4            1.0717e-009     -1.5376e-009    -8.689e-009    
  -0.45           1.6242e-009     9.337e-010      -5.043e-009    
  -0.5            -1.2559e-009    7.323e-010      8.479e-009     
  -0.55           -8.267e-010     -1.7135e-009    2.504e-009     
  -0.6            1.1562e-009     5.97e-011       -1.1716e-008   
  -0.65           1.1573e-009     -1.055e-010     -1.3731e-008   
  -0.7            1.607e-009      -2.134e-010     -1.63e-008     
  -0.75           1.1994e-009     1.1861e-009     1.4131e-008    
  -0.8            -1.58e-011      1.6671e-009     7.996e-009     
  -0.85           1.352e-010      1.7583e-009     8.649e-009     
  -0.9            2.861e-010      1.8255e-009     8.621e-009     
  -0.95           -1.2533e-009    7.793e-010      8.35e-009      
  -1              -1.702e-009     -1.1491e-009    2.161e-009     
  -1.05           1.1536e-009     -4.58e-010      -1.2561e-008   
  -1.1            1.744e-009      -2.3873e-009    -1.4745e-008   
  -1.15           -1.2425e-009    -1.0797e-008    3.047e-009     
  -1.2            -1.8069e-009    -3.8595e-008    5.857e-009     
  -1.25           -1.266e-009     -1.1477e-007    -3.293e-009    
  -1.3            -1.2482e-009    -2.7787e-007    2.99e-009      
  -1.35           -1.2318e-009    -5.4772e-007    2.357e-009     
  -1.4            -1.6024e-009    -9.267e-007     9.449e-009     
  -1.45           -2.1576e-009    -1.3884e-006    -1.5839e-008   
  -1.5            1.1433e-009     -1.9253e-006    -8.037e-009    
  -1.55           1.1477e-009     -2.4869e-006    -1.1415e-008   
  -1.6            1.2577e-009     -3.069e-006     -1.7071e-008   
  -1.65           1.0729e-009     -3.6446e-006    -3.225e-009    
  -1.7            1.1188e-009     -4.2201e-006    -5.216e-009    
  -1.75           1.1553e-009     -4.7794e-006    -1.0488e-008   
  -1.8            1.4615e-009     -5.3238e-006    -1.4272e-008   
END_DB

BEGIN_DB
 ICCAP_VAR VS         0              
 ICCAP_VAR VB         1.8            
 ICCAP_VAR VD         -1.8           

 #VG              IG              ID              IB             
  0               1.1234e-009     -2.161e-010     -5.784e-009    
  -0.05           -1.2408e-009    1.0677e-009     8.898e-009     
  -0.1            -1.2447e-009    -1.3098e-009    4.095e-009     
  -0.15           1.5246e-009     -2.57e-010      -1.8042e-008   
  -0.2            1.9573e-009     9.623e-010      -3.213e-009    
  -0.25           -1.2384e-009    1.148e-009      9.574e-009     
  -0.3            -1.3266e-009    -1.2242e-009    6.069e-009     
  -0.35           5.66e-011       -1.856e-009     -9.507e-009    
  -0.4            1.1525e-009     -2.72e-011      -1.2796e-008   
  -0.45           1.7322e-009     -1.594e-010     -1.5392e-008   
  -0.5            1.1092e-009     1.2788e-009     1.4131e-008    
  -0.55           1.2967e-009     1.115e-009      1.5908e-008    
  -0.6            7.67e-011       1.7241e-009     8.513e-009     
  -0.65           2.34e-010       1.8079e-009     8.726e-009     
  -0.7            -1.2551e-009    7.423e-010      8.622e-009     
  -0.75           -8.372e-010     -1.6807e-009    2.357e-009     
  -0.8            1.0779e-009     -1.5221e-009    -8.776e-009    
  -0.85           1.6217e-009     9.433e-010      -4.869e-009    
  -0.9            -1.2536e-009    7.286e-010      8.583e-009     
  -0.95           -1.6429e-009    -1.0898e-009    2.479e-009     
  -1              1.151e-009      -5.18e-011      -1.1962e-008   
  -1.05           1.1464e-009     -6.01e-010      -1.4723e-008   
  -1.1            1.5882e-009     -2.6508e-009    -1.7479e-008   
  -1.15           -1.7289e-009    -1.1887e-008    -6.743e-009    
  -1.2            1.5954e-009     -4.3316e-008    -1.3601e-008   
  -1.25           -2.117e-010     -1.3566e-007    2.314e-009     
  -1.3            1.3406e-009     -3.4029e-007    -1.6679e-008   
  -1.35           1.0758e-009     -7.2351e-007    -3.288e-009    
  -1.4            8.011e-010      -1.3463e-006    1.162e-009     
  -1.45           1.252e-009      -2.2362e-006    1.3098e-008    
  -1.5            2.672e-010      -3.3931e-006    8.401e-009     
  -1.55           5.584e-010      -4.8898e-006    8.689e-009     
  -1.6            8.99e-010       -6.679e-006     9.166e-009     
  -1.65           1.3408e-009     -8.7271e-006    1.4208e-008    
  -1.7            3.151e-010      -1.10327e-005   8.9e-009       
  -1.75           1.245e-010      -1.3643e-005    3.332e-009     
  -1.8            1.73e-009       -1.6497e-005    -1.2296e-008   
END_DB

