! VERSION = 6.00
BEGIN_HEADER
 ICCAP_INPUTS
  VG         V  B GROUND SMU4 0.001 LIN        2    0          -1.8       6    -0.36     
  VS         V  E GROUND SMU2 0.1 CON        0
  VD         V  S GROUND SMU1 0.1 LIN        1    0          -1.8       37   -0.05     
  VB         V  C GROUND SMU3 0.1 CON        0
 ICCAP_OUTPUTS
  ID         I  S GROUND SMU1 B
  IG         I  B GROUND SMU4 B
END_HEADER

BEGIN_DB
 ICCAP_VAR VG         0              
 ICCAP_VAR VS         0              
 ICCAP_VAR VB         0              

 #VD              ID              IG             
  0               8.951e-011      -2.8528e-010   
  -0.05           -9.132e-011     3.3751e-010    
  -0.1            1.7374e-010     6.734e-011     
  -0.15           -2.0055e-010    -1.6927e-010   
  -0.2            -1.4083e-010    2.7517e-010    
  -0.25           1.5962e-010     5.663e-011     
  -0.3            -2.2117e-010    -1.5187e-010   
  -0.35           -1.4009e-010    2.9614e-010    
  -0.4            1.4115e-010     4.763e-011     
  -0.45           -2.4308e-010    -1.3658e-010   
  -0.5            -1.4171e-010    3.155e-010     
  -0.55           1.1721e-010     3.831e-011     
  -0.6            2.817e-011      -2.7601e-010   
  -0.65           -2.7299e-010    -1.2053e-010   
  -0.7            -1.4427e-010    3.337e-010     
  -0.75           7.976e-011      2.027e-011     
  -0.8            -2.3064e-010    -1.869e-010    
  -0.85           -1.8811e-010    2.5957e-010    
  -0.9            -2.998e-011     3.3712e-010    
  -0.95           3.107e-011      -2.2645e-010   
  -1              -2.6312e-010    -1.5881e-010   
  -1.05           -1.9378e-010    2.8878e-010    
  -1.1            -3.115e-011     3.2898e-010    
  -1.15           -2.3429e-010    -2.6022e-010   
  -1.2            -1.9585e-010    3.1947e-010    
  -1.25           -2.428e-011     3.069e-010     
  -1.3            -1.964e-010     -3.3479e-010   
  -1.35           -2.745e-010     -2.0386e-010   
  -1.4            -2.0263e-010    3.3806e-010    
  -1.45           -2.168e-011     2.555e-010     
  -1.5            -1.7392e-010    -3.206e-010    
  -1.55           -2.5828e-010    -3.0492e-010   
  -1.6            -2.5787e-010    2.871e-010     
  -1.65           -9.782e-011     3.2952e-010    
  -1.7            -2.2936e-010    -3.3938e-010   
  -1.75           -3.1332e-010    -2.5163e-010   
  -1.8            -2.7391e-010    3.242e-010     
END_DB

BEGIN_DB
 ICCAP_VAR VG         -0.36          
 ICCAP_VAR VS         0              
 ICCAP_VAR VB         0              

 #VD              ID              IG             
  0               3.1018e-008     1.7411e-010    
  -0.05           -1.414e-007     -5.84e-011     
  -0.1            -1.8499e-007    -3.3259e-010   
  -0.15           -2.0686e-007    -2.9642e-010   
  -0.2            -2.2529e-007    -3.0719e-010   
  -0.25           -2.4333e-007    -3.1612e-010   
  -0.3            -2.6108e-007    -3.2394e-010   
  -0.35           -2.7952e-007    -2.2621e-010   
  -0.4            -2.9828e-007    -2.3423e-010   
  -0.45           -3.1762e-007    -2.4296e-010   
  -0.5            -3.3726e-007    -2.5168e-010   
  -0.55           -3.5735e-007    -2.6165e-010   
  -0.6            -3.7817e-007    -2.7175e-010   
  -0.65           -3.9953e-007    -2.8199e-010   
  -0.7            -4.214e-007     -2.928e-010    
  -0.75           -4.4405e-007    -3.0275e-010   
  -0.8            -4.6728e-007    -3.1232e-010   
  -0.85           -4.9037e-007    -3.2166e-010   
  -0.9            -5.1504e-007    -3.2911e-010   
  -0.95           -5.4042e-007    -2.312e-010    
  -1              -5.6651e-007    -2.3955e-010   
  -1.05           -5.9341e-007    -2.473e-010    
  -1.1            -6.2127e-007    -2.571e-010    
  -1.15           -6.5004e-007    -2.6803e-010   
  -1.2            -6.793e-007     -2.7761e-010   
  -1.25           -7.0977e-007    -2.8845e-010   
  -1.3            -7.4085e-007    -2.9814e-010   
  -1.35           -7.7297e-007    -3.0888e-010   
  -1.4            -8.0592e-007    -3.1762e-010   
  -1.45           -8.3826e-007    -3.2562e-010   
  -1.5            -8.7392e-007    -2.2798e-010   
  -1.55           -9.0992e-007    -2.3614e-010   
  -1.6            -9.4704e-007    -2.4386e-010   
  -1.65           -9.8531e-007    -2.5295e-010   
  -1.7            -1.02488e-006   -2.6368e-010   
  -1.75           -1.0655e-006    -2.7322e-010   
  -1.8            -1.10725e-006   -2.8421e-010   
END_DB

BEGIN_DB
 ICCAP_VAR VG         -0.72          
 ICCAP_VAR VS         0              
 ICCAP_VAR VB         0              

 #VD              ID              IG             
  0               -1.5913e-007    -8.379e-011    
  -0.05           -0.00019259     -7.486e-011    
  -0.1            -0.00028308     -3.3943e-010   
  -0.15           -0.00032775     -2.667e-010    
  -0.2            -0.0003548      -2.7718e-010   
  -0.25           -0.00037496     -2.8735e-010   
  -0.3            -0.00039199     -2.9799e-010   
  -0.35           -0.00040737     -3.0868e-010   
  -0.4            -0.00042169     -3.1718e-010   
  -0.45           -0.00043496     -3.2528e-010   
  -0.5            -0.00044801     -2.2804e-010   
  -0.55           -0.00046058     -2.3496e-010   
  -0.6            -0.00047282     -2.4349e-010   
  -0.65           -0.00048479     -2.5331e-010   
  -0.7            -0.00049646     -2.6239e-010   
  -0.75           -0.00050793     -2.724e-010    
  -0.8            -0.0005192      -2.829e-010    
  -0.85           -0.00053038     -2.9454e-010   
  -0.9            -0.00054135     -3.0349e-010   
  -0.95           -0.00055221     -3.1268e-010   
  -1              -0.00056264     -3.2183e-010   
  -1.05           -0.00057336     -3.2833e-010   
  -1.1            -0.00058412     -2.3156e-010   
  -1.15           -0.00059558     -2.3883e-010   
  -1.2            -0.00068426     -2.4757e-010   
  -1.25           -0.00073178     -2.5747e-010   
  -1.3            -0.00076078     -2.6682e-010   
  -1.35           -0.00078702     -2.7791e-010   
  -1.4            -0.00081162     -2.8821e-010   
  -1.45           -0.00083552     -2.983e-010    
  -1.5            -0.00085906     -3.0637e-010   
  -1.55           -0.00088256     -3.104e-010    
  -1.6            -0.0009058      1.371e-011     
  -1.65           -0.00093069     3.5476e-010    
  -1.7            -0.00095425     2.5678e-010    
  -1.75           -0.00097812     -5.07e-012     
  -1.8            -0.00100282     5.9575e-010    
END_DB

BEGIN_DB
 ICCAP_VAR VG         -1.08          
 ICCAP_VAR VS         0              
 ICCAP_VAR VB         0              

 #VD              ID              IG             
  0               -3.185e-006     3.1868e-010    
  -0.05           -0.00088494     -4.872e-011    
  -0.1            -0.0016886      3.3348e-010    
  -0.15           -0.0023945      2.3987e-010    
  -0.2            -0.0029842      2.4904e-010    
  -0.25           -0.0034469      2.5834e-010    
  -0.3            -0.0037878      2.6836e-010    
  -0.35           -0.0040261      2.7865e-010    
  -0.4            -0.0041924      2.8945e-010    
  -0.45           -0.0043125      2.9937e-010    
  -0.5            -0.0044044      3.1014e-010    
  -0.55           -0.0044793      3.1831e-010    
  -0.6            -0.0045434      3.2531e-010    
  -0.65           -0.0046007      2.2718e-010    
  -0.7            -0.0046488      2.3519e-010    
  -0.75           -0.0046688      2.4516e-010    
  -0.8            -0.0046876      2.5383e-010    
  -0.85           -0.0047052      2.6412e-010    
  -0.9            -0.004722       2.7439e-010    
  -0.95           -0.0047374      2.8393e-010    
  -1              -0.0047523      2.9475e-010    
  -1.05           -0.0047668      3.0431e-010    
  -1.1            -0.0047803      3.1387e-010    
  -1.15           -0.0047944      3.2165e-010    
  -1.2            -0.0048078      2.2456e-010    
  -1.25           -0.0048206      2.3157e-010    
  -1.3            -0.0048329      2.406e-010     
  -1.35           -0.0048455      2.5035e-010    
  -1.4            -0.0048578      2.5861e-010    
  -1.45           -0.004871       2.6969e-010    
  -1.5            -0.0048837      2.8002e-010    
  -1.55           -0.0048971      2.9217e-010    
  -1.6            -0.004911       3.1118e-010    
  -1.65           -0.0049254      3.5414e-010    
  -1.7            -0.0049406      2.6512e-010    
  -1.75           -0.0049557      7.845e-011     
  -1.8            -0.0049752      1.1306e-009    
END_DB

BEGIN_DB
 ICCAP_VAR VG         -1.44          
 ICCAP_VAR VS         0              
 ICCAP_VAR VB         0              

 #VD              ID              IG             
  0               -3.6539e-006    -3.3488e-010   
  -0.05           -0.0010546      3.1419e-010    
  -0.1            -0.0020874      3.2188e-010    
  -0.15           -0.0030941      2.2426e-010    
  -0.2            -0.004071       2.3108e-010    
  -0.25           -0.0050109      2.3895e-010    
  -0.3            -0.0059089      2.4865e-010    
  -0.35           -0.0067513      2.5779e-010    
  -0.4            -0.00753        2.6787e-010    
  -0.45           -0.0082347      2.7901e-010    
  -0.5            -0.0088521      2.8817e-010    
  -0.55           -0.0093747      2.9994e-010    
  -0.6            -0.0098007      3.0909e-010    
  -0.65           -0.0101352      3.1828e-010    
  -0.7            -0.0103926      3.2562e-010    
  -0.75           -0.0105893      2.271e-010     
  -0.8            -0.010743       2.3461e-010    
  -0.85           -0.0108667      2.4319e-010    
  -0.9            -0.0109701      2.5271e-010    
  -0.95           -0.0110592      2.6218e-010    
  -1              -0.0111385      2.7262e-010    
  -1.05           -0.0112097      2.83e-010      
  -1.1            -0.0112755      2.937e-010     
  -1.15           -0.0113177      3.0368e-010    
  -1.2            -0.011339       3.1336e-010    
  -1.25           -0.0113592      3.2199e-010    
  -1.3            -0.0113773      3.2859e-010    
  -1.35           -0.0113938      2.3016e-010    
  -1.4            -0.011366       -3.3242e-010   
  -1.45           -0.011379       -2.9658e-010   
  -1.5            -0.011389       -3.0667e-010   
  -1.55           -0.011401       -3.1611e-010   
  -1.6            -0.011409       -3.2465e-010   
  -1.65           -0.01142        -2.2556e-010   
  -1.7            -0.011429       -2.3289e-010   
  -1.75           -0.011437       -2.4137e-010   
  -1.8            -0.011447       -2.4994e-010   
END_DB

BEGIN_DB
 ICCAP_VAR VG         -1.8           
 ICCAP_VAR VS         0              
 ICCAP_VAR VB         0              

 #VD              ID              IG             
  0               -3.901e-006     2.9604e-010    
  -0.05           -0.0011078      -3.134e-010    
  -0.1            -0.0022055      -3.2173e-010   
  -0.15           -0.0032916      -3.2885e-010   
  -0.2            -0.0043662      -2.3048e-010   
  -0.25           -0.0054273      -2.3852e-010   
  -0.3            -0.0064742      -2.4688e-010   
  -0.35           -0.0075019      -2.5596e-010   
  -0.4            -0.0085085      -2.6564e-010   
  -0.45           -0.0094929      -2.7683e-010   
  -0.5            -0.010448       -2.8726e-010   
  -0.55           -0.0113708      -2.9776e-010   
  -0.6            -0.012251       3.2877e-010    
  -0.65           -0.013096       2.3025e-010    
  -0.7            -0.013885       2.3836e-010    
  -0.75           -0.014617       2.4782e-010    
  -0.8            -0.015284       2.565e-010     
  -0.85           -0.015876       2.666e-010     
  -0.9            -0.016386       2.7743e-010    
  -0.95           -0.016817       2.8739e-010    
  -1              -0.017171       2.9815e-010    
  -1.05           -0.017455       3.0817e-010    
  -1.1            -0.017682       3.1746e-010    
  -1.15           -0.017864       3.2546e-010    
  -1.2            -0.018016       2.2608e-010    
  -1.25           -0.018143       2.3365e-010    
  -1.3            -0.018249       2.4256e-010    
  -1.35           -0.018347       2.5188e-010    
  -1.4            -0.018431       2.6059e-010    
  -1.45           -0.018511       2.7194e-010    
  -1.5            -0.018583       2.8209e-010    
  -1.55           -0.018649       2.9262e-010    
  -1.6            -0.01867        3.0298e-010    
  -1.65           -0.018691       3.1278e-010    
  -1.7            -0.018709       3.2096e-010    
  -1.75           -0.018727       3.2761e-010    
  -1.8            -0.018742       2.2972e-010    
END_DB

