! VERSION = 6.00
BEGIN_HEADER
 ICCAP_INPUTS
  VG         V  B GROUND SMU4 0.001 LIN        1    0          -1.8       37   -0.05     
  VS         V  E GROUND SMU2 0.1 CON        0
  VB         V  C GROUND SMU3 0.1 LIN        3    0          1.8        3    0.9       
  VD         V  S GROUND SMU1 0.1 LIN        2    -0.1       -1.8       2    -1.7      
 ICCAP_OUTPUTS
  IG         I  B GROUND SMU4 B
  ID         I  S GROUND SMU1 B
  IB         I  C GROUND SMU3 B
END_HEADER

BEGIN_DB
 ICCAP_VAR VS         0              
 ICCAP_VAR VB         0              
 ICCAP_VAR VD         -0.1           

 #VG              IG              ID              IB             
  0               -1.2267e-009    -1.0465e-009    -1.0709e-008   
  -0.05           -6.048e-010     -1.8157e-009    -9.254e-009    
  -0.1            1.9643e-009     9.553e-010      -1.0844e-008   
  -0.15           -1.2433e-009    1.1127e-009     1.0121e-008    
  -0.2            -1.2874e-009    -1.2676e-009    5.478e-009     
  -0.25           1.7319e-009     9.187e-010      -6.676e-009    
  -0.3            -1.252e-009     8.319e-010      8.79e-009      
  -0.35           -9.39e-010      -1.586e-009     1.931e-009     
  -0.4            1.16e-009       -2.93e-011      -1.34e-008     
  -0.45           1.6943e-009     -1.786e-010     -1.5932e-008   
  -0.5            9.99e-011       1.6788e-009     -1.083e-009    
  -0.55           -1.2674e-009    3.53e-010       8.757e-009     
  -0.6            -2.4061e-009    -2.0364e-009    3.023e-009     
  -0.65           1.1597e-009     -3.8391e-009    -1.1824e-008   
  -0.7            -1.2493e-009    -1.4177e-008    -9.243e-009    
  -0.75           -2.0208e-009    -4.1635e-008    3.674e-009     
  -0.8            1.1616e-009     -1.10447e-007   -1.0478e-008   
  -0.85           -4.641e-010     -2.3684e-007    8.163e-009     
  -0.9            -8.859e-010     -4.4348e-007    -9.23e-009     
  -0.95           1.6548e-009     -7.4805e-007    -1.2849e-008   
  -1              1.4222e-009     -1.12188e-006   1.3873e-008    
  -1.05           -2.0624e-009    -1.5712e-006    -1.4462e-008   
  -1.1            7.51e-011       -2.0758e-006    -8.778e-009    
  -1.15           1.6373e-009     -2.6118e-006    -1.3127e-008   
  -1.2            1.1661e-009     -3.1635e-006    -1.982e-009    
  -1.25           1.0742e-009     -3.7255e-006    -3.255e-009    
  -1.3            1.1339e-009     -4.2857e-006    -6.644e-009    
  -1.35           1.1574e-009     -4.8319e-006    -1.1347e-008   
  -1.4            1.3584e-009     -5.3653e-006    -1.5947e-008   
  -1.45           1.0795e-009     -5.8765e-006    -3.473e-009    
  -1.5            1.1026e-009     -6.3694e-006    -4.341e-009    
  -1.55           1.1576e-009     -6.8404e-006    -1.0197e-008   
  -1.6            1.6075e-009     -7.2898e-006    -1.3507e-008   
  -1.65           1.1517e-009     -7.7174e-006    -2.27e-009     
  -1.7            1.0744e-009     -8.13e-006      -3.177e-009    
  -1.75           1.1376e-009     -8.5197e-006    -7.113e-009    
  -1.8            1.1626e-009     -8.8889e-006    -1.1444e-008   
END_DB

BEGIN_DB
 ICCAP_VAR VS         0              
 ICCAP_VAR VB         0              
 ICCAP_VAR VD         -1.8           

 #VG              IG              ID              IB             
  0               -1.2509e-009    -1.0617e-009    -4.868e-009    
  -0.05           2.0554e-009     9.861e-010      -1.1734e-008   
  -0.1            -1.2428e-009    1.2159e-009     1.1288e-008    
  -0.15           -1.3863e-009    -1.1637e-009    8.446e-009     
  -0.2            1.1e-012        -1.8793e-009    -9.481e-009    
  -0.25           1.1604e-009     -5.84e-011      -1.3538e-008   
  -0.3            1.6596e-009     -1.767e-010     -1.5869e-008   
  -0.35           1.1586e-009     1.2113e-009     1.3873e-008    
  -0.4            -1.2594e-009    1.4628e-009     1.4964e-008    
  -0.45           -1.655e-009     -1.2258e-009    2.686e-009     
  -0.5            1.1615e-009     -5.243e-010     -1.1975e-008   
  -0.55           1.1623e-009     -2.2786e-009    -1.4202e-008   
  -0.6            1.6216e-009     -7.7355e-009    -1.6632e-008   
  -0.65           -1.2444e-009    -2.4174e-008    -9.444e-009    
  -0.7            -1.8895e-009    -6.695e-008     5.279e-009     
  -0.75           1.6722e-009     -1.6628e-007    -8.774e-009    
  -0.8            1.2016e-009     -3.6863e-007    -1.291e-009    
  -0.85           1.0703e-009     -7.219e-007     -3.162e-009    
  -0.9            -2.1757e-009    -1.2626e-006    -1.6357e-008   
  -0.95           -6.82e-011      -2.0463e-006    -9.109e-009    
  -1              1.4572e-009     -3.1036e-006    -1.4897e-008   
  -1.05           1.1028e-009     -4.43e-006      -3.429e-009    
  -1.1            1.0851e-009     -6.0559e-006    -3.821e-009    
  -1.15           1.1505e-009     -7.9858e-006    -8.878e-009    
  -1.2            1.7278e-009     -1.01655e-005   -1.2313e-008   
  -1.25           1.0673e-009     -1.2623e-005    2.536e-009     
  -1.3            1.1221e-009     -1.5315e-005    -6.015e-009    
  -1.35           1.1598e-009     -1.8234e-005    -1.0795e-008   
  -1.4            1.4261e-009     -2.1334e-005    -1.5496e-008   
  -1.45           1.0927e-009     -2.4616e-005    -3.4e-009      
  -1.5            1.0904e-009     -2.8065e-005    -3.992e-009    
  -1.55           1.1542e-009     -3.1688e-005    -9.204e-009    
  -1.6            1.6799e-009     -3.5399e-005    -1.2612e-008   
  -1.65           1.1942e-009     -3.9233e-005    -1.26e-009     
  -1.7            1.0675e-009     -4.3197e-005    -3.077e-009    
  -1.75           1.1239e-009     -4.7257e-005    -6.074e-009    
  -1.8            1.1605e-009     -5.1389e-005    -1.0918e-008   
END_DB

BEGIN_DB
 ICCAP_VAR VS         0              
 ICCAP_VAR VB         0.9            
 ICCAP_VAR VD         -0.1           

 #VG              IG              ID              IB             
  0               -1.1968e-009    -1.0367e-009    1.3035e-008    
  -0.05           1.8658e-009     9.306e-010      -9.688e-009    
  -0.1            -1.247e-009     1.0061e-009     9.136e-009     
  -0.15           -1.1654e-009    -1.381e-009     3.422e-009     
  -0.2            1.6536e-009     -1.898e-010     -1.5775e-008   
  -0.25           1.1721e-009     1.2188e-009     1.469e-008     
  -0.3            1.3532e-009     1.0657e-009     1.6086e-008    
  -0.35           1.098e-010      1.7476e-009     8.856e-009     
  -0.4            2.529e-010      1.8111e-009     9.14e-009      
  -0.45           -1.2518e-009    7.603e-010      8.53e-009      
  -0.5            -8.504e-010     -1.661e-009     2.232e-009     
  -0.55           1.0645e-009     -1.5316e-009    -8.59e-009     
  -0.6            1.6196e-009     9.239e-010      -4.991e-009    
  -0.65           -1.2533e-009    7.084e-010      8.643e-009     
  -0.7            -1.6304e-009    -1.1466e-009    2.702e-009     
  -0.75           1.1588e-009     -3.176e-010     -1.2102e-008   
  -0.8            1.1551e-009     -1.969e-009     -1.4061e-008   
  -0.85           1.6552e-009     -8.2298e-009    -1.6161e-008   
  -0.9            -2.156e-009     -3.0023e-008    -1.1531e-008   
  -0.95           1.1541e-009     -9.145e-008     -1.348e-008    
  -1              -3.946e-010     -2.1782e-007    6.741e-009     
  -1.05           1.1614e-009     -4.4459e-007    -1.0587e-008   
  -1.1            1.4255e-009     -7.6455e-007    -1.5273e-008   
  -1.15           1.9069e-009     -1.1646e-006    9.138e-009     
  -1.2            8.149e-010      -1.6536e-006    9.585e-009     
  -1.25           1.2523e-009     -2.1779e-006    1.3078e-008    
  -1.3            2.416e-010      -2.7203e-006    8.245e-009     
  -1.35           5.278e-010      -3.2882e-006    8.776e-009     
  -1.4            8.697e-010      -3.8508e-006    9.134e-009     
  -1.45           1.3082e-009     -4.3933e-006    1.38e-008      
  -1.5            2.805e-010      -4.9119e-006    8.637e-009     
  -1.55           5.857e-010      -5.4241e-006    8.557e-009     
  -1.6            9.187e-010      -5.9129e-006    1.0415e-008    
  -1.65           1.3613e-009     -6.3722e-006    1.4048e-008    
  -1.7            3.215e-010      -6.8075e-006    8.675e-009     
  -1.75           5.933e-010      -7.2334e-006    8.491e-009     
  -1.8            9.745e-010      -7.6349e-006    1.0951e-008    
END_DB

BEGIN_DB
 ICCAP_VAR VS         0              
 ICCAP_VAR VB         0.9            
 ICCAP_VAR VD         -1.8           

 #VG              IG              ID              IB             
  0               -1.1769e-009    -1.0378e-009    -1.2338e-008   
  -0.05           1.8526e-009     9.266e-010      -9.543e-009    
  -0.1            -1.2466e-009    9.882e-010      8.628e-009     
  -0.15           -1.1501e-009    -1.3914e-009    3.189e-009     
  -0.2            1.6707e-009     -1.755e-010     -1.5649e-008   
  -0.25           1.1538e-009     1.2223e-009     1.4204e-008    
  -0.3            1.3267e-009     1.0688e-009     1.5251e-008    
  -0.35           9.24e-011       1.7391e-009     8.512e-009     
  -0.4            2.372e-010      1.8047e-009     8.848e-009     
  -0.45           -1.2471e-009    7.505e-010      8.569e-009     
  -0.5            -8.406e-010     -1.6719e-009    2.432e-009     
  -0.55           1.1589e-009     5.57e-011       -1.2512e-008   
  -0.6            1.151e-009      -1.428e-010     -1.4575e-008   
  -0.65           1.5851e-009     -3.904e-010     -1.6737e-008   
  -0.7            -1.2384e-009    4.378e-010      -2.644e-009    
  -0.75           -1.9515e-009    -3.3786e-009    9.466e-009     
  -0.8            -2.1737e-009    -1.5001e-008    -1.1784e-008   
  -0.85           1.1554e-009     -5.0672e-008    -1.2692e-008   
  -0.9            7.377e-010      -1.4262e-007    -1.6847e-008   
  -0.95           1.162e-009      -3.4914e-007    1.1987e-008    
  -1              1.5781e-009     -7.2026e-007    1.6027e-008    
  -1.05           -1.976e-009     -1.3195e-006    -1.3716e-008   
  -1.1            1.3109e-009     -2.2033e-006    -1.6039e-008   
  -1.15           1.0621e-009     -3.3644e-006    -3.2e-009      
  -1.2            1.1052e-009     -4.8514e-006    -4.654e-009    
  -1.25           1.1587e-009     -6.6322e-006    -1.0538e-008   
  -1.3            1.5451e-009     -8.6964e-006    -1.419e-008    
  -1.35           1.1159e-009     -1.10295e-005   -2.922e-009    
  -1.4            1.0806e-009     -1.3622e-005    2.02e-009      
  -1.45           1.1515e-009     -1.6455e-005    -8.936e-009    
  -1.5            1.7175e-009     -1.9451e-005    -1.255e-008    
  -1.55           1.1972e-009     -2.2639e-005    -1.027e-009    
  -1.6            1.0601e-009     -2.6007e-005    -3.099e-009    
  -1.65           1.1257e-009     -2.9531e-005    -5.821e-009    
  -1.7            1.1562e-009     -3.3169e-005    -1.1327e-008   
  -1.75           1.4142e-009     -3.6902e-005    -1.5269e-008   
  -1.8            1.0797e-009     -4.075e-005     -3.459e-009    
END_DB

BEGIN_DB
 ICCAP_VAR VS         0              
 ICCAP_VAR VB         1.8            
 ICCAP_VAR VD         -0.1           

 #VG              IG              ID              IB             
  0               -1.2301e-009    -1.0467e-009    9.081e-009     
  -0.05           1.6729e-009     -1.709e-010     -1.5561e-008   
  -0.1            1.1396e-009     1.2221e-009     1.3928e-008    
  -0.15           1.3159e-009     1.0696e-009     1.4597e-008    
  -0.2            8.09e-011       1.7303e-009     8.427e-009     
  -0.25           2.269e-010      1.8001e-009     8.773e-009     
  -0.3            -1.2496e-009    7.392e-010      8.642e-009     
  -0.35           -8.177e-010     -1.6856e-009    2.559e-009     
  -0.4            1.1571e-009     7.13e-011       -1.2216e-008   
  -0.45           1.1574e-009     -9.21e-011      -1.4249e-008   
  -0.5            1.5967e-009     -2.012e-010     -1.635e-008    
  -0.55           1.9311e-009     9.482e-010      -2.489e-009    
  -0.6            -1.2443e-009    1.0798e-009     9.922e-009     
  -0.65           -1.2541e-009    -1.2765e-009    4.981e-009     
  -0.7            1.825e-010      -1.7927e-009    -9.213e-009    
  -0.75           2.064e-009      9.716e-010      -1.1933e-008   
  -0.8            -1.2369e-009    1.1389e-009     1.1782e-008    
  -0.85           -2.2271e-009    -1.4666e-009    9.062e-009     
  -0.9            9.84e-011       -3.8845e-009    -9.383e-009    
  -0.95           1.1569e-009     -9.4348e-009    -1.2798e-008   
  -1              -1.2447e-009    -3.4436e-008    -9.039e-009    
  -1.05           -2.0718e-009    -9.9884e-008    3.179e-009     
  -1.1            2.428e-010      -2.3624e-007    -1.0264e-008   
  -1.15           5.326e-010      -4.7288e-007    8.554e-009     
  -1.2            8.727e-010      -8.0993e-007    1.0164e-008    
  -1.25           -1.7623e-009    -1.2263e-006    -1.1624e-008   
  -1.3            1.5432e-009     -1.7186e-006    -1.3739e-008   
  -1.35           1.1129e-009     -2.2442e-006    -2.999e-009    
  -1.4            1.0736e-009     -2.7951e-006    -3.45e-009     
  -1.45           1.1419e-009     -3.3505e-006    -7.793e-009    
  -1.5            1.7971e-009     -3.8915e-006    -1.1964e-008   
  -1.55           1.2869e-009     -4.4218e-006    1.3472e-008    
  -1.6            2.592e-010      -4.9245e-006    8.44e-009      
  -1.65           5.794e-010      -5.4187e-006    8.517e-009     
  -1.7            9.223e-010      -5.8886e-006    1.0645e-008    
  -1.75           1.3532e-009     -6.3271e-006    1.4066e-008    
  -1.8            3.288e-010      -6.7442e-006    8.556e-009     
END_DB

BEGIN_DB
 ICCAP_VAR VS         0              
 ICCAP_VAR VB         1.8            
 ICCAP_VAR VD         -1.8           

 #VG              IG              ID              IB             
  0               -1.287e-009     4.647e-010      3.007e-009     
  -0.05           1.8017e-009     -1.127e-010     -1.4509e-008   
  -0.1            1.0451e-009     1.3098e-009     1.3495e-008    
  -0.15           1.2207e-009     1.1505e-009     1.4279e-008    
  -0.2            -3e-012         1.6835e-009     7.983e-009     
  -0.25           1.483e-010      1.7641e-009     8.712e-009     
  -0.3            -1.2518e-009    6.637e-010      8.634e-009     
  -0.35           -7.155e-010     -1.7598e-009    2.955e-009     
  -0.4            2.0134e-009     9.762e-010      -1.159e-008    
  -0.45           -1.2422e-009    1.1839e-009     1.1171e-008    
  -0.5            -1.3561e-009    -1.171e-009     7.719e-009     
  -0.55           3.33e-011       -1.8553e-009    -9.491e-009    
  -0.6            1.1597e-009     -3.49e-011      -1.3409e-008   
  -0.65           1.697e-009      -1.672e-010     -1.549e-008    
  -0.7            1.8814e-009     8.958e-010      -1.33e-009     
  -0.75           -1.2456e-009    8.357e-010      9.449e-009     
  -0.8            -2.2458e-009    -1.9161e-009    3.93e-009      
  -0.85           1.1125e-009     -5.6535e-009    -1.3727e-008   
  -0.9            -1.2397e-009    -1.9338e-008    -9.865e-009    
  -0.95           -1.6873e-009    -6.4973e-008    8.503e-009     
  -1              5.729e-010      -1.8329e-007    -1.3861e-008   
  -1.05           9.012e-010      -4.3685e-007    1.0451e-008    
  -1.1            1.3305e-009     -8.7682e-007    1.4049e-008    
  -1.15           -1.5993e-009    -1.5639e-006    -1.0496e-008   
  -1.2            1.8039e-009     -2.5537e-006    -1.1793e-008   
  -1.25           1.242e-009      -3.8309e-006    2.84e-010      
  -1.3            1.0593e-009     -5.4334e-006    -3.187e-009    
  -1.35           1.1111e-009     -7.3437e-006    -4.829e-009    
  -1.4            1.155e-009      -9.5262e-006    -1.0678e-008   
  -1.45           1.128e-010      -1.1935e-005    4.285e-009     
  -1.5            1.6907e-009     -1.461e-005     -1.2517e-008   
  -1.55           1.3895e-009     -1.7491e-005    1.3976e-008    
  -1.6            3.436e-010      -2.0528e-005    8.703e-009     
  -1.65           6.163e-010      -2.3813e-005    8.489e-009     
  -1.7            1.0018e-009     -2.7228e-005    1.1384e-008    
  -1.75           1.4372e-009     -3.07e-005      1.4156e-008    
  -1.8            3.913e-010      -3.4336e-005    8.829e-009     
END_DB

