! VERSION = 6.00
BEGIN_HEADER
 ICCAP_INPUTS
  VG         V  B GROUND SMU4 0.001 LIN        1    0          -1.8       37   -0.05     
  VS         V  E GROUND SMU2 0.1 CON        0
  VB         V  C GROUND SMU3 0.1 LIN        3    0          1.8        3    0.9       
  VD         V  S GROUND SMU1 0.1 LIN        2    -0.1       -1.8       2    -1.7      
 ICCAP_OUTPUTS
  IG         I  B GROUND SMU4 B
  ID         I  S GROUND SMU1 B
  IB         I  C GROUND SMU3 B
END_HEADER

BEGIN_DB
 ICCAP_VAR VS         0              
 ICCAP_VAR VB         0              
 ICCAP_VAR VD         -0.1           

 #VG              IG              ID              IB             
  0               -1.1959e-009    -1.0727e-009    -9.484e-009    
  -0.05           2.6921e-009     -1.0417e-009    -2.4867e-008   
  -0.1            -1.8114e-009    7.046e-010      1.8628e-008    
  -0.15           -1.0307e-009    -2.0673e-009    -5.304e-009    
  -0.2            2.7151e-009     -9.712e-010     -2.3483e-008   
  -0.25           7.365e-010      2.1854e-009     -1.166e-009    
  -0.3            -1.7339e-009    7.379e-010      1.9631e-008    
  -0.35           -1.0704e-009    -2.0532e-009    -5.089e-009    
  -0.4            2.7113e-009     -1.0045e-009    -2.4274e-008   
  -0.45           7.785e-010      2.192e-009      -1.117e-009    
  -0.5            -1.6716e-009    1.5533e-009     1.5405e-008    
  -0.55           -1.1103e-009    -2.0251e-009    -4.852e-009    
  -0.6            2.694e-009      -1.0371e-009    -2.4588e-008   
  -0.65           -1.8192e-009    6.92e-010       1.8677e-008    
  -0.7            -1.0195e-009    -2.0751e-009    -5.542e-009    
  -0.75           2.6938e-009     -1.6663e-009    -1.1469e-008   
  -0.8            -1.8055e-009    6.084e-010      1.8724e-008    
  -0.85           -2.2498e-009    -1.3681e-009    4.449e-009     
  -0.9            2.21e-009       -2.9737e-009    -1.9843e-008   
  -0.95           1.9374e-009     -5.1024e-009    -4.306e-009    
  -1              -2.4407e-009    -1.8247e-008    -2.5036e-008   
  -1.05           -1.9216e-009    -4.8676e-008    1.671e-009     
  -1.1            1.9667e-009     -1.1136e-007    -2.2011e-008   
  -1.15           -2.3926e-009    -2.2475e-007    2.5223e-008    
  -1.2            -1.8242e-009    -3.9032e-007    1.924e-009     
  -1.25           2.3062e-009     -6.1462e-007    -2.4992e-008   
  -1.3            2.3325e-009     -8.7105e-007    -3.729e-009    
  -1.35           -1.3664e-009    -1.1579e-006    -4.871e-009    
  -1.4            -2.5875e-009    -1.4668e-006    8.421e-009     
  -1.45           2.3524e-009     -1.7969e-006    -2.5325e-008   
  -1.5            2.3239e-009     -2.1186e-006    -3.519e-009    
  -1.55           -1.5414e-009    -2.4381e-006    1.787e-008     
  -1.6            -2.5418e-009    -2.7623e-006    6.211e-009     
  -1.65           2.5753e-009     -3.0883e-006    -2.44e-008     
  -1.7            5.711e-010      -3.393e-006     9.619e-009     
  -1.75           -1.6349e-009    -3.6975e-006    1.6602e-008    
  -1.8            -2.5108e-009    -3.9983e-006    5.667e-009     
END_DB

BEGIN_DB
 ICCAP_VAR VS         0              
 ICCAP_VAR VB         0              
 ICCAP_VAR VD         -1.8           

 #VG              IG              ID              IB             
  0               2.898e-010      3.882e-010      8.787e-009     
  -0.05           2.6475e-009     -2.355e-010     -1.4085e-008   
  -0.1            -1.6885e-009    7.581e-010      2.0544e-008    
  -0.15           -1.0867e-009    -2.0241e-009    -4.908e-009    
  -0.2            2.7016e-009     -1.0193e-009    -2.4273e-008   
  -0.25           8e-010          2.1985e-009     -1.303e-009    
  -0.3            -1.6445e-009    7.884e-010      2.1324e-008    
  -0.35           -7.205e-010     -2.1161e-009    5.543e-009     
  -0.4            2.0046e-009     -1.4978e-009    -1.7002e-008   
  -0.45           4.723e-010      2.1222e-009     -5.993e-009    
  -0.5            6.41e-010       2.179e-009      8.991e-009     
  -0.55           -1.8496e-009    6.675e-010      1.8631e-008    
  -0.6            2.5664e-009     -1.1759e-009    -2.4268e-008   
  -0.65           2.651e-010      2.0346e-009     9.456e-009     
  -0.7            4.33e-010       2.1044e-009     9.483e-009     
  -0.75           -2.1297e-009    4.828e-010      1.473e-008     
  -0.8            2.6846e-009     -1.727e-009     -1.1841e-008   
  -0.85           -1.447e-010     1.4457e-009     -1.232e-009    
  -0.9            -1.4886e-009    -2.0584e-009    2.3122e-008    
  -0.95           -1.3678e-009    -6.1423e-009    6.55e-009      
  -1              2.6855e-009     -1.7297e-008    2.4232e-008    
  -1.05           2.336e-009      -5.0611e-008    -1.226e-009    
  -1.1            -1.851e-010     -1.287e-007     9.623e-009     
  -1.15           2.3154e-009     -2.6644e-007    -2.4187e-008   
  -1.2            1.6938e-009     -4.7695e-007    -3.365e-009    
  -1.25           2.5702e-009     -8.0184e-007    -8.426e-009    
  -1.3            7.597e-010      -1.2341e-006    1.934e-009     
  -1.35           -1.434e-009     -1.7912e-006    2.0626e-008    
  -1.4            -2.587e-009     -2.4787e-006    7.578e-009     
  -1.45           2.3973e-009     -3.3283e-006    -2.4078e-008   
  -1.5            1.7992e-009     -4.2731e-006    -2.74e-009     
  -1.55           2.5208e-009     -5.3628e-006    -7.726e-009    
  -1.6            -1.3749e-009    -6.5573e-006    1.41e-008      
  -1.65           -2.6022e-009    -7.8886e-006    8.625e-009     
  -1.7            2.2976e-009     -9.3917e-006    -2.3976e-008   
  -1.75           1.6715e-009     -1.09598e-005   -3.528e-009    
  -1.8            -2.5519e-009    -1.2632e-005    8.365e-009     
END_DB

BEGIN_DB
 ICCAP_VAR VS         0              
 ICCAP_VAR VB         0.9            
 ICCAP_VAR VD         -0.1           

 #VG              IG              ID              IB             
  0               2.1487e-009     2.1086e-009     1.418e-009     
  -0.05           -1.6011e-009    1.5854e-009     1.4357e-008    
  -0.1            -7.371e-010     -2.1187e-009    5.507e-009     
  -0.15           1.9675e-009     -1.5087e-009    -1.6264e-008   
  -0.2            5e-010          2.1269e-009     -6.185e-009    
  -0.25           -2.0541e-009    5.515e-010      1.5518e-008    
  -0.3            2.6818e-009     -1.0723e-009    -2.491e-008    
  -0.35           -1.7356e-009    7.28e-010       1.9789e-008    
  -0.4            -1.0617e-009    -2.0476e-009    -5.065e-009    
  -0.45           2.7156e-009     -9.967e-010     -2.4101e-008   
  -0.5            7.673e-010      2.1976e-009     -1.154e-009    
  -0.55           -1.6756e-009    1.5458e-009     1.5288e-008    
  -0.6            -1.1001e-009    -2.017e-009     -4.831e-009    
  -0.65           2.6975e-009     -1.0301e-009    -2.429e-008    
  -0.7            8.137e-010      2.1981e-009     -1.471e-009    
  -0.75           -1.6102e-009    1.5827e-009     1.4412e-008    
  -0.8            -7.398e-010     -2.1172e-009    5.783e-009     
  -0.85           1.966e-009      -1.5092e-009    -1.66e-008     
  -0.9            4.994e-010      2.1325e-009     -6.274e-009    
  -0.95           -2.0493e-009    5.421e-010      1.5943e-008    
  -1              2.6682e-009     -1.1314e-009    -2.447e-008    
  -1.05           -1.7424e-009    4.711e-010      1.9862e-008    
  -1.1            -2.4779e-009    -1.9883e-009    -5.084e-009    
  -1.15           2.729e-009      -6.02e-009      -1.3708e-008   
  -1.2            -2.5567e-009    -1.5208e-008    -1.7463e-008   
  -1.25           1.558e-010      -4.4353e-008    -1.1738e-008   
  -1.3            2.69e-009       -1.0174e-007    -2.1879e-008   
  -1.35           -4.724e-010     -2.033e-007     1.0305e-008    
  -1.4            1.9617e-009     -3.5785e-007    -1.623e-008    
  -1.45           2.4612e-009     -5.5584e-007    -6.134e-009    
  -1.5            5.467e-010      -7.9065e-007    9.577e-009     
  -1.55           -1.6405e-009    -1.05331e-006   1.6515e-008    
  -1.6            -2.4808e-009    -1.3367e-006    -1.9617e-008   
  -1.65           -6.795e-010     -1.628e-006     -1.0023e-008   
  -1.7            2.722e-009      -1.9214e-006    -1.7544e-008   
  -1.75           2.4976e-009     -2.208e-006     -9.48e-010     
  -1.8            -1.3198e-009    -2.4918e-006    2.3224e-008    
END_DB

BEGIN_DB
 ICCAP_VAR VS         0              
 ICCAP_VAR VB         0.9            
 ICCAP_VAR VD         -1.8           

 #VG              IG              ID              IB             
  0               7.703e-010      6.74e-010       -1.2043e-008   
  -0.05           7.51e-010       2.1856e-009     -8.654e-009    
  -0.1            -1.6975e-009    7.463e-010      1.9652e-008    
  -0.15           -6.56e-010      -2.1014e-009    4.926e-009     
  -0.2            2.1062e-009     -1.461e-009     -1.831e-008    
  -0.25           4.248e-010      2.0989e-009     -5.174e-009    
  -0.3            -2.1768e-009    4.929e-010      1.4181e-008    
  -0.35           2.7038e-009     -1.628e-009     -1.1391e-008   
  -0.4            7.92e-010       2.1874e-009     -1.16e-009     
  -0.45           -1.6369e-009    7.753e-010      2.0399e-008    
  -0.5            -7.069e-010     -2.1063e-009    5.329e-009     
  -0.55           2.0269e-009     -1.4889e-009    -1.7066e-008   
  -0.6            4.699e-010      2.1123e-009     -5.674e-009    
  -0.65           -2.1078e-009    5.289e-010      1.4908e-008    
  -0.7            2.6954e-009     -1.0492e-009    -2.4703e-008   
  -0.75           -1.7833e-009    6.946e-010      1.8791e-008    
  -0.8            -1.0306e-009    -2.0659e-009    -5.354e-009    
  -0.85           2.6857e-009     -1.6532e-009    -1.1182e-008   
  -0.9            -1.7715e-009    7.006e-010      1.901e-008     
  -0.95           -1.0367e-009    -2.0715e-009    -5.455e-009    
  -1              2.7195e-009     -1.0352e-009    -2.3804e-008   
  -1.05           -2.4125e-009    1.5497e-009     -9.59e-010     
  -1.1            -2.2193e-009    -1.821e-009     1.717e-009     
  -1.15           -5.063e-010     -6.4289e-009    -9.998e-009    
  -1.2            2.637e-009      -1.3715e-008    1.7525e-008    
  -1.25           -2.2889e-009    -4.4718e-008    2.5706e-008    
  -1.3            1.6926e-009     -1.0761e-007    -2.4945e-008   
  -1.35           6.187e-010      -2.3079e-007    9.599e-009     
  -1.4            -1.5497e-009    -4.3715e-007    1.7813e-008    
  -1.45           -2.539e-009     -7.3542e-007    5.768e-009     
  -1.5            -9.542e-010     -1.1505e-006    -3.502e-009    
  -1.55           1.994e-010      -1.6962e-006    -1.1958e-008   
  -1.6            2.7106e-009     -2.3468e-006    -2.056e-008    
  -1.65           2.4062e-009     -3.1082e-006    -1.135e-009    
  -1.7            1.7755e-009     -4.0099e-006    -2.932e-009    
  -1.75           2.5233e-009     -5.0337e-006    -7.668e-009    
  -1.8            6.413e-010      -6.1547e-006    9.766e-009     
END_DB

BEGIN_DB
 ICCAP_VAR VS         0              
 ICCAP_VAR VB         1.8            
 ICCAP_VAR VD         -0.1           

 #VG              IG              ID              IB             
  0               9.348e-010      8.591e-010      1.2367e-008    
  -0.05           -1.6257e-009    7.919e-010      2.0713e-008    
  -0.1            -7.32e-010      -2.1113e-009    5.552e-009     
  -0.15           2.0016e-009     -1.5009e-009    -1.6966e-008   
  -0.2            4.938e-010      2.1236e-009     -6.167e-009    
  -0.25           -2.0839e-009    5.478e-010      1.5518e-008    
  -0.3            2.6807e-009     -1.0719e-009    -2.4548e-008   
  -0.35           -1.9533e-009    1.4044e-009     2.0017e-008    
  -0.4            2.6391e-009     -1.1399e-009    -2.5146e-008   
  -0.45           -1.8084e-009    1.4734e-009     1.7629e-008    
  -0.5            2.5667e-009     -1.2136e-009    -2.4934e-008   
  -0.55           3.16e-010       2.0658e-009     9.657e-009     
  -0.6            4.845e-010      2.1229e-009     9.404e-009     
  -0.65           -2.1027e-009    5.38e-010       1.5192e-008    
  -0.7            2.6895e-009     -1.0615e-009    -2.4592e-008   
  -0.75           -1.7862e-009    7.082e-010      1.8861e-008    
  -0.8            -1.0414e-009    -2.0617e-009    -5.449e-009    
  -0.85           2.7151e-009     -9.861e-010     -2.3486e-008   
  -0.9            7.413e-010      2.187e-009      -1.215e-009    
  -0.95           -1.7205e-009    7.387e-010      1.9548e-008    
  -1              -1.081e-009     -2.0445e-009    -5.047e-009    
  -1.05           2.7077e-009     -1.0187e-009    -2.395e-008    
  -1.1            7.81e-010       2.1827e-009     -1.097e-009    
  -1.15           -1.6586e-009    7.312e-010      2.0278e-008    
  -1.2            -1.5598e-009    -1.7377e-009    5.285e-009     
  -1.25           2.2414e-009     -2.325e-009     -2.0564e-008   
  -1.3            1.9557e-009     -2.9831e-009    -4.279e-009    
  -1.35           -2.329e-009     -1.2098e-008    -2.4852e-008   
  -1.4            -1.7618e-009    -3.2731e-008    2.194e-009     
  -1.45           -2.5715e-009    -7.8178e-008    -5.402e-009    
  -1.5            2.99e-011       -1.6086e-007    -8.84e-009     
  -1.55           -2.3668e-009    -2.9046e-007    2.5334e-008    
  -1.6            -1.7985e-009    -4.6462e-007    2.015e-009     
  -1.65           -1.3608e-009    -6.7424e-007    4.562e-009     
  -1.7            -2.5935e-009    -9.0926e-007    8.242e-009     
  -1.75           -1.4647e-009    -1.1612e-006    -8.82e-009     
  -1.8            1.8073e-009     -1.4282e-006    -1.7211e-008   
END_DB

BEGIN_DB
 ICCAP_VAR VS         0              
 ICCAP_VAR VB         1.8            
 ICCAP_VAR VD         -1.8           

 #VG              IG              ID              IB             
  0               -1.1042e-009    -9.987e-010     -2.4783e-008   
  -0.05           2.2029e-009     -6.55e-010      -1.7737e-008   
  -0.1            3.685e-010      2.0805e-009     -4.536e-009    
  -0.15           5.298e-010      2.138e-009      9.151e-009     
  -0.2            6.887e-010      2.1782e-009     8.733e-009     
  -0.25           8.358e-010      2.1838e-009     8.284e-009     
  -0.3            -1.601e-009     8.127e-010      2.1155e-008    
  -0.35           -7.622e-010     -2.1147e-009    5.718e-009     
  -0.4            1.9646e-009     -1.522e-009     -1.642e-008    
  -0.45           5.216e-010      2.1331e-009     -6.579e-009    
  -0.5            -2.0512e-009    5.67e-010       1.6164e-008    
  -0.55           2.6637e-009     -1.0912e-009    -2.45e-008     
  -0.6            -1.7368e-009    7.353e-010      1.9534e-008    
  -0.65           -1.0724e-009    -2.0445e-009    -5.115e-009    
  -0.7            2.7031e-009     -1.0108e-009    -2.3651e-008   
  -0.75           7.749e-010      2.1845e-009     -1.084e-009    
  -0.8            -1.6822e-009    1.5502e-009     1.5259e-008    
  -0.85           -6.867e-010     -2.1093e-009    5.32e-009      
  -0.9            2.0718e-009     -1.4814e-009    -1.8135e-008   
  -0.95           4.498e-010      2.1132e-009     -5.694e-009    
  -1              -2.1442e-009    5.137e-010      1.4951e-008    
  -1.05           2.695e-009      -1.6463e-009    -1.1242e-008   
  -1.1            8.221e-010      2.1797e-009     -1.294e-009    
  -1.15           -1.6154e-009    7.526e-010      2.0763e-008    
  -1.2            -1.5963e-009    -1.7013e-009    5.754e-009     
  -1.25           2.1825e-009     -2.3854e-009    -1.9761e-008   
  -1.3            1.9022e-009     -3.2133e-009    -4.762e-009    
  -1.35           -2.605e-009     -1.279e-008     -1.9548e-008   
  -1.4            2.2449e-009     -3.7189e-008    -2.4914e-008   
  -1.45           2.374e-009      -8.646e-008     -4.186e-009    
  -1.5            2.3833e-009     -1.9434e-007    1.179e-009     
  -1.55           1.7284e-009     -3.6104e-007    -3.252e-009    
  -1.6            2.5547e-009     -6.2412e-007    -8.197e-009    
  -1.65           6.816e-010      -9.8044e-007    9.658e-009     
  -1.7            -2.3886e-009    -1.4474e-006    -1.8101e-008   
  -1.75           2.7159e-009     -2.0461e-006    -1.6872e-008   
  -1.8            2.4645e-009     -2.727e-006     -1.073e-009    
END_DB

