! VERSION = 6.00
BEGIN_HEADER
 ICCAP_INPUTS
  VG         V  B GROUND SMU4 0.001 LIN        2    0          -1.8       6    -0.36     
  VS         V  E GROUND SMU2 0.1 CON        0
  VD         V  S GROUND SMU1 0.1 LIN        1    0          -1.8       37   -0.05     
  VB         V  C GROUND SMU3 0.1 LIN        3    0          0.9        2    0.9       
 ICCAP_OUTPUTS
  ID         I  S GROUND SMU1 B
  IB         I  C GROUND SMU3 B
  IG         I  B GROUND SMU4 B
END_HEADER

BEGIN_DB
 ICCAP_VAR VG         0              
 ICCAP_VAR VS         0              
 ICCAP_VAR VB         0              

 #VD              ID              IB              IG             
  0               2.2239e-009     -1.7005e-008    2.5626e-009    
  -0.05           1.9464e-009     1.07e-008       -2.58e-011     
  -0.1            9.986e-010      2.4784e-008     -1.3712e-009   
  -0.15           -2.0953e-009    8.171e-009      -9.688e-010    
  -0.2            -1.6347e-009    -1.203e-008     2.724e-009     
  -0.25           2.2245e-009     -1.263e-009     8.239e-010     
  -0.3            1.6111e-009     1.4089e-008     -1.6188e-009   
  -0.35           -2.1357e-009    5.515e-009      -7.423e-010    
  -0.4            -1.5255e-009    -1.7139e-008    1.9701e-009    
  -0.45           2.1759e-009     -6.974e-009     5.513e-010     
  -0.5            6.094e-010      1.6229e-008     -2.0044e-009   
  -0.55           -1.1259e-009    -2.4928e-008    2.6704e-009    
  -0.6            1.5007e-009     1.7861e-008     -1.8305e-009   
  -0.65           -1.2156e-009    -2.5099e-008    2.5877e-009    
  -0.7            8.709e-010      2.2221e-008     -1.5204e-009   
  -0.75           -2.1287e-009    6.288e-009      -8.268e-010    
  -0.8            -1.5691e-009    -1.5122e-008    1.8298e-009    
  -0.85           2.2022e-009     -8.264e-009     6.398e-010     
  -0.9            2.2207e-009     8.419e-009      8.079e-010     
  -0.95           1.6056e-009     1.4517e-008     -1.6433e-009   
  -1              -2.0197e-009    -3.998e-009     -1.1314e-009   
  -1.05           -1.0776e-009    -2.4493e-008    2.6992e-009    
  -1.1            7.493e-010      1.9493e-008     -1.7402e-009   
  -1.15           -2.0567e-009    -4.374e-009     -1.0706e-009   
  -1.2            -1.0257e-009    -2.3806e-008    2.7234e-009    
  -1.25           2.2226e-009     -1.281e-009     8.242e-010     
  -1.3            8.184e-010      2.0872e-008     -1.6118e-009   
  -1.35           -2.006e-009     -3.929e-009     -1.1509e-009   
  -1.4            -1.0962e-009    -2.4618e-008    2.6935e-009    
  -1.45           7.652e-010      1.9527e-008     -1.7076e-009   
  -1.5            -2.0452e-009    -4.217e-009     -1.0895e-009   
  -1.55           -1.0406e-009    -2.4204e-008    2.7188e-009    
  -1.6            2.2264e-009     -1.317e-009     8.419e-010     
  -1.65           1.6297e-009     1.3373e-008     -1.5845e-009   
  -1.7            -2.1312e-009    5.771e-009      -7.726e-010    
  -1.75           -1.5382e-009    -1.6232e-008    1.9115e-009    
  -1.8            2.1827e-009     -7.33e-009      5.816e-010     
END_DB

BEGIN_DB
 ICCAP_VAR VG         -0.36          
 ICCAP_VAR VS         0              
 ICCAP_VAR VB         0              

 #VD              ID              IB              IG             
  0               -9.213e-010     -1.9954e-008    -1.0295e-009   
  -0.05           -2.0424e-009    2.207e-009      -1.108e-009    
  -0.1            -1.0573e-009    -2.4526e-008    2.7155e-009    
  -0.15           7.284e-010      1.8765e-008     -1.7757e-009   
  -0.2            -2.07e-009      -4.589e-009     -1.0491e-009   
  -0.25           -1.0049e-009    -2.37e-008      2.7365e-009    
  -0.3            2.2259e-009     -1.012e-009     7.946e-010     
  -0.35           1.5869e-009     1.4528e-008     -1.6522e-009   
  -0.4            -2.0287e-009    -4.057e-009     -1.125e-009    
  -0.45           -1.0708e-009    -2.4662e-008    2.7106e-009    
  -0.5            7.418e-010      1.9074e-008     -1.7515e-009   
  -0.55           -2.0658e-009    -4.465e-009     -1.0621e-009   
  -0.6            -1.0173e-009    -2.3928e-008    2.7302e-009    
  -0.65           2.2271e-009     -1.125e-009     8.126e-010     
  -0.7            1.6035e-009     1.4005e-008     -1.6236e-009   
  -0.75           -2.0206e-009    -4.007e-009     -1.1396e-009   
  -0.8            -1.0881e-009    -2.4835e-008    2.7036e-009    
  -0.85           1.4538e-009     1.9032e-008     -1.899e-009    
  -0.9            -1.1765e-009    -2.5667e-008    2.639e-009     
  -0.95           1.6313e-009     9.162e-009      -1.5657e-009   
  -1              -2.1336e-009    5.749e-009      -7.845e-010    
  -1.05           -1.5454e-009    -1.5967e-008    1.9067e-009    
  -1.1            2.1864e-009     -7.437e-009     5.911e-010     
  -1.15           6.39e-010       1.6847e-008     -1.9456e-009   
  -1.2            -1.1535e-009    -2.551e-008     2.6558e-009    
  -1.25           8.227e-010      2.095e-008      -1.599e-009    
  -1.3            -2.1319e-009    5.682e-009      -7.552e-010    
  -1.35           -1.5311e-009    -1.6833e-008    1.9626e-009    
  -1.4            2.1782e-009     -7.069e-009     5.616e-010     
  -1.45           6.19e-010       1.6207e-008     -1.993e-009    
  -1.5            -1.1309e-009    -2.54e-008      2.6727e-009    
  -1.55           8.002e-010      2.0446e-008     -1.6403e-009   
  -1.6            -2.0284e-009    -4.01e-009      -1.1305e-009   
  -1.65           -1.0767e-009    -2.4811e-008    2.7098e-009    
  -1.7            7.473e-010      1.9147e-008     -1.7474e-009   
  -1.75           -2.065e-009     -4.5e-009       -1.0647e-009   
  -1.8            -1.0227e-009    -2.3929e-008    2.7293e-009    
END_DB

BEGIN_DB
 ICCAP_VAR VG         -0.72          
 ICCAP_VAR VS         0              
 ICCAP_VAR VB         0              

 #VD              ID              IB              IG             
  0               6.771e-010      2.5332e-008     6.659e-010     
  -0.05           2.1979e-009     -9.147e-009     9.517e-010     
  -0.1            1.5147e-009     8.131e-009      -1.7538e-009   
  -0.15           -2.0715e-009    -4.479e-009     -1.0612e-009   
  -0.2            -1.0305e-009    -2.3801e-008    2.7276e-009    
  -0.25           2.2101e-009     -1.147e-009     8.139e-010     
  -0.3            1.5906e-009     1.4331e-008     -1.6405e-009   
  -0.35           -2.0311e-009    -4.044e-009     -1.1368e-009   
  -0.4            -1.0927e-009    -2.4541e-008    2.7023e-009    
  -0.45           7.385e-010      1.9321e-008     -1.741e-009    
  -0.5            -2.0698e-009    -4.5e-009       -1.0703e-009   
  -0.55           -1.038e-009     -2.3969e-008    2.729e-009     
  -0.6            2.2117e-009     -1.241e-009     8.188e-010     
  -0.65           1.5952e-009     1.4172e-008     -1.6296e-009   
  -0.7            -2.0227e-009    -3.995e-009     -1.1433e-009   
  -0.75           -1.102e-009     -2.4539e-008    2.6978e-009    
  -0.8            7.448e-010      1.9619e-008     -1.7308e-009   
  -0.85           -2.0678e-009    -4.382e-009     -1.0741e-009   
  -0.9            -1.0409e-009    -2.4009e-008    2.7256e-009    
  -0.95           2.2119e-009     -1.2e-009       8.269e-010     
  -1              1.6018e-009     1.4032e-008     -1.6119e-009   
  -1.05           -2.1419e-009    5.791e-009      -7.499e-010    
  -1.1            -1.5476e-009    -1.707e-008     1.9685e-009    
  -1.15           2.1639e-009     -7.005e-009     5.539e-010     
  -1.2            5.977e-010      1.6236e-008     -2.0052e-009   
  -1.25           -1.1414e-009    -2.4928e-008    2.6695e-009    
  -1.3            7.793e-010      2.0294e-008     -1.6573e-009   
  -1.35           -2.0479e-009    -4.126e-009     -1.1187e-009   
  -1.4            -1.0798e-009    -2.4403e-008    2.7106e-009    
  -1.45           7.236e-010      1.9171e-008     -1.7642e-009   
  -1.5            -2.0816e-009    -4.551e-009     -1.0541e-009   
  -1.55           -1.0217e-009    -2.3697e-008    2.7323e-009    
  -1.6            2.2094e-009     -1.239e-009     8.061e-010     
  -1.65           1.575e-009      1.4573e-008     -1.6492e-009   
  -1.7            -2.0402e-009    -4.013e-009     -1.1238e-009   
  -1.75           -1.085e-009     -2.4528e-008    2.7108e-009    
  -1.8            7.291e-010      1.916e-008      -1.7598e-009   
END_DB

BEGIN_DB
 ICCAP_VAR VG         -1.08          
 ICCAP_VAR VS         0              
 ICCAP_VAR VB         0              

 #VD              ID              IB              IG             
  0               -1.0618e-009    9.664e-009      -1.2608e-009   
  -0.05           -1.4183e-008    1.0713e-008     2.5316e-009    
  -0.1            -2.354e-008     -2.3232e-008    2.6744e-009    
  -0.15           -2.7846e-008    -1.4578e-008    2.7214e-009    
  -0.2            -2.8973e-008    -1.6905e-008    2.7453e-009    
  -0.25           -2.8264e-008    -1.7837e-008    1.7213e-009    
  -0.3            -2.831e-008     -1.6941e-008    1.884e-009     
  -0.35           -2.891e-008     -2.5225e-008    2.2568e-009    
  -0.4            -2.8688e-008    -2.5052e-008    2.5518e-009    
  -0.45           -2.9403e-008    -1.2235e-008    1.696e-010     
  -0.5            -2.8774e-008    8.273e-009      -2.6106e-009   
  -0.55           -2.5866e-008    9.386e-009      7.653e-010     
  -0.6            -2.8342e-008    -1.6957e-008    1.8809e-009    
  -0.65           -2.895e-008     -2.5273e-008    2.2492e-009    
  -0.7            -2.8764e-008    -2.506e-008     2.546e-009     
  -0.75           -2.9457e-008    -1.2122e-008    1.667e-010     
  -0.8            -2.8853e-008    8.269e-009      -2.6094e-009   
  -0.85           -2.5898e-008    9.223e-009      7.659e-010     
  -0.9            -2.8401e-008    -1.7184e-008    1.8737e-009    
  -0.95           -2.901e-008     -2.5188e-008    2.2432e-009    
  -1              -2.8797e-008    -2.5129e-008    2.5451e-009    
  -1.05           -2.9512e-008    -1.2167e-008    1.696e-010     
  -1.1            -2.8879e-008    8.292e-009      -2.6084e-009   
  -1.15           -2.5944e-008    9.24e-009       7.701e-010     
  -1.2            -2.8441e-008    -1.6902e-008    1.8711e-009    
  -1.25           -2.9027e-008    -2.5129e-008    2.2402e-009    
  -1.3            -2.8816e-008    -2.51e-008      2.5401e-009    
  -1.35           -2.9531e-008    -1.2277e-008    1.7e-010       
  -1.4            -2.8914e-008    8.244e-009      -2.6084e-009   
  -1.45           -2.5985e-008    9.193e-009      7.707e-010     
  -1.5            -2.847e-008     -1.6823e-008    1.8792e-009    
  -1.55           -2.9077e-008    -2.5017e-008    2.2446e-009    
  -1.6            -2.886e-008     -2.5225e-008    2.5453e-009    
  -1.65           -2.957e-008     -1.2331e-008    1.683e-010     
  -1.7            -2.8944e-008    8.262e-009      -2.6104e-009   
  -1.75           -2.6006e-008    9.219e-009      7.656e-010     
  -1.8            -2.8548e-008    -1.6897e-008    1.8778e-009    
END_DB

BEGIN_DB
 ICCAP_VAR VG         -1.44          
 ICCAP_VAR VS         0              
 ICCAP_VAR VB         0              

 #VD              ID              IB              IG             
  0               -1.757e-010     -1.812e-008     -9.852e-010    
  -0.05           -8.2114e-008    8.99e-009       2.4938e-009    
  -0.1            -1.548e-007     1.7869e-008     -1.2035e-009   
  -0.15           -2.0832e-007    2.5594e-008     -2.1156e-009   
  -0.2            -2.5358e-007    1.4999e-008     -1.7195e-009   
  -0.25           -2.8612e-007    1.0196e-008     2.0584e-009    
  -0.3            -3.115e-007     -1.8533e-008    1.6304e-009    
  -0.35           -3.2692e-007    -9.927e-009     -7.878e-010    
  -0.4            -3.3173e-007    2.0969e-008     -1.3926e-009   
  -0.45           -3.3452e-007    8.907e-009      8.806e-010     
  -0.5            -3.3922e-007    -2.2685e-008    2.6783e-009    
  -0.55           -3.3995e-007    -2.4284e-008    2.5682e-009    
  -0.6            -3.4026e-007    -2.5359e-008    2.3976e-009    
  -0.65           -3.405e-007     -2.459e-008     2.1837e-009    
  -0.7            -3.4009e-007    -1.8061e-008    1.7318e-009    
  -0.75           -3.4107e-007    -1.0133e-008    -7.074e-010    
  -0.8            -3.3818e-007    1.9807e-008     -1.44e-009     
  -0.85           -3.3748e-007    9.15e-009       8.125e-010     
  -0.9            -3.4076e-007    -2.1688e-008    2.7126e-009    
  -0.95           -3.4089e-007    -2.3625e-008    2.6321e-009    
  -1              -3.4105e-007    -2.5117e-008    2.4894e-009    
  -1.05           -3.4108e-007    -2.5348e-008    2.2918e-009    
  -1.1            -3.4066e-007    -1.7275e-008    1.844e-009     
  -1.15           -3.4171e-007    -1.7597e-008    2.7465e-009    
  -1.2            -3.4205e-007    -1.233e-008     1.685e-010     
  -1.25           -3.3943e-007    9.221e-009      -2.5161e-009   
  -1.3            -3.3805e-007    1.044e-008      -1.049e-010    
  -1.35           -3.4047e-007    -1.3911e-008    2.592e-009     
  -1.4            -3.4144e-007    -2.5645e-008    2.4319e-009    
  -1.45           -3.4156e-007    -2.4903e-008    2.2147e-009    
  -1.5            -3.4114e-007    -1.7701e-008    1.7613e-009    
  -1.55           -3.4221e-007    -1.6178e-008    2.7318e-009    
  -1.6            -3.4241e-007    -1.1764e-008    1.335e-010     
  -1.65           -3.3978e-007    8.968e-009      -2.4815e-009   
  -1.7            -3.3881e-007    8.595e-009      1.467e-009     
  -1.75           -3.4217e-007    -2.0262e-008    1.795e-009     
  -1.8            -3.424e-007     -1.6602e-008    2.7394e-009    
END_DB

BEGIN_DB
 ICCAP_VAR VG         -1.8           
 ICCAP_VAR VS         0              
 ICCAP_VAR VB         0              

 #VD              ID              IB              IG             
  0               -2.62e-011      -2.5057e-008    -1.1376e-009   
  -0.05           -1.5707e-007    2.5255e-008     -1.6774e-009   
  -0.1            -2.9734e-007    1.1101e-008     -2.0549e-009   
  -0.15           -4.2563e-007    9.86e-009       3.189e-010     
  -0.2            -5.4567e-007    -1.6669e-008    2.0152e-009    
  -0.25           -6.5232e-007    -2.0455e-008    2.7391e-009    
  -0.3            -7.4458e-007    -2.0249e-008    2.7035e-009    
  -0.35           -8.2625e-007    -1.2151e-008    2.5713e-009    
  -0.4            -8.9397e-007    -2.5347e-008    2.4104e-009    
  -0.45           -9.4975e-007    -1.6395e-008    2.0026e-009    
  -0.5            -9.955e-007     -2.036e-008     2.7264e-009    
  -0.55           -1.02968e-006   -1.3897e-008    2.6694e-009    
  -0.6            -1.05295e-006   -2.4218e-008    2.5719e-009    
  -0.65           -1.06852e-006   -2.5233e-008    2.4486e-009    
  -0.7            -1.07732e-006   -1.6584e-008    2.0056e-009    
  -0.75           -1.08323e-006   -2.0316e-008    2.732e-009     
  -0.8            -1.08635e-006   -1.3852e-008    2.6853e-009    
  -0.85           -1.08686e-006   -2.3936e-008    2.5381e-009    
  -0.9            -1.08773e-006   -2.5169e-008    2.4065e-009    
  -0.95           -1.08815e-006   -2.4589e-008    2.1961e-009    
  -1              -1.08811e-006   -1.8102e-008    1.7559e-009    
  -1.05           -1.08867e-006   -2.0412e-008    2.7166e-009    
  -1.1            -1.08986e-006   -1.1876e-008    1.221e-010     
  -1.15           -1.08576e-006   8.649e-009      -2.4587e-009   
  -1.2            -1.08752e-006   8.609e-009      1.4877e-009    
  -1.25           -1.08934e-006   -1.4687e-008    2.5121e-009    
  -1.3            -1.08998e-006   -2.5246e-008    2.3321e-009    
  -1.35           -1.09014e-006   -2.3926e-008    2.1088e-009    
  -1.4            -1.09052e-006   -2.1527e-008    1.8647e-009    
  -1.45           -1.09101e-006   -1.8171e-008    2.7332e-009    
  -1.5            -1.09165e-006   -1.2611e-008    1.717e-010     
  -1.55           -1.08731e-006   8.984e-009      -2.5087e-009   
  -1.6            -1.08669e-006   1.066e-008      -1.152e-010    
  -1.65           -1.09057e-006   -1.3887e-008    2.5804e-009    
  -1.7            -1.09147e-006   -2.5159e-008    2.4257e-009    
  -1.75           -1.09158e-006   -2.4842e-008    2.2163e-009    
  -1.8            -1.0914e-006    -1.7965e-008    1.7757e-009    
END_DB

BEGIN_DB
 ICCAP_VAR VG         0              
 ICCAP_VAR VS         0              
 ICCAP_VAR VB         0.9            

 #VD              ID              IB              IG             
  0               -1.0085e-009    -2.5692e-008    -1.1194e-009   
  -0.05           -6.956e-010     -1.7918e-008    2.153e-009     
  -0.1            2.1388e-009     -5.569e-009     4.423e-010     
  -0.15           2.1995e-009     9.074e-009      6.237e-010     
  -0.2            2.231e-009      8.367e-009      7.99e-010      
  -0.25           8.008e-010      2.0554e-008     -1.6246e-009   
  -0.3            -2.0276e-009    -3.829e-009     -1.1386e-009   
  -0.35           -1.0863e-009    -2.5116e-008    2.7111e-009    
  -0.4            1.4555e-009     1.8346e-008     -1.8776e-009   
  -0.45           -1.1808e-009    -2.5777e-008    2.6357e-009    
  -0.5            1.6369e-009     9.364e-009      -1.5406e-009   
  -0.55           -2.1327e-009    5.799e-009      -7.994e-010    
  -0.6            -1.5568e-009    -1.5217e-008    1.8551e-009    
  -0.65           2.1903e-009     -7.713e-009     6.174e-010     
  -0.7            6.651e-010      1.7215e-008     -1.8814e-009   
  -0.75           -1.1819e-009    -2.5651e-008    2.6384e-009    
  -0.8            1.6377e-009     8.405e-009      -1.5457e-009   
  -0.85           -2.1294e-009    5.904e-009      -8.007e-010    
  -0.9            -1.553e-009     -1.5479e-008    1.8665e-009    
  -0.95           2.1917e-009     -7.626e-009     6.169e-010     
  -1              2.2269e-009     8.389e-009      7.889e-010     
  -1.05           7.907e-010      2.0361e-008     -1.6422e-009   
  -1.1            -2.0393e-009    -3.798e-009     -1.1256e-009   
  -1.15           -1.0737e-009    -2.4979e-008    2.7183e-009    
  -1.2            1.4441e-009     1.8925e-008     -1.9116e-009   
  -1.25           -1.1676e-009    -2.5809e-008    2.6512e-009    
  -1.3            1.6242e-009     8.338e-009      -1.5619e-009   
  -1.35           -2.1334e-009    5.76e-009       -7.832e-010    
  -1.4            -1.547e-009     -1.5696e-008    1.8874e-009    
  -1.45           2.1866e-009     -7.631e-009     5.943e-010     
  -1.5            2.2291e-009     8.519e-009      7.693e-010     
  -1.55           7.814e-010      2.0165e-008     -1.666e-009    
  -1.6            -2.0498e-009    -3.991e-009     -1.1065e-009   
  -1.65           -1.0588e-009    -2.5121e-008    2.7221e-009    
  -1.7            7.311e-010      1.8871e-008     -1.7514e-009   
  -1.75           -2.0755e-009    -4.486e-009     -1.0564e-009   
  -1.8            -1.015e-009     -2.4384e-008    2.7417e-009    
END_DB

BEGIN_DB
 ICCAP_VAR VG         -0.36          
 ICCAP_VAR VS         0              
 ICCAP_VAR VB         0.9            

 #VD              ID              IB              IG             
  0               1.277e-010      2.1102e-008     7.413e-010     
  -0.05           2.228e-009      -8.99e-009      7.933e-010     
  -0.1            1.5866e-009     1.4205e-008     -1.6331e-009   
  -0.15           -2.0348e-009    -3.918e-009     -1.1271e-009   
  -0.2            -1.0732e-009    -2.5028e-008    2.7156e-009    
  -0.25           7.528e-010      1.933e-008      -1.7171e-009   
  -0.3            -2.066e-009     -4.224e-009     -1.0816e-009   
  -0.35           -1.0366e-009    -2.4382e-008    2.7298e-009    
  -0.4            2.2261e-009     -1.41e-009      8.395e-010     
  -0.45           1.6298e-009     1.3209e-008     -1.5713e-009   
  -0.5            -2.131e-009     5.621e-009      -7.735e-010    
  -0.55           -1.54e-009      -1.5883e-008    1.9044e-009    
