! VERSION = 6.00
BEGIN_HEADER
 ICCAP_INPUTS
  VG         V  B GROUND SMU4 0.001 LIN        1    0          -1.8       37   -0.05     
  VS         V  E GROUND SMU2 0.1 CON        0
  VB         V  C GROUND SMU3 0.1 LIN        3    0          1.8        3    0.9       
  VD         V  S GROUND SMU1 0.1 LIN        2    -0.1       -1.8       2    -1.7      
 ICCAP_OUTPUTS
  IG         I  B GROUND SMU4 B
  ID         I  S GROUND SMU1 B
  IB         I  C GROUND SMU3 B
END_HEADER

BEGIN_DB
 ICCAP_VAR VS         0              
 ICCAP_VAR VB         0              
 ICCAP_VAR VD         -0.1           

 #VG              IG              ID              IB             
  0               -1.23e-011      4.454e-010      -1.921e-008    
  -0.05           -1.2542e-009    -1.2528e-009    1.357e-009     
  -0.1            1.1054e-009     -1.0743e-009    -1.4378e-008   
  -0.15           1.8773e-009     9.389e-010      -1.0384e-008   
  -0.2            -1.2387e-009    1.053e-009      9.883e-009     
  -0.25           -1.2274e-009    -1.279e-009     4.258e-009     
  -0.3            1.752e-010      -1.7592e-009    -9.496e-009    
  -0.35           2.0208e-009     9.768e-010      -1.1358e-008   
  -0.4            -1.2279e-009    1.1957e-009     1.1831e-008    
  -0.45           -1.3727e-009    -1.1648e-009    8.428e-009     
  -0.5            1.624e-010      1.591e-009      -9.388e-009    
  -0.55           -1.2476e-009    1.272e-010      8.657e-009     
  -0.6            -1.2421e-009    -2.3845e-009    3.061e-009     
  -0.65           -1.2402e-009    -7.7345e-009    1.842e-009     
  -0.7            1.3159e-009     -2.7507e-008    1.0689e-008    
  -0.75           1.0681e-009     -9.3121e-008    -3.156e-009    
  -0.8            1.0799e-009     -3.0145e-007    2.955e-009     
  -0.85           1.1431e-009     -8.6028e-007    -8.679e-009    
  -0.9            1.7703e-009     -2.0688e-006    4.857e-009     
  -0.95           6.609e-010      -4.5028e-006    8.482e-009     
  -1              1.0694e-009     -8.4084e-006    1.1031e-008    
  -1.05           -1.4125e-009    -1.371e-005     1.453e-008     
  -1.1            1.6179e-009     -2.0746e-005    -1.2565e-008   
  -1.15           1.4318e-009     -2.8711e-005    1.4733e-008    
  -1.2            3.829e-010      -3.7343e-005    9.151e-009     
  -1.25           6.582e-010      -4.6501e-005    8.542e-009     
  -1.3            1.0666e-009     -5.563e-005     1.2056e-008    
  -1.35           1.4949e-009     -6.4434e-005    1.5118e-008    
  -1.4            4.269e-010      -7.3102e-005    8.92e-009      
  -1.45           7.176e-010      -8.1474e-005    9.004e-009     
  -1.5            1.1436e-009     -8.9278e-005    1.2495e-008    
  -1.55           1.5606e-009     -9.6588e-005    1.5045e-008    
  -1.6            4.659e-010      -0.000103618    8.665e-009     
  -1.65           7.804e-010      -0.000110249    9.65e-009      
  -1.7            2.3168e-009     -0.00011629     8.723e-009     
  -1.75           6.909e-010      -0.00012222     8.472e-009     
  -1.8            1.1107e-009     -0.00012769     1.1684e-008    
END_DB

BEGIN_DB
 ICCAP_VAR VS         0              
 ICCAP_VAR VB         0              
 ICCAP_VAR VD         -1.8           

 #VG              IG              ID              IB             
  0               1.1432e-009     9.525e-010      -8.549e-009    
  -0.05           -1.2456e-009    8.695e-010      8.338e-009     
  -0.1            -1.0088e-009    -1.4698e-009    1.96e-009      
  -0.15           1.7656e-009     -1.097e-010     -1.4375e-008   
  -0.2            1.7951e-009     9.234e-010      6.1e-010       
  -0.25           -1.2415e-009    9.481e-010      8.566e-009     
  -0.3            -1.1105e-009    -1.3743e-009    2.644e-009     
  -0.35           1.6302e-009     -1.963e-010     -1.5615e-008   
  -0.4            -1.2557e-009    1.2744e-009     1.4088e-008    
  -0.45           -2.3914e-009    -1.3279e-009    3.129e-009     
  -0.5            1.1431e-009     -1.1118e-009    -1.1456e-008   
  -0.55           1.1374e-009     -4.1781e-009    -1.3948e-008   
  -0.6            -2.2059e-009    -1.4145e-008    -1.15e-008     
  -0.65           1.1422e-009     -4.3242e-008    -1.0966e-008   
  -0.7            2.2959e-009     -1.2291e-007    -9.532e-009    
  -0.75           6.651e-010      -3.61e-007      8.36e-009      
  -0.8            1.0265e-009     -9.7678e-007    1.1944e-008    
  -0.85           -2.0667e-009    -2.3907e-006    -1.4395e-008   
  -0.9            1.1373e-009     -5.4733e-006    -1.4046e-008   
  -0.95           1.7119e-009     -1.09866e-005   -1.149e-008    
  -1              -1.3457e-009    -1.9619e-005    1.5147e-008    
  -1.05           1.4787e-009     -3.2894e-005    -1.369e-008    
  -1.1            1.1093e-009     -5.0282e-005    -2.726e-009    
  -1.15           1.0862e-009     -7.2346e-005    -3.319e-009    
  -1.2            1.1431e-009     -9.9118e-005    -8.366e-009    
  -1.25           -1.2599e-009    -0.00012914     2.144e-009     
  -1.3            -1.2449e-009    -0.0001636      3.272e-009     
  -1.35           -1.2244e-009    -0.00020174     2.102e-009     
  -1.4            -1.6097e-009    -0.00024351     8.149e-009     
  -1.45           1.143e-009      -0.00028894     -1.0898e-008   
  -1.5            1.3145e-009     -0.00033606     -1.6041e-008   
  -1.55           1.0739e-009     -0.00038508     -2.979e-009    
  -1.6            1.1037e-009     -0.00043643     -4.532e-009    
  -1.65           1.1413e-009     -0.00048959     -1.0197e-008   
  -1.7            1.5257e-009     -0.00054364     -1.3574e-008   
  -1.75           1.1203e-009     -0.00059947     -2.676e-009    
  -1.8            1.0795e-009     -0.0006564      -3.407e-009    
END_DB

BEGIN_DB
 ICCAP_VAR VS         0              
 ICCAP_VAR VB         0.9            
 ICCAP_VAR VD         -0.1           

 #VG              IG              ID              IB             
  0               -1.1583e-009    -9.765e-010     1.5197e-008    
  -0.05           1.9576e-009     9.648e-010      -1.0962e-008   
  -0.1            -1.2335e-009    1.1557e-009     1.0042e-008    
  -0.15           -1.3246e-009    -1.1627e-009    6.748e-009     
  -0.2            1.1244e-009     -1.1214e-009    -1.1899e-008   
  -0.25           1.9507e-009     9.648e-010      -1.0868e-008   
  -0.3            -1.2358e-009    1.146e-009      9.946e-009     
  -0.35           -1.3131e-009    -1.1718e-009    6.293e-009     
  -0.4            1.1233e-009     -1.1152e-009    -1.2309e-008   
  -0.45           1.9387e-009     9.608e-010      -1.0934e-008   
  -0.5            -1.2367e-009    1.1333e-009     9.715e-009     
  -0.55           -1.3015e-009    -1.1815e-009    5.896e-009     
  -0.6            1.1203e-009     -1.1134e-009    -1.2527e-008   
  -0.65           1.9359e-009     9.38e-010       -1.0819e-008   
  -0.7            -1.2383e-009    1.0286e-009     1.079e-008     
  -0.75           -2.1256e-009    -1.4401e-009    5.777e-009     
  -0.8            1.995e-010      -3.5399e-009    -9.548e-009    
  -0.85           1.1441e-009     -8.0952e-009    -1.1419e-008   
  -0.9            -1.2446e-009    -3.3807e-008    -9.124e-009    
  -0.95           3e-010          -1.2467e-007    -1.0161e-008   
  -1              5.818e-010      -4.2922e-007    8.37e-009      
  -1.05           -2.0808e-009    -1.2221e-006    -1.5148e-008   
  -1.1            1.1408e-009     -3.0424e-006    -1.084e-008    
  -1.15           1.4593e-009     -6.2576e-006    -1.472e-008    
  -1.2            1.0949e-009     -1.11534e-005   -2.913e-009    
  -1.25           -1.2304e-009    -1.7508e-005    -2.829e-009    
  -1.3            -1.6574e-009    -2.5224e-005    7.581e-009     
  -1.35           1.1337e-009     -3.3936e-005    -1.1035e-008   
  -1.4            1.3479e-009     -4.2843e-005    -1.5859e-008   
  -1.45           1.0752e-009     -5.1725e-005    -2.928e-009    
  -1.5            1.1008e-009     -6.0445e-005    -4.247e-009    
  -1.55           1.1408e-009     -6.875e-005     -1.0228e-008   
  -1.6            1.5538e-009     -7.6639e-005    -1.3676e-008   
  -1.65           1.4625e-009     -8.4073e-005    1.4533e-008    
  -1.7            4.492e-010      -9.1126e-005    8.751e-009     
  -1.75           7.205e-010      -9.7791e-005    8.781e-009     
  -1.8            1.1148e-009     -0.000104006    1.2225e-008    
END_DB

BEGIN_DB
 ICCAP_VAR VS         0              
 ICCAP_VAR VB         0.9            
 ICCAP_VAR VD         -1.8           

 #VG              IG              ID              IB             
  0               -1.2456e-009    -1.0578e-009    -3.844e-009    
  -0.05           -1.858e-010     -1.8843e-009    -9.436e-009    
  -0.1            1.6437e-009     -1.784e-010     -1.5005e-008   
  -0.15           1.1412e-009     1.1948e-009     1.4116e-008    
  -0.2            -1.246e-009     1.5831e-009     8.167e-009     
  -0.25           -1.1073e-009    -1.3765e-009    2.678e-009     
  -0.3            1.6362e-009     -1.778e-010     -1.5019e-008   
  -0.35           1.1416e-009     1.1859e-009     1.3878e-008    
  -0.4            1.3083e-009     1.0379e-009     1.4974e-008    
  -0.45           1.034e-010      1.7129e-009     8.571e-009     
  -0.5            -1.2577e-009    6.312e-010      8.608e-009     
  -0.55           -7.044e-010     -1.7658e-009    3.206e-009     
  -0.6            -1.2619e-009    1.3078e-009     -1.0866e-008   
  -0.65           -1.4615e-009    -1.2788e-009    2.97e-009      
  -0.7            -2.405e-010     -2.7781e-009    -9.299e-009    
  -0.75           1.1159e-009     -5.0192e-009    -1.3348e-008   
  -0.8            -1.2245e-009    -1.6169e-008    -9.532e-009    
  -0.85           -1.5924e-009    -5.6685e-008    8.464e-009     
  -0.9            3.564e-010      -1.8813e-007    -1.0611e-008   
  -0.95           6.313e-010      -5.878e-007     8.501e-009     
  -1              -1.8861e-009    -1.5997e-006    -1.1747e-008   
  -1.05           1.3361e-009     -4.0312e-006    -1.4938e-008   
  -1.1            1.0784e-009     -8.72e-006      -3.286e-009    
  -1.15           1.1427e-009     -1.6893e-005    2.572e-009     
  -1.2            1.481e-009      -2.9163e-005    -1.3237e-008   
  -1.25           1.1053e-009     -4.6012e-005    -3.112e-009    
  -1.3            1.0883e-009     -6.7735e-005    -3.588e-009    
  -1.35           1.1386e-009     -9.4241e-005    -8.8e-009      
  -1.4            -1.2564e-009    -0.00012401     2.209e-009     
  -1.45           -1.2389e-009    -0.00015833     3.046e-009     
  -1.5            -1.9586e-009    -0.00019631     3.712e-009     
  -1.55           1.1419e-009     -0.00023864     -9.347e-009    
  -1.6            1.6209e-009     -0.00028242     -1.2063e-008   
  -1.65           1.3973e-009     -0.00032874     1.3733e-008    
  -1.7            3.329e-010      -0.00037697     9.101e-009     
  -1.75           6.919e-010      -0.00042828     8.51e-009      
  -1.8            1.0747e-009     -0.00048064     1.1156e-008    
END_DB

BEGIN_DB
 ICCAP_VAR VS         0              
 ICCAP_VAR VB         1.8            
 ICCAP_VAR VD         -0.1           

 #VG              IG              ID              IB             
  0               -1.1771e-009    -1.0006e-009    -1.3898e-008   
  -0.05           1.9659e-009     9.679e-010      -1.0838e-008   
  -0.1            -1.2326e-009    1.163e-009      1.1301e-008    
  -0.15           -1.3445e-009    -1.1527e-009    7.122e-009     
  -0.2            -2.27e-011      -1.8413e-009    -9.448e-009    
  -0.25           1.1424e-009     -7.64e-011      -1.3921e-008   
  -0.3            1.6056e-009     -2.13e-010      -1.5741e-008   
  -0.35           1.1827e-009     1.1618e-009     1.4114e-008    
  -0.4            -4.5e-012       1.6339e-009     8.269e-009     
  -0.45           1.633e-010      1.731e-009      8.736e-009     
  -0.5            -1.2552e-009    6.692e-010      8.591e-009     
  -0.55           -7.305e-010     -1.7224e-009    2.801e-009     
  -0.6            2.0135e-009     9.786e-010      -1.1053e-008   
  -0.65           -1.2265e-009    1.2103e-009     1.1846e-008    
  -0.7            -1.385e-009     -1.1179e-009    8.677e-009     
  -0.75           1.8289e-009     9.231e-010      -9.829e-009    
  -0.8            -1.2413e-009    9.672e-010      9.231e-009     
  -0.85           -1.9609e-009    -1.2141e-009    3.363e-009     
  -0.9            1.5577e-009     -1.0634e-009    -1.6431e-008   
  -0.95           1.3157e-009     -3.0385e-009    -2.885e-009    
  -1              -2.2947e-009    -1.8296e-008    -1.3516e-008   
  -1.05           -3.296e-010     -7.2745e-008    -9.663e-009    
  -1.1            -2.0549e-009    -2.595e-007     8.571e-009     
  -1.15           1.1417e-009     -8.3136e-007    -1.0545e-008   
  -1.2            1.8479e-009     -2.1073e-006    6.963e-009     
  -1.25           7.858e-010      -4.7297e-006    9.705e-009     
  -1.3            1.2297e-009     -8.9047e-006    1.3126e-008    
  -1.35           -1.3772e-009    -1.4589e-005    1.4398e-008    
  -1.4            1.5177e-009     -2.1953e-005    -1.3149e-008   
  -1.45           1.114e-009      -3.0076e-005    -3.204e-009    
  -1.5            1.0827e-009     -3.8667e-005    -3.632e-009    
  -1.55           1.1402e-009     -4.7372e-005    -8.565e-009    
  -1.6            1.7079e-009     -5.5812e-005    -1.1742e-008   
  -1.65           1.36e-009       -6.395e-005     1.362e-008     
  -1.7            3.523e-010      -7.1627e-005    8.703e-009     
  -1.75           6.043e-010      -7.905e-005     8.373e-009     
  -1.8            1.0101e-009     -8.5952e-005    1.1665e-008    
END_DB

BEGIN_DB
 ICCAP_VAR VS         0              
 ICCAP_VAR VB         1.8            
 ICCAP_VAR VD         -1.8           

 #VG              IG              ID              IB             
  0               1.837e-010      -1.723e-010     -5.906e-009    
  -0.05           -4.866e-010     -1.8885e-009    2.733e-009     
  -0.1            1.8511e-009     9.374e-010      -1.0012e-008   
  -0.15           -1.2422e-009    1.0251e-009     9.706e-009     
  -0.2            -1.2124e-009    -1.2763e-009    3.827e-009     
  -0.25           1.107e-009      -1.053e-009     -1.4586e-008   
  -0.3            1.8702e-009     9.427e-010      -1.0339e-008   
  -0.35           -1.2404e-009    1.0465e-009     9.151e-009     
  -0.4            -1.2346e-009    -1.2516e-009    4.268e-009     
  -0.45           1.1097e-009     -1.0694e-009    -1.409e-008    
  -0.5            1.884e-009      9.459e-010      -1.0397e-008   
  -0.55           -1.2406e-009    1.0652e-009     1.0327e-008    
  -0.6            -1.2574e-009    -1.2299e-009    4.788e-009     
  -0.65           1.192e-010      -1.7984e-009    -9.661e-009    
  -0.7            1.1419e-009     -1.2e-011       -1.1601e-008   
  -0.75           1.7664e-009     -2.375e-010     -1.4018e-008   
  -0.8            -1.2362e-009    6.464e-010      -4.96e-010     
  -0.85           -2.0709e-009    -2.232e-009     6.094e-009     
  -0.9            -1.4208e-009    -1.1107e-008    -3.242e-009    
  -0.95           -3.649e-010     -4.0879e-008    -9.571e-009    
  -1              -1.113e-010     -1.4114e-007    1.75e-009      
  -1.05           1.4096e-009     -4.5767e-007    -1.4207e-008   
  -1.1            -1.2484e-009    -1.2752e-006    -9.621e-009    
  -1.15           -1.2405e-009    -3.2582e-006    2.246e-009     
  -1.2            -1.8512e-009    -7.3604e-006    4.973e-009     
  -1.25           3.713e-010      -1.471e-005     -1.4459e-008   
  -1.3            6.559e-010      -2.633e-005     8.463e-009     
  -1.35           1.0759e-009     -4.2443e-005    1.1455e-008    
  -1.4            1.5128e-009     -6.2897e-005    1.5905e-008    
  -1.45           4.398e-010      -8.8308e-005    9.032e-009     
  -1.5            2.2269e-009     -0.00011766     9.018e-009     
  -1.55           1.3827e-009     -0.00015158     1.4436e-008    
  -1.6            3.268e-010      -0.00018826     9.173e-009     
  -1.65           7.009e-010      -0.00022906     8.4e-009       
  -1.7            1.0852e-009     -0.00027245     1.144e-008     
  -1.75           1.5015e-009     -0.00031709     1.5722e-008    
  -1.8            4.252e-010      -0.00036475     8.957e-009     
END_DB

