! VERSION = 6.00
BEGIN_HEADER
 ICCAP_INPUTS
  VG         V  B GROUND SMU4 0.001 LIN        1    0          -1.8       37   -0.05     
  VS         V  E GROUND SMU2 0.1 CON        0
  VD         V  S GROUND SMU1 0.1 LIN        2    -0.1       -1.8       2    -1.7      
  VB         V  C GROUND SMU3 0.1 CON        0
 ICCAP_OUTPUTS
  IG         I  B GROUND SMU4 B
  ID         I  S GROUND SMU1 B
END_HEADER

BEGIN_DB
 ICCAP_VAR VS         0              
 ICCAP_VAR VD         -0.1           
 ICCAP_VAR VB         0              

 #VG              IG              ID             
  0               1.3328e-010     2.645e-011     
  -0.05           2.3418e-010     -1.268e-010    
  -0.1            -1.3452e-010    -2.4902e-010   
  -0.15           2.0067e-010     -6.059e-010    
  -0.2            -2.049e-011     -2.2559e-009   
  -0.25           7.623e-011      -7.043e-009    
  -0.3            1.4035e-010     -2.5022e-008   
  -0.35           -2.8183e-010    -8.9055e-008   
  -0.4            -1.932e-010     -3.1443e-007   
  -0.45           2.7479e-010     -1.09521e-006  
  -0.5            1.944e-011      -3.6881e-006   
  -0.55           -2.7087e-010    -1.1661e-005   
  -0.6            2.2851e-010     -3.373e-005    
  -0.65           -1.9297e-010    -8.5992e-005   
  -0.7            3.3933e-010     -0.00018848    
  -0.75           -2.48e-010      -0.00035274    
  -0.8            2.1306e-010     -0.00056962    
  -0.85           -2.9719e-010    -0.00081323    
  -0.9            2.5086e-010     -0.00105136    
  -0.95           3.1368e-010     -0.0012604     
  -1              -1.8441e-010    -0.0014328     
  -1.05           2.6348e-010     -0.0015694     
  -1.1            -2.237e-010     -0.0016759     
  -1.15           1.8795e-010     -0.0017597     
  -1.2            -2.6662e-010    -0.0018254     
  -1.25           2.2652e-010     -0.0018781     
  -1.3            -1.9082e-010    -0.0019209     
  -1.35           2.7155e-010     -0.0019559     
  -1.4            -2.2858e-010    -0.0019848     
  -1.45           1.9506e-010     -0.002009      
  -1.5            -2.7464e-010    -0.0020295     
  -1.55           2.3356e-010     -0.0020472     
  -1.6            -1.9701e-010    -0.0020625     
  -1.65           2.7812e-010     -0.0020757     
  -1.7            -2.3465e-010    -0.0020873     
  -1.75           2.0136e-010     -0.0020979     
  -1.8            -2.8196e-010    -0.0021072     
END_DB

BEGIN_DB
 ICCAP_VAR VS         0              
 ICCAP_VAR VD         -1.8           
 ICCAP_VAR VB         0              

 #VG              IG              ID             
  0               1.4284e-010     -6.298e-011    
  -0.05           -4.943e-011     -4.6884e-010   
  -0.1            3.1414e-010     -1.1654e-009   
  -0.15           -2.0391e-010    -3.4181e-009   
  -0.2            -3.3923e-010    -1.1868e-008   
  -0.25           2.5902e-010     -4.1305e-008   
  -0.3            -3.1966e-010    -1.4325e-007   
  -0.35           3.2489e-010     -4.9568e-007   
  -0.4            -1.2083e-010    -1.6814e-006   
  -0.45           2.342e-010      -5.4915e-006   
  -0.5            2.2228e-010     -1.6893e-005   
  -0.55           -1.8644e-010    -4.7635e-005   
  -0.6            3.3854e-010     -0.0001198     
  -0.65           -2.4474e-010    -0.00026302    
  -0.7            4.17e-010       -0.00089255    
  -0.75           1.109e-009      -0.0011893     
  -0.8            1.7682e-009     -0.0015152     
  -0.85           2.6173e-009     -0.0019193     
  -0.9            3.1589e-009     -0.0023993     
  -0.95           3.1579e-009     -0.0029482     
  -1              2.6498e-009     -0.0035563     
  -1.05           1.8655e-009     -0.0042174     
  -1.1            1.095e-009      -0.0049227     
  -1.15           6.2198e-010     -0.0056654     
  -1.2            3.865e-010      -0.0065429     
  -1.25           -5.616e-011     -0.0073452     
  -1.3            3.5394e-010     -0.0081691     
  -1.35           -1.7014e-010    -0.0090123     
  -1.4            2.6433e-010     -0.0098699     
  -1.45           -2.2279e-010    -0.0107404     
  -1.5            2.6095e-010     -0.011574      
  -1.55           -2.2238e-010    -0.012465      
  -1.6            1.8849e-010     -0.013363      
  -1.65           -2.6871e-010    -0.014266      
  -1.7            2.2965e-010     -0.015172      
  -1.75           -1.9554e-010    -0.016082      
  -1.8            2.8062e-010     -0.016995      
END_DB

