! VERSION = 6.00
BEGIN_HEADER
 ICCAP_INPUTS
  VG         V  B GROUND SMU4 0.001 LIN        2    0          -1.8       6    -0.36     
  VS         V  E GROUND SMU2 0.1 CON        0
  VD         V  S GROUND SMU1 0.1 LIN        1    0          -1.8       37   -0.05     
  VB         V  C GROUND SMU3 0.1 CON        0
 ICCAP_OUTPUTS
  ID         I  S GROUND SMU1 B
  IG         I  B GROUND SMU4 B
END_HEADER

BEGIN_DB
 ICCAP_VAR VG         0              
 ICCAP_VAR VS         0              
 ICCAP_VAR VB         0              

 #VD              ID              IG             
  0               -1.0533e-010    -9.017e-011    
  -0.05           -7.021e-011     3.2473e-010    
  -0.1            -2.2653e-010    -1.2771e-010   
  -0.15           -1.1045e-010    3.3094e-010    
  -0.2            1.7768e-010     9.191e-011     
  -0.25           -2.4557e-010    -1.1676e-010   
  -0.3            -1.0901e-010    3.404e-010     
  -0.35           1.6872e-010     7.981e-011     
  -0.4            -1.9039e-010    -1.9091e-010   
  -0.45           -1.5277e-010    2.5394e-010    
  -0.5            1.5776e-010     6.79e-011      
  -0.55           -2.0944e-010    -1.6907e-010   
  -0.6            -1.5251e-010    2.7502e-010    
  -0.65           1.4197e-010     5.762e-011     
  -0.7            -2.3147e-010    -1.5114e-010   
  -0.75           -1.5423e-010    2.9724e-010    
  -0.8            1.2111e-010     4.835e-011     
  -0.85           2.806e-011      -2.5523e-010   
  -0.9            -2.6454e-010    -1.3236e-010   
  -0.95           -1.5869e-010    3.2462e-010    
  -1              8.402e-011      3.527e-011     
  -1.05           1.6e-012        -2.8436e-010   
  -1.1            -2.9831e-010    -1.1664e-010   
  -1.15           -1.6426e-010    3.4037e-010    
  -1.2            4.413e-011      -3.072e-010    
  -1.25           -3.1977e-010    -1.0479e-010   
  -1.3            -1.6989e-010    3.4207e-010    
  -1.35           -2.2083e-010    -2.9868e-010   
  -1.4            -2.1049e-010    2.9524e-010    
  -1.45           -4.855e-011     3.2823e-010    
  -1.5            -1.8783e-010    -3.4386e-010   
  -1.55           -2.6569e-010    -2.4177e-010   
  -1.6            -2.1878e-010    3.3269e-010    
  -1.65           -4.781e-011     2.9435e-010    
  -1.7            -1.6204e-010    -2.9608e-010   
  -1.75           -2.474e-010     -3.2884e-010   
  -1.8            -2.3149e-010    3.4165e-010    
END_DB

BEGIN_DB
 ICCAP_VAR VG         -0.36          
 ICCAP_VAR VS         0              
 ICCAP_VAR VB         0              

 #VD              ID              IG             
  0               2.7206e-008     -3.0471e-010   
  -0.05           -1.2193e-007    1.7333e-010    
  -0.1            -1.611e-007     2.2702e-010    
  -0.15           -1.8038e-007    2.3414e-010    
  -0.2            -1.9643e-007    2.4311e-010    
  -0.25           -2.1217e-007    2.5329e-010    
  -0.3            -2.2803e-007    2.6379e-010    
  -0.35           -2.4431e-007    2.7447e-010    
  -0.4            -2.6091e-007    2.8552e-010    
  -0.45           -2.777e-007     2.9721e-010    
  -0.5            -2.9524e-007    3.0844e-010    
  -0.55           -3.1314e-007    3.1835e-010    
  -0.6            -3.315e-007     3.2699e-010    
  -0.65           -3.51e-007      2.2412e-010    
  -0.7            -3.7042e-007    2.3112e-010    
  -0.75           -3.903e-007     2.3929e-010    
  -0.8            -4.1096e-007    2.4869e-010    
  -0.85           -4.321e-007     2.5884e-010    
  -0.9            -4.5391e-007    2.7015e-010    
  -0.95           -4.7613e-007    2.819e-010     
  -1              -4.9909e-007    2.9333e-010    
  -1.05           -5.2284e-007    3.0471e-010    
  -1.1            -5.4722e-007    3.1482e-010    
  -1.15           -5.7221e-007    3.2389e-010    
  -1.2            -5.9861e-007    2.2121e-010    
  -1.25           -6.2528e-007    2.2816e-010    
  -1.3            -6.524e-007     2.3647e-010    
  -1.35           -6.8029e-007    2.4528e-010    
  -1.4            -7.0903e-007    2.5569e-010    
  -1.45           -7.3833e-007    2.659e-010     
  -1.5            -7.6877e-007    2.7794e-010    
  -1.55           -7.9962e-007    2.8887e-010    
  -1.6            -8.3191e-007    3.0079e-010    
  -1.65           -8.6488e-007    3.1139e-010    
  -1.7            -8.9866e-007    3.2086e-010    
  -1.75           -9.3487e-007    3.2983e-010    
  -1.8            -9.7059e-007    2.2539e-010    
END_DB

BEGIN_DB
 ICCAP_VAR VG         -0.72          
 ICCAP_VAR VS         0              
 ICCAP_VAR VB         0              

 #VD              ID              IG             
  0               -1.8002e-007    -3.3812e-010   
  -0.05           -0.00017198     -1.1497e-010   
  -0.1            -0.00025362     -3.086e-010    
  -0.15           -0.00029454     -3.1914e-010   
  -0.2            -0.00031941     -3.2846e-010   
  -0.25           -0.0003382      -3.3508e-010   
  -0.3            -0.00035421     -2.3167e-010   
  -0.35           -0.00036862     -2.4085e-010   
  -0.4            -0.00038207     -2.4966e-010   
  -0.45           -0.00039473     -2.6017e-010   
  -0.5            -0.00040705     -2.711e-010    
  -0.55           -0.00041878     -2.8243e-010   
  -0.6            -0.00043023     -2.9413e-010   
  -0.65           -0.00044139     -3.0482e-010   
  -0.7            -0.00045235     -3.161e-010    
  -0.75           -0.00046286     -3.2512e-010   
  -0.8            -0.00047351     -3.33e-010     
  -0.85           -0.00048405     -2.2906e-010   
  -0.9            -0.00049439     -2.3649e-010   
  -0.95           -0.00050469     -2.4632e-010   
  -1              -0.00051492     -2.566e-010    
  -1.05           -0.00052508     -2.6719e-010   
  -1.1            -0.00053512     -2.7884e-010   
  -1.15           -0.00054518     -2.9046e-010   
  -1.2            -0.00055511     -3.0155e-010   
  -1.25           -0.00056504     -3.1265e-010   
  -1.3            -0.0005746      -3.2259e-010   
  -1.35           -0.00058461     -3.3012e-010   
  -1.4            -0.00059448     -3.3608e-010   
  -1.45           -0.00060461     -2.34e-010     
  -1.5            -0.00077621     -2.4275e-010   
  -1.55           -0.00082444     -2.522e-010    
  -1.6            -0.00085901     -2.5697e-010   
  -1.65           -0.00088877     -2.5249e-010   
  -1.7            -0.00091664     -2.478e-011    
  -1.75           -0.00094462     5.0416e-010    
  -1.8            -0.00097183     4.3149e-010    
END_DB

BEGIN_DB
 ICCAP_VAR VG         -1.08          
 ICCAP_VAR VS         0              
 ICCAP_VAR VB         0              

 #VD              ID              IG             
  0               -3.7856e-006    -3.2532e-010   
  -0.05           -0.00092111     1.1375e-010    
  -0.1            -0.001753       -2.3143e-010   
  -0.15           -0.0024806      -2.3906e-010   
  -0.2            -0.0030902      -2.4908e-010   
  -0.25           -0.0035721      -2.5938e-010   
  -0.3            -0.0039353      -2.6974e-010   
  -0.35           -0.0041963      -2.8121e-010   
  -0.4            -0.0043838      -2.929e-010    
  -0.45           -0.0045219      -3.0411e-010   
  -0.5            -0.004628       -3.1505e-010   
  -0.55           -0.0047137      -3.2418e-010   
  -0.6            -0.0047856      -3.3145e-010   
  -0.65           -0.0048529      -2.2748e-010   
  -0.7            -0.0049122      -2.3637e-010   
  -0.75           -0.0049636      -2.46e-010     
  -0.8            -0.0049884      -2.5489e-010   
  -0.85           -0.0050111      -2.6556e-010   
  -0.9            -0.00503        -2.7627e-010   
  -0.95           -0.0050471      -2.8851e-010   
  -1              -0.0050667      -3.0018e-010   
  -1.05           -0.0050801      -3.1163e-010   
  -1.1            -0.0051005      -3.207e-010    
  -1.15           -0.005116       -3.2913e-010   
  -1.2            -0.0051315      -3.3452e-010   
  -1.25           -0.0051475      -2.3334e-010   
  -1.3            -0.0051639      -2.4264e-010   
  -1.35           -0.0051815      -2.5138e-010   
  -1.4            -0.0051947      -2.6228e-010   
  -1.45           -0.0052097      -2.7283e-010   
  -1.5            -0.0052255      -2.8481e-010   
  -1.55           -0.0052405      -2.9444e-010   
  -1.6            -0.0052564      -3.0231e-010   
  -1.65           -0.0052738      -2.9682e-010   
  -1.7            -0.0052901      6.74e-011      
  -1.75           -0.0053118      5.0198e-010    
  -1.8            -0.0053286      6.9135e-010    
END_DB

BEGIN_DB
 ICCAP_VAR VG         -1.44          
 ICCAP_VAR VS         0              
 ICCAP_VAR VB         0              

 #VD              ID              IG             
  0               -4.491e-006     3.3924e-010    
  -0.05           -0.001138       -3.4398e-010   
  -0.1            -0.0022493      -2.5973e-010   
  -0.15           -0.0033297      -2.7011e-010   
  -0.2            -0.0043758      -2.8161e-010   
  -0.25           -0.005383       -2.9331e-010   
  -0.3            -0.0063426      -3.046e-010    
  -0.35           -0.007245       -3.1488e-010   
  -0.4            -0.008087       -3.2462e-010   
  -0.45           -0.0088531      -2.216e-010    
  -0.5            -0.0095312      -2.2947e-010   
  -0.55           -0.0101226      -2.3778e-010   
  -0.6            -0.0106179      -2.4748e-010   
  -0.65           -0.0110092      -2.5648e-010   
  -0.7            -0.0113303      -2.6764e-010   
  -0.75           -0.011576       2.7619e-010    
  -0.8            -0.011779       2.8971e-010    
  -0.85           -0.011939       3.0164e-010    
  -0.9            -0.012076       3.1231e-010    
  -0.95           -0.012188       3.2121e-010    
  -1              -0.012289       3.3054e-010    
  -1.05           -0.012375       2.2652e-010    
  -1.1            -0.012462       2.3555e-010    
  -1.15           -0.012535       2.4325e-010    
  -1.2            -0.012593       2.548e-010     
  -1.25           -0.012605       2.6516e-010    
  -1.3            -0.01262        2.7624e-010    
  -1.35           -0.012646       2.8846e-010    
  -1.4            -0.012668       2.9827e-010    
  -1.45           -0.01268        3.1005e-010    
  -1.5            -0.012703       3.1972e-010    
  -1.55           -0.012713       3.2837e-010    
  -1.6            -0.012733       2.2608e-010    
  -1.65           -0.012745       2.3407e-010    
  -1.7            -0.012761       2.4193e-010    
  -1.75           -0.012776       2.5188e-010    
  -1.8            -0.01279        2.6271e-010    
END_DB

BEGIN_DB
 ICCAP_VAR VG         -1.8           
 ICCAP_VAR VS         0              
 ICCAP_VAR VB         0              

 #VD              ID              IG             
  0               -4.7928e-006    2.5722e-010    
  -0.05           -0.0012135      -2.8451e-010   
  -0.1            -0.0024122      -2.9753e-010   
  -0.15           -0.0035978      -3.0753e-010   
  -0.2            -0.0047676      -3.1827e-010   
  -0.25           -0.0059203      -3.272e-010    
  -0.3            -0.0070556      -2.2395e-010   
  -0.35           -0.0081687      -2.3289e-010   
  -0.4            -0.0092512      -2.4104e-010   
  -0.45           -0.010321       -2.507e-010    
  -0.5            -0.0113528      -2.6192e-010   
  -0.55           -0.012331       2.844e-010     
  -0.6            -0.013283       2.9607e-010    
  -0.65           -0.014205       3.0969e-010    
  -0.7            -0.015062       3.1931e-010    
  -0.75           -0.015866       3.2906e-010    
  -0.8            -0.016611       2.2534e-010    
  -0.85           -0.017286       2.3061e-010    
  -0.9            -0.017889       2.4045e-010    
  -0.95           -0.018415       2.5103e-010    
  -1              -0.018859       2.6179e-010    
  -1.05           -0.019255       2.7408e-010    
  -1.1            -0.01953        2.8401e-010    
  -1.15           -0.019794       2.9525e-010    
  -1.2            -0.020005       3.0574e-010    
  -1.25           -0.020181       3.1629e-010    
  -1.3            -0.020345       3.2816e-010    
  -1.35           -0.020486       2.2381e-010    
  -1.4            -0.020594       2.3142e-010    
  -1.45           -0.020707       2.3962e-010    
  -1.5            -0.020809       2.5038e-010    
  -1.55           -0.020903       2.599e-010     
  -1.6            -0.020996       2.7365e-010    
  -1.65           -0.021068       2.8418e-010    
  -1.7            -0.021137       2.9393e-010    
  -1.75           -0.021156       3.05e-010      
  -1.8            -0.021185       3.1441e-010    
END_DB

