! VERSION = 6.00
BEGIN_HEADER
 ICCAP_INPUTS
  VG         V  B GROUND SMU4 0.001 LIN        1    0          -1.8       37   -0.05     
  VS         V  E GROUND SMU2 0.1 CON        0
  VB         V  C GROUND SMU3 0.1 LIN        3    0          1.8        3    0.9       
  VD         V  S GROUND SMU1 0.1 LIN        2    -0.1       -1.8       2    -1.7      
 ICCAP_OUTPUTS
  IG         I  B GROUND SMU4 B
  ID         I  S GROUND SMU1 B
  IB         I  C GROUND SMU3 B
END_HEADER

BEGIN_DB
 ICCAP_VAR VS         0              
 ICCAP_VAR VB         0              
 ICCAP_VAR VD         -0.1           

 #VG              IG              ID              IB             
  0               -1.2338e-009    -1.0712e-009    1.0524e-008    
  -0.05           3.12e-010       -1.7983e-009    -8.783e-009    
  -0.1            1.308e-010      -1.8808e-009    -9.52e-009     
  -0.15           1.173e-009      6.27e-011       -1.2573e-008   
  -0.2            1.1734e-009     -1.069e-010     -1.4715e-008   
  -0.25           1.6238e-009     -2.157e-010     -1.6599e-008   
  -0.3            1.9669e-009     9.447e-010      -2.165e-009    
  -0.35           -1.2603e-009    1.0521e-009     9.871e-009     
  -0.4            -2.083e-009     -1.2735e-009    5.021e-009     
  -0.45           1.5717e-009     -9.823e-010     -1.7004e-008   
  -0.5            1.3321e-009     -1.6317e-009    -2.875e-009    
  -0.55           1.1761e-009     -7.5056e-009    -3.452e-009    
  -0.6            -2.4187e-009    -2.4574e-008    -1.5793e-008   
  -0.65           1.1749e-009     -5.8211e-008    -1.1679e-008   
  -0.7            2.59e-010       -1.2756e-007    3.1e-009       
  -0.75           -1.962e-010     -2.4327e-007    -9.695e-009    
  -0.8            1.3367e-009     -4.2822e-007    -1.6255e-008   
  -0.85           1.0736e-009     -6.8647e-007    -3.425e-009    
  -0.9            1.109e-009      -1.02752e-006   -4.506e-009    
  -0.95           1.6792e-009     -1.4247e-006    2.834e-009     
  -1              5.325e-010      -1.8784e-006    8.606e-009     
  -1.05           8.699e-010      -2.3711e-006    9.973e-009     
  -1.1            1.3079e-009     -2.8778e-006    1.3471e-008    
  -1.15           2.648e-010      -3.3905e-006    8.279e-009     
  -1.2            5.493e-010      -3.9196e-006    8.661e-009     
  -1.25           8.957e-010      -4.4427e-006    1.0199e-008    
  -1.3            1.3402e-009     -4.9464e-006    1.3603e-008    
  -1.35           2.836e-010      -5.4303e-006    8.357e-009     
  -1.4            5.774e-010      -5.9112e-006    8.547e-009     
  -1.45           9.185e-010      -6.3698e-006    1.024e-008     
  -1.5            1.3642e-009     -6.8022e-006    1.3677e-008    
  -1.55           3.042e-010      -7.2133e-006    8.423e-009     
  -1.6            5.834e-010      -7.6175e-006    8.626e-009     
  -1.65           9.642e-010      -8.0019e-006    1.0528e-008    
  -1.7            1.392e-009      -8.3636e-006    1.3883e-008    
  -1.75           3.421e-010      -8.6953e-006    8.618e-009     
  -1.8            5.908e-010      -9.036e-006     8.48e-009      
END_DB

BEGIN_DB
 ICCAP_VAR VS         0              
 ICCAP_VAR VB         0              
 ICCAP_VAR VD         -1.8           

 #VG              IG              ID              IB             
  0               -1.2012e-009    -1.0516e-009    -1.444e-008    
  -0.05           1.9745e-009     9.626e-010      -1.0891e-008   
  -0.1            -1.265e-009     1.1227e-009     9.768e-009     
  -0.15           -1.2611e-009    -1.3279e-009    5.127e-009     
  -0.2            2.303e-010      -1.8524e-009    -9.224e-009    
  -0.25           1.1723e-009     1.167e-010      -1.2054e-008   
  -0.3            1.1714e-009     -1.034e-010     -1.3663e-008   
  -0.35           1.7287e-009     -4.164e-010     -1.5769e-008   
  -0.4            -1.2628e-009    3.565e-010      -9.97e-010     
  -0.45           -1.2515e-009    -2.8553e-009    7.555e-009     
  -0.5            -1.9099e-009    -9.1016e-009    1.1087e-008    
  -0.55           -2.0078e-009    -2.8234e-008    -1.0461e-008   
  -0.6            1.3056e-009     -7.293e-008     -1.6572e-008   
  -0.65           3.187e-010      -1.6678e-007    -1.1044e-008   
  -0.7            5.974e-010      -3.5339e-007    8.613e-009     
  -0.75           9.736e-010      -6.722e-007     9.511e-009     
  -0.8            -1.7457e-009    -1.1544e-006    -1.0017e-008   
  -0.85           -4.225e-010     -1.8621e-006    -9.581e-009    
  -0.9            1.1705e-009     -2.8473e-006    -1.0102e-008   
  -0.95           1.3918e-009     -4.0672e-006    -1.5649e-008   
  -1              1.0787e-009     -5.5543e-006    -3.548e-009    
  -1.05           1.1036e-009     -7.3097e-006    -4.234e-009    
  -1.1            1.1708e-009     -9.3398e-006    -9.335e-009    
  -1.15           1.0697e-009     -1.16e-005      2.626e-009     
  -1.2            1.1372e-009     -1.41e-005      -5.766e-009    
  -1.25           1.1743e-009     -1.6814e-005    -1.1275e-008   
  -1.3            1.429e-009      -1.9719e-005    -1.5072e-008   
  -1.35           1.0891e-009     -2.2807e-005    -3.455e-009    
  -1.4            1.0982e-009     -2.6076e-005    -3.965e-009    
  -1.45           1.1675e-009     -2.9522e-005    -8.949e-009    
  -1.5            1.7394e-009     -3.3047e-005    -1.2609e-008   
  -1.55           1.4078e-009     -3.6737e-005    1.3776e-008    
  -1.6            3.292e-010      -4.0483e-005    8.953e-009     
  -1.65           6.101e-010      -4.4431e-005    8.652e-009     
  -1.7            9.91e-010       -4.8453e-005    1.0721e-008    
  -1.75           1.438e-009      -5.2459e-005    1.3969e-008    
  -1.8            3.458e-010      -5.6559e-005    8.762e-009     
END_DB

BEGIN_DB
 ICCAP_VAR VS         0              
 ICCAP_VAR VB         0.9            
 ICCAP_VAR VD         -0.1           

 #VG              IG              ID              IB             
  0               -3.732e-010     9.444e-010      -9.141e-009    
  -0.05           -1.4425e-009    -1.1448e-009    1.0071e-008    
  -0.1            1.9084e-009     9.437e-010      -9.74e-009     
  -0.15           -1.2623e-009    1.0315e-009     8.736e-009     
  -0.2            -1.1716e-009    -1.4235e-009    3.627e-009     
  -0.25           1.0939e-009     -1.7874e-009    -8.874e-009    
  -0.3            1.8643e-009     9.342e-010      -9.143e-009    
  -0.35           -1.2618e-009    9.76e-010       8.584e-009     
  -0.4            -1.1065e-009    -1.4859e-009    2.783e-009     
  -0.45           1.7647e-009     -1.441e-010     -1.497e-008    
  -0.5            1.9084e-009     9.36e-010       -4.65e-010     
  -0.55           -1.2617e-009    9.973e-010      8.979e-009     
  -0.6            -1.9908e-009    -1.2327e-009    3.814e-009     
  -0.65           1.6662e-009     -9.074e-010     -1.5699e-008   
  -0.7            1.4227e-009     -1.9839e-009    -1.679e-009    
  -0.75           -2.4182e-009    -1.2079e-008    -1.5794e-008   
  -0.8            -4.069e-010     -3.6666e-008    -9.595e-009    
  -0.85           1.1709e-009     -9.4344e-008    -1.0283e-008   
  -0.9            -1.9254e-009    -2.07e-007      7.481e-009     
  -0.95           1.4129e-009     -4.044e-007     -1.4885e-008   
  -1              1.0868e-009     -6.8685e-007    -3.588e-009    
  -1.05           1.1008e-009     -1.05948e-006   -4.197e-009    
  -1.1            1.6386e-009     -1.4924e-006    2.319e-009     
  -1.15           5.016e-010      -1.9822e-006    8.918e-009     
  -1.2            8.306e-010      -2.5043e-006    8.956e-009     
  -1.25           1.27e-009       -3.0302e-006    1.271e-008     
  -1.3            2.355e-010      -3.5461e-006    8.148e-009     
  -1.35           5.319e-010      -4.0698e-006    8.83e-009      
  -1.4            8.767e-010      -4.5775e-006    9.203e-009     
  -1.45           1.311e-009      -5.0557e-006    1.3388e-008    
  -1.5            2.687e-010      -5.5092e-006    8.377e-009     
  -1.55           5.565e-010      -5.9571e-006    8.782e-009     
  -1.6            9.128e-010      -6.3814e-006    9.4e-009       
  -1.65           1.3578e-009     -6.7798e-006    1.3541e-008    
  -1.7            3.041e-010      -7.1555e-006    8.643e-009     
  -1.75           5.872e-010      -7.5238e-006    8.774e-009     
  -1.8            9.702e-010      -7.8823e-006    9.632e-009     
END_DB

BEGIN_DB
 ICCAP_VAR VS         0              
 ICCAP_VAR VB         0.9            
 ICCAP_VAR VD         -1.8           

 #VG              IG              ID              IB             
  0               -1.2607e-009    -1.0807e-009    -4.337e-009    
  -0.05           -1.603e-010     -1.9619e-009    -9.703e-009    
  -0.1            -2.959e-010     -1.9853e-009    -9.356e-009    
  -0.15           1.1393e-009     -1.1865e-009    -1.2152e-008   
  -0.2            2.0414e-009     9.815e-010      -1.15e-008     
  -0.25           -1.2589e-009    1.1893e-009     9.612e-009     
  -0.3            -1.3527e-009    -1.2404e-009    6.952e-009     
  -0.35           1.1276e-009     -1.1628e-009    -1.3229e-008   
  -0.4            1.9987e-009     9.658e-010      -1.1365e-008   
  -0.45           -1.2607e-009    1.1322e-009     9.366e-009     
  -0.5            -1.3012e-009    -1.3314e-009    6.237e-009     
  -0.55           1.1169e-009     -1.3142e-009    -1.4753e-008   
  -0.6            1.1475e-009     -4.82e-010      -1.0775e-008   
  -0.65           1.1676e-009     -3.1551e-009    -1.1854e-008   
  -0.7            -2.3995e-009    -1.347e-008     -1.5098e-008   
  -0.75           -3.479e-010     -4.3276e-008    -9.768e-009    
  -0.8            5.813e-010      -1.1807e-007    -1.4316e-008   
  -0.85           9.435e-010      -2.9428e-007    1.0618e-008    
  -0.9            1.3892e-009     -6.2337e-007    1.3913e-008    
  -0.95           -1.8921e-009    -1.1645e-006    -1.2454e-008   
  -1              1.4605e-009     -1.974e-006     -1.4684e-008   
  -1.05           1.0944e-009     -3.0472e-006    -3.444e-009    
  -1.1            1.0947e-009     -4.4124e-006    -3.921e-009    
  -1.15           1.1609e-009     -6.0788e-006    -8.991e-009    
  -1.2            1.7585e-009     -7.9949e-006    -1.2463e-008   
  -1.25           1.2141e-009     -1.01688e-005   -4.83e-010     
  -1.3            1.0736e-009     -1.2612e-005    2.353e-009     
  -1.35           1.142e-009      -1.5266e-005    -6.627e-009    
  -1.4            1.1734e-009     -1.8121e-005    -1.1524e-008   
  -1.45           1.387e-009      -2.1149e-005    -1.5566e-008   
  -1.5            1.0811e-009     -2.4339e-005    -3.495e-009    
  -1.55           1.1037e-009     -2.7693e-005    -4.337e-009    
  -1.6            1.1677e-009     -3.1205e-005    -9.793e-009    
  -1.65           1.6806e-009     -3.4792e-005    -1.3097e-008   
  -1.7            1.4461e-009     -3.8501e-005    1.415e-008     
  -1.75           3.67e-010       -4.2275e-005    9.049e-009     
  -1.8            6.473e-010      -4.6238e-005    8.559e-009     
END_DB

BEGIN_DB
 ICCAP_VAR VS         0              
 ICCAP_VAR VB         1.8            
 ICCAP_VAR VD         -0.1           

 #VG              IG              ID              IB             
  0               -1.2338e-009    -1.0685e-009    -1.143e-008    
  -0.05           3.113e-010      -1.7934e-009    -8.879e-009    
  -0.1            1.371e-010      -1.876e-009     -9.466e-009    
  -0.15           1.1702e-009     6.2e-011        -1.2505e-008   
  -0.2            1.1708e-009     -1.012e-010     -1.4329e-008   
  -0.25           1.6038e-009     -1.995e-010     -1.6525e-008   
  -0.3            1.9879e-009     9.626e-010      -2.278e-009    
  -0.35           -1.2609e-009    1.1037e-009     9.901e-009     
  -0.4            -1.2639e-009    -1.3325e-009    5.137e-009     
  -0.45           2.281e-010      -1.8387e-009    -9.191e-009    
  -0.5            4.79e-011       -1.9081e-009    -9.611e-009    
  -0.55           1.1717e-009     -1.65e-011      -1.3269e-008   
  -0.6            1.7405e-009     -1.625e-010     -1.5353e-008   
  -0.65           1.9161e-009     9.259e-010      -7.72e-010     
  -0.7            -1.263e-009     9.387e-010      9.212e-009     
  -0.75           -2.3172e-009    -1.4928e-009    3.93e-009      
  -0.8            1.0974e-009     -4.0271e-009    -8.869e-009    
  -0.85           1.1269e-009     -9.1409e-009    -9.109e-009    
  -0.9            -1.9743e-009    -3.3117e-008    -9.337e-009    
  -0.95           1.1671e-009     -9.3965e-008    -9.803e-009    
  -1              -2.944e-010     -2.1929e-007    5e-009         
  -1.05           1.1688e-009     -4.3586e-007    -1.2242e-008   
  -1.1            1.6227e-009     -7.4184e-007    -1.3333e-008   
  -1.15           1.4739e-009     -1.12801e-006   1.4085e-008    
  -1.2            -2.1082e-009    -1.5869e-006    -1.461e-008    
  -1.25           7e-011          -2.0905e-006    -8.808e-009    
  -1.3            1.6438e-009     -2.6123e-006    -1.2955e-008   
  -1.35           1.1536e-009     -3.1348e-006    -1.938e-009    
  -1.4            1.0774e-009     -3.653e-006     -3.409e-009    
  -1.45           1.1404e-009     -4.1554e-006    -6.625e-009    
  -1.5            1.172e-009      -4.6331e-006    -1.1534e-008   
  -1.55           1.3807e-009     -5.0945e-006    -1.5309e-008   
  -1.6            1.0818e-009     -5.5294e-006    -3.552e-009    
  -1.65           1.1053e-009     -5.9441e-006    -4.164e-009    
  -1.7            1.1684e-009     -6.3486e-006    -9.838e-009    
  -1.75           1.6706e-009     -6.7197e-006    -1.2926e-008   
  -1.8            1.1708e-009     -7.0865e-006    -1.612e-009    
END_DB

BEGIN_DB
 ICCAP_VAR VS         0              
 ICCAP_VAR VB         1.8            
 ICCAP_VAR VD         -1.8           

 #VG              IG              ID              IB             
  0               -1.1905e-009    -1.0403e-009    -1.4426e-008   
  -0.05           1.9077e-009     9.456e-010      -9.876e-009    
  -0.1            -1.2641e-009    1.0235e-009     8.686e-009     
  -0.15           -1.1597e-009    -1.4271e-009    3.512e-009     
  -0.2            1.094e-009      -1.7775e-009    -8.804e-009    
  -0.25           1.8467e-009     9.342e-010      -8.875e-009    
  -0.3            -1.266e-009     9.574e-010      8.54e-009      
  -0.35           -1.0692e-009    -1.5163e-009    2.448e-009     
  -0.4            1.1638e-009     -1.159e-010     -1.4543e-008   
  -0.45           1.5896e-009     -2.197e-010     -1.6977e-008   
  -0.5            1.9804e-009     9.625e-010      -2.506e-009    
  -0.55           -1.2595e-009    1.1122e-009     9.283e-009     
  -0.6            -1.2661e-009    -1.3475e-009    5.272e-009     
  -0.65           1.5253e-009     -4.107e-010     -1.7409e-008   
  -0.7            -1.2496e-009    5.452e-010      -2.996e-009    
  -0.75           -1.9422e-009    -3.2355e-009    1.0163e-008    
  -0.8            -1.2461e-009    -1.4525e-008    -9.443e-009    
  -0.85           -1.5646e-009    -4.8926e-008    1.127e-008     
  -0.9            6.31e-010       -1.4529e-007    -1.5185e-008   
  -0.95           1.0104e-009     -3.6423e-007    1.1073e-008    
  -1              1.4565e-009     -7.6214e-007    1.3892e-008    
  -1.05           -1.8141e-009    -1.3983e-006    -1.1639e-008   
  -1.1            1.5603e-009     -2.3225e-006    -1.3564e-008   
  -1.15           1.507e-009      -3.5215e-006    1.4498e-008    
  -1.2            4.093e-010      -5.0102e-006    9.073e-009     
  -1.25           7.003e-010      -6.8162e-006    8.604e-009     
  -1.3            1.1114e-009     -8.8756e-006    1.0472e-008    
  -1.35           1.5317e-009     -1.1148e-005    1.4701e-008    
  -1.4            1.0942e-009     -1.3691e-005    2.056e-009     
  -1.45           1.1572e-009     -1.6454e-005    -8.713e-009    
  -1.5            1.1688e-009     -1.9362e-005    -1.2035e-008   
  -1.55           1.2416e-009     -2.2482e-005    -1.7659e-008   
  -1.6            1.0777e-009     -2.5722e-005    -3.251e-009    
  -1.65           1.1261e-009     -2.9133e-005    -5.26e-009     
  -1.7            1.1714e-009     -3.2655e-005    -1.0833e-008   
  -1.75           1.4995e-009     -3.6265e-005    -1.4236e-008   
  -1.8            1.5494e-009     -3.9964e-005    1.475e-008     
END_DB

