! VERSION = 6.00
BEGIN_HEADER
 ICCAP_INPUTS
  VG         V  B GROUND SMU4 0.001 LIN        2    0          -1.8       6    -0.36     
  VS         V  E GROUND SMU2 0.1 CON        0
  VD         V  S GROUND SMU1 0.1 LIN        1    0          -1.8       37   -0.05     
  VB         V  C GROUND SMU3 0.1 LIN        3    0          0.9        2    0.9       
 ICCAP_OUTPUTS
  ID         I  S GROUND SMU1 B
  IB         I  C GROUND SMU3 B
  IG         I  B GROUND SMU4 B
END_HEADER

BEGIN_DB
 ICCAP_VAR VG         0              
 ICCAP_VAR VS         0              
 ICCAP_VAR VB         0              

 #VD              ID              IB              IG             
  0               -1.022e-009     -1.2172e-008    -1.1849e-009   
  -0.05           -5.734e-010     -2.2873e-008    1.1137e-009    
  -0.1            9.86e-010       -3.639e-009     1.4275e-009    
  -0.15           1.7645e-009     8.685e-009      2.11e-010      
  -0.2            7.18e-010       8.427e-009      -1.2471e-009   
  -0.25           -1.652e-009     2.436e-009      -8.409e-010    
  -0.3            9.88e-010       -1.1244e-008    2.0555e-009    
  -0.35           1.2235e-009     1.239e-008      -1.2228e-009   
  -0.4            -1.1121e-009    9.367e-009      -1.4011e-009   
  -0.45           9.313e-010      -9.927e-009     1.8503e-009    
  -0.5            1.0064e-009     8.85e-009       -1.2378e-009   
  -0.55           -1.3317e-009    3.49e-009       -1.1892e-009   
  -0.6            -2.235e-010     -1.6163e-008    1.5646e-009    
  -0.65           1.1406e-009     1.4833e-008     1.214e-009     
  -0.7            1.6499e-009     8.383e-009      2.75e-011      
  -0.75           1.7551e-009     8.665e-009      1.744e-010     
  -0.8            6.807e-010      8.542e-009      -1.2503e-009   
  -0.85           -1.735e-009     2.788e-009      -7.527e-010    
  -0.9            9.807e-010      -1.1061e-008    2.0263e-009    
  -0.95           1.2037e-009     1.2186e-008     -1.2266e-009   
  -1              -1.1299e-009    8.632e-009      -1.3841e-009   
  -1.05           9.256e-010      -9.662e-009     1.8273e-009    
  -1.1            9.767e-010      8.67e-009       -1.2417e-009   
  -1.15           -1.3599e-009    3.061e-009      -1.1582e-009   
  -1.2            -2.001e-010     -1.5463e-008    1.6124e-009    
  -1.25           1.1808e-009     1.4528e-008     1.1729e-009    
  -1.3            1.6362e-009     8.199e-009      -1.36e-011     
  -1.35           1.727e-009      8.732e-009      1.535e-010     
  -1.4            6.441e-010      8.643e-009      -1.2516e-009   
  -1.45           -1.7551e-009    2.798e-009      -7.222e-010    
  -1.5            9.727e-010      -1.0915e-008    1.9965e-009    
  -1.55           1.1785e-009     1.1727e-008     -1.2313e-009   
  -1.6            -1.1483e-009    7.749e-009      -1.3652e-009   
  -1.65           9.205e-010      -9.14e-009      1.8063e-009    
  -1.7            9.539e-010      8.901e-009      -1.2417e-009   
  -1.75           -1.3956e-009    2.743e-009      -1.1273e-009   
  -1.8            -1.827e-010     -1.4964e-008    1.66e-009      
END_DB

BEGIN_DB
 ICCAP_VAR VG         -0.36          
 ICCAP_VAR VS         0              
 ICCAP_VAR VB         0              

 #VD              ID              IB              IG             
  0               -1.0502e-009    -8.028e-009     -1.2293e-009   
  -0.05           -1.334e-010     -1.3774e-008    1.8046e-009    
  -0.1            1.3034e-009     1.3878e-008     1.0364e-009    
  -0.15           1.119e-009      1.5298e-008     1.227e-009     
  -0.2            1.6556e-009     8.416e-009      3.08e-011      
  -0.25           1.747e-009      8.785e-009      1.918e-010     
  -0.3            6.828e-010      8.5e-009        -1.2496e-009   
  -0.35           -1.7272e-009    2.611e-009      -7.812e-010    
  -0.4            9.769e-010      -1.1355e-008    2.0406e-009    
  -0.45           1.2074e-009     1.2165e-008     -1.2275e-009   
  -0.5            -1.1292e-009    9.026e-009      -1.3952e-009   
  -0.55           9.177e-010      -9.671e-009     1.8407e-009    
  -0.6            9.886e-010      8.696e-009      -1.2419e-009   
  -0.65           -1.3496e-009    3.408e-009      -1.1826e-009   
  -0.7            -1.0488e-009    -1.6465e-008    1.095e-009     
  -0.75           9.154e-010      -9.818e-009     1.8373e-009    
  -0.8            9.806e-010      8.788e-009      -1.2419e-009   
  -0.85           -1.359e-009     3.285e-009      -1.1782e-009   
  -0.9            -1.757e-009     -9.288e-009     2.49e-010      
  -0.95           -1.8135e-009    -9.538e-009     3.67e-011      
  -1              -4.52e-011      -1.2492e-008    1.1465e-009    
  -1.05           -1.85e-010      -1.4554e-008    1.7082e-009    
  -1.1            1.2232e-009     1.4159e-008     1.1087e-009    
  -1.15           1.0612e-009     1.4878e-008     1.2938e-009    
  -1.2            1.6789e-009     8.634e-009      9.69e-011      
  -1.25           1.7647e-009     8.982e-009      2.402e-010     
  -1.3            7.241e-010      8.585e-009      -1.2491e-009   
  -1.35           -1.6779e-009    2.142e-009      -8.551e-010    
  -1.4            -8.2e-012       -1.1826e-008    1.1459e-009    
  -1.45           -1.588e-010     -1.4151e-008    1.7691e-009    
  -1.5            1.3332e-009     1.4127e-008     -1.2591e-009   
  -1.55           -1.1059e-009    2.714e-009      -1.4629e-009   
  -1.6            -1.9264e-009    -9.371e-009     -2.206e-010    
  -1.65           -2.302e-010     -1.5766e-008    1.6054e-009    
  -1.7            1.1369e-009     1.4669e-008     1.1855e-009    
  -1.75           1.622e-009      8.324e-009      -3.8e-012      
  -1.8            1.7141e-009     9.093e-009      1.639e-010     
END_DB

BEGIN_DB
 ICCAP_VAR VG         -0.72          
 ICCAP_VAR VS         0              
 ICCAP_VAR VB         0              

 #VD              ID              IB              IG             
  0               -7.243e-010     -8.802e-009     8.675e-010     
  -0.05           -7.1866e-008    -1.2136e-008    -2.2438e-009   
  -0.1            -9.2142e-008    1.861e-009      -1.2272e-009   
  -0.15           -1.0083e-007    9.992e-009      9.495e-010     
  -0.2            -1.11749e-007   -4.881e-009     1.112e-009     
  -0.25           -1.1223e-007    -5.388e-009     -1.69e-011     
  -0.3            -1.2312e-007    -1.2427e-008    1.6096e-009    
  -0.35           -1.3006e-007    -1.6613e-008    1.1344e-009    
  -0.4            -1.3567e-007    -1.1011e-008    1.1499e-009    
  -0.45           -1.3895e-007    -1.0961e-008    1.1482e-009    
  -0.5            -1.444e-007     -1.2135e-008    1.6512e-009    
  -0.55           -1.4789e-007    -9.135e-009     -1.45e-011     
  -0.6            -1.5093e-007    1.1897e-008     -1.4657e-009   
  -0.65           -1.5378e-007    8.462e-009      2.564e-010     
  -0.7            -1.6493e-007    -1.6968e-008    1.2341e-009    
  -0.75           -1.6891e-007    -9.918e-009     1.1496e-009    
  -0.8            -1.7403e-007    -1.0603e-008    1.1488e-009    
  -0.85           -1.786e-007     -1.1488e-008    1.7729e-009    
  -0.9            -1.8214e-007    -8.836e-009     8.8e-011       
  -0.95           -1.8492e-007    9.87e-009       -1.5657e-009   
  -1              -1.8759e-007    1.5028e-008     1.5501e-009    
  -1.05           -1.9972e-007    -1.5079e-008    1.3302e-009    
  -1.1            -2.0052e-007    -9.523e-009     -2.477e-010    
  -1.15           -2.0304e-007    9.98e-010       -1.2542e-009   
  -1.2            -2.1033e-007    8.336e-009      5.644e-010     
  -1.25           -2.1863e-007    -4.344e-009     1.0994e-009    
  -1.3            -2.2595e-007    -1.6859e-008    1.2306e-009    
  -1.35           -2.3046e-007    -9.879e-009     1.1501e-009    
  -1.4            -2.3021e-007    -9.607e-009     -3.419e-010    
  -1.45           -2.3393e-007    2.211e-009      -1.2479e-009   
  -1.5            -2.429e-007     8.336e-009      6.561e-010     
  -1.55           -2.5211e-007    -5.547e-009     1.1207e-009    
  -1.6            -2.6008e-007    -1.2591e-008    1.1475e-009    
  -1.65           -2.5712e-007    -9.663e-009     -3.315e-010    
  -1.7            -2.6092e-007    2.043e-009      -1.2499e-009   
  -1.75           -2.7197e-007    8.382e-009      6.471e-010     
  -1.8            -2.8046e-007    -5.417e-009     1.1186e-009    
END_DB

BEGIN_DB
 ICCAP_VAR VG         -1.08          
 ICCAP_VAR VS         0              
 ICCAP_VAR VB         0              

 #VD              ID              IB              IG             
  0               -3.3389e-008    9.518e-009      1.1358e-009    
  -0.05           -1.3099e-005    8.685e-009      -2.1817e-009   
  -0.1            -2.1786e-005    1.3969e-008     1.3009e-009    
  -0.15           -2.7179e-005    -1.4866e-008    1.3687e-009    
  -0.2            -3.0243e-005    -9.41e-009      -4.184e-010    
  -0.25           -3.2333e-005    2.845e-009      -1.2386e-009   
  -0.3            -3.4287e-005    1.325e-008      1.2498e-009    
  -0.35           -3.5497e-005    -1.434e-008     1.4332e-009    
  -0.4            -3.6195e-005    -9.453e-009     -3.793e-010    
  -0.45           -3.7005e-005    2.811e-009      -1.2397e-009   
  -0.5            -3.8294e-005    1.2877e-008     1.1974e-009    
  -0.55           -3.9014e-005    -1.3783e-008    1.4919e-009    
  -0.6            -3.9825e-005    -1.0109e-008    1.1477e-009    
  -0.65           -4.0427e-005    -1.2838e-008    1.587e-009     
  -0.7            -4.1177e-005    -1.1272e-008    1.1476e-009    
  -0.75           -4.1755e-005    -1.3517e-008    1.5265e-009    
  -0.8            -4.2464e-005    -9.98e-009      1.1486e-009    
  -0.85           -4.25e-005      -8.751e-009     -5.573e-010    
  -0.9            -4.3085e-005    2.193e-009      -1.2363e-009   
  -0.95           -4.4097e-005    1.4345e-008     1.4067e-009    
  -1              -4.4823e-005    -1.6585e-008    1.2604e-009    
  -1.05           -4.5295e-005    -1.1037e-008    1.1415e-009    
  -1.1            -4.5232e-005    -8.493e-009     -7.896e-010    
  -1.15           -4.5882e-005    2.22e-009       -1.2232e-009   
  -1.2            -4.6906e-005    8.477e-009      5.497e-010     
  -1.25           -4.756e-005     -7.017e-009     1.1329e-009    
  -1.3            -4.7597e-005    -9.433e-009     -3.838e-010    
  -1.35           -4.7995e-005    2.843e-009      -1.2404e-009   
  -1.4            -4.9087e-005    1.2977e-008     1.2031e-009    
  -1.45           -4.9546e-005    -1.3896e-008    1.4858e-009    
  -1.5            -5.0133e-005    -1.0115e-008    1.1496e-009    
  -1.55           -5.0529e-005    -1.2957e-008    1.5914e-009    
  -1.6            -5.112e-005     -9.384e-009     1.1463e-009    
  -1.65           -5.151e-005     -1.2128e-008    1.6951e-009    
  -1.7            -5.1717e-005    -9.5e-009       -2.374e-010    
  -1.75           -5.1957e-005    2.551e-009      -1.2448e-009   
  -1.8            -5.3127e-005    1.1733e-008     9.956e-010     
END_DB

BEGIN_DB
 ICCAP_VAR VG         -1.44          
 ICCAP_VAR VS         0              
 ICCAP_VAR VB         0              

 #VD              ID              IB              IG             
  0               -9.5174e-008    1.746e-009      1.1305e-009    
  -0.05           -4.6177e-005    1.3785e-008     -1.4752e-009   
  -0.1            -8.7085e-005    8.639e-009      3.979e-010     
  -0.15           -0.00012261     -3.576e-009     1.1344e-009    
  -0.2            -0.0001527      -9.857e-009     1.1467e-009    
  -0.25           -0.0001776      -1.0577e-008    1.148e-009     
  -0.3            -0.00019774     -1.119e-008     1.7446e-009    
  -0.35           -0.0002138      -8.782e-009     7.99e-011      
  -0.4            -0.00022591     9.923e-009      -1.5456e-009   
  -0.45           -0.00023639     1.5797e-008     1.5562e-009    
  -0.5            -0.00024492     -1.5383e-008    1.3366e-009    
  -0.55           -0.00025148     -1.1876e-008    1.1473e-009    
  -0.6            -0.00025619     -9.377e-009     -3.572e-010    
  -0.65           -0.00026061     2.188e-009      -1.2519e-009   
  -0.7            -0.00026613     8.544e-009      6.767e-010     
  -0.75           -0.00026978     -5.988e-009     1.1215e-009    
  -0.8            -0.0002732      -1.2264e-008    1.1457e-009    
  -0.85           -0.00027556     -9.489e-009     -3.351e-010    
  -0.9            -0.00027819     2.014e-009      -1.2522e-009   
  -0.95           -0.00028227     8.525e-009      6.537e-010     
  -1              -0.00028504     -5.588e-009     1.118e-009     
  -1.05           -0.00028707     -9.331e-009     -8.13e-011     
  -1.1            -0.00028898     1.346e-008      -1.4139e-009   
  -1.15           -0.00029164     8.533e-009      3.054e-010     
  -1.2            -0.00029463     -3.327e-009     1.0817e-009    
  -1.25           -0.00029677     -1.1098e-008    1.7509e-009    
  -1.3            -0.00029893     -8.816e-009     4.84e-011      
  -1.35           -0.00030019     1.007e-008      -1.5484e-009   
  -1.4            -0.00030299     1.4979e-008     1.5518e-009    
  -1.45           -0.00030566     -1.5399e-008    1.3309e-009    
  -1.5            -0.00030696     -9.403e-009     -2.51e-010     
  -1.55           -0.00030832     8.71e-010       -1.2603e-009   
  -1.6            -0.00031157     8.393e-009      5.509e-010     
  -1.65           -0.00031339     -4.339e-009     1.0998e-009    
  -1.7            -0.000315       -8.874e-009     5.75e-011      
  -1.75           -0.00031592     1.0289e-008     -1.5294e-009   
  -1.8            -0.00031795     8.056e-009      1.882e-010     
END_DB

BEGIN_DB
 ICCAP_VAR VG         -1.8           
 ICCAP_VAR VS         0              
 ICCAP_VAR VB         0              

 #VD              ID              IB              IG             
  0               -1.3518e-007    8.338e-009      4.526e-010     
  -0.05           -7.083e-005     1.86e-009       1.0834e-009    
  -0.1            -0.00013784     -1.5445e-008    -1.694e-010    
  -0.15           -0.00020056     7e-011          -1.2688e-009   
  -0.2            -0.0002593      8.44e-009       4.997e-010     
  -0.25           -0.00031348     -3.713e-009     1.0852e-009    
  -0.3            -0.0003625      -9.344e-009     -9.228e-010    
  -0.35           -0.00040739     1.758e-009      -1.2341e-009   
  -0.4            -0.0004482      1.3164e-008     1.248e-009     
  -0.45           -0.00048368     -1.133e-008     1.147e-009     
  -0.5            -0.0005139      -9.466e-009     -3.747e-010    
  -0.55           -0.00054033     2.234e-009      -1.2514e-009   
  -0.6            -0.00056444     8.659e-009      6.912e-010     
  -0.65           -0.00058395     -6.271e-009     1.1263e-009    
  -0.7            -0.00060048     -1.1733e-008    1.1471e-009    
  -0.75           -0.00061378     -9.529e-009     -3.565e-010    
  -0.8            -0.00062555     2.126e-009      -1.252e-009    
  -0.85           -0.00063774     8.508e-009      6.725e-010     
  -0.9            -0.00064696     -5.864e-009     1.1223e-009    
  -0.95           -0.00065499     -1.2278e-008    1.1489e-009    
  -1              -0.0006615      -9.526e-009     -3.397e-010    
  -1.05           -0.00066758     2.142e-009      -1.2526e-009   
  -1.1            -0.00067551     8.523e-009      6.507e-010     
  -1.15           -0.00068128     -5.328e-009     1.1172e-009    
  -1.2            -0.00068599     -9.399e-009     -8.2e-011      
  -1.25           -0.00069007     1.3237e-008     -1.4101e-009   
  -1.3            -0.00069534     8.591e-009      2.961e-010     
  -1.35           -0.0007007      -3.448e-009     1.0781e-009    
  -1.4            -0.00070526     -1.118e-008     1.7663e-009    
  -1.45           -0.00070919     -8.813e-009     8.89e-011      
  -1.5            -0.00071226     9.79e-009       -1.5579e-009   
  -1.55           -0.00071711     1.4881e-008     1.5528e-009    
  -1.6            -0.00072162     -1.4948e-008    1.3359e-009    
  -1.65           -0.00072454     -9.532e-009     -2.389e-010    
  -1.7            -0.00072731     7.91e-010       -1.2587e-009   
  -1.75           -0.00073252     8.379e-009      5.607e-010     
  -1.8            -0.00073607     -4.319e-009     1.0998e-009    
END_DB

BEGIN_DB
 ICCAP_VAR VG         0              
 ICCAP_VAR VS         0              
 ICCAP_VAR VB         0.9            

 #VD              ID              IB              IG             
  0               -1.0181e-009    1.3432e-008     -1.1869e-009   
  -0.05           9.446e-010      -1.0431e-008    1.8934e-009    
  -0.1            1.061e-009      1.0227e-008     -1.2392e-009   
  -0.15           -1.2663e-009    4.401e-009      -1.2482e-009   
  -0.2            -1.0779e-009    -1.4472e-008    1.1058e-009    
  -0.25           9.401e-010      -1.0488e-008    1.8788e-009    
  -0.3            1.0461e-009     9.165e-009      -1.2386e-009   
  -0.35           -1.2859e-009    4.114e-009      -1.2262e-009   
  -0.4            -2.455e-010     -1.7206e-008    1.4985e-009    
  -0.45           9.567e-010      -3.252e-009     1.9403e-009    
  -0.5            1.1169e-009     1.0895e-008     -1.2356e-009   
  -0.55           -1.1986e-009    5.371e-009      -1.3048e-009   
  -0.6            -1.7838e-009    -9.478e-009     5.11e-011      
  -0.65           -9.5e-012       -1.2249e-008    1.1457e-009    
  -0.7            -1.472e-010     -1.4358e-008    1.7407e-009    
  -0.75           1.2713e-009     1.3759e-008     1.0737e-009    
  -0.8            1.1025e-009     1.4569e-008     1.2575e-009    
  -0.85           1.6697e-009     8.489e-009      6.7e-011       
  -0.9            1.7635e-009     9.053e-009      2.108e-010     
  -0.95           7.01e-010       8.678e-009      -1.253e-009    
  -1              -1.7057e-009    2.445e-009      -7.918e-010    
  -1.05           9.852e-010      -1.1431e-008    2.0257e-009    
  -1.1            1.2205e-009     1.2364e-008     -1.2272e-009   
  -1.15           -1.1228e-009    8.966e-009      -1.3926e-009   
  -1.2            9.297e-010      -9.697e-009     1.8358e-009    
  -1.25           9.882e-010      9.341e-009      -1.2414e-009   
  -1.3            -1.3514e-009    3.181e-009      -1.1667e-009   
  -1.35           -1.022e-009     -1.6797e-008    1.0933e-009    
  -1.4            9.249e-010      -9.61e-009      1.8263e-009    
  -1.45           9.7e-010        9.065e-009      -1.2429e-009   
  -1.5            -1.3749e-009    2.967e-009      -1.1397e-009   
  -1.55           -1.885e-010     -1.5367e-008    1.6417e-009    
  -1.6            1.2006e-009     1.3939e-008     1.1513e-009    
  -1.65           1.0442e-009     1.4824e-008     1.3316e-009    
  -1.7            1.7158e-009     8.616e-009      1.254e-010     
  -1.75           1.7897e-009     8.679e-009      2.706e-010     
  -1.8            7.6e-010        8.412e-009      -1.2488e-009   
END_DB

BEGIN_DB
 ICCAP_VAR VG         -0.36          
 ICCAP_VAR VS         0              
 ICCAP_VAR VB         0.9            

 #VD              ID              IB              IG             
  0               -1.026e-009     -1.1093e-008    -1.1922e-009   
  -0.05           9.178e-010      -8.56e-009      1.7812e-009    
  -0.1            9.221e-010      8.673e-009      -1.2459e-009   
  -0.15           -1.4298e-009    2.34e-009       -1.0721e-009   
  -0.2            -1.6732e-009    -8.889e-009     1.0811e-009    
  -0.25           9.155e-010      -8.296e-009     1.7655e-009    
  -0.3            9.001e-010      8.499e-009      -1.2476e-009   
  -0.35           -1.4625e-009    2.189e-009      -1.0485e-009   
  -0.4            -1.39e-010      -1.3974e-008    1.7604e-009    
  -0.45           1.2795e-009     1.3736e-008     1.0576e-009    
  -0.5            1.1108e-009     1.5385e-008     1.2422e-009    
  -0.55           1.6686e-009     8.464e-009      3.87e-011      
