! VERSION = 6.00
BEGIN_HEADER
 ICCAP_INPUTS
  VG         V  B GROUND SMU4 0.001 LIN        2    0          -1.8       6    -0.36     
  VS         V  E GROUND SMU2 0.1 CON        0
  VD         V  S GROUND SMU1 0.1 LIN        1    0          -1.8       37   -0.05     
  VB         V  C GROUND SMU3 0.1 LIN        3    0          0.9        2    0.9       
 ICCAP_OUTPUTS
  ID         I  S GROUND SMU1 B
  IB         I  C GROUND SMU3 B
  IG         I  B GROUND SMU4 B
END_HEADER

BEGIN_DB
 ICCAP_VAR VG         0              
 ICCAP_VAR VS         0              
 ICCAP_VAR VB         0              

 #VD              ID              IB              IG             
  0               -1.042e-009     9.933e-009      -1.2079e-009   
  -0.05           -1.6931e-009    -8.933e-009     1.0836e-009    
  -0.1            9.152e-010      -8.777e-009     1.7846e-009    
  -0.15           9.294e-010      8.658e-009      -1.2418e-009   
  -0.2            -1.4297e-009    2.296e-009      -1.0789e-009   
  -0.25           -1.565e-010     -1.4595e-008    1.7257e-009    
  -0.3            1.2546e-009     1.3946e-008     1.0909e-009    
  -0.35           1.0893e-009     1.4827e-008     1.2798e-009    
  -0.4            1.6825e-009     8.61e-009       6.35e-011      
  -0.45           1.758e-009      8.925e-009      2.233e-010     
  -0.5            7.14e-010       8.53e-009       -1.2461e-009   
  -0.55           -1.6849e-009    2.57e-009       -8.024e-010    
  -0.6            -1.4744e-009    -8.704e-009     1.0712e-009    
  -0.65           9.307e-010      -4.515e-009     1.574e-009     
  -0.7            6.863e-010      8.648e-009      -1.246e-009    
  -0.75           -1.7063e-009    2.702e-009      -7.675e-010    
  -0.8            9.806e-010      -1.1485e-008    2.0254e-009    
  -0.85           1.2047e-009     1.2024e-008     -1.2293e-009   
  -0.9            -1.1289e-009    8.701e-009      -1.3731e-009   
  -0.95           9.221e-010      -9.411e-009     1.8209e-009    
  -1              9.727e-010      9.05e-009       -1.2393e-009   
  -1.05           -1.3702e-009    3.025e-009      -1.1303e-009   
  -1.1            -1.857e-010     -1.5518e-008    1.6433e-009    
  -1.15           1.2049e-009     1.4273e-008     1.1513e-009    
  -1.2            1.0487e-009     1.5115e-008     1.3368e-009    
  -1.25           1.7105e-009     8.7e-009        1.185e-010     
  -1.3            1.7867e-009     8.865e-009      2.6e-010       
  -1.35           7.605e-010      8.39e-009       -1.2442e-009   
  -1.4            -1.6311e-009    2.124e-009      -8.687e-010    
  -1.45           -4.1e-012       -1.2225e-008    1.1464e-009    
  -1.5            -1.468e-010     -1.4268e-008    1.7612e-009    
  -1.55           9.247e-010      -5.35e-010      1.8288e-009    
  -1.6            9.863e-010      9.149e-009      -1.2382e-009   
  -1.65           -1.362e-009     2.926e-009      -1.1475e-009   
  -1.7            -1.964e-010     -1.5606e-008    1.6206e-009    
  -1.75           1.1865e-009     1.4323e-008     1.1658e-009    
  -1.8            1.6274e-009     8.12e-009       -1.2404e-009   
END_DB

BEGIN_DB
 ICCAP_VAR VG         -0.36          
 ICCAP_VAR VS         0              
 ICCAP_VAR VB         0              

 #VD              ID              IB              IG             
  0               7.541e-010      1.683e-009      5.494e-010     
  -0.05           -3.69e-011      -1.2634e-008    1.1468e-009    
  -0.1            -1.588e-010     -1.4591e-008    1.7148e-009    
  -0.15           1.249e-009      1.3946e-008     1.0942e-009    
  -0.2            1.0825e-009     1.4807e-008     1.2787e-009    
  -0.25           1.6771e-009     8.588e-009      6.9e-011       
  -0.3            1.765e-009      8.817e-009      2.245e-010     
  -0.35           7.05e-010       8.393e-009      -1.2465e-009   
  -0.4            -1.6924e-009    2.477e-009      -8.063e-010    
  -0.45           9.826e-010      -1.1529e-008    2.0513e-009    
  -0.5            1.2166e-009     1.2238e-008     -1.226e-009    
  -0.55           -1.1169e-009    9.119e-009      -1.3954e-009   
  -0.6            9.216e-010      -9.727e-009     1.8371e-009    
  -0.65           9.878e-010      9.309e-009      -1.2399e-009   
  -0.7            -1.3505e-009    3.1e-009        -1.1644e-009   
  -0.75           -1.7317e-009    -9.129e-009     2.512e-010     
  -0.8            -1.8096e-009    -9.511e-009     6.34e-011      
  -0.85           -2.4e-011       -1.2184e-008    1.1485e-009    
  -0.9            -1.584e-010     -1.443e-008     1.7435e-009    
  -0.95           1.3404e-009     1.378e-008      -1.2569e-009   
  -1              -1.8571e-009    2.86e-009       -5.755e-010    
  -1.05           9.342e-010      -1.0445e-008    1.904e-009     
  -1.1            1.0676e-009     1.0382e-008     -1.237e-009    
  -1.15           -1.2543e-009    4.936e-009      -1.2598e-009   
  -1.2            -1.787e-009     -9.501e-009     1.165e-010     
  -1.25           2.48e-011       -1.1454e-008    1.1474e-009    
  -1.3            -1.264e-010     -1.376e-008     1.8239e-009    
  -1.35           8.982e-010      3.31e-010       1.8004e-009    
  -1.4            9.224e-010      8.844e-009      -1.2402e-009   
  -1.45           -1.425e-009     2.579e-009      -1.1057e-009   
  -1.5            -1.915e-010     -1.4657e-008    1.6965e-009    
  -1.55           1.348e-009      1.3958e-008     -1.2525e-009   
  -1.6            -1.0961e-009    2.9e-009        -1.4808e-009   
  -1.65           9.27e-010       -1.0476e-008    1.9298e-009    
  -1.7            1.0808e-009     1.0667e-008     -1.2367e-009   
  -1.75           -1.2435e-009    5.501e-009      -1.2912e-009   
  -1.8            -1.83e-009      -9.551e-009     7.65e-011      
END_DB

BEGIN_DB
 ICCAP_VAR VG         -0.72          
 ICCAP_VAR VS         0              
 ICCAP_VAR VB         0              

 #VD              ID              IB              IG             
  0               4.583e-010      2.509e-009      1.1139e-009    
  -0.05           -3.5959e-008    -1.1176e-008    -2.1563e-009   
  -0.1            -4.5325e-008    1.841e-009      -1.2348e-009   
  -0.15           -4.7747e-008    9.112e-009      8.366e-010     
  -0.2            -5.308e-008     -4.023e-009     1.0911e-009    
  -0.25           -5.7626e-008    -1.1362e-008    1.7662e-009    
  -0.3            -6.1016e-008    -1.0805e-008    1.1412e-009    
  -0.35           -6.444e-008     -9.668e-009     1.1471e-009    
  -0.4            -6.9726e-008    -1.4948e-008    1.1402e-009    
  -0.45           -7.2505e-008    -1.5824e-008    1.2986e-009    
  -0.5            -7.5968e-008    -1.4246e-008    1.4141e-009    
  -0.55           -7.96e-008      -1.3001e-008    1.5443e-009    
  -0.6            -8.3324e-008    -1.1807e-008    1.6835e-009    
  -0.65           -8.7008e-008    -1.101e-008     1.8257e-009    
  -0.7            -9.0791e-008    -1.0771e-008    1.1509e-009    
  -0.75           -9.4671e-008    -9.543e-009     -1.702e-010    
  -0.8            -9.7679e-008    6.689e-009      -1.7302e-009   
  -0.85           -1.0076e-007    1.2047e-008     1.0421e-009    
  -0.9            -1.07172e-007   -5.962e-009     1.1237e-009    
  -0.95           -1.12593e-007   -1.3813e-008    1.4734e-009    
  -1              -1.13e-007      -1.1511e-008    4.386e-010     
  -1.05           -1.1929e-007    -3.273e-009     1.0702e-009    
  -1.1            -1.2635e-007    -1.4019e-008    1.4441e-009    
  -1.15           -1.2926e-007    -9.541e-009     -1.756e-010    
  -1.2            -1.3204e-007    1.86e-010       -1.264e-009    
  -1.25           -1.3663e-007    8.426e-009      5.067e-010     
  -1.3            -1.4339e-007    -3.803e-009     1.0857e-009    
  -1.35           -1.5028e-007    -1.5274e-008    1.318e-009     
  -1.4            -1.5741e-007    -1.1801e-008    1.1468e-009    
  -1.45           -1.5674e-007    -9.57e-009      -3.625e-010    
  -1.5            -1.6031e-007    2.296e-009      -1.2468e-009   
  -1.55           -1.664e-007     8.474e-009      6.811e-010     
  -1.6            -1.741e-007     -6.018e-009     1.1238e-009    
  -1.65           -1.8148e-007    -1.2141e-008    1.1475e-009    
  -1.7            -1.8112e-007    -9.671e-009     -3.473e-010    
  -1.75           -1.8496e-007    2.164e-009      -1.2467e-009   
  -1.8            -1.9202e-007    8.513e-009      6.627e-010     
END_DB

BEGIN_DB
 ICCAP_VAR VG         -1.08          
 ICCAP_VAR VS         0              
 ICCAP_VAR VB         0              

 #VD              ID              IB              IG             
  0               -3.0544e-008    -5.203e-009     -1.2442e-009   
  -0.05           -1.096e-005     -1.179e-008     1.507e-009     
  -0.1            -1.7858e-005    -1.9028e-008    1.1496e-009    
  -0.15           -2.1847e-005    -1.168e-008     1.6924e-009    
  -0.2            -2.4328e-005    -1.213e-008     1.1451e-009    
  -0.25           -2.5576e-005    -8.735e-009     -5.49e-010     
  -0.3            -2.6733e-005    2.184e-009      -1.2361e-009   
  -0.35           -2.7958e-005    1.4328e-008     1.399e-009     
  -0.4            -2.8896e-005    -1.6417e-008    1.2396e-009    
  -0.45           -2.9558e-005    -1.0898e-008    1.1435e-009    
  -0.5            -3.0286e-005    -1.5187e-008    1.3139e-009    
  -0.55           -3.0943e-005    -2.2871e-008    1.0642e-009    
  -0.6            -3.148e-005     -1.6414e-008    1.1339e-009    
  -0.65           -3.2061e-005    -1.0726e-008    1.1442e-009    
  -0.7            -3.2662e-005    -1.4963e-008    1.3379e-009    
  -0.75           -3.3232e-005    -1.0521e-008    1.147e-009     
  -0.8            -3.3711e-005    -1.3859e-008    1.4241e-009    
  -0.85           -3.4297e-005    -1.0211e-008    1.1474e-009    
  -0.9            -3.4715e-005    -1.307e-008     1.5283e-009    
  -0.95           -3.528e-005     -9.799e-009     1.1484e-009    
  -1              -3.5682e-005    -1.2305e-008    1.6304e-009    
  -1.05           -3.5934e-005    -9.544e-009     -2.59e-010     
  -1.1            -3.6211e-005    2.534e-009      -1.244e-009    
  -1.15           -3.7215e-005    1.1849e-008     1.0298e-009    
  -1.2            -3.7628e-005    -1.075e-008     1.1489e-009    
  -1.25           -3.8029e-005    -1.3544e-008    1.4847e-009    
  -1.3            -3.8542e-005    -1.0003e-008    1.1489e-009    
  -1.35           -3.8904e-005    -1.2645e-008    1.583e-009     
  -1.4            -3.9423e-005    -9.236e-009     1.1461e-009    
  -1.45           -3.9762e-005    -1.1943e-008    1.6884e-009    
  -1.5            -4.027e-005     -1.2314e-008    1.148e-009     
  -1.55           -4.0622e-005    -1.2456e-008    1.6153e-009    
  -1.6            -4.1132e-005    -1.1357e-008    1.1467e-009    
  -1.65           -4.1489e-005    -1.3093e-008    1.5393e-009    
  -1.7            -4.1991e-005    -9.619e-009     1.1487e-009    
  -1.75           -4.231e-005     -1.2121e-008    1.64e-009      
  -1.8            -4.2798e-005    -1.1538e-008    1.1475e-009    
END_DB

BEGIN_DB
 ICCAP_VAR VG         -1.44          
 ICCAP_VAR VS         0              
 ICCAP_VAR VB         0              

 #VD              ID              IB              IG             
  0               -9.3128e-008    -1.0781e-008    5.456e-010     
  -0.05           -4.2366e-005    -1.0608e-008    4.94e-011      
  -0.1            -7.9619e-005    -1.7398e-008    1.2202e-009    
  -0.15           -0.000111343    -1.0916e-008    1.1384e-009    
  -0.2            -0.00013789     -1.1324e-008    2.046e-010     
  -0.25           -0.00015918     7.236e-009      -1.6794e-009   
  -0.3            -0.00017677     1.4422e-008     1.456e-009     
  -0.35           -0.00019032     -1.3582e-008    1.4459e-009    
  -0.4            -0.0002005      -9.501e-009     -1.531e-010    
  -0.45           -0.00020808     5.1e-011        -1.2665e-009   
  -0.5            -0.00021535     8.534e-009      4.925e-010     
  -0.55           -0.00022078     -3.601e-009     1.0861e-009    
  -0.6            -0.00022401     -9.383e-009     -9.111e-010    
  -0.65           -0.00022818     1.804e-009      -1.2316e-009   
  -0.7            -0.00023285     1.3413e-008     1.2485e-009    
  -0.75           -0.00023595     -1.11e-008      1.1477e-009    
  -0.8            -0.00023888     -1.0593e-008    1.1451e-009    
  -0.85           -0.00024143     -1.1622e-008    1.6686e-009    
  -0.9            -0.0002441      -1.5262e-008    1.3102e-009    
  -0.95           -0.00024654     -1.1542e-008    1.1459e-009    
  -1              -0.00024894     -1.051e-008     1.1457e-009    
  -1.05           -0.00025094     -1.1425e-008    1.6879e-009    
  -1.1            -0.00025332     -1.4975e-008    1.3279e-009    
  -1.15           -0.00025474     -9.456e-009     -2.397e-010    
  -1.2            -0.00025642     1.023e-009      -1.2581e-009   
  -1.25           -0.00025936     8.397e-009      5.58e-010      
  -1.3            -0.00026131     -4.283e-009     1.1005e-009    
  -1.35           -0.00026337     -1.7221e-008    1.2238e-009    
  -1.4            -0.00026523     -9.917e-009     1.146e-009     
  -1.45           -0.00026614     -9.569e-009     -3.398e-010    
  -1.5            -0.00026752     2.056e-009      -1.2496e-009   
  -1.55           -0.00027056     8.454e-009      6.568e-010     
  -1.6            -0.00027223     -5.532e-009     1.1174e-009    
  -1.65           -0.00027392     -1.2295e-008    1.1439e-009    
  -1.7            -0.00027475     -9.527e-009     -3.219e-010    
  -1.75           -0.00027604     2.169e-009      -1.2518e-009   
  -1.8            -0.00027893     8.432e-009      6.456e-010     
END_DB

BEGIN_DB
 ICCAP_VAR VG         -1.8           
 ICCAP_VAR VS         0              
 ICCAP_VAR VB         0              

 #VD              ID              IB              IG             
  0               -1.2958e-007    -5.592e-009     -2.3256e-009   
  -0.05           -6.5417e-005    -1.4329e-008    3.899e-010     
  -0.1            -0.00012713     -3.485e-009     1.133e-009     
  -0.15           -0.00018478     -9.539e-009     1.1482e-009    
  -0.2            -0.00023831     -1.0538e-008    1.1445e-009    
  -0.25           -0.00028738     -1.1069e-008    1.7869e-009    
  -0.3            -0.00033222     -1.4152e-008    1.4038e-009    
  -0.35           -0.00037222     -9.556e-009     -1.953e-010    
  -0.4            -0.0004075      4.37e-010       -1.2601e-009   
  -0.45           -0.00043914     8.375e-009      5.166e-010     
  -0.5            -0.00046622     -3.829e-009     1.09e-009      
  -0.55           -0.00048922     -1.5836e-008    1.2837e-009    
  -0.6            -0.00050873     -9.319e-009     1.1456e-009    
  -0.65           -0.00052508     -1.0496e-008    1.1468e-009    
  -0.7            -0.00053897     -1.1037e-008    1.8337e-009    
  -0.75           -0.00055078     -1.3737e-008    1.4436e-009    
  -0.8            -0.0005603      -9.556e-009     -1.687e-010    
  -0.85           -0.00056822     1.48e-010       -1.2617e-009   
  -0.9            -0.00057693     8.658e-009      5.032e-010     
  -0.95           -0.00058391     -3.677e-009     1.0861e-009    
  -1              -0.00058996     -1.5302e-008    1.3112e-009    
  -1.05           -0.00059573     -1.1612e-008    1.146e-009     
  -1.1            -0.00059983     -9.491e-009     -3.702e-010    
  -1.15           -0.00060429     2.287e-009      -1.2501e-009   
  -1.2            -0.00061053     8.579e-009      6.881e-010     
  -1.25           -0.00061468     -5.955e-009     1.1272e-009    
  -1.3            -0.00061875     -1.164e-008     1.1459e-009    
  -1.35           -0.00062156     -9.606e-009     -3.581e-010    
  -1.4            -0.00062501     2.383e-009      -1.2481e-009   
  -1.45           -0.00063032     8.462e-009      6.786e-010     
  -1.5            -0.00063372     -5.909e-009     1.1244e-009    
  -1.55           -0.00063715     -1.1945e-008    1.1479e-009    
  -1.6            -0.0006395      -9.639e-009     -3.494e-010    
  -1.65           -0.00064219     2.217e-009      -1.2501e-009   
  -1.7            -0.00064724     8.508e-009      6.69e-010      
  -1.75           -0.00065037     -5.723e-009     1.1226e-009    
  -1.8            -0.00065313     -1.1943e-008    1.1474e-009    
END_DB

BEGIN_DB
 ICCAP_VAR VG         0              
 ICCAP_VAR VS         0              
 ICCAP_VAR VB         0.9            

 #VD              ID              IB              IG             
  0               -1.0425e-009    8.887e-009      -1.2181e-009   
  -0.05           -1.735e-010     -1.5263e-008    1.6321e-009    
  -0.1            1.1908e-009     1.4116e-008     1.1491e-009    
  -0.15           1.6203e-009     7.95e-009       -1.24e-009     
  -0.2            -1.369e-009     2.617e-009      -1.1294e-009   
  -0.25           -1.821e-010     -1.5321e-008    1.6338e-009    
  -0.3            1.187e-009      1.4569e-008     1.1574e-009    
  -0.35           1.6245e-009     8.033e-009      -1.2405e-009   
  -0.4            -1.359e-009     2.759e-009      -1.1374e-009   
  -0.45           -1.857e-010     -1.5631e-008    1.6233e-009    
  -0.5            1.1812e-009     1.4212e-008     1.1646e-009    
  -0.55           1.6244e-009     8.068e-009      -2.27e-011     
  -0.6            1.7295e-009     8.626e-009      1.345e-010     
  -0.65           6.496e-010      8.729e-009      -1.2538e-009   
  -0.7            -1.7326e-009    3.03e-009       -7.318e-010    
  -0.75           9.747e-010      -1.0767e-008    1.9993e-009    
  -0.8            1.1934e-009     1.1777e-008     -1.2272e-009   
  -0.85           -1.1299e-009    8.142e-009      -1.3703e-009   
  -0.9            9.265e-010      -9.344e-009     1.8211e-009    
  -0.95           9.796e-010      8.791e-009      -1.239e-009    
  -1              -1.3386e-009    2.966e-009      -1.1546e-009   
  -1.05           -2.057e-010     -1.5888e-008    1.5833e-009    
  -1.1            1.1589e-009     1.4548e-008     1.1881e-009    
  -1.15           1.6413e-009     8.274e-009      -2.8e-012      
  -1.2            1.7363e-009     9.02e-009       1.71e-010      
  -1.25           6.71e-010       8.882e-009      -1.2525e-009   
  -1.3            -1.7148e-009    2.828e-009      -7.568e-010    
  -1.35           9.777e-010      -1.1154e-008    2.0198e-009    
  -1.4            1.2108e-009     1.0986e-008     -1.2247e-009   
  -1.45           -1.1156e-009    8.794e-009      -1.3882e-009   
  -1.5            9.3e-010        -9.736e-009     1.8376e-009    
  -1.55           9.987e-010      8.883e-009      -1.2374e-009   
  -1.6            -1.3151e-009    3.328e-009      -1.1867e-009   
  -1.65           -1.0342e-009    -1.5746e-008    1.0959e-009    
  -1.7            9.307e-010      -9.874e-009     1.8435e-009    
  -1.75           1.0082e-009     8.893e-009      -1.2368e-009   
  -1.8            -1.3059e-009    3.332e-009      -1.1872e-009   
END_DB

BEGIN_DB
 ICCAP_VAR VG         -0.36          
 ICCAP_VAR VS         0              
 ICCAP_VAR VB         0.9            

 #VD              ID              IB              IG             
  0               -1.1087e-009    8.621e-009      -1.2475e-009   
  -0.05           -1.1151e-009    -1.2407e-008    1.1229e-009    
  -0.1            9.605e-010      -1.0758e-008    1.9471e-009    
  -0.15           1.1416e-009     9.867e-009      -1.2362e-009   
  -0.2            -1.1829e-009    6.625e-009      -1.3271e-009   
  -0.25           -1.1202e-009    -1.2359e-008    1.1238e-009    
  -0.3            9.602e-010      -1.072e-008     1.95e-009      
  -0.35           1.1369e-009     9.777e-009      -1.2328e-009   
  -0.4            -1.1844e-009    6.481e-009      -1.3234e-009   
  -0.45           -1.1218e-009    -1.2329e-008    1.1234e-009    
  -0.5            9.606e-010      -1.0765e-008    1.9503e-009    
  -0.55           1.1373e-009     1.1019e-008     -1.2348e-009   
