! VERSION = 6.00
BEGIN_HEADER
 ICCAP_INPUTS
  VG         V  B GROUND SMU4 0.001 LIN        2    0          -1.8       6    -0.36     
  VS         V  E GROUND SMU3 0.1 CON        0
  VD         V  S GROUND SMU2 0.1 LIN        1    0          -1.8       37   -0.05     
  VB         V  C GROUND SMU1 0.1 LIN        3    0          0.9        2    0.9       
 ICCAP_OUTPUTS
  ID         I  S GROUND SMU2 B
  IB         I  C GROUND SMU1 B
  IG         I  B GROUND SMU4 B
END_HEADER

BEGIN_DB
 ICCAP_VAR VG         0              
 ICCAP_VAR VS         0              
 ICCAP_VAR VB         0              

 #VD              ID              IB              IG             
  0               9.23e-010       1.1494e-008     -3.249e-010    
  -0.05           -2.7568e-009    -1.8413e-008    2.1404e-009    
  -0.1            1.1034e-009     1.4531e-008     -2.0395e-009   
  -0.15           -1.156e-009     -1.6464e-008    2.3122e-009    
  -0.2            9.583e-010      1.3277e-008     -2.1909e-009   
  -0.25           -9.86e-010      -1.6606e-008    2.4601e-009    
  -0.3            7.987e-010      1.1966e-008     -2.3205e-009   
  -0.35           -8.162e-010     -1.6381e-008    2.5807e-009    
  -0.4            3.57e-009       7.961e-009      -1.685e-010    
  -0.45           -2.11e-011      8.347e-009      -2.5922e-009   
  -0.5            -2.8751e-009    -1.4875e-008    1.9133e-009    
  -0.55           2.3807e-009     1.031e-008      1.6988e-009    
  -0.6            2.701e-010      8.764e-009      -2.5541e-009   
  -0.65           -2.026e-010     -1.2437e-008    2.7285e-009    
  -0.7            3.0858e-009     1.1336e-008     -1.5455e-009   
  -0.75           -2.8466e-009    -1.5647e-008    1.9688e-009    
  -0.8            2.5562e-009     2.134e-008      -2.0852e-009   
  -0.85           -1.0997e-009    -1.6487e-008    2.3624e-009    
  -0.9            9.06e-010       1.2823e-008     -2.2366e-009   
  -0.95           -9.33e-010      -1.6565e-008    2.4999e-009    
  -1              3.6597e-009     8.29e-009       -1.048e-010    
  -1.05           8.81e-011       8.834e-009      -2.5807e-009   
  -1.1            -2.944e-009     -1.3103e-008    1.7752e-009    
  -1.15           2.7104e-009     1.793e-008      -1.9272e-009   
  -1.2            -1.259e-009     -1.6411e-008    2.1985e-009    
  -1.25           1.0584e-009     1.4028e-008     -2.0901e-009   
  -1.3            -1.1031e-009    -1.664e-008     2.3645e-009    
  -1.35           9.051e-010      1.2935e-008     -2.2373e-009   
  -1.4            -9.265e-010     -1.6524e-008    2.5037e-009    
  -1.45           3.6627e-009     8.271e-009      -1.042e-010    
  -1.5            9.24e-011       8.614e-009      -2.5752e-009   
  -1.55           -2.9431e-009    -1.3099e-008    1.7724e-009    
  -1.6            2.7148e-009     1.8071e-008     -1.9204e-009   
  -1.65           -1.2653e-009    -1.6435e-008    2.1926e-009    
  -1.7            1.0577e-009     1.4212e-008     -2.0886e-009   
  -1.75           -1.108e-009     -1.6617e-008    2.3562e-009    
  -1.8            9.116e-010      1.308e-008      -2.2323e-009   
END_DB

BEGIN_DB
 ICCAP_VAR VG         -0.36          
 ICCAP_VAR VS         0              
 ICCAP_VAR VB         0              

 #VD              ID              IB              IG             
  0               -6.401e-010     4.685e-009      -9.355e-010    
  -0.05           -2.6084e-009    -2.1636e-008    2.3293e-009    
  -0.1            9.325e-010      1.2796e-008     -2.2055e-009   
  -0.15           -9.65e-010      -1.652e-008     2.4701e-009    
  -0.2            3.6934e-009     8.62e-009       -8.66e-011     
  -0.25           1.322e-010      8.67e-009       -2.58e-009     
  -0.3            -2.9699e-009    -1.2388e-008    1.7001e-009    
  -0.35           4.0787e-009     9.639e-009      3.595e-010     
  -0.4            -1.9399e-009    1.717e-009      -1.9288e-009   
  -0.45           -8.207e-010     -1.6278e-008    2.5688e-009    
  -0.5            3.586e-009      8.055e-009      -1.635e-010    
  -0.55           -5.4e-012       8.644e-009      -2.5983e-009   
  -0.6            -2.8906e-009    -1.4311e-008    1.8783e-009    
  -0.65           1.2868e-009     1.6149e-008     -1.8124e-009   
  -0.7            -1.3514e-009    -1.6282e-008    2.0664e-009    
  -0.75           1.1505e-009     1.4813e-008     -1.9729e-009   
  -0.8            -2.5272e-009    -2.3041e-008    2.4313e-009    
  -0.85           8.394e-010      1.2064e-008     -2.294e-009    
  -0.9            -8.553e-010     -1.6273e-008    2.5519e-009    
  -0.95           3.6091e-009     8.218e-009      -1.418e-010    
  -1              2.83e-011       8.739e-009      -2.5927e-009   
  -1.05           -2.9025e-009    -1.3915e-008    1.8423e-009    
  -1.1            1.3102e-009     1.6307e-008     -1.7807e-009   
  -1.15           -1.37e-009      -1.6127e-008    2.0359e-009    
  -1.2            1.1736e-009     1.5099e-008     -1.9424e-009   
  -1.25           -1.2419e-009    -1.6422e-008    2.217e-009     
  -1.3            1.0329e-009     1.3952e-008     -2.0992e-009   
  -1.35           -2.4157e-009    -2.3809e-008    2.5337e-009    
  -1.4            3.6356e-009     8.33e-009       -1.282e-010    
  -1.45           5.77e-011       8.651e-009      -2.5892e-009   
  -1.5            -2.9188e-009    -1.3569e-008    1.8045e-009    
  -1.55           2.6731e-009     1.8528e-008     -1.9493e-009   
  -1.6            -1.2357e-009    -1.6354e-008    2.2227e-009    
  -1.65           1.0295e-009     1.3882e-008     -2.1109e-009   
  -1.7            -1.0851e-009    -1.6207e-008    2.3802e-009    
  -1.75           8.909e-010      1.2443e-008     -2.2488e-009   
  -1.8            -9.124e-010     -1.639e-008     2.5098e-009    
END_DB

BEGIN_DB
 ICCAP_VAR VG         -0.72          
 ICCAP_VAR VS         0              
 ICCAP_VAR VB         0              

 #VD              ID              IB              IG             
  0               -1.3286e-009    -1.6993e-008    1.138e-010     
  -0.05           1.2779e-009     7.884e-009      -1.3335e-009   
  -0.1            -2.8787e-009    -1.4464e-008    2.6948e-009    
  -0.15           3.272e-010      1.4786e-008     -1.7598e-009   
  -0.2            -5.2957e-009    -2.0033e-008    2.2127e-009    
  -0.25           -3.7143e-009    1.7367e-008     -1.7092e-009   
  -0.3            -5.3378e-009    -1.9515e-008    2.183e-009     
  -0.35           -3.7088e-009    1.756e-008      -1.6712e-009   
  -0.4            -5.3798e-009    -1.8866e-008    2.1539e-009    
  -0.45           -3.7112e-009    1.7714e-008     -1.6423e-009   
  -0.5            -5.4207e-009    -1.8312e-008    2.1163e-009    
  -0.55           -3.7392e-009    1.8006e-008     -1.6102e-009   
  -0.6            -5.4556e-009    -1.7503e-008    2.0775e-009    
  -0.65           -3.7294e-009    1.8129e-008     -1.5855e-009   
  -0.7            -5.4929e-009    -1.709e-008     2.0389e-009    
  -0.75           -3.7275e-009    1.8485e-008     -1.5558e-009   
  -0.8            -5.5234e-009    -1.6373e-008    1.9987e-009    
  -0.85           -3.6829e-009    1.8682e-008     -1.5327e-009   
  -0.9            -5.5588e-009    -1.5762e-008    1.9647e-009    
  -0.95           -3.673e-009     1.9022e-008     -1.5037e-009   
  -1              -5.592e-009     -1.5418e-008    1.9248e-009    
  -1.05           -3.6679e-009    1.9338e-008     -1.4776e-009   
  -1.1            -5.6257e-009    -1.4794e-008    1.8803e-009    
  -1.15           -3.663e-009     1.9678e-008     -1.4573e-009   
  -1.2            -5.6509e-009    -1.4236e-008    1.8474e-009    
  -1.25           -4.3085e-009    8.271e-009      -2.5777e-009   
  -1.3            -5.6843e-009    -1.3843e-008    1.8047e-009    
  -1.35           -4.3094e-009    8.498e-009      -2.5716e-009   
  -1.4            -5.7136e-009    -1.3317e-008    1.7655e-009    
  -1.45           -4.3152e-009    8.463e-009      -2.5658e-009   
  -1.5            -5.7487e-009    -1.2802e-008    1.732e-009     
  -1.55           -4.3228e-009    8.484e-009      -2.5601e-009   
  -1.6            -5.7759e-009    -1.2422e-008    1.6912e-009    
  -1.65           -4.3253e-009    8.42e-009       -2.5582e-009   
  -1.7            -5.8072e-009    -1.189e-008     1.6561e-009    
  -1.75           -4.3377e-009    8.412e-009      -2.5493e-009   
  -1.8            -5.8356e-009    -1.1388e-008    1.6102e-009    
END_DB

BEGIN_DB
 ICCAP_VAR VG         -1.08          
 ICCAP_VAR VS         0              
 ICCAP_VAR VB         0              

 #VD              ID              IB              IG             
  0               9.033e-009      -1.7696e-008    2.7189e-009    
  -0.05           -2.0068e-006    6.74e-009       1.47e-009      
  -0.1            -3.1343e-006    -6.793e-009     2.6025e-009    
  -0.15           -3.7075e-006    -1.7231e-008    1.9788e-009    
  -0.2            -3.961e-006     -1.5026e-008    2.7126e-009    
  -0.25           -4.0704e-006    -7.532e-009     2.7374e-009    
  -0.3            -4.1249e-006    -8.014e-009     2.703e-009     
  -0.35           -4.1704e-006    -1.6983e-008    1.5606e-009    
  -0.4            -4.1952e-006    -1.707e-008     1.9468e-009    
  -0.45           -4.2173e-006    -1.4955e-008    2.7068e-009    
  -0.5            -4.2317e-006    -7.673e-009     2.7366e-009    
  -0.55           -4.2446e-006    -8.016e-009     2.7052e-009    
  -0.6            -4.2712e-006    -1.6935e-008    1.5436e-009    
  -0.65           -4.2843e-006    -1.7109e-008    1.9452e-009    
  -0.7            -4.2984e-006    -1.4485e-008    2.7067e-009    
  -0.75           -4.307e-006     -7.706e-009     2.7385e-009    
  -0.8            -4.3151e-006    -8.009e-009     2.7116e-009    
  -0.85           -4.3379e-006    -1.7041e-008    1.5243e-009    
  -0.9            -4.3474e-006    -1.7299e-008    1.9187e-009    
  -0.95           -4.3601e-006    -1.4398e-008    2.7044e-009    
  -1              -4.3651e-006    -7.668e-009     2.7344e-009    
  -1.05           -4.3698e-006    -7.93e-009      2.7134e-009    
  -1.1            -4.393e-006     -1.7112e-008    1.5163e-009    
  -1.15           -4.4e-006       -1.7242e-008    1.9072e-009    
  -1.2            -4.4097e-006    -1.42e-008      2.7009e-009    
  -1.25           -4.4146e-006    -7.597e-009     2.7359e-009    
  -1.3            -4.4175e-006    -7.945e-009     2.7154e-009    
  -1.35           -4.4391e-006    -1.7076e-008    1.4976e-009    
  -1.4            -4.4464e-006    -1.7299e-008    1.8841e-009    
  -1.45           -4.4551e-006    -1.397e-008     2.6948e-009    
  -1.5            -4.459e-006     -7.672e-009     2.7325e-009    
  -1.55           -4.4613e-006    -7.801e-009     2.7167e-009    
  -1.6            -4.4825e-006    -1.7099e-008    1.4773e-009    
  -1.65           -4.4876e-006    -1.7271e-008    1.8614e-009    
  -1.7            -4.5e-006       -1.369e-008     2.6956e-009    
  -1.75           -4.4987e-006    -7.721e-009     2.7335e-009    
  -1.8            -4.501e-006     -7.681e-009     2.7177e-009    
END_DB

BEGIN_DB
 ICCAP_VAR VG         -1.44          
 ICCAP_VAR VS         0              
 ICCAP_VAR VB         0              

 #VD              ID              IB              IG             
  0               1.4559e-008     -1.4656e-008    -1.1363e-009   
  -0.05           -9.5141e-006    -1.1179e-008    -1.9057e-009   
  -0.1            -1.7679e-005    -1.4469e-008    2.835e-010     
  -0.15           -2.4505e-005    1.4437e-008     -1.7608e-009   
  -0.2            -3.0056e-005    1.6022e-008     -1.5424e-009   
  -0.25           -3.4398e-005    1.7858e-008     -1.374e-009    
  -0.3            -3.7659e-005    8.274e-009      -2.5087e-009   
  -0.35           -4.0015e-005    8.398e-009      -2.4153e-009   
  -0.4            -4.1651e-005    8.994e-009      -2.2714e-009   
  -0.45           -4.2771e-005    1.3851e-008     -1.3941e-009   
  -0.5            -4.3523e-005    1.9473e-008     -1.2842e-009   
  -0.55           -4.4037e-005    8.417e-009      -2.4307e-009   
  -0.6            -4.444e-005     9.055e-009      -2.2934e-009   
  -0.65           -4.4762e-005    1.4204e-008     -1.404e-009    
  -0.7            -4.5014e-005    1.915e-008      -1.2943e-009   
  -0.75           -4.5222e-005    8.354e-009      -2.4418e-009   
  -0.8            -4.5416e-005    8.967e-009      -2.31e-009     
  -0.85           -4.5605e-005    1.4669e-008     -1.4232e-009   
  -0.9            -4.5768e-005    1.9023e-008     -1.303e-009    
  -0.95           -4.5903e-005    8.285e-009      -2.4565e-009   
  -1              -4.6044e-005    8.688e-009      -2.327e-009    
  -1.05           -4.6195e-005    1.4992e-008     -1.438e-009    
  -1.1            -4.6319e-005    1.879e-008      -1.3138e-009   
  -1.15           -4.6423e-005    8.402e-009      -2.4612e-009   
  -1.2            -4.6547e-005    8.535e-009      -2.3426e-009   
  -1.25           -4.6672e-005    1.5612e-008     -1.4573e-009   
  -1.3            -4.6781e-005    1.8556e-008     -1.3259e-009   
  -1.35           -4.6866e-005    8.479e-009      -2.4756e-009   
  -1.4            -4.6973e-005    8.557e-009      -2.3661e-009   
  -1.45           -4.7081e-005    1.6114e-008     -1.4817e-009   
  -1.5            -4.7177e-005    1.8473e-008     -1.3362e-009   
  -1.55           -4.7249e-005    8.296e-009      -2.4853e-009   
  -1.6            -4.7383e-005    8.548e-009      -2.3787e-009   
  -1.65           -4.7448e-005    1.6674e-008     -1.5033e-009   
  -1.7            -4.7575e-005    1.8229e-008     -1.3512e-009   
  -1.75           -4.7618e-005    2.0072e-008     -1.2648e-009   
  -1.8            -4.7695e-005    8.497e-009      -2.3917e-009   
END_DB

BEGIN_DB
 ICCAP_VAR VG         -1.8           
 ICCAP_VAR VS         0              
 ICCAP_VAR VB         0              

 #VD              ID              IB              IG             
  0               2.174e-008      6e-009          1.1808e-009    
  -0.05           -1.6502e-005    -3.085e-009     -2.2997e-009   
  -0.1            -3.1868e-005    1.4465e-008     -1.4235e-009   
  -0.15           -4.6114e-005    1.9272e-008     -1.3066e-009   
  -0.2            -5.9175e-005    8.439e-009      -2.45e-009     
  -0.25           -7.102e-005     8.701e-009      -2.326e-009    
  -0.3            -8.1664e-005    1.5147e-008     -1.4436e-009   
  -0.35           -9.1127e-005    1.8858e-008     -1.3198e-009   
  -0.4            -9.938e-005     8.308e-009      -2.4662e-009   
  -0.45           -0.000106455    8.772e-009      -2.3443e-009   
  -0.5            -0.000112437    1.5596e-008     -1.4684e-009   
  -0.55           -0.00011755     1.0288e-008     1.966e-009     
  -0.6            -0.00012156     -1.2465e-008    2.6742e-009    
  -0.65           -0.00012483     -9.229e-009     2.7136e-009    
  -0.7            -0.00012724     -8.381e-009     2.7305e-009    
  -0.75           -0.00012914     -7.909e-009     2.7378e-009    
  -0.8            -0.00013064     -7.293e-009     2.7369e-009    
  -0.85           -0.0001318      -7.881e-009     2.7218e-009    
  -0.9            -0.00013276     -8.126e-009     2.6924e-009    
  -0.95           -0.00013356     -1.7316e-008    1.4353e-009    
  -1              -0.00013424     -1.6919e-008    1.5788e-009    
  -1.05           -0.00013481     -1.7196e-008    1.7558e-009    
  -1.1            -0.00013541     -1.72e-008      1.9376e-009    
  -1.15           -0.00013584     -1.6798e-008    2.1143e-009    
  -1.2            -0.00013626     -1.4064e-008    2.7051e-009    
  -1.25           -0.00013683     -8.82e-009      2.7264e-009    
  -1.3            -0.0001371      -7.888e-009     2.7353e-009    
  -1.35           -0.00013753     -7.478e-009     2.7382e-009    
  -1.4            -0.00013778     -7.679e-009     2.7315e-009    
  -1.45           -0.00013809     -8.168e-009     2.7046e-009    
  -1.5            -0.00013845     -1.756e-008     2.7253e-009    
  -1.55           -0.00013874     -7.856e-009     2.7367e-009    
  -1.6            -0.00013909     -7.591e-009     2.7384e-009    
  -1.65           -0.00013933     -7.705e-009     2.7277e-009    
  -1.7            -0.00013963     -8.106e-009     2.7015e-009    
  -1.75           -0.0001399      -1.7637e-008    2.7236e-009    
  -1.8            -0.00014014     -7.817e-009     2.7384e-009    
END_DB

BEGIN_DB
 ICCAP_VAR VG         0              
 ICCAP_VAR VS         0              
 ICCAP_VAR VB         0.9            

 #VD              ID              IB              IG             
  0               -1.3703e-009    -7.971e-009     1.187e-010     
  -0.05           4.1382e-009     9.456e-009      4.07e-010      
  -0.1            -2.917e-009     -1.4268e-008    1.8534e-009    
  -0.15           1.3142e-009     1.6854e-008     -1.7995e-009   
  -0.2            -2.6737e-009    -2.1258e-008    2.2793e-009    
  -0.25           9.809e-010      1.3867e-008     -2.1674e-009   
  -0.3            -1.0087e-009    -1.702e-008     2.4361e-009    
  -0.35           8.093e-010      1.2405e-008     -2.3034e-009   
  -0.4            -8.123e-010     -1.6729e-008    2.5558e-009    
  -0.45           3.5645e-009     7.839e-009      -1.684e-010    
  -0.5            -3.16e-011      8.21e-009       -2.6004e-009   
  -0.55           -2.8716e-009    -1.5706e-008    1.9521e-009    
  -0.6            2.4567e-009     1.0556e-008     1.6951e-009    
  -0.65           2.397e-010      8.368e-009      -2.5523e-009   
  -0.7            -1.471e-010     -1.1317e-008    2.726e-009     
  -0.75           5.76e-011       8.304e-009      -2.5814e-009   
  -0.8            -2.9192e-009    -1.4046e-008    1.8396e-009    
  -0.85           2.6813e-009     1.9308e-008     -1.9868e-009   
  -0.9            -1.2095e-009    -1.7246e-008    2.2671e-009    
  -0.95           1.0005e-009     1.409e-008      -2.1552e-009   
  -1              -1.0211e-009    -1.7128e-008    2.4293e-009    
  -1.05           8.293e-010      1.2502e-008     -2.2936e-009   
  -1.1            -8.294e-010     -1.6471e-008    2.5498e-009    
  -1.15           3.5726e-009     7.954e-009      -1.62e-010     
  -1.2            -1.93e-011      8.23e-009       -2.5957e-009   
  -1.25           -2.8735e-009    -1.5505e-008    1.9401e-009    
  -1.3            2.4374e-009     1.05e-008       1.7039e-009    
  -1.35           2.401e-010      8.31e-009       -2.5484e-009   
  -1.4            -3.0301e-009    -1.1352e-008    1.5972e-009    
  -1.45           2.8598e-009     1.5495e-008     -1.7882e-009   
  -1.5            -1.3734e-009    -1.6753e-008    2.0579e-009    
  -1.55           1.1725e-009     1.5573e-008     -1.9787e-009   
  -1.6            -1.2198e-009    -1.7161e-008    2.2542e-009    
  -1.65           1.011e-009      1.4207e-008     -2.1475e-009   
  -1.7            -1.0342e-009    -1.712e-008     2.4173e-009    
  -1.75           8.421e-010      1.273e-008      -2.2883e-009   
  -1.8            -8.44e-010      -1.6557e-008    2.5491e-009    
END_DB

BEGIN_DB
 ICCAP_VAR VG         -0.36          
 ICCAP_VAR VS         0              
 ICCAP_VAR VB         0.9            

 #VD              ID              IB              IG             
  0               -4.314e-010     -1.2194e-008    -1.2508e-009   
  -0.05           -2.602e-010     -1.2911e-008    2.7182e-009    
  -0.1            1.526e-010      8.354e-009      -2.572e-009    
  -0.15           -2.9813e-009    -1.269e-008     1.7194e-009    
  -0.2            4.0983e-009     9.445e-009      3.538e-010     
  -0.25           -1.9563e-009    1.562e-009      -1.9249e-009   
  -0.3            -7.757e-010     -1.6335e-008    2.5712e-009    
  -0.35           3.5408e-009     7.965e-009      -1.2783e-009   
  -0.4            -5.782e-010     -1.5688e-008    2.6544e-009    
  -0.45           3.3825e-009     8.194e-009      -1.3514e-009   
  -0.5            -3.538e-010     -1.3974e-008    2.7005e-009    
  -0.55           3.2138e-009     9.893e-009      -1.4638e-009   
