! VERSION = 6.00
BEGIN_HEADER
 ICCAP_INPUTS
  VG         V  B GROUND SMU4 0.001 LIN        2    0          -1.8       6    -0.36     
  VS         V  E GROUND SMU2 0.1 CON        0
  VD         V  S GROUND SMU1 0.1 LIN        1    0          -1.8       37   -0.05     
  VB         V  C GROUND SMU3 0.1 CON        0
 ICCAP_OUTPUTS
  ID         I  S GROUND SMU1 B
  IG         I  B GROUND SMU4 B
END_HEADER

BEGIN_DB
 ICCAP_VAR VG         0              
 ICCAP_VAR VS         0              
 ICCAP_VAR VB         0              

 #VD              ID              IG             
  0               8.973e-011      -2.6688e-010   
  -0.05           -9.46e-011      3.386e-010     
  -0.1            1.8786e-010     7.925e-011     
  -0.15           -2.4938e-010    -1.0528e-010   
  -0.2            -9.442e-011     3.4029e-010    
  -0.25           1.8068e-010     6.972e-011     
  -0.3            -1.9347e-010    -1.7616e-010   
  -0.35           -1.3812e-010    2.6827e-010    
  -0.4            1.7182e-010     6.049e-011     
  -0.45           -2.0808e-010    -1.5934e-010   
  -0.5            -1.3558e-010    2.8582e-010    
  -0.55           1.5899e-010     5.269e-011     
  -0.6            -2.2549e-010    -1.4578e-010   
  -0.65           -1.3382e-010    3.042e-010     
  -0.7            1.4336e-010     4.525e-011     
  -0.75           5.099e-011      -2.6335e-010   
  -0.8            -2.4877e-010    -1.3044e-010   
  -0.85           -1.3333e-010    3.256e-010     
  -0.9            1.1492e-010     3.436e-011     
  -0.95           3.382e-011      -2.8804e-010   
  -1              -2.7111e-010    -1.1751e-010   
  -1.05           -1.32e-010      3.3804e-010    
  -1.1            8.491e-011      1.482e-011     
  -1.15           1.613e-011      -3.1223e-010   
  -1.2            -2.8895e-010    -1.0292e-010   
  -1.25           -1.3224e-010    3.3987e-010    
  -1.3            5.564e-011      -3.2607e-010   
  -1.35           -2.9917e-010    -9.244e-011    
  -1.4            -1.3481e-010    3.3592e-010    
  -1.45           1.2307e-010     5.901e-011     
  -1.5            -1.9495e-010    -2.9708e-010   
  -1.55           -1.8262e-010    2.9347e-010    
  -1.6            -1.731e-011     3.2722e-010    
  -1.65           -2.2368e-010    -2.5601e-010   
  -1.7            -1.8313e-010    3.2298e-010    
  -1.75           -7.9e-012       3.0578e-010    
  -1.8            -2.5155e-010    -2.147e-010    
END_DB

BEGIN_DB
 ICCAP_VAR VG         -0.36          
 ICCAP_VAR VS         0              
 ICCAP_VAR VB         0              

 #VD              ID              IG             
  0               1.9023e-008     -2.7911e-010   
  -0.05           -8.8059e-008    -3.264e-010    
  -0.1            -1.1448e-007    -9.121e-011    
  -0.15           -1.2684e-007    -3.37e-010     
  -0.2            -1.3727e-007    -2.4237e-010   
  -0.25           -1.4758e-007    -2.5127e-010   
  -0.3            -1.5803e-007    -2.6034e-010   
  -0.35           -1.686e-007     -2.7102e-010   
  -0.4            -1.7936e-007    -2.8078e-010   
  -0.45           -1.904e-007     -2.9128e-010   
  -0.5            -2.0163e-007    -3.0191e-010   
  -0.55           -2.1317e-007    -3.1198e-010   
  -0.6            -2.2489e-007    -3.2091e-010   
  -0.65           -2.3658e-007    -3.2774e-010   
  -0.7            -2.4903e-007    -2.2771e-010   
  -0.75           -2.6174e-007    -2.3621e-010   
  -0.8            -2.748e-007     -2.4506e-010   
  -0.85           -2.8822e-007    -2.536e-010    
  -0.9            -3.0209e-007    -2.6354e-010   
  -0.95           -3.1629e-007    -2.7378e-010   
  -1              -3.3086e-007    -2.8309e-010   
  -1.05           -3.4585e-007    -2.9415e-010   
  -1.1            -3.6124e-007    -3.0432e-010   
  -1.15           -3.7712e-007    -3.1386e-010   
  -1.2            -3.9339e-007    -3.2304e-010   
  -1.25           -4.0949e-007    -3.3028e-010   
  -1.3            -4.2687e-007    -3.3542e-010   
  -1.35           -4.4471e-007    -2.3807e-010   
  -1.4            -4.6316e-007    -2.4639e-010   
  -1.45           -4.8192e-007    -2.5587e-010   
  -1.5            -5.0158e-007    -2.6578e-010   
  -1.55           -5.2167e-007    -2.7596e-010   
  -1.6            -5.4245e-007    -2.8647e-010   
  -1.65           -5.6376e-007    -2.9688e-010   
  -1.7            -5.8587e-007    -3.0689e-010   
  -1.75           -6.084e-007     -3.1607e-010   
  -1.8            -6.3079e-007    -3.248e-010    
END_DB

BEGIN_DB
 ICCAP_VAR VG         -0.72          
 ICCAP_VAR VS         0              
 ICCAP_VAR VB         0              

 #VD              ID              IG             
  0               -1.5526e-007    2.4928e-010    
  -0.05           -0.00017179     1.3203e-010    
  -0.1            -0.00024658     2.7689e-010    
  -0.15           -0.00028199     2.8786e-010    
  -0.2            -0.00030359     2.9871e-010    
  -0.25           -0.00032006     3.0807e-010    
  -0.3            -0.00033432     3.175e-010     
  -0.35           -0.00034747     3.253e-010     
  -0.4            -0.00035964     2.2606e-010    
  -0.45           -0.00037329     2.3425e-010    
  -0.5            -0.00038226     2.4136e-010    
  -0.55           -0.00039305     2.5099e-010    
  -0.6            -0.00040348     2.6011e-010    
  -0.65           -0.00041376     2.6941e-010    
  -0.7            -0.00042378     2.8057e-010    
  -0.75           -0.00043372     2.9078e-010    
  -0.8            -0.00044341     3.0013e-010    
  -0.85           -0.00045305     3.1029e-010    
  -0.9            -0.00046261     3.197e-010     
  -0.95           -0.00047225     3.2702e-010    
  -1              -0.00048157     3.3308e-010    
  -1.05           -0.00049221     2.3557e-010    
  -1.1            -0.00049997     2.4411e-010    
  -1.15           -0.00050918     2.5383e-010    
  -1.2            -0.00051858     2.6288e-010    
  -1.25           -0.00052889     2.7191e-010    
  -1.3            -0.00070315     2.8219e-010    
  -1.35           -0.00075248     2.9158e-010    
  -1.4            -0.00078572     3.025e-010     
  -1.45           -0.00081562     3.1324e-010    
  -1.5            -0.00084429     3.2313e-010    
  -1.55           -0.00087267     2.31e-010      
  -1.6            -0.00090055     2.5448e-010    
  -1.65           -0.00092895     3.0001e-010    
  -1.7            -0.00095633     3.9203e-010    
  -1.75           -0.0009846      3.7212e-010    
  -1.8            -0.00101251     2.8542e-010    
END_DB

BEGIN_DB
 ICCAP_VAR VG         -1.08          
 ICCAP_VAR VS         0              
 ICCAP_VAR VB         0              

 #VD              ID              IG             
  0               -3.1332e-006    3.1526e-010    
  -0.05           -0.00085969     -1.0721e-010   
  -0.1            -0.0016361      2.4099e-010    
  -0.15           -0.0023086      2.4976e-010    
  -0.2            -0.0028558      2.5893e-010    
  -0.25           -0.0032681      2.6805e-010    
  -0.3            -0.0035568      2.7904e-010    
  -0.35           -0.0037488      2.8898e-010    
  -0.4            -0.0038793      2.9956e-010    
  -0.45           -0.0039728      3.0972e-010    
  -0.5            -0.0040458      3.1843e-010    
  -0.55           -0.0041066      3.2676e-010    
  -0.6            -0.004159       2.2742e-010    
  -0.65           -0.0042055      2.3448e-010    
  -0.7            -0.0042359      2.4231e-010    
  -0.75           -0.0042565      2.5156e-010    
  -0.8            -0.0042755      2.6062e-010    
  -0.85           -0.0042938      2.7061e-010    
  -0.9            -0.0043111      2.8068e-010    
  -0.95           -0.0043279      2.9079e-010    
  -1              -0.0043441      3.0093e-010    
  -1.05           -0.0043601      3.1122e-010    
  -1.1            -0.0043759      3.2027e-010    
  -1.15           -0.0043921      3.2683e-010    
  -1.2            -0.0044081      2.2849e-010    
  -1.25           -0.0044229      2.362e-010     
  -1.3            -0.0044387      2.4511e-010    
  -1.35           -0.0044546      2.5297e-010    
  -1.4            -0.0044709      2.6319e-010    
  -1.45           -0.0044873      2.7342e-010    
  -1.5            -0.0045044      2.8502e-010    
  -1.55           -0.0045221      2.9823e-010    
  -1.6            -0.0045401      3.2572e-010    
  -1.65           -0.0045593      3.8966e-010    
  -1.7            -0.0045793      3.528e-010     
  -1.75           -0.0045992      2.84e-010      
  -1.8            -0.0047107      1.3404e-009    
END_DB

BEGIN_DB
 ICCAP_VAR VG         -1.44          
 ICCAP_VAR VS         0              
 ICCAP_VAR VB         0              

 #VD              ID              IG             
  0               -3.6229e-006    -3.0795e-010   
  -0.05           -0.0010123      2.475e-010     
  -0.1            -0.0020041      2.5562e-010    
  -0.15           -0.00297        2.6601e-010    
  -0.2            -0.0039058      2.757e-010     
  -0.25           -0.0048039      2.8554e-010    
  -0.3            -0.0056571      2.9607e-010    
  -0.35           -0.0064506      3.0573e-010    
  -0.4            -0.0071734      3.156e-010     
  -0.45           -0.0078134      3.2342e-010    
  -0.5            -0.0083552      2.2564e-010    
  -0.55           -0.0087941      2.3238e-010    
  -0.6            -0.0091329      2.4063e-010    
  -0.65           -0.0093866      2.494e-010     
  -0.7            -0.0095737      2.5847e-010    
  -0.75           -0.0097152      2.6902e-010    
  -0.8            -0.0098265      2.7919e-010    
  -0.85           -0.0099177      2.887e-010     
  -0.9            -0.0099953      2.9885e-010    
  -0.95           -0.010064       3.0872e-010    
  -1              -0.0101256      3.1793e-010    
  -1.05           -0.0101822      3.253e-010     
  -1.1            -0.0102256      2.2615e-010    
  -1.15           -0.0102468      2.344e-010     
  -1.2            -0.0102663      2.4343e-010    
  -1.25           -0.0102849      2.518e-010     
  -1.3            -0.0103023      2.6047e-010    
  -1.35           -0.0103189      2.6992e-010    
  -1.4            -0.0103346      2.8048e-010    
  -1.45           -0.0103495      2.9108e-010    
  -1.5            -0.010364       3.006e-010     
  -1.55           -0.0103781      3.103e-010     
  -1.6            -0.0103916      3.1859e-010    
  -1.65           -0.0104063      3.2629e-010    
  -1.7            -0.0104193      2.2839e-010    
  -1.75           -0.0104322      2.3576e-010    
  -1.8            -0.0104455      2.4486e-010    
END_DB

BEGIN_DB
 ICCAP_VAR VG         -1.8           
 ICCAP_VAR VS         0              
 ICCAP_VAR VB         0              

 #VD              ID              IG             
  0               -3.6736e-006    3.2751e-010    
  -0.05           -0.001058       -3.379e-010    
  -0.1            -0.0021064      -2.4429e-010   
  -0.15           -0.003144       -2.5351e-010   
  -0.2            -0.0041709      -2.6167e-010   
  -0.25           -0.0051846      -2.7238e-010   
  -0.3            -0.0061851      -2.8267e-010   
  -0.35           -0.0071658      -2.926e-010    
  -0.4            -0.0081253      -3.0364e-010   
  -0.45           -0.0090615      -3.1327e-010   
  -0.5            -0.0099665      -3.2154e-010   
  -0.55           -0.0108357      -3.2884e-010   
  -0.6            -0.011658       3.3271e-010    
  -0.65           -0.012437       2.3594e-010    
  -0.7            -0.013153       2.4451e-010    
  -0.75           -0.013803       2.5374e-010    
  -0.8            -0.014373       2.6287e-010    
  -0.85           -0.014859       2.7347e-010    
  -0.9            -0.015258       2.8256e-010    
  -0.95           -0.015575       2.9313e-010    
  -1              -0.015824       3.0387e-010    
  -1.05           -0.016013       3.1327e-010    
  -1.1            -0.016166       3.2183e-010    
  -1.15           -0.016288       3.2901e-010    
  -1.2            -0.01639        2.2969e-010    
  -1.25           -0.016482       2.3789e-010    
  -1.3            -0.01656        2.4654e-010    
  -1.35           -0.01663        2.5465e-010    
  -1.4            -0.016694       2.6452e-010    
  -1.45           -0.016756       2.7445e-010    
  -1.5            -0.0168         2.8483e-010    
  -1.55           -0.016819       2.9503e-010    
  -1.6            -0.016837       3.0546e-010    
  -1.65           -0.016855       3.1577e-010    
  -1.7            -0.016874       3.2373e-010    
  -1.75           -0.016891       3.3055e-010    
  -1.8            -0.016904       2.3125e-010    
END_DB

