! VERSION = 6.00
BEGIN_HEADER
 ICCAP_INPUTS
  VG         V  B GROUND SMU4 0.001 LIN        2    0          -1.8       6    -0.36     
  VS         V  E GROUND SMU2 0.1 CON        0
  VD         V  S GROUND SMU1 0.1 LIN        1    0          -1.8       37   -0.05     
  VB         V  C GROUND SMU3 0.1 LIN        3    0          0.9        2    0.9       
 ICCAP_OUTPUTS
  ID         I  S GROUND SMU1 B
  IB         I  C GROUND SMU3 B
  IG         I  B GROUND SMU4 B
END_HEADER

BEGIN_DB
 ICCAP_VAR VG         0              
 ICCAP_VAR VS         0              
 ICCAP_VAR VB         0              

 #VD              ID              IB              IG             
  0               -1.1835e-009    -3.417e-009     -1.273e-009    
  -0.05           -1.7297e-009    -8.882e-009     1.0871e-009    
  -0.1            9.25e-010       -8.174e-009     1.8101e-009    
  -0.15           9.149e-010      8.578e-009      -1.2598e-009   
  -0.2            -1.5279e-009    2.234e-009      -1.0277e-009   
  -0.25           -9.26e-011      -1.4364e-008    1.166e-009     
  -0.3            -1.982e-010     -1.6584e-008    1.6018e-009    
  -0.35           9.571e-010      -2.238e-009     1.9541e-009    
  -0.4            1.086e-009      9.982e-009      -1.2547e-009   
  -0.45           -1.3174e-009    4.784e-009      -1.2458e-009   
  -0.5            -1.8057e-009    -9.166e-009     2.281e-010     
  -0.55           -1.8814e-009    -9.492e-009     5.25e-011      
  -0.6            -7.7e-012       -1.3052e-008    1.1679e-009    
  -0.65           -1.463e-010     -1.5245e-008    1.7413e-009    
  -0.7            9.412e-010      -7.92e-010      1.9014e-009    
  -0.75           1.0158e-009     9.213e-009      -1.2573e-009   
  -0.8            -1.3976e-009    3.59e-009       -1.1643e-009   
  -0.85           -1.7645e-009    -8.928e-009     1.0942e-009    
  -0.9            9.298e-010      -8.893e-009     1.8456e-009    
  -0.95           9.557e-010      8.696e-009      -1.2589e-009   
  -1              -1.4775e-009    2.527e-009      -1.0804e-009   
  -1.05           -1.267e-010     -1.4583e-008    1.1684e-009    
  -1.1            -2.293e-010     -1.7315e-008    1.5456e-009    
  -1.15           9.642e-010      -2.766e-009     1.9804e-009    
  -1.2            1.1223e-009     9.345e-009      -1.2531e-009   
  -1.25           -1.2673e-009    5.417e-009      -1.2795e-009   
  -1.3            -1.8346e-009    -9.291e-009     1.744e-010     
  -1.35           9.973e-010      -1.207e-008     2.0976e-009    
  -1.4            1.2423e-009     1.1593e-008     -1.2482e-009   
  -1.45           -1.1572e-009    8.784e-009      -1.4013e-009   
  -1.5            -1.9012e-009    -9.519e-009     -3.2e-012      
  -1.55           -5.4e-011       -1.3899e-008    1.1664e-009    
  -1.6            -1.804e-010     -1.5929e-008    1.6546e-009    
  -1.65           9.495e-010      -1.511e-009     1.9357e-009    
  -1.7            1.0576e-009     9.704e-009      -1.2553e-009   
  -1.75           -1.3448e-009    4.092e-009      -1.2089e-009   
  -1.8            -1.7966e-009    -9.041e-009     2.749e-010     
END_DB

BEGIN_DB
 ICCAP_VAR VG         -0.36          
 ICCAP_VAR VS         0              
 ICCAP_VAR VB         0              

 #VD              ID              IB              IG             
  0               -1.0394e-009    -1.4043e-008    -1.1904e-009   
  -0.05           -1.2525e-009    -9.943e-009     1.1566e-009    
  -0.1            5.68e-011       -1.2518e-008    1.1653e-009    
  -0.15           -1.089e-010     -1.4444e-008    1.1604e-009    
  -0.2            -2.115e-010     -1.6916e-008    1.5861e-009    
  -0.25           9.54e-010       -2.411e-009     1.961e-009     
  -0.3            1.0932e-009     9.91e-009       -1.2546e-009   
  -0.35           -1.3019e-009    4.993e-009      -1.2461e-009   
  -0.4            -1.8219e-009    -9.158e-009     2.198e-010     
  -0.45           -1.8941e-009    -9.453e-009     4.01e-011      
  -0.5            -1.24e-011      -1.3331e-008    1.1673e-009    
  -0.55           -1.56e-010      -1.5376e-008    1.7112e-009    
  -0.6            9.393e-010      -6.39e-010      1.903e-009     
  -0.65           1.0189e-009     9.276e-009      -1.2577e-009   
  -0.7            -1.3927e-009    3.642e-009      -1.1665e-009   
  -0.75           -1.773e-009     -8.982e-009     1.0939e-009    
  -0.8            9.282e-010      -9.077e-009     1.8527e-009    
  -0.85           9.503e-010      8.63e-009       -1.2589e-009   
  -0.9            -1.4698e-009    2.508e-009      -1.0827e-009   
  -0.95           -1.349e-010     -1.4846e-008    1.166e-009     
  -1              -2.263e-010     -1.7635e-008    1.5281e-009    
  -1.05           9.576e-010      -2.89e-009      2e-009         
  -1.1            1.1174e-009     1.0385e-008     -1.2522e-009   
  -1.15           -1.2753e-009    5.478e-009      -1.2794e-009   
  -1.2            -1.8358e-009    -9.294e-009     1.79e-010      
  -1.25           1.008e-010      -1.1907e-008    1.1662e-009    
  -1.3            -6.03e-011      -1.3884e-008    1.168e-009     
  -1.35           -1.737e-010     -1.6196e-008    1.6607e-009    
  -1.4            9.423e-010      -1.58e-009      1.9296e-009    
  -1.45           1.0491e-009     8.935e-009      -1.2544e-009   
  -1.5            -1.3505e-009    4.088e-009      -1.1973e-009   
  -1.55           -2.045e-010     -1.659e-008     1.5926e-009    
  -1.6            9.502e-010      -2.228e-009     1.9553e-009    
  -1.65           1.0868e-009     9.09e-009       -1.256e-009    
  -1.7            -1.3154e-009    4.801e-009      -1.2425e-009   
  -1.75           -1.8211e-009    -9.171e-009     2.282e-010     
  -1.8            -1.8978e-009    -9.6e-009       5.28e-011      
END_DB

BEGIN_DB
 ICCAP_VAR VG         -0.72          
 ICCAP_VAR VS         0              
 ICCAP_VAR VB         0              

 #VD              ID              IB              IG             
  0               7.083e-010      2.02e-009       1.0782e-009    
  -0.05           -2.3884e-008    -1.4655e-008    -2.3542e-009   
  -0.1            -3.0733e-008    3.046e-009      -1.2312e-009   
  -0.15           -3.1106e-008    1.0641e-008     1.0493e-009    
  -0.2            -3.4524e-008    -5.413e-009     1.1206e-009    
  -0.25           -3.7284e-008    -1.4491e-008    1.5348e-009    
  -0.3            -4.0146e-008    -8.597e-009     1.0852e-009    
  -0.35           -4.0117e-008    -1.2245e-008    1.1516e-009    
  -0.4            -4.3013e-008    -1.0373e-008    1.1606e-009    
  -0.45           -4.441e-008     -1.1974e-008    1.1623e-009    
  -0.5            -4.5674e-008    -1.3791e-008    1.1584e-009    
  -0.55           -4.589e-008     -1.7561e-008    1.2513e-009    
  -0.6            -4.7045e-008    -1.6084e-008    1.3634e-009    
  -0.65           -4.8154e-008    -1.4924e-008    1.5005e-009    
  -0.7            -4.9118e-008    -1.3562e-008    1.6434e-009    
  -0.75           -5.0139e-008    -1.2217e-008    1.1711e-009    
  -0.8            -5.0977e-008    -1.0662e-008    1.1786e-009    
  -0.85           -5.3634e-008    -9.297e-009     -3.73e-011     
  -0.9            -5.3398e-008    5.409e-009      -1.9053e-009   
  -0.95           -5.2472e-008    1.0831e-008     9.368e-010     
  -1              -5.4754e-008    -4.6e-009       1.1179e-009    
  -1.05           -5.67e-008      -1.3447e-008    1.6472e-009    
  -1.1            -5.7608e-008    -1.2347e-008    1.7915e-009    
  -1.15           -5.8272e-008    -1.1466e-008    1.1713e-009    
  -1.2            -6.0624e-008    -9.597e-009     -1.816e-010    
  -1.25           -6.0274e-008    8.151e-009      -1.7488e-009   
  -1.3            -5.9492e-008    1.1735e-008     1.0915e-009    
  -1.35           -6.204e-008     -5.845e-009     1.139e-009     
  -1.4            -6.3933e-008    -1.4892e-008    1.4921e-009    
  -1.45           -6.485e-008     -1.3577e-008    1.6325e-009    
  -1.5            -6.5833e-008    -1.2499e-008    1.7816e-009    
  -1.55           -6.6542e-008    -1.1025e-008    1.173e-009     
  -1.6            -6.9212e-008    -1.1201e-008    1.1744e-009    
  -1.65           -6.9684e-008    -9.309e-009     -6.99e-011     
  -1.7            -6.9186e-008    6.475e-009      -1.8631e-009   
  -1.75           -6.865e-008     1.0897e-008     9.958e-010     
  -1.8            -7.1066e-008    -4.945e-009     1.1216e-009    
END_DB

BEGIN_DB
 ICCAP_VAR VG         -1.08          
 ICCAP_VAR VS         0              
 ICCAP_VAR VB         0              

 #VD              ID              IB              IG             
  0               -2.2155e-009    -4.099e-009     3.768e-010     
  -0.05           -1.1343e-006    -9.952e-009     -1.262e-009    
  -0.1            -1.9846e-006    8.806e-009      8.14e-010      
  -0.15           -2.5819e-006    -5.483e-009     1.1346e-009    
  -0.2            -2.9925e-006    -1.5558e-008    1.1547e-009    
  -0.25           -3.2785e-006    -1.2541e-008    1.1698e-009    
  -0.3            -3.485e-006     -1.0453e-008    1.1677e-009    
  -0.35           -3.6109e-006    -9.834e-009     -3.531e-010    
  -0.4            -3.7287e-006    1.348e-009      -1.2697e-009   
  -0.45           -3.861e-006     9.05e-009       5.122e-010     
  -0.5            -3.9571e-006    -3.092e-009     1.0717e-009    
  -0.55           -4.0447e-006    -1.3191e-008    1.7053e-009    
  -0.6            -4.1257e-006    -1.4738e-008    1.5052e-009    
  -0.65           -4.2042e-006    -1.6476e-008    1.3254e-009    
  -0.7            -4.2766e-006    -6.589e-009     1.1465e-009    
  -0.75           -4.3427e-006    -1.3843e-008    1.1639e-009    
  -0.8            -4.4126e-006    -1.1232e-008    1.1683e-009    
  -0.85           -4.4783e-006    -9.734e-009     1.1637e-009    
  -0.9            -4.4991e-006    -9.653e-009     -4.098e-010    
  -0.95           -4.5508e-006    2.079e-009      -1.2647e-009   
  -1              -4.6442e-006    8.949e-009      5.647e-010     
  -1.05           -4.7009e-006    -3.306e-009     1.0802e-009    
  -1.1            -4.7594e-006    -1.3985e-008    1.5919e-009    
  -1.15           -4.8184e-006    -1.5904e-008    1.412e-009     
  -1.2            -4.8696e-006    -1.6041e-008    1.151e-009     
  -1.25           -4.9266e-006    -1.2707e-008    1.1669e-009    
  -1.3            -4.9829e-006    -1.0605e-008    1.1691e-009    
  -1.35           -4.9961e-006    -9.932e-009     -3.416e-010    
  -1.4            -5.0368e-006    1.182e-009      -1.2696e-009   
  -1.45           -5.1177e-006    9.098e-009      4.929e-010     
  -1.5            -5.1721e-006    -3.203e-009     1.0704e-009    
  -1.55           -5.2219e-006    -1.2833e-008    1.726e-009     
  -1.6            -5.2733e-006    -1.4606e-008    1.5247e-009    
  -1.65           -5.3163e-006    -1.8025e-008    1.1388e-009    
  -1.7            -5.369e-006     -1.4768e-008    1.1592e-009    
  -1.75           -5.4195e-006    -1.1889e-008    1.1708e-009    
  -1.8            -5.4702e-006    -1.0035e-008    1.1652e-009    
END_DB

BEGIN_DB
 ICCAP_VAR VG         -1.44          
 ICCAP_VAR VS         0              
 ICCAP_VAR VB         0              

 #VD              ID              IB              IG             
  0               -8.492e-009     3.038e-009      -1.2562e-009   
  -0.05           -3.1111e-006    -1.1065e-008    -1.8287e-009   
  -0.1            -5.9188e-006    1.3097e-008     1.2833e-009    
  -0.15           -8.4077e-006    -1.1618e-008    1.169e-009     
  -0.2            -1.05832e-005   -1.1554e-008    1.1705e-009    
  -0.25           -1.2419e-005    -1.1162e-008    -3.35e-011     
  -0.3            -1.4033e-005    -1.6454e-008    1.3275e-009    
  -0.35           -1.5349e-005    -1.1552e-008    1.1701e-009    
  -0.4            -1.6425e-005    -1.5301e-008    1.4287e-009    
  -0.45           -1.7316e-005    -1.0963e-008    1.1706e-009    
  -0.5            -1.8035e-005    -1.4352e-008    1.5342e-009    
  -0.55           -1.8653e-005    -1.0039e-008    1.1681e-009    
  -0.6            -1.9154e-005    -1.3392e-008    1.6558e-009    
  -0.65           -1.9563e-005    -9.665e-009     -2.562e-010    
  -0.7            -1.9923e-005    2.588e-009      -1.2567e-009   
  -0.75           -2.0361e-005    1.144e-008      1.0503e-009    
  -0.8            -2.0668e-005    -1.121e-008     1.1686e-009    
  -0.85           -2.0943e-005    -1.4516e-008    1.5372e-009    
  -0.9            -2.1225e-005    -1.0857e-008    1.1673e-009    
  -0.95           -2.1463e-005    -1.478e-008     1.4796e-009    
  -1              -2.1708e-005    -1.039e-008     1.1667e-009    
  -1.05           -2.1846e-005    -9.19e-009      -5.901e-010    
  -1.1            -2.206e-005     2.327e-009      -1.2564e-009   
  -1.15           -2.2342e-005    1.44e-008       1.4742e-009    
  -1.2            -2.2569e-005    -1.7571e-008    1.2464e-009    
  -1.25           -2.2751e-005    -1.1964e-008    1.1579e-009    
  -1.3            -2.2945e-005    -1.6243e-008    1.3318e-009    
  -1.35           -2.3047e-005    -9.508e-009     -4.527e-010    
  -1.4            -2.3213e-005    3.051e-009      -1.257e-009    
  -1.45           -2.3485e-005    1.3364e-008     1.3258e-009    
  -1.5            -2.3653e-005    -1.5558e-008    1.3981e-009    
  -1.55           -2.3748e-005    -9.659e-009     -3.983e-010    
  -1.6            -2.3894e-005    3.016e-009      -1.2566e-009   
  -1.65           -2.4157e-005    1.2562e-008     1.2513e-009    
  -1.7            -2.4306e-005    -1.496e-008     1.4792e-009    
  -1.75           -2.4471e-005    -1.0429e-008    1.167e-009     
  -1.8            -2.4608e-005    -1.3931e-008    1.5999e-009    
END_DB

BEGIN_DB
 ICCAP_VAR VG         -1.8           
 ICCAP_VAR VS         0              
 ICCAP_VAR VB         0              

 #VD              ID              IB              IG             
  0               -1.4157e-008    -1.6334e-008    -1.1859e-009   
  -0.05           -4.6729e-006    -5.434e-009     -1.3982e-009   
  -0.1            -9.097e-006     6.463e-009      -1.8503e-009   
  -0.15           -1.3272e-005    1.1848e-008     -1.7519e-009   
  -0.2            -1.7183e-005    8.545e-009      2.686e-010     
  -0.25           -2.0841e-005    -3.234e-009     1.0713e-009    
  -0.3            -2.4212e-005    -1.5535e-008    1.1532e-009    
  -0.35           -2.7284e-005    -1.2109e-008    1.1599e-009    
  -0.4            -3.0035e-005    -8.659e-009     -8.458e-010    
  -0.45           -3.2542e-005    3.17e-009       -1.2424e-009   
  -0.5            -3.4836e-005    8.837e-009      5.973e-010     
  -0.55           -3.6825e-005    -7.665e-009     1.151e-009     
  -0.6            -3.8506e-005    -9.735e-009     -4.125e-010    
  -0.65           -4.0006e-005    2.947e-009      -1.2559e-009   
  -0.7            -4.1414e-005    1.2832e-008     1.2638e-009    
  -0.75           -4.2551e-005    -1.4891e-008    1.4627e-009    
  -0.8            -4.3561e-005    -1.0465e-008    1.1692e-009    
  -0.85           -4.4428e-005    -1.3918e-008    1.578e-009     
  -0.9            -4.5229e-005    -1.1369e-008    1.1714e-009    
  -0.95           -4.5913e-005    -1.4693e-008    1.5149e-009    
  -1              -4.6563e-005    -1.0734e-008    1.172e-009     
  -1.05           -4.7119e-005    -1.5075e-008    1.4528e-009    
  -1.1            -4.7662e-005    -1.074e-008     1.1695e-009    
  -1.15           -4.8132e-005    -1.4071e-008    1.5728e-009    
  -1.2            -4.8605e-005    -9.808e-009     1.1687e-009    
  -1.25           -4.9014e-005    -1.2985e-008    1.6829e-009    
  -1.3            -4.9369e-005    -9.671e-009     -2.419e-010    
  -1.35           -4.9712e-005    2.409e-009      -1.2569e-009   
  -1.4            -5.0217e-005    1.1488e-008     1.0297e-009    
  -1.45           -5.0551e-005    -1.1608e-008    1.1685e-009    
  -1.5            -5.0879e-005    -1.4142e-008    1.5556e-009    
  -1.55           -5.1228e-005    -1.1115e-008    1.1718e-009    
  -1.6            -5.1529e-005    -1.4678e-008    1.4944e-009    
  -1.65           -5.186e-005     -1.0413e-008    1.1708e-009    
  -1.7            -5.2032e-005    -9.061e-009     -5.759e-010    
  -1.75           -5.2324e-005    2.319e-009      -1.2559e-009   
  -1.8            -5.2718e-005    1.4167e-008     1.4531e-009    
END_DB

BEGIN_DB
 ICCAP_VAR VG         0              
 ICCAP_VAR VS         0              
 ICCAP_VAR VB         0.9            

 #VD              ID              IB              IG             
  0               -1.0316e-009    -1.4546e-008    -1.1756e-009   
  -0.05           -1.9475e-009    -9.606e-009     -2.275e-010    
  -0.1            -1.1263e-009    -1.3633e-008    1.1242e-009    
  -0.15           9.588e-010      -1.1101e-008    1.9673e-009    
  -0.2            1.1026e-009     9.299e-009      -1.2546e-009   
  -0.25           -1.2821e-009    5.569e-009      -1.2767e-009   
  -0.3            9.177e-010      -6.198e-009     1.7282e-009    
  -0.35           8.214e-010      8.659e-009      -1.2575e-009   
  -0.4            -1.6216e-009    2.126e-009      -9.156e-010    
  -0.45           -1.04e-011      -1.3374e-008    1.1708e-009    
  -0.5            -1.509e-010     -1.5515e-008    1.7192e-009    
  -0.55           1.2645e-009     1.3685e-008     1.1106e-009    
  -0.6            1.1044e-009     1.4531e-008     1.2879e-009    
  -0.65           1.7367e-009     8.449e-009      4.52e-011      
  -0.7            1.8138e-009     8.887e-009      2.029e-010     
  -0.75           7.214e-010      8.684e-009      -1.2617e-009   
  -0.8            -1.726e-009     2.808e-009      -7.875e-010    
  -0.85           9.978e-010      -1.2094e-008    2.098e-009     
  -0.9            1.2423e-009     1.0503e-008     -1.2522e-009   
  -0.95           -1.1559e-009    9.407e-009      -1.4081e-009   
  -1              -1.1899e-009    -1.13e-008      1.1458e-009    
  -1.05           9.889e-010      -1.1779e-008    2.0592e-009    
  -1.1            1.2093e-009     1.1309e-008     -1.2532e-009   
  -1.15           -1.1862e-009    8.048e-009      -1.375e-009    
  -1.2            -1.8878e-009    -9.631e-009     2.69e-011      
  -1.25           -3.51e-011      -1.3689e-008    1.1694e-009    
  -1.3            -1.646e-010     -1.5684e-008    1.7022e-009    
  -1.35           1.2487e-009     1.4233e-008     1.1429e-009    
  -1.4            1.0874e-009     1.5142e-008     1.325e-009     
  -1.45           1.7526e-009     8.557e-009      8.06e-011      
  -1.5            1.8229e-009     8.905e-009      2.261e-010     
  -1.55           7.437e-010      8.696e-009      -1.2575e-009   
  -1.6            -1.7117e-009    2.655e-009      -8.13e-010     
  -1.65           7.83e-011       -1.242e-008     1.1708e-009    
  -1.7            -9.1e-011       -1.4571e-008    1.1705e-009    
  -1.75           -1.997e-010     -1.6588e-008    1.6233e-009    
  -1.8            1.1903e-009     1.4129e-008     1.2006e-009    
END_DB

BEGIN_DB
 ICCAP_VAR VG         -0.36          
 ICCAP_VAR VS         0              
 ICCAP_VAR VB         0.9            

 #VD              ID              IB              IG             
  0               -1.0177e-009    1.4546e-008     -1.1947e-009   
  -0.05           -1.9419e-009    -9.504e-009     -2.462e-010    
  -0.1            -1.1326e-009    -1.3354e-008    1.1263e-009    
  -0.15           9.606e-010      -1.1226e-008    1.9752e-009    
  -0.2            1.1216e-009     9.42e-009       -1.2562e-009   
  -0.25           -1.2704e-009    5.859e-009      -1.2902e-009   
  -0.3            -1.8371e-009    -9.43e-009      1.536e-010     
  -0.35           8e-011          -1.2553e-008    1.1715e-009    
  -0.4            -9.16e-011      -1.4533e-008    1.1673e-009    
  -0.45           -2.003e-010     -1.6462e-008    1.6228e-009    
  -0.5            9.529e-010      -2.088e-009     1.9475e-009    
  -0.55           1.0933e-009     9.883e-009      -1.2536e-009   
