! VERSION = 6.00
BEGIN_HEADER
 ICCAP_INPUTS
  VG         V  B GROUND SMU4 0.001 LIN        1    0          -1.8       37   -0.05     
  VS         V  E GROUND SMU3 0.1 CON        0
  VB         V  C GROUND SMU1 0.1 LIN        3    0          1.8        3    0.9       
  VD         V  S GROUND SMU2 0.1 LIN        2    -0.1       -1.8       2    -1.7      
 ICCAP_OUTPUTS
  IG         I  B GROUND SMU4 B
  ID         I  S GROUND SMU2 B
  IB         I  C GROUND SMU1 B
END_HEADER

BEGIN_DB
 ICCAP_VAR VS         0              
 ICCAP_VAR VB         0              
 ICCAP_VAR VD         -0.1           

 #VG              IG              ID              IB             
  0               -9.404e-010     -6.207e-010     4.904e-009     
  -0.05           2.154e-009      -1.2918e-009    -1.6799e-008   
  -0.1            -2.0587e-009    1.0901e-009     1.476e-008     
  -0.15           2.3331e-009     -1.1469e-009    -1.6849e-008   
  -0.2            -2.2041e-009    9.416e-010      1.3307e-008    
  -0.25           2.4739e-009     -9.667e-010     -1.6829e-008   
  -0.3            -8.09e-011      3.6738e-009     8.327e-009     
  -0.35           -2.5696e-009    9.57e-011       8.427e-009     
  -0.4            1.7295e-009     -3.0638e-009    -1.2951e-008   
  -0.45           -1.898e-009     2.3509e-009     1.7594e-008    
  -0.5            2.1733e-009     -2.7311e-009    -1.6775e-008   
  -0.55           -2.0654e-009    -4.4041e-009    1.4782e-008    
  -0.6            1.6423e-009     -1.4432e-008    4.821e-009     
  -0.65           -1.8849e-009    -6.8901e-008    1.3203e-008    
  -0.7            8.502e-010      -2.2467e-007    -1.6301e-008   
  -0.75           -2.5946e-009    -6.6372e-007    6.827e-009     
  -0.8            2.5098e-009     -1.7624e-006    1.5341e-008    
  -0.85           7.435e-010      -4.0498e-006    9.259e-009     
  -0.9            -2.611e-009     -8.1235e-006    6.67e-009      
  -0.95           3.52e-011       -1.4634e-005    -9.875e-009    
  -1              -2.1051e-009    -2.363e-005     1.1096e-008    
  -1.05           1.7205e-009     -3.5246e-005    -1.9492e-008   
  -1.1            8.154e-010      -4.8392e-005    9.36e-009      
  -1.15           -2.6028e-009    -6.2456e-005    6.791e-009     
  -1.2            2.6541e-009     -7.7873e-005    -1.1577e-008   
  -1.25           -1.9607e-009    -9.2473e-005    1.2304e-008    
  -1.3            1.5497e-009     -0.000107578    -1.6743e-008   
  -1.35           6.712e-010      -0.00012156     1.6537e-008    
  -1.4            -2.6147e-009    -0.00013491     6.088e-009     
  -1.45           2.7085e-009     -0.00014787     -1.4858e-008   
  -1.5            1.32e-011       -0.0001596      7.631e-009     
  -1.55           -2.1248e-009    -0.0001709      1.0885e-008    
  -1.6            1.7486e-009     -0.00018155     -1.997e-008    
  -1.65           7.98e-010       -0.00019129     9.311e-009     
  -1.7            -2.6037e-009    -0.00020032     6.68e-009      
  -1.75           2.6603e-009     -0.00020919     -1.1286e-008   
  -1.8            -1.9866e-009    -0.000217       1.2033e-008    
END_DB

BEGIN_DB
 ICCAP_VAR VS         0              
 ICCAP_VAR VB         0              
 ICCAP_VAR VD         -1.8           

 #VG              IG              ID              IB             
  0               1.2127e-009     2.899e-010      8.336e-009     
  -0.05           -2.5625e-009    1.688e-010      8.488e-009     
  -0.1            1.6773e-009     -2.9881e-009    -1.2302e-008   
  -0.15           -1.85e-009      2.7943e-009     1.6733e-008    
  -0.2            2.1171e-009     -1.3207e-009    -1.6706e-008   
  -0.25           -2.0247e-009    1.1012e-009     1.531e-008     
  -0.3            2.2939e-009     -1.2463e-009    -1.7098e-008   
  -0.35           -2.1761e-009    7.126e-010      1.3751e-008    
  -0.4            2.4405e-009     -1.8947e-009    -1.6887e-008   
  -0.45           -1.9648e-009    -4.5582e-009    1.5328e-008    
  -0.5            -2.3668e-009    -1.3767e-008    -1.4641e-008   
  -0.55           2.3562e-009     -4.1211e-008    -1.6043e-008   
  -0.6            8.61e-011       -1.3309e-007    -7.481e-009    
  -0.65           -2.0338e-009    -4.1737e-007    1.1826e-008    
  -0.7            2.7277e-009     -1.2093e-006    9.4e-009       
  -0.75           -1.3243e-009    -3.0178e-006    1.2123e-008    
  -0.8            2.2437e-009     -7.0561e-006    -1.6524e-008   
  -0.85           8.966e-010      -1.4409e-005    -1.6798e-008   
  -0.9            -2.5902e-009    -2.6648e-005    7.069e-009     
  -0.95           2.5946e-009     -4.6128e-005    -1.3164e-008   
  -1              -1.8357e-009    -7.1698e-005    1.3289e-008    
  -1.05           2.7075e-009     -0.00010675     -1.42e-008     
  -1.1            2.0034e-009     -0.0001486      1.1107e-008    
  -1.15           -1.4167e-009    -0.00019729     1.5202e-008    
  -1.2            2.401e-009      -0.00025576     -1.5503e-008   
  -1.25           -1.551e-009     -0.00031733     1.618e-008     
  -1.3            2.5173e-009     -0.0003889      -1.4553e-008   
  -1.35           -1.7112e-009    -0.00046127     1.4805e-008    
  -1.4            2.6105e-009     -0.00054327     -1.2579e-008   
  -1.45           -1.8876e-009    -0.0006245      1.3216e-008    
  -1.5            2.7147e-009     -0.00071389     -1.5289e-008   
  -1.55           1.4732e-009     -0.00080646     7.569e-009     
  -1.6            -1.4429e-009    -0.00089597     1.5351e-008    
  -1.65           2.4162e-009     -0.00099535     -1.5856e-008   
  -1.7            -1.5822e-009    -0.00109076     1.5725e-008    
  -1.75           -1.4205e-009    -0.0011911      -1.6975e-008   
  -1.8            2.3863e-009     -0.0012964      -1.5759e-008   
END_DB

BEGIN_DB
 ICCAP_VAR VS         0              
 ICCAP_VAR VB         0.9            
 ICCAP_VAR VD         -0.1           

 #VG              IG              ID              IB             
  0               -1.0962e-009    -1.8276e-009    -1.4012e-008   
  -0.05           2.7235e-009     -2.077e-010     -1.2106e-008   
  -0.1            -2.5697e-009    1.1e-010        8.462e-009     
  -0.15           1.7607e-009     -2.9512e-009    -1.3241e-008   
  -0.2            -1.9223e-009    2.7368e-009     1.8023e-008    
  -0.25           2.192e-009      -1.262e-009     -1.6811e-008   
  -0.3            -2.0881e-009    1.0604e-009     1.4653e-008    
  -0.35           2.3603e-009     -1.1027e-009    -1.7008e-008   
  -0.4            -2.2317e-009    8.967e-010      1.3039e-008    
  -0.45           2.5015e-009     -9.136e-010     -1.683e-008    
  -0.5            -1.108e-010     3.6318e-009     8.194e-009     
  -0.55           -2.5792e-009    4.27e-011       8.312e-009     
  -0.6            1.8175e-009     -3.0391e-009    -1.3894e-008   
  -0.65           -1.9652e-009    2.1872e-009     1.8902e-008    
  -0.7            2.2372e-009     -3.4937e-009    -1.6974e-008   
  -0.75           -1.932e-009     -1.2098e-008    1.3094e-008    
  -0.8            1.5595e-009     -4.4818e-008    -1.6772e-008   
  -0.85           -2.1815e-009    -1.6255e-007    1.4523e-008    
  -0.9            2.5822e-009     -5.4723e-007    -1.3669e-008   
  -0.95           -2.1112e-009    -1.5431e-006    -1.5956e-008   
  -1              2.631e-009      -3.8313e-006    -1.2128e-008   
  -1.05           -1.9396e-009    -7.88e-006      1.2747e-008    
  -1.1            8.403e-010      -1.4684e-005    -1.6835e-008   
  -1.15           -2.6081e-009    -2.395e-005     7.035e-009     
  -1.2            2.6272e-009     -3.6219e-005    -1.2195e-008   
  -1.25           -1.9315e-009    -4.9477e-005    1.276e-008     
  -1.3            1.5279e-009     -6.4532e-005    -1.6284e-008   
  -1.35           9.069e-010      -7.9565e-005    8.712e-009     
  -1.4            -2.5877e-009    -9.4062e-005    7.142e-009     
  -1.45           2.5707e-009     -0.00010885     -1.3885e-008   
  -1.5            2.666e-009      -0.0001222      9.137e-009     
  -1.55           9.938e-010      -0.00013501     7.912e-009     
  -1.6            -2.5542e-009    -0.00014669     7.72e-009      
  -1.65           2.4735e-009     -0.00015826     -1.5497e-008   
  -1.7            -1.6509e-009    -0.00016837     1.512e-008     
  -1.75           2.5814e-009     -0.00017842     -1.3579e-008   
  -1.8            -1.8203e-009    -0.00018724     1.3713e-008    
END_DB

BEGIN_DB
 ICCAP_VAR VS         0              
 ICCAP_VAR VB         0.9            
 ICCAP_VAR VD         -1.8           

 #VG              IG              ID              IB             
  0               -4.27e-010      7.138e-010      9.375e-009     
  -0.05           2.184e-009      -1.2652e-009    -1.6837e-008   
  -0.1            -2.0856e-009    1.0503e-009     1.4524e-008    
  -0.15           2.3664e-009     -1.0924e-009    -1.6983e-008   
  -0.2            -2.2402e-009    8.865e-010      1.2869e-008    
  -0.25           2.5089e-009     -8.928e-010     -1.6687e-008   
  -0.3            -1.258e-010     3.6185e-009     8.167e-009     
  -0.35           -2.5838e-009    3.89e-011       8.458e-009     
  -0.4            1.8486e-009     -2.921e-009     -1.4427e-008   
  -0.45           -1.9897e-009    2.6493e-009     1.9619e-008    
  -0.5            2.2681e-009     -1.2614e-009    -1.6962e-008   
  -0.55           -2.1578e-009    6.877e-010      1.3702e-008    
  -0.6            2.4292e-009     -2.2979e-009    -1.7031e-008   
  -0.65           -2.2943e-009    -4.9754e-009    1.202e-008     
  -0.7            -2.2446e-009    -2.6463e-008    -1.2519e-008   
  -0.75           2.5218e-009     -1.00437e-007   -1.5016e-008   
  -0.8            -9.26e-010      -3.6122e-007    1.3095e-008    
  -0.85           -2.0482e-009    -1.1591e-006    -1.5639e-008   
  -0.9            2.6708e-009     -3.2737e-006    -1.935e-008    
  -0.95           1.152e-010      -7.7126e-006    8.294e-009     
  -1              4.185e-010      -1.6371e-005    -1.5803e-008   
  -1.05           -1.529e-009     -3.0767e-005    1.6389e-008    
  -1.1            2.4956e-009     -5.3258e-005    -1.5097e-008   
  -1.15           -1.6916e-009    -8.2287e-005    1.4877e-008    
  -1.2            -4.434e-010     -0.00012114     -1.6882e-008   
  -1.25           1.64e-009       -0.00016799     -1.6485e-008   
  -1.3            8.459e-010      -0.00022136     9.279e-009     
  -1.35           -2.5979e-009    -0.00028108     7.378e-009     
  -1.4            2.6189e-009     -0.00035031     -1.2077e-008   
  -1.45           -1.917e-009     -0.00042066     1.3032e-008    
  -1.5            1.5311e-009     -0.00049981     -1.5966e-008   
  -1.55           8.975e-010      -0.00058125     9.205e-009     
  -1.6            -2.5869e-009    -0.00066492     7.303e-009     
  -1.65           2.572e-009      -0.00075664     -1.3403e-008   
  -1.7            -1.8188e-009    -0.00084579     1.3722e-008    
  -1.75           2.7001e-009     -0.00094249     -1.4353e-008   
  -1.8            3.09e-011       -0.00103696     7.87e-009      
END_DB

BEGIN_DB
 ICCAP_VAR VS         0              
 ICCAP_VAR VB         1.8            
 ICCAP_VAR VD         -0.1           

 #VG              IG              ID              IB             
  0               -1.0297e-009    -1.8072e-009    -1.5481e-008   
  -0.05           2.6736e-009     -5.474e-010     -1.5839e-008   
  -0.1            -1.3405e-009    3.3476e-009     7.775e-009     
  -0.15           2.7097e-009     -3.327e-010     -1.3977e-008   
  -0.2            -2.5508e-009    2.258e-010      8.548e-009     
  -0.25           2.7221e-009     -1.357e-010     -1.1269e-008   
  -0.3            -1.6183e-009    3.0053e-009     1.2276e-008    
  -0.35           2.0803e-009     -2.7891e-009    -1.7761e-008   
  -0.4            -2.0075e-009    1.1365e-009     1.4937e-008    
  -0.45           2.2888e-009     -1.1878e-009    -1.664e-008    
  -0.5            -2.1773e-009    9.758e-010      1.3624e-008    
  -0.55           2.4515e-009     -1.0058e-009    -1.6721e-008   
  -0.6            -2.3191e-009    8.002e-010      1.2232e-008    
  -0.65           2.5741e-009     -8.38e-010      -1.6732e-008   
  -0.7            -2.425e-009     3.4422e-009     7.787e-009     
  -0.75           2.6596e-009     -1.1715e-009    -1.6054e-008   
  -0.8            -2.2924e-009    -4.0521e-009    1.2215e-008    
  -0.85           -2.5486e-009    -1.4522e-008    -1.7088e-008   
  -0.9            1.9649e-009     -5.3665e-008    -1.6847e-008   
  -0.95           -1.1419e-009    -1.9956e-007    1.4262e-008    
  -1              2.7058e-009     -6.5292e-007    -9.402e-009    
  -1.05           -2.1167e-009    -1.7605e-006    -1.2525e-008   
  -1.1            1.7615e-009     -4.2243e-006    -2.0064e-008   
  -1.15           7.892e-010      -8.6062e-006    9.462e-009     
  -1.2            1.9473e-009     -1.5696e-005    -1.4111e-008   
  -1.25           -1.4194e-009    -2.5213e-005    1.6753e-008    
  -1.3            2.4203e-009     -3.7673e-005    -1.6246e-008   
  -1.35           -1.5621e-009    -5.0986e-005    1.5354e-008    
  -1.4            2.5502e-009     -6.6041e-005    -1.4717e-008   
  -1.45           -1.7422e-009    -8.04e-005      1.4127e-008    
  -1.5            2.6379e-009     -9.5285e-005    -1.2219e-008   
  -1.55           -1.9371e-009    -0.000108719    1.2529e-008    
  -1.6            -5.51e-010      -0.00012181     -1.6732e-008   
  -1.65           1.4777e-009     -0.00013422     -1.6532e-008   
  -1.7            9.221e-010      -0.00014551     8.534e-009     
  -1.75           -2.5735e-009    -0.00015598     7.143e-009     
  -1.8            2.568e-009      -0.00016628     -1.4247e-008   
END_DB

BEGIN_DB
 ICCAP_VAR VS         0              
 ICCAP_VAR VB         1.8            
 ICCAP_VAR VD         -1.8           

 #VG              IG              ID              IB             
  0               -1.064e-009     -1.8017e-009    -1.5719e-008   
  -0.05           2.7045e-009     -3.477e-010     -1.4101e-008   
  -0.1            -1.4543e-009    3.1856e-009     9.381e-009     
  -0.15           1.8486e-009     -2.8964e-009    -1.3947e-008   
  -0.2            -2.0025e-009    2.6444e-009     1.9621e-008    
  -0.25           2.2912e-009     -1.1905e-009    -1.6668e-008   
  -0.3            -2.1801e-009    9.724e-010      1.3441e-008    
  -0.35           2.4579e-009     -9.922e-010     -1.6911e-008   
  -0.4            -2.3276e-009    7.975e-010      1.203e-008     
  -0.45           2.5813e-009     -7.984e-010     -1.6631e-008   
  -0.5            -2.4307e-009    3.5382e-009     7.706e-009     
  -0.55           2.664e-009      -6.141e-010     -1.5955e-008   
  -0.6            -1.3224e-009    3.3019e-009     7.589e-009     
  -0.65           2.7077e-009     -7.881e-010     -1.4311e-008   
  -0.7            -1.7839e-009    9.019e-010      1.4982e-008    
  -0.75           2.6972e-009     -9.3884e-009    6.758e-009     
  -0.8            2.6713e-009     -4.0706e-008    -1.1573e-008   
  -0.85           -1.18e-009      -1.693e-007     1.4998e-008    
  -0.9            2.7004e-009     -6.1111e-007    -1.009e-008    
  -0.95           -2.5536e-009    -1.8293e-006    -1.6335e-008   
  -1              1.9461e-009     -4.8965e-006    -1.6644e-008   
  -1.05           7.087e-010      -1.10147e-005   9.558e-009     
  -1.1            7.484e-010      -2.2188e-005    -1.6652e-008   
  -1.15           -2.6011e-009    -3.968e-005     6.635e-009     
  -1.2            2.6945e-009     -6.6051e-005    -1.2625e-008   
  -1.25           7.93e-011       -9.9338e-005    8.222e-009     
  -1.3            4.782e-010      -0.00014172     1.4389e-008    
  -1.35           -1.4527e-009    -0.00019131     1.6702e-008    
  -1.4            2.4639e-009     -0.00025042     -1.5657e-008   
  -1.45           -1.6136e-009    -0.00031248     1.5041e-008    
  -1.5            2.5871e-009     -0.00038427     -1.3858e-008   
  -1.55           -1.8109e-009    -0.00045689     1.3592e-008    
  -1.6            2.6703e-009     -0.0005385      -1.1284e-008   
  -1.65           -2.0097e-009    -0.0006192      1.1984e-008    
  -1.7            1.614e-009      -0.00070802     -1.7554e-008   
  -1.75           8.518e-010      -0.00079713     9e-009         
  -1.8            -2.5889e-009    -0.00088824     6.767e-009     
END_DB

