! VERSION = 6.00
BEGIN_HEADER
 ICCAP_INPUTS
  VG         V  B GROUND SMU4 0.001 LIN        2    0          -1.8       6    -0.36     
  VS         V  E GROUND SMU3 0.1 CON        0
  VD         V  S GROUND SMU2 0.1 LIN        1    0          -1.8       37   -0.05     
  VB         V  C GROUND SMU1 0.1 LIN        3    0          0.9        2    0.9       
 ICCAP_OUTPUTS
  ID         I  S GROUND SMU2 B
  IB         I  C GROUND SMU1 B
  IG         I  B GROUND SMU4 B
END_HEADER

BEGIN_DB
 ICCAP_VAR VG         0              
 ICCAP_VAR VS         0              
 ICCAP_VAR VB         0              

 #VD              ID              IB              IG             
  0               -9.348e-010     -1.6365e-008    3.762e-010     
  -0.05           1.1947e-009     1.5837e-008     -1.9078e-009   
  -0.1            -1.2367e-009    -1.7295e-008    2.2005e-009    
  -0.15           9.999e-010      1.4234e-008     -2.1056e-009   
  -0.2            -1.0314e-009    -1.7263e-008    2.4059e-009    
  -0.25           3.6993e-009     8.447e-009      -6.51e-011     
  -0.3            1.334e-010      8.459e-009      -2.5628e-009   
  -0.35           -2.9512e-009    -1.2705e-008    1.7266e-009    
  -0.4            2.7212e-009     1.7684e-008     -1.9066e-009   
  -0.45           -1.2431e-009    -1.7228e-008    2.2001e-009    
  -0.5            1.0069e-009     1.4203e-008     -2.1087e-009   
  -0.55           -1.0381e-009    -1.7055e-008    2.4061e-009    
  -0.6            8.098e-010      1.2088e-008     -2.2896e-009   
  -0.65           -8.076e-010     -1.6819e-008    2.5571e-009    
  -0.7            3.5264e-009     7.688e-009      -2.4136e-009   
  -0.75           -5.721e-010     -1.5723e-008    2.653e-009     
  -0.8            3.3498e-009     7.712e-009      -1.3371e-009   
  -0.85           -3.352e-010     -1.3518e-008    2.7079e-009    
  -0.9            3.168e-009      9.727e-009      -1.4649e-009   
  -0.95           -2.8732e-009    -1.4597e-008    1.8862e-009    
  -1              2.3865e-009     1.0253e-008     1.6955e-009    
  -1.05           2.447e-010      8.608e-009      -2.5468e-009   
  -1.1            -3.0064e-009    -1.0984e-008    1.5956e-009    
  -1.15           4.1123e-009     9.618e-009      4.005e-010     
  -1.2            -2.8867e-009    -1.4331e-008    1.8486e-009    
  -1.25           2.6247e-009     2.0092e-008     -2.0226e-009   
  -1.3            -1.1444e-009    -1.6976e-008    2.3142e-009    
  -1.35           9.098e-010      1.3147e-008     -2.2065e-009   
  -1.4            -9.231e-010     -1.6741e-008    2.4938e-009    
  -1.45           3.6212e-009     8.118e-009      -1.251e-010    
  -1.5            4.01e-011       8.469e-009      -2.5841e-009   
  -1.55           -2.8901e-009    -1.411e-008     1.8554e-009    
  -1.6            2.337e-009      1.0233e-008     1.7184e-009    
  -1.65           2.73e-010       8.57e-009       -2.5448e-009   
  -1.7            -1.837e-010     -1.1669e-008    2.7243e-009    
  -1.75           3.0368e-009     1.1823e-008     -1.5873e-009   
  -1.8            -2.7887e-009    -1.7369e-008    2.0548e-009    
END_DB

BEGIN_DB
 ICCAP_VAR VG         -0.36          
 ICCAP_VAR VS         0              
 ICCAP_VAR VB         0              

 #VD              ID              IB              IG             
  0               1.7683e-009     7.595e-009      1.1309e-009    
  -0.05           4.1857e-009     9.023e-009      6.174e-010     
  -0.1            -3.537e-010     -1.3226e-008    2.7124e-009    
  -0.15           3.1123e-009     1.0042e-008     -1.4836e-009   
  -0.2            -2.9177e-009    -1.5033e-008    1.9068e-009    
  -0.25           2.3513e-009     1.0351e-008     1.6974e-009    
  -0.3            1.937e-010      8.429e-009      -2.5481e-009   
  -0.35           -2.196e-010     -1.1303e-008    2.721e-009     
  -0.4            2.9597e-009     1.2178e-008     -1.6052e-009   
  -0.45           -2.8499e-009    -1.7484e-008    2.0756e-009    
  -0.5            1.0701e-009     1.5039e-008     -1.9967e-009   
  -0.55           -1.2493e-009    -1.6934e-008    2.2917e-009    
  -0.6            8.775e-010      1.3366e-008     -2.1815e-009   
  -0.65           -1.0372e-009    -1.6847e-008    2.4722e-009    
  -0.7            3.5747e-009     8.235e-009      -1.009e-010    
  -0.75           -3e-013         8.477e-009      -2.576e-009    
  -0.8            -3.0009e-009    -1.3623e-008    1.8012e-009    
  -0.85           2.5872e-009     1.9059e-008     -1.9673e-009   
  -0.9            -1.3038e-009    -1.6964e-008    2.2639e-009    
  -0.95           8.783e-010      1.3834e-008     -2.1579e-009   
  -1              -1.1111e-009    -1.6917e-008    2.45e-009      
  -1.05           6.913e-010      1.1869e-008     -2.3156e-009   
  -1.1            -8.998e-010     -1.6659e-008    2.5802e-009    
  -1.15           3.403e-009      7.714e-009      -2.4317e-009   
  -1.2            -6.883e-010     -1.5578e-008    2.6653e-009    
  -1.25           3.2193e-009     7.816e-009      -1.3414e-009   
  -1.3            -4.648e-010     -1.3586e-008    2.7093e-009    
  -1.35           3.0301e-009     9.855e-009      -1.4791e-009   
  -1.4            -3.0197e-009    -1.4835e-008    1.8846e-009    
  -1.45           2.2318e-009     1.036e-008      1.7052e-009    
  -1.5            9.73e-011       8.582e-009      -2.5453e-009   
  -1.55           -3.333e-010     -1.1748e-008    2.7217e-009    
  -1.6            2.8634e-009     1.1953e-008     -1.5912e-009   
  -1.65           -2.9733e-009    -1.7284e-008    2.0595e-009    
  -1.7            9.61e-010       1.5068e-008     -1.9915e-009   
  -1.75           -1.3706e-009    -1.7056e-008    2.2935e-009    
  -1.8            7.707e-010      1.36e-008       -2.1804e-009   
END_DB

BEGIN_DB
 ICCAP_VAR VG         -0.72          
 ICCAP_VAR VS         0              
 ICCAP_VAR VB         0              

 #VD              ID              IB              IG             
  0               7.0792e-009     8.332e-009      1.2002e-009    
  -0.05           -1.5502e-007    -1.3927e-008    2.63e-009      
  -0.1            -2.2215e-007    -1.6746e-008    1.6232e-009    
  -0.15           -2.5205e-007    -1.7096e-008    1.8058e-009    
  -0.2            -2.7101e-007    -1.6915e-008    1.9961e-009    
  -0.25           -2.8625e-007    -1.6757e-008    2.1717e-009    
  -0.3            -3.0198e-007    -1.4777e-008    2.7136e-009    
  -0.35           -3.1235e-007    -8.36e-009      2.7305e-009    
  -0.4            -3.2475e-007    -7.431e-009     2.7335e-009    
  -0.45           -3.3625e-007    -7.407e-009     2.7262e-009    
  -0.5            -3.4767e-007    -7.768e-009     2.7108e-009    
  -0.55           -3.5908e-007    -8.242e-009     2.6782e-009    
  -0.6            -3.7384e-007    -1.7329e-008    1.4337e-009    
  -0.65           -3.844e-007     -1.6781e-008    1.5873e-009    
  -0.7            -3.9595e-007    -1.6846e-008    1.7634e-009    
  -0.75           -4.0714e-007    -1.7104e-008    1.9602e-009    
  -0.8            -4.1852e-007    -1.6663e-008    2.14e-009      
  -0.85           -4.3215e-007    -1.4281e-008    2.7089e-009    
  -0.9            -4.4175e-007    -8.405e-009     2.7257e-009    
  -0.95           -4.5344e-007    -7.856e-009     2.7295e-009    
  -1              -4.6476e-007    -7.298e-009     2.7236e-009    
  -1.05           -4.7641e-007    -7.643e-009     2.7098e-009    
  -1.1            -4.878e-007     -8.211e-009     2.6826e-009    
  -1.15           -5.0974e-007    -1.737e-008     1.414e-009     
  -1.2            -5.1544e-007    -1.6771e-008    1.5683e-009    
  -1.25           -5.2681e-007    -1.6974e-008    1.748e-009     
  -1.3            -5.4304e-007    -1.6942e-008    1.9412e-009    
  -1.35           -5.5148e-007    -1.6802e-008    2.1197e-009    
  -1.4            -5.6608e-007    -1.4039e-008    2.7037e-009    
  -1.45           -5.7758e-007    -8.717e-009     2.7193e-009    
  -1.5            -5.9046e-007    -7.829e-009     2.7304e-009    
  -1.55           -6.0421e-007    -7.2e-009       2.7286e-009    
  -1.6            -6.1599e-007    -7.696e-009     2.7144e-009    
  -1.65           -6.2899e-007    -8.08e-009      2.6914e-009    
  -1.7            -6.4503e-007    -1.7496e-008    2.7201e-009    
  -1.75           -6.5837e-007    -7.65e-009      2.728e-009     
  -1.8            -6.7163e-007    -7.333e-009     2.7278e-009    
END_DB

BEGIN_DB
 ICCAP_VAR VG         -1.08          
 ICCAP_VAR VS         0              
 ICCAP_VAR VB         0              

 #VD              ID              IB              IG             
  0               1.0041e-008     -1.6429e-008    2.7141e-009    
  -0.05           -4.5854e-006    6.63e-009       1.4649e-009    
  -0.1            -8.0651e-006    -7.088e-009     2.5907e-009    
  -0.15           -1.06588e-005   -1.6934e-008    1.9851e-009    
  -0.2            -1.2528e-005    9.81e-009       -4.657e-010    
  -0.25           -1.3925e-005    -1.6587e-008    1.6642e-009    
  -0.3            -1.494e-005     -1.6929e-008    1.4259e-009    
  -0.35           -1.5724e-005    -1.8231e-008    2.699e-009     
  -0.4            -1.6368e-005    -1.2351e-008    2.6378e-009    
  -0.45           -1.6854e-005    -1.905e-008     1.7187e-009    
  -0.5            -1.7342e-005    -1.6734e-008    1.4648e-009    
  -0.55           -1.7767e-005    -1.8091e-008    2.7034e-009    
  -0.6            -1.8165e-005    -1.1544e-008    2.6497e-009    
  -0.65           -1.8475e-005    -1.9854e-008    1.7794e-009    
  -0.7            -1.8844e-005    -1.6763e-008    1.515e-009     
  -0.75           -1.9174e-005    -1.7846e-008    2.717e-009     
  -0.8            -1.9498e-005    -1.1001e-008    2.6637e-009    
  -0.85           -1.9747e-005    -2.0774e-008    1.8389e-009    
  -0.9            -2.0069e-005    -1.6719e-008    1.5713e-009    
  -0.95           -2.0363e-005    -1.7433e-008    2.7214e-009    
  -1              -2.0662e-005    -1.0591e-008    2.6802e-009    
  -1.05           -2.0933e-005    -1.3406e-008    2.5949e-009    
  -1.1            -2.1164e-005    -1.7343e-008    1.615e-009     
  -1.15           -2.1452e-005    -1.7262e-008    2.7222e-009    
  -1.2            -2.1739e-005    -1.0043e-008    2.6873e-009    
  -1.25           -2.1995e-005    -1.2725e-008    2.6171e-009    
  -1.3            -2.2202e-005    -1.8151e-008    1.6718e-009    
  -1.35           -2.2486e-005    -1.7041e-008    1.4323e-009    
  -1.4            -2.2744e-005    -1.8336e-008    2.6985e-009    
  -1.45           -2.3014e-005    -1.2203e-008    2.6323e-009    
  -1.5            -2.3201e-005    -1.8935e-008    1.7247e-009    
  -1.55           -2.3487e-005    -1.699e-008     1.4742e-009    
  -1.6            -2.3736e-005    -1.8076e-008    2.7055e-009    
  -1.65           -2.3998e-005    -1.1688e-008    2.65e-009      
  -1.7            -2.4184e-005    -1.9805e-008    1.7751e-009    
  -1.75           -2.4455e-005    -1.6663e-008    1.5089e-009    
  -1.8            -2.4701e-005    -1.7682e-008    2.7145e-009    
END_DB

BEGIN_DB
 ICCAP_VAR VG         -1.44          
 ICCAP_VAR VS         0              
 ICCAP_VAR VB         0              

 #VD              ID              IB              IG             
  0               1.1774e-008     8.573e-009      1.1015e-009    
  -0.05           -1.1358e-005    9.197e-009      -2.5915e-009   
  -0.1            -2.1766e-005    7.071e-009      -2.5656e-009   
  -0.15           -3.1122e-005    8.17e-009       -2.5325e-009   
  -0.2            -3.9449e-005    8.584e-009      -2.4683e-009   
  -0.25           -4.671e-005     8.78e-009       -2.3511e-009   
  -0.3            -5.2939e-005    1.536e-008      -1.4404e-009   
  -0.35           -5.8443e-005    1.8193e-008     -1.3133e-009   
  -0.4            -6.2988e-005    8.341e-009      -2.484e-009    
  -0.45           -6.6806e-005    8.897e-009      -2.3755e-009   
  -0.5            -7.0003e-005    1.6336e-008     -1.4848e-009   
  -0.55           -7.2701e-005    1.7727e-008     -1.3341e-009   
  -0.6            -7.498e-005     1.9863e-008     -1.256e-009    
  -0.65           -7.6901e-005    8.582e-009      -2.4051e-009   
  -0.7            -7.8638e-005    1.7248e-008     -1.5278e-009   
  -0.75           -8.0185e-005    1.7288e-008     -1.36e-009     
  -0.8            -8.1526e-005    1.9464e-008     -1.2677e-009   
  -0.85           -8.2742e-005    8.47e-009       -2.431e-009    
  -0.9            -8.3851e-005    1.8266e-008     -1.5634e-009   
  -0.95           -8.4916e-005    1.6961e-008     -1.3914e-009   
  -1              -8.5904e-005    1.9104e-008     -1.2839e-009   
  -1.05           -8.6836e-005    8.498e-009      -2.4469e-009   
  -1.1            -8.7733e-005    8.941e-009      -2.3197e-009   
  -1.15           -8.8583e-005    1.4649e-008     -1.4218e-009   
  -1.2            -8.9402e-005    1.8485e-008     -1.2983e-009   
  -1.25           -9.019e-005     8.526e-009      -2.4626e-009   
  -1.3            -9.0968e-005    8.746e-009      -2.3465e-009   
  -1.35           -9.1744e-005    1.5488e-008     -1.4455e-009   
  -1.4            -9.2475e-005    1.7983e-008     -1.3183e-009   
  -1.45           -9.3166e-005    8.29e-009       -2.4781e-009   
  -1.5            -9.3877e-005    8.748e-009      -2.3679e-009   
  -1.55           -9.457e-005     1.6333e-008     -1.4876e-009   
  -1.6            -9.5249e-005    1.7816e-008     -1.3361e-009   
  -1.65           -9.589e-005     8.354e-009      -2.4951e-009   
  -1.7            -9.6555e-005    8.441e-009      -2.4038e-009   
  -1.75           -9.7205e-005    1.7207e-008     -1.5251e-009   
  -1.8            -9.7854e-005    1.7521e-008     -1.3581e-009   
END_DB

BEGIN_DB
 ICCAP_VAR VG         -1.8           
 ICCAP_VAR VS         0              
 ICCAP_VAR VB         0              

 #VD              ID              IB              IG             
  0               1.4319e-008     -1.2643e-008    -1.165e-009    
  -0.05           -1.6312e-005    6.677e-009      2.6962e-009    
  -0.1            -3.1945e-005    -1.2294e-008    2.6336e-009    
  -0.15           -4.6804e-005    -1.485e-008     2.5094e-009    
  -0.2            -6.0836e-005    -1.4843e-008    2.7129e-009    
  -0.25           -7.3971e-005    -1.099e-008     2.659e-009     
  -0.3            -8.6421e-005    -1.4188e-008    2.5556e-009    
  -0.35           -9.782e-005     -1.6093e-008    1.5479e-009    
  -0.4            -0.000108451    -1.7447e-008    2.7178e-009    
  -0.45           -0.00011808     -1.5913e-008    -1.763e-010    
  -0.5            -0.00012684     -1.5198e-008    2.4806e-009    
  -0.55           -0.00013478     -1.3826e-008    2.5727e-009    
  -0.6            -0.00014185     -1.1552e-008    2.6436e-009    
  -0.65           -0.00014811     -9.994e-009     2.6861e-009    
  -0.7            -0.00015378     -9.036e-009     2.7175e-009    
  -0.75           -0.00015869     -8.243e-009     2.7299e-009    
  -0.8            -0.00016299     -7.354e-009     2.7316e-009    
  -0.85           -0.00016689     -7.532e-009     2.728e-009     
  -0.9            -0.00017033     -7.904e-009     2.7065e-009    
  -0.95           -0.00017337     -8.218e-009     2.6728e-009    
  -1              -0.00017615     -1.7084e-008    1.47e-009      
  -1.05           -0.00017861     -1.6723e-008    1.6271e-009    
  -1.1            -0.00018086     -1.7133e-008    1.8106e-009    
  -1.15           -0.00018294     -1.6872e-008    1.9953e-009    
  -1.2            -0.00018482     -1.6787e-008    2.1697e-009    
  -1.25           -0.00018655     -1.4736e-008    2.7109e-009    
  -1.3            -0.00018827     -8.267e-009     2.7277e-009    
  -1.35           -0.00018983     -7.682e-009     2.7301e-009    
  -1.4            -0.0001913      -7.344e-009     2.7285e-009    
  -1.45           -0.00019273     -7.867e-009     2.7101e-009    
  -1.5            -0.00019407     -8.105e-009     2.6831e-009    
  -1.55           -0.00019542     -1.7043e-008    1.4257e-009    
  -1.6            -0.00019669     -1.6638e-008    1.5743e-009    
  -1.65           -0.00019792     -1.7082e-008    1.763e-009     
  -1.7            -0.00019914     -1.6985e-008    1.9351e-009    
  -1.75           -0.00020029     -1.6685e-008    2.1281e-009    
  -1.8            -0.00020142     -1.399e-008     2.7084e-009    
END_DB

BEGIN_DB
 ICCAP_VAR VG         0              
 ICCAP_VAR VS         0              
 ICCAP_VAR VB         0.9            

 #VD              ID              IB              IG             
  0               4.457e-010      -7.927e-009     -7.633e-010    
  -0.05           -4.902e-010     -1.4937e-008    2.679e-009     
  -0.1            3.2933e-009     8.523e-009      -1.3849e-009   
  -0.15           -2.788e-010     -1.2854e-008    2.7189e-009    
  -0.2            3.1335e-009     1.0727e-008     -1.5099e-009   
  -0.25           -2.8767e-009    -1.5315e-008    1.9307e-009    
  -0.3            2.4424e-009     1.0577e-008     1.6911e-009    
  -0.35           2.505e-010      8.387e-009      -2.5481e-009   
  -0.4            -1.66e-010      -1.1506e-008    2.7307e-009    
  -0.45           3.047e-009      1.2182e-008     -1.5914e-009   
  -0.5            -2.8169e-009    -1.7011e-008    2.037e-009     
  -0.55           1.1624e-009     1.5666e-008     -1.9642e-009   
  -0.6            -1.2282e-009    -1.7e-008       2.2438e-009    
  -0.65           1.003e-009      1.4116e-008     -2.1288e-009   
  -0.7            -1.0438e-009    -1.6971e-008    2.3994e-009    
  -0.75           8.402e-010      1.232e-008      -2.2667e-009   
  -0.8            -8.566e-010     -1.6388e-008    2.534e-009     
  -0.85           3.5725e-009     8.028e-009      -1.444e-010    
  -0.9            7.8e-012        8.416e-009      -2.5913e-009   
  -0.95           -2.8865e-009    -1.4888e-008    1.8956e-009    
  -1              2.3905e-009     1.0443e-008     1.7091e-009    
  -1.05           2.797e-010      8.241e-009      -2.5391e-009   
  -1.1            -2.019e-010     -1.1887e-008    2.7256e-009    
  -1.15           3.0672e-009     1.167e-008      -1.5642e-009   
  -1.2            -2.8315e-009    -1.6505e-008    2.0088e-009    
  -1.25           1.1895e-009     1.5637e-008     -1.9261e-009   
  -1.3            -1.2492e-009    -1.6996e-008    2.2077e-009    
  -1.35           1.0316e-009     1.4456e-008     -2.0989e-009   
  -1.4            -1.0791e-009    -1.701e-008     2.3777e-009    
  -1.45           8.722e-010      1.2701e-008     -2.2437e-009   
  -1.5            -8.963e-010     -1.6557e-008    2.5077e-009    
  -1.55           3.6033e-009     8.133e-009      -1.25e-010     
  -1.6            4.74e-011       8.311e-009      -2.5856e-009   
  -1.65           -2.9015e-009    -1.4233e-008    1.8495e-009    
  -1.7            1.2974e-009     1.6698e-008     -1.7973e-009   
  -1.75           -1.3607e-009    -1.6681e-008    2.0559e-009    
  -1.8            1.1493e-009     1.5323e-008     -1.9728e-009   
END_DB

BEGIN_DB
 ICCAP_VAR VG         -0.36          
 ICCAP_VAR VS         0              
 ICCAP_VAR VB         0.9            

 #VD              ID              IB              IG             
  0               1.753e-010      8.15e-009       1.2855e-009    
  -0.05           5.7e-011        8.283e-009      -2.5788e-009   
  -0.1            -2.9264e-009    -1.3995e-008    1.8141e-009    
  -0.15           2.6867e-009     1.8818e-008     -1.9521e-009   
  -0.2            -1.2395e-009    -1.6982e-008    2.2213e-009    
  -0.25           1.0243e-009     1.4308e-008     -2.1094e-009   
  -0.3            -1.0768e-009    -1.6907e-008    2.3799e-009    
  -0.35           8.768e-010      1.2753e-008     -2.243e-009    
  -0.4            -8.963e-010     -1.6404e-008    2.502e-009     
  -0.45           3.6107e-009     8.196e-009      -1.234e-010    
  -0.5            5.63e-011       8.342e-009      -2.5796e-009   
  -0.55           -2.9202e-009    -1.3928e-008    1.8257e-009    
