! VERSION = 6.00
BEGIN_HEADER
 ICCAP_INPUTS
  VG         V  B GROUND SMU4 0.001 LIN        1    0          -1.8       37   -0.05     
  VS         V  E GROUND SMU2 0.1 CON        0
  VD         V  S GROUND SMU1 0.1 LIN        2    -0.1       -1.8       2    -1.7      
  VB         V  C GROUND SMU3 0.1 CON        0
 ICCAP_OUTPUTS
  IG         I  B GROUND SMU4 B
  ID         I  S GROUND SMU1 B
END_HEADER

BEGIN_DB
 ICCAP_VAR VS         0              
 ICCAP_VAR VD         -0.1           
 ICCAP_VAR VB         0              

 #VG              IG              ID             
  0               2.0368e-010     -1.0502e-010   
  -0.05           -1.659e-011     -2.2225e-010   
  -0.1            -3.0663e-010    1.513e-011     
  -0.15           2.3209e-010     -3.8845e-010   
  -0.2            -1.4851e-010    -1.05057e-009  
  -0.25           7.046e-011      -3.7352e-009   
  -0.3            1.4187e-010     -1.3658e-008   
  -0.35           -2.8487e-010    -4.9901e-008   
  -0.4            3.0475e-010     -1.813e-007    
  -0.45           -3.3472e-010    -6.5346e-007   
  -0.5            2.52e-011       -2.2994e-006   
  -0.55           -9.071e-011     -7.6799e-006   
  -0.6            -3.3454e-010    -2.3563e-005   
  -0.65           2.7591e-010     -6.3955e-005   
  -0.7            -2.5096e-010    -0.00014904    
  -0.75           2.147e-010      -0.00029506    
  -0.8            -2.9995e-010    -0.00049961    
  -0.85           2.5293e-010     -0.00074081    
  -0.9            -2.176e-010     -0.00098643    
  -0.95           -2.4918e-010    -0.0012093     
  -1              2.1367e-010     -0.0013977     
  -1.05           -2.9886e-010    -0.00155       
  -1.1            2.5207e-010     -0.0016706     
  -1.15           -2.1551e-010    -0.0017657     
  -1.2            1.7814e-010     -0.0018416     
  -1.25           -2.5679e-010    -0.0019025     
  -1.3            2.1945e-010     -0.0019521     
  -1.35           -1.8171e-010    -0.0019927     
  -1.4            2.6145e-010     -0.0020265     
  -1.45           -2.223e-010     -0.002055      
  -1.5            1.8652e-010     -0.002079      
  -1.55           -2.6568e-010    -0.0020998     
  -1.6            2.2627e-010     -0.0021177     
  -1.65           -1.9132e-010    -0.0021336     
  -1.7            2.717e-010      -0.0021473     
  -1.75           -2.3042e-010    -0.0021597     
  -1.8            1.9632e-010     -0.0021706     
END_DB

BEGIN_DB
 ICCAP_VAR VS         0              
 ICCAP_VAR VD         -1.8           
 ICCAP_VAR VB         0              

 #VG              IG              ID             
  0               3.1359e-010     -2.4553e-010   
  -0.05           -7.829e-011     -2.5549e-010   
  -0.1            1.2136e-010     -3.4407e-010   
  -0.15           2.0161e-010     -1.3601e-009   
  -0.2            -3.2221e-010    -4.717e-009    
  -0.25           -3.3529e-010    -1.6644e-008   
  -0.3            2.7404e-010     -5.9551e-008   
  -0.35           -3.3739e-010    -2.1227e-007   
  -0.4            2.3051e-010     -7.5138e-007   
  -0.45           -9.385e-011     -2.5937e-006   
  -0.5            1.7937e-010     -8.5343e-006   
  -0.55           3.2729e-010     -2.602e-005    
  -0.6            -2.912e-010     -7.1614e-005   
  -0.65           3.2755e-010     -0.0001726     
  -0.7            -2.8699e-010    -0.00035975    
  -0.75           6.2261e-010     -0.00100513    
  -0.8            1.3611e-009     -0.0013074     
  -0.85           2.0861e-009     -0.0016546     
  -0.9            2.9732e-009     -0.0020935     
  -0.95           3.4985e-009     -0.0026129     
  -1              3.4235e-009     -0.003204      
  -1.05           2.7962e-009     -0.0038592     
  -1.1            1.9089e-009     -0.0045689     
  -1.15           1.0813e-009     -0.0053245     
  -1.2            6.669e-010      -0.0061187     
  -1.25           8.79e-011       -0.00707       
  -1.3            3.9114e-010     -0.0079287     
  -1.35           -2.0368e-010    -0.0088088     
  -1.4            2.1459e-010     -0.0097082     
  -1.45           -2.8856e-010    -0.0106231     
  -1.5            3.1122e-010     -0.011497      
  -1.55           -1.8924e-010    -0.012435      
  -1.6            2.7014e-010     -0.013386      
  -1.65           -2.2861e-010    -0.014338      
  -1.7            1.962e-010      -0.015297      
  -1.75           -2.7715e-010    -0.016259      
  -1.8            2.3565e-010     -0.017223      
END_DB

