! VERSION = 6.00
BEGIN_HEADER
 ICCAP_INPUTS
  VG         V  B GROUND SMU4 0.001 LIN        2    0          -1.8       6    -0.36     
  VS         V  E GROUND SMU3 0.1 CON        0
  VD         V  S GROUND SMU2 0.1 LIN        1    0          -1.8       37   -0.05     
  VB         V  C GROUND SMU1 0.1 LIN        3    0          0.9        2    0.9       
 ICCAP_OUTPUTS
  ID         I  S GROUND SMU2 B
  IB         I  C GROUND SMU1 B
  IG         I  B GROUND SMU4 B
END_HEADER

BEGIN_DB
 ICCAP_VAR VG         0              
 ICCAP_VAR VS         0              
 ICCAP_VAR VB         0              

 #VD              ID              IB              IG             
  0               -9.53e-010      -1.6278e-008    3.439e-010     
  -0.05           1.2264e-009     1.6307e-008     -1.9078e-009   
  -0.1            -1.2696e-009    -1.7269e-008    2.1955e-009    
  -0.15           1.046e-009      1.466e-008      -2.1058e-009   
  -0.2            -1.0619e-009    -1.7304e-008    2.3838e-009    
  -0.25           8.581e-010      1.2757e-008     -2.2713e-009   
  -0.3            -8.456e-010     -1.662e-008     2.5331e-009    
  -0.35           3.59e-009       8.025e-009      -1.563e-010    
  -0.4            -2.35e-011      8.237e-009      -2.6082e-009   
  -0.45           -2.8765e-009    -1.5715e-008    1.9498e-009    
  -0.5            1.234e-009      1.6236e-008     -1.9005e-009   
  -0.55           -1.2713e-009    -1.7152e-008    2.1843e-009    
  -0.6            1.0554e-009     1.4785e-008     -2.0951e-009   
  -0.65           -1.0741e-009    -1.7336e-008    2.3805e-009    
  -0.7            8.633e-010      1.3037e-008     -2.2605e-009   
  -0.75           -8.613e-010     -1.6525e-008    2.5281e-009    
  -0.8            3.598e-009      8.006e-009      -1.488e-010    
  -0.85           -4.4e-012       8.333e-009      -2.6109e-009   
  -0.9            -2.8813e-009    -1.5384e-008    1.9375e-009    
  -0.95           2.4583e-009     1.0657e-008     1.6996e-009    
  -1              2.278e-010      8.452e-009      -2.5579e-009   
  -1.05           -3.0197e-009    -1.1772e-008    1.6434e-009    
  -1.1            4.1489e-009     9.51e-009       3.927e-010     
  -1.15           -1.9314e-009    1.678e-009      -1.9423e-009   
  -1.2            -8.409e-010     -1.6558e-008    2.5434e-009    
  -1.25           3.5861e-009     7.88e-009       -1.588e-010    
  -1.3            -2.54e-011      8.365e-009      -2.6122e-009   
  -1.35           -2.8702e-009    -1.5843e-008    1.9569e-009    
  -1.4            2.491e-009      1.065e-008      1.6882e-009    
  -1.45           2.008e-010      8.304e-009      -2.5678e-009   
  -1.5            -3.0102e-009    -1.1956e-008    1.6552e-009    
  -1.55           4.1376e-009     9.482e-009      3.76e-010      
  -1.6            -1.9375e-009    1.598e-009      -1.9385e-009   
  -1.65           -8.12e-010      -1.648e-008     2.5554e-009    
  -1.7            3.5616e-009     7.854e-009      -2.4142e-009   
  -1.75           -5.877e-010     -1.5642e-008    2.6512e-009    
  -1.8            3.3881e-009     8.05e-009       -1.3441e-009   
END_DB

BEGIN_DB
 ICCAP_VAR VG         -0.36          
 ICCAP_VAR VS         0              
 ICCAP_VAR VB         0              

 #VD              ID              IB              IG             
  0               -5.609e-010     5.495e-009      7.472e-010     
  -0.05           4.2352e-009     9.226e-009      5.635e-010     
  -0.1            -2.198e-010     -1.2044e-008    2.7289e-009    
  -0.15           3.0978e-009     1.1534e-008     -1.5603e-009   
  -0.2            -2.8414e-009    -1.6471e-008    2.0093e-009    
  -0.25           1.1828e-009     1.5936e-008     -1.9416e-009   
  -0.3            -1.2318e-009    -1.7283e-008    2.2162e-009    
  -0.35           1.0194e-009     1.4393e-008     -2.1221e-009   
  -0.4            -1.0438e-009    -1.7285e-008    2.4051e-009    
  -0.45           8.393e-010      1.2586e-008     -2.2784e-009   
  -0.5            -8.249e-010     -1.6625e-008    2.5424e-009    
  -0.55           3.5895e-009     7.988e-009      -1.586e-010    
  -0.6            -2.43e-011      8.415e-009      -2.6111e-009   
  -0.65           -2.8775e-009    -1.5358e-008    1.9305e-009    
  -0.7            2.4467e-009     1.0647e-008     1.6967e-009    
  -0.75           2.315e-010      8.521e-009      -2.5573e-009   
  -0.8            -3.0285e-009    -1.1467e-008    1.6085e-009    
  -0.85           2.8503e-009     1.5685e-008     -1.8003e-009   
  -0.9            -2.6619e-009    -2.1039e-008    2.2734e-009    
  -0.95           9.782e-010      1.3989e-008     -2.1747e-009   
  -1              -9.913e-010     -1.7206e-008    2.4457e-009    
  -1.05           8.074e-010      1.2032e-008     -2.3192e-009   
  -1.1            -7.909e-010     -1.6728e-008    2.5736e-009    
  -1.15           3.5515e-009     7.69e-009       -1.268e-009    
  -1.2            -5.762e-010     -1.581e-008     2.6638e-009    
  -1.25           3.3803e-009     7.791e-009      -1.3387e-009   
  -1.3            -3.653e-010     -1.4118e-008    2.71e-009      
  -1.35           3.2082e-009     9.751e-009      -1.458e-009    
  -1.4            -2.913e-009     -1.434e-008     1.8515e-009    
  -1.45           1.2925e-009     1.6706e-008     -1.8138e-009   
  -1.5            -1.3357e-009    -1.6735e-008    2.0887e-009    
  -1.55           1.1335e-009     1.5316e-008     -2.0178e-009   
  -1.6            -1.1773e-009    -1.7342e-008    2.2931e-009    
  -1.65           9.637e-010      1.3823e-008     -2.189e-009    
  -1.7            -9.786e-010     -1.7174e-008    2.4636e-009    
  -1.75           7.783e-010      1.2149e-008     -2.3321e-009   
  -1.8            -7.775e-010     -1.6519e-008    2.5895e-009    
END_DB

BEGIN_DB
 ICCAP_VAR VG         -0.72          
 ICCAP_VAR VS         0              
 ICCAP_VAR VB         0              

 #VD              ID              IB              IG             
  0               -7.659e-010     -1.573e-008     3.342e-010     
  -0.05           8.871e-010      1.308e-008      -1.6562e-009   
  -0.1            -5.1913e-009    -1.8392e-008    2.1306e-009    
  -0.15           -3.5553e-009    1.8006e-008     -1.638e-009    
  -0.2            -5.2682e-009    -1.8427e-008    2.1175e-009    
  -0.25           -3.5738e-009    1.7994e-008     -1.6383e-009   
  -0.3            -5.2818e-009    -1.8466e-008    2.1182e-009    
  -0.35           -3.5907e-009    1.7906e-008     -1.6342e-009   
  -0.4            -5.2952e-009    -1.8385e-008    2.1166e-009    
  -0.45           -3.6485e-009    1.7989e-008     -1.6303e-009   
  -0.5            -5.315e-009     -1.8263e-008    2.1212e-009    
  -0.55           -3.6611e-009    1.8099e-008     -1.6269e-009   
  -0.6            -5.3333e-009    -1.8412e-008    2.1193e-009    
  -0.65           -3.6245e-009    1.802e-008      -1.6336e-009   
  -0.7            -5.3387e-009    -1.8224e-008    2.1095e-009    
  -0.75           -3.6372e-009    1.8089e-008     -1.6284e-009   
  -0.8            -5.3512e-009    -1.8215e-008    2.1145e-009    
  -0.85           -3.6456e-009    1.8165e-008     -1.6256e-009   
  -0.9            -5.36e-009      -1.8154e-008    2.1143e-009    
  -0.95           -3.6586e-009    1.7944e-008     -1.6227e-009   
  -1              -5.3785e-009    -1.8084e-008    2.1085e-009    
  -1.05           -3.6699e-009    1.7962e-008     -1.6285e-009   
  -1.1            -5.3856e-009    -1.8246e-008    2.1175e-009    
  -1.15           -3.6713e-009    1.814e-008      -1.6246e-009   
  -1.2            -5.3997e-009    -1.8277e-008    2.1144e-009    
  -1.25           -3.6801e-009    1.7994e-008     -1.6294e-009   
  -1.3            -5.4085e-009    -1.827e-008     2.1089e-009    
  -1.35           -3.697e-009     1.8049e-008     -1.6264e-009   
  -1.4            -5.4117e-009    -1.8159e-008    2.103e-009     
  -1.45           -3.707e-009     1.8131e-008     -1.6215e-009   
  -1.5            -5.4261e-009    -1.8133e-008    2.1109e-009    
  -1.55           -3.7099e-009    1.8019e-008     -1.6264e-009   
  -1.6            -5.4332e-009    -1.7984e-008    2.1034e-009    
  -1.65           -3.7328e-009    1.8051e-008     -1.6236e-009   
  -1.7            -5.4461e-009    -1.8096e-008    2.1013e-009    
  -1.75           -3.7295e-009    1.8198e-008     -1.6209e-009   
  -1.8            -5.4527e-009    -1.8093e-008    2.1001e-009    
END_DB

BEGIN_DB
 ICCAP_VAR VG         -1.08          
 ICCAP_VAR VS         0              
 ICCAP_VAR VB         0              

 #VD              ID              IB              IG             
  0               7.353e-009      8.885e-009      2.7107e-009    
  -0.05           -2.0012e-006    -1.7201e-008    -2.4464e-009   
  -0.1            -3.1248e-006    1.1026e-008     -2.1246e-009   
  -0.15           -3.6856e-006    8.494e-009      -2.3767e-009   
  -0.2            -3.9374e-006    8.099e-009      -2.5268e-009   
  -0.25           -4.0506e-006    7.065e-009      -2.5957e-009   
  -0.3            -4.1123e-006    6.55e-009       -2.6268e-009   
  -0.35           -4.1532e-006    1.7307e-008     -1.42e-009     
  -0.4            -4.1781e-006    1.4807e-008     -1.7172e-009   
  -0.45           -4.1979e-006    1.3196e-008     -1.3704e-009   
  -0.5            -4.216e-006     1.5384e-008     -1.6376e-009   
  -0.55           -4.232e-006     1.2417e-008     -1.9801e-009   
  -0.6            -4.2431e-006    1.8142e-008     -1.564e-009    
  -0.65           -4.2618e-006    1.3058e-008     -1.9039e-009   
  -0.7            -4.2711e-006    1.6642e-008     -1.4983e-009   
  -0.75           -4.2856e-006    1.3959e-008     -1.8258e-009   
  -0.8            -4.295e-006     1.521e-008      -1.4409e-009   
  -0.85           -4.309e-006     1.4507e-008     -1.7467e-009   
  -0.9            -4.3161e-006    1.3755e-008     -1.3919e-009   
  -0.95           -4.3286e-006    1.5118e-008     -1.6661e-009   
  -1              -4.3374e-006    1.2478e-008     -1.3514e-009   
  -1.05           -4.3485e-006    1.5631e-008     -1.5986e-009   
  -1.1            -4.3578e-006    1.2734e-008     -1.9441e-009   
  -1.15           -4.3627e-006    1.725e-008      -1.5331e-009   
  -1.2            -4.3745e-006    1.36e-008       -1.8642e-009   
  -1.25           -4.3811e-006    1.5746e-008     -1.4701e-009   
  -1.3            -4.3934e-006    1.4216e-008     -1.7861e-009   
  -1.35           -4.3989e-006    1.4342e-008     -1.4133e-009   
  -1.4            -4.4086e-006    1.4891e-008     -1.7088e-009   
  -1.45           -4.4149e-006    1.3103e-008     -1.3683e-009   
  -1.5            -4.4245e-006    1.541e-008      -1.6315e-009   
  -1.55           -4.4321e-006    1.2434e-008     -1.9746e-009   
  -1.6            -4.4362e-006    1.8147e-008     -1.5595e-009   
  -1.65           -4.4478e-006    1.323e-008      -1.8973e-009   
  -1.7            -4.4514e-006    1.6547e-008     -1.5014e-009   
  -1.75           -4.4618e-006    1.4023e-008     -1.8207e-009   
  -1.8            -4.4667e-006    1.5087e-008     -1.4351e-009   
END_DB

BEGIN_DB
 ICCAP_VAR VG         -1.44          
 ICCAP_VAR VS         0              
 ICCAP_VAR VB         0              

 #VD              ID              IB              IG             
  0               9.419e-009      -1.6928e-008    2.7313e-009    
  -0.05           -9.5969e-006    4.507e-009      1.2184e-009    
  -0.1            -1.7826e-005    5.429e-009      1.5793e-009    
  -0.15           -2.4749e-005    -1.7117e-008    2.7299e-009    
  -0.2            -3.0385e-005    -1.0133e-008    2.6991e-009    
  -0.25           -3.4792e-005    -1.3538e-008    2.6161e-009    
  -0.3            -3.8067e-005    -1.7475e-008    1.6206e-009    
  -0.35           -4.0499e-005    -1.7122e-008    2.7382e-009    
  -0.4            -4.2206e-005    -9.942e-009     2.7076e-009    
  -0.45           -4.3353e-005    -1.295e-008     2.6356e-009    
  -0.5            -4.4069e-005    -1.804e-008     1.6545e-009    
  -0.55           -4.4661e-005    -1.6865e-008    1.4204e-009    
  -0.6            -4.5076e-005    -1.8572e-008    2.7151e-009    
  -0.65           -4.5414e-005    -1.2613e-008    2.6464e-009    
  -0.7            -4.5607e-005    -1.858e-008     1.6955e-009    
  -0.75           -4.5866e-005    -1.6744e-008    1.4446e-009    
  -0.8            -4.6067e-005    -1.8314e-008    2.72e-009      
  -0.85           -4.6269e-005    -1.2162e-008    2.6545e-009    
  -0.9            -4.6419e-005    -1.5248e-008    2.5365e-009    
  -0.95           -4.6529e-005    -1.4591e-008    2.7339e-009    
  -1              -4.6718e-005    -1.136e-008     2.6837e-009    
  -1.05           -4.6845e-005    -1.4484e-008    2.5792e-009    
  -1.1            -4.6912e-005    -1.602e-008     1.5396e-009    
  -1.15           -4.7061e-005    -1.7463e-008    2.7328e-009    
  -1.2            -4.721e-005     -1.0815e-008    2.6915e-009    
  -1.25           -4.7314e-005    -1.4182e-008    2.5959e-009    
  -1.3            -4.736e-005     -1.6462e-008    1.5671e-009    
  -1.35           -4.7496e-005    -1.7227e-008    2.7358e-009    
  -1.4            -4.7626e-005    -1.0552e-008    2.6987e-009    
  -1.45           -4.7722e-005    -1.3736e-008    2.6149e-009    
  -1.5            -4.775e-005     -1.7028e-008    1.5966e-009    
  -1.55           -4.7877e-005    -1.6836e-008    2.7357e-009    
  -1.6            -4.7999e-005    -1.0338e-008    2.7051e-009    
  -1.65           -4.8089e-005    -1.3432e-008    2.6296e-009    
  -1.7            -4.8098e-005    -1.7587e-008    1.6354e-009    
  -1.75           -4.8224e-005    -1.688e-008     2.7383e-009    
  -1.8            -4.8332e-005    -9.826e-009     2.7115e-009    
END_DB

BEGIN_DB
 ICCAP_VAR VG         -1.8           
 ICCAP_VAR VS         0              
 ICCAP_VAR VB         0              

 #VD              ID              IB              IG             
  0               1.0156e-008     -1.4516e-008    7.48e-010      
  -0.05           -1.6654e-005    1.1963e-008     -1.9468e-009   
  -0.1            -3.2143e-005    8.727e-009      -2.3808e-009   
  -0.15           -4.6461e-005    1.6651e-008     -1.5089e-009   
  -0.2            -5.963e-005     1.8252e-008     -1.3506e-009   
  -0.25           -7.1546e-005    8.334e-009      -2.5002e-009   
  -0.3            -8.2278e-005    8.444e-009      -2.4026e-009   
  -0.35           -9.1816e-005    9.399e-009      -2.253e-009    
  -0.4            -0.000100127    1.3188e-008     -1.3735e-009   
  -0.45           -0.00010726     8.298e-009      -2.5131e-009   
  -0.5            -0.000113292    8.334e-009      -2.4232e-009   
  -0.55           -0.00011866     1.2964e-008     1.7534e-009    
  -0.6            -0.00012255     -7.462e-009     2.7456e-009    
  -0.65           -0.00012575     -7.739e-009     2.7371e-009    
  -0.7            -0.00012822     -8.009e-009     2.7131e-009    
  -0.75           -0.00013018     -8.002e-009     2.6743e-009    
  -0.8            -0.00013172     -1.7116e-008    1.5207e-009    
  -0.85           -0.00013293     -1.7099e-008    1.6932e-009    
  -0.9            -0.00013392     -1.7422e-008    1.8763e-009    
  -0.95           -0.00013471     -1.6951e-008    2.0591e-009    
  -1              -0.00013539     -1.334e-008     2.6937e-009    
  -1.05           -0.00013607     -8.935e-009     2.7236e-009    
  -1.1            -0.00013658     -8.115e-009     2.7384e-009    
  -1.15           -0.00013705     -7.676e-009     2.7471e-009    
  -1.2            -0.00013746     -7.604e-009     2.7407e-009    
  -1.25           -0.00013784     -7.913e-009     2.7216e-009    
  -1.3            -0.00013825     -8.205e-009     2.6881e-009    
  -1.35           -0.00013863     -1.7278e-008    1.4773e-009    
  -1.4            -0.00013894     -1.6912e-008    1.6342e-009    
  -1.45           -0.00013928     -1.7217e-008    1.8174e-009    
  -1.5            -0.00013956     -1.7056e-008    2.0018e-009    
  -1.55           -0.00013985     -1.2696e-008    2.6873e-009    
  -1.6            -0.00014024     -9.231e-009     2.7207e-009    
  -1.65           -0.00014048     -8.311e-009     2.7393e-009    
  -1.7            -0.00014075     -7.883e-009     2.7456e-009    
  -1.75           -0.00014098     -7.466e-009     2.7404e-009    
  -1.8            -0.0001412      -7.911e-009     2.7251e-009    
END_DB

BEGIN_DB
 ICCAP_VAR VG         0              
 ICCAP_VAR VS         0              
 ICCAP_VAR VB         0.9            

 #VD              ID              IB              IG             
  0               -1.3996e-009    -8.003e-009     1.027e-010     
  -0.05           2.693e-010      8.681e-009      -2.555e-009    
  -0.1            -1.898e-010     -1.1757e-008    2.7306e-009    
  -0.15           3.0595e-009     1.1664e-008     -1.5833e-009   
  -0.2            -2.8245e-009    -1.6806e-008    2.0292e-009    
  -0.25           1.1744e-009     1.5663e-008     -1.9691e-009   
  -0.3            -1.2252e-009    -1.7089e-008    2.2501e-009    
  -0.35           1.0147e-009     1.4118e-008     -2.1454e-009   
  -0.4            -1.0378e-009    -1.713e-008     2.4222e-009    
  -0.45           8.428e-010      1.2661e-008     -2.2959e-009   
  -0.5            -8.378e-010     -1.663e-008     2.5529e-009    
  -0.55           3.591e-009      7.929e-009      -1.568e-010    
  -0.6            -1.18e-011      8.415e-009      -2.5969e-009   
  -0.65           -2.8822e-009    -1.5269e-008    1.9214e-009    
  -0.7            1.2561e-009     1.6073e-008     -1.8688e-009   
  -0.75           -1.3028e-009    -1.6843e-008    2.1588e-009    
  -0.8            1.0891e-009     1.4826e-008     -2.0572e-009   
  -0.85           -1.1335e-009    -1.7042e-008    2.35e-009      
  -0.9            9.296e-010      1.3519e-008     -2.2327e-009   
  -0.95           -9.339e-010     -1.7083e-008    2.5011e-009    
  -1              3.6637e-009     8.2e-009        -1.098e-010    
  -1.05           8.3e-011        8.59e-009       -2.5854e-009   
  -1.1            -2.9339e-009    -1.3666e-008    1.812e-009     
  -1.15           2.6909e-009     1.9054e-008     -1.9712e-009   
  -1.2            -1.2135e-009    -1.7018e-008    2.2567e-009    
  -1.25           1.0026e-009     1.4175e-008     -2.1629e-009   
  -1.3            -1.0226e-009    -1.7131e-008    2.4367e-009    
  -1.35           8.329e-010      1.241e-008      -2.3071e-009   
  -1.4            -8.273e-010     -1.6771e-008    2.5663e-009    
  -1.45           3.5798e-009     7.856e-009      -1.653e-010    
  -1.5            -2.4e-011       8.261e-009      -2.6012e-009   
  -1.55           -2.8763e-009    -1.5401e-008    1.943e-009     
  -1.6            2.4425e-009     1.0554e-008     1.694e-009     
  -1.65           2.32e-010       8.457e-009      -2.5546e-009   
  -1.7            -1.562e-010     -1.1353e-008    2.7296e-009    
  -1.75           3.0343e-009     1.2257e-008     -1.6098e-009   
  -1.8            -2.8129e-009    -1.7525e-008    2.0679e-009    
END_DB

BEGIN_DB
 ICCAP_VAR VG         -0.36          
 ICCAP_VAR VS         0              
 ICCAP_VAR VB         0.9            

 #VD              ID              IB              IG             
  0               1.3082e-009     1.5446e-008     -9.75e-011     
  -0.05           -3.276e-010     -1.3724e-008    2.7129e-009    
  -0.1            2.051e-010      8.383e-009      -2.5609e-009   
  -0.15           -3.0084e-009    -1.1923e-008    1.6571e-009    
  -0.2            4.1403e-009     9.622e-009      3.923e-010     
  -0.25           -1.9237e-009    1.726e-009      -1.9442e-009   
  -0.3            -1.2446e-009    -1.7151e-008    2.2336e-009    
  -0.35           1.0238e-009     1.4447e-008     -2.1315e-009   
  -0.4            -1.0546e-009    -1.7177e-008    2.4078e-009    
  -0.45           8.551e-010      1.2743e-008     -2.2791e-009   
  -0.5            -8.576e-010     -1.6709e-008    2.5448e-009    
  -0.55           3.6017e-009     7.96e-009       -1.455e-010    
