! VERSION = 6.00
BEGIN_HEADER
 ICCAP_INPUTS
  VG         V  B GROUND SMU4 0.001 LIN        1    0          -1.8       37   -0.05     
  VS         V  E GROUND SMU2 0.1 CON        0
  VD         V  S GROUND SMU1 0.1 LIN        2    -0.1       -1.8       2    -1.7      
  VB         V  C GROUND SMU3 0.1 CON        0
 ICCAP_OUTPUTS
  IG         I  B GROUND SMU4 B
  ID         I  S GROUND SMU1 B
END_HEADER

BEGIN_DB
 ICCAP_VAR VS         0              
 ICCAP_VAR VD         -0.1           
 ICCAP_VAR VB         0              

 #VG              IG              ID             
  0               2.1321e-010     -1.1288e-010   
  -0.05           -7.09e-011      -1.9988e-010   
  -0.1            1.1078e-010     -1.3175e-010   
  -0.15           -1.4952e-010    -7.1612e-010   
  -0.2            3.3865e-010     -2.4603e-009   
  -0.25           -2.5019e-010    -7.6825e-009   
  -0.3            3.91e-011       -2.6957e-008   
  -0.35           -9.96e-011      -9.5819e-008   
  -0.4            2.3654e-010     -3.362e-007    
  -0.45           -9.335e-011     -1.1653e-006   
  -0.5            1.7219e-010     -3.9102e-006   
  -0.55           2.5833e-010     -1.2316e-005   
  -0.6            -2.2315e-010    -3.534e-005    
  -0.65           1.9508e-010     -8.8917e-005   
  -0.7            -3.4191e-010    -0.00019113    
  -0.75           2.6324e-010     -0.00034886    
  -0.8            -2.268e-010     -0.00054727    
  -0.85           1.9883e-010     -0.0007563     
  -0.9            -2.8685e-010    -0.00094706    
  -0.95           2.4488e-010     -0.00110408    
  -1              2.95e-010       -0.001224      
  -1.05           -3.4025e-010    -0.0013165     
  -1.1            2.7724e-010     -0.0013859     
  -1.15           -2.3637e-010    -0.0014389     
  -1.2            2.0789e-010     -0.0014789     
  -1.25           -3.0026e-010    -0.0015118     
  -1.3            3.3595e-010     -0.0015385     
  -1.35           -2.8246e-010    -0.0015598     
  -1.4            2.4137e-010     -0.0015775     
  -1.45           -2.1033e-010    -0.0015916     
  -1.5            3.046e-010      -0.0016036     
  -1.55           -3.3732e-010    -0.0016135     
  -1.6            2.8718e-010     -0.0016219     
  -1.65           -3.4193e-010    -0.0016292     
  -1.7            2.6878e-010     -0.0016355     
  -1.75           -2.3029e-010    -0.0016431     
  -1.8            2.0089e-010     -0.0016483     
END_DB

BEGIN_DB
 ICCAP_VAR VS         0              
 ICCAP_VAR VD         -1.8           
 ICCAP_VAR VB         0              

 #VG              IG              ID             
  0               -1.975e-011     -3.1553e-010   
  -0.05           -2.1173e-010    -3.4676e-010   
  -0.1            7.903e-011      -1.2181e-009   
  -0.15           -1.3108e-010    -4.5174e-009   
  -0.2            -1.1549e-010    -1.5149e-008   
  -0.25           2.1967e-010     -5.0612e-008   
  -0.3            -2.531e-010     -1.7076e-007   
  -0.35           2.207e-010      -5.7062e-007   
  -0.4            -1.0521e-010    -1.8785e-006   
  -0.45           1.9646e-010     -6.0028e-006   
  -0.5            3.0878e-010     -1.8148e-005   
  -0.55           -1.9664e-010    -5.0341e-005   
  -0.6            2.9736e-010     -0.00012435    
  -0.65           -3.3826e-010    -0.0002679     
  -0.7            4.4721e-010     -0.00089898    
  -0.75           8.914e-010      -0.0011718     
  -0.8            1.5515e-009     -0.0014714     
  -0.85           2.2355e-009     -0.0018397     
  -0.9            2.6709e-009     -0.0022726     
  -0.95           2.6418e-009     -0.0027673     
  -1              2.1654e-009     -0.0033146     
  -1.05           1.4562e-009     -0.0039095     
  -1.1            1.1203e-009     -0.004547      
  -1.15           2.776e-010      -0.0052221     
  -1.2            4.8054e-010     -0.0060183     
  -1.25           -2.7545e-010    -0.0067421     
  -1.3            3.2236e-010     -0.0074837     
  -1.35           -3.3207e-010    -0.0082398     
  -1.4            2.9439e-010     -0.0090185     
  -1.45           -3.3902e-010    -0.0098139     
  -1.5            2.7708e-010     -0.0106049     
  -1.55           1.7388e-010     -0.011372      
  -1.6            -3.2269e-010    -0.012167      
  -1.65           1.866e-010      -0.01298       
  -1.7            -2.7109e-010    -0.013787      
  -1.75           2.3408e-010     -0.014604      
  -1.8            -2.0388e-010    -0.015419      
END_DB

