! VERSION = 6.00
BEGIN_HEADER
 ICCAP_INPUTS
  VG         V  B GROUND SMU4 0.001 LIN        1    0          -1.8       37   -0.05     
  VS         V  E GROUND SMU2 0.1 CON        0
  VD         V  S GROUND SMU1 0.1 LIN        2    -0.1       -1.8       2    -1.7      
  VB         V  C GROUND SMU3 0.1 CON        0
 ICCAP_OUTPUTS
  IG         I  B GROUND SMU4 B
  ID         I  S GROUND SMU1 B
END_HEADER

BEGIN_DB
 ICCAP_VAR VS         0              
 ICCAP_VAR VD         -0.1           
 ICCAP_VAR VB         0              

 #VG              IG              ID             
  0               -2.2511e-010    2.614e-011     
  -0.05           2.4565e-010     -1.5502e-010   
  -0.1            -3.3779e-010    -2.5113e-010   
  -0.15           1.2414e-010     -9.1108e-010   
  -0.2            -2.3396e-010    -3.3151e-009   
  -0.25           -3.4127e-010    -1.1387e-008   
  -0.3            2.679e-010      -4.0057e-008   
  -0.35           -3.2592e-010    -1.3968e-007   
  -0.4            3.2342e-010     -4.8482e-007   
  -0.45           -1.3467e-010    -1.6342e-006   
  -0.5            2.6293e-010     -5.2428e-006   
  -0.55           3.2507e-010     -1.556e-005    
  -0.6            -3.0626e-010    -4.1755e-005   
  -0.65           3.3429e-010     -9.8728e-005   
  -0.7            -2.4458e-010    -0.00020296    
  -0.75           2.1261e-010     -0.00036253    
  -0.8            -3.083e-010     -0.00056844    
  -0.85           3.332e-010      -0.00079844    
  -0.9            -2.8948e-010    -0.00102519    
  -0.95           -2.5684e-010    -0.0012289     
  -1              2.2118e-010     -0.0014008     
  -1.05           -1.9158e-010    -0.0015401     
  -1.1            2.7824e-010     -0.0016533     
  -1.15           -2.365e-010     -0.0017437     
  -1.2            2.0696e-010     -0.0018159     
  -1.25           -3.0046e-010    -0.0018756     
  -1.3            3.3661e-010     -0.0019244     
  -1.35           -2.8108e-010    -0.0019648     
  -1.4            2.3908e-010     -0.001999      
  -1.45           -2.0814e-010    -0.0020272     
  -1.5            3.0238e-010     -0.002051      
  -1.55           -3.3883e-010    -0.0020713     
  -1.6            2.8204e-010     -0.0020927     
  -1.65           -2.3908e-010    -0.0021074     
  -1.7            2.0924e-010     -0.0021234     
  -1.75           -3.0174e-010    -0.0021338     
  -1.8            3.3569e-010     -0.0021442     
END_DB

BEGIN_DB
 ICCAP_VAR VS         0              
 ICCAP_VAR VD         -1.8           
 ICCAP_VAR VB         0              

 #VG              IG              ID             
  0               -1.6049e-010    -2.3472e-010   
  -0.05           6.078e-011      -4.8005e-010   
  -0.1            2.2494e-010     -1.9832e-009   
  -0.15           -3.3275e-010    -6.5931e-009   
  -0.2            -3.4156e-010    -2.2388e-008   
  -0.25           2.7008e-010     -7.6244e-008   
  -0.3            -3.4192e-010    -2.5782e-007   
  -0.35           2.3324e-010     -8.5903e-007   
  -0.4            3.716e-011      -2.7672e-006   
  -0.45           -9.871e-011     -8.4795e-006   
  -0.5            2.5273e-010     -2.4148e-005   
  -0.55           -2.1651e-010    -6.2689e-005   
  -0.6            2.8269e-010     -0.00014578    
  -0.65           -2.3707e-010    -0.0003001     
  -0.7            5.5192e-010     -0.00081368    
  -0.75           1.0106e-009     -0.00113414    
  -0.8            1.1641e-009     -0.0014517     
  -0.85           1.7543e-009     -0.0018513     
  -0.9            2.0888e-009     -0.0023307     
  -0.95           2.0309e-009     -0.0028851     
  -1              1.6418e-009     -0.0035085     
  -1.05           1.0792e-009     -0.0041872     
  -1.1            1.1695e-009     -0.004923      
  -1.15           2.636e-010      -0.0057028     
  -1.2            4.6408e-010     -0.006625      
  -1.25           -1.5266e-010    -0.0074616     
  -1.3            2.21e-010       -0.008312      
  -1.35           -2.7852e-010    -0.0092001     
  -1.4            2.4298e-010     -0.0101106     
  -1.45           -2.1072e-010    -0.0110306     
  -1.5            2.7376e-010     -0.011909      
  -1.55           -2.3225e-010    -0.012851      
  -1.6            2.0356e-010     -0.013795      
  -1.65           -2.9189e-010    -0.014739      
  -1.7            2.4954e-010     -0.015695      
  -1.75           -2.1704e-010    -0.016745      
  -1.8            1.8368e-010     -0.01782       
END_DB

