! VERSION = 6.00
BEGIN_HEADER
 ICCAP_INPUTS
  VG         V  B GROUND SMU4 0.001 LIN        1    0          -1.8       37   -0.05     
  VS         V  E GROUND SMU2 0.1 CON        0
  VD         V  S GROUND SMU1 0.1 LIN        2    -0.1       -1.8       2    -1.7      
  VB         V  C GROUND SMU3 0.1 CON        0
 ICCAP_OUTPUTS
  IG         I  B GROUND SMU4 B
  ID         I  S GROUND SMU1 B
END_HEADER

BEGIN_DB
 ICCAP_VAR VS         0              
 ICCAP_VAR VD         -0.1           
 ICCAP_VAR VB         0              

 #VG              IG              ID             
  0               -3.0181e-010    1.9675e-010    
  -0.05           2.872e-010      -4.982e-011    
  -0.1            2.1843e-010     -2.2155e-010   
  -0.15           -2.1948e-010    4.201e-011     
  -0.2            2.2087e-010     -9.049e-011    
  -0.25           3.1593e-010     -2.355e-010    
  -0.3            -8.857e-011     -2.3234e-010   
  -0.35           1.3363e-010     -3.6215e-010   
  -0.4            2.6058e-010     -1.8215e-009   
  -0.45           -3.4401e-010    -6.2854e-009   
  -0.5            -2.6304e-010    -2.5327e-008   
  -0.55           2.2012e-010     -1.04053e-007  
  -0.6            3.038e-010      -4.2197e-007   
  -0.65           -7.791e-011     -1.6523e-006   
  -0.7            1.5308e-010     -5.9823e-006   
  -0.75           2.9476e-010     -1.8956e-005   
  -0.8            -3.4284e-010    -5.0343e-005   
  -0.85           2.5895e-010     -0.000110348   
  -0.9            2.3264e-010     -0.00020097    
  -0.95           -1.9763e-010    -0.00031239    
  -1              2.7843e-010     -0.00042781    
  -1.05           -2.2924e-010    -0.00053381    
  -1.1            1.9481e-010     -0.00062481    
  -1.15           -2.7161e-010    -0.00069936    
  -1.2            2.2634e-010     -0.00075912    
  -1.25           -1.9072e-010    -0.00080723    
  -1.3            2.6844e-010     -0.00084689    
  -1.35           -2.2216e-010    -0.00087798    
  -1.4            1.8704e-010     -0.00090375    
  -1.45           -2.6229e-010    -0.00092649    
  -1.5            2.1935e-010     -0.00094343    
  -1.55           -1.8384e-010    -0.000959      
  -1.6            2.5982e-010     -0.00097197    
  -1.65           -2.1641e-010    -0.00098408    
  -1.7            1.802e-010      -0.00099393    
  -1.75           -2.5431e-010    -0.00100336    
  -1.8            2.1383e-010     -0.00101124    
END_DB

BEGIN_DB
 ICCAP_VAR VS         0              
 ICCAP_VAR VD         -1.8           
 ICCAP_VAR VB         0              

 #VG              IG              ID             
  0               2.3285e-010     -3.602e-011    
  -0.05           2.5404e-010     -2.4221e-010   
  -0.1            2.31e-010       -2.3467e-010   
  -0.15           3.2681e-010     -2.2057e-010   
  -0.2            -1.778e-011     -2.0873e-010   
  -0.25           -3.2796e-010    1.5235e-010    
  -0.3            2.6663e-010     -1.6675e-010   
  -0.35           -3.3741e-010    -4.3382e-010   
  -0.4            3.1269e-010     -2.0196e-009   
  -0.45           -3.2166e-010    -7.2047e-009   
  -0.5            -2.5873e-010    -2.9022e-008   
  -0.55           -3.2926e-010    -1.1894e-007   
  -0.6            3.1938e-010     -4.8435e-007   
  -0.65           -1.1305e-010    -1.9002e-006   
  -0.7            2.1641e-010     -6.9015e-006   
  -0.75           2.8762e-010     -2.2074e-005   
  -0.8            -2.3426e-010    -5.9898e-005   
  -0.85           2.6216e-010     -0.00013643    
  -0.9            -2.1543e-010    -0.00026425    
  -0.95           1.7927e-010     -0.0004481     
  -1              -2.5446e-010    -0.0006849     
  -1.05           2.148e-010      -0.0009692     
  -1.1            2.4598e-010     -0.001294      
  -1.15           -2.0706e-010    -0.0016521     
  -1.2            2.9579e-010     -0.002039      
  -1.25           -2.421e-010     -0.0024503     
  -1.3            2.0369e-010     -0.0029041     
  -1.35           -2.9041e-010    -0.0033475     
  -1.4            2.3965e-010     -0.0037962     
  -1.45           -2.0158e-010    -0.0042597     
  -1.5            2.9072e-010     -0.004738      
  -1.55           -2.355e-010     -0.0052105     
  -1.6            1.9819e-010     -0.0057023     
  -1.65           -2.8426e-010    -0.0062101     
  -1.7            2.3485e-010     -0.0067283     
  -1.75           -1.9815e-010    -0.0072552     
  -1.8            2.8361e-010     -0.0077925     
END_DB

