! VERSION = 6.00
BEGIN_HEADER
 ICCAP_INPUTS
  VG         V  B GROUND SMU4 0.001 LIN        1    0          -1.8       37   -0.05     
  VS         V  E GROUND SMU2 0.1 CON        0
  VD         V  S GROUND SMU1 0.1 LIN        2    -0.1       -1.8       2    -1.7      
  VB         V  C GROUND SMU3 0.1 CON        0
 ICCAP_OUTPUTS
  IG         I  B GROUND SMU4 B
  ID         I  S GROUND SMU1 B
END_HEADER

BEGIN_DB
 ICCAP_VAR VS         0              
 ICCAP_VAR VD         -0.1           
 ICCAP_VAR VB         0              

 #VG              IG              ID             
  0               3.4256e-010     -2.1276e-010   
  -0.05           -4.399e-011     -2.4712e-010   
  -0.1            8.241e-011      -1.9839e-010   
  -0.15           -1.181e-010     -1.09389e-009  
  -0.2            2.352e-010      -3.4868e-009   
  -0.25           1.161e-010      -1.1829e-008   
  -0.3            -2.1384e-010    -4.1994e-008   
  -0.35           2.2521e-010     -1.4687e-007   
  -0.4            -1.9278e-010    -5.0845e-007   
  -0.45           8.701e-011      -1.7167e-006   
  -0.5            -1.6005e-010    -5.5176e-006   
  -0.55           -2.7409e-010    -1.6374e-005   
  -0.6            2.2961e-010     -4.3615e-005   
  -0.65           -1.9897e-010    -0.000100932   
  -0.7            3.4089e-010     -0.00019968    
  -0.75           -2.5669e-010    -0.00033801    
  -0.8            2.187e-010      -0.00049795    
  -0.85           -1.8514e-010    -0.00065428    
  -0.9            2.6551e-010     -0.0007874     
  -0.95           -2.243e-010     -0.00089277    
  -1              1.929e-010      -0.00096987    
  -1.05           -2.7221e-010    -0.00102834    
  -1.1            2.2989e-010     -0.00107177    
  -1.15           -1.9786e-010    -0.00110367    
  -1.2            2.8258e-010     -0.0011304     
  -1.25           -2.2139e-010    -0.0011486     
  -1.3            2.3962e-010     -0.0011653     
  -1.35           -2.0562e-010    -0.0011779     
  -1.4            2.9361e-010     -0.0011884     
  -1.45           -3.4255e-010    -0.0011981     
  -1.5            2.6677e-010     -0.0012052     
  -1.55           -2.2536e-010    -0.0012127     
  -1.6            1.9211e-010     -0.0012172     
  -1.65           -2.726e-010     -0.0012231     
  -1.7            2.2957e-010     -0.0012266     
  -1.75           -1.9725e-010    -0.0012303     
  -1.8            2.8067e-010     -0.0012347     
END_DB

BEGIN_DB
 ICCAP_VAR VS         0              
 ICCAP_VAR VD         -1.8           
 ICCAP_VAR VB         0              

 #VG              IG              ID             
  0               -2.1124e-010    -2.0615e-010   
  -0.05           9.302e-011      -5.3895e-010   
  -0.1            3.2785e-010     -2.2922e-009   
  -0.15           -3.0492e-010    -6.9494e-009   
  -0.2            -3.4482e-010    -2.3516e-008   
  -0.25           2.3714e-010     -8.0234e-008   
  -0.3            -3.1143e-010    -2.723e-007    
  -0.35           3.3254e-010     -9.1184e-007   
  -0.4            -3.2594e-010    -2.9521e-006   
  -0.45           3.2485e-010     -9.0596e-006   
  -0.5            2.6317e-010     -2.5728e-005   
  -0.55           -2.2053e-010    -6.5853e-005   
  -0.6            2.8129e-010     -0.00014908    
  -0.65           -2.3152e-010    -0.00029536    
  -0.7            1.9818e-010     -0.00051542    
  -0.75           3.5844e-010     -0.00104553    
  -0.8            8.72e-010       -0.0013287     
  -0.85           9.526e-010      -0.0016386     
  -0.9            9.734e-010      -0.0020062     
  -0.95           1.138e-009      -0.0024201     
  -1              3.9617e-010     -0.0028782     
  -1.05           5.8654e-010     -0.0034216     
  -1.1            -5.873e-011     -0.0039478     
  -1.15           3.6753e-010     -0.0044982     
  -1.2            -3.2149e-010    -0.0050707     
  -1.25           2.7908e-010     -0.005661      
  -1.3            -2.2756e-010    -0.0062628     
  -1.35           1.9639e-010     -0.0068749     
  -1.4            -2.7309e-010    -0.0074913     
  -1.45           2.2993e-010     -0.0081173     
  -1.5            -1.9509e-010    -0.0087482     
  -1.55           2.7706e-010     -0.0093816     
  -1.6            -2.2949e-010    -0.0099862     
  -1.65           1.9467e-010     -0.0106231     
  -1.7            -2.7426e-010    -0.0112623     
  -1.75           3.3704e-010     -0.011842      
  -1.8            -2.6929e-010    -0.012388      
END_DB

