! VERSION = 6.00
BEGIN_HEADER
 ICCAP_INPUTS
  VG         V  B GROUND SMU4 0.001 LIN        1    0          -1.8       37   -0.05     
  VS         V  E GROUND SMU2 0.1 CON        0
  VB         V  C GROUND SMU3 0.1 LIN        3    0          1.8        3    0.9       
  VD         V  S GROUND SMU1 0.1 LIN        2    -0.1       -1.8       2    -1.7      
 ICCAP_OUTPUTS
  IG         I  B GROUND SMU4 B
  ID         I  S GROUND SMU1 B
  IB         I  C GROUND SMU3 B
END_HEADER

BEGIN_DB
 ICCAP_VAR VS         0              
 ICCAP_VAR VB         0              
 ICCAP_VAR VD         -0.1           

 #VG              IG              ID              IB             
  0               -1.2454e-009    -1.0586e-009    -2.2069e-008   
  -0.05           1.1647e-009     -3.86e-011      -1.3578e-008   
  -0.1            1.6466e-009     -1.724e-010     -1.616e-008    
  -0.15           1.9335e-009     9.47e-010       -2.058e-009    
  -0.2            -1.2461e-009    1.0878e-009     9.966e-009     
  -0.25           -1.2748e-009    -1.2678e-009    5.381e-009     
  -0.3            1.561e-010      -1.8297e-009    -9.288e-009    
  -0.35           1.1623e-009     5.9e-011        -1.2421e-008   
  -0.4            1.1632e-009     -1.309e-010     -1.497e-008    
  -0.45           1.5213e-009     -2.843e-010     -1.7599e-008   
  -0.5            -1.2385e-009    1.0804e-009     -3.175e-009    
  -0.55           -1.8263e-009    -1.6631e-009    1.1193e-008    
  -0.6            -1.588e-010     -4.6435e-009    -9.668e-009    
  -0.65           1.6521e-009     -9.6825e-009    -1.6028e-008   
  -0.7            -2.2035e-009    -2.836e-008     -1.1668e-008   
  -0.75           -1.248e-010     -7.1915e-008    -9.213e-009    
  -0.8            -2.1642e-009    -1.5641e-007    8.709e-009     
  -0.85           -1.282e-010     -3.077e-007     -9.254e-009    
  -0.9            1.3688e-009     -5.419e-007     -1.5481e-008   
  -0.95           1.0765e-009     -8.524e-007     -3.267e-009    
  -1              9.385e-010      -1.2411e-006    1.906e-009     
  -1.05           1.3731e-009     -1.684e-006     1.4158e-008    
  -1.1            3.299e-010      -2.1689e-006    8.846e-009     
  -1.15           6.391e-010      -2.6981e-006    8.564e-009     
  -1.2            1.0451e-009     -3.2376e-006    1.1618e-008    
  -1.25           1.4983e-009     -3.7752e-006    1.467e-008     
  -1.3            4.288e-010      -4.3153e-006    8.652e-009     
  -1.35           7.407e-010      -4.8568e-006    9.105e-009     
  -1.4            1.1874e-009     -5.3768e-006    1.2553e-008    
  -1.45           1.6182e-009     -5.8783e-006    1.4995e-008    
  -1.5            5.102e-010      -6.3648e-006    8.658e-009     
  -1.55           8.616e-010      -6.8368e-006    1.0149e-008    
  -1.6            1.3146e-009     -7.2801e-006    1.3381e-008    
  -1.65           2.965e-010      -7.7031e-006    8.667e-009     
  -1.7            5.903e-010      -8.1192e-006    8.791e-009     
  -1.75           9.846e-010      -8.5187e-006    9.975e-009     
  -1.8            1.441e-009      -8.8853e-006    1.457e-008     
END_DB

BEGIN_DB
 ICCAP_VAR VS         0              
 ICCAP_VAR VB         0              
 ICCAP_VAR VD         -1.8           

 #VG              IG              ID              IB             
  0               -1.1949e-009    -1.046e-009     1.1945e-008    
  -0.05           1.1496e-009     -1.2126e-009    -1.0611e-008   
  -0.1            1.165e-009      7.62e-011       -1.2318e-008   
  -0.15           1.1635e-009     -1.032e-010     -1.4327e-008   
  -0.2            1.5534e-009     -2.177e-010     -1.7329e-008   
  -0.25           1.9827e-009     9.596e-010      -2.985e-009    
  -0.3            -1.2468e-009    1.1354e-009     1.0568e-008    
  -0.35           -1.3325e-009    -1.2301e-009    6.862e-009     
  -0.4            7.21e-011       -1.9114e-009    -9.417e-009    
  -0.45           1.1646e-009     -2.356e-010     -1.3319e-008   
  -0.5            1.6751e-009     -1.0294e-009    -1.5717e-008   
  -0.55           1.4075e-009     -2.2387e-009    -1.549e-009    
  -0.6            -2.3148e-009    -1.2129e-008    -1.3168e-008   
  -0.65           1.1615e-009     -3.4669e-008    -1.0789e-008   
  -0.7            1.4726e-009     -9.6228e-008    -1.4256e-008   
  -0.75           1.9396e-009     -2.2288e-007    -1.0508e-008   
  -0.8            8.641e-010      -4.7105e-007    9.968e-009     
  -0.85           1.3189e-009     -8.7336e-007    1.3555e-008    
  -0.9            -1.2551e-009    -1.4683e-006    -9.336e-009    
  -0.95           -1.2465e-009    -2.3077e-006    2.44e-009      
  -1              -1.8271e-009    -3.4111e-006    6.146e-009     
  -1.05           -3.729e-010     -4.7977e-006    -9.601e-009    
  -1.1            1.1627e-009     -6.5111e-006    -1.0476e-008   
  -1.15           1.3854e-009     -8.4605e-006    -1.5158e-008   
  -1.2            1.0811e-009     -1.06638e-005   -3.226e-009    
  -1.25           1.1558e-009     -1.3178e-005    2.91e-009      
  -1.3            1.2304e-009     -1.5903e-005    -1.8024e-008   
  -1.35           1.0687e-009     -1.8833e-005    -2.975e-009    
  -1.4            1.1246e-009     -2.1977e-005    -5.965e-009    
  -1.45           1.159e-009      -2.5303e-005    -1.1321e-008   
  -1.5            1.3563e-009     -2.88e-005      -1.5997e-008   
  -1.55           1.0754e-009     -3.2395e-005    -3.292e-009    
  -1.6            1.1035e-009     -3.6169e-005    -4.576e-009    
  -1.65           1.1587e-009     -4.0053e-005    -1.0298e-008   
  -1.7            1.5103e-009     -4.4012e-005    -1.4399e-008   
  -1.75           1.1086e-009     -4.8031e-005    -3.217e-009    
  -1.8            1.0826e-009     -5.2165e-005    -3.728e-009    
END_DB

BEGIN_DB
 ICCAP_VAR VS         0              
 ICCAP_VAR VB         0.9            
 ICCAP_VAR VD         -0.1           

 #VG              IG              ID              IB             
  0               -2.064e-010     2.759e-010      2.336e-009     
  -0.05           1.5513e-009     9.589e-010      -4.157e-009    
  -0.1            -1.259e-009     6.624e-010      8.785e-009     
  -0.15           -7.392e-010     -1.7424e-009    3.047e-009     
  -0.2            2.0728e-009     9.862e-010      -1.1801e-008   
  -0.25           -1.2427e-009    1.2326e-009     1.1653e-008    
  -0.3            -1.4187e-009    -1.1415e-009    9.692e-009     
  -0.35           1.8872e-009     9.342e-010      -9.873e-009    
  -0.4            -1.2469e-009    1.0286e-009     9.342e-009     
  -0.45           -1.2146e-009    -1.3348e-009    4.142e-009     
  -0.5            1.5431e-009     -2.227e-010     -1.7301e-008   
  -0.55           1.2664e-009     1.1234e-009     1.486e-008     
  -0.6            4.61e-011       1.7224e-009     8.428e-009     
  -0.65           2.128e-010      1.7792e-009     9.067e-009     
  -0.7            -1.2556e-009    5.892e-010      8.894e-009     
  -0.75           -2.4066e-009    -1.6922e-009    2.536e-009     
  -0.8            1.1639e-009     -3.0868e-009    -1.4279e-008   
  -0.85           -1.96e-009      -1.216e-008     -9.916e-009    
  -0.9            -9.507e-010     -3.8765e-008    -9.559e-009    
  -0.95           1.5396e-009     -1.03476e-007   -1.3729e-008   
  -1              -5.442e-010     -2.3668e-007    1.0355e-008    
  -1.05           1.1521e-009     -4.7118e-007    -9.251e-009    
  -1.1            1.2018e-009     -7.9861e-007    -1.837e-008    
  -1.15           1.5419e-009     -1.2035e-006    2.113e-009     
  -1.2            4.997e-010      -1.6813e-006    8.768e-009     
  -1.25           7.804e-010      -2.2033e-006    9.479e-009     
  -1.3            1.2313e-009     -2.743e-006     1.2688e-008    
  -1.35           2.328e-010      -3.2802e-006    8.029e-009     
  -1.4            5.324e-010      -3.8314e-006    8.665e-009     
  -1.45           9.021e-010      -4.3736e-006    1.0521e-008    
  -1.5            1.3558e-009     -4.8887e-006    1.3694e-008    
  -1.55           3.385e-010      -5.3806e-006    8.518e-009     
  -1.6            6.192e-010      -5.8714e-006    8.577e-009     
  -1.65           1.0276e-009     -6.3328e-006    1.1507e-008    
  -1.7            1.4807e-009     -6.768e-006     1.4366e-008    
  -1.75           4.122e-010      -7.1858e-006    8.659e-009     
  -1.8            7.179e-010      -7.5927e-006    8.917e-009     
END_DB

BEGIN_DB
 ICCAP_VAR VS         0              
 ICCAP_VAR VB         0.9            
 ICCAP_VAR VD         -1.8           

 #VG              IG              ID              IB             
  0               -1.193e-009     -1.0144e-009    -1.4428e-008   
  -0.05           2.0096e-009     9.686e-010      -1.1561e-008   
  -0.1            -1.2475e-009    1.1706e-009     1.0813e-008    
  -0.15           -1.3563e-009    -1.1986e-009    7.854e-009     
  -0.2            3.64e-011       -1.881e-009     -9.523e-009    
  -0.25           1.1643e-009     -4.98e-011      -1.3984e-008   
  -0.3            1.6631e-009     -1.814e-010     -1.6168e-008   
  -0.35           1.9375e-009     9.45e-010       -1.705e-009    
  -0.4            -1.2496e-009    1.0895e-009     9.895e-009     
  -0.45           -1.271e-009     -1.2891e-009    5.503e-009     
  -0.5            1.657e-010      -1.8316e-009    -9.287e-009    
  -0.55           1.1655e-009     6.83e-011       -1.2626e-008   
  -0.6            1.1628e-009     -1.798e-010     -1.468e-008    
  -0.65           1.562e-009      -4.276e-010     -1.7405e-008   
  -0.7            -2.3744e-009    -1.9775e-009    -2.815e-009    
  -0.75           1.7054e-009     -4.545e-009     -1.5664e-008   
  -0.8            -1.9302e-009    -1.7516e-008    -9.751e-009    
  -0.85           1.3545e-009     -5.5851e-008    -1.5798e-008   
  -0.9            2.3588e-009     -1.5421e-007    -9.203e-009    
  -0.95           6.146e-010      -3.7654e-007    8.488e-009     
  -1              1.0189e-009     -7.7982e-007    1.1329e-008    
  -1.05           -1.2575e-009    -1.3978e-006    -8.737e-009    
  -1.1            -1.25e-009      -2.3045e-006    2.85e-009      
  -1.15           -2.0644e-009    -3.5108e-006    3.512e-009     
  -1.2            1.1652e-009     -5.0766e-006    -1.0457e-008   
  -1.25           1.3876e-009     -6.8986e-006    -1.5243e-008   
  -1.3            1.073e-009      -9.0129e-006    -3.399e-009    
  -1.35           -1.2501e-009    -1.1321e-005    -4.147e-009    
  -1.4            -1.9745e-009    -1.3933e-005    4.627e-009     
  -1.45           1.1608e-009     -1.6866e-005    -9.689e-009    
  -1.5            1.6276e-009     -1.9915e-005    -1.3384e-008   
  -1.55           1.1375e-009     -2.3104e-005    -2.263e-009    
  -1.6            1.0727e-009     -2.6505e-005    -3.359e-009    
  -1.65           1.1436e-009     -3.0082e-005    -7.609e-009    
  -1.7            1.165e-009      -3.3713e-005    -1.1885e-008   
  -1.75           1.2496e-009     -3.7501e-005    -1.6781e-008   
  -1.8            1.0646e-009     -4.1368e-005    -3.098e-009    
END_DB

BEGIN_DB
 ICCAP_VAR VS         0              
 ICCAP_VAR VB         1.8            
 ICCAP_VAR VD         -0.1           

 #VG              IG              ID              IB             
  0               1.1668e-009     9.827e-010      -9.335e-009    
  -0.05           -1.2489e-009    1.0361e-009     9.387e-009     
  -0.1            -1.2183e-009    -1.347e-009     4.34e-009      
  -0.15           1.5563e-009     -2.24e-010      -1.69e-008     
  -0.2            1.9903e-009     9.579e-010      -3.14e-009     
  -0.25           -1.2481e-009    1.1449e-009     1.0541e-008    
  -0.3            -1.3383e-009    -1.2244e-009    7.018e-009     
  -0.35           7.37e-011       -1.8656e-009    -9.521e-009    
  -0.4            1.1664e-009     -7.2e-012       -1.3501e-008   
  -0.45           1.7026e-009     -1.627e-010     -1.5802e-008   
  -0.5            1.924e-009      9.371e-010      -1.48e-009     
  -0.55           -1.2482e-009    1.0685e-009     9.657e-009     
  -0.6            -1.2527e-009    -1.3121e-009    5.15e-009      
  -0.65           1.1027e-009     -1.0958e-009    -1.5508e-008   
  -0.7            1.9345e-009     9.35e-010       -1.0698e-008   
  -0.75           -1.2487e-009    1.0692e-009     8.997e-009     
  -0.8            -2.0911e-009    -1.1389e-009    5.324e-009     
  -0.85           1.1067e-009     -1.5461e-009    -1.5021e-008   
  -0.9            1.1447e-009     -1.7783e-009    -1.0939e-008   
  -0.95           1.1619e-009     -8.8194e-009    -1.1997e-008   
  -1              -2.4011e-009    -3.2593e-008    -1.7353e-008   
  -1.05           1.6183e-009     -9.6092e-008    -1.3601e-008   
  -1.1            -4.93e-010      -2.307e-007     9.744e-009     
  -1.15           1.161e-009      -4.6872e-007    -1.0571e-008   
  -1.2            1.5392e-009     -8.0561e-007    -1.4262e-008   
  -1.25           8.539e-010      -1.2294e-006    1.422e-009     
  -1.3            1.3121e-009     -1.7157e-006    1.3494e-008    
  -1.35           2.926e-010      -2.2337e-006    8.516e-009     
  -1.4            5.815e-010      -2.783e-006     8.541e-009     
  -1.45           9.763e-010      -3.3297e-006    1.0843e-008    
  -1.5            1.429e-009      -3.8613e-006    1.4295e-008    
  -1.55           3.802e-010      -4.3748e-006    8.856e-009     
  -1.6            6.707e-010      -4.8854e-006    8.51e-009      
  -1.65           1.1026e-009     -5.3691e-006    1.2008e-008    
  -1.7            1.5456e-009     -5.827e-006     1.5109e-008    
  -1.75           4.598e-010      -6.2702e-006    8.826e-009     
  -1.8            7.735e-010      -6.6927e-006    8.721e-009     
END_DB

BEGIN_DB
 ICCAP_VAR VS         0              
 ICCAP_VAR VB         1.8            
 ICCAP_VAR VD         -1.8           

 #VG              IG              ID              IB             
  0               -1.4884e-009    6.731e-010      -1.1761e-008   
  -0.05           2.0615e-009     9.793e-010      -1.1915e-008   
  -0.1            -1.2428e-009    1.2158e-009     1.0285e-008    
  -0.15           -1.4045e-009    -1.1617e-009    9.197e-009     
  -0.2            1.1406e-009     -1.1905e-009    -1.1486e-008   
  -0.25           2.0799e-009     9.845e-010      -1.2092e-008   
  -0.3            -1.2439e-009    1.234e-009      1.1489e-008    
  -0.35           -1.42e-009      -1.1508e-009    9.626e-009     
  -0.4            1.8844e-009     9.279e-010      -9.665e-009    
  -0.45           -1.2485e-009    1.0259e-009     9.13e-009      
  -0.5            -1.2046e-009    -1.3631e-009    4.211e-009     
  -0.55           1.581e-009      -2.217e-010     -1.6818e-008   
  -0.6            1.9797e-009     9.522e-010      -3.017e-009    
  -0.65           -1.2448e-009    1.1306e-009     9.438e-009     
  -0.7            -1.3272e-009    -1.2685e-009    6.708e-009     
  -0.75           1.1209e-009     -1.3214e-009    -1.3341e-008   
  -0.8            1.1501e-009     -6.559e-010     -1.1354e-008   
  -0.85           1.1607e-009     -4.0838e-009    -1.2789e-008   
  -0.9            -2.3839e-009    -1.7903e-008    -1.5394e-008   
  -0.95           1.1619e-009     -6.032e-008     -1.1844e-008   
  -1              5.789e-010      -1.7571e-007    -1.4184e-008   
  -1.05           9.598e-010      -4.3218e-007    1.0818e-008    
  -1.1            1.4165e-009     -8.8497e-007    1.4144e-008    
  -1.15           -1.6123e-009    -1.5984e-006    -1.0606e-008   
  -1.2            1.781e-009      -2.6253e-006    -1.2216e-008   
  -1.25           1.2224e-009     -3.9524e-006    -5.44e-010     
  -1.3            1.0623e-009     -5.6014e-006    -3.043e-009    
  -1.35           1.1268e-009     -7.5694e-006    -5.86e-009     
  -1.4            1.1582e-009     -9.7935e-006    -1.1547e-008   
  -1.45           -2.86e-011      -1.2244e-005    6.471e-009     
  -1.5            -4.159e-010     -1.4928e-005    -9.412e-009    
  -1.55           1.1555e-009     -1.7939e-005    -9.207e-009    
  -1.6            1.6725e-009     -2.1007e-005    -1.3021e-008   
  -1.65           1.1578e-009     -2.427e-005     -1.892e-009    
  -1.7            1.068e-009      -2.7684e-005    -3.083e-009    
  -1.75           1.1381e-009     -3.1265e-005    -7.136e-009    
  -1.8            1.153e-009      -3.4931e-005    -1.1902e-008   
END_DB

