! VERSION = 6.00
BEGIN_HEADER
 ICCAP_INPUTS
  VG         V  B GROUND SMU4 0.001 LIN        1    0          -1.8       37   -0.05     
  VS         V  E GROUND SMU2 0.1 CON        0
  VB         V  C GROUND SMU3 0.1 LIN        3    0          1.8        3    0.9       
  VD         V  S GROUND SMU1 0.1 LIN        2    -0.1       -1.8       2    -1.7      
 ICCAP_OUTPUTS
  IG         I  B GROUND SMU4 B
  ID         I  S GROUND SMU1 B
  IB         I  C GROUND SMU3 B
END_HEADER

BEGIN_DB
 ICCAP_VAR VS         0              
 ICCAP_VAR VB         0              
 ICCAP_VAR VD         -0.1           

 #VG              IG              ID              IB             
  0               -1.2508e-009    -1.0868e-009    8.549e-009     
  -0.05           1.1693e-009     -9.08e-011      -1.333e-008    
  -0.1            1.6334e-009     -2.035e-010     -1.6655e-008   
  -0.15           1.2053e-009     1.1946e-009     1.4181e-008    
  -0.2            -2.59e-011      1.678e-009      7.851e-009     
  -0.25           1.451e-010      1.7838e-009     8.973e-009     
  -0.3            2.942e-010      1.8578e-009     8.891e-009     
  -0.35           -1.2692e-009    8.141e-010      8.755e-009     
  -0.4            -1.747e-009     -1.1329e-009    1.891e-009     
  -0.45           1.1688e-009     -1.879e-010     -1.289e-008    
  -0.5            1.6805e-009     -6.759e-010     -1.5972e-008   
  -0.55           -1.2969e-009    -2.4581e-009    1.3958e-008    
  -0.6            -1.2803e-009    -7.4701e-009    2.769e-009     
  -0.65           1.1651e-009     -2.5747e-008    8.716e-009     
  -0.7            1.5439e-009     -9.5025e-008    -1.3411e-008   
  -0.75           -5.33e-010      -2.9798e-007    9.675e-009     
  -0.8            1.0941e-009     -8.8576e-007    -2.2643e-008   
  -0.85           1.1976e-009     -2.163e-006     2.818e-009     
  -0.9            1.956e-010      -4.533e-006     7.913e-009     
  -0.95           4.956e-010      -8.5045e-006    8.614e-009     
  -1              -2.2346e-009    -1.3914e-005    9.032e-009     
  -1.05           -9.65e-011      -2.0863e-005    -9.311e-009    
  -1.1            1.4319e-009     -2.889e-005     -1.4622e-008   
  -1.15           1.1077e-009     -3.7449e-005    -3.555e-009    
  -1.2            1.1095e-009     -4.6266e-005    -4.189e-009    
  -1.25           1.1636e-009     -5.4974e-005    -9.46e-009     
  -1.3            1.6359e-009     -6.3353e-005    -1.2439e-008   
  -1.35           1.4603e-009     -7.13e-005      1.4044e-008    
  -1.4            3.872e-010      -7.8725e-005    8.7e-009       
  -1.45           6.797e-010      -8.5733e-005    8.554e-009     
  -1.5            1.1074e-009     -9.2106e-005    1.1936e-008    
  -1.55           1.5521e-009     -9.7918e-005    1.4771e-008    
  -1.6            4.525e-010      -0.000103375    8.717e-009     
  -1.65           7.676e-010      -0.000108475    9.327e-009     
  -1.7            1.2108e-009     -0.000113098    1.2454e-008    
  -1.75           2.1948e-009     -0.00011733     1.1546e-008    
  -1.8            9.864e-010      -0.0001215      1.1072e-008    
END_DB

BEGIN_DB
 ICCAP_VAR VS         0              
 ICCAP_VAR VB         0              
 ICCAP_VAR VD         -1.8           

 #VG              IG              ID              IB             
  0               -1.2128e-009    -1.071e-009     1.2159e-008    
  -0.05           1.8465e-009     9.35e-010       -8.93e-009     
  -0.1            -1.2619e-009    9.758e-010      8.863e-009     
  -0.15           -1.9332e-009    -1.0921e-009    2.755e-009     
  -0.2            -6.466e-010     -1.8666e-009    -9.309e-009    
  -0.25           1.9855e-009     9.677e-010      -1.052e-008    
  -0.3            -1.2554e-009    1.1463e-009     9.937e-009     
  -0.35           -1.35e-009      -1.2778e-009    6.168e-009     
  -0.4            6.65e-011       -2.052e-009     -9.631e-009    
  -0.45           1.1687e-009     -6.526e-010     -1.2479e-008   
  -0.5            1.7189e-009     -2.5348e-009    -1.5133e-008   
  -0.55           1.134e-009      -7.3762e-009    1.3967e-008    
  -0.6            -2.0754e-009    -3.2104e-008    -1.0355e-008   
  -0.65           2.3828e-009     -1.0588e-007    -8.89e-009     
  -0.7            1.5996e-009     -3.4007e-007    1.5078e-008    
  -0.75           4.764e-010      -9.974e-007     8.63e-009      
  -0.8            -1.5888e-009    -2.5463e-006    -9.715e-009    
  -0.85           1.1685e-009     -5.9546e-006    -1.0738e-008   
  -0.9            -1.031e-010     -1.2006e-005    7.037e-009     
  -0.95           1.4324e-009     -2.2081e-005    -1.4517e-008   
  -1              1.1055e-009     -3.6545e-005    -3.442e-009    
  -1.05           1.1094e-009     -5.6211e-005    -3.973e-009    
  -1.1            1.164e-009      -8.1356e-005    -9.297e-009    
  -1.15           1.6475e-009     -0.000111406    -1.2211e-008   
  -1.2            2.397e-009      -0.00014611     8.923e-009     
  -1.25           6.674e-010      -0.00018679     8.611e-009     
  -1.3            1.0875e-009     -0.00023105     1.0677e-008    
  -1.35           1.5294e-009     -0.00027848     1.5085e-008    
  -1.4            4.402e-010      -0.00032979     9.069e-009     
  -1.45           7.431e-010      -0.00038504     8.877e-009     
  -1.5            1.1772e-009     -0.00044195     1.1066e-008    
  -1.55           1.6044e-009     -0.00050035     1.5808e-008    
  -1.6            4.897e-010      -0.00056202     8.65e-009      
  -1.65           8.251e-010      -0.00062576     9.871e-009     
  -1.7            1.2728e-009     -0.00068995     1.3202e-008    
  -1.75           2.595e-010      -0.00075393     8.353e-009     
  -1.8            5.465e-010      -0.00082224     8.553e-009     
END_DB

BEGIN_DB
 ICCAP_VAR VS         0              
 ICCAP_VAR VB         0.9            
 ICCAP_VAR VD         -0.1           

 #VG              IG              ID              IB             
  0               -1.2134e-009    -1.0701e-009    -1.2238e-008   
  -0.05           1.1573e-009     -1.2237e-009    -1.075e-008    
  -0.1            1.1682e-009     8.01e-011       -1.1605e-008   
  -0.15           1.1633e-009     -1.02e-010      -1.3574e-008   
  -0.2            1.6578e-009     -2.016e-010     -1.6288e-008   
  -0.25           1.1925e-009     1.2092e-009     1.4406e-008    
  -0.3            1.3721e-009     1.0638e-009     1.5938e-008    
  -0.35           1.29e-010       1.7672e-009     8.888e-009     
  -0.4            2.688e-010      1.8511e-009     8.714e-009     
  -0.45           -1.2725e-009    7.916e-010      8.478e-009     
  -0.5            -1.7119e-009    -1.1032e-009    2.125e-009     
  -0.55           1.1695e-009     -1.44e-011      -1.2449e-008   
  -0.6            1.1671e-009     -1.724e-010     -1.4746e-008   
  -0.65           1.5393e-009     -3.504e-010     -1.7698e-008   
  -0.7            -1.2475e-009    8.562e-010      -3.341e-009    
  -0.75           -1.8978e-009    -2.8593e-009    1.0465e-008    
  -0.8            -1.36e-010      -1.04221e-008   -9.746e-009    
  -0.85           1.5466e-009     -3.5532e-008    2.782e-009     
  -0.9            6.842e-010      -1.4652e-007    -1.5955e-008   
  -0.95           1.106e-009      -5.0705e-007    1.2051e-008    
  -1              -1.7563e-009    -1.4303e-006    -1.112e-008    
  -1.05           1.6008e-009     -3.4618e-006    -1.3021e-008   
  -1.1            1.487e-009      -6.9219e-006    1.4238e-008    
  -1.15           -2.4478e-009    -1.2065e-005    8.71e-009      
  -1.2            1.6518e-009     -1.8931e-005    -1.2829e-008   
  -1.25           1.4573e-009     -2.6837e-005    1.4521e-008    
  -1.3            3.812e-010      -3.5396e-005    8.978e-009     
  -1.35           6.629e-010      -4.432e-005     8.318e-009     
  -1.4            1.082e-009      -5.2911e-005    1.0862e-008    
  -1.45           1.5211e-009     -6.0982e-005    1.5073e-008    
  -1.5            4.506e-010      -6.8659e-005    8.747e-009     
  -1.55           7.192e-010      -7.5848e-005    8.921e-009     
  -1.6            1.1607e-009     -8.2375e-005    1.2265e-008    
  -1.65           1.5833e-009     -8.8335e-005    1.5317e-008    
  -1.7            4.704e-010      -9.3976e-005    8.617e-009     
  -1.75           7.81e-010       -9.9198e-005    9.455e-009     
  -1.8            1.2282e-009     -0.000103907    1.2961e-008    
END_DB

BEGIN_DB
 ICCAP_VAR VS         0              
 ICCAP_VAR VB         0.9            
 ICCAP_VAR VD         -1.8           

 #VG              IG              ID              IB             
  0               -1.2159e-009    -1.0814e-009    -1.0955e-008   
  -0.05           1.1325e-009     -1.1625e-009    -1.2921e-008   
  -0.1            1.9681e-009     9.639e-010      -1.0798e-008   
  -0.15           -1.2568e-009    1.1278e-009     9.493e-009     
  -0.2            -1.3083e-009    -1.284e-009     5.336e-009     
  -0.25           1.7455e-009     9.229e-010      -6.735e-009    
  -0.3            -1.2679e-009    8.461e-010      8.576e-009     
  -0.35           -9.649e-010     -1.6191e-009    1.872e-009     
  -0.4            1.1633e-009     -7.06e-011      -1.3027e-008   
  -0.45           1.7005e-009     -1.891e-010     -1.5703e-008   
  -0.5            1.1488e-009     1.2361e-009     1.4219e-008    
  -0.55           1.3371e-009     1.0558e-009     1.5661e-008    
  -0.6            8.64e-011       1.6157e-009     8.677e-009     
  -0.65           -1.283e-009     1.66e-011       9.017e-009     
  -0.7            -1.2724e-009    -3.1333e-009    3.04e-009      
  -0.75           -2.309e-009     -1.3059e-008    -1.2752e-008   
  -0.8            1.1676e-009     -5.1235e-008    -1.0071e-008   
  -0.85           4.114e-010      -1.9625e-007    -1.1301e-008   
  -0.9            6.996e-010      -6.869e-007     8.759e-009     
  -0.95           -1.9719e-009    -1.9903e-006    -1.285e-008    
  -1              1.335e-009      -5.1221e-006    -1.5706e-008   
  -1.05           1.0885e-009     -1.10119e-005   -3.452e-009    
  -1.1            2.611e-010      -2.0957e-005    2.345e-009     
  -1.15           1.1683e-009     -3.5758e-005    -1.0922e-008   
  -1.2            1.3446e-009     -5.5944e-005    -1.5838e-008   
  -1.25           1.0894e-009     -8.1398e-005    -3.367e-009    
  -1.3            1.1178e-009     -0.000112528    -4.372e-009    
  -1.35           -1.2429e-009    -0.00014745     3.075e-009     
  -1.4            -1.5565e-009    -0.00018768     1.1064e-008    
  -1.45           1.1673e-009     -0.00023312     -1.1355e-008   
  -1.5            1.2628e-009     -0.00028136     -1.7178e-008   
  -1.55           1.0825e-009     -0.00033219     -3.2e-009      
  -1.6            1.129e-009      -0.00038665     -5.12e-009     
  -1.65           1.1638e-009     -0.00044294     -1.0499e-008   
  -1.7            1.4853e-009     -0.00050118     -1.4061e-008   
  -1.75           1.1187e-009     -0.00056124     -3.566e-009    
  -1.8            1.098e-009      -0.00062324     -3.731e-009    
END_DB

BEGIN_DB
 ICCAP_VAR VS         0              
 ICCAP_VAR VB         1.8            
 ICCAP_VAR VD         -0.1           

 #VG              IG              ID              IB             
  0               1.1815e-009     1.0353e-009     1.3248e-008    
  -0.05           1.073e-009      1.3231e-009     1.3768e-008    
  -0.1            1.2491e-009     1.156e-009      1.4518e-008    
  -0.15           9.4e-012        1.708e-009      8.378e-009     
  -0.2            1.761e-010      1.7959e-009     8.688e-009     
  -0.25           -1.2726e-009    6.77e-010       8.686e-009     
  -0.3            -1.596e-009     -1.1072e-009    2.795e-009     
  -0.35           2.0474e-009     9.813e-010      -1.1388e-008   
  -0.4            -1.2569e-009    1.2033e-009     1.0342e-008    
  -0.45           -1.3841e-009    -1.2152e-009    7.849e-009     
  -0.5            1.1441e-009     -1.1922e-009    -1.212e-008    
  -0.55           1.9895e-009     9.738e-010      -1.105e-008    
  -0.6            -1.2597e-009    1.1763e-009     1.0895e-008    
  -0.65           -1.3482e-009    -1.2565e-009    6.802e-009     
  -0.7            6.7e-011        -1.9063e-009    -9.604e-009    
  -0.75           1.1701e-009     -7.49e-011      -1.2599e-008   
  -0.8            1.168e-009      -3.955e-010     -1.5086e-008   
  -0.85           1.553e-009      -1.4345e-009    -1.7522e-008   
  -0.9            1.3255e-009     -4.681e-009     -3.208e-009    
  -0.95           -2.3513e-009    -2.6129e-008    -1.396e-008    
  -1              1.1696e-009     -1.0443e-007    -5.843e-009    
  -1.05           1.3021e-009     -3.9436e-007    -1.6856e-008   
  -1.1            1.6496e-009     -1.151e-006     2.323e-009     
  -1.15           5.159e-010      -2.8768e-006    8.563e-009     
  -1.2            8.584e-010      -6.0555e-006    1.0081e-008    
  -1.25           1.2917e-009     -1.08553e-005   1.3687e-008    
  -1.3            -1.4207e-009    -1.7138e-005    1.4692e-008    
  -1.35           1.5819e-009     -2.4981e-005    -1.3589e-008   
  -1.4            1.1445e-009     -3.3362e-005    -3.07e-009     
  -1.45           1.0886e-009     -4.1965e-005    -3.555e-009    
  -1.5            1.1543e-009     -5.0406e-005    -7.777e-009    
  -1.55           1.1693e-009     -5.834e-005     -1.1566e-008   
  -1.6            1.302e-009      -6.5838e-005    -1.6847e-008   
  -1.65           1.0806e-009     -7.2716e-005    -3.308e-009    
  -1.7            1.1261e-009     -7.9143e-005    -4.857e-009    
  -1.75           1.1712e-009     -8.494e-005     -1.0267e-008   
  -1.8            1.5475e-009     -9.0388e-005    -1.3992e-008   
END_DB

BEGIN_DB
 ICCAP_VAR VS         0              
 ICCAP_VAR VB         1.8            
 ICCAP_VAR VD         -1.8           

 #VG              IG              ID              IB             
  0               1.1128e-009     9.221e-010      2.826e-009     
  -0.05           1.0884e-009     1.2974e-009     1.3791e-008    
  -0.1            1.2855e-009     1.1296e-009     1.4739e-008    
  -0.15           3.35e-011       1.7143e-009     8.547e-009     
  -0.2            1.738e-010      1.8142e-009     8.903e-009     
  -0.25           -1.2746e-009    6.955e-010      8.7e-009       
  -0.3            -1.6141e-009    -1.1074e-009    2.8e-009       
  -0.35           2.0591e-009     9.893e-010      -1.157e-008    
  -0.4            -1.2587e-009    1.2172e-009     1.0363e-008    
  -0.45           -1.3947e-009    -1.2027e-009    7.948e-009     
  -0.5            1.1494e-009     -1.1998e-009    -1.1758e-008   
  -0.55           2.0184e-009     9.797e-010      -1.1168e-008   
  -0.6            -1.2602e-009    1.1782e-009     1.0857e-008    
  -0.65           -1.3557e-009    -1.2529e-009    6.78e-009      
  -0.7            5.56e-011       -1.9877e-009    -9.663e-009    
  -0.75           1.1684e-009     -4.552e-010     -1.3005e-008   
  -0.8            1.7605e-009     -2.2728e-009    -1.51e-008     
  -0.85           -1.2615e-009    -1.0709e-008    3.062e-009     
  -0.9            -1.8555e-009    -4.5092e-008    5.63e-009      
  -0.95           4.022e-010      -1.8387e-007    -1.1117e-008   
  -1              6.746e-010      -6.7313e-007    8.496e-009     
  -1.05           -1.8083e-009    -2.0003e-006    -1.1623e-008   
  -1.1            1.5254e-009     -5.1843e-006    -1.3875e-008   
  -1.15           1.2468e-009     -1.1157e-005    -3.156e-009    
  -1.2            -1.2678e-009    -2.1025e-005    3.025e-009     
  -1.25           -1.2481e-009    -3.5906e-005    2.854e-009     
  -1.3            -1.5654e-009    -5.6285e-005    1.0859e-008    
  -1.35           1.1575e-009     -8.2609e-005    -1.1639e-008   
  -1.4            1.2685e-009     -0.000113871    -1.7234e-008   
  -1.45           1.7703e-009     -0.00014916     1.4229e-008    
  -1.5            1.3421e-009     -0.00018985     1.3669e-008    
  -1.55           3.006e-010      -0.00023323     8.708e-009     
  -1.6            5.686e-010      -0.00028157     8.481e-009     
  -1.65           9.505e-010      -0.00033266     1.074e-008     
  -1.7            1.3932e-009     -0.0003853      1.3827e-008    
  -1.75           3.314e-010      -0.0004401      8.749e-009     
  -1.8            6.148e-010      -0.00049873     8.49e-009      
END_DB

