! VERSION = 6.00
BEGIN_HEADER
 ICCAP_INPUTS
  VG         V  B GROUND SMU4 0.001 LIN        2    0          -1.8       6    -0.36     
  VS         V  E GROUND SMU2 0.1 CON        0
  VD         V  S GROUND SMU1 0.1 LIN        1    0          -1.8       37   -0.05     
  VB         V  C GROUND SMU3 0.1 LIN        3    0          0.9        2    0.9       
 ICCAP_OUTPUTS
  ID         I  S GROUND SMU1 B
  IB         I  C GROUND SMU3 B
  IG         I  B GROUND SMU4 B
END_HEADER

BEGIN_DB
 ICCAP_VAR VG         0              
 ICCAP_VAR VS         0              
 ICCAP_VAR VB         0              

 #VD              ID              IB              IG             
  0               -1.0384e-009    -1.2745e-008    -1.2078e-009   
  -0.05           9.212e-010      -8.545e-009     1.8173e-009    
  -0.1            9.224e-010      8.756e-009      -1.2511e-009   
  -0.15           -1.4643e-009    2.45e-009       -1.0617e-009   
  -0.2            -1.199e-010     -1.4559e-008    1.1644e-009    
  -0.25           -2.308e-010     -1.7234e-008    1.5194e-009    
  -0.3            9.606e-010      -2.953e-009     1.9745e-009    
  -0.35           1.1256e-009     9.433e-009      -1.2442e-009   
  -0.4            -1.232e-009     5.891e-009      -1.2959e-009   
  -0.45           9.184e-010      -7.011e-009     1.75e-009      
  -0.5            8.565e-010      8.801e-009      -1.2556e-009   
  -0.55           -1.5452e-009    2.047e-009      -9.71e-010     
  -0.6            -5.85e-011      -1.3618e-008    1.1635e-009    
  -0.65           -1.71e-010      -1.5985e-008    1.6235e-009    
  -0.7            9.477e-010      -1.798e-009     1.9264e-009    
  -0.75           1.0662e-009     9.735e-009      -1.2475e-009   
  -0.8            -1.2904e-009    4.607e-009      -1.2351e-009   
  -0.85           -1.7938e-009    -9.097e-009     2.145e-010     
  -0.9            -1.8711e-009    -9.422e-009     2.81e-011      
  -0.95           -3.42e-011      -1.3163e-008    1.1617e-009    
  -1              -1.683e-010     -1.5718e-008    1.6606e-009    
  -1.05           9.435e-010      -1.444e-009     1.9126e-009    
  -1.1            1.0495e-009     8.932e-009      -1.2463e-009   
  -1.15           -1.3129e-009    4.287e-009      -1.2177e-009   
  -1.2            -2.172e-010     -1.6964e-008    1.541e-009     
  -1.25           9.577e-010      -2.751e-009     1.963e-009     
  -1.3            1.1128e-009     1.0293e-008     -1.2447e-009   
  -1.35           -1.2391e-009    5.559e-009      -1.2873e-009   
  -1.4            -1.8225e-009    -9.261e-009     1.412e-010     
  -1.45           6.75e-011       -1.2102e-008    1.1609e-009    
  -1.5            -9.3e-011       -1.4194e-008    1.1656e-009    
  -1.55           -1.996e-010     -1.69e-008      1.564e-009     
  -1.6            9.523e-010      -2.43e-009      1.9503e-009    
  -1.65           1.0932e-009     1.0246e-008     -1.2459e-009   
  -1.7            -1.2569e-009    5.162e-009      -1.2677e-009   
  -1.75           -1.8172e-009    -9.21e-009      1.774e-010     
  -1.8            9.914e-010      -1.1846e-008    2.0963e-009    
END_DB

BEGIN_DB
 ICCAP_VAR VG         -0.36          
 ICCAP_VAR VS         0              
 ICCAP_VAR VB         0              

 #VD              ID              IB              IG             
  0               -1.1697e-009    -3.402e-009     -1.2572e-009   
  -0.05           -1.7442e-009    -8.781e-009     1.0823e-009    
  -0.1            9.115e-010      -8.865e-009     1.8262e-009    
  -0.15           9.442e-010      8.667e-009      -1.2506e-009   
  -0.2            -1.4656e-009    2.594e-009      -1.089e-009    
  -0.25           -1.437e-010     -1.4915e-008    1.7405e-009    
  -0.3            9.229e-010      -5.17e-010      1.8813e-009    
  -0.35           1.0103e-009     9.149e-009      -1.2503e-009   
  -0.4            -1.382e-009     3.707e-009      -1.1685e-009   
  -0.45           -1.927e-010     -1.5948e-008    1.6285e-009    
  -0.5            9.361e-010      -2.003e-009     1.9353e-009    
  -0.55           1.0698e-009     9.802e-009      -1.2504e-009   
  -0.6            -1.3108e-009    4.93e-009       -1.2441e-009   
  -0.65           -1.8115e-009    -9.161e-009     2.173e-010     
  -0.7            -1.8854e-009    -9.63e-009      2.37e-011      
  -0.75           -3.37e-011      -1.4219e-008    1.1683e-009    
  -0.8            -2.001e-010     -1.5419e-008    1.6897e-009    
  -0.85           1.2237e-009     1.4239e-008     1.1471e-009    
  -0.9            1.0637e-009     1.5166e-008     1.3309e-009    
  -0.95           1.7361e-009     8.483e-009      7.01e-011      
  -1              1.799e-009      8.976e-009      2.313e-010     
  -1.05           7.367e-010      8.722e-009      -1.2521e-009   
  -1.1            -1.0735e-009    2.515e-009      -1.6635e-009   
  -1.15           6.22e-011       -1.2548e-008    1.1689e-009    
  -1.2            -1.1e-010       -1.4608e-008    1.1667e-009    
  -1.25           -2.171e-010     -1.681e-008     1.5998e-009    
  -1.3            9.327e-010      -2.238e-009     1.9496e-009    
  -1.35           1.0867e-009     9.884e-009      -1.2492e-009   
  -1.4            -1.2943e-009    5.448e-009      -1.266e-009    
  -1.45           -1.8319e-009    -9.272e-009     1.769e-010     
  -1.5            8.12e-011       -1.2321e-008    1.1683e-009    
  -1.55           -9.22e-011      -1.43e-008      1.166e-009     
  -1.6            -2.073e-010     -1.6319e-008    1.64e-009      
  -1.65           1.1813e-009     1.414e-008      1.1852e-009    
  -1.7            1.0342e-009     1.5508e-008     1.3631e-009    
  -1.75           1.752e-009      8.72e-009       1.089e-010     
  -1.8            1.7985e-009     8.95e-009       2.588e-010     
END_DB

BEGIN_DB
 ICCAP_VAR VG         -0.72          
 ICCAP_VAR VS         0              
 ICCAP_VAR VB         0              

 #VD              ID              IB              IG             
  0               -1.0018e-009    9.2e-009        -1.2462e-009   
  -0.05           -3.0515e-008    1.324e-008      1.0861e-009    
  -0.1            -4.2175e-008    -1.2647e-008    1.159e-009     
  -0.15           -4.651e-008     -1.8598e-008    1.2003e-009    
  -0.2            -5.1568e-008    -1.6746e-008    1.1356e-009    
  -0.25           -5.3951e-008    -1.581e-008     1.4043e-009    
  -0.3            -5.716e-008     -1.4677e-008    1.5296e-009    
  -0.35           -6.012e-008     -1.3187e-008    1.6675e-009    
  -0.4            -6.2919e-008    -1.211e-008     1.1536e-009    
  -0.45           -6.7183e-008    -1.0582e-008    1.1581e-009    
  -0.5            -7.0266e-008    -1.1839e-008    1.1622e-009    
  -0.55           -7.2665e-008    -1.3298e-008    1.1575e-009    
  -0.6            -7.4282e-008    -1.8584e-008    1.2238e-009    
  -0.65           -7.6923e-008    -1.66e-008      1.3359e-009    
  -0.7            -7.945e-008     -1.5353e-008    1.4551e-009    
  -0.75           -8.1886e-008    -1.4119e-008    1.5677e-009    
  -0.8            -8.4618e-008    -1.2687e-008    1.7e-009       
  -0.85           -8.6764e-008    -1.164e-008     1.1645e-009    
  -0.9            -9.105e-008     -1.103e-008     1.1635e-009    
  -0.95           -9.2551e-008    -9.27e-009      -1.321e-010    
  -1              -9.3859e-008    7.326e-009      -1.7674e-009   
  -1.05           -9.5227e-008    1.1335e-008     1.0336e-009    
  -1.1            -9.9235e-008    -5.442e-009     1.1174e-009    
  -1.15           -1.02893e-007   -1.472e-008     1.5259e-009    
  -1.2            -1.05215e-007   -1.3298e-008    1.6541e-009    
  -1.25           -1.07713e-007   -1.2121e-008    1.7832e-009    
  -1.3            -1.10133e-007   -1.1241e-008    1.1638e-009    
  -1.35           -1.1013e-007    -1.1563e-008    4.046e-010     
  -1.4            -1.1427e-007    -3.142e-009     1.0557e-009    
  -1.45           -1.1866e-007    -1.4237e-008    1.5782e-009    
  -1.5            -1.2166e-007    -1.7717e-008    1.2502e-009    
  -1.55           -1.2546e-007    -1.1117e-008    1.161e-009     
  -1.6            -1.2649e-007    -1.1938e-008    1.153e-009     
  -1.65           -1.295e-007     -1.3781e-008    1.6124e-009    
  -1.7            -1.3266e-007    -1.7331e-008    1.2836e-009    
  -1.75           -1.3668e-007    -1.1581e-008    1.1642e-009    
  -1.8            -1.3755e-007    -1.1624e-008    1.162e-009     
END_DB

BEGIN_DB
 ICCAP_VAR VG         -1.08          
 ICCAP_VAR VS         0              
 ICCAP_VAR VB         0              

 #VD              ID              IB              IG             
  0               -1.102e-009     1.0882e-008     2.312e-010     
  -0.05           -1.1279e-006    -3.142e-009     -9.923e-010    
  -0.1            -1.9652e-006    2.256e-009      -1.2484e-009   
  -0.15           -2.5791e-006    1.1725e-008     1.0566e-009    
  -0.2            -2.9886e-006    -9.848e-009     1.1612e-009    
  -0.25           -3.278e-006     -1.0376e-008    1.1636e-009    
  -0.3            -3.4831e-006    -1.1278e-008    1.165e-009     
  -0.35           -3.6478e-006    -1.1305e-008    1.1647e-009    
  -0.4            -3.785e-006     -1.1457e-008    1.1635e-009    
  -0.45           -3.9049e-006    -1.165e-008     1.1655e-009    
  -0.5            -4.0134e-006    -1.1655e-008    1.1634e-009    
  -0.55           -4.1107e-006    -1.189e-008     1.1635e-009    
  -0.6            -4.2069e-006    -1.1974e-008    1.7807e-009    
  -0.65           -4.2943e-006    -1.3385e-008    1.5629e-009    
  -0.7            -4.3848e-006    -1.5138e-008    1.373e-009     
  -0.75           -4.4624e-006    -5.876e-009     1.1296e-009    
  -0.8            -4.5368e-006    -1.4612e-008    1.1493e-009    
  -0.85           -4.6177e-006    -1.1667e-008    1.1609e-009    
  -0.9            -4.6926e-006    -9.825e-009     1.1621e-009    
  -0.95           -4.7271e-006    -9.631e-009     -3.916e-010    
  -1              -4.7907e-006    1.427e-009      -1.2575e-009   
  -1.05           -4.888e-006     8.834e-009      5.32e-010      
  -1.1            -4.9566e-006    -3.27e-009      1.0702e-009    
  -1.15           -4.979e-006     -8.788e-009     -6.762e-010    
  -1.2            -5.0473e-006    2.718e-009      -1.2529e-009   
  -1.25           -5.1605e-006    8.745e-009      7.821e-010     
  -1.3            -5.2205e-006    -5.339e-009     1.122e-009     
  -1.35           -5.2796e-006    -1.709e-008     1.2242e-009    
  -1.4            -5.3312e-006    -1.2261e-008    1.1591e-009    
  -1.45           -5.3916e-006    -1.0259e-008    1.1629e-009    
  -1.5            -5.4551e-006    -1.0602e-008    1.1624e-009    
  -1.55           -5.511e-006     -1.0582e-008    1.1629e-009    
  -1.6            -5.5808e-006    -1.0914e-008    1.1643e-009    
  -1.65           -5.6416e-006    -1.0998e-008    1.1627e-009    
  -1.7            -5.6923e-006    -1.1133e-008    1.165e-009     
  -1.75           -5.7514e-006    -1.1269e-008    1.1639e-009    
  -1.8            -5.81e-006      -1.1328e-008    1.1633e-009    
END_DB

BEGIN_DB
 ICCAP_VAR VG         -1.44          
 ICCAP_VAR VS         0              
 ICCAP_VAR VB         0              

 #VD              ID              IB              IG             
  0               -1.892e-009     -1.6344e-008    -1.2482e-009   
  -0.05           -3.0392e-006    8.604e-009      1.161e-009     
  -0.1            -5.7797e-006    -1.0194e-008    1.1639e-009    
  -0.15           -8.2116e-006    -1.0435e-008    1.1625e-009    
  -0.2            -1.034e-005     -1.0672e-008    1.1627e-009    
  -0.25           -1.2142e-005    -9.547e-009     2.2881e-009    
  -0.3            -1.3716e-005    -6.714e-009     1.1339e-009    
  -0.35           -1.4974e-005    -9.654e-009     -3.48e-010     
  -0.4            -1.6025e-005    2.823e-009      -1.2521e-009   
  -0.45           -1.6975e-005    1.205e-008      1.184e-009     
  -0.5            -1.7692e-005    -1.3842e-008    1.5247e-009    
  -0.55           -1.8312e-005    -1.0623e-008    1.1611e-009    
  -0.6            -1.882e-005     -1.4595e-008    1.4558e-009    
  -0.65           -1.9266e-005    -1.0494e-008    1.1601e-009    
  -0.7            -1.958e-005     -9.103e-009     -5.834e-010    
  -0.75           -1.9934e-005    2.256e-009      -1.247e-009    
  -0.8            -2.0324e-005    1.4353e-008     1.4561e-009    
  -0.85           -2.065e-005     -1.7312e-008    1.2231e-009    
  -0.9            -2.0921e-005    -1.1607e-008    1.1556e-009    
  -0.95           -2.1094e-005    -8.716e-009     -8.123e-010    
  -1              -2.1373e-005    2.873e-009      -1.2368e-009   
  -1.05           -2.1684e-005    8.799e-009      5.71e-010      
  -1.1            -2.1925e-005    -7.336e-009     1.1419e-009    
  -1.15           -2.2159e-005    -1.1453e-008    1.1626e-009    
  -1.2            -2.2356e-005    -1.578e-008     1.3364e-009    
  -1.25           -2.2572e-005    -1.1242e-008    1.1636e-009    
  -1.3            -2.2782e-005    -1.4571e-008    1.4367e-009    
  -1.35           -2.2973e-005    -1.0515e-008    1.1631e-009    
  -1.4            -2.315e-005     -1.3863e-008    1.5436e-009    
  -1.45           -2.3374e-005    -1.0799e-008    1.1623e-009    
  -1.5            -2.3545e-005    -1.4276e-008    1.4788e-009    
  -1.55           -2.3719e-005    -1.0292e-008    1.1617e-009    
  -1.6            -2.3884e-005    -1.3231e-008    1.5854e-009    
  -1.65           -2.403e-005     -9.475e-009     -2.746e-010    
  -1.7            -2.4167e-005    2.418e-009      -1.2517e-009   
  -1.75           -2.4446e-005    1.1807e-008     1.0739e-009    
  -1.8            -2.4602e-005    -1.0507e-008    1.1652e-009    
END_DB

BEGIN_DB
 ICCAP_VAR VG         -1.8           
 ICCAP_VAR VS         0              
 ICCAP_VAR VB         0              

 #VD              ID              IB              IG             
  0               -1.1783e-008    1.3503e-008     9.92e-011      
  -0.05           -4.5572e-006    -1.6258e-008    -2.1742e-009   
  -0.1            -8.8799e-006    7.164e-009      1.313e-010     
  -0.15           -1.2947e-005    -1.2951e-008    1.973e-010     
  -0.2            -1.6774e-005    -3.145e-009     1.0607e-009    
  -0.25           -2.0326e-005    -1.6659e-008    1.2907e-009    
  -0.3            -2.3588e-005    -9.422e-009     -4.772e-010    
  -0.35           -2.6576e-005    2.78e-009       -1.2483e-009   
  -0.4            -2.9339e-005    1.3959e-008     1.3459e-009    
  -0.45           -3.1794e-005    -1.5872e-008    1.3464e-009    
  -0.5            -3.3941e-005    -9.491e-009     -4.269e-010    
  -0.55           -3.5877e-005    3.04e-009       -1.2468e-009   
  -0.6            -3.7633e-005    1.3379e-008     1.2915e-009    
  -0.65           -3.9133e-005    -1.5133e-008    1.4119e-009    
  -0.7            -4.04e-005      -9.662e-009     -3.857e-010    
  -0.75           -4.1528e-005    2.929e-009      -1.2476e-009   
  -0.8            -4.2617e-005    1.2626e-008     1.2386e-009    
  -0.85           -4.35e-005      -1.4534e-008    1.4737e-009    
  -0.9            -4.4304e-005    -1.0328e-008    1.1637e-009    
  -0.95           -4.5007e-005    -1.3805e-008    1.5753e-009    
  -1              -4.5673e-005    -1.1312e-008    1.1644e-009    
  -1.05           -4.6251e-005    -1.4433e-008    1.5129e-009    
  -1.1            -4.6816e-005    -1.0828e-008    1.1632e-009    
  -1.15           -4.7311e-005    -1.5065e-008    1.4582e-009    
  -1.2            -4.7823e-005    -1.0739e-008    1.164e-009     
  -1.25           -4.8233e-005    -1.3896e-008    1.5556e-009    
  -1.3            -4.8676e-005    -1.1107e-008    1.1647e-009    
  -1.35           -4.9064e-005    -1.4494e-008    1.4965e-009    
  -1.4            -4.95e-005      -1.0573e-008    1.1609e-009    
  -1.45           -4.9821e-005    -1.5116e-008    1.4303e-009    
  -1.5            -5.0137e-005    -9.656e-009     -3.715e-010    
  -1.55           -5.0451e-005    2.9e-009        -1.2476e-009   
  -1.6            -5.0901e-005    1.2562e-008     1.2207e-009    
  -1.65           -5.1233e-005    -1.4419e-008    1.5001e-009    
  -1.7            -5.1547e-005    -1.0688e-008    1.1632e-009    
  -1.75           -5.185e-005     -1.508e-008     1.4381e-009    
  -1.8            -5.217e-005     -1.0804e-008    1.1626e-009    
END_DB

BEGIN_DB
 ICCAP_VAR VG         0              
 ICCAP_VAR VS         0              
 ICCAP_VAR VB         0.9            

 #VD              ID              IB              IG             
  0               4.712e-010      2.925e-009      -1.2845e-009   
  -0.05           -1.313e-010     -1.5093e-008    1.7587e-009    
  -0.1            9.312e-010      -4.94e-010      1.8897e-009    
  -0.15           1.0179e-009     8.723e-009      -1.251e-009    
  -0.2            -1.366e-009     4.034e-009      -1.1885e-009   
  -0.25           -1.7716e-009    -8.873e-009     2.753e-010     
  -0.3            -1.8556e-009    -9.571e-009     7.51e-011      
  -0.35           1.18e-011       -1.3382e-008    1.1671e-009    
  -0.4            -1.44e-010      -1.5394e-008    1.7251e-009    
  -0.45           1.2594e-009     1.4233e-008     1.1235e-009    
  -0.5            1.0884e-009     1.4784e-008     1.3043e-009    
  -0.55           1.728e-009      8.707e-009      8.85e-011      
  -0.6            1.8321e-009     9.198e-009      2.032e-010     
  -0.65           7.568e-010      8.834e-009      -1.2525e-009   
  -0.7            -1.6711e-009    2.413e-009      -8.548e-010    
  -0.75           5.92e-011       -1.2725e-008    1.1645e-009    
  -0.8            -1.143e-010     -1.4763e-008    1.1555e-009    
  -0.85           -2.251e-010     -1.7078e-008    1.5456e-009    
  -0.9            9.596e-010      -3.031e-009     1.9889e-009    
  -0.95           1.1321e-009     9.534e-009      -1.2494e-009   
  -1              -1.23e-009      6.48e-009       -1.3227e-009   
  -1.05           -1.1329e-009    -1.3421e-008    1.1227e-009    
  -1.1            9.574e-010      -1.116e-008     1.9783e-009    
  -1.15           1.1287e-009     9.561e-009      -1.2486e-009   
  -1.2            -1.2397e-009    6.458e-009      -1.3154e-009   
  -1.25           -1.1275e-009    -1.345e-008     1.1213e-009    
  -1.3            9.567e-010      -1.1251e-008    1.9719e-009    
  -1.35           1.1253e-009     9.473e-009      -1.2498e-009   
  -1.4            -1.2421e-009    6.3e-009        -1.3086e-009   
  -1.45           9.099e-010      -6.971e-009     1.7623e-009    
  -1.5            8.758e-010      8.746e-009      -1.2492e-009   
  -1.55           -1.5333e-009    1.957e-009      -1.0136e-009   
  -1.6            -9.3e-011       -1.4322e-008    1.1654e-009    
  -1.65           -2.058e-010     -1.6612e-008    1.5829e-009    
  -1.7            9.555e-010      -2.69e-009      1.9671e-009    
  -1.75           1.1153e-009     1.0279e-008     -1.2495e-009   
  -1.8            -1.2558e-009    6.116e-009      -1.3025e-009   
END_DB

BEGIN_DB
 ICCAP_VAR VG         -0.36          
 ICCAP_VAR VS         0              
 ICCAP_VAR VB         0.9            

 #VD              ID              IB              IG             
  0               1.0366e-009     8.15e-009       1.149e-009     
  -0.05           9.19e-010       1.137e-009      1.8259e-009    
  -0.1            9.514e-010      8.552e-009      -1.2518e-009   
  -0.15           -1.4403e-009    2.855e-009      -1.1097e-009   
  -0.2            -1.556e-010     -1.5316e-008    1.7001e-009    
  -0.25           9.382e-010      -1.308e-009     1.9119e-009    
  -0.3            1.0522e-009     9.56e-009       -1.2485e-009   
  -0.35           -1.3079e-009    4.854e-009      -1.2314e-009   
  -0.4            -1.8031e-009    -9.164e-009     2.124e-010     
  -0.45           -1.8762e-009    -9.49e-009      1.35e-011      
  -0.5            -5.99e-011      -1.3795e-008    1.1631e-009    
  -0.55           -1.885e-010     -1.6162e-008    1.6275e-009    
