! VERSION = 6.00
BEGIN_HEADER
 ICCAP_INPUTS
  VG         V  B GROUND SMU4 0.001 LIN        2    0          -1.8       6    -0.36     
  VS         V  E GROUND SMU2 0.1 CON        0
  VD         V  S GROUND SMU1 0.1 LIN        1    0          -1.8       37   -0.05     
  VB         V  C GROUND SMU3 0.1 LIN        3    0          0.9        2    0.9       
 ICCAP_OUTPUTS
  ID         I  S GROUND SMU1 B
  IB         I  C GROUND SMU3 B
  IG         I  B GROUND SMU4 B
END_HEADER

BEGIN_DB
 ICCAP_VAR VG         0              
 ICCAP_VAR VS         0              
 ICCAP_VAR VB         0              

 #VD              ID              IB              IG             
  0               -1.2153e-009    1.0145e-008     -1.3351e-009   
  -0.05           -1.6817e-009    -1.2735e-008    1.5904e-009    
  -0.1            2.3362e-009     -8.781e-009     8.084e-010     
  -0.15           2.303e-009      9.065e-009      9.677e-010     
  -0.2            2.2112e-009     1.0249e-008     1.1232e-009    
  -0.25           2.044e-009      1.1464e-008     1.2923e-009    
  -0.3            1.8182e-009     1.1968e-008     1.4799e-009    
  -0.35           2.0769e-009     1.0417e-008     5.54e-011      
  -0.4            2.1797e-009     1.0402e-008     2.601e-010     
  -0.45           2.2582e-009     1.0448e-008     4.535e-010     
  -0.5            2.3199e-009     9.966e-009      6.56e-010      
  -0.55           2.3392e-009     9.485e-009      8.29e-010      
  -0.6            2.301e-009      8.934e-009      9.903e-010     
  -0.65           2.196e-009      9.532e-009      1.1443e-009    
  -0.7            2.0146e-009     1.0541e-008     1.3181e-009    
  -0.75           1.7769e-009     1.1823e-008     1.4967e-009    
  -0.8            2.0885e-009     1.0476e-008     8.63e-011      
  -0.85           2.1875e-009     1.0409e-008     2.844e-010     
  -0.9            2.2621e-009     1.0192e-008     4.857e-010     
  -0.95           2.3245e-009     9.447e-009      6.793e-010     
  -1              2.3384e-009     9.243e-009      8.498e-010     
  -1.05           2.2925e-009     9.136e-009      1.0068e-009    
  -1.1            2.1738e-009     1.0767e-008     1.1669e-009    
  -1.15           1.9787e-009     1.1637e-008     1.3383e-009    
  -1.2            1.7344e-009     1.1849e-008     1.5272e-009    
  -1.25           1.9914e-009     1.2251e-008     -1.372e-010    
  -1.3            9.542e-010      2.6618e-008     -1.4761e-009   
  -1.35           -1.3385e-009    7.958e-009      -1.8069e-009   
  -1.4            -2.2083e-009    -1.0901e-008    -4.877e-010    
  -1.45           -1.4385e-009    -2.0643e-008    2.2627e-009    
  -1.5            2.0391e-009     -3.875e-009     1.2763e-009    
  -1.55           1.9914e-009     1.0886e-008     -1.335e-010    
  -1.6            9.566e-010      2.6329e-008     -1.4815e-009   
  -1.65           -1.3443e-009    7.961e-009      -1.8114e-009   
  -1.7            -2.209e-009     -1.0908e-008    -4.952e-010    
  -1.75           -1.4416e-009    -2.0501e-008    2.2552e-009    
  -1.8            2.0339e-009     -3.952e-009     1.2752e-009    
END_DB

BEGIN_DB
 ICCAP_VAR VG         -0.36          
 ICCAP_VAR VS         0              
 ICCAP_VAR VB         0              

 #VD              ID              IB              IG             
  0               8.037e-010      -1.2734e-008    8.121e-010     
  -0.05           2.3314e-009     -8.769e-009     8.901e-010     
  -0.1            2.2462e-009     9.092e-009      1.042e-009     
  -0.15           2.098e-009      9.838e-009      1.1985e-009    
  -0.2            1.9374e-009     1.0907e-008     -2.073e-010    
  -0.25           8.787e-010      2.5868e-008     -1.5315e-009   
  -0.3            -1.4254e-009    7.017e-009      -1.7518e-009   
  -0.35           -2.2088e-009    -1.0879e-008    -3.891e-010    
  -0.4            -1.3995e-009    -2.2498e-008    2.3999e-009    
  -0.45           2.1092e-009     -2.896e-009     1.1901e-009    
  -0.5            1.9252e-009     1.0892e-008     -2.161e-010    
  -0.55           8.669e-010      2.5841e-008     -1.5305e-009   
  -0.6            -1.4339e-009    6.875e-009      -1.7446e-009   
  -0.65           -2.2157e-009    -1.0753e-008    -3.8e-010      
  -0.7            -1.3975e-009    -2.2568e-008    2.4094e-009    
  -0.75           2.1125e-009     -2.744e-009     1.188e-009     
  -0.8            1.9156e-009     1.0962e-008     -2.173e-010    
  -0.85           8.523e-010      2.5692e-008     -1.5362e-009   
  -0.9            -1.4534e-009    6.881e-009      -1.7363e-009   
  -0.95           -2.2241e-009    -1.0868e-008    -3.677e-010    
  -1              -1.4062e-009    -2.2652e-008    2.4286e-009    
  -1.05           2.1076e-009     -2.592e-009     1.18e-009      
  -1.1            1.8996e-009     1.094e-008      -2.254e-010    
  -1.15           8.319e-010      2.547e-008      -1.5438e-009   
  -1.2            -1.4766e-009    6.692e-009      -1.7326e-009   
  -1.25           -2.2359e-009    -1.086e-008     -3.626e-010    
  -1.3            -1.4164e-009    -2.2832e-008    2.4316e-009    
  -1.35           2.0943e-009     -2.696e-009     1.173e-009     
  -1.4            1.8758e-009     1.0956e-008     -2.357e-010    
  -1.45           8.127e-010      2.5401e-008     -1.5492e-009   
  -1.5            -1.5047e-009    6.593e-009      -1.7254e-009   
  -1.55           -1.6522e-009    -1.64e-008      1.947e-009     
  -1.6            2.2072e-009     -7.108e-009     5.43e-010      
  -1.65           2.2646e-009     9.78e-009       7.273e-010     
  -1.7            2.2467e-009     9.337e-009      8.983e-010     
  -1.75           2.1713e-009     9.148e-009      1.0498e-009    
  -1.8            1.5923e-009     9.859e-009      -1.6107e-009   
END_DB

BEGIN_DB
 ICCAP_VAR VG         -0.72          
 ICCAP_VAR VS         0              
 ICCAP_VAR VB         0              

 #VD              ID              IB              IG             
  0               3.956e-010      -1.3713e-008    8.551e-010     
  -0.05           -5.3543e-008    -1.1217e-008    -1.3374e-009   
  -0.1            -7.2833e-008    9.288e-009      1.0352e-009    
  -0.15           -8.6982e-008    -2.1178e-008    1.4671e-009    
  -0.2            -9.4017e-008    -1.1024e-008    -5.142e-010    
  -0.25           -9.7072e-008    1.1281e-008     -2.1402e-009   
  -0.3            -1.00882e-007   1.1049e-008     1.474e-009     
  -0.35           -1.09024e-007   -2.6838e-008    2.4535e-009    
  -0.4            -1.13953e-007   -1.1926e-008    1.698e-010     
  -0.45           -1.1405e-007    -2.5733e-008    1.6483e-009    
  -0.5            -1.2244e-007    -1.6495e-008    1.5933e-009    
  -0.55           -1.2486e-007    -1.077e-008     -7.928e-010    
  -0.6            -1.2651e-007    2.3072e-008     -1.4457e-009   
  -0.65           -1.2955e-007    9.57e-009       9.072e-010     
  -0.7            -1.3765e-007    -2.5162e-008    1.3151e-009    
  -0.75           -1.4162e-007    -2.6683e-008    2.3955e-009    
  -0.8            -1.4583e-007    -2.5085e-008    2.1523e-009    
  -0.85           -1.4996e-007    -2.1903e-008    1.8936e-009    
  -0.9            -1.5285e-007    -1.107e-008     -5.837e-010    
  -0.95           -1.5405e-007    1.9695e-008     -1.573e-009    
  -1              -1.5706e-007    1.0425e-008     7.258e-010     
  -1.05           -1.6593e-007    -2.185e-008     1.4454e-009    
  -1.1            -1.7063e-007    -2.584e-008     1.2836e-009    
  -1.15           -1.7463e-007    -2.5976e-008    2.2659e-009    
  -1.2            -1.7852e-007    -1.1233e-008    -3.222e-010    
  -1.25           -1.7929e-007    1.4708e-008     -1.8306e-009   
  -1.3            -1.8331e-007    1.1743e-008     2.0721e-009    
  -1.35           -1.9187e-007    -1.8886e-008    1.7274e-009    
  -1.4            -1.9512e-007    -1.1016e-008    -7.12e-010     
  -1.45           -1.9669e-007    2.1631e-008     -1.4884e-009   
  -1.5            -2.0105e-007    9.835e-009      8.253e-010     
  -1.55           -2.1087e-007    -2.3945e-008    1.3683e-009    
  -1.6            -2.1552e-007    -2.6744e-008    2.5121e-009    
  -1.65           -2.2055e-007    -2.6037e-008    2.2873e-009    
  -1.7            -2.2525e-007    -2.3515e-008    2.0393e-009    
  -1.75           -2.2888e-007    -1.0927e-008    -4.904e-010    
  -1.8            -2.3043e-007    1.7845e-008     -1.658e-009    
END_DB

BEGIN_DB
 ICCAP_VAR VG         -1.08          
 ICCAP_VAR VS         0              
 ICCAP_VAR VB         0              

 #VD              ID              IB              IG             
  0               1.8447e-009     -2.5109e-008    -7.047e-010    
  -0.05           -1.3101e-006    -2.583e-009     -9.017e-010    
  -0.1            -2.2983e-006    2.337e-008      -1.4434e-009   
  -0.15           -3.0514e-006    1.0091e-008     8.068e-010     
  -0.2            -3.6004e-006    -2.1017e-008    1.4857e-009    
  -0.25           -3.9774e-006    -1.0937e-008    -7.727e-010    
  -0.3            -4.2605e-006    2.065e-008      -1.5343e-009   
  -0.35           -4.5068e-006    1.0802e-008     6.524e-010     
  -0.4            -4.7258e-006    -1.9373e-008    1.6917e-009    
  -0.45           -4.8605e-006    -1.124e-008     -6.069e-010    
  -0.5            -4.987e-006     1.7521e-008     -1.6845e-009   
  -0.55           -5.149e-006     1.1886e-008     2.0682e-009    
  -0.6            -5.2886e-006    -1.2227e-008    2.245e-010     
  -0.65           -5.3501e-006    9.001e-009      -1.2982e-009   
  -0.7            -5.524e-006     1.0997e-008     1.4871e-009    
  -0.75           -5.6066e-006    -2.3432e-008    2.0386e-009    
  -0.8            -5.7059e-006    -2.3099e-008    1.9855e-009    
  -0.85           -5.8008e-006    -2.2513e-008    1.9381e-009    
  -0.9            -5.8939e-006    -2.1789e-008    1.8936e-009    
  -0.95           -5.9865e-006    -2.1028e-008    1.8464e-009    
  -1              -6.0635e-006    -1.1079e-008    -4.843e-010    
  -1.05           -6.1399e-006    1.5275e-008     -1.8143e-009   
  -1.1            -6.2487e-006    1.2261e-008     1.9667e-009    
  -1.15           -6.3619e-006    -1.3374e-008    1.4174e-009    
  -1.2            -6.4252e-006    -1.3099e-008    1.3942e-009    
  -1.25           -6.5289e-006    -1.2898e-008    1.3726e-009    
  -1.3            -6.5899e-006    -1.2517e-008    2.342e-010     
  -1.35           -6.6073e-006    9.008e-009      -1.3005e-009   
  -1.4            -6.7643e-006    1.0818e-008     1.4762e-009    
  -1.45           -6.817e-006     -2.3758e-008    2.0569e-009    
  -1.5            -6.9186e-006    -2.3445e-008    2.0106e-009    
  -1.55           -6.9952e-006    -2.2781e-008    1.9593e-009    
  -1.6            -7.0718e-006    -2.2058e-008    1.9106e-009    
  -1.65           -7.1501e-006    -2.1558e-008    1.8566e-009    
  -1.7            -7.2158e-006    -1.1069e-008    -4.67e-010     
  -1.75           -7.2313e-006    1.485e-008      -1.8322e-009   
  -1.8            -7.3173e-006    1.0556e-008     3.557e-010     
END_DB

BEGIN_DB
 ICCAP_VAR VG         -1.44          
 ICCAP_VAR VS         0              
 ICCAP_VAR VB         0              

 #VD              ID              IB              IG             
  0               1.7741e-009     -2.6947e-008    -2.7004e-009   
  -0.05           -3.4e-006       1.9341e-008     2.6096e-009    
  -0.1            -6.4793e-006    -1.12e-008      -5.555e-010    
  -0.15           -9.2149e-006    1.6563e-008     -1.7537e-009   
  -0.2            -1.1646e-005    1.0431e-008     -2.3126e-009   
  -0.25           -1.3769e-005    1.2133e-008     1.9815e-009    
  -0.3            -1.5571e-005    -2.0457e-008    1.5238e-009    
  -0.35           -1.7087e-005    -2.6521e-008    2.42e-009      
  -0.4            -1.834e-005     -1.1105e-008    -5.057e-010    
  -0.45           -1.9369e-005    2.2608e-008     -1.4599e-009   
  -0.5            -2.0341e-005    9.084e-009      1.1023e-009    
  -0.55           -2.1097e-005    -2.4129e-008    2.0805e-009    
  -0.6            -2.1727e-005    -1.1046e-008    -7.459e-010    
  -0.65           -2.2265e-005    2.5773e-008     -1.3929e-009   
  -0.7            -2.2889e-005    9.587e-009      1.3044e-009    
  -0.75           -2.3345e-005    -1.9189e-008    1.7447e-009    
  -0.8            -2.378e-005     -2.5598e-008    2.6167e-009    
  -0.85           -2.4147e-005    -2.3657e-008    2.0378e-009    
  -0.9            -2.4463e-005    -1.0967e-008    -7.7e-010      
  -0.95           -2.4752e-005    2.5957e-008     -1.3882e-009   
  -1              -2.5199e-005    9.847e-009      1.3299e-009    
  -1.05           -2.5458e-005    -1.8459e-008    1.7056e-009    
  -1.1            -2.5755e-005    -2.5939e-008    2.5924e-009    
  -1.15           -2.601e-005     -2.3122e-008    1.9989e-009    
  -1.2            -2.623e-005     -1.0764e-008    -7.883e-010    
  -1.25           -2.6445e-005    2.6353e-008     -1.3834e-009   
  -1.3            -2.6837e-005    9.943e-009      1.3532e-009    
  -1.35           -2.7034e-005    -1.7868e-008    1.6638e-009    
  -1.4            -2.7286e-005    -2.6143e-008    2.5635e-009    
  -1.45           -2.7531e-005    -2.2719e-008    1.9557e-009    
  -1.5            -2.7744e-005    -1.3699e-008    1.4198e-009    
  -1.55           -2.796e-005     -2.5881e-008    2.2696e-009    
  -1.6            -2.8178e-005    -1.7396e-008    1.6285e-009    
  -1.65           -2.8312e-005    -1.0164e-008    -9.905e-010    
  -1.7            -2.8499e-005    2.6392e-008     -1.3451e-009   
  -1.75           -2.8863e-005    1.0383e-008     1.6026e-009    
  -1.8            -2.9033e-005    -1.3229e-008    1.4058e-009    
END_DB

BEGIN_DB
 ICCAP_VAR VG         -1.8           
 ICCAP_VAR VS         0              
 ICCAP_VAR VB         0              

 #VD              ID              IB              IG             
  0               8.442e-009      -2.3096e-008    1.1567e-009    
  -0.05           -5.0069e-006    1.2097e-008     1.6419e-009    
  -0.1            -9.7791e-006    -1.6897e-008    1.5966e-009    
  -0.15           -1.4288e-005    -2.1678e-008    1.7788e-009    
  -0.2            -1.8531e-005    -1.8608e-008    1.7744e-009    
  -0.25           -2.2508e-005    -2.5512e-008    2.658e-009     
  -0.3            -2.6181e-005    -2.4488e-008    2.0851e-009    
  -0.35           -2.9553e-005    -1.1107e-008    -7.426e-010    
  -0.4            -3.2619e-005    2.5795e-008     -1.3888e-009   
  -0.45           -3.5492e-005    9.558e-009      1.2985e-009    
  -0.5            -3.7979e-005    -1.9003e-008    1.7353e-009    
  -0.55           -4.0234e-005    -2.5819e-008    2.628e-009     
  -0.6            -4.2213e-005    -2.3688e-008    2.0427e-009    
  -0.65           -4.394e-005     -1.098e-008     -7.712e-010    
  -0.7            -4.548e-005     2.6131e-008     -1.3828e-009   
  -0.75           -4.6953e-005    9.759e-009      1.3283e-009    
  -0.8            -4.8124e-005    -1.8398e-008    1.697e-009     
  -0.85           -4.923e-005     -2.6004e-008    2.5881e-009    
  -0.9            -5.0178e-005    -2.3186e-008    1.9846e-009    
  -0.95           -5.1002e-005    -1.0815e-008    -7.957e-010    
  -1              -5.1747e-005    2.6359e-008     -1.3786e-009   
  -1.05           -5.2636e-005    1.0025e-008     1.3638e-009    
  -1.1            -5.3248e-005    -1.7533e-008    1.6424e-009    
  -1.15           -5.3881e-005    -2.6369e-008    2.5551e-009    
  -1.2            -5.4434e-005    -2.2575e-008    1.9345e-009    
  -1.25           -5.5e-005       -1.3222e-008    1.4058e-009    
  -1.3            -5.5505e-005    -2.5816e-008    2.2474e-009    
  -1.35           -5.5994e-005    -1.1306e-008    -6.393e-010    
  -1.4            -5.6381e-005    2.4615e-008     -1.4109e-009   
  -1.45           -5.6937e-005    8.932e-009      1.2092e-009    
  -1.5            -5.7316e-005    -2.1643e-008    1.8852e-009    
  -1.55           -5.7761e-005    -1.3076e-008    1.3846e-009    
  -1.6            -5.8143e-005    -2.5365e-008    2.1931e-009    
  -1.65           -5.8484e-005    -1.1246e-008    -6.747e-010    
  -1.7            -5.8798e-005    7.808e-009      -1.3577e-009   
  -1.75           -5.9354e-005    1.0925e-008     1.4915e-009    
  -1.8            -5.9662e-005    -1.4788e-008    1.501e-009     
END_DB

BEGIN_DB
 ICCAP_VAR VG         0              
 ICCAP_VAR VS         0              
 ICCAP_VAR VB         0.9            

 #VD              ID              IB              IG             
  0               -8.35e-010      -2.6563e-008    -8.421e-010    
  -0.05           -2.1434e-009    8.48e-009       -1.0706e-009   
  -0.1            -1.0409e-009    -2.5609e-008    1.4136e-009    
  -0.15           2.3025e-009     -8.781e-009     9.535e-010     
  -0.2            2.2149e-009     1.0048e-008     1.1166e-009    
  -0.25           2.0651e-009     1.1231e-008     1.288e-009     
  -0.3            1.8471e-009     1.1818e-008     1.4712e-009    
  -0.35           2.0729e-009     1.0367e-008     4.92e-011      
  -0.4            2.1764e-009     1.053e-008      2.442e-010     
  -0.45           2.253e-009      1.0662e-008     4.543e-010     
  -0.5            2.3136e-009     1.0139e-008     6.537e-010     
  -0.55           2.3244e-009     9.544e-009      8.255e-010     
  -0.6            2.296e-009      8.859e-009      9.907e-010     
  -0.65           2.1965e-009     9.485e-009      1.1494e-009    
  -0.7            2.0269e-009     1.0395e-008     1.3197e-009    
  -0.75           1.7957e-009     1.1952e-008     1.5085e-009    
  -0.8            1.9797e-009     1.2103e-008     -1.653e-010    
  -0.85           9.447e-010      2.5546e-008     -1.4816e-009   
  -0.9            -1.3605e-009    7.788e-009      -1.7892e-009   
  -0.95           -2.1983e-009    -1.107e-008     -4.775e-010    
  -1              -1.429e-009     -2.229e-008     2.3394e-009    
  -1.05           2.0903e-009     -4.056e-009     1.2712e-009    
  -1.1            1.9877e-009     1.0444e-008     -1.567e-010    
  -1.15           9.508e-010      2.5756e-008     -1.4755e-009   
  -1.2            -1.344e-009     7.865e-009      -1.8008e-009   
  -1.25           -2.2004e-009    -1.1203e-008    -4.884e-010    
  -1.3            -1.4381e-009    -2.1991e-008    2.323e-009     
  -1.35           2.0856e-009     -4.075e-009     1.286e-009     
  -1.4            1.8415e-009     1.1824e-008     1.4627e-009    
  -1.45           2.0717e-009     1.0446e-008     4.28e-011      
  -1.5            2.1715e-009     1.0563e-008     2.411e-010     
  -1.55           2.2496e-009     1.0526e-008     4.49e-010      
  -1.6            2.3114e-009     9.791e-009      6.501e-010     
  -1.65           2.326e-009      9.278e-009      8.235e-010     
  -1.7            2.2972e-009     9.021e-009      9.819e-010     
  -1.75           2.1994e-009     1.0401e-008     1.1447e-009    
  -1.8            2.0307e-009     1.148e-008      1.3157e-009    
END_DB

BEGIN_DB
 ICCAP_VAR VG         -0.36          
 ICCAP_VAR VS         0              
 ICCAP_VAR VB         0.9            

 #VD              ID              IB              IG             
  0               -7.006e-010     -2.2804e-008    2.608e-010     
  -0.05           -3.363e-010     -1.6692e-008    2.6392e-009    
  -0.1            2.2145e-009     1.0629e-008     3.25e-010      
  -0.15           2.2799e-009     1.018e-008      5.23e-010      
  -0.2            2.3268e-009     9.606e-009      7.174e-010     
  -0.25           2.3224e-009     9.161e-009      8.876e-010     
  -0.3            2.2692e-009     9.378e-009      1.0383e-009    
  -0.35           2.1415e-009     1.0773e-008     1.2013e-009    
  -0.4            1.9553e-009     1.041e-008      -2.215e-010    
  -0.45           9.028e-010      2.4719e-008     -1.5256e-009   
  -0.5            -1.4084e-009    7.119e-009      -1.7506e-009   
  -0.55           -2.1912e-009    -1.1326e-008    -3.992e-010    
