! VERSION = 6.00
BEGIN_HEADER
 ICCAP_INPUTS
  VG         V  B GROUND SMU4 0.001 LIN        1    0          -1.8       37   -0.05     
  VS         V  E GROUND SMU2 0.1 CON        0
  VB         V  C GROUND SMU3 0.1 LIN        3    0          1.8        3    0.9       
  VD         V  S GROUND SMU1 0.1 LIN        2    -0.1       -1.8       2    -1.7      
 ICCAP_OUTPUTS
  IG         I  B GROUND SMU4 B
  ID         I  S GROUND SMU1 B
  IB         I  C GROUND SMU3 B
END_HEADER

BEGIN_DB
 ICCAP_VAR VS         0              
 ICCAP_VAR VB         0              
 ICCAP_VAR VD         -0.1           

 #VG              IG              ID              IB             
  0               -9.577e-010     -8.838e-010     -1.6252e-008   
  -0.05           2.6738e-009     -1.1033e-009    -2.5128e-008   
  -0.1            -1.632e-009     7.922e-010      2.095e-008     
  -0.15           -7.436e-010     -2.1262e-009    5.311e-009     
  -0.2            1.9097e-009     -1.5275e-009    -1.5211e-008   
  -0.25           5.661e-010      2.1648e-009     -6.972e-009    
  -0.3            -1.9316e-009    6.309e-010      1.7328e-008    
  -0.35           2.6189e-009     -1.1718e-009    -2.4859e-008   
  -0.4            2.808e-010      2.0155e-009     9.534e-009     
  -0.45           4.739e-010      1.9675e-009     9.292e-009     
  -0.5            -2.5409e-009    -1.5439e-009    1.5658e-008    
  -0.55           2.721e-009      -3.4498e-009    -2.4256e-008   
  -0.6            2.6235e-009     -8.2223e-009    -1.257e-009    
  -0.65           -1.7113e-009    -3.2234e-008    -1.6293e-008   
  -0.7            1.1376e-009     -1.0635e-007    -1.8271e-008   
  -0.75           -2.215e-009     -3.3163e-007    2.5809e-008    
  -0.8            1.676e-010      -9.4836e-007    -1.1745e-008   
  -0.85           2.7344e-009     -2.2623e-006    2.5666e-008    
  -0.9            2.5755e-009     -4.8134e-006    -7.32e-010     
  -0.95           5.681e-010      -8.9746e-006    9.428e-009     
  -1              -2.6157e-009    -1.5019e-005    8.873e-009     
  -1.05           2.2233e-009     -2.2979e-005    -2.3796e-008   
  -1.1            2.3703e-009     -3.2233e-005    -4.102e-009    
  -1.15           -1.4369e-009    -4.2362e-005    2.0774e-008    
  -1.2            -2.6024e-009    -5.3388e-005    7.692e-009     
  -1.25           2.3345e-009     -6.5047e-005    -2.4524e-008   
  -1.3            1.6689e-009     -7.6366e-005    -3.406e-009    
  -1.35           2.5907e-009     -8.7538e-005    -8.611e-009    
  -1.4            -2.3595e-009    -9.801e-005     2.5445e-008    
  -1.45           -1.7623e-009    -0.000108458    2.061e-009     
  -1.5            -1.5512e-009    -0.00011827     -1.8265e-008   
  -1.55           1.6253e-009     -0.00012791     -1.9097e-008   
  -1.6            2.6205e-009     -0.00013675     -8.898e-009    
  -1.65           -2.3087e-009    -0.00014493     2.5628e-008    
  -1.7            -1.6992e-009    -0.00015293     2.273e-009     
  -1.75           -1.3382e-009    -0.00016042     5.003e-009     
  -1.8            -2.6223e-009    -0.00016752     9.286e-009     
END_DB

BEGIN_DB
 ICCAP_VAR VS         0              
 ICCAP_VAR VB         0              
 ICCAP_VAR VD         -1.8           

 #VG              IG              ID              IB             
  0               9.074e-010      8.534e-010      1.2302e-008    
  -0.05           -1.4634e-009    9.048e-010      2.3953e-008    
  -0.1            -8.993e-010     -2.1241e-009    7.216e-009     
  -0.15           2.7441e-009     -1.5991e-009    -1.2465e-008   
  -0.2            7.438e-010      2.2162e-009     -1.053e-009    
  -0.25           -1.6762e-009    1.5451e-009     1.5457e-008    
  -0.3            -1.1231e-009    -2.0466e-009    -4.794e-009    
  -0.35           2.6916e-009     -1.1796e-009    -2.4592e-008   
  -0.4            -1.7116e-009    3.619e-010      2.0231e-008    
  -0.45           -2.5094e-009    -2.3375e-009    -4.928e-009    
  -0.5            -4.787e-010     -7.17e-009      -1e-008        
  -0.55           -1.4616e-009    -1.9114e-008    -1.2259e-008   
  -0.6            -2.5947e-009    -6.258e-008     7.151e-009     
  -0.65           -1.5888e-009    -1.9872e-007    2.4776e-008    
  -0.7            1.7468e-009     -6.0116e-007    -1.841e-008    
  -0.75           7.72e-010       -1.5593e-006    1.972e-009     
  -0.8            -1.4069e-009    -3.7372e-006    1.5011e-008    
  -0.85           -2.6098e-009    -7.9869e-006    8.235e-009     
  -0.9            9.14e-010       -1.5702e-005    -1.9474e-008   
  -0.95           -2.405e-009     -2.7595e-005    1.247e-008     
  -1              -1.8145e-009    -4.4753e-005    2.003e-009     
  -1.05           2.2445e-009     -6.8416e-005    -2.3912e-008   
  -1.1            2.3791e-009     -9.7388e-005    -3.916e-009    
  -1.15           4.791e-010      -0.00013184     1.6784e-008    
  -1.2            8.993e-010      -0.00017295     9.023e-009     
  -1.25           1.2522e-009     -0.00021959     8.167e-009     
  -1.3            -2.0388e-009    -0.00026827     2.5243e-008    
  -1.35           2.4341e-009     -0.00032449     -2.4397e-008   
  -1.4            1.7768e-009     -0.00038254     -2.682e-009    
  -1.45           2.5529e-009     -0.00044435     -8.294e-009    
  -1.5            -2.4426e-009    -0.00050768     1.2946e-008    
  -1.55           -1.8742e-009    -0.0005747      1.751e-009     
  -1.6            2.2961e-009     -0.00064558     -2.424e-008    
  -1.65           2.3537e-009     -0.00071651     -3.691e-009    
  -1.7            -1.4786e-009    -0.00078784     1.963e-008     
  -1.75           -2.5875e-009    -0.00086213     7.082e-009     
  -1.8            2.4149e-009     -0.00093989     -2.4576e-008   
END_DB

BEGIN_DB
 ICCAP_VAR VS         0              
 ICCAP_VAR VB         0.9            
 ICCAP_VAR VD         -0.1           

 #VG              IG              ID              IB             
  0               1.7809e-009     1.9682e-009     1.614e-009     
  -0.05           7.751e-010      2.2166e-009     8.535e-009     
  -0.1            -1.6439e-009    7.954e-010      2.1175e-008    
  -0.15           -7.472e-010     -2.1241e-009    5.433e-009     
  -0.2            1.9188e-009     -1.5268e-009    -1.5633e-008   
  -0.25           5.644e-010      2.1683e-009     -7.206e-009    
  -0.3            -1.9252e-009    6.367e-010      1.7677e-008    
  -0.35           2.6079e-009     -1.1599e-009    -2.4361e-008   
  -0.4            2.8e-010        2.0608e-009     9.424e-009     
  -0.45           4.727e-010      2.1386e-009     9.317e-009     
  -0.5            -2.0451e-009    5.625e-010      1.5789e-008    
  -0.55           2.6671e-009     -1.103e-009     -2.4346e-008   
  -0.6            -1.6658e-009    7.453e-010      2.0899e-008    
  -0.65           -1.5822e-009    -1.6841e-009    5.206e-009     
  -0.7            2.1273e-009     -2.2319e-009    -1.8493e-008   
  -0.75           1.8225e-009     -3.031e-009     -5.018e-009    
  -0.8            -2.2468e-009    -1.5618e-008    -2.3666e-008   
  -0.85           -7.779e-010     -6.1093e-008    -9.919e-009    
  -0.9            -1.6854e-009    -2.1301e-007    2.5132e-008    
  -0.95           -6.537e-010     -6.8491e-007    -9.979e-009    
  -1              2.7177e-009     -1.8985e-006    8.762e-009     
  -1.05           2.3365e-009     -4.3087e-006    -1.259e-009    
  -1.1            1.6976e-009     -8.5371e-006    -3.295e-009    
  -1.15           -1.9003e-009    -1.4568e-005    -6.021e-009    
  -1.2            2.2999e-009     -2.285e-005     -2.408e-008    
  -1.25           1.6434e-009     -3.2369e-005    -3.572e-009    
  -1.3            2.6136e-009     -4.2972e-005    -9.058e-009    
  -1.35           -2.3309e-009    -5.3718e-005    2.5193e-008    
  -1.4            -1.7391e-009    -6.4981e-005    2.172e-009     
  -1.45           -2.5876e-009    -7.6018e-005    -5.2e-009      
  -1.5            2.404e-009      -8.6835e-005    -2.4281e-008   
  -1.55           1.7532e-009     -9.6952e-005    -2.882e-009    
  -1.6            2.5627e-009     -0.00010666     -8.487e-009    
  -1.65           6.703e-010      -0.00011578     1.9999e-008    
  -1.7            -1.4996e-009    -0.00012436     1.9577e-008    
  -1.75           -2.5786e-009    -0.00013264     6.934e-009     
  -1.8            2.4254e-009     -0.00014055     -2.3981e-008   
END_DB

BEGIN_DB
 ICCAP_VAR VS         0              
 ICCAP_VAR VB         0.9            
 ICCAP_VAR VD         -1.8           

 #VG              IG              ID              IB             
  0               -1.152e-009     -1.047e-009     8.527e-009     
  -0.05           2.5576e-009     -1.1812e-009    -2.3801e-008   
  -0.1            -1.5461e-009    8.526e-010      2.2209e-008    
  -0.15           -8.368e-010     -2.1158e-009    6.611e-009     
  -0.2            1.7916e-009     -8.246e-010     -2.0327e-008   
  -0.25           6.662e-010      2.1931e-009     -8.54e-009     
  -0.3            -1.8028e-009    1.4889e-009     1.7936e-008    
  -0.35           -1.0513e-009    -2.0372e-009    -5.447e-009    
  -0.4            2.6969e-009     -1.0071e-009    -2.3347e-008   
  -0.45           8.138e-010      2.1981e-009     -1.246e-009    
  -0.5            -1.5959e-009    1.5852e-009     1.4347e-008    
  -0.55           -1.6399e-009    -1.5494e-009    5.871e-009     
  -0.6            2.0471e-009     -1.9371e-009    -1.7493e-008   
  -0.65           1.7491e-009     -1.5625e-009    -5.915e-009    
  -0.7            2.4015e-009     -8.4721e-009    -8.524e-009    
  -0.75           -2.5649e-009    -3.7146e-008    -1.7459e-008   
  -0.8            2.1797e-009     -1.4233e-007    1.508e-009     
  -0.85           2.3884e-009     -4.813e-007     -4.633e-009    
  -0.9            -1.8422e-009    -1.4312e-006    -1.1717e-008   
  -0.95           2.2693e-009     -3.8649e-006    -2.4198e-008   
  -1              2.3645e-009     -8.7345e-006    -3.918e-009    
  -1.05           -1.3024e-009    -1.7155e-005    2.5707e-008    
  -1.1            2.2319e-009     -3.1374e-005    -2.4187e-008   
  -1.15           2.3799e-009     -5.0846e-005    -4.121e-009    
  -1.2            -1.4237e-009    -7.6046e-005    2.023e-008     
  -1.25           -2.5925e-009    -0.000107764    7.638e-009     
  -1.3            -5.614e-010     -0.00014608     -1.742e-008    
  -1.35           1.7948e-009     -0.00018951     -1.7071e-008   
  -1.4            2.5509e-009     -0.00023733     -7.881e-009    
  -1.45           7.068e-010      -0.00028896     9.721e-009     
  -1.5            -1.4476e-009    -0.00034445     1.634e-008     
  -1.55           -2.5877e-009    -0.00040361     7.304e-009     
  -1.6            2.416e-009      -0.00046757     -2.5199e-008   
  -1.65           1.7103e-009     -0.00053205     -3.217e-009    
  -1.7            2.5781e-009     -0.00059933     -8.578e-009    
  -1.75           -2.4219e-009    -0.0006668      2.5324e-008    
  -1.8            -1.8244e-009    -0.00073788     1.861e-009     
END_DB

BEGIN_DB
 ICCAP_VAR VS         0              
 ICCAP_VAR VB         1.8            
 ICCAP_VAR VD         -0.1           

 #VG              IG              ID              IB             
  0               7.25e-010       6.901e-010      2.4704e-008    
  -0.05           9.06e-010       2.2076e-009     -8.775e-009    
  -0.1            -1.4719e-009    1.6878e-009     1.2165e-008    
  -0.15           -8.798e-010     -2.1154e-009    6.867e-009     
  -0.2            2.7308e-009     -1.5881e-009    -1.2627e-008   
  -0.25           7.119e-010      2.2003e-009     -1.025e-009    
  -0.3            -1.7304e-009    7.498e-010      1.9469e-008    
  -0.35           -6.667e-010     -2.1118e-009    5.084e-009     
  -0.4            2.0407e-009     -7.253e-010     -1.8167e-008   
  -0.45           4.923e-010      2.137e-009      -6.059e-009    
  -0.5            -2.043e-009     5.77e-010       1.5859e-008    
  -0.55           2.6754e-009     -1.1097e-009    -2.5055e-008   
  -0.6            -1.8111e-009    1.4816e-009     1.7616e-008    
  -0.65           -6e-010         -2.104e-009     4.603e-009     
  -0.7            2.161e-009      -1.4756e-009    -1.8882e-008   
  -0.75           4.228e-010      1.983e-009      -5.196e-009    
  -0.8            -2.5243e-009    -1.5713e-009    1.4915e-008    
  -0.85           -4.894e-010     -5.0693e-009    -1.0221e-008   
  -0.9            2.6624e-009     -1.2751e-008    2.5205e-008    
  -0.95           -1.4106e-009    -5.6865e-008    2.0168e-008    
  -1              1.4026e-009     -2.1858e-007    -2.144e-008    
  -1.05           -1.6706e-009    -6.9382e-007    1.6405e-008    
  -1.1            -2.4468e-009    -1.9037e-006    -1.8599e-008   
  -1.15           -6.199e-010     -4.421e-006     -1.0158e-008   
  -1.2            1.7298e-009     -8.7873e-006    -1.817e-008    
  -1.25           -1.9424e-009    -1.4898e-005    -5.982e-009    
  -1.3            2.3551e-009     -2.3266e-005    -2.4794e-008   
  -1.35           1.6612e-009     -3.2783e-005    -3.74e-009     
  -1.4            2.6055e-009     -4.3289e-005    -8.743e-009    
  -1.45           -2.3749e-009    -5.3857e-005    2.4894e-008    
  -1.5            -1.7956e-009    -6.4822e-005    2.103e-009     
  -1.55           -1.3514e-009    -7.538e-005     4.67e-009      
  -1.6            -2.6111e-009    -8.5572e-005    8.816e-009     
  -1.65           2.2236e-009     -9.5528e-005    -2.4372e-008   
  -1.7            2.3961e-009     -0.00010475     -4.699e-009    
  -1.75           -1.4173e-009    -0.000113272    2.008e-008     
  -1.8            -1.416e-009     -0.00012163     1.674e-009     
END_DB

BEGIN_DB
 ICCAP_VAR VS         0              
 ICCAP_VAR VB         1.8            
 ICCAP_VAR VD         -1.8           

 #VG              IG              ID              IB             
  0               -1.2644e-009    -1.2483e-009    9.599e-009     
  -0.05           1.9508e-009     -1.5224e-009    -1.5995e-008   
  -0.1            5.585e-010      2.1653e-009     -7.047e-009    
  -0.15           -1.9616e-009    6.282e-010      1.7411e-008    
  -0.2            2.6302e-009     -1.1555e-009    -2.4895e-008   
  -0.25           -1.5841e-009    8.33e-010       2.1201e-008    
  -0.3            -8.025e-010     -2.1228e-009    6.092e-009     
  -0.35           1.8636e-009     -8.049e-010     -1.9432e-008   
  -0.4            6.179e-010      2.1789e-009     -7.741e-009    
  -0.45           -1.8842e-009    1.458e-009      1.9091e-008    
  -0.5            -5.608e-010     -2.1057e-009    4.405e-009     
  -0.55           2.2131e-009     -1.427e-009     -1.9847e-008   
  -0.6            3.892e-010      2.0886e-009     -4.77e-009     
  -0.65           -2.1912e-009    3.961e-010      1.4602e-008    
  -0.7            2.6983e-009     -2.1181e-009    -1.1409e-008   
  -0.75           2.5988e-009     -1.586e-009     -1.408e-009    
  -0.8            -2.6066e-009    -1.1117e-008    6.155e-009     
  -0.85           2.3146e-009     -4.7448e-008    -2.4747e-008   
  -0.9            2.6374e-009     -1.8958e-007    5.246e-009     
  -0.95           -1.3782e-009    -6.4231e-007    2.1003e-008    
  -1              -2.3965e-009    -1.9709e-006    -1.8099e-008   
  -1.05           2.7127e-009     -5.1563e-006    -1.9986e-008   
  -1.1            -1.4011e-009    -1.1173e-005    -1.09e-009     
  -1.15           -2.608e-009     -2.1657e-005    8.293e-009     
  -1.2            2.3308e-009     -3.8157e-005    -2.4624e-008   
  -1.25           1.637e-009      -6.0207e-005    -3.739e-009    
  -1.3            2.6161e-009     -8.8683e-005    -8.624e-009    
  -1.35           9.579e-010      -0.00012282     2.4319e-008    
  -1.4            -1.634e-010     -0.00016212     1.1674e-008    
  -1.45           -1.3151e-009    -0.00020675     2.3027e-008    
  -1.5            -2.6156e-009    -0.00025615     9.331e-009     
  -1.55           1.9013e-009     -0.00031088     -1.6738e-008   
  -1.6            2.5174e-009     -0.0003678      -7.086e-009    
  -1.65           6.455e-010      -0.0004271      9.895e-009     
  -1.7            -1.52e-009      -0.00048916     1.8607e-008    
  -1.75           -2.5805e-009    -0.00055433     6.654e-009     
  -1.8            2.4988e-009     -0.00062322     -2.4355e-008   
END_DB

