! VERSION = 6.00
BEGIN_HEADER
 ICCAP_INPUTS
  VG         V  B GROUND SMU4 0.001 LIN        1    0          -1.8       37   -0.05     
  VS         V  E GROUND SMU2 0.1 CON        0
  VB         V  C GROUND SMU3 0.1 LIN        3    0          1.8        3    0.9       
  VD         V  S GROUND SMU1 0.1 LIN        2    -0.1       -1.8       2    -1.7      
 ICCAP_OUTPUTS
  IG         I  B GROUND SMU4 B
  ID         I  S GROUND SMU1 B
  IB         I  C GROUND SMU3 B
END_HEADER

BEGIN_DB
 ICCAP_VAR VS         0              
 ICCAP_VAR VB         0              
 ICCAP_VAR VD         -0.1           

 #VG              IG              ID              IB             
  0               -1.2245e-009    -1.0531e-009    -1.021e-008    
  -0.05           1.5982e-009     -2.066e-010     -1.6245e-008   
  -0.1            1.2008e-009     1.1662e-009     1.4654e-008    
  -0.15           -9e-012         1.6521e-009     8.29e-009      
  -0.2            1.511e-010      1.7453e-009     8.833e-009     
  -0.25           -1.2544e-009    6.464e-010      8.826e-009     
  -0.3            -7.363e-010     -1.7513e-009    3.058e-009     
  -0.35           1.9905e-009     9.659e-010      -1.1032e-008   
  -0.4            -1.2423e-009    1.1491e-009     1.134e-008     
  -0.45           -2.1712e-009    -1.1608e-009    7.348e-009     
  -0.5            1.476e-010      -2.2195e-009    -9.525e-009    
  -0.55           1.1551e-009     -1.6537e-009    -1.147e-008    
  -0.6            1.1475e-009     -6.7721e-009    -1.384e-008    
  -0.65           -1.3828e-009    -2.5521e-008    -1.1098e-008   
  -0.7            1.5487e-009     -9.1651e-008    -1.3281e-008   
  -0.75           -4.916e-010     -2.9193e-007    9.062e-009     
  -0.8            1.1581e-009     -8.7058e-007    -9.938e-009    
  -0.85           1.807e-009      -2.1018e-006    7.642e-009     
  -0.9            1.2513e-009     -4.5061e-006    1.086e-009     
  -0.95           1.0644e-009     -8.4062e-006    -3.482e-009    
  -1              -1.247e-009     -1.3756e-005    -3.469e-009    
  -1.05           -1.991e-009     -2.075e-005     3.631e-009     
  -1.1            1.1541e-009     -2.9268e-005    -9.054e-009    
  -1.15           1.6765e-009     -3.8424e-005    -1.2047e-008   
  -1.2            1.3887e-009     -4.82e-005      1.4083e-008    
  -1.25           3.48e-010       -5.8111e-005    9.207e-009     
  -1.3            6.127e-010      -6.8287e-005    8.391e-009     
  -1.35           1.0129e-009     -7.8105e-005    1.054e-008     
  -1.4            1.4557e-009     -8.7435e-005    1.4743e-008    
  -1.45           4.136e-010      -9.6494e-005    9.253e-009     
  -1.5            6.628e-010      -0.000105232    8.586e-009     
  -1.55           1.0843e-009     -0.000113382    1.1018e-008    
  -1.6            2.3307e-009     -0.000121       8.855e-009     
  -1.65           7.193e-010      -0.00012849     8.676e-009     
  -1.7            1.1473e-009     -0.00013544     1.1846e-008    
  -1.75           1.5649e-009     -0.00014187     1.5902e-008    
  -1.8            4.655e-010      -0.00014811     9.062e-009     
END_DB

BEGIN_DB
 ICCAP_VAR VS         0              
 ICCAP_VAR VB         0              
 ICCAP_VAR VD         -1.8           

 #VG              IG              ID              IB             
  0               -1.2507e-009    -1.0772e-009    -3.554e-009    
  -0.05           1.8714e-009     9.349e-010      -9.942e-009    
  -0.1            -1.247e-009     1.0277e-009     9.57e-009      
  -0.15           -1.2016e-009    -1.3327e-009    3.78e-009      
  -0.2            2.417e-010      -1.7546e-009    -9.233e-009    
  -0.25           5.47e-011       -1.8388e-009    -9.614e-009    
  -0.3            1.156e-009      -2.31e-011      -1.2939e-008   
  -0.35           1.7405e-009     -2.107e-010     -1.4546e-008   
  -0.4            8.8e-011        1.5816e-009     -7.28e-010     
  -0.45           -1.2576e-009    1.385e-010      8.876e-009     
  -0.5            -1.2518e-009    -2.1819e-009    3.098e-009     
  -0.55           -1.2496e-009    -6.9911e-009    2.397e-009     
  -0.6            -2.304e-009     -2.5858e-008    -1.3665e-008   
  -0.65           1.1553e-009     -9.1545e-008    -1.0583e-008   
  -0.7            7.094e-010      -3.0149e-007    -1.651e-008    
  -0.75           1.1352e-009     -8.9518e-007    1.2449e-008    
  -0.8            -1.2595e-009    -2.2909e-006    -8.955e-009    
  -0.85           -1.2489e-009    -5.2959e-006    3.095e-009     
  -0.9            -1.2355e-009    -1.08128e-005   2.143e-009     
  -0.95           2.801e-010      -1.9919e-005    -1.3181e-008   
  -1              5.412e-010      -3.3512e-005    8.761e-009     
  -1.05           9.035e-010      -5.1998e-005    9.756e-009     
  -1.1            1.3416e-009     -7.5183e-005    1.418e-008     
  -1.15           3.115e-010      -0.000103227    8.935e-009     
  -1.2            1.886e-010      -0.00013642     1.3284e-008    
  -1.25           4.768e-010      -0.00017477     8.754e-009     
  -1.3            7.958e-010      -0.00021767     9.776e-009     
  -1.35           1.2226e-009     -0.0002638      1.3397e-008    
  -1.4            2.084e-010      -0.00031223     8.501e-009     
  -1.45           5.305e-010      -0.00036583     8.622e-009     
  -1.5            8.408e-010      -0.00042191     1.0188e-008    
  -1.55           1.284e-009      -0.00047933     1.3568e-008    
  -1.6            2.835e-010      -0.000538       8.852e-009     
  -1.65           5.394e-010      -0.00060094     8.681e-009     
  -1.7            8.998e-010      -0.00066501     9.635e-009     
  -1.75           1.3385e-009     -0.00072923     1.3905e-008    
  -1.8            3.119e-010      -0.0007943      9.032e-009     
END_DB

BEGIN_DB
 ICCAP_VAR VS         0              
 ICCAP_VAR VB         0.9            
 ICCAP_VAR VD         -0.1           

 #VG              IG              ID              IB             
  0               4.583e-010      6.796e-010      -1.1357e-008   
  -0.05           1.7924e-009     -1.263e-010     -1.4488e-008   
  -0.1            1.0444e-009     1.3088e-009     1.3954e-008    
  -0.15           1.2264e-009     1.1373e-009     1.4613e-008    
  -0.2            1.63e-011       1.6629e-009     8.38e-009      
  -0.25           1.757e-010      1.7475e-009     8.95e-009      
  -0.3            -1.2538e-009    6.71e-010       8.763e-009     
  -0.35           -7.2e-010       -1.7548e-009    2.974e-009     
  -0.4            2.0094e-009     9.767e-010      -1.1133e-008   
  -0.45           -1.2404e-009    1.191e-009      1.033e-008     
  -0.5            -1.3638e-009    -1.1625e-009    7.807e-009     
  -0.55           1.1358e-009     -1.1602e-009    -1.1608e-008   
  -0.6            1.9816e-009     9.542e-010      -1.1021e-008   
  -0.65           -1.2433e-009    1.0967e-009     1.1115e-008    
  -0.7            -2.161e-009     -1.3648e-009    7.016e-009     
  -0.75           1.77e-010       -3.2234e-009    -9.484e-009    
  -0.8            1.1545e-009     -6.777e-009     -1.1444e-008   
  -0.85           -2.4018e-009    -2.9808e-008    -1.7884e-008   
  -0.9            -1.2595e-009    -1.166e-007     -3.129e-009    
  -0.95           -1.2484e-009    -4.1673e-007    3.186e-009     
  -1              -1.6173e-009    -1.2456e-006    -1.0434e-008   
  -1.05           1.7495e-009     -3.1256e-006    -1.1551e-008   
  -1.1            1.3376e-009     -6.4674e-006    1.4058e-008    
  -1.15           -2.3938e-009    -1.1491e-005    8.669e-009     
  -1.2            1.4625e-009     -1.8378e-005    -1.4089e-008   
  -1.25           1.0953e-009     -2.6543e-005    -3.368e-009    
  -1.3            1.0877e-009     -3.5721e-005    -4.031e-009    
  -1.35           1.1517e-009     -4.5457e-005    -8.501e-009    
  -1.4            1.7255e-009     -5.5255e-005    -1.1734e-008   
  -1.45           1.1998e-009     -6.4974e-005    -9.55e-010     
  -1.5            1.0671e-009     -7.4411e-005    -3.35e-009     
  -1.55           1.126e-009      -8.3451e-005    -5.961e-009    
  -1.6            1.1497e-009     -9.1975e-005    -1.0813e-008   
  -1.65           1.4067e-009     -0.000100109    -1.4632e-008   
  -1.7            1.0849e-009     -0.00010777     -3.512e-009    
  -1.75           1.1465e-009     -0.00011496     -3.296e-009    
  -1.8            1.7678e-009     -0.00012188     -1.1567e-008   
END_DB

BEGIN_DB
 ICCAP_VAR VS         0              
 ICCAP_VAR VB         0.9            
 ICCAP_VAR VD         -1.8           

 #VG              IG              ID              IB             
  0               1.1205e-009     9.107e-010      3.21e-009      
  -0.05           1.2025e-009     1.1651e-009     1.4426e-008    
  -0.1            -2.56e-011      1.6599e-009     8.369e-009     
  -0.15           1.475e-010      1.7358e-009     9.152e-009     
  -0.2            -1.2571e-009    6.441e-010      9.087e-009     
  -0.25           -7.022e-010     -1.7713e-009    3.171e-009     
  -0.3            1.9858e-009     9.698e-010      -1.1166e-008   
  -0.35           -1.2449e-009    1.1739e-009     1.1155e-008    
  -0.4            -1.3424e-009    -1.1859e-009    6.901e-009     
  -0.45           2.79e-011       -1.8483e-009    -9.662e-009    
  -0.5            1.1525e-009     -4.7e-011       -1.2731e-008   
  -0.55           1.7082e-009     -1.787e-010     -1.5168e-008   
  -0.6            -1.2622e-009    1.3001e-009     1.3778e-008    
  -0.65           -2.3743e-009    -1.4039e-009    3.14e-009      
  -0.7            1.1538e-009     -1.7123e-009    -1.1191e-008   
  -0.75           1.1516e-009     -8.4454e-009    -1.2721e-008   
  -0.8            -1.9045e-009    -3.5803e-008    -9.671e-009    
  -0.85           -1.2953e-009    -1.4044e-007    1.2916e-008    
  -0.9            -1.2545e-009    -4.9946e-007    2.928e-009     
  -0.95           -9.019e-010     -1.5109e-006    -3.487e-009    
  -1              1.6196e-009     -4.0615e-006    -1.2456e-008   
  -1.05           1.4305e-009     -8.9942e-006    1.4577e-008    
  -1.1            -2.2839e-009    -1.7461e-005    8.439e-009     
  -1.15           1.2307e-009     -3.0835e-005    -1.7165e-008   
  -1.2            1.0671e-009     -4.8959e-005    -3.237e-009    
  -1.25           1.1234e-009     -7.266e-005     -5.526e-009    
  -1.3            1.1559e-009     -0.00010148     -1.0593e-008   
  -1.35           -1.2584e-009    -0.00013429     1.832e-009     
  -1.4            -1.2502e-009    -0.00017231     3.357e-009     
  -1.45           -2.0903e-009    -0.00021457     2.579e-009     
  -1.5            -2.086e-010     -0.00026129     -9.621e-009    
  -1.55           1.1497e-009     -0.00031133     -1.4226e-008   
  -1.6            1.7407e-009     -0.00036343     -1.1691e-008   
  -1.65           1.2086e-009     -0.00041809     -7.28e-010     
  -1.7            1.0672e-009     -0.00047529     -3.209e-009    
  -1.75           1.1226e-009     -0.00053467     -5.518e-009    
  -1.8            1.1566e-009     -0.00059544     -1.0597e-008   
END_DB

BEGIN_DB
 ICCAP_VAR VS         0              
 ICCAP_VAR VB         1.8            
 ICCAP_VAR VD         -0.1           

 #VG              IG              ID              IB             
  0               1.0977e-009     -1.85e-010      -6.523e-009    
  -0.05           -1.2442e-009    1.0563e-009     1.0036e-008    
  -0.1            -1.2319e-009    -1.2909e-009    4.134e-009     
  -0.15           1.966e-010      -1.7724e-009    -9.402e-009    
  -0.2            1.03e-011       -1.8475e-009    -9.615e-009    
  -0.25           1.1515e-009     -6.29e-011      -1.2544e-008   
  -0.3            1.6851e-009     -1.726e-010     -1.5046e-008   
  -0.35           1.865e-009      9.36e-010       -1.469e-009    
  -0.4            -1.2468e-009    1.0183e-009     8.976e-009     
  -0.45           -1.1905e-009    -1.3374e-009    3.554e-009     
  -0.5            1.5853e-009     -2.094e-010     -1.6028e-008   
  -0.55           1.1844e-009     1.1645e-009     1.4371e-008    
  -0.6            -2.23e-011      1.6423e-009     8.148e-009     
  -0.65           1.339e-010      1.7315e-009     8.636e-009     
  -0.7            -1.2618e-009    6.258e-010      8.694e-009     
  -0.75           -1.5355e-009    -1.1042e-009    3.117e-009     
  -0.8            1.1513e-009     2.11e-011       -1.0797e-008   
  -0.85           1.1502e-009     -6.834e-010     -1.1726e-008   
  -0.9            1.7674e-009     -3.5241e-009    -1.4006e-008   
  -0.95           -2.0306e-009    -1.6478e-008    -1.0414e-008   
  -1              4.85e-011       -7.0157e-008    -8.962e-009    
  -1.05           -2.4134e-009    -2.6419e-007    8.35e-009      
  -1.1            1.4389e-009     -8.7847e-007    -1.364e-008    
  -1.15           1.9318e-009     -2.2765e-006    1.0276e-008    
  -1.2            8.865e-010      -5.1392e-006    1.0605e-008    
  -1.25           1.3251e-009     -9.6083e-006    1.3946e-008    
  -1.3            -1.3457e-009    -1.5725e-005    1.4503e-008    
  -1.35           1.4789e-009     -2.3648e-005    -1.3425e-008   
  -1.4            1.1067e-009     -3.2451e-005    -3.383e-009    
  -1.45           1.0855e-009     -4.1868e-005    -3.881e-009    
  -1.5            1.1432e-009     -5.1486e-005    -8.355e-009    
  -1.55           1.7684e-009     -6.0893e-005    -1.121e-008    
  -1.6            1.3115e-009     -7.0069e-005    1.3767e-008    
  -1.65           2.973e-010      -7.8713e-005    8.814e-009     
  -1.7            5.577e-010      -8.716e-005     8.388e-009     
  -1.75           9.249e-010      -9.504e-005     1.1048e-008    
  -1.8            1.3544e-009     -0.000102365    1.4036e-008    
END_DB

BEGIN_DB
 ICCAP_VAR VS         0              
 ICCAP_VAR VB         1.8            
 ICCAP_VAR VD         -1.8           

 #VG              IG              ID              IB             
  0               -1.1942e-009    -1.0138e-009    -1.5222e-008   
  -0.05           1.1062e-009     -6.182e-010     -2.3265e-008   
  -0.1            1.4648e-009     9.782e-010      -3.886e-009    
  -0.15           2.231e-010      1.7804e-009     8.723e-009     
  -0.2            -1.259e-009     7.148e-010      8.572e-009     
  -0.25           -7.867e-010     -1.7214e-009    2.722e-009     
  -0.3            2.0414e-009     9.862e-010      -1.1423e-008   
  -0.35           -1.2387e-009    1.2182e-009     1.1993e-008    
  -0.4            -1.3856e-009    -1.1434e-009    8.32e-009      
  -0.45           1.1382e-009     -1.1685e-009    -1.1132e-008   
  -0.5            2.0021e-009     9.724e-010      -1.1165e-008   
  -0.55           -1.2442e-009    1.178e-009      1.1447e-008    
  -0.6            -1.3488e-009    -1.18e-009      7.033e-009     
  -0.65           1.57e-011       -1.8605e-009    -9.627e-009    
  -0.7            1.1541e-009     -1.009e-010     -1.289e-008    
  -0.75           1.7182e-009     -3.928e-010     -1.5078e-008   
  -0.8            -2.2284e-009    -2.0617e-009    1.4052e-008    
  -0.85           1.1211e-009     -6.5819e-009    -1.3311e-008   
  -0.9            -1.2398e-009    -2.6025e-008    -9.712e-009    
  -0.95           1.8285e-009     -1.0707e-007    -1.1866e-008   
  -1              7.134e-010      -4.1773e-007    8.886e-009     
  -1.05           -2.0958e-009    -1.3069e-006    -1.4828e-008   
  -1.1            -2.7e-011       -3.5613e-006    -9.046e-009    
  -1.15           1.5476e-009     -8.225e-006     -1.3487e-008   
  -1.2            -2.3972e-009    -1.6225e-005    8.845e-009     
  -1.25           1.6935e-009     -2.9059e-005    -1.1942e-008   
  -1.3            1.3919e-009     -4.6844e-005    1.4604e-008    
  -1.35           3.449e-010      -6.9731e-005    9.198e-009     
  -1.4            6.103e-010      -9.8529e-005    8.491e-009     
  -1.45           2.2278e-009     -0.00013127     8.857e-009     
  -1.5            1.3566e-009     -0.00016943     1.4006e-008    
  -1.55           3.226e-010      -0.00021064     8.837e-009     
  -1.6            5.836e-010      -0.00025679     8.279e-009     
  -1.65           9.65e-010       -0.00030581     1.1189e-008    
  -1.7            1.3967e-009     -0.00035669     1.4277e-008    
  -1.75           3.581e-010      -0.00040998     8.769e-009     
  -1.8            6.222e-010      -0.00046693     8.318e-009     
END_DB

