! VERSION = 6.00
BEGIN_HEADER
 ICCAP_INPUTS
  VG         V  B GROUND SMU4 0.001 LIN        1    0          -1.8       37   -0.05     
  VS         V  E GROUND SMU2 0.1 CON        0
  VB         V  C GROUND SMU3 0.1 LIN        3    0          1.8        3    0.9       
  VD         V  S GROUND SMU1 0.1 LIN        2    -0.1       -1.8       2    -1.7      
 ICCAP_OUTPUTS
  IG         I  B GROUND SMU4 B
  ID         I  S GROUND SMU1 B
  IB         I  C GROUND SMU3 B
END_HEADER

BEGIN_DB
 ICCAP_VAR VS         0              
 ICCAP_VAR VB         0              
 ICCAP_VAR VD         -0.1           

 #VG              IG              ID              IB             
  0               -1.2259e-009    -1.0554e-009    -1.0199e-008   
  -0.05           1.6041e-009     -2.129e-010     -1.6224e-008   
  -0.1            1.1948e-009     1.171e-009      1.4137e-008    
  -0.15           -1.94e-011      1.6577e-009     8.09e-009      
  -0.2            1.379e-010      1.7492e-009     8.831e-009     
  -0.25           2.741e-010      1.8102e-009     8.796e-009     
  -0.3            -1.2491e-009    7.67e-010       8.499e-009     
  -0.35           -1.683e-009     -1.1077e-009    2.121e-009     
  -0.4            1.1552e-009     -1.662e-010     -1.2566e-008   
  -0.45           1.7637e-009     -7.331e-010     -1.476e-008    
  -0.5            1.506e-009      -1.1749e-009    -5.34e-010     
  -0.55           1.2536e-009     -6.7024e-009    1.5341e-008    
  -0.6            -2.4065e-009    -2.8411e-008    -1.9508e-008   
  -0.65           1.5219e-009     -9.3054e-008    -1.3525e-008   
  -0.7            -5.165e-010     -2.7096e-007    9.335e-009     
  -0.75           1.1496e-009     -7.5489e-007    -9.294e-009    
  -0.8            1.2503e-009     -1.7823e-006    2.895e-009     
  -0.85           2.567e-010      -3.7336e-006    8.51e-009      
  -0.9            5.246e-010      -7.1208e-006    8.657e-009     
  -0.95           -2.1634e-009    -1.197e-005     8.98e-009      
  -1              -1.382e-010     -1.8468e-005    -9.592e-009    
  -1.05           1.3905e-009     -2.6373e-005    -1.4651e-008   
  -1.1            1.0848e-009     -3.5178e-005    -3.498e-009    
  -1.15           1.099e-009      -4.469e-005     -4.132e-009    
  -1.2            1.1567e-009     -5.4551e-005    -9.544e-009    
  -1.25           1.6447e-009     -6.4389e-005    -1.2313e-008   
  -1.3            1.396e-009      -7.4156e-005    1.4027e-008    
  -1.35           3.532e-010      -8.3612e-005    8.754e-009     
  -1.4            6.197e-010      -9.2851e-005    8.389e-009     
  -1.45           1.0167e-009     -0.000101556    1.1898e-008    
  -1.5            1.451e-009      -0.00010968     1.4872e-008    
  -1.55           1.8898e-009     -0.00011746     1.3544e-008    
  -1.6            1.2091e-009     -0.00012495     1.2991e-008    
  -1.65           2.112e-010      -0.00013179     8.318e-009     
  -1.7            4.953e-010      -0.00013844     8.764e-009     
  -1.75           8.239e-010      -0.00014474     9.125e-009     
  -1.8            1.2627e-009     -0.00015057     1.353e-008     
END_DB

BEGIN_DB
 ICCAP_VAR VS         0              
 ICCAP_VAR VB         0              
 ICCAP_VAR VD         -1.8           

 #VG              IG              ID              IB             
  0               -1.2009e-009    -1.053e-009     -1.1222e-008   
  -0.05           1.953e-010      -1.7894e-009    -9.345e-009    
  -0.1            2.0313e-009     9.818e-010      -1.1462e-008   
  -0.15           -1.2387e-009    1.2006e-009     1.0579e-008    
  -0.2            -1.3689e-009    -1.168e-009     8.122e-009     
  -0.25           1.1375e-009     -1.1825e-009    -1.1589e-008   
  -0.3            -1.2687e-009    1.2838e-009     -1.1032e-008   
  -0.35           -2.3599e-009    -1.3067e-009    2.858e-009     
  -0.4            -1.846e-010     -2.9075e-009    -9.53e-009     
  -0.45           1.6729e-009     -3.8888e-009    -1.5607e-008   
  -0.5            -1.2341e-009    -1.3181e-008    -9.521e-009    
  -0.55           -1.5987e-009    -4.0045e-008    9.619e-009     
  -0.6            2.344e-009      -1.1654e-007    -9.004e-009    
  -0.65           1.5833e-009     -3.2639e-007    1.4971e-008    
  -0.7            4.692e-010      -8.5941e-007    8.753e-009     
  -0.75           -1.5411e-009    -2.0562e-006    -9.82e-009     
  -0.8            1.1529e-009     -4.6513e-006    -1.0801e-008   
  -0.85           1.3454e-009     -9.4109e-006    -1.574e-008    
  -0.9            -2.4021e-009    -1.7056e-005    9.183e-009     
  -0.95           1.6217e-009     -2.9109e-005    -1.2517e-008   
  -1              1.4275e-009     -4.5441e-005    1.4725e-008    
  -1.05           3.689e-010      -6.6656e-005    8.956e-009     
  -1.1            6.348e-010      -9.3482e-005    8.533e-009     
  -1.15           2.3183e-009     -0.00012418     8.691e-009     
  -1.2            1.4952e-009     -0.00016036     1.4881e-008    
  -1.25           4.205e-010      -0.00020045     8.978e-009     
  -1.3            7.184e-010      -0.00024522     9.16e-009      
  -1.35           1.1395e-009     -0.00029287     1.2602e-008    
  -1.4            1.5587e-009     -0.00034293     1.4937e-008    
  -1.45           4.559e-010      -0.00039654     9.139e-009     
  -1.5            7.565e-010      -0.00045309     8.954e-009     
  -1.55           1.1903e-009     -0.00051106     1.2766e-008    
  -1.6            2.056e-010      -0.00056966     8.21e-009      
  -1.65           5.05e-010       -0.00063185     8.671e-009     
  -1.7            8.103e-010      -0.00069588     9.855e-009     
  -1.75           1.2327e-009     -0.00075961     1.3392e-008    
  -1.8            2.255e-010      -0.00082349     8.454e-009     
END_DB

BEGIN_DB
 ICCAP_VAR VS         0              
 ICCAP_VAR VB         0.9            
 ICCAP_VAR VD         -0.1           

 #VG              IG              ID              IB             
  0               -1.1984e-009    -1.033e-009     1.3623e-008    
  -0.05           1.8152e-009     9.201e-010      -8.93e-009     
  -0.1            -1.2496e-009    9.536e-010      8.806e-009     
  -0.15           -1.1012e-009    -1.4339e-009    2.393e-009     
  -0.2            1.724e-009      -1.632e-010     -1.4875e-008   
  -0.25           1.0957e-009     1.2599e-009     1.4062e-008    
  -0.3            1.274e-009      1.1038e-009     1.4869e-008    
  -0.35           4.95e-011       1.698e-009      8.574e-009     
  -0.4            2.073e-010      1.7748e-009     8.791e-009     
  -0.45           -1.2532e-009    6.944e-010      8.766e-009     
  -0.5            -7.696e-010     -1.7415e-009    2.819e-009     
  -0.55           2.0366e-009     9.661e-010      -1.1469e-008   
  -0.6            -1.2417e-009    1.1246e-009     1.1703e-008    
  -0.65           -2.2096e-009    -1.4098e-009    8.188e-009     
  -0.7            9.56e-011       -3.4073e-009    -9.55e-009     
  -0.75           1.1572e-009     -7.4162e-009    -1.1863e-008   
  -0.8            -1.249e-009     -3.0247e-008    -9.156e-009    
  -0.85           5.981e-010      -1.0836e-007    -1.4762e-008   
  -0.9            9.765e-010      -3.6076e-007    1.0278e-008    
  -0.95           1.4169e-009     -1.01001e-006   1.4695e-008    
  -1              -1.911e-009     -2.4559e-006    -1.2691e-008   
  -1.05           1.3624e-009     -5.2826e-006    -1.5205e-008   
  -1.1            1.0763e-009     -9.6705e-006    -3.295e-009    
  -1.15           -1.2886e-009    -1.5756e-005    -3.678e-009    
  -1.2            -1.2514e-009    -2.3424e-005    2.706e-009     
  -1.25           -1.2463e-009    -3.2239e-005    1.942e-009     
  -1.3            -1.8334e-009    -4.1815e-005    5.553e-009     
  -1.35           1.1595e-009     -5.1934e-005    -1.0282e-008   
  -1.4            1.5338e-009     -6.1689e-005    -1.3804e-008   
  -1.45           1.4934e-009     -7.1183e-005    1.4782e-008    
  -1.5            4.136e-010      -8.0345e-005    8.901e-009     
  -1.55           6.947e-010      -8.916e-005     8.83e-009      
  -1.6            1.1168e-009     -9.7391e-005    1.2308e-008    
  -1.65           1.5391e-009     -0.000105063    1.4811e-008    
  -1.7            4.809e-010      -0.000112451    8.889e-009     
  -1.75           1.964e-009      -0.00011936     7.399e-009     
  -1.8            9.459e-010      -0.00012605     1.0947e-008    
END_DB

BEGIN_DB
 ICCAP_VAR VS         0              
 ICCAP_VAR VB         0.9            
 ICCAP_VAR VD         -1.8           

 #VG              IG              ID              IB             
  0               -1.1823e-009    -1.0399e-009    -1.2714e-008   
  -0.05           1.1499e-009     -1.2056e-009    -1.0345e-008   
  -0.1            1.1555e-009     6.5e-011        -1.1833e-008   
  -0.15           1.1503e-009     -9.78e-011      -1.3934e-008   
  -0.2            1.6249e-009     -1.982e-010     -1.6307e-008   
  -0.25           1.1695e-009     1.1874e-009     1.3913e-008    
  -0.3            -1.2517e-009    1.6383e-009     8.079e-009     
  -0.35           -1.1108e-009    -1.4181e-009    2.627e-009     
  -0.4            1.0863e-009     -1.7168e-009    -8.886e-009    
  -0.45           1.7868e-009     9.09e-010       -8.269e-009    
  -0.5            -1.2514e-009    8.918e-010      8.557e-009     
  -0.55           -1.8467e-009    -1.1992e-009    2.044e-009     
  -0.6            1.7726e-009     -7.909e-010     -1.4466e-008   
  -0.65           1.0647e-009     -1.4615e-009    1.3629e-008    
  -0.7            -1.844e-009     -1.234e-008     -8.952e-009    
  -0.75           1.1548e-009     -4.5034e-008    -1.0131e-008   
  -0.8            2.3516e-009     -1.4847e-007    -9.556e-009    
  -0.85           5.914e-010      -4.6766e-007    8.284e-009     
  -0.9            -1.949e-009     -1.2858e-006    -1.3035e-008   
  -0.95           1.3126e-009     -3.3338e-006    -1.5888e-008   
  -1              1.0699e-009     -7.3315e-006    -3.214e-009    
  -1.05           1.153e-009      -1.4665e-005    3.079e-009     
  -1.1            1.3669e-009     -2.6055e-005    -1.5044e-008   
  -1.15           1.0776e-009     -4.2251e-005    -3.205e-009    
  -1.2            1.1013e-009     -6.392e-005     -4.108e-009    
  -1.25           1.1587e-009     -9.0848e-005    -9.677e-009    
  -1.3            -1.2547e-009    -0.00012179     2.69e-009      
  -1.35           -1.2506e-009    -0.0001579      2.608e-009     
  -1.4            -1.9437e-009    -0.00019852     4.263e-009     
  -1.45           1.1586e-009     -0.00024435     -9.378e-009    
  -1.5            1.6463e-009     -0.00029174     -1.2464e-008   
  -1.55           1.4177e-009     -0.00034245     1.387e-008     
  -1.6            3.508e-010      -0.00039524     8.861e-009     
  -1.65           6.294e-010      -0.00045157     8.479e-009     
  -1.7            1.0328e-009     -0.00050959     1.0614e-008    
  -1.75           1.4737e-009     -0.00056793     1.4669e-008    
  -1.8            3.963e-010      -0.00062854     9.161e-009     
END_DB

BEGIN_DB
 ICCAP_VAR VS         0              
 ICCAP_VAR VB         1.8            
 ICCAP_VAR VD         -0.1           

 #VG              IG              ID              IB             
  0               -1.2525e-009    -1.0746e-009    8.883e-009     
  -0.05           1.9267e-009     9.539e-010      -1.0698e-008   
  -0.1            -1.2497e-009    1.101e-009      1.0223e-008    
  -0.15           -1.2743e-009    -1.2591e-009    5.05e-009      
  -0.2            1.363e-010      -1.8108e-009    -9.576e-009    
  -0.25           1.1557e-009     5.78e-011       -1.1744e-008   
  -0.3            1.1552e-009     -9.16e-011      -1.4243e-008   
  -0.35           1.6107e-009     -2.336e-010     -1.5872e-008   
  -0.4            1.1895e-009     1.1777e-009     1.4426e-008    
  -0.45           -2.69e-011      1.6466e-009     8.221e-009     
  -0.5            1.287e-010      1.7475e-009     9.093e-009     
  -0.55           2.723e-010      1.8101e-009     9.111e-009     
  -0.6            -1.2558e-009    7.734e-010      8.576e-009     
  -0.65           -8.72e-010      -1.6486e-009    2.054e-009     
  -0.7            1.152e-009      -4.21e-011      -1.2308e-008   
  -0.75           1.7612e-009     -3.222e-010     -1.4686e-008   
  -0.8            -2.2658e-009    -1.7933e-009    1.3872e-008    
  -0.85           1.1163e-009     -5.1793e-009    -1.365e-008    
  -0.9            -2.2506e-009    -1.8686e-008    -1.2488e-008   
  -0.95           1.1532e-009     -7.4592e-008    -1.0594e-008   
  -1              -5.301e-010     -2.4184e-007    9.564e-009     
  -1.05           1.1413e-009     -7.4919e-007    -9.185e-009    
  -1.1            1.2763e-009     -1.8916e-006    3.071e-009     
  -1.15           2.656e-010      -4.1471e-006    8.573e-009     
  -1.2            5.479e-010      -8.0812e-006    8.385e-009     
  -1.25           -2.1454e-009    -1.3651e-005    9.718e-009     
  -1.3            -1.589e-010     -2.0995e-005    -9.644e-009    
  -1.35           1.3771e-009     -2.9659e-005    -1.4984e-008   
  -1.4            1.0792e-009     -3.8942e-005    -3.336e-009    
  -1.45           1.1003e-009     -4.8618e-005    -4.127e-009    
  -1.5            1.1525e-009     -5.8173e-005    -9.715e-009    
  -1.55           1.6271e-009     -6.743e-005     -1.2658e-008   
  -1.6            1.4311e-009     -7.6317e-005    1.4556e-008    
  -1.65           3.741e-010      -8.4763e-005    9.074e-009     
  -1.7            6.393e-010      -9.288e-005     8.411e-009     
  -1.75           1.0503e-009     -0.0001004      1.0993e-008    
  -1.8            1.4831e-009     -0.000107428    1.5037e-008    
END_DB

BEGIN_DB
 ICCAP_VAR VS         0              
 ICCAP_VAR VB         1.8            
 ICCAP_VAR VD         -1.8           

 #VG              IG              ID              IB             
  0               -1.2456e-009    -1.0685e-009    8.691e-009     
  -0.05           1.1527e-009     -1.96e-011      -1.2382e-008   
  -0.1            1.7525e-009     -1.48e-010      -1.4611e-008   
  -0.15           1.852e-009      9.297e-010      -6.68e-010     
  -0.2            -1.249e-009     9.998e-010      8.795e-009     
  -0.25           -1.1677e-009    -1.373e-009     3.124e-009     
  -0.3            1.6184e-009     -1.98e-010      -1.566e-008    
  -0.35           1.1722e-009     1.1794e-009     1.4565e-008    
  -0.4            -3.25e-011      1.6575e-009     8.16e-009      
  -0.45           1.27e-010       1.7476e-009     9.05e-009      
  -0.5            -1.2589e-009    6.348e-010      8.996e-009     
  -0.55           -6.859e-010     -1.7999e-009    3.078e-009     
  -0.6            1.9927e-009     9.589e-010      -1.1005e-008   
  -0.65           -1.2438e-009    1.1065e-009     1.0152e-008    
  -0.7            -2.1707e-009    -1.3706e-009    7.105e-009     
  -0.75           1.1319e-009     -2.7138e-009    -1.183e-008    
  -0.8            1.1545e-009     -7.2099e-009    -1.0791e-008   
  -0.85           -2.1834e-009    -3.0988e-008    -1.1401e-008   
  -0.9            -1.256e-009     -1.1317e-007    -3.51e-009     
  -0.95           -1.2484e-009    -3.7662e-007    2.312e-009     
  -1              -2.0835e-009    -1.105e-006     -1.4655e-008   
  -1.05           -2.077e-010     -2.9011e-006    -9.58e-009     
  -1.1            1.151e-009      -6.7719e-006    -1.4314e-008   
  -1.15           1.1575e-009     -1.3734e-005    2.801e-009     
  -1.2            1.4013e-009     -2.4799e-005    -1.4762e-008   
  -1.25           1.0806e-009     -4.0674e-005    -3.422e-009    
  -1.3            1.0976e-009     -6.2051e-005    -4.141e-009    
  -1.35           1.1559e-009     -8.873e-005     -9.414e-009    
  -1.4            -1.2731e-009    -0.00011937     2.337e-009     
  -1.45           -1.2543e-009    -0.00015514     2.874e-009     
  -1.5            -1.2453e-009    -0.00019534     1.725e-009     
  -1.55           -1.7087e-009    -0.00023944     7.526e-009     
  -1.6            1.1566e-009     -0.00028789     -1.0613e-008   
  -1.65           1.3928e-009     -0.000338       -1.4809e-008   
  -1.7            1.0792e-009     -0.00039024     -3.512e-009    
  -1.75           1.0983e-009     -0.00044512     -4.172e-009    
  -1.8            1.1578e-009     -0.00050231     -9.673e-009    
END_DB

