! VERSION = 6.00
BEGIN_HEADER
 ICCAP_INPUTS
  VG         V  B GROUND SMU4 0.001 LIN        2    0          -1.8       6    -0.36     
  VS         V  E GROUND SMU2 0.1 CON        0
  VD         V  S GROUND SMU1 0.1 LIN        1    0          -1.8       37   -0.05     
  VB         V  C GROUND SMU3 0.1 LIN        3    0          0.9        2    0.9       
 ICCAP_OUTPUTS
  ID         I  S GROUND SMU1 B
  IB         I  C GROUND SMU3 B
  IG         I  B GROUND SMU4 B
END_HEADER

BEGIN_DB
 ICCAP_VAR VG         0              
 ICCAP_VAR VS         0              
 ICCAP_VAR VB         0              

 #VD              ID              IB              IG             
  0               -1.0383e-009    -1.3131e-008    -1.1889e-009   
  -0.05           -1.2166e-009    -1.0338e-008    1.1519e-009    
  -0.1            7.64e-011       -1.2613e-008    1.1622e-009    
  -0.15           -1.02e-010      -1.4592e-008    1.1567e-009    
  -0.2            -2.118e-010     -1.6709e-008    1.596e-009     
  -0.25           9.51e-010       -2.592e-009     1.9582e-009    
  -0.3            1.113e-009      9.168e-009      -1.2484e-009   
  -0.35           -1.2639e-009    5.853e-009      -1.2907e-009   
  -0.4            -1.1104e-009    -1.4427e-008    1.1126e-009    
  -0.45           9.484e-010      -1.0974e-008    1.9478e-009    
  -0.5            1.0983e-009     9.064e-009      -1.2476e-009   
  -0.55           -1.2768e-009    5.393e-009      -1.2804e-009   
  -0.6            9.097e-010      -6.518e-009     1.7288e-009    
  -0.65           8.425e-010      8.638e-009      -1.2501e-009   
  -0.7            -1.5894e-009    2.128e-009      -9.576e-010    
  -0.75           -5.54e-011      -1.4046e-008    1.1595e-009    
  -0.8            -1.804e-010     -1.6039e-008    1.6652e-009    
  -0.85           1.2194e-009     1.4444e-008     1.1742e-009    
  -0.9            1.0565e-009     1.6228e-008     1.3594e-009    
  -0.95           1.7641e-009     8.922e-009      1.221e-010     
  -1              1.821e-009      8.904e-009      2.696e-010     
  -1.05           7.932e-010      8.602e-009      -1.2486e-009   
  -1.1            -1.6433e-009    2.288e-009      -8.964e-010    
  -1.15           1.02e-011       -1.324e-008     1.1669e-009    
  -1.2            -1.439e-010     -1.5247e-008    1.762e-009     
  -1.25           1.2808e-009     1.3985e-008     1.1e-009       
  -1.3            1.1123e-009     1.4794e-008     1.3022e-009    
  -1.35           1.7236e-009     8.497e-009      6.92e-011      
  -1.4            1.8187e-009     9.207e-009      2.066e-010     
  -1.45           7.348e-010      8.911e-009      -1.2531e-009   
  -1.5            -1.7029e-009    2.629e-009      -8.15e-010     
  -1.55           7.51e-011       -1.2378e-008    1.1596e-009    
  -1.6            -9.75e-011      -1.4706e-008    1.1575e-009    
  -1.65           -2.093e-010     -1.6664e-008    1.5988e-009    
  -1.7            1.1747e-009     1.4778e-008     1.2317e-009    
  -1.75           1.7049e-009     8.099e-009      -1.4e-012      
  -1.8            1.782e-009      9.124e-009      1.646e-010     
END_DB

BEGIN_DB
 ICCAP_VAR VG         -0.36          
 ICCAP_VAR VS         0              
 ICCAP_VAR VB         0              

 #VD              ID              IB              IG             
  0               -1.0008e-009    -1.5915e-008    -1.1704e-009   
  -0.05           -1.9382e-009    -9.419e-009     -2.467e-010    
  -0.1            9.154e-010      -5.449e-009     1.6848e-009    
  -0.15           7.829e-010      8.778e-009      -1.2545e-009   
  -0.2            -1.645e-009     2.22e-009       -8.832e-010    
  -0.25           1.49e-011       -1.3125e-008    1.1574e-009    
  -0.3            -1.405e-010     -1.518e-008     1.1516e-009    
  -0.35           -2.466e-010     -1.7434e-008    1.5192e-009    
  -0.4            9.61e-010       -3.159e-009     1.9961e-009    
  -0.45           1.1461e-009     9.467e-009      -1.2451e-009   
  -0.5            -1.2215e-009    6.61e-009       -1.324e-009    
  -0.55           -1.132e-009     -1.3186e-008    1.1218e-009    
  -0.6            9.561e-010      -1.1079e-008    1.9806e-009    
  -0.65           1.1229e-009     9.411e-009      -1.2462e-009   
  -0.7            -1.2421e-009    6.12e-009       -1.3072e-009   
  -0.75           9.116e-010      -7.196e-009     1.7612e-009    
  -0.8            8.692e-010      8.667e-009      -1.2532e-009   
  -0.85           -1.5531e-009    1.974e-009      -9.953e-010    
  -0.9            -8.77e-011      -1.4296e-008    1.1559e-009    
  -0.95           -2.062e-010     -1.6533e-008    1.6164e-009    
  -1              1.1766e-009     1.4446e-008     1.2064e-009    
  -1.05           1.0256e-009     1.6008e-008     1.3891e-009    
  -1.1            1.7702e-009     9.029e-009      1.405e-010     
  -1.15           6.565e-010      9.008e-009      -1.2598e-009   
  -1.2            -1.7775e-009    2.998e-009      -7.128e-010    
  -1.25           -1.4456e-009    -8.841e-009     1.1569e-009    
  -1.3            -2.071e-010     -1.6466e-008    1.6106e-009    
  -1.35           9.402e-010      -2.383e-009     1.9475e-009    
  -1.4            1.0856e-009     9.174e-009      -1.2496e-009   
  -1.45           -1.2891e-009    5.473e-009      -1.2742e-009   
  -1.5            -1.114e-009     -1.4631e-008    1.1097e-009    
  -1.55           9.342e-010      -1.0699e-008    1.9431e-009    
  -1.6            1.0696e-009     9.054e-009      -1.249e-009    
  -1.65           -1.3044e-009    5.055e-009      -1.2564e-009   
  -1.7            -1.0983e-009    -1.5219e-008    1.1072e-009    
  -1.75           9.289e-010      -1.0629e-008    1.9185e-009    
  -1.8            1.0462e-009     9.06e-009       -1.2503e-009   
END_DB

BEGIN_DB
 ICCAP_VAR VG         -0.72          
 ICCAP_VAR VS         0              
 ICCAP_VAR VB         0              

 #VD              ID              IB              IG             
  0               7.543e-010      -9.199e-009     1.1361e-009    
  -0.05           -1.723e-008     -1.4623e-008    -2.3566e-009   
  -0.1            -1.9604e-008    7.496e-009      1.765e-010     
  -0.15           -2.3561e-008    -1.1645e-008    1.164e-009     
  -0.2            -2.5491e-008    -1.0169e-008    1.161e-009     
  -0.25           -2.953e-008     -8.843e-009     -1.38e-011     
  -0.3            -3.0489e-008    5.013e-009      -1.9074e-009   
  -0.35           -3.0058e-008    1.0495e-008     9.339e-010     
  -0.4            -3.3314e-008    -4.461e-009     1.102e-009     
  -0.45           -3.7968e-008    -8.833e-009     -6.541e-010    
  -0.5            -3.8874e-008    1.914e-009      -1.2596e-009   
  -0.55           -3.8251e-008    8.817e-009      4.068e-010     
  -0.6            -4.2689e-008    -1.5249e-008    1.4253e-009    
  -0.65           -4.4835e-008    -1.3689e-008    1.553e-009     
  -0.7            -4.6961e-008    -1.2582e-008    1.6874e-009    
  -0.75           -4.8878e-008    -1.1641e-008    1.1628e-009    
  -0.8            -5.0844e-008    -1.0167e-008    1.1585e-009    
  -0.85           -5.458e-008     -8.935e-009     -1.87e-011     
  -0.9            -5.5611e-008    5.084e-009      -1.9074e-009   
  -0.95           -5.5807e-008    1.0516e-008     9.357e-010     
  -1              -5.9478e-008    -4.526e-009     1.1044e-009    
  -1.05           -6.3449e-008    -8.845e-009     -6.547e-010    
  -1.1            -6.484e-008     1.874e-009      -1.26e-009     
  -1.15           -6.4853e-008    8.792e-009      4.382e-010     
  -1.2            -6.9707e-008    -1.5558e-008    1.4133e-009    
  -1.25           -7.2163e-008    -1.3737e-008    1.5478e-009    
  -1.3            -7.539e-008     -8.771e-009     1.0839e-009    
  -1.35           -7.6547e-008    -1.18e-008      1.1632e-009    
  -1.4            -7.8805e-008    -1.0194e-008    1.1591e-009    
  -1.45           -8.2214e-008    -8.92e-009      -2.28e-011     
  -1.5            -8.3228e-008    5.094e-009      -1.9068e-009   
  -1.55           -8.4267e-008    1.0578e-008     9.343e-010     
  -1.6            -8.8121e-008    -4.558e-009     1.105e-009     
  -1.65           -9.1309e-008    -1.2858e-008    1.6497e-009    
  -1.7            -9.3782e-008    -1.1824e-008    1.1643e-009    
  -1.75           -9.5976e-008    -1.0287e-008    1.1605e-009    
  -1.8            -9.9428e-008    -9.005e-009     -4.75e-011     
END_DB

BEGIN_DB
 ICCAP_VAR VG         -1.08          
 ICCAP_VAR VS         0              
 ICCAP_VAR VB         0              

 #VD              ID              IB              IG             
  0               -1.4873e-009    1.2931e-008     -1.2439e-009   
  -0.05           -1.0823e-006    1.425e-008      1.2485e-009    
  -0.1            -1.8657e-006    -9.707e-009     -2.146e-010    
  -0.15           -2.4079e-006    1.4742e-008     -1.4254e-009   
  -0.2            -2.787e-006     7.915e-009      2.16e-010      
  -0.25           -3.0682e-006    -1.5129e-008    1.4527e-009    
  -0.3            -3.2624e-006    -1.6817e-008    1.2783e-009    
  -0.35           -3.3913e-006    -9.601e-009     -1.865e-010    
  -0.4            -3.5e-006       1.3941e-008     -1.4487e-009   
  -0.45           -3.6153e-006    1.5985e-008     1.6029e-009    
  -0.5            -3.7305e-006    -9.491e-009     1.1531e-009    
  -0.55           -3.7803e-006    -9.522e-009     -4.43e-010     
  -0.6            -3.8544e-006    2.154e-009      -1.2527e-009   
  -0.65           -3.962e-006     8.574e-009      5.792e-010     
  -0.7            -4.0339e-006    -3.606e-009     1.0794e-009    
  -0.75           -4.1092e-006    -1.4296e-008    1.5264e-009    
  -0.8            -4.1804e-006    -1.645e-008     1.3432e-009    
  -0.85           -4.2307e-006    -9.26e-009      -1.243e-010    
  -0.9            -4.2795e-006    1.2853e-008     -1.5063e-009   
  -0.95           -4.3633e-006    1.5069e-008     1.5475e-009    
  -1              -4.4389e-006    -1.4083e-008    1.5722e-009    
  -1.05           -4.4933e-006    -8.715e-009     8.06e-011      
  -1.1            -4.5298e-006    8.424e-009      -1.7104e-009   
  -1.15           -4.6226e-006    1.3885e-008     1.37e-009      
  -1.2            -4.6837e-006    -1.188e-008     1.1593e-009    
  -1.25           -4.7424e-006    -1.2013e-008    1.1605e-009    
  -1.3            -4.802e-006     -1.2346e-008    1.7663e-009    
  -1.35           -4.8613e-006    -1.4136e-008    1.5627e-009    
  -1.4            -4.9102e-006    -8.819e-009     6.04e-011      
  -1.45           -4.9407e-006    8.801e-009      -1.6999e-009   
  -1.5            -5.0296e-006    1.3959e-008     1.3839e-009    
  -1.55           -5.0955e-006    -1.2077e-008    1.158e-009     
  -1.6            -5.1529e-006    -1.032e-008     1.1601e-009    
  -1.65           -5.208e-006     -1.065e-008     1.1603e-009    
  -1.7            -5.2645e-006    -1.0957e-008    1.1628e-009    
  -1.75           -5.3193e-006    -1.0938e-008    1.16e-009      
  -1.8            -5.3732e-006    -1.1205e-008    1.1598e-009    
END_DB

BEGIN_DB
 ICCAP_VAR VG         -1.44          
 ICCAP_VAR VS         0              
 ICCAP_VAR VB         0              

 #VD              ID              IB              IG             
  0               -1.696e-009     1.4953e-008     1.0635e-009    
  -0.05           -3.0377e-006    -9.487e-009     -1.2539e-009   
  -0.1            -5.7766e-006    8.553e-009      6.233e-010     
  -0.15           -8.1935e-006    -3.982e-009     1.0887e-009    
  -0.2            -1.03037e-005   -1.506e-008     1.4603e-009    
  -0.25           -1.2088e-005    -9.067e-009     2.2111e-009    
  -0.3            -1.3632e-005    -1.5956e-008    1.3494e-009    
  -0.35           -1.4899e-005    -1.1083e-008    1.1624e-009    
  -0.4            -1.5935e-005    -1.4952e-008    1.4464e-009    
  -0.45           -1.68e-005      -1.0709e-008    1.1625e-009    
  -0.5            -1.7498e-005    -1.416e-008     1.5505e-009    
  -0.55           -1.81e-005      -1.1e-008       1.1618e-009    
  -0.6            -1.8586e-005    -1.463e-008     1.4939e-009    
  -0.65           -1.9024e-005    -1.0275e-008    1.159e-009     
  -0.7            -1.9319e-005    -8.904e-009     -5.776e-010    
  -0.75           -1.9644e-005    2.38e-009       -1.2475e-009   
  -0.8            -2.0013e-005    1.4456e-008     1.4503e-009    
  -0.85           -2.0311e-005    -1.7056e-008    1.2469e-009    
  -0.9            -2.0558e-005    -1.1939e-008    1.1595e-009    
  -0.95           -2.0812e-005    -1.6205e-008    1.3319e-009    
  -1              -2.1047e-005    -1.1194e-008    1.1603e-009    
  -1.05           -2.1259e-005    -1.5221e-008    1.429e-009     
  -1.1            -2.1483e-005    -1.0912e-008    1.1612e-009    
  -1.15           -2.1676e-005    -1.4318e-008    1.5337e-009    
  -1.2            -2.1889e-005    -1.0877e-008    1.1571e-009    
  -1.25           -2.2067e-005    -1.4713e-008    1.4723e-009    
  -1.3            -2.2271e-005    -1.0316e-008    1.1566e-009    
  -1.35           -2.244e-005     -1.5246e-008    1.4169e-009    
  -1.4            -2.2554e-005    -9.593e-009     -3.849e-010    
  -1.45           -2.2709e-005    2.958e-009      -1.249e-009    
  -1.5            -2.2978e-005    1.2511e-008     1.2283e-009    
  -1.55           -2.3136e-005    -1.4557e-008    1.491e-009     
  -1.6            -2.3313e-005    -1.0297e-008    1.1581e-009    
  -1.65           -2.3377e-005    -9.017e-009     -5.755e-010    
  -1.7            -2.3534e-005    2.408e-009      -1.2467e-009   
  -1.75           -2.3772e-005    1.4443e-008     1.4479e-009    
  -1.8            -2.3953e-005    -1.7151e-008    1.25e-009      
END_DB

BEGIN_DB
 ICCAP_VAR VG         -1.8           
 ICCAP_VAR VS         0              
 ICCAP_VAR VB         0              

 #VD              ID              IB              IG             
  0               -9.488e-009     -9.646e-009     3.577e-010     
  -0.05           -4.5626e-006    2.441e-009      1.0288e-009    
  -0.1            -8.8888e-006    -9.12e-009      1.158e-009     
  -0.15           -1.2959e-005    -9.264e-009     2.2347e-009    
  -0.2            -1.6786e-005    -1.4631e-008    1.1503e-009    
  -0.25           -2.0328e-005    -1.2234e-008    1.7684e-009    
  -0.3            -2.3597e-005    -9.386e-009     -1.812e-010    
  -0.35           -2.6569e-005    2.432e-009      -1.2534e-009   
  -0.4            -2.9328e-005    1.061e-008      9.573e-010     
  -0.45           -3.1745e-005    -1.1579e-008    1.1609e-009    
  -0.5            -3.3855e-005    -8.892e-009     -8.301e-010    
  -0.55           -3.5766e-005    2.741e-009      -1.2398e-009   
  -0.6            -3.751e-005     8.579e-009      5.713e-010     
  -0.65           -3.8985e-005    -7.17e-009      1.1408e-009    
  -0.7            -4.0255e-005    -1.1554e-008    1.157e-009     
  -0.75           -4.1377e-005    -1.5558e-008    1.373e-009     
  -0.8            -4.2287e-005    -9.524e-009     -4.248e-010    
  -0.85           -4.313e-005     2.978e-009      -1.2483e-009   
  -0.9            -4.3995e-005    1.2963e-008     1.2733e-009    
  -0.95           -4.4667e-005    -1.504e-008     1.447e-009     
  -1              -4.529e-005     -1.0629e-008    1.1593e-009    
  -1.05           -4.5837e-005    -1.412e-008     1.5555e-009    
  -1.1            -4.6366e-005    -1.1122e-008    1.1599e-009    
  -1.15           -4.6825e-005    -1.4616e-008    1.4928e-009    
  -1.2            -4.7289e-005    -1.0248e-008    1.1596e-009    
  -1.25           -4.759e-005     -9.085e-009     -5.754e-010    
  -1.3            -4.7977e-005    2.325e-009      -1.2467e-009   
  -1.35           -4.8455e-005    1.4477e-008     1.449e-009     
  -1.4            -4.8845e-005    -1.7049e-008    1.243e-009     
  -1.45           -4.9178e-005    -1.1809e-008    1.1639e-009    
  -1.5            -4.9385e-005    -8.917e-009     -7.91e-010     
  -1.55           -4.9723e-005    2.717e-009      -1.2389e-009   
  -1.6            -5.0112e-005    1.5388e-008     1.6427e-009    
  -1.65           -5.0483e-005    -1.9851e-008    1.1037e-009    
  -1.7            -5.076e-005     -1.3892e-008    1.5673e-009    
  -1.75           -5.1068e-005    -9.668e-009     1.1606e-009    
  -1.8            -5.1333e-005    -1.2891e-008    1.6793e-009    
END_DB

BEGIN_DB
 ICCAP_VAR VG         0              
 ICCAP_VAR VS         0              
 ICCAP_VAR VB         0.9            

 #VD              ID              IB              IG             
  0               4.182e-010      -1.8194e-008    1.1641e-009    
  -0.05           9.858e-010      8.857e-009      -1.2489e-009   
  -0.1            -1.4217e-009    3.069e-009      -1.1372e-009   
  -0.15           -1.672e-010     -1.5642e-008    1.7008e-009    
  -0.2            1.2475e-009     1.4037e-008     1.1367e-009    
  -0.25           1.0924e-009     1.508e-008      1.3179e-009    
  -0.3            1.7284e-009     8.579e-009      8.37e-011      
  -0.35           1.8171e-009     9.244e-009      2.192e-010     
  -0.4            7.426e-010      8.81e-009       -1.2528e-009   
  -0.45           -1.7059e-009    2.548e-009      -8.005e-010    
  -0.5            9.46e-011       -1.2347e-008    1.161e-009     
  -0.55           -8.44e-011      -1.4273e-008    1.1631e-009    
  -0.6            -1.951e-010     -1.6152e-008    1.6426e-009    
  -0.65           1.213e-009      1.4165e-008     1.183e-009     
  -0.7            1.0588e-009     1.5223e-008     1.3615e-009    
  -0.75           1.7623e-009     8.647e-009      1.088e-010     
  -0.8            1.8205e-009     8.878e-009      2.615e-010     
  -0.85           7.645e-010      8.588e-009      -1.252e-009    
  -0.9            -1.67e-009      2.425e-009      -8.555e-010    
  -0.95           -1.5333e-009    -8.686e-009     1.063e-009     
  -1              9.274e-010      -4.823e-009     1.63e-009      
  -1.05           7.236e-010      8.927e-009      -1.2552e-009   
  -1.1            -1.72e-009      2.69e-009       -7.893e-010    
  -1.15           9.886e-010      -1.2041e-008    2.0875e-009    
  -1.2            1.2361e-009     1.0651e-008     -1.2408e-009   
  -1.25           -1.1527e-009    9.396e-009      -1.4089e-009   
  -1.3            -1.1812e-009    -1.1378e-008    1.1382e-009    
  -1.35           9.796e-010      -1.1781e-008    2.0461e-009    
  -1.4            1.2051e-009     1.1075e-008     -1.2455e-009   
  -1.45           -1.1826e-009    8.146e-009      -1.3753e-009   
  -1.5            -1.8709e-009    -9.54e-009      1.74e-011      
  -1.55           -1.42e-011      -1.4938e-008    1.1651e-009    
  -1.6            -1.964e-010     -1.552e-008     1.7006e-009    
  -1.65           9.355e-010      -1.4e-009       1.9072e-009    
  -1.7            1.0465e-009     8.842e-009      -1.248e-009    
  -1.75           -1.3535e-009    4.195e-009      -1.2137e-009   
  -1.8            -2.122e-010     -1.653e-008     1.5973e-009    
END_DB

BEGIN_DB
 ICCAP_VAR VG         -0.36          
 ICCAP_VAR VS         0              
 ICCAP_VAR VB         0.9            

 #VD              ID              IB              IG             
  0               -1.0337e-009    -1.3525e-008    -1.1867e-009   
  -0.05           -1.2271e-009    -1.0288e-008    1.1487e-009    
  -0.1            7.01e-011       -1.2465e-008    1.1591e-009    
  -0.15           -1.003e-010     -1.4455e-008    1.1558e-009    
  -0.2            -2.065e-010     -1.6658e-008    1.5998e-009    
  -0.25           9.485e-010      -2.501e-009     1.9504e-009    
  -0.3            1.0958e-009     9.122e-009      -1.2496e-009   
  -0.35           -1.2855e-009    5.318e-009      -1.2676e-009   
  -0.4            9.132e-010      -6.012e-009     1.7145e-009    
  -0.45           8.056e-010      8.658e-009      -1.2531e-009   
  -0.5            -1.6186e-009    2.09e-009       -9.224e-010    
  -0.55           5.1e-012        -1.3355e-008    1.1602e-009    
