! VERSION = 6.00
BEGIN_HEADER
 ICCAP_INPUTS
  VG         V  B GROUND SMU4 0.001 LIN        1    0          -1.8       37   -0.05     
  VS         V  E GROUND SMU2 0.1 CON        0
  VB         V  C GROUND SMU3 0.1 LIN        3    0          1.8        3    0.9       
  VD         V  S GROUND SMU1 0.1 LIN        2    -0.1       -1.8       2    -1.7      
 ICCAP_OUTPUTS
  IG         I  B GROUND SMU4 B
  ID         I  S GROUND SMU1 B
  IB         I  C GROUND SMU3 B
END_HEADER

BEGIN_DB
 ICCAP_VAR VS         0              
 ICCAP_VAR VB         0              
 ICCAP_VAR VD         -0.1           

 #VG              IG              ID              IB             
  0               1.1056e-009     9.449e-010      3.032e-009     
  -0.05           1.0045e-009     1.3714e-009     1.2657e-008    
  -0.1            1.2007e-009     1.2049e-009     1.3568e-008    
  -0.15           -4.2e-012       1.6809e-009     8.085e-009     
  -0.2            1.423e-010      1.7917e-009     8.684e-009     
  -0.25           2.924e-010      1.8481e-009     8.643e-009     
  -0.3            -1.2482e-009    8.285e-010      8.291e-009     
  -0.35           -9.66e-010      -1.6269e-009    2.95e-009      
  -0.4            1.1778e-009     -6.08e-011      -1.324e-008    
  -0.45           1.1701e-009     -1.864e-010     -1.5672e-008   
  -0.5            2.0448e-009     9.916e-010      -3.514e-009    
  -0.55           -1.2318e-009    1.2078e-009     1.0032e-008    
  -0.6            -2.2744e-009    -1.216e-009     9.855e-009     
  -0.65           4.68e-011       -2.496e-009     -9.67e-009     
  -0.7            1.1821e-009     -2.5488e-009    -1.2944e-008   
  -0.75           1.183e-009      -9.113e-009     -1.5258e-008   
  -0.8            -1.916e-009     -2.8407e-008    -8.296e-009    
  -0.85           1.4247e-009     -7.6635e-008    -1.5006e-008   
  -0.9            -7.888e-010     -1.7797e-007    1.5107e-008    
  -0.95           1.093e-009      -3.664e-007     -8.727e-009    
  -1              1.1641e-009     -6.5228e-007    -6.909e-009    
  -1.05           1.1725e-009     -1.03951e-006   -1.1451e-008   
  -1.1            1.2667e-009     -1.5147e-006    3.714e-009     
  -1.15           2.564e-010      -2.0522e-006    8.64e-009      
  -1.2            5.337e-010      -2.6582e-006    8.581e-009     
  -1.25           9.041e-010      -3.2927e-006    9.081e-009     
  -1.3            1.3495e-009     -3.9338e-006    1.3162e-008    
  -1.35           3.095e-010      -4.5781e-006    8.968e-009     
  -1.4            5.929e-010      -5.2362e-006    8.333e-009     
  -1.45           9.901e-010      -5.8802e-006    9.639e-009     
  -1.5            1.4348e-009     -6.4981e-006    1.3756e-008    
  -1.55           3.768e-010      -7.1058e-006    9.089e-009     
  -1.6            6.558e-010      -7.7061e-006    8.211e-009     
  -1.65           1.0845e-009     -8.2854e-006    1.0338e-008    
  -1.7            1.5094e-009     -8.8361e-006    1.4629e-008    
  -1.75           4.329e-010      -9.375e-006     9.085e-009     
  -1.8            7.277e-010      -9.9069e-006    8.875e-009     
END_DB

BEGIN_DB
 ICCAP_VAR VS         0              
 ICCAP_VAR VB         0              
 ICCAP_VAR VD         -1.8           

 #VG              IG              ID              IB             
  0               1.1866e-009     1.005e-009      3.276e-009     
  -0.05           -1.249e-009     1.0245e-009     8.816e-009     
  -0.1            -1.2053e-009    -1.3983e-009    4.166e-009     
  -0.15           2.875e-010      -1.7939e-009    -9.215e-009    
  -0.2            5.5e-011        -1.8428e-009    -9.825e-009    
  -0.25           1.1851e-009     7e-012          -1.2581e-008   
  -0.3            1.1723e-009     -1.51e-010      -1.5004e-008   
  -0.35           1.5172e-009     -2.503e-010     -1.79e-008     
  -0.4            1.2782e-009     1.1235e-009     1.4473e-008    
  -0.45           4.59e-011       1.7275e-009     8.767e-009     
  -0.5            2.055e-010      1.8036e-009     9.2e-009       
  -0.55           -1.2581e-009    6.914e-010      8.802e-009     
  -0.6            -1.6854e-009    -1.2635e-009    3.484e-009     
  -0.65           -3.84e-010      -2.6993e-009    -8.88e-009     
  -0.7            1.1754e-009     -4.1966e-009    -1.0134e-008   
  -0.75           -1.254e-009     -1.1496e-008    -9.025e-009    
  -0.8            -1.2333e-009    -3.4379e-008    3.127e-009     
  -0.85           -1.6725e-009    -9.3623e-008    9.685e-009     
  -0.9            2.337e-010      -2.2385e-007    -8.953e-009    
  -0.95           5.084e-010      -4.803e-007     8.76e-009      
  -1              8.616e-010      -9.1007e-007    8.877e-009     
  -1.05           -1.9514e-009    -1.5462e-006    -1.2635e-008   
  -1.1            -9.396e-010     -2.4315e-006    -8.834e-009    
  -1.15           1.6182e-009     -3.6611e-006    -1.3262e-008   
  -1.2            1.4534e-009     -5.1496e-006    1.3805e-008    
  -1.25           3.902e-010      -6.9436e-006    9.231e-009     
  -1.3            6.664e-010      -9.0947e-006    8.28e-009      
  -1.35           -1.7661e-009    -1.1459e-005    1.0684e-008    
  -1.4            -4.412e-010     -1.4169e-005    -9.635e-009    
  -1.45           1.1808e-009     -1.7255e-005    -9.63e-009     
  -1.5            1.3652e-009     -2.0527e-005    -1.5989e-008   
  -1.55           1.0883e-009     -2.4058e-005    -3.553e-009    
  -1.6            1.1298e-009     -2.7871e-005    -4.002e-009    
  -1.65           1.1847e-009     -3.1892e-005    -9.267e-009    
  -1.7            1.5729e-009     -3.6114e-005    -1.3836e-008   
  -1.75           1.4843e-009     -4.0534e-005    1.4148e-008    
  -1.8            4.015e-010      -4.5151e-005    9.266e-009     
END_DB

BEGIN_DB
 ICCAP_VAR VS         0              
 ICCAP_VAR VB         0.9            
 ICCAP_VAR VD         -0.1           

 #VG              IG              ID              IB             
  0               1.1254e-009     9.271e-010      3.494e-009     
  -0.05           1.0996e-009     1.2861e-009     1.3027e-008    
  -0.1            1.2919e-009     1.1089e-009     1.4364e-008    
  -0.15           6.69e-011       1.7354e-009     8.657e-009     
  -0.2            2.19e-010       1.8227e-009     8.837e-009     
  -0.25           -1.2543e-009    7.519e-010      8.511e-009     
  -0.3            -8.652e-010     -1.7145e-009    3.535e-009     
  -0.35           1.1736e-009     -1.5536e-009    -8.652e-009    
  -0.4            2.0463e-009     1.0039e-009     -3.521e-009    
  -0.45           -1.2355e-009    1.2469e-009     1.0082e-008    
  -0.5            -1.4459e-009    -1.1513e-009    9.663e-009     
  -0.55           1.1706e-009     -1.2186e-009    -1.0322e-008   
  -0.6            1.1859e-009     9.29e-011       -1.1511e-008   
  -0.65           1.1845e-009     -8.57e-011      -1.3828e-008   
  -0.7            1.6334e-009     -2.035e-010     -1.6273e-008   
  -0.75           1.1893e-009     1.1882e-009     1.3401e-008    
  -0.8            -1.94e-011      1.6366e-009     8.127e-009     
  -0.85           -1.2734e-009    2.947e-010      8.767e-009     
  -0.9            -2.3985e-009    -2.1566e-009    3.528e-009     
  -0.95           1.1821e-009     -4.8995e-009    -1.0603e-008   
  -1              -2.4379e-009    -1.9999e-008    -1.6949e-008   
  -1.05           1.1865e-009     -6.2106e-008    -1.1949e-008   
  -1.1            1.647e-010      -1.6528e-007    3.814e-009     
  -1.15           1.1873e-009     -3.6209e-007    -1.1614e-008   
  -1.2            1.0919e-009     -6.7145e-007    -3.526e-009    
  -1.25           1.1209e-009     -1.0987e-006    -3.787e-009    
  -1.3            1.6376e-009     -1.6051e-006    3.416e-009     
  -1.35           5.232e-010      -2.1875e-006    8.442e-009     
  -1.4            8.956e-010      -2.8076e-006    1.0059e-008    
  -1.45           1.3493e-009     -3.4306e-006    1.3069e-008    
  -1.5            3.241e-010      -4.0523e-006    9.053e-009     
  -1.55           6.311e-010      -4.6862e-006    8.402e-009     
  -1.6            1.0123e-009     -5.3014e-006    9.751e-009     
  -1.65           1.4416e-009     -5.8935e-006    1.3815e-008    
  -1.7            3.739e-010      -6.467e-006     9.214e-009     
  -1.75           6.68e-010       -7.0357e-006    8.364e-009     
  -1.8            1.1046e-009     -7.583e-006     1.1662e-008    
END_DB

BEGIN_DB
 ICCAP_VAR VS         0              
 ICCAP_VAR VB         0.9            
 ICCAP_VAR VD         -1.8           

 #VG              IG              ID              IB             
  0               -1.1826e-009    -1.0525e-009    -1.1705e-008   
  -0.05           2.4e-011        -1.8813e-009    -9.706e-009    
  -0.1            -1.761e-010     -1.9389e-009    -9.276e-009    
  -0.15           1.1734e-009     -1.75e-010      -1.5526e-008   
  -0.2            2.0434e-009     1.0039e-009     -3.574e-009    
  -0.25           -1.229e-009     1.2344e-009     1.0228e-008    
  -0.3            -1.4464e-009    -1.1495e-009    9.94e-009      
  -0.35           1.1689e-009     -1.2183e-009    -1.0352e-008   
  -0.4            1.1818e-009     9.29e-011       -1.1448e-008   
  -0.45           1.1771e-009     -9.64e-011      -1.3899e-008   
  -0.5            1.6366e-009     -1.993e-010     -1.6272e-008   
  -0.55           1.191e-009      1.2015e-009     1.3712e-008    
  -0.6            -1.45e-011      1.6897e-009     8.216e-009     
  -0.65           1.526e-010      1.7852e-009     9.095e-009     
  -0.7            -1.2576e-009    6.786e-010      8.884e-009     
  -0.75           -7.613e-010     -1.7906e-009    3.665e-009     
  -0.8            1.1748e-009     -1.5373e-009    -8.707e-009    
  -0.85           1.5758e-009     -5.194e-010     -1.7107e-008   
  -0.9            -1.2659e-009    -1.8989e-009    1.4087e-008    
  -0.95           -1.2567e-009    -6.2368e-009    3.653e-009     
  -1              1.6602e-009     -2.2574e-008    8.188e-009     
  -1.05           1.4242e-009     -7.2938e-008    1.3659e-008    
  -1.1            2.3463e-009     -2.0246e-007    -9.638e-009    
  -1.15           6.413e-010      -4.7339e-007    8.229e-009     
  -1.2            1.0708e-009     -9.3982e-007    1.1346e-008    
  -1.25           -1.2679e-009    -1.6354e-006    -8.895e-009    
  -1.3            -1.2517e-009    -2.6327e-006    3.617e-009     
  -1.35           -1.2326e-009    -3.938e-006     3.248e-009     
  -1.4            -1.6514e-009    -5.5728e-006    9.853e-009     
  -1.45           -5.294e-010     -7.5098e-006    -9.158e-009    
  -1.5            1.1763e-009     -9.8278e-006    -9.011e-009    
  -1.55           1.1794e-009     -1.2376e-005    3.4e-009       
  -1.6            1.3552e-009     -1.5205e-005    -1.5697e-008   
  -1.65           1.0872e-009     -1.83e-005      -3.614e-009    
  -1.7            1.1287e-009     -2.168e-005     -4.073e-009    
  -1.75           1.1818e-009     -2.5288e-005    -9.389e-009    
  -1.8            1.5571e-009     -2.909e-005     -1.3757e-008   
END_DB

BEGIN_DB
 ICCAP_VAR VS         0              
 ICCAP_VAR VB         1.8            
 ICCAP_VAR VD         -0.1           

 #VG              IG              ID              IB             
  0               -1.2564e-009    -1.089e-009     8.85e-009      
  -0.05           1.8847e-009     9.611e-010      -9.532e-009    
  -0.1            -1.2483e-009    1.089e-009      8.779e-009     
  -0.15           -1.2991e-009    -1.297e-009     5.691e-009     
  -0.2            1.1366e-009     -1.1237e-009    -1.3839e-008   
  -0.25           1.8929e-009     9.64e-010       -9.711e-009    
  -0.3            -1.2484e-009    1.1082e-009     9.688e-009     
  -0.35           -1.3133e-009    -1.2898e-009    6.02e-009      
  -0.4            1.322e-010      -1.8485e-009    -9.712e-009    
  -0.45           1.1853e-009     4.5e-011        -1.1958e-008   
  -0.5            1.1823e-009     -1.283e-010     -1.4738e-008   
  -0.55           1.5621e-009     -2.365e-010     -1.7321e-008   
  -0.6            1.2559e-009     1.1452e-009     1.3614e-008    
  -0.65           3.1e-011        1.7205e-009     8.628e-009     
  -0.7            1.999e-010      1.8079e-009     9.201e-009     
  -0.75           -1.2583e-009    7.31e-010       8.754e-009     
  -0.8            -8.356e-010     -1.7322e-009    3.682e-009     
  -0.85           1.1808e-009     4.96e-011       -1.2063e-008   
  -0.9            1.1739e-009     -1.282e-010     -1.468e-008    
  -0.95           1.5662e-009     -2.648e-010     -1.7267e-008   
  -1              -1.2596e-009    1.2961e-009     1.3631e-008    
  -1.05           -2.4415e-009    -1.855e-009     3.907e-009     
  -1.1            -3.451e-010     -5.8976e-009    -8.823e-009    
  -1.15           1.7394e-009     -1.5689e-008    3.689e-009     
  -1.2            6.204e-010      -5.5806e-008    8.146e-009     
  -1.25           1.728e-009      -1.5697e-007    -1.4281e-008   
  -1.3            6.064e-010      -3.5686e-007    8.299e-009     
  -1.35           1.0259e-009     -6.7007e-007    9.945e-009     
  -1.4            1.4767e-009     -1.08872e-006   1.3915e-008    
  -1.45           -2.1715e-009    -1.5995e-006    -1.5273e-008   
  -1.5            -8.04e-011      -2.1707e-006    -9.519e-009    
  -1.55           -4.49e-010      -2.7591e-006    -9.473e-009    
  -1.6            -9.075e-010     -3.3604e-006    -8.767e-009    
  -1.65           1.6529e-009     -3.9803e-006    -1.2582e-008   
  -1.7            1.4383e-009     -4.5726e-006    1.3622e-008    
  -1.75           3.758e-010      -5.1486e-006    9.155e-009     
  -1.8            6.804e-010      -5.7221e-006    8.224e-009     
END_DB

BEGIN_DB
 ICCAP_VAR VS         0              
 ICCAP_VAR VB         1.8            
 ICCAP_VAR VD         -1.8           

 #VG              IG              ID              IB             
  0               1.1778e-009     1.0458e-009     6.381e-009     
  -0.05           1.014e-009      1.3733e-009     1.2587e-008    
  -0.1            1.2136e-009     1.1863e-009     1.3893e-008    
  -0.15           5e-013          1.6989e-009     8.376e-009     
  -0.2            1.751e-010      1.7853e-009     8.754e-009     
  -0.25           -1.257e-009     7.104e-010      8.643e-009     
  -0.3            -7.906e-010     -1.7746e-009    3.828e-009     
  -0.35           1.1833e-009     8.14e-011       -1.1408e-008   
  -0.4            1.1816e-009     -9.3e-011       -1.3884e-008   
  -0.45           1.6261e-009     -2.074e-010     -1.6496e-008   
  -0.5            1.1975e-009     1.1903e-009     1.3483e-008    
  -0.55           -1.55e-011      1.6905e-009     8.229e-009     
  -0.6            1.617e-010      1.789e-009      9.184e-009     
  -0.65           -1.2589e-009    6.925e-010      8.937e-009     
  -0.7            -7.787e-010     -1.7756e-009    3.902e-009     
  -0.75           1.1739e-009     -1.4943e-009    -8.676e-009    
  -0.8            1.5519e-009     -2.433e-010     -1.748e-008    
  -0.85           1.264e-009      1.1376e-009     1.4396e-008    
  -0.9            4.37e-011       1.7193e-009     8.689e-009     
  -0.95           2.09e-010       1.7802e-009     9.06e-009      
  -1              -1.2554e-009    5.398e-010      8.81e-009      
  -1.05           -2.4441e-009    -2.0137e-009    3.491e-009     
  -1.1            1.176e-009      -5.0402e-009    -1.3789e-008   
  -1.15           -2.3508e-009    -2.1054e-008    -1.3598e-008   
  -1.2            -3.104e-010     -7.1464e-008    -9.949e-009    
  -1.25           -2.4211e-009    -2.002e-007     8.596e-009     
  -1.3            1.3986e-009     -4.7587e-007    -1.5244e-008   
  -1.35           1.0911e-009     -9.4674e-007    -3.591e-009    
  -1.4            2.0478e-009     -1.6619e-006    1.4348e-008    
  -1.45           1.0712e-009     -2.7056e-006    1.02e-008      
  -1.5            1.5096e-009     -4.0143e-006    1.4762e-008    
  -1.55           4.3e-010        -5.6566e-006    9.056e-009     
  -1.6            7.388e-010      -7.6336e-006    8.424e-009     
  -1.65           1.1873e-009     -9.893e-006     1.1433e-008    
  -1.7            -4.05e-010      -1.2357e-005    1.5187e-008    
  -1.75           1.1792e-009     -1.5233e-005    -9.944e-009    
  -1.8            1.3951e-009     -1.8291e-005    -1.5613e-008   
END_DB

