! VERSION = 6.00
BEGIN_HEADER
 ICCAP_INPUTS
  VG         V  B GROUND SMU4 0.001 LIN        2    0          -1.8       6    -0.36     
  VS         V  E GROUND SMU2 0.1 CON        0
  VD         V  S GROUND SMU1 0.1 LIN        1    0          -1.8       37   -0.05     
  VB         V  C GROUND SMU3 0.1 LIN        3    0          0.9        2    0.9       
 ICCAP_OUTPUTS
  ID         I  S GROUND SMU1 B
  IB         I  C GROUND SMU3 B
  IG         I  B GROUND SMU4 B
END_HEADER

BEGIN_DB
 ICCAP_VAR VG         0              
 ICCAP_VAR VS         0              
 ICCAP_VAR VB         0              

 #VD              ID              IB              IG             
  0               -1.0088e-009    -1.0907e-008    -1.16e-009     
  -0.05           9.298e-010      -8.697e-009     1.7867e-009    
  -0.1            9.931e-010      8.925e-009      -1.226e-009    
  -0.15           -1.3401e-009    4.435e-009      -1.1856e-009   
  -0.2            -1.7317e-009    -9.199e-009     2.43e-010      
  -0.25           -1.8161e-009    -9.705e-009     3.69e-011      
  -0.3            -1.8828e-009    -9.457e-009     -1.636e-010    
  -0.35           -1.9169e-009    -8.982e-009     -3.076e-010    
  -0.4            -1.1511e-009    -1.0915e-008    1.1387e-009    
  -0.45           9.716e-010      -1.0455e-008    1.9631e-009    
  -0.5            1.1667e-009     1.0724e-008     -1.212e-009    
  -0.55           -1.1492e-009    7.838e-009      -1.3801e-009   
  -0.6            -1.8332e-009    -9.528e-009     -3.57e-011     
  -0.65           -1.9011e-009    -9.05e-009      -2.207e-010    
  -0.7            -1.0932e-009    -1.3076e-008    1.1226e-009    
  -0.75           9.51e-010       -9.987e-009     1.8683e-009    
  -0.8            1.0812e-009     9.818e-009      -1.2217e-009   
  -0.85           -1.231e-009     5.92e-009       -1.2913e-009   
  -0.9            -1.7887e-009    -9.638e-009     9.93e-011      
  -0.95           2.19e-011       -1.1536e-008    1.1615e-009    
  -1              -1.329e-010     -1.4169e-008    1.1649e-009    
  -1.05           -2.381e-010     -1.7074e-008    1.5102e-009    
  -1.1            9.62e-010       -3.163e-009     1.9074e-009    
  -1.15           1.1266e-009     1.0415e-008     -1.2178e-009   
  -1.2            -1.1843e-009    6.816e-009      -1.3424e-009   
  -1.25           -1.818e-009     -9.605e-009     2.7e-011       
  -1.3            -3.99e-011      -1.2239e-008    1.1638e-009    
  -1.35           -1.671e-010     -1.4985e-008    1.669e-009     
  -1.4            1.2092e-009     1.3226e-008     1.1056e-009    
  -1.45           1.0492e-009     1.4117e-008     1.2974e-009    
  -1.5            1.7111e-009     8.499e-009      1.099e-010     
  -1.55           1.794e-009      8.489e-009      2.595e-010     
  -1.6            7.705e-010      8.086e-009      -1.2379e-009   
  -1.65           -1.6109e-009    3.175e-009      -9.13e-010     
  -1.7            -3.87e-011      -1.2352e-008    1.1579e-009    
  -1.75           -1.712e-010     -1.4841e-008    1.1538e-009    
  -1.8            9.828e-010      -3.42e-009      1.9943e-009    
END_DB

BEGIN_DB
 ICCAP_VAR VG         -0.36          
 ICCAP_VAR VS         0              
 ICCAP_VAR VB         0              

 #VD              ID              IB              IG             
  0               -1.1451e-009    -3.558e-009     -1.2491e-009   
  -0.05           1.5486e-009     -5.875e-009     4.4e-012       
  -0.1            4.178e-010      8.438e-009      -1.2583e-009   
  -0.15           -1.21e-009      3.437e-009      -1.4864e-009   
  -0.2            1.1447e-009     -9.895e-009     -1.2796e-009   
  -0.25           -1.1717e-009    3.039e-009      -2.3003e-009   
  -0.3            -7.098e-010     -2.2451e-008    1.1342e-009    
  -0.35           1.2661e-009     -3.264e-009     -1.2422e-009   
  -0.4            -1.2462e-009    3.675e-009      -1.6358e-009   
  -0.45           -1.516e-010     -1.1204e-008    1.1603e-009    
  -0.5            -3.348e-010     -1.3541e-008    1.164e-009     
  -0.55           -4.554e-010     -1.6307e-008    1.5648e-009    
  -0.6            1.1735e-009     1.3255e-008     -1.2464e-009   
  -0.65           -1.25e-009      3.979e-009      -2.3887e-009   
  -0.7            -2.1884e-009    -8.77e-009      -3.248e-010    
  -0.75           -1.4525e-009    -1.0753e-008    1.1436e-009    
  -0.8            -1.871e-010     -1.0632e-008    1.1574e-009    
  -0.85           -3.747e-010     -1.2381e-008    1.1624e-009    
  -0.9            -5.192e-010     -1.4983e-008    1.6886e-009    
  -0.95           1.0181e-009     1.3043e-008     -1.2502e-009   
  -1              -1.369e-009     3.76e-009       -2.3725e-009   
  -1.05           -3.184e-010     -1.1119e-008    1.1609e-009    
  -1.1            -5.167e-010     -1.3274e-008    1.1638e-009    
  -1.15           -6.416e-010     -1.5928e-008    1.6061e-009    
  -1.2            9.551e-010      1.372e-008      -1.2467e-009   
  -1.25           -1.4535e-009    3.739e-009      -2.3877e-009   
  -1.3            -4.671e-010     -1.1304e-008    1.1609e-009    
  -1.35           -6.538e-010     -1.402e-008     1.1548e-009    
  -1.4            -7.76e-010      -1.6872e-008    1.5327e-009    
  -1.45           8.779e-010      1.4105e-008     -1.2445e-009   
  -1.5            -1.5557e-009    3.779e-009      -2.4039e-009   
  -1.55           -2.4951e-009    -8.621e-009     -3.511e-010    
  -1.6            -1.7911e-009    -1.0331e-008    1.1479e-009    
  -1.65           -5.494e-010     -1.0942e-008    1.1624e-009    
  -1.7            -7.638e-010     -1.285e-008     1.1619e-009    
  -1.75           -8.889e-010     -1.5249e-008    1.6384e-009    
  -1.8            6.818e-010      1.3094e-008     -1.2491e-009   
END_DB

BEGIN_DB
 ICCAP_VAR VG         -0.72          
 ICCAP_VAR VS         0              
 ICCAP_VAR VB         0              

 #VD              ID              IB              IG             
  0               -2.4488e-009    7.574e-009      1.0237e-009    
  -0.05           -6.166e-007     -9.332e-009     1.6563e-009    
  -0.1            -8.3061e-007    -9.138e-009     1.09e-011      
  -0.15           -9.2787e-007    1.166e-008      -1.5014e-009   
  -0.2            -9.9019e-007    8.211e-009      2.298e-010     
  -0.25           -1.08457e-006   -1.653e-008     1.2675e-009    
  -0.3            -1.1034e-006    -8.565e-009     -1.2301e-009   
  -0.35           -1.1859e-006    8.941e-009      8.113e-010     
  -0.4            -1.2465e-006    -5.646e-009     1.1405e-009    
  -0.45           -1.2772e-006    -9.248e-009     -3.97e-011     
  -0.5            -1.3216e-006    9.805e-009      -1.5895e-009   
  -0.55           -1.3779e-006    1.3313e-008     1.4006e-009    
  -0.6            -1.4558e-006    -1.0053e-008    1.1625e-009    
  -0.65           -1.5088e-006    -2.2414e-008    1.0749e-009    
  -0.7            -1.5476e-006    -1.0939e-008    1.1635e-009    
  -0.75           -1.5974e-006    -1.1188e-008    1.1652e-009    
  -0.8            -1.6464e-006    -1.15e-008      1.6896e-009    
  -0.85           -1.7019e-006    -1.3566e-008    1.485e-009     
  -0.9            -1.7282e-006    -9.101e-009     -7.1e-012      
  -0.95           -1.7629e-006    9.322e-009      -1.619e-009    
  -1              -1.8252e-006    1.3182e-008     1.3729e-009    
  -1.05           -1.907e-006     -1.0377e-008    1.1593e-009    
  -1.1            -1.9578e-006    -1.0004e-008    1.1613e-009    
  -1.15           -2.0115e-006    -2.2726e-008    1.0747e-009    
  -1.2            -2.049e-006     -1.1024e-008    1.1646e-009    
  -1.25           -2.1015e-006    -1.1149e-008    1.162e-009     
  -1.3            -2.1529e-006    -1.1503e-008    1.1636e-009    
  -1.35           -2.2059e-006    -1.1809e-008    1.6545e-009    
  -1.4            -2.2626e-006    -1.3796e-008    1.4461e-009    
  -1.45           -2.2858e-006    -9.159e-009     -3.39e-011     
  -1.5            -2.3228e-006    1.0038e-008     -1.5899e-009   
  -1.55           -2.3902e-006    1.3233e-008     1.4025e-009    
  -1.6            -2.4879e-006    -1.0031e-008    1.1575e-009    
  -1.65           -2.5444e-006    -2.2401e-008    1.076e-009     
  -1.7            -2.5135e-006    -8.845e-009     -5.597e-010    
  -1.75           -2.571e-006     3.015e-009      -1.2389e-009   
  -1.8            -2.688e-006     8.252e-009      6.802e-010     
END_DB

BEGIN_DB
 ICCAP_VAR VG         -1.08          
 ICCAP_VAR VS         0              
 ICCAP_VAR VB         0              

 #VD              ID              IB              IG             
  0               -6.6145e-008    -9.559e-009     -1.2044e-009   
  -0.05           -2.3692e-005    -1.0876e-008    1.452e-010     
  -0.1            -4.1554e-005    -3.237e-009     1.0743e-009    
  -0.15           -5.3866e-005    -8.79e-009      -9.394e-010    
  -0.2            -6.291e-005     4.769e-009      -1.9767e-009   
  -0.25           -6.9654e-005    1.4149e-008     1.4671e-009    
  -0.3            -7.4657e-005    -1.8566e-008    1.1723e-009    
  -0.35           -7.75e-005      -8.669e-009     -6.038e-010    
  -0.4            -8.0478e-005    3.144e-009      -1.2156e-009   
  -0.45           -8.3484e-005    1.3717e-008     1.4282e-009    
  -0.5            -8.5956e-005    -1.7875e-008    1.2007e-009    
  -0.55           -8.7776e-005    -1.0969e-008    1.153e-009     
  -0.6            -8.8689e-005    -8.63e-009      -8.713e-010    
  -0.65           -9.0641e-005    4.034e-009      -2.0611e-009   
  -0.7            -9.2816e-005    1.3764e-008     1.4141e-009    
  -0.75           -9.4646e-005    -1.7386e-008    1.2174e-009    
  -0.8            -9.5974e-005    -1.099e-008     1.1544e-009    
  -0.85           -9.6434e-005    -8.605e-009     -8.39e-010     
  -0.9            -9.8059e-005    3.945e-009      -1.1933e-009   
  -0.95           -0.000100261    8.179e-009      5.659e-010     
  -1              -0.000101739    -6.921e-009     1.148e-009     
  -1.05           -0.000102202    -9.294e-009     -4.351e-010    
  -1.1            -0.000103297    3.806e-009      -1.2267e-009   
  -1.15           -0.000105451    1.2303e-008     1.2313e-009    
  -1.2            -0.000106695    -1.4553e-008    1.4064e-009    
  -1.25           -0.000107231    -9.447e-009     -3.974e-010    
  -1.3            -0.000108251    3.546e-009      -1.2283e-009   
  -1.35           -0.000110365    1.2071e-008     1.1861e-009    
  -1.4            -0.000111472    -1.3837e-008    1.4552e-009    
  -1.45           -0.000112789    -9.524e-009     1.1583e-009    
  -1.5            -0.000112815    -8.628e-009     -5.865e-010    
  -1.55           -0.000114008    3.283e-009      -1.2163e-009   
  -1.6            -0.00011551     1.0755e-008     2.0792e-009    
  -1.65           -0.00011713     -8.729e-009     1.0839e-009    
  -1.7            -0.00011704     -8.602e-009     -8.858e-010    
  -1.75           -0.00011839     3.336e-009      -1.2166e-009   
  -1.8            -0.00012063     1.2099e-008     1.183e-009     
END_DB

BEGIN_DB
 ICCAP_VAR VG         -1.44          
 ICCAP_VAR VS         0              
 ICCAP_VAR VB         0              

 #VD              ID              IB              IG             
  0               -1.3086e-007    1.1468e-008     2.2727e-009    
  -0.05           -6.0557e-005    1.3314e-008     -1.4149e-009   
  -0.1            -0.00011535     7.305e-009      1.0894e-009    
  -0.15           -0.00016382     -9.483e-009     -9.46e-010     
  -0.2            -0.00020654     2.859e-009      -1.2091e-009   
  -0.25           -0.00024392     1.2311e-008     1.2247e-009    
  -0.3            -0.00027523     -1.0956e-008    1.1609e-009    
  -0.35           -0.00030106     -1.0176e-008    1.1646e-009    
  -0.4            -0.00032163     -8.845e-009     -5.188e-010    
  -0.45           -0.00033911     2.924e-009      -1.2287e-009   
  -0.5            -0.00035511     9.613e-009      8.173e-010     
  -0.55           -0.00036711     -7.705e-009     1.1526e-009    
  -0.6            -0.00037717     -9.288e-009     1.1617e-009    
  -0.65           -0.00038587     -1.0231e-008    1.1622e-009    
  -0.7            -0.00039197     -8.908e-009     -5.164e-010    
  -0.75           -0.00039868     3.031e-009      -1.2286e-009   
  -0.8            -0.0004065      8.912e-009      8.238e-010     
  -0.85           -0.000412       -7.862e-009     1.1511e-009    
  -0.9            -0.00041707     -9.427e-009     1.1587e-009    
  -0.95           -0.00042053     -9.411e-009     -3.926e-010    
  -1              -0.00042448     2.631e-009      -1.237e-009    
  -1.05           -0.00043063     8.318e-009      6.874e-010     
  -1.1            -0.00043462     -5.621e-009     1.1332e-009    
  -1.15           -0.00043767     -9.424e-009     -1.559e-010    
  -1.2            -0.00044059     1.5287e-008     -1.3748e-009   
  -1.25           -0.00044492     8.788e-009      3.312e-010     
  -1.3            -0.0004492      -3.181e-009     1.0778e-009    
  -1.35           -0.00045085     -8.507e-009     -6.458e-010    
  -1.4            -0.0004545      3.764e-009      -1.2219e-009   
  -1.45           -0.00045968     9.53e-009       9.524e-010     
  -1.5            -0.00046261     -9.325e-009     1.1581e-009    
  -1.55           -0.00046444     -9.459e-009     -3.738e-010    
  -1.6            -0.00046722     2.536e-009      -1.2397e-009   
  -1.65           -0.00047217     8.294e-009      6.751e-010     
  -1.7            -0.00047496     -5.499e-009     1.1296e-009    
  -1.75           -0.00047583     -9.226e-009     -1.2092e-009   
  -1.8            -0.00047886     4.908e-009      -1.9439e-009   
END_DB

BEGIN_DB
 ICCAP_VAR VG         -1.8           
 ICCAP_VAR VS         0              
 ICCAP_VAR VB         0              

 #VD              ID              IB              IG             
  0               7.6235e-007     -3.435e-009     2.2581e-009    
  -0.05           -8.6612e-005    9.715e-009      -1.9403e-009   
  -0.1            -0.00016909     1.2009e-008     1.9875e-009    
  -0.15           -0.00024705     -8.643e-009     1.0932e-009    
  -0.2            -0.00031975     -8.875e-009     -9.835e-010    
  -0.25           -0.00038786     2.909e-009      -1.215e-009    
  -0.3            -0.00045149     1.2782e-008     1.2697e-009    
  -0.35           -0.00050911     -1.0417e-008    1.1579e-009    
  -0.4            -0.00056058     -9.379e-009     -4.186e-010    
  -0.45           -0.00060721     2.856e-009      -1.2369e-009   
  -0.5            -0.00064997     8.325e-009      7.131e-010     
  -0.55           -0.00068667     -6.073e-009     1.1392e-009    
  -0.6            -0.00071866     -1.0773e-008    1.1574e-009    
  -0.65           -0.00074581     -9.467e-009     -3.974e-010    
  -0.7            -0.00076959     2.853e-009      -1.2365e-009   
  -0.75           -0.00079232     8.24e-009       6.945e-010     
  -0.8            -0.00081056     -5.63e-009      1.1345e-009    
  -0.85           -0.00082587     -9.637e-009     -1.695e-010    
  -0.9            -0.00083881     1.4887e-008     -1.372e-009    
  -0.95           -0.0008519      8.853e-009      3.335e-010     
  -1              -0.00086391     -3.286e-009     1.0672e-009    
  -1.05           -0.00087219     -8.473e-009     -6.49e-010     
  -1.1            -0.00088169     3.652e-009      -1.2293e-009   
  -1.15           -0.00089243     9.61e-009       9.522e-010     
  -1.2            -0.00089977     -9.503e-009     1.1576e-009    
  -1.25           -0.00090587     -9.471e-009     -3.859e-010    
  -1.3            -0.00091241     2.694e-009      -1.2377e-009   
  -1.35           -0.00092102     8.179e-009      6.731e-010     
  -1.4            -0.00092735     -5.259e-009     1.1325e-009    
  -1.45           -0.00093082     -9.361e-009     -1.2195e-009   
  -1.5            -0.00093681     4.945e-009      -1.9761e-009   
  -1.55           -0.00094466     1.2634e-008     1.2415e-009    
  -1.6            -0.00094987     -1.0628e-008    1.1579e-009    
  -1.65           -0.00095518     -1.0668e-008    1.1587e-009    
  -1.7            -0.00095836     -8.769e-009     -5.323e-010    
  -1.75           -0.00096339     3.177e-009      -1.2324e-009   
  -1.8            -0.00097068     9.823e-009      8.331e-010     
END_DB

BEGIN_DB
 ICCAP_VAR VG         0              
 ICCAP_VAR VS         0              
 ICCAP_VAR VB         0.9            

 #VD              ID              IB              IG             
  0               -9.633e-010     1.5452e-008     -1.1483e-009   
  -0.05           -1.9048e-009    -8.696e-009     -3.58e-010     
  -0.1            -1.1669e-009    -1.0863e-008    1.1439e-009    
  -0.15           9.734e-010      -1.0948e-008    1.9798e-009    
  -0.2            1.1836e-009     1.1073e-008     -1.2122e-009   
  -0.25           -1.1538e-009    8.404e-009      -1.3894e-009   
  -0.3            -1.8455e-009    -9.63e-009      -3.31e-011     
  -0.35           -1.8987e-009    -9.501e-009     -2.208e-010    
  -0.4            -1.9058e-009    -8.743e-009     -3.526e-010    
  -0.45           -1.1643e-009    -1.0996e-008    1.1435e-009    
  -0.5            9.721e-010      -1.1086e-008    1.9784e-009    
  -0.55           1.1801e-009     9.998e-009      -1.2188e-009   
  -0.6            -1.1561e-009    8.155e-009      -1.3894e-009   
  -0.65           -1.1502e-009    -1.1229e-008    1.14e-009      
  -0.7            9.668e-010      -1.0826e-008    1.9511e-009    
  -0.75           1.1421e-009     9.651e-009      -1.2179e-009   
  -0.8            -1.174e-009     7.637e-009      -1.3689e-009   
  -0.85           -1.8462e-009    -9.795e-009     1.67e-011      
  -0.9            -1.8708e-009    -9.492e-009     -2.071e-010    
  -0.95           -1.9142e-009    -9.036e-009     -3.128e-010    
  -1              -1.1471e-009    -1.1453e-008    1.1383e-009    
  -1.05           9.638e-010      -1.0633e-008    1.9433e-009    
  -1.1            1.1509e-009     9.529e-009      -1.2187e-009   
  -1.15           -1.1825e-009    7.59e-009       -1.3607e-009   
  -1.2            -1.1352e-009    -1.1904e-008    1.134e-009     
  -1.25           9.591e-010      -1.0397e-008    1.922e-009     
  -1.3            1.1306e-009     9.103e-009      -1.2211e-009   
  -1.35           -1.2046e-009    6.899e-009      -1.3362e-009   
  -1.4            -1.8112e-009    -9.679e-009     5.89e-011      
  -1.45           -1.8778e-009    -9.359e-009     -1.344e-010    
  -1.5            -1.489e-010     -1.4705e-008    1.1609e-009    
  -1.55           -2.503e-010     -1.7073e-008    1.513e-009     
  -1.6            1.109e-009      1.419e-008      1.2353e-009    
  -1.65           1.6803e-009     8.496e-009      4.56e-011      
  -1.7            1.7635e-009     8.764e-009      1.943e-010     
  -1.75           6.944e-010      8.714e-009      -1.2391e-009   
  -1.8            -1.7161e-009    3.425e-009      -7.905e-010    
END_DB

BEGIN_DB
 ICCAP_VAR VG         -0.36          
 ICCAP_VAR VS         0              
 ICCAP_VAR VB         0.9            

 #VD              ID              IB              IG             
  0               -1.061e-009     9.105e-009      -1.2359e-009   
  -0.05           9.336e-010      -9.678e-009     1.8397e-009    
  -0.1            1.0276e-009     8.696e-009      -1.2306e-009   
  -0.15           -1.3245e-009    4.871e-009      -1.2324e-009   
  -0.2            -2.291e-010     -1.6163e-008    1.564e-009     
  -0.25           1.1404e-009     1.4399e-008     1.1801e-009    
  -0.3            1.6579e-009     8.423e-009      -8.9e-012      
  -0.35           1.7343e-009     9.075e-009      1.576e-010     
  -0.4            6.508e-010      8.879e-009      -1.244e-009    
  -0.45           -1.7556e-009    4.653e-009      -7.356e-010    
  -0.5            -1.4187e-009    -8.694e-009     1.1574e-009    
  -0.55           -2.066e-010     -1.5846e-008    1.6047e-009    
