! VERSION = 6.00
BEGIN_HEADER
 ICCAP_INPUTS
  VG         V  B GROUND SMU4 0.001 LIN        2    0          -1.8       6    -0.36     
  VS         V  E GROUND SMU2 0.1 CON        0
  VD         V  S GROUND SMU1 0.1 LIN        1    0          -1.8       37   -0.05     
  VB         V  C GROUND SMU3 0.1 LIN        3    0          0.9        2    0.9       
 ICCAP_OUTPUTS
  ID         I  S GROUND SMU1 B
  IB         I  C GROUND SMU3 B
  IG         I  B GROUND SMU4 B
END_HEADER

BEGIN_DB
 ICCAP_VAR VG         0              
 ICCAP_VAR VS         0              
 ICCAP_VAR VB         0              

 #VD              ID              IB              IG             
  0               9.952e-010      -8.924e-009     -4.707e-010    
  -0.05           -1.197e-009     7.309e-009      -1.358e-009    
  -0.1            -1.8445e-009    -9.585e-009     4.29e-011      
  -0.15           -2.24e-011      -1.2709e-008    1.1725e-009    
  -0.2            -1.524e-010     -1.4965e-008    1.7342e-009    
  -0.25           1.2735e-009     1.3456e-008     1.0797e-009    
  -0.3            1.1048e-009     1.411e-008      1.254e-009     
  -0.35           1.7075e-009     8.451e-009      5.1e-011       
  -0.4            1.7854e-009     8.691e-009      2.015e-010     
  -0.45           7.138e-010      8.506e-009      -1.243e-009    
  -0.5            -1.7273e-009    3.378e-009      -8.072e-010    
  -0.55           -1.4826e-009    -8.654e-009     1.1727e-009    
  -0.6            -2.444e-010     -1.7062e-008    1.5249e-009    
  -0.65           1.123e-009      1.4025e-008     1.2199e-009    
  -0.7            1.7172e-009     8.368e-009      1.6e-012       
  -0.75           1.7598e-009     8.685e-009      2.011e-010     
  -0.8            7.042e-010      8.588e-009      -1.245e-009    
  -0.85           -1.7409e-009    3.59e-009       -7.868e-010    
  -0.9            9.921e-010      -1.1319e-008    2.0157e-009    
  -0.95           1.212e-009      1.1423e-008     -1.2237e-009   
  -1              -1.142e-009     9.098e-009      -1.4116e-009   
  -1.05           -1.8793e-009    -9.492e-009     -5.73e-011     
  -1.1            -1.037e-010     -1.3761e-008    1.1722e-009    
  -1.15           -2.055e-010     -1.6088e-008    1.6067e-009    
  -1.2            1.1848e-009     1.3648e-008     1.1711e-009    
  -1.25           1.659e-009      8.03e-009       -2.18e-011     
  -1.3            1.7566e-009     8.639e-009      1.294e-010     
  -1.35           1.8099e-009     8.684e-009      2.758e-010     
  -1.4            7.895e-010      8.345e-009      -1.2408e-009   
  -1.45           -1.6444e-009    3.094e-009      -9.17e-010     
  -1.5            -1.5559e-009    -8.66e-009      1.0728e-009    
  -1.55           9.224e-010      -4.687e-009     1.6125e-009    
  -1.6            7.592e-010      8.431e-009      -1.2428e-009   
  -1.65           -1.6787e-009    3.295e-009      -8.713e-010    
  -1.7            -1.5256e-009    -8.616e-009     1.1752e-009    
  -1.75           9.903e-010      -3.523e-009     2.0111e-009    
  -1.8            1.2107e-009     1.1442e-008     -1.2245e-009   
END_DB

BEGIN_DB
 ICCAP_VAR VG         -0.36          
 ICCAP_VAR VS         0              
 ICCAP_VAR VB         0              

 #VD              ID              IB              IG             
  0               -1.054e-009     8.254e-009      -1.2265e-009   
  -0.05           -1.9313e-009    -8.819e-009     -3.456e-010    
  -0.1            -1.1725e-009    -1.0789e-008    1.1524e-009    
  -0.15           9.838e-010      -1.1043e-008    1.9867e-009    
  -0.2            1.1808e-009     1.1112e-008     -1.2235e-009   
  -0.25           -1.1694e-009    8.239e-009      -1.3859e-009   
  -0.3            -1.8604e-009    -9.519e-009     -5.3e-012      
  -0.35           -6.66e-011      -1.3216e-008    1.1764e-009    
  -0.4            -1.818e-010     -1.5468e-008    1.6611e-009    
  -0.45           1.2165e-009     1.3396e-008     1.1275e-009    
  -0.5            1.0573e-009     1.4001e-008     1.3011e-009    
  -0.55           1.7278e-009     8.497e-009      8.82e-011      
  -0.6            1.8008e-009     8.64e-009       2.403e-010     
  -0.65           7.512e-010      8.364e-009      -1.241e-009    
  -0.7            -1.6797e-009    3.3e-009        -8.655e-010    
  -0.75           -1.5271e-009    -8.671e-009     1.1766e-009    
  -0.8            9.879e-010      -3.441e-009     2.0122e-009    
  -0.85           1.2053e-009     1.0427e-008     -1.2208e-009   
  -0.9            -1.1455e-009    9.051e-009      -1.4095e-009   
  -0.95           -1.1757e-009    -1.0668e-008    1.1527e-009    
  -1              9.808e-010      -1.0952e-008    1.9891e-009    
  -1.05           1.1832e-009     1.1034e-008     -1.2228e-009   
  -1.1            -1.1639e-009    8.44e-009       -1.3875e-009   
  -1.15           -1.8624e-009    -9.548e-009     -9.2e-012      
  -1.2            -7.28e-011      -1.3276e-008    1.1764e-009    
  -1.25           -1.87e-010      -1.5714e-008    1.6527e-009    
  -1.3            1.208e-009      1.3456e-008     1.1338e-009    
  -1.35           1.0556e-009     1.4228e-008     1.308e-009     
  -1.4            1.7319e-009     8.601e-009      1.043e-010     
  -1.45           1.7996e-009     8.707e-009      2.468e-010     
  -1.5            7.606e-010      8.606e-009      -1.2396e-009   
  -1.55           -1.6738e-009    3.25e-009       -8.78e-010     
  -1.6            -1.5353e-009    -8.678e-009     1.1648e-009    
  -1.65           9.897e-010      -3.529e-009     2.02e-009      
  -1.7            1.2141e-009     1.0485e-008     -1.2202e-009   
  -1.75           -1.1405e-009    9.226e-009      -1.4125e-009   
  -1.8            -1.881e-009     -9.568e-009     -5.75e-011     
END_DB

BEGIN_DB
 ICCAP_VAR VG         -0.72          
 ICCAP_VAR VS         0              
 ICCAP_VAR VB         0              

 #VD              ID              IB              IG             
  0               1.0015e-009     -9.351e-009     1.1695e-009    
  -0.05           4.105e-010      9.166e-009      -1.2281e-009   
  -0.1            -1.742e-009     6.569e-009      -2.1397e-009   
  -0.15           -2.6173e-009    -9.572e-009     1.196e-010     
  -0.2            -8.091e-010     -1.1796e-008    1.1734e-009    
  -0.25           -9.755e-010     -1.4302e-008    1.1674e-009    
  -0.3            -1.0649e-009    -1.71e-008      1.5557e-009    
  -0.35           -1.7736e-009    1.4195e-008     -2.1518e-009   
  -0.4            -2.6413e-009    -9.629e-009     8.6e-011       
  -0.45           -2.7115e-009    -9.785e-009     -1.069e-010    
  -0.5            -2.7465e-009    -9.314e-009     -2.725e-010    
  -0.55           -2.7456e-009    -8.718e-009     -4.061e-010    
  -0.6            -2.0625e-009    -9.941e-009     1.1616e-009    
  -0.65           -8.094e-010     -1.1824e-008    1.1733e-009    
  -0.7            -9.817e-010     -1.3883e-008    1.1687e-009    
  -0.75           -1.0915e-009    -1.6193e-008    1.5918e-009    
  -0.8            -1.7926e-009    1.4086e-008     -2.1685e-009   
  -0.85           -2.6559e-009    -9.566e-009     1.134e-010     
  -0.9            -8.425e-010     -1.1856e-008    1.1756e-009    
  -0.95           -1.0095e-009    -1.4172e-008    1.1679e-009    
  -1              -1.1157e-009    -1.6651e-008    1.5649e-009    
  -1.05           -1.8022e-009    1.4141e-008     -2.1376e-009   
  -1.1            -2.6829e-009    -9.625e-009     8.44e-011      
  -1.15           -8.799e-010     -1.2247e-008    1.1743e-009    
  -1.2            -1.0401e-009    -1.4469e-008    1.1694e-009    
  -1.25           -1.1431e-009    -1.6983e-008    1.5267e-009    
  -1.3            -1.8139e-009    1.4401e-008     -2.111e-009    
  -1.35           -2.0776e-009    -1.0435e-008    1.1553e-009    
  -1.4            -8.031e-010     -1.127e-008     1.1745e-009    
  -1.45           -9.752e-010     -1.3293e-008    1.1756e-009    
  -1.5            -1.0974e-009    -1.551e-008     1.6628e-009    
  -1.55           -1.8489e-009    1.3518e-008     -2.2216e-009   
  -1.6            -2.6701e-009    -9.295e-009     1.666e-010     
  -1.65           -2.7429e-009    -9.519e-009     -3.16e-011     
  -1.7            -1.0084e-009    -1.3642e-008    1.1766e-009    
  -1.75           -1.1234e-009    -1.5878e-008    1.6309e-009    
  -1.8            -1.8364e-009    1.3621e-008     -2.1867e-009   
END_DB

BEGIN_DB
 ICCAP_VAR VG         -1.08          
 ICCAP_VAR VS         0              
 ICCAP_VAR VB         0              

 #VD              ID              IB              IG             
  0               -1.2656e-009    -4.978e-009     -1.898e-010    
  -0.05           -5.1502e-007    -1.2839e-008    3.589e-010     
  -0.1            -8.0403e-007    -3.067e-009     1.0716e-009    
  -0.15           -9.3131e-007    -8.609e-009     -6.957e-010    
  -0.2            -9.9344e-007    3.762e-009      -1.2344e-009   
  -0.25           -1.03422e-006   1.0119e-008     1.0083e-009    
  -0.3            -1.04846e-006   -9.825e-009     1.1751e-009    
  -0.35           -1.04126e-006   -9.578e-009     -4.149e-010    
  -0.4            -1.04547e-006   2.838e-009      -1.2414e-009   
  -0.45           -1.0653e-006    8.418e-009      7.13e-010      
  -0.5            -1.0699e-006    -5.731e-009     1.1509e-009    
  -0.55           -1.06253e-006   -9.631e-009     -1.716e-010    
  -0.6            -1.06029e-006   1.5377e-008     -1.362e-009    
  -0.65           -1.06866e-006   9.133e-009      3.433e-010     
  -0.7            -1.07699e-006   -3.321e-009     1.0716e-009    
  -0.75           -1.06424e-006   -8.64e-009      -6.725e-010    
  -0.8            -1.06691e-006   3.416e-009      -1.2366e-009   
  -0.85           -1.0849e-006    9.975e-009      9.874e-010     
  -0.9            -1.08931e-006   -9.68e-009      1.172e-009     
  -0.95           -1.07536e-006   -9.678e-009     -4.061e-010    
  -1              -1.07579e-006   2.589e-009      -1.2417e-009   
  -1.05           -1.09378e-006   8.416e-009      6.966e-010     
  -1.1            -1.0971e-006    -5.393e-009     1.1455e-009    
  -1.15           -1.08862e-006   -9.548e-009     -1.511e-010    
  -1.2            -1.08462e-006   1.5194e-008     -1.3827e-009   
  -1.25           -1.09162e-006   9.052e-009      3.296e-010     
  -1.3            -1.09956e-006   -3.331e-009     1.0711e-009    
  -1.35           -1.08596e-006   -8.716e-009     -6.492e-010    
  -1.4            -1.08969e-006   3.679e-009      -1.2371e-009   
  -1.45           -1.10785e-006   9.768e-009      9.645e-010     
  -1.5            -1.11043e-006   -9.6e-009       1.1748e-009    
  -1.55           -1.09674e-006   -9.76e-009      -3.778e-010    
  -1.6            -1.09641e-006   2.591e-009      -1.2433e-009   
  -1.65           -1.11385e-006   8.312e-009      6.729e-010     
  -1.7            -1.11676e-006   -5.011e-009     1.1409e-009    
  -1.75           -1.09971e-006   -9.424e-009     -1.2226e-009   
  -1.8            -1.10398e-006   4.949e-009      -1.9866e-009   
END_DB

BEGIN_DB
 ICCAP_VAR VG         -1.44          
 ICCAP_VAR VS         0              
 ICCAP_VAR VB         0              

 #VD              ID              IB              IG             
  0               -1.5925e-009    2.736e-009      1.1543e-009    
  -0.05           -2.5616e-006    -1.3916e-008    -2.0257e-009   
  -0.1            -4.7522e-006    1.1742e-008     1.0479e-009    
  -0.15           -6.5663e-006    -9.114e-009     1.1556e-009    
  -0.2            -8.0343e-006    -1.0789e-008    1.1616e-009    
  -0.25           -9.1653e-006    -1.0325e-008    1.1636e-009    
  -0.3            -1.00102e-005   -1.0259e-008    1.1597e-009    
  -0.35           -1.06069e-005   -1.0765e-008    1.1559e-009    
  -0.4            -1.10124e-005   -1.0855e-008    1.1581e-009    
  -0.45           -1.1266e-005    8.459e-009      -1.542e-010    
  -0.5            -1.1418e-005    2.235e-009      -1.2566e-009   
  -0.55           -1.1623e-005    1.0505e-008     9.192e-010     
  -0.6            -1.1702e-005    -1.2602e-008    1.151e-009     
  -0.65           -1.1764e-005    -1.2062e-008    1.6306e-009    
  -0.7            -1.1792e-005    -9.39e-009      -2.173e-010    
  -0.75           -1.1814e-005    2.566e-009      -1.2503e-009   
  -0.8            -1.1939e-005    1.1322e-008     1.0273e-009    
  -0.85           -1.1971e-005    -1.129e-008     1.1533e-009    
  -0.9            -1.1997e-005    -1.3292e-008    1.5203e-009    
  -0.95           -1.2038e-005    -9.413e-009     1.1511e-009    
  -1              -1.1994e-005    -9.155e-009     -5.556e-010    
  -1.05           -1.2024e-005    2.502e-009      -1.2373e-009   
  -1.1            -1.211e-005     1.4038e-008     1.3981e-009    
  -1.15           -1.215e-005     -1.7023e-008    1.2769e-009    
  -1.2            -1.2169e-005    -1.0584e-008    1.1511e-009    
  -1.25           -1.2202e-005    -1.554e-008     1.3529e-009    
  -1.3            -1.2162e-005    -9.428e-009     -4.252e-010    
  -1.35           -1.2178e-005    3.197e-009      -1.2417e-009   
  -1.4            -1.2268e-005    1.2769e-008     1.2642e-009    
  -1.45           -1.2286e-005    -1.4753e-008    1.409e-009     
  -1.5            -1.2248e-005    -9.546e-009     -3.802e-010    
  -1.55           -1.2261e-005    2.884e-009      -1.2421e-009   
  -1.6            -1.2349e-005    1.2545e-008     1.2096e-009    
  -1.65           -1.2362e-005    -1.3866e-008    1.4768e-009    
  -1.7            -1.2389e-005    -9.733e-009     1.1526e-009    
  -1.75           -1.2326e-005    -8.834e-009     -5.807e-010    
  -1.8            -1.2351e-005    2.354e-009      -1.2375e-009   
END_DB

BEGIN_DB
 ICCAP_VAR VG         -1.8           
 ICCAP_VAR VS         0              
 ICCAP_VAR VB         0              

 #VD              ID              IB              IG             
  0               -8.781e-009     2.8e-009        2.2375e-009    
  -0.05           -4.4819e-006    1.207e-008      1.5117e-009    
  -0.1            -8.6456e-006    -1.5294e-008    1.3343e-009    
  -0.15           -1.2467e-005    -1.3718e-008    1.4282e-009    
  -0.2            -1.5979e-005    -1.6927e-008    1.2379e-009    
  -0.25           -1.9146e-005    -1.1114e-008    1.1504e-009    
  -0.3            -2.199e-005     -1.5494e-008    1.3171e-009    
  -0.35           -2.4451e-005    -9.312e-009     -4.534e-010    
  -0.4            -2.6605e-005    3.047e-009      -1.2468e-009   
  -0.45           -2.8516e-005    1.3511e-008     1.2905e-009    
  -0.5            -3.006e-005     -1.4839e-008    1.3773e-009    
  -0.55           -3.1264e-005    -9.435e-009     -4.006e-010    
  -0.6            -3.2252e-005    2.9e-009        -1.2467e-009   
  -0.65           -3.3145e-005    1.3063e-008     1.2384e-009    
  -0.7            -3.3739e-005    -1.4127e-008    1.4452e-009    
  -0.75           -3.4231e-005    -1.0323e-008    1.1545e-009    
  -0.8            -3.4577e-005    -1.3451e-008    1.5426e-009    
  -0.85           -3.4884e-005    -1.0795e-008    1.1551e-009    
  -0.9            -3.51e-005      -1.3477e-008    1.4894e-009    
  -0.95           -3.5302e-005    -1.015e-008     1.1547e-009    
  -1              -3.5441e-005    -1.2825e-008    1.5977e-009    
  -1.05           -3.5611e-005    -1.1119e-008    1.154e-009     
  -1.1            -3.5709e-005    -1.3237e-008    1.533e-009     
  -1.15           -3.5843e-005    -1.0599e-008    1.1536e-009    
  -1.2            -3.5924e-005    -1.3986e-008    1.4734e-009    
  -1.25           -3.6034e-005    -1.0199e-008    1.1545e-009    
  -1.3            -3.6109e-005    -1.2848e-008    1.5745e-009    
  -1.35           -3.6213e-005    -1.0852e-008    1.1566e-009    
  -1.4            -3.6272e-005    -1.3598e-008    1.5094e-009    
  -1.45           -3.6365e-005    -9.937e-009     1.1555e-009    
  -1.5            -3.6316e-005    -8.774e-009     -5.512e-010    
  -1.55           -3.6382e-005    2.467e-009      -1.2452e-009   
  -1.6            -3.6556e-005    1.4201e-008     1.4071e-009    
  -1.65           -3.665e-005     -1.6587e-008    1.252e-009     
  -1.7            -3.6689e-005    -1.1063e-008    1.1559e-009    
  -1.75           -3.6757e-005    -1.5274e-008    1.3336e-009    
  -1.8            -3.684e-005     -1.0823e-008    1.1584e-009    
END_DB

BEGIN_DB
 ICCAP_VAR VG         0              
 ICCAP_VAR VS         0              
 ICCAP_VAR VB         0.9            

 #VD              ID              IB              IG             
  0               -1.1724e-009    -3.578e-009     -1.2629e-009   
  -0.05           -2.424e-010     -1.7331e-008    1.5165e-009    
  -0.1            1.1183e-009     1.4967e-008     1.2543e-009    
  -0.15           1.6899e-009     8.364e-009      3.35e-011      
  -0.2            1.7782e-009     8.974e-009      1.824e-010     
  -0.25           6.959e-010      8.868e-009      -1.2551e-009   
  -0.3            -1.7289e-009    2.987e-009      -7.67e-010     
  -0.35           9.84e-010       -1.1195e-008    2.0195e-009    
  -0.4            1.2115e-009     1.0457e-008     -1.2331e-009   
  -0.45           -1.1446e-009    8.226e-009      -1.3858e-009   
  -0.5            -1.1698e-009    -1.1174e-008    1.1342e-009    
  -0.55           9.779e-010      -1.0932e-008    2.0058e-009    
  -0.6            1.1841e-009     1.1412e-008     -1.234e-009    
  -0.65           -1.167e-009     7.433e-009      -1.3628e-009   
  -0.7            -1.8595e-009    -9.381e-009     8e-012         
  -0.75           -6.01e-011      -1.2967e-008    1.155e-009     
  -0.8            -1.783e-010     -1.5521e-008    1.6538e-009    
  -0.85           9.428e-010      -1.832e-009     1.8864e-009    
  -0.9            1.0409e-009     9.741e-009      -1.2435e-009   
  -0.95           -1.305e-009     3.945e-009      -1.2169e-009   
  -1              -2.338e-010     -1.6529e-008    1.5402e-009    
  -1.05           1.136e-009      1.4584e-008     1.231e-009     
  -1.1            1.6749e-009     8.247e-009      1.5e-011       
  -1.15           1.7631e-009     8.692e-009      1.673e-010     
  -1.2            6.766e-010      8.621e-009      -1.2559e-009   
  -1.25           -1.7576e-009    3.035e-009      -7.462e-010    
  -1.3            9.826e-010      -1.1189e-008    2.0218e-009    
  -1.35           1.1955e-009     1.1575e-008     -1.2368e-009   
  -1.4            -1.1509e-009    7.729e-009      -1.3744e-009   
  -1.45           -1.8643e-009    -9.518e-009     -1.82e-011     
  -1.5            -8.22e-011      -1.3255e-008    1.1561e-009    
  -1.55           -1.897e-010     -1.5673e-008    1.6347e-009    
  -1.6            9.472e-010      -2.146e-009     1.898e-009     
  -1.65           1.0559e-009     9.872e-009      -1.2431e-009   
  -1.7            -1.2888e-009    4.342e-009      -1.2369e-009   
  -1.75           -1.761e-009     -9.292e-009     1.836e-010     
  -1.8            9.858e-010      -1.1254e-008    2.0298e-009    
END_DB

BEGIN_DB
 ICCAP_VAR VG         -0.36          
 ICCAP_VAR VS         0              
 ICCAP_VAR VB         0.9            

 #VD              ID              IB              IG             
  0               -1.0492e-009    -9.621e-009     -1.2163e-009   
  -0.05           -1.882e-009     -8.95e-009      -5.497e-010    
  -0.1            9.444e-010      -9.78e-009      1.8599e-009    
  -0.15           1.0472e-009     9.783e-009      -1.2337e-009   
  -0.2            -1.2957e-009    4.428e-009      -1.2524e-009   
  -0.25           -2.399e-010     -1.7293e-008    1.5127e-009    
  -0.3            1.1179e-009     1.4866e-008     1.2191e-009    
  -0.35           1.6865e-009     8.305e-009      2.06e-011      
  -0.4            1.7771e-009     8.97e-009       1.745e-010     
  -0.45           6.891e-010      8.818e-009      -1.2496e-009   
  -0.5            -1.7252e-009    3.04e-009       -8.009e-010    
  -0.55           9.858e-010      -1.111e-008     2.0028e-009    
