! VERSION = 6.00
BEGIN_HEADER
 ICCAP_INPUTS
  VG         V  B GROUND SMU4 0.001 LIN        1    0          -1.8       37   -0.05     
  VS         V  E GROUND SMU2 0.1 CON        0
  VB         V  C GROUND SMU3 0.1 LIN        3    0          1.8        3    0.9       
  VD         V  S GROUND SMU1 0.1 LIN        2    -0.1       -1.8       2    -1.7      
 ICCAP_OUTPUTS
  IG         I  B GROUND SMU4 B
  ID         I  S GROUND SMU1 B
  IB         I  C GROUND SMU3 B
END_HEADER

BEGIN_DB
 ICCAP_VAR VS         0              
 ICCAP_VAR VB         0              
 ICCAP_VAR VD         -0.1           

 #VG              IG              ID              IB             
  0               -1.1913e-009    -1.0438e-009    -9.817e-009    
  -0.05           1.1206e-009     -1.1078e-009    -1.3923e-008   
  -0.1            1.8834e-009     9.474e-010      -1.0349e-008   
  -0.15           -1.2311e-009    1.0834e-009     9.823e-009     
  -0.2            -1.2901e-009    -1.2778e-009    5.399e-009     
  -0.25           1.47e-010       -1.8034e-009    -9.406e-009    
  -0.3            1.1723e-009     6.96e-011       -1.1931e-008   
  -0.35           1.1738e-009     -1.01e-010      -1.3961e-008   
  -0.4            1.6114e-009     -2.084e-010     -1.6295e-008   
  -0.45           1.1648e-009     1.1803e-009     1.4303e-008    
  -0.5            -2.41e-011      1.6552e-009     7.903e-009     
  -0.55           1.392e-010      1.7391e-009     9.038e-009     
  -0.6            -1.2437e-009    6.297e-010      9.061e-009     
  -0.65           -1.5937e-009    -1.1734e-009    3.407e-009     
  -0.7            -3.219e-010     -2.363e-009     -9.183e-009    
  -0.75           1.1435e-009     -3.0054e-009    -1.1632e-008   
  -0.8            1.166e-009      -6.8823e-009    -1.1166e-008   
  -0.85           -2.3942e-009    -2.3773e-008    -1.6617e-008   
  -0.9            -4.799e-010     -6.6508e-008    -9.454e-009    
  -0.95           -1.7408e-009    -1.578e-007     8.473e-009     
  -1              -4.32e-010      -3.2752e-007    -9.586e-009    
  -1.05           -8.639e-010     -5.9012e-007    -8.61e-009     
  -1.1            1.6843e-009     -9.6274e-007    -1.2053e-008   
  -1.15           1.9766e-009     -1.4011e-006    1.2774e-008    
  -1.2            9.798e-010      -1.9254e-006    9.913e-009     
  -1.25           1.4087e-009     -2.4776e-006    1.4629e-008    
  -1.3            3.704e-010      -3.0612e-006    9.113e-009     
  -1.35           6.453e-010      -3.6697e-006    8.363e-009     
  -1.4            1.0513e-009     -4.2746e-006    1.1817e-008    
  -1.45           1.4757e-009     -4.864e-006     1.4609e-008    
  -1.5            4.164e-010      -5.4486e-006    8.804e-009     
  -1.55           7.049e-010      -6.0293e-006    8.762e-009     
  -1.6            1.1315e-009     -6.5867e-006    1.2316e-008    
  -1.65           1.5363e-009     -7.1187e-006    1.5214e-008    
  -1.7            4.601e-010      -7.6452e-006    8.933e-009     
  -1.75           7.821e-010      -8.1572e-006    8.782e-009     
  -1.8            1.2064e-009     -8.6464e-006    1.2545e-008    
END_DB

BEGIN_DB
 ICCAP_VAR VS         0              
 ICCAP_VAR VB         0              
 ICCAP_VAR VD         -1.8           

 #VG              IG              ID              IB             
  0               -1.1472e-009    -1.0237e-009    -1.3402e-008   
  -0.05           -2.268e-010     -1.8946e-009    -9.546e-009    
  -0.1            1.644e-009      -1.922e-010     -1.5739e-008   
  -0.15           1.1438e-009     1.2042e-009     1.4122e-008    
  -0.2            1.3188e-009     1.0484e-009     1.5621e-008    
  -0.25           1.152e-010      1.7344e-009     8.805e-009     
  -0.3            2.628e-010      1.7975e-009     9.074e-009     
  -0.35           -1.2372e-009    7.762e-010      8.704e-009     
  -0.4            -8.948e-010     -1.6494e-009    2.547e-009     
  -0.45           1.1703e-009     4.7e-012        -1.2459e-008   
  -0.5            1.1612e-009     -1.456e-010     -1.4688e-008   
  -0.55           1.5192e-009     -2.56e-010      -1.7191e-008   
  -0.6            1.9217e-009     9.275e-010      -3.063e-009    
  -0.65           -1.228e-009     1.0029e-009     9.245e-009     
  -0.7            -2.1392e-009    -1.55e-009      6.155e-009     
  -0.75           1.1271e-009     -3.2117e-009    -1.3453e-008   
  -0.8            1.1566e-009     -7.7258e-009    -1.0506e-008   
  -0.85           -2.2422e-009    -2.6823e-008    -1.2255e-008   
  -0.9            -2.088e-010     -7.6459e-008    -9.634e-009    
  -0.95           -1.2415e-009    -1.8652e-007    1.4579e-008    
  -1              -1.2324e-009    -4.0509e-007    3.307e-009     
  -1.05           -2.0722e-009    -7.8252e-007    3.332e-009     
  -1.1            -1.2745e-009    -1.3607e-006    -3.987e-009    
  -1.15           1.1401e-009     -2.2095e-006    -5.85e-009     
  -1.2            1.1665e-009     -3.2979e-006    -1.0818e-008   
  -1.25           1.3613e-009     -4.664e-006     -1.5257e-008   
  -1.3            1.0742e-009     -6.3085e-006    -3.527e-009    
  -1.35           1.1053e-009     -8.2509e-006    -4.053e-009    
  -1.4            1.1703e-009     -1.04684e-005   -9.6e-009      
  -1.45           -1.6915e-009    -1.2885e-005    1.2097e-008    
  -1.5            1.1652e-009     -1.5682e-005    -1.0673e-008   
  -1.55           1.3756e-009     -1.8662e-005    -1.5045e-008   
  -1.6            1.0782e-009     -2.1861e-005    -3.663e-009    
  -1.65           1.1038e-009     -2.5317e-005    -3.994e-009    
  -1.7            1.1675e-009     -2.8967e-005    -9.232e-009    
  -1.75           1.6182e-009     -3.2786e-005    -1.2831e-008   
  -1.8            1.3999e-009     -3.6798e-005    1.4363e-008    
END_DB

BEGIN_DB
 ICCAP_VAR VS         0              
 ICCAP_VAR VB         0.9            
 ICCAP_VAR VD         -0.1           

 #VG              IG              ID              IB             
  0               -1.1609e-009    -1.0272e-009    -1.3404e-008   
  -0.05           1.7994e-009     9.266e-010      -8.974e-009    
  -0.1            -1.2371e-009    9.786e-010      8.741e-009     
  -0.15           -1.1653e-009    -1.403e-009     3.515e-009     
  -0.2            3.015e-010      -1.7312e-009    -8.886e-009    
  -0.25           1.056e-010      -1.8194e-009    -9.549e-009    
  -0.3            1.1689e-009     3.43e-011       -1.2067e-008   
  -0.35           1.1706e-009     -1.263e-010     -1.4332e-008   
  -0.4            1.5721e-009     -2.271e-010     -1.6648e-008   
  -0.45           1.198e-009      1.1621e-009     1.4254e-008    
  -0.5            3.7e-012        1.6703e-009     8.17e-009      
  -0.55           1.532e-010      1.7629e-009     9.136e-009     
  -0.6            -1.2443e-009    6.731e-010      8.97e-009      
  -0.65           -7.616e-010     -1.7512e-009    2.95e-009      
  -0.7            1.1567e-009     -1.4485e-009    -8.669e-009    
  -0.75           1.6e-009        -2.211e-010     -1.6574e-008   
  -0.8            1.1802e-009     1.1608e-009     1.4037e-008    
  -0.85           -1.41e-011      1.6206e-009     8.119e-009     
  -0.9            -1.2639e-009    2.982e-010      8.792e-009     
  -0.95           -2.3625e-009    -2.1458e-009    3.058e-009     
  -1              1.1644e-009     -4.9207e-009    -1.0911e-008   
  -1.05           -2.391e-009     -2.0012e-008    -1.6208e-008   
  -1.1            1.1597e-009     -6.1273e-008    -1.1458e-008   
  -1.15           2.349e-010      -1.6097e-007    3.04e-009      
  -1.2            1.164e-009      -3.4706e-007    -1.1247e-008   
  -1.25           1.2982e-009     -6.4026e-007    -1.6229e-008   
  -1.3            1.0698e-009     -1.02757e-006   -3.256e-009    
  -1.35           1.2947e-009     -1.5012e-006    3.277e-009     
  -1.4            3.019e-010      -2.0252e-006    8.58e-009      
  -1.45           5.496e-010      -2.5955e-006    8.313e-009     
  -1.5            9.323e-010      -3.1766e-006    1.0684e-008    
  -1.55           1.3615e-009     -3.7489e-006    1.3917e-008    
  -1.6            3.422e-010      -4.3135e-006    8.722e-009     
  -1.65           6.064e-010      -4.8791e-006    8.243e-009     
  -1.7            1.0017e-009     -5.4265e-006    1.1416e-008    
  -1.75           1.4252e-009     -5.9477e-006    1.4448e-008    
  -1.8            3.848e-010      -6.4576e-006    8.852e-009     
END_DB

BEGIN_DB
 ICCAP_VAR VS         0              
 ICCAP_VAR VB         0.9            
 ICCAP_VAR VD         -1.8           

 #VG              IG              ID              IB             
  0               -1.1874e-009    -1.0379e-009    1.2661e-008    
  -0.05           1.8511e-009     9.328e-010      -9.735e-009    
  -0.1            -1.244e-009     1.0242e-009     9.264e-009     
  -0.15           -1.197e-009     -1.3406e-009    3.831e-009     
  -0.2            2.416e-010      -1.7598e-009    -9.071e-009    
  -0.25           4.14e-011       -1.8417e-009    -9.617e-009    
  -0.3            1.1544e-009     -2.62e-011      -1.2839e-008   
  -0.35           1.6987e-009     -1.669e-010     -1.4974e-008   
  -0.4            1.1252e-009     1.234e-009      1.4102e-008    
  -0.45           1.3049e-009     1.0685e-009     1.4759e-008    
  -0.5            8.8e-011        1.7182e-009     8.645e-009     
  -0.55           2.492e-010      1.7877e-009     8.7e-009       
  -0.6            -1.2479e-009    7.578e-010      8.383e-009     
  -0.65           -8.625e-010     -1.6676e-009    2.265e-009     
  -0.7            1.1574e-009     1.94e-011       -1.2216e-008   
  -0.75           1.7722e-009     -1.377e-010     -1.4366e-008   
  -0.8            1.838e-009      9.184e-010      -5.6e-010      
  -0.85           -1.2429e-009    9.427e-010      9.102e-009     
  -0.9            -1.9489e-009    -1.3202e-009    3.178e-009     
  -0.95           1.6062e-009     -1.5372e-009    -1.5639e-008   
  -1              1.1927e-009     -4.5653e-009    1.4081e-008    
  -1.05           -2.1087e-009    -2.3016e-008    -1.1064e-008   
  -1.1            -5e-011         -7.2785e-008    -9.075e-009    
  -1.15           -1.2838e-009    -1.9088e-007    1.3291e-008    
  -1.2            -1.2467e-009    -4.3318e-007    2.533e-009     
  -1.25           -1.2404e-009    -8.5487e-007    2.202e-009     
  -1.3            -1.3557e-009    -1.5053e-006    -4.965e-009    
  -1.35           -2.541e-010     -2.422e-006     -9.574e-009    
  -1.4            1.1519e-009     -3.6301e-006    -1.3434e-008   
  -1.45           1.6644e-009     -5.1007e-006    -1.2546e-008   
  -1.5            1.4154e-009     -6.8504e-006    1.4278e-008    
  -1.55           3.673e-010      -8.8603e-006    9.127e-009     
  -1.6            6.508e-010      -1.11923e-005   8.41e-009      
  -1.65           -3.547e-010     -1.3696e-005    1.3606e-008    
  -1.7            1.1581e-009     -1.6547e-005    -1.0936e-008   
  -1.75           1.4566e-009     -1.9562e-005    -1.4399e-008   
  -1.8            1.0838e-009     -2.2796e-005    -3.447e-009    
END_DB

BEGIN_DB
 ICCAP_VAR VS         0              
 ICCAP_VAR VB         1.8            
 ICCAP_VAR VD         -0.1           

 #VG              IG              ID              IB             
  0               -1.2428e-009    -1.0546e-009    -2.0979e-008   
  -0.05           2.0441e-009     9.882e-010      -1.1479e-008   
  -0.1            -1.2367e-009    1.2207e-009     1.0918e-008    
  -0.15           -1.4019e-009    -1.1313e-009    9.031e-009     
  -0.2            1.1419e-009     -1.186e-009     -1.0796e-008   
  -0.25           2.0419e-009     9.868e-010      -1.1708e-008   
  -0.3            -1.2367e-009    1.2179e-009     1.188e-008     
  -0.35           -1.4012e-009    -1.1292e-009    9.069e-009     
  -0.4            1.141e-009      -1.1854e-009    -1.0829e-008   
  -0.45           2.0406e-009     9.853e-010      -1.1657e-008   
  -0.5            -1.2358e-009    1.22e-009       1.1733e-008    
  -0.55           -1.4007e-009    -1.1319e-009    8.922e-009     
  -0.6            1.1428e-009     -1.1833e-009    -1.0856e-008   
  -0.65           2.0334e-009     9.852e-010      -1.1707e-008   
  -0.7            -1.2346e-009    1.2188e-009     1.0831e-008    
  -0.75           -1.3994e-009    -1.1328e-009    8.995e-009     
  -0.8            1.1413e-009     -1.1847e-009    -1.0825e-008   
  -0.85           2.0369e-009     9.857e-010      -1.1687e-008   
  -0.9            -1.2363e-009    1.2157e-009     1.0743e-008    
  -0.95           -1.3987e-009    -1.1398e-009    8.948e-009     
  -1              1.8396e-009     8.895e-010      -9.442e-009    
  -1.05           -1.2439e-009    8.059e-010      8.977e-009     
  -1.1            -2.2659e-009    -1.9988e-009    3.251e-009     
  -1.15           2.613e-010      -6.5336e-009    -8.89e-009     
  -1.2            1.1879e-009     -1.7365e-008    8.65e-010      
  -1.25           2.045e-010      -6.0977e-008    8.023e-009     
  -1.3            2.1507e-009     -1.6175e-007    -9.497e-009    
  -1.35           9.553e-010      -3.5188e-007    9.789e-009     
  -1.4            1.3985e-009     -6.398e-007     1.4298e-008    
  -1.45           3.655e-010      -1.02626e-006   9.083e-009     
  -1.5            -1.9872e-009    -1.489e-006     -1.3442e-008   
  -1.55           1.2556e-009     -2.0123e-006    -1.6347e-008   
  -1.6            1.0588e-009     -2.553e-006     -3.28e-009     
  -1.65           1.1163e-009     -3.1101e-006    -5.108e-009    
  -1.7            1.1599e-009     -3.6596e-006    -1.0707e-008   
  -1.75           1.4439e-009     -4.1993e-006    -1.4537e-008   
  -1.8            1.0822e-009     -4.7261e-006    -3.474e-009    
END_DB

BEGIN_DB
 ICCAP_VAR VS         0              
 ICCAP_VAR VB         1.8            
 ICCAP_VAR VD         -1.8           

 #VG              IG              ID              IB             
  0               1.0635e-009     1.025e-009      -9.464e-009    
  -0.05           -1.2368e-009    1.1976e-009     1.0246e-008    
  -0.1            -1.3741e-009    -1.1476e-009    8.095e-009     
  -0.15           1.1357e-009     -1.166e-009     -1.1134e-008   
  -0.2            2.0068e-009     9.78e-010       -1.123e-008    
  -0.25           -1.2355e-009    1.1903e-009     1.031e-008     
  -0.3            -1.3748e-009    -1.147e-009     7.929e-009     
  -0.35           1.1346e-009     -1.1649e-009    -1.1182e-008   
  -0.4            2.007e-009      9.759e-010      -1.1221e-008   
  -0.45           -1.2363e-009    1.1868e-009     1.0249e-008    
  -0.5            -1.3727e-009    -1.155e-009     7.736e-009     
  -0.55           1.1341e-009     -1.1618e-009    -1.1337e-008   
  -0.6            2.0001e-009     9.754e-010      -1.1211e-008   
  -0.65           -1.2382e-009    1.1847e-009     1.012e-008     
  -0.7            -1.3686e-009    -1.157e-009     7.552e-009     
  -0.75           1.133e-009      -1.1576e-009    -1.1368e-008   
  -0.8            1.9916e-009     9.733e-010      -1.1034e-008   
  -0.85           -1.2389e-009    1.1803e-009     1.0134e-008    
  -0.9            -1.362e-009     -1.1638e-009    7.569e-009     
  -0.95           -7.9e-012       -1.8708e-009    -9.562e-009    
  -1              1.154e-009      -1.279e-010     -1.3318e-008   
  -1.05           1.62e-009       -4.462e-010     -1.5932e-008   
  -1.1            -1.262e-009     -1.8502e-009    1.4167e-008    
  -1.15           -1.2525e-009    -6.2886e-009    2.818e-009     
  -1.2            1.7225e-009     -2.3256e-008    8.357e-009     
  -1.25           1.2007e-009     -7.5066e-008    -1.153e-009    
  -1.3            -4.411e-010     -2.0361e-007    7.288e-009     
  -1.35           1.152e-009      -4.6401e-007    -9.224e-009    
  -1.4            1.6373e-009     -9.0449e-007    -1.2581e-008   
  -1.45           1.5993e-009     -1.5627e-006    2.169e-009     
  -1.5            5.006e-010      -2.4941e-006    8.737e-009     
  -1.55           8.423e-010      -3.7107e-006    9.066e-009     
  -1.6            1.2868e-009     -5.181e-006     1.3561e-008    
  -1.65           2.848e-010      -6.9052e-006    8.631e-009     
  -1.7            5.51e-010       -8.9556e-006    8.526e-009     
  -1.75           9.271e-010      -1.1254e-005    9.533e-009     
  -1.8            1.0667e-009     -1.3761e-005    2.381e-009     
END_DB

