! VERSION = 6.00
BEGIN_HEADER
 ICCAP_INPUTS
  VG         V  B GROUND SMU4 0.001 LIN        1    0          5          101  0.05      
  VS         V  E GROUND SMU1 0.1 CON        0
  VB         V  C GROUND SMU2 0.1 LIN        3    0          -5         3    -2.5      
  VD         V  S GROUND SMU3 0.1 LIN        2    0.1        5          2    4.9       
  SUB        V  D GROUND VSU1 0.1 CON        0
 ICCAP_OUTPUTS
  IG         I  B GROUND SMU4 B
  ID         I  S GROUND SMU3 B
  IB         I  C GROUND SMU2 B
END_HEADER

BEGIN_DB
 ICCAP_VAR VS         0              
 ICCAP_VAR VB         0              
 ICCAP_VAR VD         0.1            
 ICCAP_VAR SUB        0              

 #VG              IG              ID              IB             
  0               2.22e-010       9.023e-010      -1.6964e-009   
  0.05            -1.4109e-009    1.3449e-009     7.215e-010     
  0.1             -6.779e-010     7.951e-010      -1.9357e-009   
  0.15            1.3841e-009     -1.2732e-009    -7.737e-010    
  0.2             7.332e-010      -7.625e-010     1.9247e-009    
  0.25            -1.3549e-009    1.2994e-009     8.513e-010     
  0.3             -7.547e-010     8.763e-010      -1.9429e-009   
  0.35            1.3986e-009     -1.1533e-009    -3.771e-010    
  0.4             -1.4039e-009    1.5556e-009     1.0158e-009    
  0.45            -8.457e-010     1.5099e-009     -1.8696e-009   
  0.5             -8.238e-010     2.9395e-009     -1.8942e-009   
  0.55            1.4007e-009     9.934e-009      -1.9027e-009   
  0.6             7.562e-010      3.6882e-008     1.9255e-009    
  0.65            1.3822e-009     1.302e-007      -4.596e-010    
  0.7             9.539e-010      4.4714e-007     1.6202e-009    
  0.75            -1.3986e-009    1.4826e-006     2.0019e-009    
  0.8             -7.864e-010     4.607e-006      -1.9335e-009   
  0.85            7.191e-010      1.235e-005      1.9194e-009    
  0.9             7.771e-010      2.8268e-005     1.9243e-009    
  0.95            8.255e-010      5.2827e-005     1.8859e-009    
  1               8.733e-010      8.1553e-005     1.803e-009     
  1.05            9.218e-010      0.000107678     1.6835e-009    
  1.1             7.803e-010      0.00012953      1.9219e-009    
  1.15            8.308e-010      0.0001471       1.8835e-009    
  1.2             8.748e-010      0.00016152      1.7989e-009    
  1.25            9.197e-010      0.0001736       1.68e-009      
  1.3             -1.3742e-009    0.00018393      2.0272e-009    
  1.35            -8.095e-010     0.00019312      -1.917e-009    
  1.4             -8.531e-010     0.00020104      -1.8266e-009   
  1.45            -9.022e-010     0.0002081       -1.7118e-009   
  1.5             -9.584e-010     0.00021448      -1.5864e-009   
  1.55            1.4026e-009     0.00022027      -2.0447e-009   
  1.6             8.923e-010      0.00022542      1.7702e-009    
  1.65            9.432e-010      0.00023036      1.6332e-009    
  1.7             -1.359e-009     0.00023497      2.0442e-009    
  1.75            -8.27e-010      0.00023945      -1.8943e-009   
  1.8             -8.698e-010     0.00024355      -1.794e-009    
  1.85            -9.252e-010     0.00024741      -1.6726e-009   
  1.9             1.3589e-009     0.00025105      -2.037e-009    
  1.95            8.317e-010      0.00025438      1.8867e-009    
  2               8.797e-010      0.00025764      1.7986e-009    
  2.05            9.262e-010      0.00026082      1.6796e-009    
  2.1             -1.3789e-009    0.00026386      2.033e-009     
  2.15            -8.14e-010      0.00026684      -1.9183e-009   
  2.2             -8.611e-010     0.00026968      -1.8329e-009   
  2.25            -9.051e-010     0.00027239      -1.7076e-009   
  2.3             -9.631e-010     0.000275        -1.5919e-009   
  2.35            1.407e-009      0.0002775       -2.0473e-009   
  2.4             8.96e-010       0.00027987      1.7648e-009    
  2.45            9.473e-010      0.00028222      1.636e-009     
  2.5             -1.3587e-009    0.00028451      2.0457e-009    
  2.55            -8.315e-010     0.0002868       -1.8923e-009   
  2.6             -8.758e-010     0.00028899      -1.7884e-009   
  2.65            -9.27e-010      0.00029116      -1.6624e-009   
  2.7             1.361e-009      0.00029317      -2.0391e-009   
  2.75            8.373e-010      0.00029513      1.8898e-009    
  2.8             8.811e-010      0.00029709      1.7962e-009    
  2.85            9.273e-010      0.00029895      1.6756e-009    
  2.9             -1.3777e-009    0.00030082      2.037e-009     
  2.95            -8.146e-010     0.00030272      -1.9152e-009   
  3               -8.617e-010     0.00030452      -1.8223e-009   
  3.05            -9.054e-010     0.00030628      -1.7115e-009   
  3.1             -9.669e-010     0.00030798      -1.5842e-009   
  3.15            1.4042e-009     0.00030964      -2.0481e-009   
  3.2             8.999e-010      0.00031113      1.7624e-009    
  3.25            9.472e-010      0.00031275      1.6288e-009    
  3.3             -1.3524e-009    0.00031431      2.0464e-009    
  3.35            -8.303e-010     0.00031592      -1.8866e-009   
  3.4             -8.724e-010     0.00031743      -1.7829e-009   
  3.45            -9.214e-010     0.0003189       -1.6616e-009   
  3.5             1.3587e-009     0.00032035      -2.0409e-009   
  3.55            8.373e-010      0.00032173      1.883e-009     
  3.6             8.803e-010      0.00032313      1.7871e-009    
  3.65            9.29e-010       0.00032449      1.6664e-009    
  3.7             -1.3748e-009    0.00032583      2.0378e-009    
  3.75            -8.148e-010     0.00032721      -1.9121e-009   
  3.8             -8.588e-010     0.00032854      -1.8182e-009   
  3.85            -9.078e-010     0.0003298       -1.702e-009    
  3.9             -9.651e-010     0.0003311       -1.584e-009    
  3.95            1.4032e-009     0.00033231      -2.0462e-009   
  4               9e-010          0.00033343      1.7549e-009    
  4.05            9.534e-010      0.00033461      1.6213e-009    
  4.1             -1.3506e-009    0.00033583      2.0469e-009    
  4.15            -8.318e-010     0.00033705      -1.8848e-009   
  4.2             -8.791e-010     0.00033822      -1.7822e-009   
  4.25            -9.273e-010     0.00033934      -1.6562e-009   
  4.3             1.3546e-009     0.00034045      -2.0421e-009   
  4.35            8.368e-010      0.00034148      1.8823e-009    
  4.4             8.826e-010      0.00034254      1.784e-009     
  4.45            9.31e-010       0.00034356      1.665e-009     
  4.5             -1.3704e-009    0.0003446       2.0378e-009    
  4.55            -8.162e-010     0.00034572      -1.9079e-009   
  4.6             -8.651e-010     0.00034675      -1.8144e-009   
  4.65            -9.112e-010     0.00034773      -1.6992e-009   
  4.7             -9.697e-010     0.00034869      -1.5792e-009   
  4.75            1.4016e-009     0.00034969      -2.0473e-009   
  4.8             8.974e-010      0.00035052      1.7516e-009    
  4.85            9.529e-010      0.00035149      1.6164e-009    
  4.9             -1.3512e-009    0.00035245      2.0451e-009    
  4.95            -8.339e-010     0.00035341      -1.8804e-009   
  5               -8.785e-010     0.00035429      -1.7743e-009   
END_DB

BEGIN_DB
 ICCAP_VAR VS         0              
 ICCAP_VAR VB         0              
 ICCAP_VAR VD         5              
 ICCAP_VAR SUB        0              

 #VG              IG              ID              IB             
  0               -3.35e-011      -2.846e-010     1.2886e-009    
  0.05            1.3961e-009     -1.3363e-009    -5.314e-010    
  0.1             -1.4231e-009    1.3807e-009     6.405e-010     
  0.15            -9.717e-010     7.585e-010      -1.5775e-009   
  0.2             1.386e-009      -1.279e-009     -7.656e-010    
  0.25            7.267e-010      -7.476e-010     1.9318e-009    
  0.3             -1.3631e-009    1.3299e-009     8.438e-010     
  0.35            -7.498e-010     9.314e-010      -1.9542e-009   
  0.4             7.839e-010      -5.243e-010     1.934e-009     
  0.45            -1.4124e-009    1.9652e-009     1.4274e-009    
  0.5             -8.399e-010     3.8282e-009     -1.8787e-009   
  0.55            7.949e-010      1.1022e-008     1.9274e-009    
  0.6             8.426e-010      3.9583e-008     1.8721e-009    
  0.65            1.3901e-009     1.3573e-007     -4.847e-010    
  0.7             9.703e-010      4.689e-007      1.5955e-009    
  0.75            -1.4153e-009    1.5496e-006     1.2442e-009    
  0.8             -7.649e-010     4.9152e-006     -1.951e-009    
  0.85            -1.4093e-009    1.3478e-005     2.0148e-009    
  0.9             -9.143e-010     3.3273e-005     -1.6884e-009   
  0.95            -9.72e-010      6.9521e-005     -1.5671e-009   
  1               -6.216e-010     0.00012717      -1.943e-009    
  1.05            -6.854e-010     0.00020751      -1.9538e-009   
  1.1             -7.462e-010     0.00031121      -1.9655e-009   
  1.15            -8.012e-010     0.00043778      -1.9418e-009   
  1.2             -8.466e-010     0.00058544      -1.8676e-009   
  1.25            -8.887e-010     0.00075264      -1.7552e-009   
  1.3             -9.421e-010     0.00093702      -1.6217e-009   
  1.35            1.4156e-009     0.00113742      -2.0525e-009   
  1.4             -6.997e-010     0.0013535       -1.9635e-009   
  1.45            -7.592e-010     0.0015796       -1.9644e-009   
  1.5             -8.121e-010     0.0018201       -1.9278e-009   
  1.55            -8.542e-010     0.0020711       -1.8365e-009   
  1.6             -8.999e-010     0.0023315       -1.7217e-009   
  1.65            -9.574e-010     0.0026004       -1.5946e-009   
  1.7             1.4095e-009     0.0028772       -2.042e-009    
  1.75            8.917e-010      0.0031544       1.7673e-009    
  1.8             9.41e-010       0.0034428       1.6337e-009    
  1.85            -1.3619e-009    0.0037379       2.0322e-009    
  1.9             -8.265e-010     0.0040446       -1.8997e-009   
  1.95            -8.714e-010     0.0043476       -1.7999e-009   
  2               -9.201e-010     0.0046474       -1.6686e-009   
  2.05            1.3648e-009     0.0049371       -2.0343e-009   
  2.1             8.255e-010      0.005204        1.8829e-009    
  2.15            8.704e-010      0.0054486       1.7872e-009    
  2.2             9.211e-010      0.0056631       1.6689e-009    
  2.25            -1.3794e-009    0.0058469       2.002e-009     
  2.3             -8.032e-010     0.0060068       -1.9432e-009   
  2.35            -8.516e-010     0.0061437       -1.8613e-009   
  2.4             -8.991e-010     0.0062629       -1.7463e-009   
  2.45            -9.524e-010     0.0063697       -1.6268e-009   
  2.5             1.4056e-009     0.006466        -2.0778e-009   
  2.55            8.87e-010       0.0065518       1.7285e-009    
  2.6             9.333e-010      0.0066325       1.5919e-009    
  2.65            -1.362e-009     0.0067096       1.9859e-009    
  2.7             -8.207e-010     0.0067825       -1.9451e-009   
  2.75            -8.659e-010     0.00685         -1.8429e-009   
  2.8             -9.133e-010     0.0069136       -1.7335e-009   
  2.85            -9.762e-010     0.0069742       -1.6151e-009   
  2.9             1.4e-009        0.0070318       -2.0976e-009   
  2.95            9.032e-010      0.0070857       1.6658e-009    
  3               9.533e-010      0.0071382       1.5368e-009    
  3.05            -1.3376e-009    0.0071897       1.9741e-009    
  3.1             -8.332e-010     0.0072406       -1.9424e-009   
  3.15            -8.821e-010     0.0072886       -1.8297e-009   
  3.2             -9.322e-010     0.0073353       -1.7055e-009   
  3.25            -9.991e-010     0.0073804       -1.6044e-009   
  3.3             1.3948e-009     0.0074241       -2.104e-009    
  3.35            9.178e-010      0.0074655       1.6178e-009    
  3.4             -1.3833e-009    0.0075069       1.9479e-009    
  3.45            -8.042e-010     0.0075487       -2.0017e-009   
  3.5             -8.509e-010     0.0075885       -1.9172e-009   
  3.55            -8.97e-010      0.0076272       -1.8077e-009   
  3.6             -9.512e-010     0.0076657       -1.6891e-009   
  3.65            1.4148e-009     0.0077024       -2.1249e-009   
  3.7             8.849e-010      0.0077379       1.6943e-009    
  3.75            9.318e-010      0.0077733       1.5628e-009    
  3.8             -1.3653e-009    0.0078086       1.9474e-009    
  3.85            -8.168e-010     0.0078439       -1.9879e-009   
  3.9             -8.645e-010     0.0078787       -1.8981e-009   
  3.95            -9.078e-010     0.0079116       -1.7733e-009   
  4               -9.7e-010       0.0079442       -1.6598e-009   
  4.05            1.4055e-009     0.0079767       -2.1299e-009   
  4.1             8.96e-010       0.0080074       1.6466e-009    
  4.15            9.511e-010      0.0080386       1.5207e-009    
  4.2             -1.3469e-009    0.0080694       1.943e-009     
  4.25            -8.334e-010     0.008101        -1.974e-009    
  4.3             -8.795e-010     0.0081307       -1.864e-009    
  4.35            -9.257e-010     0.0081611       -1.74e-009     
  4.4             -9.943e-010     0.0081904       -1.6374e-009   
  4.45            1.399e-009      0.0082193       -2.1287e-009   
  4.5             9.111e-010      0.0082465       1.6053e-009    
  4.55            -1.3842e-009    0.0082742       1.9206e-009    
  4.6             -7.995e-010     0.008303        -2.021e-009    
  4.65            -8.462e-010     0.0083308       -1.9414e-009   
  4.7             -8.883e-010     0.0083577       -1.8288e-009   
  4.75            -9.446e-010     0.0083846       -1.7111e-009   
  4.8             1.417e-009      0.0084114       -2.1376e-009   
  4.85            8.799e-010      0.0084366       1.683e-009     
  4.9             9.26e-010       0.0084623       1.5551e-009    
  4.95            -1.3678e-009    0.008488        1.9279e-009    
  5               -8.171e-010     0.008515        -2.0006e-009   
END_DB

BEGIN_DB
 ICCAP_VAR VS         0              
 ICCAP_VAR VB         -2.5           
 ICCAP_VAR VD         0.1            
 ICCAP_VAR SUB        0              

 #VG              IG              ID              IB             
  0               7.48e-011       -9.11e-010      1.9342e-009    
  0.05            1.3901e-009     -1.2998e-009    -4.488e-010    
  0.1             -1.4076e-009    1.405e-009      5.53e-010      
  0.15            -9.128e-010     6.936e-010      -1.7175e-009   
  0.2             1.4076e-009     -1.3335e-009    -6.605e-010    
  0.25            1.0069e-009     -7.047e-010     1.5456e-009    
  0.3             -1.3893e-009    1.3169e-009     8.05e-010      
  0.35            -7.236e-010     8.336e-010      -1.9489e-009   
  0.4             7.617e-010      -1.1643e-009    1.921e-009     
  0.45            -1.4275e-009    1.2655e-009     3.698e-010     
  0.5             1.3874e-009     -1.3046e-009    -4.544e-010    
  0.55            -1.4075e-009    1.4052e-009     5.542e-010     
  0.6             -9.158e-010     6.98e-010       -1.7072e-009   
  0.65            1.4013e-009     -1.3349e-009    -6.659e-010    
  0.7             6.583e-010      -7.062e-010     1.9024e-009    
  0.75            -1.4106e-009    1.3436e-009     7.406e-010     
  0.8             -6.843e-010     8.046e-010      -1.9427e-009   
  0.85            1.3878e-009     -1.2781e-009    -7.87e-010     
  0.9             7.391e-010      -7.689e-010     1.9204e-009    
  0.95            -1.4329e-009    1.223e-009      3.36e-010      
  1               1.3932e-009     -1.265e-009     -4.187e-010    
  1.05            -1.4085e-009    1.4335e-009     5.224e-010     
  1.1             -8.953e-010     8.687e-010      -1.7494e-009   
  1.15            -8.715e-010     7.789e-010      -1.7872e-009   
  1.2             -8.531e-010     4.1541e-009     -1.8357e-009   
  1.25            1.4089e-009     1.8064e-008     -3.466e-010    
  1.3             8.861e-010      7.3241e-008     1.7767e-009    
  1.35            1.349e-009      2.6318e-007     -8.381e-010    
  1.4             8.425e-010      8.7849e-007     1.8798e-009    
  1.45            -1.4014e-009    2.9357e-006     1.5426e-009    
  1.5             -9.504e-010     9.0403e-006     -1.6146e-009   
  1.55            7.842e-010      2.2865e-005     1.9326e-009    
  1.6             8.344e-010      4.6226e-005     1.8918e-009    
  1.65            8.786e-010      7.4382e-005     1.8043e-009    
  1.7             9.231e-010      0.000100336     1.6868e-009    
  1.75            8.533e-010      0.00012142      1.8685e-009    
  1.8             8.978e-010      0.00013783      1.7668e-009    
  1.85            9.436e-010      0.00015092      1.6379e-009    
  1.9             -1.3672e-009    0.00016158      2.0466e-009    
  1.95            -8.304e-010     0.00017066      -1.9054e-009   
  2               -8.758e-010     0.00017832      -1.8049e-009   
  2.05            -9.204e-010     0.00018495      -1.6839e-009   
  2.1             1.3701e-009     0.00019081      -2.0418e-009   
  2.15            8.319e-010      0.00019599      1.9032e-009    
  2.2             8.743e-010      0.00020071      1.8194e-009    
  2.25            9.182e-010      0.0002051       1.6982e-009    
  2.3             9.717e-010      0.00020914      1.5763e-009    
  2.35            -1.4219e-009    0.00021291      2.0505e-009    
  2.4             -8.821e-010     0.00021653      -1.7794e-009   
  2.45            -9.293e-010     0.00021984      -1.6503e-009   
  2.5             1.3557e-009     0.00022296      -2.0434e-009   
  2.55            8.419e-010      0.00022585      1.8879e-009    
  2.6             8.8e-010        0.00022864      1.7862e-009    
  2.65            9.267e-010      0.00023137      1.6716e-009    
  2.7             -1.3765e-009    0.00023395      2.0312e-009    
  2.75            -8.148e-010     0.00023649      -1.9177e-009   
  2.8             -8.566e-010     0.00023889      -1.8296e-009   
  2.85            -9.039e-010     0.00024117      -1.7142e-009   
  2.9             -9.618e-010     0.00024338      -1.5888e-009   
  2.95            1.4114e-009     0.00024551      -2.0483e-009   
  3               8.913e-010      0.00024752      1.7762e-009    
  3.05            9.391e-010      0.00024953      1.6492e-009    
  3.1             -1.3726e-009    0.00025147      2.0435e-009    
  3.15            -8.268e-010     0.0002534       -1.9084e-009   
  3.2             -8.687e-010     0.00025527      -1.8164e-009   
  3.25            -9.163e-010     0.00025707      -1.6919e-009   
  3.3             -9.755e-010     0.00025882      -1.5729e-009   
  3.35            1.4048e-009     0.00026054      -2.0572e-009   
  3.4             9.019e-010      0.00026214      1.7523e-009    
  3.45            9.51e-010       0.00026378      1.6072e-009    
  3.5             -1.4381e-009    0.00026539      2.0555e-009    
  3.55            -8.679e-010     0.00026699      -1.8212e-009   
  3.6             -9.128e-010     0.00026853      -1.6915e-009   
  3.65            -9.693e-010     0.00027003      -1.5771e-009   
  3.7             1.4117e-009     0.00027148      -2.0567e-009   
  3.75            8.992e-010      0.00027284      1.756e-009     
  3.8             9.478e-010      0.00027427      1.6282e-009    
  3.85            -1.3559e-009    0.00027564      2.0523e-009    
  3.9             -8.3e-010       0.00027705      -1.8953e-009   
  3.95            -8.759e-010     0.0002784       -1.7939e-009   
  4               -9.223e-010     0.00027969      -1.671e-009    
  4.05            1.3652e-009     0.00028097      -2.0385e-009   
