! VERSION = 6.00
BEGIN_HEADER
 ICCAP_INPUTS
  VG         V  B GROUND SMU4 0.001 LIN        1    0          5          101  0.05      
  VS         V  E GROUND SMU2 0.1 CON        0
  VB         V  C GROUND SMU3 0.1 LIN        3    0          -5         3    -2.5      
  VD         V  S GROUND SMU1 0.1 LIN        2    0.1        5          2    4.9       
  SUB        V  D GROUND VSU1 0.1 CON        0
 ICCAP_OUTPUTS
  IG         I  B GROUND SMU4 B
  ID         I  S GROUND SMU1 B
  IB         I  C GROUND SMU3 B
END_HEADER

BEGIN_DB
 ICCAP_VAR VS         0              
 ICCAP_VAR VB         0              
 ICCAP_VAR VD         0.1            
 ICCAP_VAR SUB        0              

 #VG              IG              ID              IB             
  0               1.089e-009      4.566e-010      -1.2864e-009   
  0.05            6.179e-010      1.4792e-009     -9.779e-010    
  0.1             -1.4271e-009    5.805e-010      1.3551e-009    
  0.15            1.4087e-009     -1.3627e-009    7.438e-010     
  0.2             6.92e-010       1.4591e-009     -7.557e-010    
  0.25            -1.4172e-009    6.641e-010      1.3034e-009    
  0.3             1.3946e-009     -1.4414e-009    7.992e-010     
  0.35            7.581e-010      1.5498e-009     -8.101e-010    
  0.4             -1.4458e-009    6.261e-010      1.2171e-009    
  0.45            1.2624e-009     2.0185e-009     -1.3225e-009   
  0.5             -1.4061e-009    3.7966e-009     1.351e-009     
  0.55            1.3439e-009     1.2624e-008     1.3486e-009    
  0.6             -1.4238e-009    4.0985e-008     1.3814e-009    
  0.65            -1.4072e-009    1.4106e-007     -1.3458e-009   
  0.7             1.4072e-009     4.7246e-007     -1.3891e-009   
  0.75            1.0551e-009     1.5477e-006     1.3307e-009    
  0.8             -1.4108e-009    4.7892e-006     1.1757e-009    
  0.85            -1.3854e-009    1.2737e-005     -1.3603e-009   
  0.9             -1.3717e-009    2.871e-005      8.313e-010     
  0.95            1.4102e-009     5.151e-005      -1.3916e-009   
  1               1.3864e-009     7.7444e-005     -7.532e-010    
  1.05            1.322e-009      0.000100192     -8.047e-010    
  1.1             -1.4122e-009    0.00011931      1.2972e-009    
  1.15            -1.4179e-009    0.00013383      7.185e-010     
  1.2             -1.3887e-009    0.00014572      7.719e-010     
  1.25            -1.3459e-009    0.00015554      8.215e-010     
  1.3             1.4064e-009     0.00016364      -1.3873e-009   
  1.35            1.3942e-009     0.00017077      -7.416e-010    
  1.4             1.2961e-009     0.00017698      -7.948e-010    
  1.45            -1.4152e-009    0.00018264      1.3706e-009    
  1.5             -1.414e-009     0.00018753      7.278e-010     
  1.55            -1.3789e-009    0.00019207      7.81e-010      
  1.6             -1.3593e-009    0.00019618      8.308e-010     
  1.65            1.4043e-009     0.00019986      -1.3897e-009   
  1.7             1.3885e-009     0.0002033       -7.526e-010    
  1.75            1.3198e-009     0.0002066       -8.053e-010    
  1.8             -1.4176e-009    0.00020972      1.3792e-009    
  1.85            -1.4077e-009    0.00021254      7.377e-010     
  1.9             -1.3632e-009    0.00021524      7.928e-010     
  1.95            -1.3866e-009    0.00021792      8.401e-010     
  2               1.4048e-009     0.00022033      -1.3924e-009   
  2.05            1.3773e-009     0.00022261      -7.634e-010    
  2.1             1.3478e-009     0.00022477      -8.147e-010    
  2.15            -1.4176e-009    0.00022694      1.3841e-009    
  2.2             -1.4015e-009    0.00022903      7.513e-010     
  2.25            -1.2928e-009    0.000231        8.039e-010     
  2.3             1.4e-009        0.00023277      -1.3755e-009   
  2.35            1.4008e-009     0.00023474      -7.2e-010      
  2.4             1.3667e-009     0.00023642      -7.756e-010    
  2.45            1.3759e-009     0.00023808      -8.268e-010    
  2.5             -1.4216e-009    0.00023983      1.3841e-009    
  2.55            -1.3931e-009    0.00024137      7.625e-010     
  2.6             -1.3175e-009    0.00024297      8.133e-010     
  2.65            1.3996e-009     0.00024447      -1.3816e-009   
  2.7             1.3999e-009     0.00024594      -7.32e-010     
  2.75            1.355e-009      0.00024738      -7.857e-010    
  2.8             1.3969e-009     0.00024864      -8.33e-010     
  2.85            -1.4117e-009    0.00025008      1.3825e-009    
  2.9             -1.386e-009     0.00025141      7.744e-010     
  2.95            -1.3433e-009    0.00025277      8.22e-010      
  3               1.4038e-009     0.00025393      -1.3875e-009   
  3.05            1.3887e-009     0.00025508      -7.434e-010    
  3.1             1.2989e-009     0.00025634      -7.951e-010    
  3.15            -1.4169e-009    0.0002575       1.368e-009     
  3.2             -1.4109e-009    0.00025859      7.309e-010     
  3.25            -1.3725e-009    0.0002597       7.842e-010     
  3.3             -1.3701e-009    0.00026078      8.298e-010     
  3.35            1.3983e-009     0.00026187      -1.3903e-009   
  3.4             1.3847e-009     0.00026283      -7.557e-010    
  3.45            1.3257e-009     0.0002639       -8.062e-010    
  3.5             -1.4179e-009    0.00026489      1.3804e-009    
  3.55            -1.414e-009     0.00026592      7.453e-010     
  3.6             -1.3595e-009    0.00026686      7.951e-010     
  3.65            -1.391e-009     0.0002678       8.418e-010     
  3.7             1.4037e-009     0.00026862      -1.3905e-009   
  3.75            1.3776e-009     0.00026962      -7.663e-010    
  3.8             1.3544e-009     0.00027057      -8.171e-010    
  3.85            -1.4187e-009    0.00027139      1.3829e-009    
  3.9             -1.4009e-009    0.00027229      7.535e-010     
  3.95            -1.2997e-009    0.00027309      8.054e-010     
  4               1.4062e-009     0.00027383      -1.3791e-009   
  4.05            1.4004e-009     0.00027471      -7.228e-010    
  4.1             1.368e-009      0.00027548      -7.785e-010    
  4.15            1.3783e-009     0.00027631      -8.278e-010    
  4.2             -1.418e-009     0.00027713      1.3839e-009    
  4.25            -1.3927e-009    0.0002779       7.674e-010     
  4.3             -1.3289e-009    0.00027868      8.158e-010     
  4.35            1.4046e-009     0.00027924      -1.3859e-009   
  4.4             1.3948e-009     0.00028002      -7.367e-010    
  4.45            1.2788e-009     0.00028076      -7.895e-010    
  4.5             -1.417e-009     0.00028137      1.3677e-009    
  4.55            -1.4099e-009    0.00028206      7.272e-010     
  4.6             -1.379e-009     0.00028272      7.802e-010     
  4.65            -1.3553e-009    0.00028351      8.228e-010     
  4.7             1.4044e-009     0.00028415      -1.387e-009    
  4.75            1.3838e-009     0.00028486      -7.482e-010    
  4.8             1.3166e-009     0.00028538      -8.002e-010    
  4.85            -1.417e-009     0.00028618      1.3742e-009    
  4.9             -1.4066e-009    0.00028662      7.376e-010     
  4.95            -1.3636e-009    0.00028731      7.893e-010     
  5               -1.3848e-009    0.00028775      8.345e-010     
END_DB

BEGIN_DB
 ICCAP_VAR VS         0              
 ICCAP_VAR VB         0              
 ICCAP_VAR VD         5              
 ICCAP_VAR SUB        0              

 #VG              IG              ID              IB             
  0               3.712e-010      -4.42e-010      -3.09e-011     
  0.05            1.432e-009      -1.4982e-009    1.2072e-009    
  0.1             1.3946e-009     -1.4803e-009    1.3257e-009    
  0.15            1.3949e-009     -1.4241e-009    1.3809e-009    
  0.2             5.91e-010       1.5128e-009     -6.702e-010    
  0.25            -1.4222e-009    5.681e-010      1.3703e-009    
  0.3             1.4171e-009     -1.2939e-009    7.241e-010     
  0.35            6.693e-010      1.5566e-009     -7.376e-010    
  0.4             -1.4246e-009    9.323e-010      1.318e-009     
  0.45            -1.4275e-009    7.09e-010       7.87e-010      
  0.5             -1.4307e-009    3.2053e-009     7.651e-010     
  0.55            1.5006e-009     1.3578e-008     1.3165e-009    
  0.6             -1.4374e-009    4.2702e-008     1.2813e-009    
  0.65            -1.4258e-009    1.4681e-007     -7.64e-010     
  0.7             -1.4252e-009    5.0844e-007     7.286e-010     
  0.75            -7.722e-010     1.649e-006      -1.0014e-009   
  0.8             1.3956e-009     5.0271e-006     -1.2757e-009   
  0.85            1.4098e-009     1.4034e-005     1.2971e-009    
  0.9             -1.4322e-009    0.00033329      8.8201e-005    
  0.95            -1.3797e-009    0.00037541      8.5625e-005    
  1               -1.5038e-009    0.00043433      8.357e-005     
  1.05            -1.4159e-009    0.00051173      8.2206e-005    
  1.1             -1.4297e-009    0.00060839      8.0976e-005    
  1.15            -1.3589e-009    0.00072382      7.8667e-005    
  1.2             -1.5032e-009    0.0008543       7.652e-005     
  1.25            -1.4414e-009    0.00099913      7.4282e-005    
  1.3             1.4181e-009     0.001153        7.3235e-005    
  1.35            1.3018e-009     0.0013175       6.9996e-005    
  1.4             1.5068e-009     0.0014913       6.728e-005     
  1.45            1.4275e-009     0.0016703       6.4639e-005    
  1.5             1.4039e-009     0.0018574       6.2577e-005    
  1.55            1.396e-009      0.0020464       5.9832e-005    
  1.6             1.4734e-009     0.0022405       5.6668e-005    
  1.65            1.4634e-009     0.0024375       5.3166e-005    
  1.7             1.3939e-009     0.002637        5.0426e-005    
  1.75            1.4134e-009     0.0028368       4.7282e-005    
  1.8             1.3995e-009     0.0030357       4.3394e-005    
  1.85            1.5004e-009     0.0032345       3.9157e-005    
  1.9             1.4003e-009     0.0034325       3.5416e-005    
  1.95            1.4163e-009     0.0036293       3.1934e-005    
  2               1.2998e-009     0.0038212       2.7453e-005    
  2.05            1.5103e-009     0.0040121       2.2889e-005    
  2.1             1.4285e-009     0.0041966       1.8462e-005    
  2.15            1.4028e-009     0.004375        1.4616e-005    
  2.2             -1.3617e-009    0.004448        2.1621e-006    
  2.25            -1.4383e-009    0.0047841       1.9e-009       
  2.3             -1.4447e-009    0.005364        8.962e-010     
  2.35            1.4084e-009     0.0055208       -1.3349e-009   
  2.4             1.4192e-009     0.0056579       -6.868e-010    
  2.45            1.4091e-009     0.0057773       -7.448e-010    
  2.5             1.3531e-009     0.0058843       -8.001e-010    
  2.55            1.4054e-009     0.0059785       -8.482e-010    
  2.6             -1.4289e-009    0.0060666       1.3693e-009    
  2.65            -1.3874e-009    0.0061476       7.719e-010     
  2.7             -1.3661e-009    0.0062241       8.189e-010     
  2.75            1.4185e-009     0.0062888       -1.4017e-009   
  2.8             1.3933e-009     0.0063528       -7.674e-010    
  2.85            1.3243e-009     0.0064109       -8.186e-010    
  2.9             -1.4302e-009    0.0064693       1.366e-009     
  2.95            -1.4208e-009    0.0065236       7.323e-010     
  3               -1.3645e-009    0.0065755       7.84e-010      
  3.05            -1.3989e-009    0.0066251       8.287e-010     
  3.1             1.4202e-009     0.0066711       -1.4022e-009   
  3.15            1.3788e-009     0.0067185       -7.866e-010    
  3.2             1.3646e-009     0.0067623       -8.391e-010    
  3.25            -1.4307e-009    0.0068049       1.3721e-009    
  3.3             -1.4046e-009    0.0068444       7.477e-010     
  3.35            -1.3165e-009    0.0068874       7.998e-010     
  3.4             1.422e-009      0.0069241       -1.4013e-009   
  3.45            1.4099e-009     0.0069611       -7.524e-010    
  3.5             1.3545e-009     0.0069986       -8.064e-010    
  3.55            1.4e-009        0.0070344       -8.54e-010     
  3.6             -1.4308e-009    0.0070707       1.3638e-009    
  3.65            -1.391e-009     0.0071051       7.645e-010     
  3.7             -1.359e-009     0.0071394       8.119e-010     
  3.75            1.4224e-009     0.0071689       -1.4073e-009   
  3.8             1.3982e-009     0.0072004       -7.709e-010    
  3.85            1.3196e-009     0.0072297       -8.218e-010    
  3.9             -1.4351e-009    0.0072632       1.361e-009     
  3.95            -1.4206e-009    0.0072936       7.281e-010     
  4               -1.3668e-009    0.0073212       7.808e-010     
  4.05            -1.3943e-009    0.0073534       8.233e-010     
  4.1             1.4221e-009     0.0073805       -1.4061e-009   
  4.15            1.3824e-009     0.0074075       -7.878e-010    
  4.2             1.3588e-009     0.0074361       -8.383e-010    
  4.25            -1.4336e-009    0.0074644       1.3684e-009    
  4.3             -1.4121e-009    0.0074893       7.437e-010     
  4.35            -1.305e-009     0.0075161       7.943e-010     
  4.4             1.4229e-009     0.0075458       -1.3989e-009   
  4.45            1.4146e-009     0.0075719       -7.492e-010    
  4.5             1.3666e-009     0.0075982       -8.017e-010    
  4.55            1.3876e-009     0.0076247       -8.511e-010    
  4.6             -1.4328e-009    0.0076479       1.3612e-009    
  4.65            -1.398e-009     0.0076755       7.572e-010     
  4.7             -1.3475e-009    0.0076973       8.051e-010     
  4.75            1.422e-009      0.0077212       -1.4022e-009   
  4.8             1.4047e-009     0.0077459       -7.628e-010    
  4.85            1.3025e-009     0.0077687       -8.164e-010    
  4.9             -1.4291e-009    0.0077899       1.3581e-009    
  4.95            -1.4245e-009    0.0078148       7.204e-010     
  5               -1.3798e-009    0.0078358       7.723e-010     
END_DB

BEGIN_DB
 ICCAP_VAR VS         0              
 ICCAP_VAR VB         -2.5           
 ICCAP_VAR VD         0.1            
 ICCAP_VAR SUB        0              

 #VG              IG              ID              IB             
  0               1.809e-010      -1.3061e-009    8.893e-010     
  0.05            -1.4191e-009    5.808e-010      1.3617e-009    
  0.1             1.4055e-009     -1.363e-009     7.467e-010     
  0.15            6.961e-010      1.4689e-009     -7.594e-010    
  0.2             -1.4013e-009    6.641e-010      1.3135e-009    
  0.25            1.3793e-009     -1.4686e-009    8.034e-010     
  0.3             7.652e-010      1.4693e-009     -8.147e-010    
  0.35            1.4392e-009     -1.5074e-009    1.2361e-009    
  0.4             1.4037e-009     -1.4877e-009    1.3398e-009    
  0.45            1.4035e-009     -1.4339e-009    1.3863e-009    
  0.5             6.046e-010      1.5078e-009     -6.833e-010    
  0.55            -1.4204e-009    5.607e-010      1.3717e-009    
  0.6             -6.378e-010     -1.3947e-009    7.326e-010     
  0.65            6.801e-010      1.4697e-009     -1.3506e-009   
  0.7             -1.4118e-009    6.438e-010      1.3212e-009    
  0.75            1.3901e-009     -1.4447e-009    7.896e-010     
  0.8             7.494e-010      1.4706e-009     -8.013e-010    
  0.85            1.4427e-009     -1.4983e-009    1.2029e-009    
  0.9             1.3999e-009     -1.4942e-009    1.3209e-009    
  0.95            1.3936e-009     -1.4386e-009    1.3818e-009    
  1               5.822e-010      1.5227e-009     -6.696e-010    
  1.05            -1.4204e-009    5.883e-010      1.3734e-009    
  1.1             1.4047e-009     -1.0941e-009    7.158e-010     
  1.15            1.0243e-009     2.2227e-009     -7.299e-010    
  1.2             -1.4013e-009    5.3307e-009     1.3015e-009    
  1.25            1.5061e-009     2.1252e-008     1.3633e-009    
  1.3             -1.364e-009     7.6029e-008     1.3318e-009    
  1.35            5.992e-010      3.174e-007      -1.389e-009    
  1.4             -1.4062e-009    9.2063e-007     1.3617e-009    
  1.45            -1.1103e-009    3.034e-006      -1.3737e-009   
  1.5             1.3853e-009     9.0228e-006     -1.2524e-009   
  1.55            1.4067e-009     2.2567e-005     1.3079e-009    
  1.6             1.2947e-009     4.5961e-005     -7.961e-010    
  1.65            -1.4259e-009    7.1413e-005     1.3735e-009    
  1.7             -1.4234e-009    9.3509e-005     7.284e-010     
  1.75            -1.3853e-009    0.000111691     7.873e-010     
  1.8             -1.4165e-009    0.00012576      8.427e-010     
  1.85            -1.4325e-009    0.00013673      6.805e-010     
  1.9             -1.4259e-009    0.00014561      7.402e-010     
  1.95            -1.3756e-009    0.00015292      7.955e-010     
  2               -1.3927e-009    0.00015915      8.418e-010     
  2.05            1.4226e-009     0.00016445      -1.3872e-009   
  2.1             1.3935e-009     0.00016912      -7.677e-010    
  2.15            1.354e-009      0.00017338      -8.191e-010    
  2.2             -1.4369e-009    0.00017716      1.3853e-009    
  2.25            -1.4159e-009    0.00018067      7.542e-010     
  2.3             -1.2918e-009    0.00018387      8.091e-010     
  2.35            1.4148e-009     0.0001867       -1.3738e-009   
  2.4             1.4201e-009     0.00018949      -7.242e-010    
  2.45            1.3781e-009     0.00019202      -7.819e-010    
  2.5             1.3858e-009     0.0001944       -8.32e-010     
  2.55            -1.4323e-009    0.00019673      1.383e-009     
  2.6             -1.4043e-009    0.00019894      7.692e-010     
  2.65            -1.3313e-009    0.00020099      8.212e-010     
  2.7             1.4184e-009     0.00020295      -1.3853e-009   
  2.75            1.4111e-009     0.00020479      -7.41e-010     
  2.8             1.2879e-009     0.00020653      -7.947e-010    
  2.85            -1.4314e-009    0.00020833      1.3702e-009    
  2.9             -1.4323e-009    0.00021         7.271e-010     
  2.95            -1.3869e-009    0.00021152      7.84e-010      
  3               -1.3611e-009    0.0002131       8.349e-010     
  3.05            1.4215e-009     0.00021463      -1.3873e-009   
  3.1             1.4024e-009     0.00021608      -7.552e-010    
  3.15            1.323e-009      0.00021755      -8.096e-010    
  3.2             -1.4355e-009    0.00021891      1.3806e-009    
  3.25            -1.4239e-009    0.00022024      7.429e-010     
  3.3             -1.3713e-009    0.00022151      7.977e-010     
  3.35            -1.3931e-009    0.00022275      8.455e-010     
  3.4             1.4207e-009     0.00022395      -1.387e-009    
  3.45            1.3886e-009     0.00022518      -7.707e-010    
  3.5             1.3595e-009     0.00022628      -8.216e-010    
  3.55            -1.4337e-009    0.00022739      1.3834e-009    
  3.6             -1.4129e-009    0.00022857      7.57e-010      
  3.65            -1.3057e-009    0.00022967      8.119e-010     
  3.7             1.4169e-009     0.00023074      -1.3781e-009   
  3.75            1.4125e-009     0.00023174      -7.296e-010    
  3.8             1.372e-009      0.00023285      -7.859e-010    
  3.85            1.3917e-009     0.0002337       -8.339e-010    
  3.9             -1.4308e-009    0.00023483      1.384e-009     
  3.95            -1.3988e-009    0.00023579      7.738e-010     
  4               -1.341e-009     0.00023675      8.274e-010     
  4.05            1.4235e-009     0.00023759      -1.3871e-009   
