! VERSION = 6.00
BEGIN_HEADER
 ICCAP_INPUTS
  VG         V  B GROUND SMU4 0.001 LIN        2    0          5          6    1         
  VS         V  E GROUND SMU1 0.1 CON        0
  VD         V  S GROUND SMU3 0.1 LIN        1    0          5          101  0.05      
  VB         V  C GROUND SMU2 0.1 LIN        3    0          -2.5       2    -2.5      
  SUB        V  D GROUND VSU1 0.1 CON        0
 ICCAP_OUTPUTS
  ID         I  S GROUND SMU3 B
  IB         I  C GROUND SMU2 B
  IG         I  B GROUND SMU4 B
END_HEADER

BEGIN_DB
 ICCAP_VAR VG         0              
 ICCAP_VAR VS         0              
 ICCAP_VAR VB         0              
 ICCAP_VAR SUB        0              

 #VD              ID              IB              IG             
  0               -4.263e-010     1.4111e-009     -1.94e-010     
  0.05            -1.3492e-009    -6.955e-010     1.4126e-009    
  0.1             -7.359e-010     1.9156e-009     6.707e-010     
  0.15            1.3592e-009     7.567e-010      -1.4274e-009   
  0.2             8.148e-010      -1.9515e-009    -6.972e-010    
  0.25            -1.3065e-009    -7.959e-010     1.4042e-009    
  0.3             -7.894e-010     1.9341e-009     7.413e-010     
  0.35            1.3089e-009     8.537e-010      -1.3909e-009   
  0.4             8.657e-010      -1.967e-009     -7.593e-010    
  0.45            -1.213e-009     -3.649e-010     1.427e-009     
  0.5             1.3634e-009     4.776e-010      -1.4117e-009   
  0.55            -1.3786e-009    -5.469e-010     1.3871e-009    
  0.6             1.417e-009      6.46e-010       -1.4243e-009   
  0.65            7.499e-010      -1.6336e-009    -9.71e-010     
  0.7             -1.3281e-009    -7.514e-010     1.4128e-009    
  0.75            -7.64e-010      1.926e-009      7.099e-010     
  0.8             1.3323e-009     8.101e-010      -1.4136e-009   
  0.85            8.434e-010      -1.9647e-009    -7.325e-010    
  0.9             -1.1536e-009    1.9455e-009     7.621e-010     
  0.95            1.2412e-009     3.655e-010      -1.4465e-009   
  1               -1.2991e-009    -4.439e-010     1.3979e-009    
  1.05            1.4135e-009     5.485e-010      -1.4105e-009   
  1.1             6.741e-010      -1.7977e-009    -9.118e-010    
  1.15            -1.3756e-009    -6.37e-010      1.4074e-009    
  1.2             -6.979e-010     1.6152e-009     9.873e-010     
  1.25            1.3571e-009     7.651e-010      -1.4284e-009   
  1.3             8.205e-010      -1.9575e-009    -7.008e-010    
  1.35            -1.3001e-009    -8.009e-010     1.4035e-009    
  1.4             -7.899e-010     1.9421e-009     7.451e-010     
  1.45            1.3091e-009     8.66e-010       -1.3923e-009   
  1.5             8.704e-010      -1.9726e-009    -7.636e-010    
  1.55            -1.2179e-009    -3.733e-010     1.4232e-009    
  1.6             1.3653e-009     4.839e-010      -1.4089e-009   
  1.65            -1.3784e-009    -5.544e-010     1.3904e-009    
  1.7             -6.401e-010     1.7533e-009     9.393e-010     
  1.75            1.4066e-009     6.725e-010      -1.4298e-009   
  1.8             7.691e-010      -1.5912e-009    -9.913e-010    
  1.85            -1.3072e-009    -7.787e-010     1.4091e-009    
  1.9             -7.783e-010     1.939e-009      7.312e-010     
  1.95            1.3208e-009     8.386e-010      -1.3982e-009   
  2               8.606e-010      -1.9742e-009    -7.496e-010    
  2.05            -1.1903e-009    -3.497e-010     1.4306e-009    
  2.1             1.3479e-009     4.639e-010      -1.417e-009    
  2.15            -1.3681e-009    -5.345e-010     1.3918e-009    
  2.2             1.4227e-009     6.304e-010      -1.4249e-009   
  2.25            7.442e-010      -1.6505e-009    -9.635e-010    
  2.3             -1.3308e-009    -7.39e-010      1.4165e-009    
  2.35            -7.564e-010     1.9265e-009     7.013e-010     
  2.4             1.3432e-009     7.99e-010       -1.4178e-009   
  2.45            8.396e-010      -1.9666e-009    -7.231e-010    
  2.5             -1.1388e-009    1.9405e-009     7.524e-010     
  2.55            1.3103e-009     8.749e-010      -1.3817e-009   
  2.6             8.757e-010      -1.9724e-009    -7.718e-010    
  2.65            -1.2336e-009    -3.84e-010      1.4214e-009    
  2.7             1.3757e-009     4.948e-010      -1.4101e-009   
  2.75            -1.379e-009     -5.637e-010     1.3956e-009    
  2.8             -6.487e-010     1.7358e-009     9.446e-010     
  2.85            1.3994e-009     6.838e-010      -1.4312e-009   
  2.9             7.756e-010      -1.5737e-009    -9.976e-010    
  2.95            -1.3047e-009    -7.923e-010     1.4034e-009    
  3               -7.831e-010     1.9346e-009     7.396e-010     
  3.05            1.3203e-009     8.544e-010      -1.3943e-009   
  3.1             8.648e-010      -1.974e-009     -7.559e-010    
  3.15            -1.2061e-009    -3.605e-010     1.4273e-009    
  3.2             1.3616e-009     4.745e-010      -1.4085e-009   
  3.25            -1.3723e-009    -5.435e-010     1.393e-009     
  3.3             1.4192e-009     6.409e-010      -1.4268e-009   
  3.35            7.525e-010      -1.6321e-009    -9.706e-010    
  3.4             -1.3199e-009    -7.477e-010     1.415e-009     
  3.45            -7.607e-010     1.9299e-009     7.078e-010     
  3.5             1.3352e-009     8.105e-010      -1.414e-009    
  3.55            8.461e-010      -1.9718e-009    -7.319e-010    
  3.6             -1.1536e-009    -3.21e-010      1.4423e-009    
  3.65            1.3271e-009     4.342e-010      -1.4214e-009   
  3.7             -1.3483e-009    -5.063e-010     1.3931e-009    
  3.75            1.4235e-009     6.039e-010      -1.4244e-009   
  3.8             7.263e-010      -1.6937e-009    -9.442e-010    
  3.85            -1.3433e-009    -7.028e-010     1.4165e-009    
  3.9             -7.372e-010     1.9252e-009     6.809e-010     
  3.95            1.3583e-009     7.631e-010      -1.4301e-009   
  4               8.24e-010       -1.9623e-009    -7.023e-010    
  4.05            -1.2978e-009    -8.015e-010     1.4042e-009    
  4.1             -7.901e-010     1.9429e-009     7.48e-010      
  4.15            1.3113e-009     8.62e-010       -1.3878e-009   
  4.2             8.696e-010      -1.9806e-009    -7.669e-010    
  4.25            -1.2237e-009    -3.726e-010     1.4176e-009    
  4.3             1.3709e-009     4.862e-010      -1.4089e-009   
  4.35            -1.377e-009     -5.524e-010     1.3945e-009    
  4.4             1.4148e-009     6.534e-010      -1.4268e-009   
  4.45            7.571e-010      -1.6192e-009    -9.744e-010    
  4.5             -1.3192e-009    -7.568e-010     1.4128e-009    
  4.55            -7.662e-010     1.9279e-009     7.148e-010     
  4.6             1.3339e-009     8.182e-010      -1.413e-009    
  4.65            8.474e-010      -1.9622e-009    -7.339e-010    
  4.7             -1.16e-009      -3.249e-010     1.4434e-009    
  4.75            1.3239e-009     4.424e-010      -1.4195e-009   
  4.8             -1.356e-009     -5.071e-010     1.3866e-009    
  4.85            1.4306e-009     6.095e-010      -1.4154e-009   
  4.9             7.243e-010      -1.7027e-009    -9.506e-010    
  4.95            -1.3461e-009    -7.034e-010     1.4111e-009    
  5               -7.373e-010     1.9176e-009     6.8e-010       
END_DB

BEGIN_DB
 ICCAP_VAR VG         1              
 ICCAP_VAR VS         0              
 ICCAP_VAR VB         0              
 ICCAP_VAR SUB        0              

 #VD              ID              IB              IG             
  0               7.6033e-008     1.4037e-009     -2.636e-010    
  0.05            3.8633e-005     1.7552e-009     -1.4142e-009   
  0.1             6.3521e-005     1.8722e-009     8.918e-010     
  0.15            7.7394e-005     -1.4434e-009    1.4044e-009    
  0.2             8.2014e-005     -1.9665e-009    -7.741e-010    
  0.25            8.9371e-005     1.3154e-009     -1.4213e-009   
  0.3             0.000100988     1.6709e-009     9.748e-010     
  0.35            0.00011558      -2.0334e-009    1.3686e-009    
  0.4             0.00013125      -1.969e-009     1.4048e-009    
  0.45            0.00014785      -1.7392e-009    -8.116e-010    
  0.5             0.00016493      1.7824e-009     -1.4373e-009   
  0.55            0.00018274      2.489e-009      7.945e-010     
  0.6             0.00020106      -6.505e-010     1.3846e-009    
  0.65            0.00021934      -1.2961e-009    1.4135e-009    
  0.7             0.00023774      -6.33e-010      1.3921e-009    
  0.75            0.00025631      -7.12e-010      1.3875e-009    
  0.8             0.00027503      -1.94e-010      1.3876e-009    
  0.85            0.00029377      -1.803e-010     1.3904e-009    
  0.9             0.00031267      -1.714e-010     1.393e-009     
  0.95            0.00033194      -1.619e-010     1.3929e-009    
  1               0.00035099      -1.512e-010     1.3932e-009    
  1.05            0.00037011      2.478e-009      1.4373e-009    
  1.1             0.00038935      2.551e-009      1.4462e-009    
  1.15            0.00040868      1.8763e-009     1.3902e-009    
  1.2             0.00042809      2.1485e-009     1.3914e-009    
  1.25            0.00044772      5.649e-010      -8.97e-010     
  1.3             0.0004675       8.17e-009       -1.4036e-009   
  1.35            0.00048766      1.9945e-008     1.3844e-009    
  1.4             0.00050904      5.4707e-008     -1.2287e-009   
  1.45            0.0005317       1.8156e-007     -1.418e-009    
  1.5             0.00055494      3.6393e-007     1.1454e-009    
  1.55            0.00057982      7.3571e-007     1.395e-009     
  1.6             0.00060551      1.0999e-006     -1.4392e-009   
  1.65            0.00063189      1.6831e-006     6.494e-010     
  1.7             0.00065947      2.2623e-006     1.4083e-009    
  1.75            0.00068585      2.7545e-006     -1.1365e-009   
  1.8             0.00071287      3.5525e-006     -1.4077e-009   
  1.85            0.00074026      4.1632e-006     9.175e-010     
  1.9             0.00076743      4.8925e-006     1.409e-009     
  1.95            0.00079524      5.3948e-006     -1.0323e-009   
  2               0.00082264      6.2222e-006     -1.4464e-009   
  2.05            0.00085036      6.8433e-006     8.657e-010     
  2.1             0.00087786      7.4746e-006     1.3919e-009    
  2.15            0.00090592      7.929e-006      -9.612e-010    
  2.2             0.00093335      8.6696e-006     -1.4186e-009   
  2.25            0.00096134      9.1229e-006     1.1606e-009    
  2.3             0.00098875      9.9209e-006     1.3942e-009    
  2.35            0.00101617      1.04383e-005    -9.101e-010    
  2.4             0.00104339      1.11236e-005    -1.4239e-009   
  2.45            0.00107135      1.1677e-005     1.5104e-009    
  2.5             0.00109834      1.2395e-005     -7.507e-010    
  2.55            0.00112591      1.299e-005      -1.4258e-009   
  2.6             0.0011545       1.3435e-005     -1.4075e-009   
  2.65            0.0011808       1.4152e-005     9.333e-010     
  2.7             0.0012074       1.486e-005      1.4157e-009    
  2.75            0.0012347       1.5222e-005     -1.0648e-009   
  2.8             0.0012612       1.6074e-005     -1.429e-009    
  2.85            0.0012878       1.6633e-005     8.845e-010     
  2.9             0.001314        1.7261e-005     1.3972e-009    
  2.95            0.0013408       1.7619e-005     -9.814e-010    
  3               0.0013671       1.84e-005       -1.4044e-009   
  3.05            0.0013935       1.8758e-005     1.2036e-009    
  3.1             0.0014194       1.9539e-005     1.3889e-009    
  3.15            0.0014451       1.9943e-005     -9.269e-010    
  3.2             0.0014706       2.0604e-005     -1.4279e-009   
  3.25            0.0014967       2.0938e-005     1.0897e-009    
  3.3             0.0015221       2.1705e-005     1.4099e-009    
  3.35            0.0015474       2.2146e-005     -8.759e-010    
  3.4             0.0015724       2.2667e-005     -1.416e-009    
  3.45            0.0015979       2.3007e-005     1.0027e-009    
  3.5             0.0016232       2.3707e-005     1.3935e-009    
  3.55            0.0016484       2.3923e-005     -1.2077e-009   
  3.6             0.0016729       2.4676e-005     -1.4038e-009   
  3.65            0.0016974       2.4988e-005     9.469e-010     
  3.7             0.0017218       2.5569e-005     1.4154e-009    
  3.75            0.0017467       2.5724e-005     -1.0857e-009   
  3.8             0.0017707       2.6455e-005     -1.4219e-009   
  3.85            0.0017947       2.681e-005      8.97e-010      
  3.9             0.0018186       2.7298e-005     1.4011e-009    
  3.95            0.0018429       2.7407e-005     -9.981e-010    
  4               0.0018661       2.8081e-005     -1.3978e-009   
  4.05            0.0018902       2.8203e-005     1.2358e-009    
  4.1             0.0019135       2.8846e-005     1.3885e-009    
  4.15            0.0019367       2.9022e-005     -9.387e-010    
  4.2             0.0019592       2.9532e-005     -1.4287e-009   
  4.25            0.0019828       2.9654e-005     1.1104e-009    
  4.3             0.0020057       3.0273e-005     1.405e-009     
  4.35            0.0020286       3.0501e-005     -8.876e-010    
  4.4             0.0020509       3.0887e-005     -1.4197e-009   
  4.45            0.0020738       3.0973e-005     1.0229e-009    
  4.5             0.0020959       3.1557e-005     1.3803e-009    
  4.55            0.0021187       3.1544e-005     -1.239e-009    
  4.6             0.00214         3.2148e-005     -1.4089e-009   
  4.65            0.002162        3.2238e-005     9.568e-010     
  4.7             0.0021832       3.2696e-005     1.4155e-009    
  4.75            0.0022055       3.262e-005      -1.1077e-009   
  4.8             0.0022266       3.3232e-005     -1.4138e-009   
  4.85            0.002248        3.3373e-005     9.072e-010     
  4.9             0.0022686       3.3708e-005     1.4078e-009    
  4.95            0.0022903       3.3598e-005     -1.0178e-009   
  5               0.0023108       3.4153e-005     -1.3797e-009   
END_DB

BEGIN_DB
 ICCAP_VAR VG         2              
 ICCAP_VAR VS         0              
 ICCAP_VAR VB         0              
 ICCAP_VAR SUB        0              

 #VD              ID              IB              IG             
  0               1.0505e-007     1.7198e-009     -2.108e-010    
  0.05            0.0001263       9.459e-010      -1.4464e-009   
  0.1             0.00025105      1.9578e-009     7.754e-010     
  0.15            0.00037429      -1.3138e-009    1.4016e-009    
  0.2             0.00049583      -2.0871e-009    1.4279e-009    
  0.25            0.00061523      -1.9821e-009    -7.758e-010    
  0.3             0.00073241      1.3554e-009     -1.3977e-009   
  0.35            0.00084732      2.0819e-009     -1.4271e-009   
  0.4             0.00096005      1.9607e-009     8.121e-010     
  0.45            0.00107029      -1.3584e-009    1.4349e-009    
  0.5             0.0011784       1.949e-009      7.449e-010     
  0.55            0.0012836       -1.2815e-009    1.417e-009     
  0.6             0.0013862       -2.0715e-009    1.3888e-009    
  0.65            0.0014858       -2.0849e-009    1.415e-009     
  0.7             0.0015827       -1.9832e-009    -7.974e-010    
  0.75            0.0016768       1.3789e-009     -1.4451e-009   
  0.8             0.0017685       1.9539e-009     7.796e-010     
  0.85            0.0018577       -1.316e-009     1.398e-009     
  0.9             0.0019443       -2.0867e-009    1.4206e-009    
  0.95            0.0020292       -1.9876e-009    -7.834e-010    
  1               0.00211         1.3566e-009     -1.3926e-009   
  1.05            0.0021886       2.0752e-009     -1.4233e-009   
  1.1             0.0022647       1.9567e-009     8.134e-010     
  1.15            0.0023394       -1.3616e-009    1.4279e-009    
  1.2             0.0024107       -1.9838e-009    -7.699e-010    
  1.25            0.002479        1.3397e-009     -1.404e-009    
  1.3             0.0025461       2.0876e-009     -1.4315e-009   
  1.35            0.0026111       1.9617e-009     7.996e-010     
  1.4             0.0026744       -1.3421e-009    1.3808e-009    
  1.45            0.0027346       -2.0827e-009    1.4124e-009    
  1.5             0.0027928       -1.9797e-009    -8.029e-010    
  1.55            0.002848        1.3837e-009     -1.4404e-009   
  1.6             0.0029023       1.9624e-009     7.859e-010     
  1.65            0.0029555       -1.3217e-009    1.3972e-009    
  1.7             0.0030056       -2.0847e-009    1.4165e-009    
  1.75            0.003054        -1.9832e-009    -7.878e-010    
  1.8             0.0030991       1.3686e-009     -1.3914e-009   
  1.85            0.0031437       2.0749e-009     -1.4223e-009   
  1.9             0.0031865       1.9546e-009     8.179e-010     
  1.95            0.0032287       -1.366e-009     1.4254e-009    
  2               0.0032675       -1.9806e-009    -7.725e-010    
  2.05            0.0033031       1.3456e-009     -1.4002e-009   
  2.1             0.0033385       2.0805e-009     -1.4292e-009   
  2.15            0.0033724       1.9574e-009     8.048e-010     
  2.2             0.0034059       -1.3476e-009    1.4376e-009    
  2.25            0.0034355       -1.9838e-009    -7.583e-010    
  2.3             0.003462        1.3294e-009     -1.4159e-009   
  2.35            0.0034885       2.0828e-009     -1.436e-009    
  2.4             0.003514        1.9584e-009     7.888e-010     
  2.45            0.0035394       -1.3296e-009    1.3895e-009    
  2.5             0.003561        -2.0855e-009    1.4144e-009    
  2.55            0.0035807       -1.982e-009     -7.928e-010    
  2.6             0.0035967       1.3702e-009     -1.3809e-009   
  2.65            0.0036138       2.0744e-009     -1.4212e-009   
  2.7             0.00363         1.9523e-009     8.214e-010     
  2.75            0.0036467       -1.3739e-009    1.4268e-009    
  2.8             0.0036017       -1.7449e-009    -7.785e-010    
  2.85            0.0035573       2.0864e-009     -1.3953e-009   
  2.9             0.0035262       2.3769e-009     1.0773e-009    
  2.95            0.0035017       -5.3e-012       1.4366e-009    
  3               0.0034789       -4.464e-010     1.4082e-009    
  3.05            0.0034587       2.3987e-009     1.1896e-009    
  3.1             0.0034399       1.9494e-009     1.4217e-009    
  3.15            0.0034217       1.947e-009      1.4164e-009    
  3.2             0.0034047       1.9524e-009     1.4164e-009    
  3.25            0.0033873       1.9563e-009     1.4114e-009    
  3.3             0.0033708       1.9543e-009     1.4097e-009    
  3.35            0.0033545       1.9424e-009     1.3939e-009    
  3.4             0.003339        1.9517e-009     1.3837e-009    
  3.45            0.0033229       1.9541e-009     1.3896e-009    
  3.5             0.0033079       1.9617e-009     1.3937e-009    
  3.55            0.0032945       1.9692e-009     1.3926e-009    
  3.6             0.0032818       1.9669e-009     1.3913e-009    
  3.65            0.0032687       1.9676e-009     1.3938e-009    
  3.7             0.0032572       1.9652e-009     1.3939e-009    
  3.75            0.0032464       1.961e-009      1.3946e-009    
  3.8             0.0032364       1.9552e-009     1.3949e-009    
  3.85            0.0032273       1.9454e-009     1.3951e-009    
  3.9             0.00322         1.9484e-009     1.3971e-009    
  3.95            0.0032121       1.9742e-009     1.3973e-009    
  4               0.0032057       1.9428e-009     1.3989e-009    
  4.05            0.0032          2.5138e-009     1.3928e-009    
