! VERSION = 6.00
BEGIN_HEADER
 ICCAP_INPUTS
  VG         V  B GROUND SMU4 0.001 LIN        1    0          -5         101  -0.05     
  VS         V  E GROUND SMU3 0.1 CON        0
  VB         V  C GROUND SMU1 0.1 LIN        3    0          5          3    2.5       
  VD         V  S GROUND SMU2 0.1 LIN        2    -0.1       -10        2    -9.9      
 ICCAP_OUTPUTS
  IG         I  B GROUND SMU4 B
  ID         I  S GROUND SMU2 B
  IB         I  C GROUND SMU1 B
END_HEADER

BEGIN_DB
 ICCAP_VAR VS         0              
 ICCAP_VAR VB         0              
 ICCAP_VAR VD         -0.1           

 #VG              IG              ID              IB             
  0               -1.578e-010     2.2835e-009     -1.7813e-009   
  -0.05           6.118e-010      2.4942e-009     -2.0181e-009   
  -0.1            -1.2837e-009    -2.0111e-009    2.3269e-009    
  -0.15           9.665e-010      2.3087e-009     -3.7819e-009   
  -0.2            -1.126e-009     -2.1501e-009    2.1299e-009    
  -0.25           8.643e-010      2.3488e-009     -3.758e-009    
  -0.3            -9.943e-010     -2.2673e-009    2.8537e-009    
  -0.35           1.2725e-009     2.0274e-009     -3.7193e-009   
  -0.4            -8.848e-010     -2.3396e-009    2.6236e-009    
  -0.45           1.1307e-009     2.1601e-009     -3.7348e-009   
  -0.5            -1.3858e-009    -1.9255e-009    2.4282e-009    
  -0.55           1.7039e-009     -7.292e-010     -3.7489e-009   
  -0.6            7.79e-010       2.3708e-009     1.3196e-009    
  -0.65           -8.978e-010     -2.3511e-009    2.6388e-009    
  -0.7            1.773e-009      -3.546e-010     -3.6409e-009   
  -0.75           -1.5735e-009    8.023e-010      3.8352e-009    
  -0.8            -1.0411e-009    -3.4406e-009    3.402e-010     
  -0.85           1.6551e-009     -6.1138e-009    -2.7046e-009   
  -0.9            1.6656e-009     -1.5525e-008    3.9024e-009    
  -0.95           -1.7359e-009    -6.0011e-008    3.845e-009     
  -1              1.6183e-009     -1.9689e-007    -3.747e-010    
  -1.05           1.1848e-009     -5.2347e-007    -7.82e-011     
  -1.1            -1.7165e-009    -1.163e-006     -2.6426e-009   
  -1.15           -9.061e-010     -2.2382e-006    -2.256e-010    
  -1.2            1.6186e-009     -3.7284e-006    -2.7225e-009   
  -1.25           1.1864e-009     -5.476e-006     -1.006e-010    
  -1.3            -1.72e-009      -7.2886e-006    3.3925e-009    
  -1.35           -9.038e-010     -9.1567e-006    -2.434e-010    
  -1.4            1.6218e-009     -1.09479e-005   -2.7378e-009   
  -1.45           1.5732e-009     -1.2606e-005    1.9302e-009    
  -1.5            1.288e-009      -1.4156e-005    -5.291e-010    
  -1.55           -1.7051e-009    -1.557e-005     3.247e-009     
  -1.6            -9.693e-010     -1.6944e-005    -8.09e-011     
  -1.65           1.582e-009      -1.8242e-005    -2.5976e-009   
  -1.7            1.2744e-009     -1.9452e-005    -5.069e-010    
  -1.75           -1.7069e-009    -2.0563e-005    3.2582e-009    
  -1.8            -9.664e-010     -2.1652e-005    -9.97e-011     
  -1.85           1.583e-009      -2.2714e-005    -2.6096e-009   
  -1.9            1.2634e-009     -2.3687e-005    -4.499e-010    
  -1.95           -1.7058e-009    -2.4595e-005    3.2765e-009    
  -2              -9.583e-010     -2.5492e-005    -1.141e-010    
  -2.05           1.5883e-009     -2.634e-005     -2.625e-009    
  -2.1            1.2554e-009     -2.7156e-005    -4.043e-010    
  -2.15           -1.7101e-009    -2.7925e-005    3.2912e-009    
  -2.2            -9.552e-010     -2.8673e-005    -1.274e-010    
  -2.25           1.5933e-009     -2.9395e-005    -2.646e-009    
  -2.3            1.2466e-009     -3.0097e-005    -3.512e-010    
  -2.35           -1.7101e-009    -3.0747e-005    3.3107e-009    
  -2.4            -9.451e-010     -3.1388e-005    -1.526e-010    
  -2.45           1.5991e-009     -3.2016e-005    -2.6573e-009   
  -2.5            1.2395e-009     -3.2618e-005    -3.234e-010    
  -2.55           -1.7139e-009    -3.3179e-005    3.3238e-009    
  -2.6            -9.393e-010     -3.3736e-005    -1.615e-010    
  -2.65           1.6022e-009     -3.4284e-005    -2.6742e-009   
  -2.7            1.2264e-009     -3.4819e-005    -2.643e-010    
  -2.75           -1.7148e-009    -3.53e-005      3.3405e-009    
  -2.8            -9.318e-010     -3.5794e-005    -1.76e-010     
  -2.85           1.6119e-009     -3.6274e-005    -2.6879e-009   
  -2.9            1.2205e-009     -3.6741e-005    -2.266e-010    
  -2.95           -1.7224e-009    -3.7194e-005    3.3533e-009    
  -3              -9.237e-010     -3.7636e-005    -1.928e-010    
  -3.05           1.6112e-009     -3.8045e-005    -2.6977e-009   
  -3.1            1.2114e-009     -3.8476e-005    -1.952e-010    
  -3.15           -1.7184e-009    -3.8862e-005    3.3637e-009    
  -3.2            -9.205e-010     -3.9241e-005    -2.083e-010    
  -3.25           1.6129e-009     -3.9625e-005    -2.7047e-009   
  -3.3            1.2035e-009     -4.0013e-005    -1.583e-010    
  -3.35           -1.7202e-009    -4.0367e-005    3.375e-009     
  -3.4            -9.132e-010     -4.0741e-005    -2.192e-010    
  -3.45           1.616e-009      -4.1067e-005    -2.7194e-009   
  -3.5            1.1964e-009     -4.1417e-005    -1.302e-010    
  -3.55           -1.7214e-009    -4.1727e-005    3.3868e-009    
  -3.6            -9.098e-010     -4.2069e-005    -2.366e-010    
  -3.65           1.6177e-009     -4.2372e-005    -2.7259e-009   
  -3.7            1.1868e-009     -4.2661e-005    -1.015e-010    
  -3.75           -1.7245e-009    -4.2966e-005    3.3921e-009    
  -3.8            -9.032e-010     -4.3282e-005    -2.438e-010    
  -3.85           1.6243e-009     -4.3534e-005    -2.7396e-009   
  -3.9            1.1814e-009     -4.3818e-005    -6.48e-011     
  -3.95           -1.7246e-009    -4.4094e-005    3.4054e-009    
  -4              -8.958e-010     -4.4358e-005    -2.634e-010    
  -4.05           1.6247e-009     -4.4606e-005    -2.7466e-009   
  -4.1            1.1728e-009     -4.4885e-005    -2.5e-011      
  -4.15           -1.7287e-009    -4.5129e-005    3.4203e-009    
  -4.2            -8.929e-010     -4.5376e-005    -2.693e-010    
  -4.25           1.6292e-009     -4.5604e-005    -2.7624e-009   
  -4.3            1.1671e-009     -4.5844e-005    -3.1e-012      
  -4.35           -1.7281e-009    -4.6068e-005    3.4278e-009    
  -4.4            -8.837e-010     -4.6298e-005    -2.952e-010    
  -4.45           1.6306e-009     -4.6508e-005    -2.774e-009    
  -4.5            1.1585e-009     -4.6745e-005    3.18e-011      
  -4.55           -1.7301e-009    -4.6953e-005    3.4375e-009    
  -4.6            -8.797e-010     -4.7172e-005    -3.011e-010    
  -4.65           1.6343e-009     -4.736e-005     -2.781e-009    
  -4.7            1.1526e-009     -4.7564e-005    6.43e-011      
  -4.75           -1.7327e-009    -4.7766e-005    3.4505e-009    
  -4.8            -8.691e-010     -4.7963e-005    -3.227e-010    
  -4.85           1.6371e-009     -4.8124e-005    -2.7988e-009   
  -4.9            1.1451e-009     -4.8349e-005    1.011e-010     
  -4.95           -1.7368e-009    -4.852e-005     3.4571e-009    
  -5              -8.683e-010     -4.8692e-005    -3.371e-010    
END_DB

BEGIN_DB
 ICCAP_VAR VS         0              
 ICCAP_VAR VB         0              
 ICCAP_VAR VD         -10            

 #VG              IG              ID              IB             
  0               -1.4316e-009    -2.1558e-009    2.6038e-009    
  -0.05           1.6769e-009     -8.776e-010     -3.5532e-009   
  -0.1            9.24e-010       2.3372e-009     6.894e-010     
  -0.15           -1.0659e-009    -2.2014e-009    3.0035e-009    
  -0.2            1.363e-009      1.9396e-009     -3.7812e-009   
  -0.25           -9.515e-010     -2.3182e-009    2.7536e-009    
  -0.3            1.2128e-009     2.0784e-009     -3.6471e-009   
  -0.35           -8.412e-010     -2.3671e-009    2.547e-009     
  -0.4            1.0889e-009     2.2031e-009     -3.7147e-009   
  -0.45           -1.3177e-009    -1.9746e-009    2.3651e-009    
  -0.5            9.878e-010      2.3037e-009     -3.7397e-009   
  -0.55           -1.154e-009     -2.1216e-009    2.1549e-009    
  -0.6            8.858e-010      2.3333e-009     -3.7445e-009   
  -0.65           -1.0128e-009    -2.3031e-009    2.8735e-009    
  -0.7            1.6711e-009     -1.6651e-009    -2.7601e-009   
  -0.75           -1.619e-009     8.007e-010      9.362e-010     
  -0.8            -9.801e-010     -5.9719e-009    1.894e-010     
  -0.85           -1.7179e-009    -1.5445e-008    -2.9236e-009   
  -0.9            -9.227e-010     -5.2157e-008    -1.621e-010    
  -0.95           1.686e-009      -1.6338e-007    2.0558e-009    
  -1              9.631e-010      -4.5316e-007    1.1665e-009    
  -1.05           -1.6696e-009    -1.06247e-006   4.3631e-009    
  -1.1            1.6854e-009     -2.2206e-006    4.1564e-009    
  -1.15           5.628e-010      -3.9016e-006    4.5876e-009    
  -1.2            -1.6457e-009    -6.2678e-006    6.9417e-009    
  -1.25           -1.2209e-009    -9.3508e-006    4.5932e-009    
  -1.3            -7.055e-010     -1.3167e-005    9.3614e-009    
  -1.35           1.6843e-009     -1.7703e-005    3.8911e-009    
  -1.4            -1.7021e-009    -2.2788e-005    1.2737e-008    
  -1.45           -1.2015e-009    -2.8595e-005    8.479e-009     
  -1.5            8.681e-010      -3.5055e-005    1.5071e-008    
  -1.55           -1.665e-009     -4.1995e-005    1.7138e-008    
  -1.6            -1.3296e-009    -4.9585e-005    1.2867e-008    
  -1.65           1.6243e-009     -5.7801e-005    1.2236e-008    
  -1.7            1.3485e-009     -6.6469e-005    1.9004e-008    
  -1.75           -1.6699e-009    -7.5528e-005    2.1516e-008    
  -1.8            -1.3332e-009    -8.5099e-005    1.7105e-008    
  -1.85           1.6278e-009     -9.5415e-005    1.6033e-008    
  -1.9            1.3413e-009     -0.000105975    2.2335e-008    
  -1.95           1.7191e-009     -0.00011692     2.3845e-008    
  -2              9.544e-010      -0.00012822     2.3632e-008    
  -2.05           -1.5913e-009    -0.00013984     2.533e-008     
  -2.1            -1.5039e-009    -0.00015198     2.0649e-008    
  -2.15           1.7238e-009     -0.00016454     1.8576e-008    
  -2.2            9.526e-010      -0.00017747     2.4226e-008    
  -2.25           -1.5959e-009    -0.00019055     2.5531e-008    
  -2.3            -1.494e-009     -0.00020418     2.043e-008     
  -2.35           1.5539e-009     -0.00021817     1.8062e-008    
  -2.4            1.4963e-009     -0.00023253     2.1864e-008    
  -2.45           5.383e-010      -0.00024706     2.384e-008     
  -2.5            -1.5792e-009    -0.00026175     2.3681e-008    
  -2.55           -1.5266e-009    -0.00027702     1.8786e-008    
  -2.6            -4.981e-010     -0.00029258     1.6067e-008    
  -2.65           1.7267e-009     -0.00030842     1.3849e-008    
  -2.7            9.354e-010      -0.00032455     2.0632e-008    
  -2.75           -1.6101e-009    -0.00034068     2.1339e-008    
  -2.8            -1.4673e-009    -0.00035754     1.5699e-008    
  -2.85           1.5714e-009     -0.00037456     1.3024e-008    
  -2.9            1.4683e-009     -0.00039176     1.6769e-008    
  -2.95           5.282e-010      -0.00040931     1.8298e-008    
  -3              -1.589e-009     -0.00042703     1.7935e-008    
  -3.05           -1.496e-009     -0.00044504     1.2703e-008    
  -3.1            1.7207e-009     -0.0004633      9.917e-009     
  -3.15           9.516e-010      -0.00048206     1.497e-008     
  -3.2            -1.5963e-009    -0.00050076     1.5734e-008    
  -3.25           -1.4962e-009    -0.00051987     1.0217e-008    
  -3.3            6.231e-010      -0.0005399      1.4194e-008    
  -3.35           -1.7312e-009    -0.00055935     1.3421e-008    
  -3.4            7.204e-010      -0.00057928     1.3306e-008    
  -3.45           -1.7178e-009    -0.00059925     1.2387e-008    
  -3.5            8.329e-010      -0.00061925     1.1897e-008    
  -3.55           -1.6861e-009    -0.00063939     1.1824e-008    
  -3.6            -1.6281e-009    -0.00066049     1.145e-008     
  -3.65           -1.7402e-009    -0.00068096     1.0925e-008    
  -3.7            -1.7178e-009    -0.00070178     1.0511e-008    
  -3.75           -1.673e-009     -0.00072295     9.746e-009     
  -3.8            1.7011e-009     -0.00074447     2.1281e-009    
  -3.85           9.075e-010      -0.00076599     5.9704e-009    
  -3.9            -1.7005e-009    -0.00078659     8.2841e-009    
  -3.95           -1.0831e-009    -0.00080846     4.3139e-009    
  -4              1.6995e-009     -0.00082992     1.4768e-009    
  -4.05           9.074e-010      -0.00085171     4.6862e-009    
  -4.1            -1.7008e-009    -0.00087438     7.0667e-009    
  -4.15           -1.0781e-009    -0.00089649     3.1559e-009    
  -4.2            1.7007e-009     -0.00091861     3.923e-010     
  -4.25           -1.7436e-009    -0.0009401      6.085e-009     
  -4.3            -8.217e-010     -0.0009607      1.8646e-009    
  -4.35           1.7538e-009     -0.00098253     -1.4956e-009   
  -4.4            -1.6759e-009    -0.00100526     5.6965e-009    
  -4.45           -1.1489e-009    -0.00102899     2.0671e-009    
  -4.5            1.6706e-009     -0.00105604     -2.0327e-009   
  -4.55           -1.7207e-009    -0.00107721     4.7203e-009    
  -4.6            -9.882e-010     -0.00110583     1.2971e-009    
  -4.65           1.6965e-009     -0.00113122     -2.4123e-009   
  -4.7            1.7007e-009     -0.0011587      4.8079e-009    
  -4.75           -1.7492e-009    -0.0011829      4.5701e-009    
  -4.8            -8.117e-010     -0.001206       4.149e-010     
  -4.85           1.7534e-009     -0.0012295      -2.7982e-009   
  -4.9            -1.6843e-009    -0.0012582      4.5119e-009    
  -4.95           -1.13e-009      -0.0012816      9.212e-010     
  -5              1.6713e-009     -0.0013077      -3.0575e-009   
END_DB

BEGIN_DB
 ICCAP_VAR VS         0              
 ICCAP_VAR VB         2.5            
 ICCAP_VAR VD         -0.1           

 #VG              IG              ID              IB             
  0               1.5264e-009     5.732e-010      5.768e-010     
  -0.05           -9.693e-010     -2.3039e-009    2.7808e-009    
  -0.1            1.2285e-009     2.0521e-009     -3.6896e-009   
  -0.15           -8.633e-010     -2.3769e-009    2.5673e-009    
  -0.2            1.0986e-009     2.1882e-009     -3.6864e-009   
  -0.25           -1.3396e-009    -1.955e-009     2.385e-009     
  -0.3            9.994e-010      2.3142e-009     -3.7061e-009   
  -0.35           -1.1695e-009    -2.098e-009     2.1844e-009    
  -0.4            8.989e-010      2.3662e-009     -3.7695e-009   
  -0.45           -1.0332e-009    -2.2398e-009    2.9042e-009    
  -0.5            1.3126e-009     1.9754e-009     -3.7488e-009   
  -0.55           -9.208e-010     -2.3493e-009    2.67e-009      
  -0.6            1.1605e-009     2.1148e-009     -3.6921e-009   
  -0.65           -8.109e-010     -2.3846e-009    2.4854e-009    
  -0.7            1.0477e-009     2.2587e-009     -3.6884e-009   
  -0.75           -1.258e-009     -2.0248e-009    2.293e-009     
  -0.8            9.496e-010      2.3502e-009     -3.7326e-009   
  -0.85           -1.1022e-009    -2.1635e-009    3.0521e-009    
  -0.9            8.442e-010      2.3768e-009     -3.7782e-009   
  -0.95           -9.749e-010     -2.3018e-009    2.7834e-009    
  -1              1.2354e-009     2.044e-009      -3.6726e-009   
  -1.05           -8.682e-010     -2.3782e-009    2.5771e-009    
  -1.1            1.1012e-009     2.1883e-009     -3.6812e-009   
  -1.15           -1.3503e-009    -1.9495e-009    2.3923e-009    
  -1.2            9.97e-010       2.3064e-009     -3.6782e-009   
  -1.25           -1.1578e-009    -2.1002e-009    2.1701e-009    
  -1.3            8.766e-010      2.3355e-009     -3.7238e-009   
  -1.35           -1.0142e-009    -2.3938e-009    2.8614e-009    
  -1.4            1.6821e-009     -2.2098e-009    -2.7547e-009   
  -1.45           8.567e-010      -1.3153e-009    9.122e-010     
  -1.5            1.616e-009      -1.6885e-008    1.2355e-009    
  -1.55           1.2174e-009     -6.1725e-008    -2.502e-010    
  -1.6            -5.26e-010      -2.1327e-007    3.7703e-009    
  -1.65           1.5795e-009     -5.8682e-007    -3.3493e-009   
  -1.7            -1.7216e-009    -1.2982e-006    -5.209e-010    
  -1.75           -9.553e-010     -2.4304e-006    -1.253e-010    
  -1.8            1.5993e-009     -3.9286e-006    -2.6422e-009   
  -1.85           1.2413e-009     -5.6126e-006    -3.791e-010    
  -1.9            -1.7208e-009    -7.2678e-006    3.2925e-009    
  -1.95           -9.453e-010     -8.9078e-006    -1.501e-010    
  -2              1.6105e-009     -1.045e-005     -2.6723e-009   
  -2.05           1.6698e-009     -1.1859e-005    1.712e-009     
  -2.1            1.1146e-009     -1.3175e-005    1.964e-010     
  -2.15           -1.7259e-009    -1.4387e-005    3.4705e-009    
  -2.2            -8.454e-010     -1.5565e-005    -4e-010        
  -2.25           1.672e-009      -1.6675e-005    -2.8825e-009   
  -2.3            1.0957e-009     -1.7711e-005    2.669e-010     
  -2.35           -1.7304e-009    -1.8681e-005    3.4931e-009    
  -2.4            -8.343e-010     -1.9639e-005    -4.393e-010    
  -2.45           1.6769e-009     -2.0541e-005    -2.8982e-009   
  -2.5            1.088e-009      -2.1403e-005    3.197e-010     
  -2.55           -1.7331e-009    -2.2216e-005    3.5144e-009    
  -2.6            -8.208e-010     -2.3018e-005    -4.752e-010    
  -2.65           1.6807e-009     -2.3776e-005    -2.919e-009    
  -2.7            1.0725e-009     -2.4515e-005    3.845e-010     
  -2.75           -1.7333e-009    -2.5203e-005    3.5371e-009    
  -2.8            -8.063e-010     -2.5894e-005    -5.159e-010    
  -2.85           1.683e-009      -2.6542e-005    -2.9369e-009   
  -2.9            1.0583e-009     -2.7173e-005    4.35e-010      
  -2.95           -1.5898e-009    -2.7783e-005    3.565e-009     
  -3              -1.3153e-009    -2.8377e-005    6.262e-010     
  -3.05           1.6461e-009     -2.8958e-005    -3.527e-009    
  -3.1            1.163e-009      -2.951e-005     -3.64e-011     
  -3.15           -1.7239e-009    -3.0041e-005    3.39e-009      
  -3.2            -8.875e-010     -3.0567e-005    -2.84e-010     
  -3.25           1.6521e-009     -3.1068e-005    -2.7991e-009   
  -3.3            1.1504e-009     -3.1559e-005    2.95e-011      
  -3.35           -1.7258e-009    -3.2041e-005    3.4109e-009    
  -3.4            -8.764e-010     -3.2502e-005    -3.159e-010    
  -3.45           1.659e-009      -3.2958e-005    -2.8261e-009   
  -3.5            1.1367e-009     -3.3392e-005    1.056e-010     
  -3.55           -1.7251e-009    -3.3815e-005    3.4386e-009    
  -3.6            -8.625e-010     -3.4224e-005    -3.511e-010    
  -3.65           1.668e-009      -3.4635e-005    -2.8481e-009   
  -3.7            1.1194e-009     -3.5027e-005    1.855e-010     
  -3.75           -1.7261e-009    -3.5409e-005    3.4595e-009    
  -3.8            -8.491e-010     -3.5798e-005    -3.925e-010    
  -3.85           1.67e-009       -3.6149e-005    -2.8769e-009   
  -3.9            1.1031e-009     -3.6541e-005    2.412e-010     
  -3.95           -1.7297e-009    -3.6871e-005    3.4853e-009    
  -4              -8.361e-010     -3.7215e-005    -4.222e-010    
  -4.05           1.6762e-009     -3.7547e-005    -2.8965e-009   
  -4.1            1.0905e-009     -3.7869e-005    3.164e-010     
  -4.15           -1.7279e-009    -3.8194e-005    3.507e-009     
