! VERSION = 6.00
BEGIN_HEADER
 ICCAP_INPUTS
  VG         V  B GROUND SMU4 0.001 LIN        1    0          -5         101  -0.05     
  VS         V  E GROUND SMU2 0.1 CON        0
  VB         V  C GROUND SMU3 0.1 LIN        3    0          5          3    2.5       
  VD         V  S GROUND SMU1 0.1 LIN        2    -0.1       -5         2    -4.9      
 ICCAP_OUTPUTS
  IG         I  B GROUND SMU4 B
  ID         I  S GROUND SMU1 B
  IB         I  C GROUND SMU3 B
END_HEADER

BEGIN_DB
 ICCAP_VAR VS         0              
 ICCAP_VAR VB         0              
 ICCAP_VAR VD         -0.1           

 #VG              IG              ID              IB             
  0               -1.1585e-009    -1.0226e-009    -8.674e-009    
  -0.05           -7.862e-010     -2.0764e-009    -9.592e-009    
  -0.1            1.9661e-009     -1.5283e-009    -1.5499e-008   
  -0.15           5.864e-010      2.1469e-009     -7.633e-009    
  -0.2            -2.0142e-009    1.4045e-009     2.2615e-008    
  -0.25           -1.4059e-009    -1.8131e-009    4.39e-009      
  -0.3            2.511e-009      -1.2971e-009    -2.4047e-008   
  -0.35           6.84e-010       2.1611e-009     7.35e-009      
  -0.4            -1.8476e-009    1.4796e-009     1.8659e-008    
  -0.45           -6.3e-010       -2.0865e-009    4.943e-009     
  -0.5            -8.071e-010     -2.0722e-009    -9.391e-009    
  -0.55           1.9162e-009     -1.5452e-009    -1.4601e-008   
  -0.6            6.085e-010      2.1488e-009     -7.89e-009     
  -0.65           7.664e-010      2.1492e-009     8.477e-009     
  -0.7            -1.6948e-009    1.4853e-009     1.5731e-008    
  -0.75           -1.5922e-009    -1.808e-009     5.242e-009     
  -0.8            2.262e-009      -2.319e-009     -2.0609e-008   
  -0.85           1.9349e-009     -2.8657e-009    -5.618e-009    
  -0.9            -2.2542e-009    -1.3377e-008    -2.4219e-008   
  -0.95           -1.6418e-009    -4.6685e-008    2.55e-009      
  -1              1.488e-010      -1.5681e-007    -7.486e-009    
  -1.05           -2.2485e-009    -4.6351e-007    1.385e-008     
  -1.1            -2.1377e-009    -1.122e-006     -1.6392e-008   
  -1.15           2.1592e-009     -2.3098e-006    -2.3971e-008   
  -1.2            2.4601e-009     -3.9768e-006    -6.216e-009    
  -1.25           -1.4442e-009    -6.0125e-006    1.7948e-008    
  -1.3            -2.5657e-009    -8.2806e-006    6.619e-009     
  -1.35           2.356e-009      -1.065e-005     -1.6081e-008   
  -1.4            -2.1788e-009    -1.2814e-005    -5.058e-009    
  -1.45           -1.5358e-009    -1.4953e-005    3.243e-009     
  -1.5            -2.5598e-009    -1.6951e-005    5.904e-009     
  -1.55           2.4582e-009     -1.8876e-005    -1.5219e-008   
  -1.6            7.365e-010      -2.0628e-005    1.0243e-008    
  -1.65           -1.4141e-009    -2.2298e-005    1.6895e-008    
  -1.7            -2.5647e-009    -2.3887e-005    7.052e-009     
  -1.75           2.3183e-009     -2.5439e-005    -1.662e-008    
  -1.8            1.5419e-009     -2.6883e-005    -5.036e-009    
  -1.85           2.6138e-009     -2.8264e-005    -8.772e-009    
  -1.9            -2.2319e-009    -2.957e-005     1.4133e-008    
  -1.95           -1.5857e-009    -3.0849e-005    2.939e-009     
  -2              -2.5553e-009    -3.2062e-005    5.628e-009     
  -2.05           -8.374e-010     -3.3241e-005    -1.0779e-008   
  -2.1            2.6699e-009     -3.4392e-005    -1.39e-008     
  -2.15           -1.6207e-009    -3.5435e-005    2.2513e-008    
  -2.2            -2.5511e-009    -3.6485e-005    5.581e-009     
  -2.25           2.511e-009      -3.7504e-005    -1.4463e-008   
  -2.3            -2.4573e-009    -3.8465e-005    1.2698e-008    
  -2.35           -2.0087e-009    -3.9408e-005    1.542e-009     
  -2.4            -1.4056e-009    -4.0316e-005    4.284e-009     
  -2.45           -2.5691e-009    -4.1185e-005    7.034e-009     
  -2.5            2.309e-009      -4.2046e-005    -1.6615e-008   
  -2.55           1.5487e-009     -4.288e-005     -5.127e-009    
  -2.6            2.6169e-009     -4.3694e-005    -8.793e-009    
  -2.65           -2.2232e-009    -4.4441e-005    1.4252e-008    
  -2.7            -1.5898e-009    -4.522e-005     2.901e-009     
  -2.75           -2.5528e-009    -4.5948e-005    5.711e-009     
  -2.8            -8.332e-010     -4.6672e-005    -1.0716e-008   
  -2.85           2.6667e-009     -4.7394e-005    -1.3941e-008   
  -2.9            -1.6234e-009    -4.8041e-005    2.2277e-008    
  -2.95           -2.5534e-009    -4.8701e-005    5.508e-009     
  -3              -8.196e-010     -4.9353e-005    -1.0694e-008   
  -3.05           2.6682e-009     -5.0001e-005    -1.4065e-008   
  -3.1            -1.6478e-009    -5.0577e-005    2.273e-008     
  -3.15           -2.5514e-009    -5.1186e-005    5.424e-009     
  -3.2            -8.147e-010     -5.1777e-005    -1.0753e-008   
  -3.25           2.67e-009       -5.2362e-005    -1.4448e-008   
  -3.3            -1.6553e-009    -5.2883e-005    2.3125e-008    
  -3.35           -2.5506e-009    -5.3429e-005    5.471e-009     
  -3.4            -8.093e-010     -5.3956e-005    -1.0797e-008   
  -3.45           2.6715e-009     -5.4502e-005    -1.465e-008    
  -3.5            -1.6707e-009    -5.4979e-005    2.3359e-008    
  -3.55           -2.5426e-009    -5.548e-005     5.482e-009     
  -3.6            2.5352e-009     -5.5957e-005    -1.3611e-008   
  -3.65           -2.4683e-009    -5.6457e-005    1.3629e-008    
  -3.7            -2.0493e-009    -5.6893e-005    1.442e-009     
  -3.75           -1.4376e-009    -5.7345e-005    4.214e-009     
  -3.8            -2.5655e-009    -5.7789e-005    6.734e-009     
  -3.85           -9.324e-010     -5.823e-005     -1.0304e-008   
  -3.9            2.632e-009      -5.8688e-005    -1.1382e-008   
  -3.95           -1.4635e-009    -5.9082e-005    1.8031e-008    
  -4              -2.5646e-009    -5.9473e-005    6.709e-009     
  -4.05           2.3683e-009     -5.9876e-005    -1.609e-008    
  -4.1            1.6301e-009     -6.0275e-005    -4.431e-009    
  -4.15           2.6046e-009     -6.0659e-005    -8.828e-009    
  -4.2            -2.2731e-009    -6.1025e-005    1.3644e-008    
  -4.25           -1.6545e-009    -6.1416e-005    2.485e-009     
  -4.3            -2.5483e-009    -6.1767e-005    5.302e-009     
  -4.35           2.5316e-009     -6.2115e-005    -1.377e-008    
  -4.4            -2.4701e-009    -6.2495e-005    1.3519e-008    
  -4.45           -2.0512e-009    -6.2831e-005    1.459e-009     
  -4.5            -1.4349e-009    -6.3163e-005    4.259e-009     
  -4.55           -2.5682e-009    -6.3486e-005    6.734e-009     
  -4.6            2.3577e-009     -6.3799e-005    -1.6133e-008   
  -4.65           1.6072e-009     -6.4115e-005    -4.67e-009     
  -4.7            2.6064e-009     -6.4431e-005    -8.893e-009    
  -4.75           -2.266e-009     -6.4718e-005    1.388e-008     
  -4.8            -1.6422e-009    -6.5042e-005    2.84e-009      
  -4.85           -2.5486e-009    -6.5335e-005    5.48e-009      
  -4.9            -8.065e-010     -6.563e-005     -1.077e-008    
  -4.95           2.6745e-009     -6.5931e-005    -1.4775e-008   
  -5              -1.5073e-009    -6.617e-005     1.7653e-008    
END_DB

BEGIN_DB
 ICCAP_VAR VS         0              
 ICCAP_VAR VB         0              
 ICCAP_VAR VD         -5             

 #VG              IG              ID              IB             
  0               -1.2122e-009    -1.0704e-009    -7.921e-009    
  -0.05           -3.735e-010     -2.0798e-009    -1.0978e-008   
  -0.1            -5.736e-010     -2.0859e-009    -1.0777e-008   
  -0.15           2.2934e-009     -1.4274e-009    -2.1195e-008   
  -0.2            3.813e-010      2.1055e-009     -5.245e-009    
  -0.25           5.587e-010      2.1463e-009     1.0211e-008    
  -0.3            7.177e-010      2.1625e-009     9.031e-009     
  -0.35           -1.7874e-009    1.5004e-009     1.7532e-008    
  -0.4            -6.716e-010     -2.0846e-009    5.028e-009     
  -0.45           -8.371e-010     -2.0641e-009    -9.138e-009    
  -0.5            1.8581e-009     -1.5534e-009    -1.3811e-008   
  -0.55           6.334e-010      2.1518e-009     -8.167e-009    
  -0.6            -1.9287e-009    1.4341e-009     2.0535e-008    
  -0.65           -1.4559e-009    -1.787e-009     4.87e-009      
  -0.7            2.4604e-009     -1.4434e-009    -2.3628e-008   
  -0.75           4.971e-010      1.7126e-009     1.0356e-008    
  -0.8            -2.1213e-009    -2.3073e-009    1.6706e-008    
  -0.85           -1.8661e-009    -7.1005e-009    3.46e-009      
  -0.9            -1.9702e-009    -2.5556e-008    -2.0789e-008   
  -0.95           -1.3857e-009    -9.0386e-008    4.674e-009     
  -1              4.841e-010      -2.9078e-007    -9.971e-009    
  -1.05           8.678e-010      -7.9812e-007    9.648e-009     
  -1.1            -2.3098e-009    -1.812e-006     -1.7256e-008   
  -1.15           1.8012e-009     -3.5777e-006    -2.0517e-008   
  -1.2            2.5658e-009     -6.1042e-006    -8.389e-009    
  -1.25           -2.3625e-009    -9.4286e-006    1.2916e-008    
  -1.3            2.0007e-009     -1.3794e-005    -1.1475e-008   
  -1.35           9.562e-010      -1.8979e-005    8.777e-009     
  -1.4            -2.3809e-009    -2.4948e-005    1.2902e-008    
  -1.45           -1.8268e-009    -3.1905e-005    1.853e-009     
  -1.5            -2.502e-009     -3.9645e-005    5.197e-009     
  -1.55           -6.815e-010     -4.8296e-005    -1.1151e-008   
  -1.6            -1.0456e-009    -5.7605e-005    -8.866e-009    
  -1.65           2.5553e-009     -6.798e-005     -1.3736e-008   
  -1.7            6.478e-010      -7.8603e-005    1.0615e-008    
  -1.75           -1.5233e-009    -9.0028e-005    2.0264e-008    
  -1.8            -2.5525e-009    -0.000102274    5.983e-009     
  -1.85           -1.4523e-009    -0.00011494     -2.3588e-008   
  -1.9            2.1299e-009     -0.00012911     -2.4296e-008   
  -1.95           2.478e-009      -0.0001433      -6.535e-009    
  -2              -1.4161e-009    -0.00015769     1.71e-008      
  -2.05           -2.5541e-009    -0.00017299     6.668e-009     
  -2.1            -9.406e-010     -0.000189       -1.0108e-008   
  -2.15           2.431e-010      -0.00020579     -1.0677e-008   
  -2.2            2.6735e-009     -0.00022261     -1.7902e-008   
  -2.25           -1.7233e-009    -0.00023956     2.4926e-008    
  -2.3            -2.5333e-009    -0.00025746     5.21e-009      
  -2.35           2.6473e-009     -0.00027643     -1.1195e-008   
  -2.4            -1.4653e-009    -0.00029459     1.8538e-008    
  -2.45           -2.5516e-009    -0.00031394     6.295e-009     
  -2.5            -9.047e-010     -0.00033381     -1.0494e-008   
  -2.55           2.6513e-009     -0.00035427     -1.173e-008    
  -2.6            -1.5013e-009    -0.00037422     1.9366e-008    
  -2.65           -2.5558e-009    -0.00039505     6.101e-009     
  -2.7            -8.854e-010     -0.0004166      -1.0698e-008   
  -2.75           2.6585e-009     -0.00043873     -1.2144e-008   
  -2.8            -1.5294e-009    -0.00046019     2.0315e-008    
  -2.85           -2.554e-009     -0.00048265     5.931e-009     
  -2.9            2.4684e-009     -0.00050592     -1.5402e-008   
  -2.95           -2.4362e-009    -0.00052814     1.2417e-008    
  -3              -1.9308e-009    -0.00055162     1.543e-009     
  -3.05           -1.3513e-009    -0.00057524     4.935e-009     
  -3.1            -2.5539e-009    -0.00059902     7.223e-009     
  -3.15           -9.859e-010     -0.00062353     -9.798e-009    
  -3.2            1.993e-010      -0.00064851     -9.948e-009    
  -3.25           2.664e-009      -0.00067337     -1.8905e-008   
  -3.3            -1.6425e-009    -0.00069758     2.2979e-008    
  -3.35           -2.5447e-009    -0.00072284     5.536e-009     
  -3.4            2.5335e-009     -0.0007488      -1.4332e-008   
  -3.45           -2.4637e-009    -0.00077401     1.3025e-008    
  -3.5            -2.0486e-009    -0.00080018     1.527e-009     
  -3.55           -1.4217e-009    -0.00082632     4.429e-009     
  -3.6            -2.5552e-009    -0.00085304     6.652e-009     
  -3.65           2.3724e-009     -0.00088123     -1.6397e-008   
  -3.7            1.6047e-009     -0.00090793     -4.791e-009    
  -3.75           2.597e-009      -0.00093498     -8.824e-009    
  -3.8            -2.2858e-009    -0.00096192     1.3995e-008    
  -3.85           -1.663e-009     -0.00099024     2.496e-009     
  -3.9            -2.538e-009     -0.00101857     5.325e-009     
  -3.95           -7.862e-010     -0.00104714     -1.1039e-008   
  -4              2.6661e-009     -0.00107551     -1.5066e-008   
  -4.05           -1.7055e-009    -0.00110314     2.4399e-008    
  -4.1            -2.5349e-009    -0.00113173     5.277e-009     
  -4.15           -1.485e-009     -0.00116        -1.732e-008    
  -4.2            -2.5574e-009    -0.0011889      6.305e-009     
  -4.25           -8.95e-010      -0.0012181      -1.0466e-008   
  -4.3            2.6531e-009     -0.0012478      -1.2033e-008   
  -4.35           -1.5204e-009    -0.0012762      1.9799e-008    
  -4.4            -2.5554e-009    -0.0013055      6.08e-009      
  -4.45           2.4584e-009     -0.001336       -1.5756e-008   
  -4.5            7.429e-010      -0.0013653      1.0378e-008    
  -4.55           -1.3994e-009    -0.001394       1.6574e-008    
  -4.6            -2.5562e-009    -0.0014241      6.783e-009     
  -4.65           -9.49e-010      -0.0014541      -1.0137e-008   
  -4.7            2.29e-010       -0.001485       -1.0622e-008   
  -4.75           2.6726e-009     -0.0015152      -1.8205e-008   
  -4.8            -1.7106e-009    -0.0015442      2.4411e-008    
  -4.85           -2.5388e-009    -0.0015745      5.254e-009     
  -4.9            -7.699e-010     -0.0016052      -1.1055e-008   
  -4.95           2.6733e-009     -0.0016356      -1.599e-008    
  -5              -1.556e-009     -0.0016651      1.7078e-008    
END_DB

BEGIN_DB
 ICCAP_VAR VS         0              
 ICCAP_VAR VB         2.5            
 ICCAP_VAR VD         -0.1           

 #VG              IG              ID              IB             
  0               1.144e-009      1.1204e-009     6.53e-009      
  -0.05           -1.876e-009     1.4645e-009     1.9346e-008    
  -0.1            -6.05e-010      -2.0801e-009    5.202e-009     
  -0.15           -7.878e-010     -2.0618e-009    -9.51e-009     
  -0.2            1.9634e-009     -1.5235e-009    -1.5382e-008   
  -0.25           5.799e-010      2.1372e-009     -7.711e-009    
  -0.3            -2.0394e-009    1.3953e-009     2.3061e-008    
  -0.35           -1.3987e-009    -1.8361e-009    4.779e-009     
  -0.4            2.4138e-009     -5.661e-010     -1.7068e-008   
  -0.45           2.885e-010      2.0751e-009     -4.288e-009    
  -0.5            4.684e-010      2.1204e-009     1.0535e-008    
  -0.55           -2.1842e-009    5.415e-010      1.6314e-008    
  -0.6            -1.2936e-009    -1.9194e-009    3.39e-009      
  -0.65           2.6121e-009     -1.1993e-009    -2.4727e-008   
  -0.7            -1.7347e-009    1.5142e-009     1.6544e-008    
  -0.75           -6.979e-010     -2.0744e-009    5.197e-009     
  -0.8            2.1435e-009     -1.477e-009     -1.8487e-008   
  -0.85           4.798e-010      2.1234e-009     -6.642e-009    
  -0.9            -2.1723e-009    5.482e-010      1.6473e-008    
  -0.95           -1.3054e-009    -1.9143e-009    3.501e-009     
  -1              2.5196e-009     -4.774e-010     -1.7044e-008   
  -1.05           4.469e-010      2.1168e-009     1.0576e-008    
  -1.1            -2.2154e-009    5.242e-010      1.6122e-008    
  -1.15           -1.2712e-009    -1.9355e-009    3.367e-009     
  -1.2            2.5491e-009     -4.423e-010     -1.6813e-008   
  -1.25           -1.5911e-009    1.586e-009      1.3556e-008    
  -1.3            -7.949e-010     -2.0746e-009    5.668e-009     
  -1.35           1.9657e-009     -1.5838e-009    -1.5168e-008   
  -1.4            5.823e-010      1.856e-009      -7.687e-009    
  -1.45           -2.4254e-009    -2.0721e-009    8.726e-009     
  -1.5            -2.2816e-009    -7.2567e-009    1.5e-009       
  -1.55           2.6292e-009     -3.0886e-008    1.0266e-008    
  -1.6            -6.767e-010     -1.2463e-007    1.2598e-008    
  -1.65           1.7099e-009     -4.2533e-007    -1.8904e-008   
  -1.7            2.5811e-009     -1.10153e-006   -8.7e-009      
  -1.75           1.21e-009       -2.319e-006     5.439e-009     
  -1.8            -2.026e-009     -3.9768e-006    1.5662e-008    
  -1.85           -1.3993e-009    -6.0005e-006    4.635e-009     
  -1.9            -2.5533e-009    -8.1419e-006    6.746e-009     
  -1.95           2.3494e-009     -1.02625e-005   -1.6421e-008   
  -2              -1.437e-009     -1.2165e-005    8.932e-009     
  -2.05           -2.5571e-009    -1.3988e-005    6.622e-009     
  -2.1            2.389e-009      -1.574e-005     -1.6233e-008   
  -2.15           1.6555e-009     -1.7342e-005    -4.22e-009     
  -2.2            2.5918e-009     -1.8862e-005    -8.845e-009    
  -2.25           -2.3058e-009    -2.0262e-005    1.3556e-008    
  -2.3            -1.7034e-009    -2.1644e-005    2.505e-009     
  -2.35           -2.5296e-009    -2.2947e-005    5.414e-009     
  -2.4            -7.638e-010     -2.4211e-005    -1.1103e-008   
  -2.45           -1.1026e-009    -2.54e-005      -8.517e-009    
  -2.5            8.63e-011       -2.659e-005     -8.567e-009    
  -2.55           2.6281e-009     -2.7681e-005    -2.1175e-008   
  -2.6            -1.4591e-009    -2.873e-005     1.8111e-008    
  -2.65           -2.5611e-009    -2.9746e-005    6.589e-009     
  -2.7            2.388e-009      -3.0758e-005    -1.5944e-008   
  -2.75           1.651e-009      -3.1716e-005    -4.406e-009    
  -2.8            2.5905e-009     -3.2649e-005    -8.831e-009    
  -2.85           -2.2986e-009    -3.3516e-005    1.3363e-008    
  -2.9            -1.7049e-009    -3.4399e-005    2.331e-009     
  -2.95           -2.533e-009     -3.5244e-005    5.236e-009     
  -3              -7.616e-010     -3.6064e-005    -1.0832e-008   
  -3.05           2.6721e-009     -3.688e-005     -1.6243e-008   
  -3.1            -1.5839e-009    -3.7619e-005    1.7236e-008    
  -3.15           -2.5506e-009    -3.8376e-005    5.758e-009     
  -3.2            2.4913e-009     -3.9118e-005    -1.4712e-008   
  -3.25           -2.4429e-009    -3.9801e-005    1.1976e-008    
  -3.3            -1.9969e-009    -4.0511e-005    1.487e-009     
  -3.35           -1.3979e-009    -4.1184e-005    4.659e-009     
  -3.4            -2.5611e-009    -4.1835e-005    7.121e-009     
  -3.45           2.3314e-009     -4.248e-005     -1.6423e-008   
  -3.5            1.5737e-009     -4.3109e-005    -4.943e-009    
  -3.55           2.6076e-009     -4.372e-005     -8.901e-009    
  -3.6            -2.2571e-009    -4.429e-005     1.3753e-008    
  -3.65           -1.63e-009      -4.4883e-005    2.695e-009     
  -3.7            -2.5434e-009    -4.5448e-005    5.369e-009     
  -3.75           2.221e-010      -4.603e-005     -1.066e-008    
  -3.8            2.6622e-009     -4.6545e-005    -1.8439e-008   
  -3.85           -1.7034e-009    -4.7055e-005    2.4271e-008    
  -3.9            -2.5357e-009    -4.7588e-005    5.456e-009     
  -3.95           -7.735e-010     -4.8097e-005    -1.1091e-008   
  -4              2.6651e-009     -4.861e-005     -1.5986e-008   
  -4.05           -1.5641e-009    -4.9059e-005    1.7194e-008    
  -4.1            -2.5546e-009    -4.9529e-005    5.935e-009     
  -4.15           2.4931e-009     -4.9995e-005    -1.5158e-008   
